! NanoVNA-App
! Date: 2025-09-25 14:59:05
! Start: 100MHz Stop: 1,5GHz Points: 101
! S-Parameter data: F S11 S21 S12 S22
# Hz S RI R 50
!     Frequency           S11_Real           S11_Imag           S21_Real           S21_Imag           S12_Real           S12_Imag           S22_Real           S22_Imag
      100000000    3,557474911e-02    2,736374363e-02    4,407888353e-01   -6,695797443e-01    0,000000000e+00    0,000000000e+00    0,000000000e+00    0,000000000e+00
      114000000    6,069845706e-02    2,159076277e-03    1,280557457e-02   -7,954036593e-01    0,000000000e+00    0,000000000e+00    0,000000000e+00    0,000000000e+00
      128000000    6,840322167e-02   -4,231645912e-02   -4,081906378e-01   -6,780605912e-01    0,000000000e+00    0,000000000e+00    0,000000000e+00    0,000000000e+00
      142000000    4,347344488e-02   -8,878425509e-02   -7,051781416e-01   -3,608899713e-01    0,000000000e+00    0,000000000e+00    0,000000000e+00    0,000000000e+00
      156000000   -9,463042952e-03   -1,100745127e-01   -7,929145694e-01    6,790225953e-02    0,000000000e+00    0,000000000e+00    0,000000000e+00    0,000000000e+00
      170000000   -6,264175475e-02   -9,175635129e-02   -6,370235682e-01    4,863092005e-01    0,000000000e+00    0,000000000e+00    0,000000000e+00    0,000000000e+00
      184000000   -8,862983435e-02   -4,767822474e-02   -2,732724249e-01    7,562755346e-01    0,000000000e+00    0,000000000e+00    0,000000000e+00    0,000000000e+00
      198000000   -8,276330680e-02   -6,445332430e-03    1,794375330e-01    7,820534706e-01    0,000000000e+00    0,000000000e+00    0,000000000e+00    0,000000000e+00
      212000000   -6,266929209e-02    1,800017245e-02    5,710519552e-01    5,584350228e-01    0,000000000e+00    0,000000000e+00    0,000000000e+00    0,000000000e+00
      226000000   -4,151555523e-02    3,179544955e-02    7,767566442e-01    1,618663222e-01    0,000000000e+00    0,000000000e+00    0,000000000e+00    0,000000000e+00
      240000000   -1,492424589e-02    4,131539166e-02    7,360643744e-01   -2,786325514e-01    0,000000000e+00    0,000000000e+00    0,000000000e+00    0,000000000e+00
      254000000    2,143306471e-02    3,631237149e-02    4,683492184e-01   -6,222283840e-01    0,000000000e+00    0,000000000e+00    0,000000000e+00    0,000000000e+00
      268000000    5,328121036e-02    4,727513529e-03    6,671672314e-02   -7,676287889e-01    0,000000000e+00    0,000000000e+00    0,000000000e+00    0,000000000e+00
      282000000    5,734824389e-02   -4,492407292e-02   -3,456215262e-01   -6,821441054e-01    0,000000000e+00    0,000000000e+00    0,000000000e+00    0,000000000e+00
      296000000    2,605561912e-02   -8,476725221e-02   -6,551124454e-01   -3,977501392e-01    0,000000000e+00    0,000000000e+00    0,000000000e+00    0,000000000e+00
      310000000   -1,895575412e-02   -8,969603479e-02   -7,749049664e-01    9,889567271e-03    0,000000000e+00    0,000000000e+00    0,000000000e+00    0,000000000e+00
      324000000   -4,664928094e-02   -6,345974654e-02   -6,487732530e-01    4,297811091e-01    0,000000000e+00    0,000000000e+00    0,000000000e+00    0,000000000e+00
      338000000   -4,113535956e-02   -3,770694882e-02   -3,130944669e-01    7,090409994e-01    0,000000000e+00    0,000000000e+00    0,000000000e+00    0,000000000e+00
      352000000   -2,357454412e-02   -3,776121140e-02    1,197932884e-01    7,589784861e-01    0,000000000e+00    0,000000000e+00    0,000000000e+00    0,000000000e+00
      366000000   -2,307066880e-02   -5,619926751e-02    5,029450059e-01    5,710622072e-01    0,000000000e+00    0,000000000e+00    0,000000000e+00    0,000000000e+00
      380000000   -4,493183270e-02   -6,531868875e-02    7,262144089e-01    2,112652808e-01    0,000000000e+00    0,000000000e+00    0,000000000e+00    0,000000000e+00
      394000000   -6,652636826e-02   -5,103933811e-02    7,225354314e-01   -2,137189507e-01    0,000000000e+00    0,000000000e+00    0,000000000e+00    0,000000000e+00
      408000000   -6,755875051e-02   -2,655385435e-02    4,895039797e-01   -5,688859820e-01    0,000000000e+00    0,000000000e+00    0,000000000e+00    0,000000000e+00
      422000000   -5,346185341e-02   -1,528466586e-02    1,046772599e-01   -7,384631634e-01    0,000000000e+00    0,000000000e+00    0,000000000e+00    0,000000000e+00
      436000000   -4,687523469e-02   -1,863355003e-02   -3,062493205e-01   -6,758604050e-01    0,000000000e+00    0,000000000e+00    0,000000000e+00    0,000000000e+00
      450000000   -5,212112144e-02   -1,484989375e-02   -6,189150214e-01   -3,996046484e-01    0,000000000e+00    0,000000000e+00    0,000000000e+00    0,000000000e+00
      464000000   -5,055258423e-02    6,154031493e-03   -7,299450636e-01    3,669064492e-03    0,000000000e+00    0,000000000e+00    0,000000000e+00    0,000000000e+00
      478000000   -2,022089809e-02    2,625590935e-02   -5,982248187e-01    3,971839547e-01    0,000000000e+00    0,000000000e+00    0,000000000e+00    0,000000000e+00
      492000000    2,895611711e-02    1,446593925e-02   -2,801229060e-01    6,438894272e-01    0,000000000e+00    0,000000000e+00    0,000000000e+00    0,000000000e+00
      506000000    5,877418071e-02   -3,750917315e-02    1,050422341e-01    6,808065176e-01    0,000000000e+00    0,000000000e+00    0,000000000e+00    0,000000000e+00
      520000000    4,478054494e-02   -1,028905138e-01    4,438618422e-01    5,189968944e-01    0,000000000e+00    0,000000000e+00    0,000000000e+00    0,000000000e+00
      534000000   -1,258473843e-02   -1,444629878e-01    6,491850019e-01    2,054900527e-01    0,000000000e+00    0,000000000e+00    0,000000000e+00    0,000000000e+00
      548000000   -8,160562068e-02   -1,396199167e-01    6,599700451e-01   -1,761717200e-01    0,000000000e+00    0,000000000e+00    0,000000000e+00    0,000000000e+00
      562000000   -1,313028485e-01   -9,788708389e-02    4,505524039e-01   -5,085015893e-01    0,000000000e+00    0,000000000e+00    0,000000000e+00    0,000000000e+00
      576000000   -1,496812254e-01   -3,866152093e-02    8,135152608e-02   -6,600450873e-01    0,000000000e+00    0,000000000e+00    0,000000000e+00    0,000000000e+00
      590000000   -1,296717227e-01    2,983358316e-02   -2,953860462e-01   -5,644714236e-01    0,000000000e+00    0,000000000e+00    0,000000000e+00    0,000000000e+00
      604000000   -3,724931553e-02    6,815005839e-02   -4,872009158e-01   -2,700388730e-01    0,000000000e+00    0,000000000e+00    0,000000000e+00    0,000000000e+00
      618000000    3,402037174e-02   -3,122387640e-02   -4,939322174e-01   -5,192203075e-02    0,000000000e+00    0,000000000e+00    0,000000000e+00    0,000000000e+00
      632000000   -5,322150886e-02   -9,189768136e-02   -5,264973044e-01    1,774545908e-01    0,000000000e+00    0,000000000e+00    0,000000000e+00    0,000000000e+00
      646000000   -9,983204305e-02   -3,302716836e-02   -3,800203800e-01    4,769988954e-01    0,000000000e+00    0,000000000e+00    0,000000000e+00    0,000000000e+00
      660000000   -6,810794026e-02    9,503536858e-03   -5,110726878e-02    6,258975267e-01    0,000000000e+00    0,000000000e+00    0,000000000e+00    0,000000000e+00
      674000000   -3,059140407e-02    4,237686750e-03    2,981169820e-01    5,537822843e-01    0,000000000e+00    0,000000000e+00    0,000000000e+00    0,000000000e+00
      688000000   -1,561391447e-02   -1,857222058e-02    5,475686789e-01    3,032263517e-01    0,000000000e+00    0,000000000e+00    0,000000000e+00    0,000000000e+00
      702000000   -1,335819438e-02   -3,458753228e-02    6,217427850e-01   -4,438192397e-02    0,000000000e+00    0,000000000e+00    0,000000000e+00    0,000000000e+00
      716000000   -1,066057011e-02   -4,868726060e-02    4,918662906e-01   -3,684890568e-01    0,000000000e+00    0,000000000e+00    0,000000000e+00    0,000000000e+00
      730000000   -7,452802733e-03   -7,388450950e-02    2,117668837e-01   -5,675220490e-01    0,000000000e+00    0,000000000e+00    0,000000000e+00    0,000000000e+00
      744000000   -2,541685104e-02   -1,103486270e-01   -1,234713420e-01   -5,878458023e-01    0,000000000e+00    0,000000000e+00    0,000000000e+00    0,000000000e+00
      758000000   -7,416775823e-02   -1,322309822e-01   -4,202582538e-01   -4,330337942e-01    0,000000000e+00    0,000000000e+00    0,000000000e+00    0,000000000e+00
      772000000   -1,348705441e-01   -1,165014729e-01   -5,933213830e-01   -1,395269930e-01    0,000000000e+00    0,000000000e+00    0,000000000e+00    0,000000000e+00
      786000000   -1,721851975e-01   -5,836679786e-02   -5,809079409e-01    2,094146162e-01    0,000000000e+00    0,000000000e+00    0,000000000e+00    0,000000000e+00
      800000000   -1,603983939e-01    6,145619787e-03   -3,733001053e-01    4,955025017e-01    0,000000000e+00    0,000000000e+00    0,000000000e+00    0,000000000e+00
      814000000   -1,145059243e-01    4,194502160e-02   -4,567582905e-02    6,140915155e-01    0,000000000e+00    0,000000000e+00    0,000000000e+00    0,000000000e+00
      828000000   -6,939461827e-02    4,453592002e-02    2,856191695e-01    5,407994986e-01    0,000000000e+00    0,000000000e+00    0,000000000e+00    0,000000000e+00
      842000000   -3,933569044e-02    2,956224047e-02    5,209324360e-01    3,055572510e-01    0,000000000e+00    0,000000000e+00    0,000000000e+00    0,000000000e+00
      856000000   -1,804373786e-02    1,218400523e-02    5,940812826e-01   -1,323677879e-02    0,000000000e+00    0,000000000e+00    0,000000000e+00    0,000000000e+00
      870000000    1,794210286e-03   -1,118952967e-02    4,868470132e-01   -3,168821335e-01    0,000000000e+00    0,000000000e+00    0,000000000e+00    0,000000000e+00
      884000000    1,319043618e-02   -5,161604658e-02    2,416243106e-01   -5,115731955e-01    0,000000000e+00    0,000000000e+00    0,000000000e+00    0,000000000e+00
      898000000   -3,631582484e-03   -1,016010866e-01   -5,739129707e-02   -5,533128381e-01    0,000000000e+00    0,000000000e+00    0,000000000e+00    0,000000000e+00
      912000000   -6,215645000e-02   -1,326167881e-01   -3,969535828e-01   -4,161332846e-01    0,000000000e+00    0,000000000e+00    0,000000000e+00    0,000000000e+00
      926000000   -1,283510923e-01   -1,195464879e-01   -5,692171454e-01   -1,494223326e-01    0,000000000e+00    0,000000000e+00    0,000000000e+00    0,000000000e+00
      940000000   -1,647562683e-01   -6,512697786e-02   -5,690357685e-01    1,914734542e-01    0,000000000e+00    0,000000000e+00    0,000000000e+00    0,000000000e+00
      954000000   -1,501738876e-01    1,350553124e-03   -3,753705025e-01    4,848334789e-01    0,000000000e+00    0,000000000e+00    0,000000000e+00    0,000000000e+00
      968000000   -9,514266998e-02    2,507913671e-02   -5,273839086e-02    6,146146059e-01    0,000000000e+00    0,000000000e+00    0,000000000e+00    0,000000000e+00
      982000000   -5,884319544e-02    4,852910526e-03    2,810895443e-01    5,503941178e-01    0,000000000e+00    0,000000000e+00    0,000000000e+00    0,000000000e+00
      996000000   -4,220975935e-02   -3,082455136e-02    5,230987668e-01    3,285368085e-01    0,000000000e+00    0,000000000e+00    0,000000000e+00    0,000000000e+00
     1010000000   -6,233286113e-02   -6,311049312e-02    6,093595624e-01    1,712948084e-02    0,000000000e+00    0,000000000e+00    0,000000000e+00    0,000000000e+00
     1024000000   -9,708210826e-02   -7,675052434e-02    5,155126452e-01   -2,817803621e-01    0,000000000e+00    0,000000000e+00    0,000000000e+00    0,000000000e+00
     1038000000   -1,440616995e-01   -5,688848346e-02    2,952091694e-01   -4,693221152e-01    0,000000000e+00    0,000000000e+00    0,000000000e+00    0,000000000e+00
     1052000000   -1,476388723e-01    1,903231489e-03    3,523283452e-02   -5,224496722e-01    0,000000000e+00    0,000000000e+00    0,000000000e+00    0,000000000e+00
     1066000000   -1,038213894e-01    4,363817349e-02   -2,150145322e-01   -4,658027887e-01    0,000000000e+00    0,000000000e+00    0,000000000e+00    0,000000000e+00
     1080000000   -5,493459478e-02    2,875252254e-02   -4,156941473e-01   -2,989677787e-01    0,000000000e+00    0,000000000e+00    0,000000000e+00    0,000000000e+00
     1094000000   -3,182748333e-02   -6,541419774e-03   -5,213815570e-01   -2,440174855e-02    0,000000000e+00    0,000000000e+00    0,000000000e+00    0,000000000e+00
     1108000000   -3,149767965e-02   -2,924827486e-02   -4,413931370e-01    2,862898111e-01    0,000000000e+00    0,000000000e+00    0,000000000e+00    0,000000000e+00
     1122000000   -2,868884988e-02   -5,815705657e-02   -1,866761893e-01    4,961758852e-01    0,000000000e+00    0,000000000e+00    0,000000000e+00    0,000000000e+00
     1136000000   -3,857882321e-02   -9,296534210e-02    1,506996602e-01    5,211874843e-01    0,000000000e+00    0,000000000e+00    0,000000000e+00    0,000000000e+00
     1150000000   -8,173311502e-02   -1,263805628e-01    4,519052804e-01    3,434901536e-01    0,000000000e+00    0,000000000e+00    0,000000000e+00    0,000000000e+00
     1164000000   -1,363994330e-01   -1,249049231e-01    6,096659899e-01    1,463447884e-02    0,000000000e+00    0,000000000e+00    0,000000000e+00    0,000000000e+00
     1178000000   -1,795196980e-01   -8,807631582e-02    5,382664800e-01   -3,730929792e-01    0,000000000e+00    0,000000000e+00    0,000000000e+00    0,000000000e+00
     1192000000   -1,810755134e-01   -5,682213604e-02    2,397206277e-01   -6,372054219e-01    0,000000000e+00    0,000000000e+00    0,000000000e+00    0,000000000e+00
     1206000000   -1,906994581e-01   -5,453539640e-02   -1,381491125e-01   -6,641222239e-01    0,000000000e+00    0,000000000e+00    0,000000000e+00    0,000000000e+00
     1220000000   -2,515610754e-01   -1,551053021e-02   -4,186073840e-01   -4,822098613e-01    0,000000000e+00    0,000000000e+00    0,000000000e+00    0,000000000e+00
     1234000000   -2,430962324e-01    1,119368374e-01   -5,585600734e-01   -2,519680858e-01    0,000000000e+00    0,000000000e+00    0,000000000e+00    0,000000000e+00
     1248000000   -1,176561490e-01    1,798462719e-01   -6,041977406e-01    1,958600804e-02    0,000000000e+00    0,000000000e+00    0,000000000e+00    0,000000000e+00
     1262000000    1,185455185e-04    1,313464791e-01   -5,090263486e-01    2,946796715e-01    0,000000000e+00    0,000000000e+00    0,000000000e+00    0,000000000e+00
     1276000000    6,210818514e-02    4,185394570e-02   -2,743968070e-01    4,867521524e-01    0,000000000e+00    0,000000000e+00    0,000000000e+00    0,000000000e+00
     1290000000    6,824508309e-02   -7,122493535e-02    7,721164729e-03    5,476793647e-01    0,000000000e+00    0,000000000e+00    0,000000000e+00    0,000000000e+00
     1304000000    2,012848109e-02   -1,742002070e-01    2,989435196e-01    4,819973707e-01    0,000000000e+00    0,000000000e+00    0,000000000e+00    0,000000000e+00
     1318000000   -9,292731434e-02   -2,529328763e-01    5,460239649e-01    2,698390186e-01    0,000000000e+00    0,000000000e+00    0,000000000e+00    0,000000000e+00
     1332000000   -2,395280898e-01   -2,421624362e-01    6,554164886e-01   -4,656730592e-02    0,000000000e+00    0,000000000e+00    0,000000000e+00    0,000000000e+00
     1346000000   -3,634842634e-01   -1,464205831e-01    5,478505492e-01   -4,100090563e-01    0,000000000e+00    0,000000000e+00    0,000000000e+00    0,000000000e+00
     1360000000   -3,852139413e-01    1,830293098e-03    2,608532906e-01   -6,392903328e-01    0,000000000e+00    0,000000000e+00    0,000000000e+00    0,000000000e+00
     1374000000   -3,258432150e-01    1,196136326e-01   -1,150551811e-01   -6,307279468e-01    0,000000000e+00    0,000000000e+00    0,000000000e+00    0,000000000e+00
     1388000000   -2,368050367e-01    1,714107841e-01   -3,732118905e-01   -4,180622399e-01    0,000000000e+00    0,000000000e+00    0,000000000e+00    0,000000000e+00
     1402000000   -1,492845565e-01    1,703160554e-01   -4,735202491e-01   -1,097767800e-01    0,000000000e+00    0,000000000e+00    0,000000000e+00    0,000000000e+00
     1416000000   -8,856424689e-02    1,454764605e-01   -3,966579437e-01    2,084098458e-01    0,000000000e+00    0,000000000e+00    0,000000000e+00    0,000000000e+00
     1430000000   -3,018424846e-02    8,406329900e-02   -1,803717464e-01    4,034430683e-01    0,000000000e+00    0,000000000e+00    0,000000000e+00    0,000000000e+00
     1444000000   -1,292404626e-02    3,225971712e-03    1,163142994e-01    5,222708583e-01    0,000000000e+00    0,000000000e+00    0,000000000e+00    0,000000000e+00
     1458000000   -4,016347602e-02   -8,345106244e-02    4,322321713e-01    4,934518933e-01    0,000000000e+00    0,000000000e+00    0,000000000e+00    0,000000000e+00
     1472000000   -1,230103299e-01   -1,401446015e-01    7,278347015e-01    3,181050718e-01    0,000000000e+00    0,000000000e+00    0,000000000e+00    0,000000000e+00
     1486000000   -2,364941984e-01   -1,412341148e-01    8,931899667e-01   -2,056185156e-02    0,000000000e+00    0,000000000e+00    0,000000000e+00    0,000000000e+00
     1500000000   -2,992422581e-01   -5,607786030e-02    8,535110950e-01   -4,041255713e-01    0,000000000e+00    0,000000000e+00    0,000000000e+00    0,000000000e+00
