! NanoVNA-App
! Date: 2025-09-25 14:57:53
! Start: 100MHz Stop: 1,5GHz Points: 101
! S-Parameter data: F S11 S21 S12 S22
# Hz S RI R 50
!     Frequency           S11_Real           S11_Imag           S21_Real           S21_Imag           S12_Real           S12_Imag           S22_Real           S22_Imag
      100000000    3,557354957e-02    2,732740156e-02    4,406829774e-01   -6,695290804e-01    0,000000000e+00    0,000000000e+00    0,000000000e+00    0,000000000e+00
      114000000    6,070962548e-02    2,196320333e-03    1,268691290e-02   -7,953142524e-01    0,000000000e+00    0,000000000e+00    0,000000000e+00    0,000000000e+00
      128000000    6,839235127e-02   -4,223446921e-02   -4,079727530e-01   -6,780815721e-01    0,000000000e+00    0,000000000e+00    0,000000000e+00    0,000000000e+00
      142000000    4,348889738e-02   -8,875204623e-02   -7,053195834e-01   -3,610363305e-01    0,000000000e+00    0,000000000e+00    0,000000000e+00    0,000000000e+00
      156000000   -9,202450514e-03   -1,096258461e-01   -7,934857011e-01    6,717072427e-02    0,000000000e+00    0,000000000e+00    0,000000000e+00    0,000000000e+00
      170000000   -6,263244897e-02   -9,177284688e-02   -6,371883750e-01    4,864429533e-01    0,000000000e+00    0,000000000e+00    0,000000000e+00    0,000000000e+00
      184000000   -8,857877553e-02   -4,767874256e-02   -2,730981410e-01    7,560777664e-01    0,000000000e+00    0,000000000e+00    0,000000000e+00    0,000000000e+00
      198000000   -8,276767284e-02   -6,426240783e-03    1,795898229e-01    7,823805809e-01    0,000000000e+00    0,000000000e+00    0,000000000e+00    0,000000000e+00
      212000000   -6,273203343e-02    1,806109026e-02    5,707723498e-01    5,583736897e-01    0,000000000e+00    0,000000000e+00    0,000000000e+00    0,000000000e+00
      226000000   -4,146080837e-02    3,183956072e-02    7,766989470e-01    1,618807465e-01    0,000000000e+00    0,000000000e+00    0,000000000e+00    0,000000000e+00
      240000000   -1,483944431e-02    4,127371684e-02    7,357625365e-01   -2,786056995e-01    0,000000000e+00    0,000000000e+00    0,000000000e+00    0,000000000e+00
      254000000    2,150779217e-02    3,630987927e-02    4,678851962e-01   -6,220245957e-01    0,000000000e+00    0,000000000e+00    0,000000000e+00    0,000000000e+00
      268000000    5,338407680e-02    4,698819015e-03    6,685534865e-02   -7,675094604e-01    0,000000000e+00    0,000000000e+00    0,000000000e+00    0,000000000e+00
      282000000    5,738718808e-02   -4,501165077e-02   -3,457253575e-01   -6,825457215e-01    0,000000000e+00    0,000000000e+00    0,000000000e+00    0,000000000e+00
      296000000    2,609028667e-02   -8,476085961e-02   -6,551844478e-01   -3,977124393e-01    0,000000000e+00    0,000000000e+00    0,000000000e+00    0,000000000e+00
      310000000   -1,877283491e-02   -8,928844333e-02   -7,729864120e-01    1,006752066e-02    0,000000000e+00    0,000000000e+00    0,000000000e+00    0,000000000e+00
      324000000   -4,651295394e-02   -6,383702904e-02   -6,470686793e-01    4,293115437e-01    0,000000000e+00    0,000000000e+00    0,000000000e+00    0,000000000e+00
      338000000   -4,135363176e-02   -3,772085160e-02   -3,112052083e-01    7,069298625e-01    0,000000000e+00    0,000000000e+00    0,000000000e+00    0,000000000e+00
      352000000   -2,355372347e-02   -3,780382499e-02    1,200700700e-01    7,582827210e-01    0,000000000e+00    0,000000000e+00    0,000000000e+00    0,000000000e+00
      366000000   -2,286843210e-02   -5,606143549e-02    5,025580525e-01    5,716228485e-01    0,000000000e+00    0,000000000e+00    0,000000000e+00    0,000000000e+00
      380000000   -4,462759569e-02   -6,521419436e-02    7,268493772e-01    2,113203108e-01    0,000000000e+00    0,000000000e+00    0,000000000e+00    0,000000000e+00
      394000000   -6,626560539e-02   -5,063110963e-02    7,219071388e-01   -2,129694819e-01    0,000000000e+00    0,000000000e+00    0,000000000e+00    0,000000000e+00
      408000000   -6,710682064e-02   -2,619374730e-02    4,900095463e-01   -5,672874451e-01    0,000000000e+00    0,000000000e+00    0,000000000e+00    0,000000000e+00
      422000000   -5,306962878e-02   -1,543529890e-02    1,047739610e-01   -7,378953695e-01    0,000000000e+00    0,000000000e+00    0,000000000e+00    0,000000000e+00
      436000000   -4,618822411e-02   -1,889164001e-02   -3,058642149e-01   -6,761344075e-01    0,000000000e+00    0,000000000e+00    0,000000000e+00    0,000000000e+00
      450000000   -5,259225145e-02   -1,533717196e-02   -6,188682914e-01   -3,999795616e-01    0,000000000e+00    0,000000000e+00    0,000000000e+00    0,000000000e+00
      464000000   -5,059900880e-02    5,157817155e-03   -7,300720811e-01    2,777971560e-03    0,000000000e+00    0,000000000e+00    0,000000000e+00    0,000000000e+00
      478000000   -2,090035379e-02    2,568613738e-02   -5,989943147e-01    3,966084123e-01    0,000000000e+00    0,000000000e+00    0,000000000e+00    0,000000000e+00
      492000000    2,752690762e-02    1,437570341e-02   -2,805019319e-01    6,437877417e-01    0,000000000e+00    0,000000000e+00    0,000000000e+00    0,000000000e+00
      506000000    5,828635395e-02   -3,666270524e-02    1,036942899e-01    6,805660129e-01    0,000000000e+00    0,000000000e+00    0,000000000e+00    0,000000000e+00
      520000000    4,367107898e-02   -1,017743573e-01    4,436116815e-01    5,178034902e-01    0,000000000e+00    0,000000000e+00    0,000000000e+00    0,000000000e+00
      534000000   -1,153790858e-02   -1,416541934e-01    6,496543884e-01    2,078756094e-01    0,000000000e+00    0,000000000e+00    0,000000000e+00    0,000000000e+00
      548000000   -7,883468270e-02   -1,375716776e-01    6,618096232e-01   -1,736705601e-01    0,000000000e+00    0,000000000e+00    0,000000000e+00    0,000000000e+00
      562000000   -1,258945167e-01   -9,826438129e-02    4,552506208e-01   -5,079515576e-01    0,000000000e+00    0,000000000e+00    0,000000000e+00    0,000000000e+00
      576000000   -1,432695836e-01   -4,615453258e-02    9,068831056e-02   -6,661499739e-01    0,000000000e+00    0,000000000e+00    0,000000000e+00    0,000000000e+00
      590000000   -1,349580884e-01    1,201602910e-02   -2,937853038e-01   -5,814613700e-01    0,000000000e+00    0,000000000e+00    0,000000000e+00    0,000000000e+00
      604000000   -7,449036837e-02    6,702532619e-02   -5,285152793e-01   -2,811706066e-01    0,000000000e+00    0,000000000e+00    0,000000000e+00    0,000000000e+00
      618000000    3,643601388e-02    2,688208222e-02   -5,032184720e-01    1,676063612e-02    0,000000000e+00    0,000000000e+00    0,000000000e+00    0,000000000e+00
      632000000    7,323077298e-04   -1,033512652e-01   -4,621337354e-01    1,723644435e-01    0,000000000e+00    0,000000000e+00    0,000000000e+00    0,000000000e+00
      646000000   -1,032074168e-01   -6,965617090e-02   -3,786452115e-01    4,374893308e-01    0,000000000e+00    0,000000000e+00    0,000000000e+00    0,000000000e+00
      660000000   -8,865056932e-02    2,121909987e-03   -7,134009153e-02    6,147915721e-01    0,000000000e+00    0,000000000e+00    0,000000000e+00    0,000000000e+00
      674000000   -4,193496332e-02    1,293443050e-02    2,860756516e-01    5,593811870e-01    0,000000000e+00    0,000000000e+00    0,000000000e+00    0,000000000e+00
      688000000   -1,629296690e-02   -8,713874035e-03    5,428816080e-01    3,116427362e-01    0,000000000e+00    0,000000000e+00    0,000000000e+00    0,000000000e+00
      702000000   -1,036342792e-02   -2,845409885e-02    6,198927164e-01   -3,410344198e-02    0,000000000e+00    0,000000000e+00    0,000000000e+00    0,000000000e+00
      716000000   -5,211438518e-03   -4,731889442e-02    4,965080917e-01   -3,643480241e-01    0,000000000e+00    0,000000000e+00    0,000000000e+00    0,000000000e+00
      730000000   -3,388196696e-03   -7,701288909e-02    2,166125327e-01   -5,675812364e-01    0,000000000e+00    0,000000000e+00    0,000000000e+00    0,000000000e+00
      744000000   -2,432335354e-02   -1,152873114e-01   -1,208245680e-01   -5,917707086e-01    0,000000000e+00    0,000000000e+00    0,000000000e+00    0,000000000e+00
      758000000   -7,528027147e-02   -1,365944147e-01   -4,182371497e-01   -4,373854399e-01    0,000000000e+00    0,000000000e+00    0,000000000e+00    0,000000000e+00
      772000000   -1,394420713e-01   -1,175923049e-01   -5,965152979e-01   -1,434232593e-01    0,000000000e+00    0,000000000e+00    0,000000000e+00    0,000000000e+00
      786000000   -1,747154593e-01   -5,636529997e-02   -5,855908394e-01    2,087077945e-01    0,000000000e+00    0,000000000e+00    0,000000000e+00    0,000000000e+00
      800000000   -1,613208652e-01    1,032094378e-02   -3,752852380e-01    4,979428649e-01    0,000000000e+00    0,000000000e+00    0,000000000e+00    0,000000000e+00
      814000000   -1,121652648e-01    4,570598155e-02   -4,678205773e-02    6,179964542e-01    0,000000000e+00    0,000000000e+00    0,000000000e+00    0,000000000e+00
      828000000   -6,507278234e-02    4,466481507e-02    2,861361206e-01    5,417329669e-01    0,000000000e+00    0,000000000e+00    0,000000000e+00    0,000000000e+00
      842000000   -3,639471903e-02    2,729155682e-02    5,225607157e-01    3,067850173e-01    0,000000000e+00    0,000000000e+00    0,000000000e+00    0,000000000e+00
      856000000   -1,804525405e-02    8,508066647e-03    5,966908932e-01   -1,313434821e-02    0,000000000e+00    0,000000000e+00    0,000000000e+00    0,000000000e+00
      870000000   -1,148481620e-03   -1,336413901e-02    4,880850315e-01   -3,178133070e-01    0,000000000e+00    0,000000000e+00    0,000000000e+00    0,000000000e+00
      884000000    9,675596841e-03   -5,120351166e-02    2,435423732e-01   -5,152796507e-01    0,000000000e+00    0,000000000e+00    0,000000000e+00    0,000000000e+00
      898000000   -5,041336175e-03   -9,935101122e-02   -5,812820047e-02   -5,569388270e-01    0,000000000e+00    0,000000000e+00    0,000000000e+00    0,000000000e+00
      912000000   -6,167711690e-02   -1,291736215e-01   -3,918791413e-01   -4,111725986e-01    0,000000000e+00    0,000000000e+00    0,000000000e+00    0,000000000e+00
      926000000   -1,222692952e-01   -1,190185025e-01   -5,687934160e-01   -1,480913758e-01    0,000000000e+00    0,000000000e+00    0,000000000e+00    0,000000000e+00
      940000000   -1,621486396e-01   -6,378924847e-02   -5,714797378e-01    1,955537051e-01    0,000000000e+00    0,000000000e+00    0,000000000e+00    0,000000000e+00
      954000000   -1,508061141e-01   -4,822584800e-03   -3,756941557e-01    4,881250262e-01    0,000000000e+00    0,000000000e+00    0,000000000e+00    0,000000000e+00
      968000000   -9,909487516e-02    2,404084429e-02   -5,022813380e-02    6,191839576e-01    0,000000000e+00    0,000000000e+00    0,000000000e+00    0,000000000e+00
      982000000   -5,907892808e-02    4,459326621e-03    2,841708064e-01    5,539572239e-01    0,000000000e+00    0,000000000e+00    0,000000000e+00    0,000000000e+00
      996000000   -4,374258220e-02   -3,167197481e-02    5,291121602e-01    3,231829703e-01    0,000000000e+00    0,000000000e+00    0,000000000e+00    0,000000000e+00
     1010000000   -6,115759537e-02   -5,931384861e-02    6,100775599e-01    8,050253615e-03    0,000000000e+00    0,000000000e+00    0,000000000e+00    0,000000000e+00
     1024000000   -9,777779877e-02   -7,798113674e-02    5,086440444e-01   -2,867208123e-01    0,000000000e+00    0,000000000e+00    0,000000000e+00    0,000000000e+00
     1038000000   -1,394653320e-01   -6,315260381e-02    2,897978127e-01   -4,695610404e-01    0,000000000e+00    0,000000000e+00    0,000000000e+00    0,000000000e+00
     1052000000   -1,531292498e-01   -3,180729924e-03    3,628640994e-02   -5,208365917e-01    0,000000000e+00    0,000000000e+00    0,000000000e+00    0,000000000e+00
     1066000000   -1,129874513e-01    4,158979282e-02   -2,063057721e-01   -4,636761844e-01    0,000000000e+00    0,000000000e+00    0,000000000e+00    0,000000000e+00
     1080000000   -6,118545681e-02    3,041198291e-02   -4,169669449e-01   -2,972631752e-01    0,000000000e+00    0,000000000e+00    0,000000000e+00    0,000000000e+00
     1094000000   -3,407463431e-02   -4,751292057e-03   -5,184673667e-01   -2,174694836e-02    0,000000000e+00    0,000000000e+00    0,000000000e+00    0,000000000e+00
     1108000000   -2,870790474e-02   -2,884303592e-02   -4,384463429e-01    2,832564414e-01    0,000000000e+00    0,000000000e+00    0,000000000e+00    0,000000000e+00
     1122000000   -3,081499785e-02   -5,806061253e-02   -1,856696904e-01    4,904650152e-01    0,000000000e+00    0,000000000e+00    0,000000000e+00    0,000000000e+00
     1136000000   -3,864010051e-02   -9,571766853e-02    1,470373571e-01    5,205243230e-01    0,000000000e+00    0,000000000e+00    0,000000000e+00    0,000000000e+00
     1150000000   -8,423774689e-02   -1,224610507e-01    4,499000609e-01    3,421594501e-01    0,000000000e+00    0,000000000e+00    0,000000000e+00    0,000000000e+00
     1164000000   -1,454426050e-01   -1,215528399e-01    6,075552106e-01    1,115344279e-02    0,000000000e+00    0,000000000e+00    0,000000000e+00    0,000000000e+00
     1178000000   -1,813660711e-01   -8,665407449e-02    5,372388363e-01   -3,696216047e-01    0,000000000e+00    0,000000000e+00    0,000000000e+00    0,000000000e+00
     1192000000   -1,791878641e-01   -5,192157254e-02    2,436084002e-01   -6,334297657e-01    0,000000000e+00    0,000000000e+00    0,000000000e+00    0,000000000e+00
     1206000000   -1,922239214e-01   -5,125608668e-02   -1,361564696e-01   -6,636437774e-01    0,000000000e+00    0,000000000e+00    0,000000000e+00    0,000000000e+00
     1220000000   -2,553224564e-01   -1,631439291e-02   -4,198736846e-01   -4,862625301e-01    0,000000000e+00    0,000000000e+00    0,000000000e+00    0,000000000e+00
     1234000000   -2,433853447e-01    1,105327681e-01   -5,607059002e-01   -2,494131923e-01    0,000000000e+00    0,000000000e+00    0,000000000e+00    0,000000000e+00
     1248000000   -1,182102114e-01    1,768487096e-01   -6,042869687e-01    1,932743005e-02    0,000000000e+00    0,000000000e+00    0,000000000e+00    0,000000000e+00
     1262000000   -3,717778018e-03    1,328396648e-01   -5,103613734e-01    2,945079207e-01    0,000000000e+00    0,000000000e+00    0,000000000e+00    0,000000000e+00
     1276000000    6,383419037e-02    4,298717901e-02   -2,768829167e-01    4,882808924e-01    0,000000000e+00    0,000000000e+00    0,000000000e+00    0,000000000e+00
     1290000000    7,274400443e-02   -7,228700817e-02    7,320660166e-03    5,412374139e-01    0,000000000e+00    0,000000000e+00    0,000000000e+00    0,000000000e+00
     1304000000    1,897867396e-02   -1,770478040e-01    2,985374629e-01    4,801932573e-01    0,000000000e+00    0,000000000e+00    0,000000000e+00    0,000000000e+00
     1318000000   -9,200903773e-02   -2,535189390e-01    5,365563035e-01    2,747449279e-01    0,000000000e+00    0,000000000e+00    0,000000000e+00    0,000000000e+00
     1332000000   -2,420984656e-01   -2,431160063e-01    6,545880437e-01   -4,394087568e-02    0,000000000e+00    0,000000000e+00    0,000000000e+00    0,000000000e+00
     1346000000   -3,594766855e-01   -1,438562274e-01    5,578362942e-01   -4,082286656e-01    0,000000000e+00    0,000000000e+00    0,000000000e+00    0,000000000e+00
     1360000000   -3,922296762e-01    6,058937404e-03    2,511113286e-01   -6,401972771e-01    0,000000000e+00    0,000000000e+00    0,000000000e+00    0,000000000e+00
     1374000000   -3,263193071e-01    1,236798689e-01   -1,045106128e-01   -6,255578399e-01    0,000000000e+00    0,000000000e+00    0,000000000e+00    0,000000000e+00
     1388000000   -2,404683530e-01    1,692105681e-01   -3,754379153e-01   -4,205482900e-01    0,000000000e+00    0,000000000e+00    0,000000000e+00    0,000000000e+00
     1402000000   -1,519862413e-01    1,750720292e-01   -4,731392860e-01   -1,049294919e-01    0,000000000e+00    0,000000000e+00    0,000000000e+00    0,000000000e+00
     1416000000   -8,545228839e-02    1,407956183e-01   -3,937261105e-01    1,989404112e-01    0,000000000e+00    0,000000000e+00    0,000000000e+00    0,000000000e+00
     1430000000   -3,296755999e-02    8,743130416e-02   -1,618682742e-01    4,271531403e-01    0,000000000e+00    0,000000000e+00    0,000000000e+00    0,000000000e+00
     1444000000   -1,032079197e-02    8,187753148e-03    1,221203208e-01    5,290564895e-01    0,000000000e+00    0,000000000e+00    0,000000000e+00    0,000000000e+00
     1458000000   -3,788673133e-02   -8,091875166e-02    4,439196885e-01    5,015390515e-01    0,000000000e+00    0,000000000e+00    0,000000000e+00    0,000000000e+00
     1472000000   -1,219554245e-01   -1,517068148e-01    7,479452491e-01    3,068507910e-01    0,000000000e+00    0,000000000e+00    0,000000000e+00    0,000000000e+00
     1486000000   -2,343372703e-01   -1,386566609e-01    9,065902233e-01   -2,920828946e-02    0,000000000e+00    0,000000000e+00    0,000000000e+00    0,000000000e+00
     1500000000   -3,165210783e-01   -6,044224277e-02    8,367007375e-01   -4,222784340e-01    0,000000000e+00    0,000000000e+00    0,000000000e+00    0,000000000e+00
