! NanoVNA-App
! Date: 2025-09-25 14:58:29
! Start: 100MHz Stop: 1,5GHz Points: 101
! S-Parameter data: F S11 S21 S12 S22
# Hz S RI R 50
!     Frequency           S11_Real           S11_Imag           S21_Real           S21_Imag           S12_Real           S12_Imag           S22_Real           S22_Imag
      100000000    3,560296074e-02    2,735710703e-02    4,406991899e-01   -6,695232391e-01    0,000000000e+00    0,000000000e+00    0,000000000e+00    0,000000000e+00
      114000000    6,073270366e-02    2,180390293e-03    1,282285899e-02   -7,954296470e-01    0,000000000e+00    0,000000000e+00    0,000000000e+00    0,000000000e+00
      128000000    6,838822365e-02   -4,224031791e-02   -4,083014429e-01   -6,782261729e-01    0,000000000e+00    0,000000000e+00    0,000000000e+00    0,000000000e+00
      142000000    4,348904267e-02   -8,876316249e-02   -7,050763965e-01   -3,608099818e-01    0,000000000e+00    0,000000000e+00    0,000000000e+00    0,000000000e+00
      156000000   -9,455852211e-03   -1,095008552e-01   -7,929768562e-01    6,687668711e-02    0,000000000e+00    0,000000000e+00    0,000000000e+00    0,000000000e+00
      170000000   -6,264681369e-02   -9,181641787e-02   -6,369327903e-01    4,865482152e-01    0,000000000e+00    0,000000000e+00    0,000000000e+00    0,000000000e+00
      184000000   -8,855250478e-02   -4,767562449e-02   -2,729760706e-01    7,560579181e-01    0,000000000e+00    0,000000000e+00    0,000000000e+00    0,000000000e+00
      198000000   -8,273335546e-02   -6,402493920e-03    1,798142046e-01    7,822592258e-01    0,000000000e+00    0,000000000e+00    0,000000000e+00    0,000000000e+00
      212000000   -6,266293675e-02    1,799054071e-02    5,706239343e-01    5,585672259e-01    0,000000000e+00    0,000000000e+00    0,000000000e+00    0,000000000e+00
      226000000   -4,140698165e-02    3,177862614e-02    7,764848471e-01    1,618765742e-01    0,000000000e+00    0,000000000e+00    0,000000000e+00    0,000000000e+00
      240000000   -1,484771818e-02    4,127058014e-02    7,359950542e-01   -2,786990702e-01    0,000000000e+00    0,000000000e+00    0,000000000e+00    0,000000000e+00
      254000000    2,141470462e-02    3,628139198e-02    4,676312208e-01   -6,222839355e-01    0,000000000e+00    0,000000000e+00    0,000000000e+00    0,000000000e+00
      268000000    5,328041688e-02    4,741861019e-03    6,654936075e-02   -7,678508759e-01    0,000000000e+00    0,000000000e+00    0,000000000e+00    0,000000000e+00
      282000000    5,746417493e-02   -4,502765834e-02   -3,455757201e-01   -6,824520826e-01    0,000000000e+00    0,000000000e+00    0,000000000e+00    0,000000000e+00
      296000000    2,619916946e-02   -8,476114273e-02   -6,549063325e-01   -3,974417448e-01    0,000000000e+00    0,000000000e+00    0,000000000e+00    0,000000000e+00
      310000000   -1,892095432e-02   -8,947709203e-02   -7,748389840e-01    1,042782608e-02    0,000000000e+00    0,000000000e+00    0,000000000e+00    0,000000000e+00
      324000000   -4,650773853e-02   -6,346830726e-02   -6,477430463e-01    4,297995269e-01    0,000000000e+00    0,000000000e+00    0,000000000e+00    0,000000000e+00
      338000000   -4,104586318e-02   -3,817044571e-02   -3,100267053e-01    7,097696662e-01    0,000000000e+00    0,000000000e+00    0,000000000e+00    0,000000000e+00
      352000000   -2,339675836e-02   -3,770575672e-02    1,187086180e-01    7,578775883e-01    0,000000000e+00    0,000000000e+00    0,000000000e+00    0,000000000e+00
      366000000   -2,287183143e-02   -5,628832057e-02    5,031330585e-01    5,713281035e-01    0,000000000e+00    0,000000000e+00    0,000000000e+00    0,000000000e+00
      380000000   -4,474591836e-02   -6,523091346e-02    7,265826464e-01    2,118570805e-01    0,000000000e+00    0,000000000e+00    0,000000000e+00    0,000000000e+00
      394000000   -6,624972075e-02   -5,035594106e-02    7,229974866e-01   -2,130945027e-01    0,000000000e+00    0,000000000e+00    0,000000000e+00    0,000000000e+00
      408000000   -6,736138463e-02   -2,653058991e-02    4,901446700e-01   -5,690686107e-01    0,000000000e+00    0,000000000e+00    0,000000000e+00    0,000000000e+00
      422000000   -5,328245461e-02   -1,529944129e-02    1,058675274e-01   -7,383125424e-01    0,000000000e+00    0,000000000e+00    0,000000000e+00    0,000000000e+00
      436000000   -4,612606019e-02   -1,890969463e-02   -3,062158525e-01   -6,754223108e-01    0,000000000e+00    0,000000000e+00    0,000000000e+00    0,000000000e+00
      450000000   -5,199572444e-02   -1,513779256e-02   -6,193122268e-01   -3,988508582e-01    0,000000000e+00    0,000000000e+00    0,000000000e+00    0,000000000e+00
      464000000   -5,045581982e-02    5,601832643e-03   -7,298902869e-01    3,441455774e-03    0,000000000e+00    0,000000000e+00    0,000000000e+00    0,000000000e+00
      478000000   -2,022150718e-02    2,632602863e-02   -5,982559323e-01    3,975037634e-01    0,000000000e+00    0,000000000e+00    0,000000000e+00    0,000000000e+00
      492000000    2,849637531e-02    1,470397785e-02   -2,800062299e-01    6,444287300e-01    0,000000000e+00    0,000000000e+00    0,000000000e+00    0,000000000e+00
      506000000    5,939573422e-02   -3,718115762e-02    1,049583927e-01    6,799477935e-01    0,000000000e+00    0,000000000e+00    0,000000000e+00    0,000000000e+00
      520000000    4,451781139e-02   -1,023303941e-01    4,409977496e-01    5,188125372e-01    0,000000000e+00    0,000000000e+00    0,000000000e+00    0,000000000e+00
      534000000   -1,263279747e-02   -1,443836391e-01    6,493287683e-01    2,054121345e-01    0,000000000e+00    0,000000000e+00    0,000000000e+00    0,000000000e+00
      548000000   -8,204188943e-02   -1,397697330e-01    6,598013639e-01   -1,757944077e-01    0,000000000e+00    0,000000000e+00    0,000000000e+00    0,000000000e+00
      562000000   -1,310478598e-01   -9,829599410e-02    4,510011971e-01   -5,092284083e-01    0,000000000e+00    0,000000000e+00    0,000000000e+00    0,000000000e+00
      576000000   -1,495932341e-01   -3,800291941e-02    8,148796856e-02   -6,600795984e-01    0,000000000e+00    0,000000000e+00    0,000000000e+00    0,000000000e+00
      590000000   -1,294401139e-01    3,003154695e-02   -2,955308259e-01   -5,607477427e-01    0,000000000e+00    0,000000000e+00    0,000000000e+00    0,000000000e+00
      604000000   -3,680841252e-02    6,826183200e-02   -4,863912165e-01   -2,703402340e-01    0,000000000e+00    0,000000000e+00    0,000000000e+00    0,000000000e+00
      618000000    3,369840235e-02   -3,196029738e-02   -4,944711328e-01   -5,273294076e-02    0,000000000e+00    0,000000000e+00    0,000000000e+00    0,000000000e+00
      632000000   -5,416189134e-02   -9,258134663e-02   -5,271026492e-01    1,777222902e-01    0,000000000e+00    0,000000000e+00    0,000000000e+00    0,000000000e+00
      646000000   -9,949412197e-02   -3,262874484e-02   -3,789424002e-01    4,777457416e-01    0,000000000e+00    0,000000000e+00    0,000000000e+00    0,000000000e+00
      660000000   -6,816470623e-02    9,430138394e-03   -5,233842134e-02    6,246336699e-01    0,000000000e+00    0,000000000e+00    0,000000000e+00    0,000000000e+00
      674000000   -2,954240702e-02    4,777848255e-03    2,994418144e-01    5,530596972e-01    0,000000000e+00    0,000000000e+00    0,000000000e+00    0,000000000e+00
      688000000   -1,557888184e-02   -1,870832779e-02    5,468434691e-01    3,032683134e-01    0,000000000e+00    0,000000000e+00    0,000000000e+00    0,000000000e+00
      702000000   -1,428185403e-02   -3,581507131e-02    6,175714135e-01   -3,935407475e-02    0,000000000e+00    0,000000000e+00    0,000000000e+00    0,000000000e+00
      716000000   -9,867160581e-03   -4,891113192e-02    4,914262593e-01   -3,681995273e-01    0,000000000e+00    0,000000000e+00    0,000000000e+00    0,000000000e+00
      730000000   -7,913220674e-03   -7,400476187e-02    2,116414607e-01   -5,679008961e-01    0,000000000e+00    0,000000000e+00    0,000000000e+00    0,000000000e+00
      744000000   -2,657399885e-02   -1,106443629e-01   -1,244379729e-01   -5,876141787e-01    0,000000000e+00    0,000000000e+00    0,000000000e+00    0,000000000e+00
      758000000   -7,474415749e-02   -1,333595365e-01   -4,198901951e-01   -4,324033260e-01    0,000000000e+00    0,000000000e+00    0,000000000e+00    0,000000000e+00
      772000000   -1,354613751e-01   -1,164070368e-01   -5,935643911e-01   -1,396868378e-01    0,000000000e+00    0,000000000e+00    0,000000000e+00    0,000000000e+00
      786000000   -1,715133488e-01   -5,892369524e-02   -5,813611150e-01    2,095849216e-01    0,000000000e+00    0,000000000e+00    0,000000000e+00    0,000000000e+00
      800000000   -1,590533555e-01    6,167031825e-03   -3,729414940e-01    4,967027307e-01    0,000000000e+00    0,000000000e+00    0,000000000e+00    0,000000000e+00
      814000000   -1,141082272e-01    4,254114628e-02   -4,601127282e-02    6,138442159e-01    0,000000000e+00    0,000000000e+00    0,000000000e+00    0,000000000e+00
      828000000   -6,930683553e-02    4,326441512e-02    2,860067785e-01    5,407451987e-01    0,000000000e+00    0,000000000e+00    0,000000000e+00    0,000000000e+00
      842000000   -3,904072195e-02    2,882400900e-02    5,212147832e-01    3,060770333e-01    0,000000000e+00    0,000000000e+00    0,000000000e+00    0,000000000e+00
      856000000   -1,801716164e-02    1,238617953e-02    5,945284963e-01   -1,387422439e-02    0,000000000e+00    0,000000000e+00    0,000000000e+00    0,000000000e+00
      870000000    1,899228315e-03   -1,090349164e-02    4,861395359e-01   -3,172451556e-01    0,000000000e+00    0,000000000e+00    0,000000000e+00    0,000000000e+00
      884000000    1,350767072e-02   -5,109406263e-02    2,423939258e-01   -5,110551715e-01    0,000000000e+00    0,000000000e+00    0,000000000e+00    0,000000000e+00
      898000000   -3,192387754e-03   -1,023112759e-01   -5,686499923e-02   -5,550618768e-01    0,000000000e+00    0,000000000e+00    0,000000000e+00    0,000000000e+00
      912000000   -6,227336451e-02   -1,327367723e-01   -3,881975412e-01   -4,254975915e-01    0,000000000e+00    0,000000000e+00    0,000000000e+00    0,000000000e+00
      926000000   -1,276008636e-01   -1,182210222e-01   -5,680376887e-01   -1,466957778e-01    0,000000000e+00    0,000000000e+00    0,000000000e+00    0,000000000e+00
      940000000   -1,652059704e-01   -6,102959812e-02   -5,698734522e-01    1,916144937e-01    0,000000000e+00    0,000000000e+00    0,000000000e+00    0,000000000e+00
      954000000   -1,508220583e-01   -1,928713289e-03   -3,728765547e-01    4,850805700e-01    0,000000000e+00    0,000000000e+00    0,000000000e+00    0,000000000e+00
      968000000   -9,784160554e-02    2,099988237e-02   -5,346781760e-02    6,142644286e-01    0,000000000e+00    0,000000000e+00    0,000000000e+00    0,000000000e+00
      982000000   -5,469468236e-02    8,478860371e-03    2,814337313e-01    5,539467335e-01    0,000000000e+00    0,000000000e+00    0,000000000e+00    0,000000000e+00
      996000000   -4,457018897e-02   -3,054624982e-02    5,248646736e-01    3,280909956e-01    0,000000000e+00    0,000000000e+00    0,000000000e+00    0,000000000e+00
     1010000000   -6,525195390e-02   -6,434554607e-02    6,078040004e-01    1,437211968e-02    0,000000000e+00    0,000000000e+00    0,000000000e+00    0,000000000e+00
     1024000000   -1,003648415e-01   -7,527068257e-02    5,182858109e-01   -2,811071575e-01    0,000000000e+00    0,000000000e+00    0,000000000e+00    0,000000000e+00
     1038000000   -1,432504803e-01   -5,448700860e-02    2,959873378e-01   -4,718800187e-01    0,000000000e+00    0,000000000e+00    0,000000000e+00    0,000000000e+00
     1052000000   -1,516588628e-01   -3,640904091e-03    3,380967677e-02   -5,254374146e-01    0,000000000e+00    0,000000000e+00    0,000000000e+00    0,000000000e+00
     1066000000   -1,054956988e-01    3,795981780e-02   -2,143869251e-01   -4,633988738e-01    0,000000000e+00    0,000000000e+00    0,000000000e+00    0,000000000e+00
     1080000000   -5,516241491e-02    3,047118150e-02   -4,169873893e-01   -2,986915708e-01    0,000000000e+00    0,000000000e+00    0,000000000e+00    0,000000000e+00
     1094000000   -3,002567403e-02   -5,418704357e-03   -5,205910802e-01   -2,266072296e-02    0,000000000e+00    0,000000000e+00    0,000000000e+00    0,000000000e+00
     1108000000   -2,952677943e-02   -3,038948961e-02   -4,414565265e-01    2,850146890e-01    0,000000000e+00    0,000000000e+00    0,000000000e+00    0,000000000e+00
     1122000000   -3,085956164e-02   -5,486879870e-02   -1,883716285e-01    4,970026314e-01    0,000000000e+00    0,000000000e+00    0,000000000e+00    0,000000000e+00
     1136000000   -4,379861802e-02   -9,112180024e-02    1,516698301e-01    5,209270120e-01    0,000000000e+00    0,000000000e+00    0,000000000e+00    0,000000000e+00
     1150000000   -8,043966442e-02   -1,251788884e-01    4,525533915e-01    3,434276581e-01    0,000000000e+00    0,000000000e+00    0,000000000e+00    0,000000000e+00
     1164000000   -1,372682750e-01   -1,202537566e-01    6,090754867e-01    1,438850630e-02    0,000000000e+00    0,000000000e+00    0,000000000e+00    0,000000000e+00
     1178000000   -1,778737903e-01   -8,916579932e-02    5,422651172e-01   -3,793525398e-01    0,000000000e+00    0,000000000e+00    0,000000000e+00    0,000000000e+00
     1192000000   -1,816044301e-01   -5,234352499e-02    2,400734127e-01   -6,364889145e-01    0,000000000e+00    0,000000000e+00    0,000000000e+00    0,000000000e+00
     1206000000   -1,866417527e-01   -5,233021826e-02   -1,348573864e-01   -6,610294580e-01    0,000000000e+00    0,000000000e+00    0,000000000e+00    0,000000000e+00
     1220000000   -2,556204796e-01   -1,042613294e-02   -4,184242189e-01   -4,801814556e-01    0,000000000e+00    0,000000000e+00    0,000000000e+00    0,000000000e+00
     1234000000   -2,462088317e-01    1,137383506e-01   -5,599235296e-01   -2,490907311e-01    0,000000000e+00    0,000000000e+00    0,000000000e+00    0,000000000e+00
     1248000000   -1,220682114e-01    1,737130284e-01   -6,052650213e-01    1,575077698e-02    0,000000000e+00    0,000000000e+00    0,000000000e+00    0,000000000e+00
     1262000000   -4,461057484e-03    1,345142871e-01   -5,074259639e-01    3,009685278e-01    0,000000000e+00    0,000000000e+00    0,000000000e+00    0,000000000e+00
     1276000000    6,005026773e-02    4,367602989e-02   -2,816772163e-01    4,894534945e-01    0,000000000e+00    0,000000000e+00    0,000000000e+00    0,000000000e+00
     1290000000    6,893352419e-02   -7,383088768e-02    5,955211818e-03    5,448863506e-01    0,000000000e+00    0,000000000e+00    0,000000000e+00    0,000000000e+00
     1304000000    2,056290582e-02   -1,776424199e-01    3,025306463e-01    4,813682139e-01    0,000000000e+00    0,000000000e+00    0,000000000e+00    0,000000000e+00
     1318000000   -9,266779572e-02   -2,538502514e-01    5,411300659e-01    2,709046304e-01    0,000000000e+00    0,000000000e+00    0,000000000e+00    0,000000000e+00
     1332000000   -2,453615218e-01   -2,454706281e-01    6,478488445e-01   -5,842939019e-02    0,000000000e+00    0,000000000e+00    0,000000000e+00    0,000000000e+00
     1346000000   -3,600069880e-01   -1,381935030e-01    5,560656190e-01   -4,113218486e-01    0,000000000e+00    0,000000000e+00    0,000000000e+00    0,000000000e+00
     1360000000   -3,846502602e-01    5,394480657e-03    2,583213449e-01   -6,344222426e-01    0,000000000e+00    0,000000000e+00    0,000000000e+00    0,000000000e+00
     1374000000   -3,271987140e-01    1,163170561e-01   -1,084115952e-01   -6,303597093e-01    0,000000000e+00    0,000000000e+00    0,000000000e+00    0,000000000e+00
     1388000000   -2,344338000e-01    1,675812006e-01   -3,737878203e-01   -4,171214402e-01    0,000000000e+00    0,000000000e+00    0,000000000e+00    0,000000000e+00
     1402000000   -1,534291208e-01    1,733238995e-01   -4,713131785e-01   -1,042779982e-01    0,000000000e+00    0,000000000e+00    0,000000000e+00    0,000000000e+00
     1416000000   -8,594147116e-02    1,381346732e-01   -3,938713372e-01    1,966057122e-01    0,000000000e+00    0,000000000e+00    0,000000000e+00    0,000000000e+00
     1430000000   -3,269036114e-02    8,436676115e-02   -1,831609160e-01    4,462022781e-01    0,000000000e+00    0,000000000e+00    0,000000000e+00    0,000000000e+00
     1444000000   -1,318775490e-02    7,503017783e-03    1,227352545e-01    5,321326256e-01    0,000000000e+00    0,000000000e+00    0,000000000e+00    0,000000000e+00
     1458000000   -3,945912421e-02   -8,058209717e-02    4,414620697e-01    4,979764521e-01    0,000000000e+00    0,000000000e+00    0,000000000e+00    0,000000000e+00
     1472000000   -1,264270246e-01   -1,466484964e-01    7,257593870e-01    3,019220829e-01    0,000000000e+00    0,000000000e+00    0,000000000e+00    0,000000000e+00
     1486000000   -2,330011278e-01   -1,321085244e-01    9,086041451e-01   -1,698602736e-02    0,000000000e+00    0,000000000e+00    0,000000000e+00    0,000000000e+00
     1500000000   -3,124824762e-01   -6,023724750e-02    8,301995397e-01   -4,147147536e-01    0,000000000e+00    0,000000000e+00    0,000000000e+00    0,000000000e+00
