! NanoVNA-App
! Date: 2025-09-25 15:01:30
! Start: 100MHz Stop: 1,5GHz Points: 101
! S-Parameter data: F S11 S21 S12 S22
# Hz S RI R 50
!     Frequency           S11_Real           S11_Imag           S21_Real           S21_Imag           S12_Real           S12_Imag           S22_Real           S22_Imag
      100000000    3,558338061e-02    2,736129425e-02    4,407414496e-01   -6,695175767e-01    0,000000000e+00    0,000000000e+00    0,000000000e+00    0,000000000e+00
      114000000    6,071430817e-02    2,195695881e-03    1,274817903e-02   -7,954027653e-01    0,000000000e+00    0,000000000e+00    0,000000000e+00    0,000000000e+00
      128000000    6,839615107e-02   -4,223475233e-02   -4,081994891e-01   -6,781312823e-01    0,000000000e+00    0,000000000e+00    0,000000000e+00    0,000000000e+00
      142000000    4,347671941e-02   -8,880313486e-02   -7,054676414e-01   -3,611014187e-01    0,000000000e+00    0,000000000e+00    0,000000000e+00    0,000000000e+00
      156000000   -8,693353273e-03   -1,103758737e-01   -7,942866087e-01    6,827258319e-02    0,000000000e+00    0,000000000e+00    0,000000000e+00    0,000000000e+00
      170000000   -6,265117228e-02   -9,186486900e-02   -6,371577978e-01    4,866182804e-01    0,000000000e+00    0,000000000e+00    0,000000000e+00    0,000000000e+00
      184000000   -8,860472590e-02   -4,763814434e-02   -2,731924057e-01    7,564684749e-01    0,000000000e+00    0,000000000e+00    0,000000000e+00    0,000000000e+00
      198000000   -8,276053518e-02   -6,432971451e-03    1,794404984e-01    7,822619081e-01    0,000000000e+00    0,000000000e+00    0,000000000e+00    0,000000000e+00
      212000000   -6,270986050e-02    1,798559353e-02    5,705964565e-01    5,582604408e-01    0,000000000e+00    0,000000000e+00    0,000000000e+00    0,000000000e+00
      226000000   -4,146523774e-02    3,181548789e-02    7,766739726e-01    1,618876904e-01    0,000000000e+00    0,000000000e+00    0,000000000e+00    0,000000000e+00
      240000000   -1,495670155e-02    4,133651033e-02    7,361205220e-01   -2,786791325e-01    0,000000000e+00    0,000000000e+00    0,000000000e+00    0,000000000e+00
      254000000    2,140590176e-02    3,632220626e-02    4,676947594e-01   -6,220852733e-01    0,000000000e+00    0,000000000e+00    0,000000000e+00    0,000000000e+00
      268000000    5,333525687e-02    4,755311180e-03    6,671720743e-02   -7,674499154e-01    0,000000000e+00    0,000000000e+00    0,000000000e+00    0,000000000e+00
      282000000    5,746429414e-02   -4,490207881e-02   -3,457220495e-01   -6,824533343e-01    0,000000000e+00    0,000000000e+00    0,000000000e+00    0,000000000e+00
      296000000    2,619598620e-02   -8,467622101e-02   -6,547504663e-01   -3,979072571e-01    0,000000000e+00    0,000000000e+00    0,000000000e+00    0,000000000e+00
      310000000   -1,881729625e-02   -8,961613476e-02   -7,745063901e-01    1,033669990e-02    0,000000000e+00    0,000000000e+00    0,000000000e+00    0,000000000e+00
      324000000   -4,644623399e-02   -6,346072257e-02   -6,473458409e-01    4,294947982e-01    0,000000000e+00    0,000000000e+00    0,000000000e+00    0,000000000e+00
      338000000   -4,117905721e-02   -3,781488910e-02   -3,089936078e-01    7,086148262e-01    0,000000000e+00    0,000000000e+00    0,000000000e+00    0,000000000e+00
      352000000   -2,336271666e-02   -3,800059110e-02    1,200161278e-01    7,582709789e-01    0,000000000e+00    0,000000000e+00    0,000000000e+00    0,000000000e+00
      366000000   -2,302028798e-02   -5,609700084e-02    5,033551455e-01    5,715644360e-01    0,000000000e+00    0,000000000e+00    0,000000000e+00    0,000000000e+00
      380000000   -4,503436759e-02   -6,543207914e-02    7,265125513e-01    2,111788988e-01    0,000000000e+00    0,000000000e+00    0,000000000e+00    0,000000000e+00
      394000000   -6,639378518e-02   -5,078361183e-02    7,236576080e-01   -2,130628079e-01    0,000000000e+00    0,000000000e+00    0,000000000e+00    0,000000000e+00
      408000000   -6,767398864e-02   -2,628148161e-02    4,890258610e-01   -5,690913796e-01    0,000000000e+00    0,000000000e+00    0,000000000e+00    0,000000000e+00
      422000000   -5,301650986e-02   -1,546218991e-02    1,053798273e-01   -7,389683723e-01    0,000000000e+00    0,000000000e+00    0,000000000e+00    0,000000000e+00
      436000000   -4,643796757e-02   -1,885831170e-02   -3,062137961e-01   -6,767194867e-01    0,000000000e+00    0,000000000e+00    0,000000000e+00    0,000000000e+00
      450000000   -5,204179138e-02   -1,528137177e-02   -6,191285253e-01   -3,995997608e-01    0,000000000e+00    0,000000000e+00    0,000000000e+00    0,000000000e+00
      464000000   -5,013453960e-02    5,539228208e-03   -7,295420766e-01    3,331169952e-03    0,000000000e+00    0,000000000e+00    0,000000000e+00    0,000000000e+00
      478000000   -2,030288242e-02    2,623319440e-02   -5,983407497e-01    3,976234198e-01    0,000000000e+00    0,000000000e+00    0,000000000e+00    0,000000000e+00
      492000000    2,829277143e-02    1,460799947e-02   -2,800146341e-01    6,441973448e-01    0,000000000e+00    0,000000000e+00    0,000000000e+00    0,000000000e+00
      506000000    5,909335986e-02   -3,730502352e-02    1,052905545e-01    6,801410913e-01    0,000000000e+00    0,000000000e+00    0,000000000e+00    0,000000000e+00
      520000000    4,400544986e-02   -1,021969989e-01    4,407070875e-01    5,203557611e-01    0,000000000e+00    0,000000000e+00    0,000000000e+00    0,000000000e+00
      534000000   -1,276079752e-02   -1,436554044e-01    6,500211358e-01    2,059984505e-01    0,000000000e+00    0,000000000e+00    0,000000000e+00    0,000000000e+00
      548000000   -8,057933301e-02   -1,393414885e-01    6,604603529e-01   -1,753975898e-01    0,000000000e+00    0,000000000e+00    0,000000000e+00    0,000000000e+00
      562000000   -1,291210651e-01   -9,787274897e-02    4,523209035e-01   -5,084123611e-01    0,000000000e+00    0,000000000e+00    0,000000000e+00    0,000000000e+00
      576000000   -1,477452815e-01   -4,054532200e-02    8,411015570e-02   -6,613016725e-01    0,000000000e+00    0,000000000e+00    0,000000000e+00    0,000000000e+00
      590000000   -1,317209154e-01    2,354884334e-02   -2,948884964e-01   -5,694892406e-01    0,000000000e+00    0,000000000e+00    0,000000000e+00    0,000000000e+00
      604000000   -5,037782714e-02    6,993024796e-02   -5,026507378e-01   -2,715649307e-01    0,000000000e+00    0,000000000e+00    0,000000000e+00    0,000000000e+00
      618000000    3,899231926e-02   -1,219809800e-02   -4,923832119e-01   -2,885155194e-02    0,000000000e+00    0,000000000e+00    0,000000000e+00    0,000000000e+00
      632000000   -3,870210797e-02   -9,873708338e-02   -5,078329444e-01    1,727317572e-01    0,000000000e+00    0,000000000e+00    0,000000000e+00    0,000000000e+00
      646000000   -1,014317498e-01   -4,354201257e-02   -3,806572556e-01    4,656053185e-01    0,000000000e+00    0,000000000e+00    0,000000000e+00    0,000000000e+00
      660000000   -7,463686913e-02    8,364735171e-03   -5,754091963e-02    6,226033568e-01    0,000000000e+00    0,000000000e+00    0,000000000e+00    0,000000000e+00
      674000000   -3,377779946e-02    6,819879636e-03    2,950531542e-01    5,548329949e-01    0,000000000e+00    0,000000000e+00    0,000000000e+00    0,000000000e+00
      688000000   -1,524387579e-02   -1,527750865e-02    5,460563898e-01    3,059212565e-01    0,000000000e+00    0,000000000e+00    0,000000000e+00    0,000000000e+00
      702000000   -1,329209376e-02   -3,228612617e-02    6,209267378e-01   -4,088760167e-02    0,000000000e+00    0,000000000e+00    0,000000000e+00    0,000000000e+00
      716000000   -8,346255869e-03   -4,821129516e-02    4,932794273e-01   -3,663381338e-01    0,000000000e+00    0,000000000e+00    0,000000000e+00    0,000000000e+00
      730000000   -5,782238673e-03   -7,587323338e-02    2,133261859e-01   -5,674834847e-01    0,000000000e+00    0,000000000e+00    0,000000000e+00    0,000000000e+00
      744000000   -2,590445429e-02   -1,119215563e-01   -1,225479469e-01   -5,903341174e-01    0,000000000e+00    0,000000000e+00    0,000000000e+00    0,000000000e+00
      758000000   -7,446203381e-02   -1,343205273e-01   -4,198207259e-01   -4,343533814e-01    0,000000000e+00    0,000000000e+00    0,000000000e+00    0,000000000e+00
      772000000   -1,369085461e-01   -1,168755218e-01   -5,944563746e-01   -1,414525807e-01    0,000000000e+00    0,000000000e+00    0,000000000e+00    0,000000000e+00
      786000000   -1,735899448e-01   -5,725535378e-02   -5,832913518e-01    2,097707391e-01    0,000000000e+00    0,000000000e+00    0,000000000e+00    0,000000000e+00
      800000000   -1,596028358e-01    8,193512447e-03   -3,743842840e-01    4,966415465e-01    0,000000000e+00    0,000000000e+00    0,000000000e+00    0,000000000e+00
      814000000   -1,140298024e-01    4,363847151e-02   -4,575638846e-02    6,162068844e-01    0,000000000e+00    0,000000000e+00    0,000000000e+00    0,000000000e+00
      828000000   -6,742546707e-02    4,457357153e-02    2,854230702e-01    5,414085984e-01    0,000000000e+00    0,000000000e+00    0,000000000e+00    0,000000000e+00
      842000000   -3,812626004e-02    2,859703451e-02    5,217220187e-01    3,068805337e-01    0,000000000e+00    0,000000000e+00    0,000000000e+00    0,000000000e+00
      856000000   -1,886274852e-02    1,089655049e-02    5,959803462e-01   -1,382276788e-02    0,000000000e+00    0,000000000e+00    0,000000000e+00    0,000000000e+00
      870000000    9,433963569e-04   -1,160507929e-02    4,877923727e-01   -3,181785345e-01    0,000000000e+00    0,000000000e+00    0,000000000e+00    0,000000000e+00
      884000000    1,125225239e-02   -5,076712370e-02    2,431564182e-01   -5,142033696e-01    0,000000000e+00    0,000000000e+00    0,000000000e+00    0,000000000e+00
      898000000   -4,426715896e-03   -1,004696041e-01   -5,818124488e-02   -5,560174584e-01    0,000000000e+00    0,000000000e+00    0,000000000e+00    0,000000000e+00
      912000000   -6,249336898e-02   -1,308494359e-01   -3,810377121e-01   -4,191863239e-01    0,000000000e+00    0,000000000e+00    0,000000000e+00    0,000000000e+00
      926000000   -1,254873425e-01   -1,166426018e-01   -5,673446655e-01   -1,448391676e-01    0,000000000e+00    0,000000000e+00    0,000000000e+00    0,000000000e+00
      940000000   -1,626834571e-01   -6,196131557e-02   -5,689785480e-01    1,945455968e-01    0,000000000e+00    0,000000000e+00    0,000000000e+00    0,000000000e+00
      954000000   -1,444157213e-01   -4,786498845e-03   -3,721829057e-01    4,855128229e-01    0,000000000e+00    0,000000000e+00    0,000000000e+00    0,000000000e+00
      968000000   -1,020301506e-01    2,421379648e-02   -5,191919208e-02    6,175885201e-01    0,000000000e+00    0,000000000e+00    0,000000000e+00    0,000000000e+00
      982000000   -5,803724378e-02    4,514563829e-03    2,815917432e-01    5,527586341e-01    0,000000000e+00    0,000000000e+00    0,000000000e+00    0,000000000e+00
      996000000   -4,479814321e-02   -3,422904387e-02    5,228017569e-01    3,248831332e-01    0,000000000e+00    0,000000000e+00    0,000000000e+00    0,000000000e+00
     1010000000   -6,099974737e-02   -6,888028979e-02    6,069829464e-01    1,429427229e-02    0,000000000e+00    0,000000000e+00    0,000000000e+00    0,000000000e+00
     1024000000   -1,028650552e-01   -7,628906518e-02    5,142183900e-01   -2,833682597e-01    0,000000000e+00    0,000000000e+00    0,000000000e+00    0,000000000e+00
     1038000000   -1,394645274e-01   -5,426061153e-02    2,940238118e-01   -4,691986144e-01    0,000000000e+00    0,000000000e+00    0,000000000e+00    0,000000000e+00
     1052000000   -1,506901681e-01    1,225630869e-03    3,631930053e-02   -5,249184370e-01    0,000000000e+00    0,000000000e+00    0,000000000e+00    0,000000000e+00
     1066000000   -1,037864089e-01    3,661287948e-02   -2,134497911e-01   -4,660116434e-01    0,000000000e+00    0,000000000e+00    0,000000000e+00    0,000000000e+00
     1080000000   -5,014770105e-02    2,707704715e-02   -4,175055623e-01   -2,984193563e-01    0,000000000e+00    0,000000000e+00    0,000000000e+00    0,000000000e+00
     1094000000   -3,717199340e-02   -6,126715336e-03   -5,203413367e-01   -2,387786657e-02    0,000000000e+00    0,000000000e+00    0,000000000e+00    0,000000000e+00
     1108000000   -3,393062577e-02   -3,555078059e-02   -4,401959181e-01    2,844993472e-01    0,000000000e+00    0,000000000e+00    0,000000000e+00    0,000000000e+00
     1122000000   -3,391623497e-02   -5,621073395e-02   -1,867807657e-01    4,962669909e-01    0,000000000e+00    0,000000000e+00    0,000000000e+00    0,000000000e+00
     1136000000   -4,027416930e-02   -9,240581840e-02    1,518986225e-01    5,188907385e-01    0,000000000e+00    0,000000000e+00    0,000000000e+00    0,000000000e+00
     1150000000   -8,145628870e-02   -1,206432730e-01    4,505593181e-01    3,403843343e-01    0,000000000e+00    0,000000000e+00    0,000000000e+00    0,000000000e+00
     1164000000   -1,365940124e-01   -1,244739294e-01    6,109266877e-01    1,022116747e-02    0,000000000e+00    0,000000000e+00    0,000000000e+00    0,000000000e+00
     1178000000   -1,791599989e-01   -8,796947449e-02    5,390450358e-01   -3,695550859e-01    0,000000000e+00    0,000000000e+00    0,000000000e+00    0,000000000e+00
     1192000000   -1,806972623e-01   -5,846286193e-02    2,384711355e-01   -6,381807327e-01    0,000000000e+00    0,000000000e+00    0,000000000e+00    0,000000000e+00
     1206000000   -1,881402433e-01   -5,655667931e-02   -1,388453096e-01   -6,642050147e-01    0,000000000e+00    0,000000000e+00    0,000000000e+00    0,000000000e+00
     1220000000   -2,571104169e-01   -1,382837631e-02   -4,215164781e-01   -4,790919721e-01    0,000000000e+00    0,000000000e+00    0,000000000e+00    0,000000000e+00
     1234000000   -2,388698608e-01    1,149058118e-01   -5,541905761e-01   -2,477052361e-01    0,000000000e+00    0,000000000e+00    0,000000000e+00    0,000000000e+00
     1248000000   -1,132415012e-01    1,737810969e-01   -6,056823134e-01    1,852270029e-02    0,000000000e+00    0,000000000e+00    0,000000000e+00    0,000000000e+00
     1262000000   -6,237368798e-04    1,330853403e-01   -5,073601007e-01    2,955958545e-01    0,000000000e+00    0,000000000e+00    0,000000000e+00    0,000000000e+00
     1276000000    6,407573819e-02    4,293783009e-02   -2,767452300e-01    4,944232106e-01    0,000000000e+00    0,000000000e+00    0,000000000e+00    0,000000000e+00
     1290000000    7,176095992e-02   -6,825330853e-02    7,751407567e-03    5,480541587e-01    0,000000000e+00    0,000000000e+00    0,000000000e+00    0,000000000e+00
     1304000000    2,631683089e-02   -1,806846857e-01    3,032366335e-01    4,832547009e-01    0,000000000e+00    0,000000000e+00    0,000000000e+00    0,000000000e+00
     1318000000   -8,851645142e-02   -2,505136430e-01    5,426416397e-01    2,718686759e-01    0,000000000e+00    0,000000000e+00    0,000000000e+00    0,000000000e+00
     1332000000   -2,417172641e-01   -2,416276634e-01    6,462174654e-01   -4,592014104e-02    0,000000000e+00    0,000000000e+00    0,000000000e+00    0,000000000e+00
     1346000000   -3,614196777e-01   -1,443120986e-01    5,576164722e-01   -4,135193229e-01    0,000000000e+00    0,000000000e+00    0,000000000e+00    0,000000000e+00
     1360000000   -3,873667419e-01    8,554917760e-03    2,520561218e-01   -6,276931167e-01    0,000000000e+00    0,000000000e+00    0,000000000e+00    0,000000000e+00
     1374000000   -3,249437511e-01    1,147288084e-01   -1,064137146e-01   -6,310084462e-01    0,000000000e+00    0,000000000e+00    0,000000000e+00    0,000000000e+00
     1388000000   -2,358104289e-01    1,739966422e-01   -3,757386208e-01   -4,077908397e-01    0,000000000e+00    0,000000000e+00    0,000000000e+00    0,000000000e+00
     1402000000   -1,547298431e-01    1,691356003e-01   -4,708785117e-01   -1,085795760e-01    0,000000000e+00    0,000000000e+00    0,000000000e+00    0,000000000e+00
     1416000000   -8,621238172e-02    1,427589655e-01   -4,023317993e-01    2,010041028e-01    0,000000000e+00    0,000000000e+00    0,000000000e+00    0,000000000e+00
     1430000000   -3,337862343e-02    8,276478946e-02   -1,756767482e-01    4,059652984e-01    0,000000000e+00    0,000000000e+00    0,000000000e+00    0,000000000e+00
     1444000000   -9,074255824e-03    1,776399789e-03    1,265029162e-01    5,167378187e-01    0,000000000e+00    0,000000000e+00    0,000000000e+00    0,000000000e+00
     1458000000   -4,213912413e-02   -8,393537253e-02    4,422086775e-01    5,025022626e-01    0,000000000e+00    0,000000000e+00    0,000000000e+00    0,000000000e+00
     1472000000   -1,221494153e-01   -1,427380294e-01    7,309333682e-01    3,103369474e-01    0,000000000e+00    0,000000000e+00    0,000000000e+00    0,000000000e+00
     1486000000   -2,328561097e-01   -1,370452493e-01    9,061872959e-01   -2,815311775e-02    0,000000000e+00    0,000000000e+00    0,000000000e+00    0,000000000e+00
     1500000000   -3,013818860e-01   -5,841814727e-02    8,456788659e-01   -4,218279719e-01    0,000000000e+00    0,000000000e+00    0,000000000e+00    0,000000000e+00
