! NanoVNA-App
! Date: 2025-09-25 14:58:15
! Start: 100MHz Stop: 1,5GHz Points: 101
! S-Parameter data: F S11 S21 S12 S22
# Hz S RI R 50
!     Frequency           S11_Real           S11_Imag           S21_Real           S21_Imag           S12_Real           S12_Imag           S22_Real           S22_Imag
      100000000    3,558206558e-02    2,734789439e-02    4,406881034e-01   -6,695280075e-01    0,000000000e+00    0,000000000e+00    0,000000000e+00    0,000000000e+00
      114000000    6,071902439e-02    2,202841686e-03    1,297679357e-02   -7,953220010e-01    0,000000000e+00    0,000000000e+00    0,000000000e+00    0,000000000e+00
      128000000    6,835359335e-02   -4,223017395e-02   -4,082645774e-01   -6,781556010e-01    0,000000000e+00    0,000000000e+00    0,000000000e+00    0,000000000e+00
      142000000    4,351630062e-02   -8,877406269e-02   -7,052522302e-01   -3,609595001e-01    0,000000000e+00    0,000000000e+00    0,000000000e+00    0,000000000e+00
      156000000   -8,844880387e-03   -1,104819849e-01   -7,938166857e-01    6,854397804e-02    0,000000000e+00    0,000000000e+00    0,000000000e+00    0,000000000e+00
      170000000   -6,264860183e-02   -9,180112183e-02   -6,369584203e-01    4,864653349e-01    0,000000000e+00    0,000000000e+00    0,000000000e+00    0,000000000e+00
      184000000   -8,858800679e-02   -4,762210324e-02   -2,731446624e-01    7,562008500e-01    0,000000000e+00    0,000000000e+00    0,000000000e+00    0,000000000e+00
      198000000   -8,271878213e-02   -6,437978707e-03    1,797412634e-01    7,822036743e-01    0,000000000e+00    0,000000000e+00    0,000000000e+00    0,000000000e+00
      212000000   -6,263918430e-02    1,802256331e-02    5,709590316e-01    5,585327744e-01    0,000000000e+00    0,000000000e+00    0,000000000e+00    0,000000000e+00
      226000000   -4,141060635e-02    3,187160939e-02    7,766507268e-01    1,618145555e-01    0,000000000e+00    0,000000000e+00    0,000000000e+00    0,000000000e+00
      240000000   -1,487684716e-02    4,134515300e-02    7,360148430e-01   -2,787506580e-01    0,000000000e+00    0,000000000e+00    0,000000000e+00    0,000000000e+00
      254000000    2,137795091e-02    3,626674414e-02    4,681273401e-01   -6,223721504e-01    0,000000000e+00    0,000000000e+00    0,000000000e+00    0,000000000e+00
      268000000    5,327997357e-02    4,724497907e-03    6,657681614e-02   -7,672867775e-01    0,000000000e+00    0,000000000e+00    0,000000000e+00    0,000000000e+00
      282000000    5,733740702e-02   -4,491750896e-02   -3,456377089e-01   -6,828086376e-01    0,000000000e+00    0,000000000e+00    0,000000000e+00    0,000000000e+00
      296000000    2,615000680e-02   -8,473168314e-02   -6,549842358e-01   -3,979195356e-01    0,000000000e+00    0,000000000e+00    0,000000000e+00    0,000000000e+00
      310000000   -1,901875995e-02   -8,930283785e-02   -7,744382620e-01    1,150041167e-02    0,000000000e+00    0,000000000e+00    0,000000000e+00    0,000000000e+00
      324000000   -4,655530304e-02   -6,343129277e-02   -6,476893425e-01    4,295193851e-01    0,000000000e+00    0,000000000e+00    0,000000000e+00    0,000000000e+00
      338000000   -4,112734646e-02   -3,773602471e-02   -3,112016320e-01    7,110453248e-01    0,000000000e+00    0,000000000e+00    0,000000000e+00    0,000000000e+00
      352000000   -2,345220931e-02   -3,790436313e-02    1,199138314e-01    7,585442662e-01    0,000000000e+00    0,000000000e+00    0,000000000e+00    0,000000000e+00
      366000000   -2,294321731e-02   -5,630679056e-02    5,039126873e-01    5,712459087e-01    0,000000000e+00    0,000000000e+00    0,000000000e+00    0,000000000e+00
      380000000   -4,485718533e-02   -6,516866386e-02    7,259824872e-01    2,114630193e-01    0,000000000e+00    0,000000000e+00    0,000000000e+00    0,000000000e+00
      394000000   -6,647060066e-02   -5,072681233e-02    7,227825522e-01   -2,138868272e-01    0,000000000e+00    0,000000000e+00    0,000000000e+00    0,000000000e+00
      408000000   -6,746420264e-02   -2,653535083e-02    4,903090596e-01   -5,688009262e-01    0,000000000e+00    0,000000000e+00    0,000000000e+00    0,000000000e+00
      422000000   -5,351504683e-02   -1,521392912e-02    1,059829742e-01   -7,383992672e-01    0,000000000e+00    0,000000000e+00    0,000000000e+00    0,000000000e+00
      436000000   -4,671010748e-02   -1,861875504e-02   -3,061795831e-01   -6,751454473e-01    0,000000000e+00    0,000000000e+00    0,000000000e+00    0,000000000e+00
      450000000   -5,237431824e-02   -1,506681088e-02   -6,193382740e-01   -4,000390768e-01    0,000000000e+00    0,000000000e+00    0,000000000e+00    0,000000000e+00
      464000000   -5,035312474e-02    6,249862723e-03   -7,298668623e-01    3,665030468e-03    0,000000000e+00    0,000000000e+00    0,000000000e+00    0,000000000e+00
      478000000   -2,042293549e-02    2,643426321e-02   -5,983667374e-01    3,969491124e-01    0,000000000e+00    0,000000000e+00    0,000000000e+00    0,000000000e+00
      492000000    2,848868072e-02    1,466683112e-02   -2,795034945e-01    6,442792416e-01    0,000000000e+00    0,000000000e+00    0,000000000e+00    0,000000000e+00
      506000000    5,901838094e-02   -3,753829747e-02    1,044986770e-01    6,802713871e-01    0,000000000e+00    0,000000000e+00    0,000000000e+00    0,000000000e+00
      520000000    4,370224848e-02   -1,032314599e-01    4,431592822e-01    5,169340372e-01    0,000000000e+00    0,000000000e+00    0,000000000e+00    0,000000000e+00
      534000000   -1,319687441e-02   -1,442068070e-01    6,492067575e-01    2,054080814e-01    0,000000000e+00    0,000000000e+00    0,000000000e+00    0,000000000e+00
      548000000   -8,172375709e-02   -1,402347386e-01    6,599400640e-01   -1,763457507e-01    0,000000000e+00    0,000000000e+00    0,000000000e+00    0,000000000e+00
      562000000   -1,318999529e-01   -9,783153236e-02    4,499164224e-01   -5,087014437e-01    0,000000000e+00    0,000000000e+00    0,000000000e+00    0,000000000e+00
      576000000   -1,497438699e-01   -3,803799301e-02    8,292311430e-02   -6,605162024e-01    0,000000000e+00    0,000000000e+00    0,000000000e+00    0,000000000e+00
      590000000   -1,294827014e-01    3,015102632e-02   -2,947375476e-01   -5,631530285e-01    0,000000000e+00    0,000000000e+00    0,000000000e+00    0,000000000e+00
      604000000   -3,618623689e-02    6,819023192e-02   -4,861863852e-01   -2,699965537e-01    0,000000000e+00    0,000000000e+00    0,000000000e+00    0,000000000e+00
      618000000    3,367134556e-02   -3,267889097e-02   -4,943641722e-01   -5,361825600e-02    0,000000000e+00    0,000000000e+00    0,000000000e+00    0,000000000e+00
      632000000   -5,415500328e-02   -9,223251045e-02   -5,277819037e-01    1,779978126e-01    0,000000000e+00    0,000000000e+00    0,000000000e+00    0,000000000e+00
      646000000   -1,001910791e-01   -3,275087848e-02   -3,789286017e-01    4,777867794e-01    0,000000000e+00    0,000000000e+00    0,000000000e+00    0,000000000e+00
      660000000   -6,761387736e-02    1,004087552e-02   -4,874229804e-02    6,258578300e-01    0,000000000e+00    0,000000000e+00    0,000000000e+00    0,000000000e+00
      674000000   -2,988184430e-02    5,015763920e-03    2,993097305e-01    5,528535247e-01    0,000000000e+00    0,000000000e+00    0,000000000e+00    0,000000000e+00
      688000000   -1,498997677e-02   -1,869357377e-02    5,476424694e-01    3,030524254e-01    0,000000000e+00    0,000000000e+00    0,000000000e+00    0,000000000e+00
      702000000   -1,511530764e-02   -3,501279652e-02    6,205769181e-01   -4,459540546e-02    0,000000000e+00    0,000000000e+00    0,000000000e+00    0,000000000e+00
      716000000   -1,036250219e-02   -4,924235120e-02    4,912036359e-01   -3,688358068e-01    0,000000000e+00    0,000000000e+00    0,000000000e+00    0,000000000e+00
      730000000   -7,475848775e-03   -7,510918379e-02    2,110944539e-01   -5,676708817e-01    0,000000000e+00    0,000000000e+00    0,000000000e+00    0,000000000e+00
      744000000   -2,638645470e-02   -1,098283306e-01   -1,244244277e-01   -5,877853632e-01    0,000000000e+00    0,000000000e+00    0,000000000e+00    0,000000000e+00
      758000000   -7,377222180e-02   -1,325901002e-01   -4,200488329e-01   -4,322403669e-01    0,000000000e+00    0,000000000e+00    0,000000000e+00    0,000000000e+00
      772000000   -1,348629147e-01   -1,163239777e-01   -5,935789347e-01   -1,398116648e-01    0,000000000e+00    0,000000000e+00    0,000000000e+00    0,000000000e+00
      786000000   -1,712196618e-01   -5,923170969e-02   -5,814698339e-01    2,097700089e-01    0,000000000e+00    0,000000000e+00    0,000000000e+00    0,000000000e+00
      800000000   -1,590511501e-01    6,300933659e-03   -3,725730777e-01    4,962609112e-01    0,000000000e+00    0,000000000e+00    0,000000000e+00    0,000000000e+00
      814000000   -1,142394841e-01    4,314825684e-02   -4,626101628e-02    6,141383052e-01    0,000000000e+00    0,000000000e+00    0,000000000e+00    0,000000000e+00
      828000000   -6,889279932e-02    4,438560829e-02    2,856097817e-01    5,408455729e-01    0,000000000e+00    0,000000000e+00    0,000000000e+00    0,000000000e+00
      842000000   -3,871750087e-02    2,887856215e-02    5,211771131e-01    3,052562475e-01    0,000000000e+00    0,000000000e+00    0,000000000e+00    0,000000000e+00
      856000000   -1,780964062e-02    1,271491870e-02    5,944619179e-01   -1,418564375e-02    0,000000000e+00    0,000000000e+00    0,000000000e+00    0,000000000e+00
      870000000    2,452442655e-03   -1,056237053e-02    4,860686660e-01   -3,160240352e-01    0,000000000e+00    0,000000000e+00    0,000000000e+00    0,000000000e+00
      884000000    1,391491387e-02   -5,197108909e-02    2,421655357e-01   -5,107151270e-01    0,000000000e+00    0,000000000e+00    0,000000000e+00    0,000000000e+00
      898000000   -3,667980200e-03   -1,024166197e-01   -5,776477605e-02   -5,552353263e-01    0,000000000e+00    0,000000000e+00    0,000000000e+00    0,000000000e+00
      912000000   -6,333770603e-02   -1,321061105e-01   -3,816524744e-01   -4,161245227e-01    0,000000000e+00    0,000000000e+00    0,000000000e+00    0,000000000e+00
      926000000   -1,277499497e-01   -1,199027225e-01   -5,661548972e-01   -1,513051391e-01    0,000000000e+00    0,000000000e+00    0,000000000e+00    0,000000000e+00
      940000000   -1,647787243e-01   -6,036632136e-02   -5,694977045e-01    1,928823143e-01    0,000000000e+00    0,000000000e+00    0,000000000e+00    0,000000000e+00
      954000000   -1,487737000e-01    4,088221467e-04   -3,752772212e-01    4,839676917e-01    0,000000000e+00    0,000000000e+00    0,000000000e+00    0,000000000e+00
      968000000   -9,408579022e-02    2,297410555e-02   -5,306518823e-02    6,129364371e-01    0,000000000e+00    0,000000000e+00    0,000000000e+00    0,000000000e+00
      982000000   -5,293359607e-02    6,910757627e-03    2,798985541e-01    5,514455438e-01    0,000000000e+00    0,000000000e+00    0,000000000e+00    0,000000000e+00
      996000000   -4,263884202e-02   -3,087358363e-02    5,259072185e-01    3,290720582e-01    0,000000000e+00    0,000000000e+00    0,000000000e+00    0,000000000e+00
     1010000000   -6,231187284e-02   -6,353434175e-02    6,064884663e-01    1,470925007e-02    0,000000000e+00    0,000000000e+00    0,000000000e+00    0,000000000e+00
     1024000000   -1,007129326e-01   -7,588773966e-02    5,139752626e-01   -2,826954722e-01    0,000000000e+00    0,000000000e+00    0,000000000e+00    0,000000000e+00
     1038000000   -1,417893320e-01   -5,983232707e-02    2,951376140e-01   -4,710916579e-01    0,000000000e+00    0,000000000e+00    0,000000000e+00    0,000000000e+00
     1052000000   -1,494232118e-01   -3,207352012e-03    3,397183493e-02   -5,214574933e-01    0,000000000e+00    0,000000000e+00    0,000000000e+00    0,000000000e+00
     1066000000   -1,015855074e-01    3,980492055e-02   -2,086054087e-01   -4,627240896e-01    0,000000000e+00    0,000000000e+00    0,000000000e+00    0,000000000e+00
     1080000000   -5,033985898e-02    2,888256870e-02   -4,155821800e-01   -2,994880378e-01    0,000000000e+00    0,000000000e+00    0,000000000e+00    0,000000000e+00
     1094000000   -3,536491096e-02   -9,070633911e-03   -5,190847516e-01   -2,428217977e-02    0,000000000e+00    0,000000000e+00    0,000000000e+00    0,000000000e+00
     1108000000   -3,509100154e-02   -3,022804484e-02   -4,433304965e-01    2,839644849e-01    0,000000000e+00    0,000000000e+00    0,000000000e+00    0,000000000e+00
     1122000000   -2,812719531e-02   -5,660055950e-02   -1,864424050e-01    4,958936274e-01    0,000000000e+00    0,000000000e+00    0,000000000e+00    0,000000000e+00
     1136000000   -4,037149251e-02   -9,485016018e-02    1,513279080e-01    5,208842754e-01    0,000000000e+00    0,000000000e+00    0,000000000e+00    0,000000000e+00
     1150000000   -7,820922136e-02   -1,245479658e-01    4,550997913e-01    3,419355750e-01    0,000000000e+00    0,000000000e+00    0,000000000e+00    0,000000000e+00
     1164000000   -1,363775581e-01   -1,184756383e-01    6,088660359e-01    1,183920819e-02    0,000000000e+00    0,000000000e+00    0,000000000e+00    0,000000000e+00
     1178000000   -1,753697693e-01   -9,062290937e-02    5,420016646e-01   -3,736405671e-01    0,000000000e+00    0,000000000e+00    0,000000000e+00    0,000000000e+00
     1192000000   -1,834218651e-01   -5,475939810e-02    2,374713272e-01   -6,345099807e-01    0,000000000e+00    0,000000000e+00    0,000000000e+00    0,000000000e+00
     1206000000   -1,927779913e-01   -5,673693866e-02   -1,387819648e-01   -6,621596217e-01    0,000000000e+00    0,000000000e+00    0,000000000e+00    0,000000000e+00
     1220000000   -2,516548336e-01   -1,773195714e-02   -4,193978906e-01   -4,863374829e-01    0,000000000e+00    0,000000000e+00    0,000000000e+00    0,000000000e+00
     1234000000   -2,422644943e-01    1,161332130e-01   -5,611007214e-01   -2,500885129e-01    0,000000000e+00    0,000000000e+00    0,000000000e+00    0,000000000e+00
     1248000000   -1,210158542e-01    1,740945876e-01   -6,034532189e-01    1,998756640e-02    0,000000000e+00    0,000000000e+00    0,000000000e+00    0,000000000e+00
     1262000000   -4,465419333e-03    1,290337592e-01   -5,057067275e-01    2,960078716e-01    0,000000000e+00    0,000000000e+00    0,000000000e+00    0,000000000e+00
     1276000000    6,237631664e-02    3,972068429e-02   -2,743611336e-01    4,853234887e-01    0,000000000e+00    0,000000000e+00    0,000000000e+00    0,000000000e+00
     1290000000    7,307837903e-02   -7,152657956e-02    1,342935208e-02    5,424795747e-01    0,000000000e+00    0,000000000e+00    0,000000000e+00    0,000000000e+00
     1304000000    2,116003446e-02   -1,790817529e-01    3,025479615e-01    4,810574949e-01    0,000000000e+00    0,000000000e+00    0,000000000e+00    0,000000000e+00
     1318000000   -9,209106863e-02   -2,571544051e-01    5,388625860e-01    2,701530755e-01    0,000000000e+00    0,000000000e+00    0,000000000e+00    0,000000000e+00
     1332000000   -2,386909872e-01   -2,471358478e-01    6,534326673e-01   -5,695297197e-02    0,000000000e+00    0,000000000e+00    0,000000000e+00    0,000000000e+00
     1346000000   -3,604171574e-01   -1,446970105e-01    5,509884357e-01   -4,081504643e-01    0,000000000e+00    0,000000000e+00    0,000000000e+00    0,000000000e+00
     1360000000   -3,852171898e-01    2,726170933e-03    2,546454072e-01   -6,424129009e-01    0,000000000e+00    0,000000000e+00    0,000000000e+00    0,000000000e+00
     1374000000   -3,278774619e-01    1,153253242e-01   -1,016055942e-01   -6,267795563e-01    0,000000000e+00    0,000000000e+00    0,000000000e+00    0,000000000e+00
     1388000000   -2,323902249e-01    1,717222631e-01   -3,689547777e-01   -4,227264225e-01    0,000000000e+00    0,000000000e+00    0,000000000e+00    0,000000000e+00
     1402000000   -1,521737427e-01    1,717694253e-01   -4,789281487e-01   -1,012682095e-01    0,000000000e+00    0,000000000e+00    0,000000000e+00    0,000000000e+00
     1416000000   -8,291990310e-02    1,415255964e-01   -3,954267204e-01    2,078012228e-01    0,000000000e+00    0,000000000e+00    0,000000000e+00    0,000000000e+00
     1430000000   -3,536423668e-02    7,981894910e-02   -1,680538356e-01    4,107578993e-01    0,000000000e+00    0,000000000e+00    0,000000000e+00    0,000000000e+00
     1444000000   -2,045944519e-02    1,361283660e-02    1,241398379e-01    5,244196653e-01    0,000000000e+00    0,000000000e+00    0,000000000e+00    0,000000000e+00
     1458000000   -4,072966054e-02   -7,616157830e-02    4,281527400e-01    5,020364523e-01    0,000000000e+00    0,000000000e+00    0,000000000e+00    0,000000000e+00
     1472000000   -1,156329885e-01   -1,414940804e-01    7,419312000e-01    3,130639791e-01    0,000000000e+00    0,000000000e+00    0,000000000e+00    0,000000000e+00
     1486000000   -2,303707898e-01   -1,422424316e-01    9,090522528e-01   -4,357007518e-02    0,000000000e+00    0,000000000e+00    0,000000000e+00    0,000000000e+00
     1500000000   -2,979536951e-01   -6,968458742e-02    8,482295275e-01   -4,216131568e-01    0,000000000e+00    0,000000000e+00    0,000000000e+00    0,000000000e+00
