! NanoVNA-App
! Date: 2025-09-25 14:57:14
! Start: 100MHz Stop: 1,5GHz Points: 101
! S-Parameter data: F S11 S21 S12 S22
# Hz S RI R 50
!     Frequency           S11_Real           S11_Imag           S21_Real           S21_Imag           S12_Real           S12_Imag           S22_Real           S22_Imag
      100000000    3,559765220e-02    2,732964233e-02    4,406838417e-01   -6,695567966e-01    0,000000000e+00    0,000000000e+00    0,000000000e+00    0,000000000e+00
      114000000    6,071926281e-02    2,123772632e-03    1,273935568e-02   -7,953281999e-01    0,000000000e+00    0,000000000e+00    0,000000000e+00    0,000000000e+00
      128000000    6,832487881e-02   -4,221862555e-02   -4,081924260e-01   -6,781863570e-01    0,000000000e+00    0,000000000e+00    0,000000000e+00    0,000000000e+00
      142000000    4,343570769e-02   -8,874207735e-02   -7,051908970e-01   -3,608709276e-01    0,000000000e+00    0,000000000e+00    0,000000000e+00    0,000000000e+00
      156000000   -9,399963543e-03   -1,100494489e-01   -7,927838564e-01    6,798006594e-02    0,000000000e+00    0,000000000e+00    0,000000000e+00    0,000000000e+00
      170000000   -6,261022389e-02   -9,182534367e-02   -6,370027661e-01    4,864712954e-01    0,000000000e+00    0,000000000e+00    0,000000000e+00    0,000000000e+00
      184000000   -8,855464309e-02   -4,767400399e-02   -2,728380263e-01    7,562739253e-01    0,000000000e+00    0,000000000e+00    0,000000000e+00    0,000000000e+00
      198000000   -8,274915814e-02   -6,384614855e-03    1,795711666e-01    7,822887897e-01    0,000000000e+00    0,000000000e+00    0,000000000e+00    0,000000000e+00
      212000000   -6,268643588e-02    1,807462238e-02    5,708599091e-01    5,583457947e-01    0,000000000e+00    0,000000000e+00    0,000000000e+00    0,000000000e+00
      226000000   -4,138340056e-02    3,182218224e-02    7,765361071e-01    1,619757712e-01    0,000000000e+00    0,000000000e+00    0,000000000e+00    0,000000000e+00
      240000000   -1,482830569e-02    4,132357612e-02    7,358881831e-01   -2,786073685e-01    0,000000000e+00    0,000000000e+00    0,000000000e+00    0,000000000e+00
      254000000    2,147497237e-02    3,620927781e-02    4,680805802e-01   -6,221271157e-01    0,000000000e+00    0,000000000e+00    0,000000000e+00    0,000000000e+00
      268000000    5,334324017e-02    4,626437556e-03    6,676900387e-02   -7,671953440e-01    0,000000000e+00    0,000000000e+00    0,000000000e+00    0,000000000e+00
      282000000    5,744927377e-02   -4,503653198e-02   -3,455549479e-01   -6,826628447e-01    0,000000000e+00    0,000000000e+00    0,000000000e+00    0,000000000e+00
      296000000    2,600178868e-02   -8,489973843e-02   -6,550486684e-01   -3,978220820e-01    0,000000000e+00    0,000000000e+00    0,000000000e+00    0,000000000e+00
      310000000   -1,896296255e-02   -8,929551393e-02   -7,728744745e-01    1,167214103e-02    0,000000000e+00    0,000000000e+00    0,000000000e+00    0,000000000e+00
      324000000   -4,658004642e-02   -6,338405609e-02   -6,478734612e-01    4,302085340e-01    0,000000000e+00    0,000000000e+00    0,000000000e+00    0,000000000e+00
      338000000   -4,119685292e-02   -3,784212470e-02   -3,129043579e-01    7,077680826e-01    0,000000000e+00    0,000000000e+00    0,000000000e+00    0,000000000e+00
      352000000   -2,354199067e-02   -3,775508702e-02    1,192579120e-01    7,580377460e-01    0,000000000e+00    0,000000000e+00    0,000000000e+00    0,000000000e+00
      366000000   -2,299350314e-02   -5,595833436e-02    5,028854609e-01    5,722382665e-01    0,000000000e+00    0,000000000e+00    0,000000000e+00    0,000000000e+00
      380000000   -4,437882453e-02   -6,525205821e-02    7,262982130e-01    2,120025456e-01    0,000000000e+00    0,000000000e+00    0,000000000e+00    0,000000000e+00
      394000000   -6,620077044e-02   -5,041626468e-02    7,222424746e-01   -2,134688646e-01    0,000000000e+00    0,000000000e+00    0,000000000e+00    0,000000000e+00
      408000000   -6,713252515e-02   -2,623523213e-02    4,911064208e-01   -5,677759051e-01    0,000000000e+00    0,000000000e+00    0,000000000e+00    0,000000000e+00
      422000000   -5,295203999e-02   -1,550695486e-02    1,066800952e-01   -7,384687662e-01    0,000000000e+00    0,000000000e+00    0,000000000e+00    0,000000000e+00
      436000000   -4,589166492e-02   -1,865540072e-02   -3,053815663e-01   -6,767803431e-01    0,000000000e+00    0,000000000e+00    0,000000000e+00    0,000000000e+00
      450000000   -5,222016573e-02   -1,532812603e-02   -6,192842722e-01   -3,994183838e-01    0,000000000e+00    0,000000000e+00    0,000000000e+00    0,000000000e+00
      464000000   -5,034163222e-02    5,127363838e-03   -7,293618321e-01    2,947913017e-03    0,000000000e+00    0,000000000e+00    0,000000000e+00    0,000000000e+00
      478000000   -2,114001662e-02    2,614890784e-02   -5,989012718e-01    3,967827559e-01    0,000000000e+00    0,000000000e+00    0,000000000e+00    0,000000000e+00
      492000000    2,738047764e-02    1,478473004e-02   -2,810913920e-01    6,436807513e-01    0,000000000e+00    0,000000000e+00    0,000000000e+00    0,000000000e+00
      506000000    5,801659822e-02   -3,710393608e-02    1,042957380e-01    6,803188324e-01    0,000000000e+00    0,000000000e+00    0,000000000e+00    0,000000000e+00
      520000000    4,395206645e-02   -1,011825502e-01    4,416427314e-01    5,184500217e-01    0,000000000e+00    0,000000000e+00    0,000000000e+00    0,000000000e+00
      534000000   -1,174723823e-02   -1,418960690e-01    6,497052908e-01    2,074475437e-01    0,000000000e+00    0,000000000e+00    0,000000000e+00    0,000000000e+00
      548000000   -7,933986932e-02   -1,381314993e-01    6,613711119e-01   -1,737773269e-01    0,000000000e+00    0,000000000e+00    0,000000000e+00    0,000000000e+00
      562000000   -1,261762679e-01   -9,891695529e-02    4,555930197e-01   -5,071953535e-01    0,000000000e+00    0,000000000e+00    0,000000000e+00    0,000000000e+00
      576000000   -1,435483694e-01   -4,586463794e-02    9,036319703e-02   -6,661227942e-01    0,000000000e+00    0,000000000e+00    0,000000000e+00    0,000000000e+00
      590000000   -1,344561130e-01    1,228996646e-02   -2,929730117e-01   -5,840906501e-01    0,000000000e+00    0,000000000e+00    0,000000000e+00    0,000000000e+00
      604000000   -7,350350916e-02    6,730060279e-02   -5,273616314e-01   -2,809188366e-01    0,000000000e+00    0,000000000e+00    0,000000000e+00    0,000000000e+00
      618000000    3,736675531e-02    2,496621571e-02   -5,021671653e-01    1,432487555e-02    0,000000000e+00    0,000000000e+00    0,000000000e+00    0,000000000e+00
      632000000   -2,530286554e-03   -1,033417135e-01   -4,660042226e-01    1,721332073e-01    0,000000000e+00    0,000000000e+00    0,000000000e+00    0,000000000e+00
      646000000   -1,028258651e-01   -6,704294682e-02   -3,789852858e-01    4,414496422e-01    0,000000000e+00    0,000000000e+00    0,000000000e+00    0,000000000e+00
      660000000   -8,742640167e-02    3,670972073e-03   -6,895817071e-02    6,166964769e-01    0,000000000e+00    0,000000000e+00    0,000000000e+00    0,000000000e+00
      674000000   -4,055983573e-02    1,255556848e-02    2,865994871e-01    5,582535863e-01    0,000000000e+00    0,000000000e+00    0,000000000e+00    0,000000000e+00
      688000000   -1,668591984e-02   -8,784559555e-03    5,441277623e-01    3,115688562e-01    0,000000000e+00    0,000000000e+00    0,000000000e+00    0,000000000e+00
      702000000   -1,053907350e-02   -2,856453881e-02    6,208816767e-01   -3,698574007e-02    0,000000000e+00    0,000000000e+00    0,000000000e+00    0,000000000e+00
      716000000   -5,249871407e-03   -4,778233543e-02    4,967535734e-01   -3,650528193e-01    0,000000000e+00    0,000000000e+00    0,000000000e+00    0,000000000e+00
      730000000   -3,620608710e-03   -7,635460794e-02    2,173401117e-01   -5,671273470e-01    0,000000000e+00    0,000000000e+00    0,000000000e+00    0,000000000e+00
      744000000   -2,415104397e-02   -1,152882576e-01   -1,202487424e-01   -5,910715461e-01    0,000000000e+00    0,000000000e+00    0,000000000e+00    0,000000000e+00
      758000000   -7,587773353e-02   -1,364165694e-01   -4,196848869e-01   -4,369180202e-01    0,000000000e+00    0,000000000e+00    0,000000000e+00    0,000000000e+00
      772000000   -1,386301965e-01   -1,164942458e-01   -5,971270800e-01   -1,434373856e-01    0,000000000e+00    0,000000000e+00    0,000000000e+00    0,000000000e+00
      786000000   -1,752546430e-01   -5,718144402e-02   -5,861451626e-01    2,099090666e-01    0,000000000e+00    0,000000000e+00    0,000000000e+00    0,000000000e+00
      800000000   -1,601941735e-01    9,852845222e-03   -3,752937019e-01    4,988011420e-01    0,000000000e+00    0,000000000e+00    0,000000000e+00    0,000000000e+00
      814000000   -1,125708967e-01    4,565247893e-02   -4,552834481e-02    6,178169250e-01    0,000000000e+00    0,000000000e+00    0,000000000e+00    0,000000000e+00
      828000000   -6,521666050e-02    4,382253811e-02    2,877167761e-01    5,426352620e-01    0,000000000e+00    0,000000000e+00    0,000000000e+00    0,000000000e+00
      842000000   -3,645409644e-02    2,664860524e-02    5,235131979e-01    3,068110049e-01    0,000000000e+00    0,000000000e+00    0,000000000e+00    0,000000000e+00
      856000000   -1,794863492e-02    8,221851662e-03    5,968304873e-01   -1,462533697e-02    0,000000000e+00    0,000000000e+00    0,000000000e+00    0,000000000e+00
      870000000   -1,257131808e-03   -1,441280451e-02    4,872513115e-01   -3,195688128e-01    0,000000000e+00    0,000000000e+00    0,000000000e+00    0,000000000e+00
      884000000    9,275048040e-03   -5,151002482e-02    2,413470298e-01   -5,145373344e-01    0,000000000e+00    0,000000000e+00    0,000000000e+00    0,000000000e+00
      898000000   -6,988218054e-03   -9,837855399e-02   -6,179831550e-02   -5,561803579e-01    0,000000000e+00    0,000000000e+00    0,000000000e+00    0,000000000e+00
      912000000   -6,216440722e-02   -1,284788847e-01   -3,830481470e-01   -4,147232771e-01    0,000000000e+00    0,000000000e+00    0,000000000e+00    0,000000000e+00
      926000000   -1,229085624e-01   -1,174677312e-01   -5,681312680e-01   -1,468460262e-01    0,000000000e+00    0,000000000e+00    0,000000000e+00    0,000000000e+00
      940000000   -1,591203064e-01   -6,253319234e-02   -5,672054291e-01    1,948104948e-01    0,000000000e+00    0,000000000e+00    0,000000000e+00    0,000000000e+00
      954000000   -1,477377564e-01   -4,152317531e-03   -3,735828102e-01    4,851717353e-01    0,000000000e+00    0,000000000e+00    0,000000000e+00    0,000000000e+00
      968000000   -9,782329202e-02    2,061047964e-02   -5,112433806e-02    6,145454049e-01    0,000000000e+00    0,000000000e+00    0,000000000e+00    0,000000000e+00
      982000000   -6,055844203e-02    1,033839071e-03    2,818012834e-01    5,520413518e-01    0,000000000e+00    0,000000000e+00    0,000000000e+00    0,000000000e+00
      996000000   -5,005278438e-02   -2,800679393e-02    5,250857472e-01    3,264909089e-01    0,000000000e+00    0,000000000e+00    0,000000000e+00    0,000000000e+00
     1010000000   -6,706786156e-02   -5,743808299e-02    6,102457643e-01    1,458722167e-02    0,000000000e+00    0,000000000e+00    0,000000000e+00    0,000000000e+00
     1024000000   -9,820731729e-02   -7,063245028e-02    5,167548656e-01   -2,875503600e-01    0,000000000e+00    0,000000000e+00    0,000000000e+00    0,000000000e+00
     1038000000   -1,299618483e-01   -5,199538916e-02    2,948198020e-01   -4,755839109e-01    0,000000000e+00    0,000000000e+00    0,000000000e+00    0,000000000e+00
     1052000000   -1,435273737e-01   -1,646614447e-02    2,798908390e-02   -5,314611197e-01    0,000000000e+00    0,000000000e+00    0,000000000e+00    0,000000000e+00
     1066000000   -1,173249781e-01    3,000531346e-02   -2,239324898e-01   -4,624489248e-01    0,000000000e+00    0,000000000e+00    0,000000000e+00    0,000000000e+00
     1080000000   -6,908238679e-02    2,993438952e-02   -4,206068218e-01   -2,875753939e-01    0,000000000e+00    0,000000000e+00    0,000000000e+00    0,000000000e+00
     1094000000   -3,536270559e-02    8,350975811e-03   -5,131388903e-01   -1,555788610e-02    0,000000000e+00    0,000000000e+00    0,000000000e+00    0,000000000e+00
     1108000000   -2,954738773e-02   -2,563773654e-02   -4,301971793e-01    2,794639766e-01    0,000000000e+00    0,000000000e+00    0,000000000e+00    0,000000000e+00
     1122000000   -1,993984543e-02   -5,661404878e-02   -1,821267009e-01    4,888490140e-01    0,000000000e+00    0,000000000e+00    0,000000000e+00    0,000000000e+00
     1136000000   -3,902050480e-02   -1,011382863e-01    1,457899958e-01    5,122993588e-01    0,000000000e+00    0,000000000e+00    0,000000000e+00    0,000000000e+00
     1150000000   -8,681860566e-02   -1,279373020e-01    4,470767975e-01    3,412688673e-01    0,000000000e+00    0,000000000e+00    0,000000000e+00    0,000000000e+00
     1164000000   -1,385767609e-01   -1,231976226e-01    6,066705585e-01    1,536314189e-02    0,000000000e+00    0,000000000e+00    0,000000000e+00    0,000000000e+00
     1178000000   -1,810190231e-01   -8,540993929e-02    5,374923348e-01   -3,670705855e-01    0,000000000e+00    0,000000000e+00    0,000000000e+00    0,000000000e+00
     1192000000   -1,856839657e-01   -5,080850050e-02    2,433528602e-01   -6,297409534e-01    0,000000000e+00    0,000000000e+00    0,000000000e+00    0,000000000e+00
     1206000000   -1,902467161e-01   -5,230540410e-02   -1,308755279e-01   -6,628441215e-01    0,000000000e+00    0,000000000e+00    0,000000000e+00    0,000000000e+00
     1220000000   -2,458866984e-01   -1,434726361e-02   -4,133451283e-01   -4,861034453e-01    0,000000000e+00    0,000000000e+00    0,000000000e+00    0,000000000e+00
     1234000000   -2,381345481e-01    1,138607636e-01   -5,579188466e-01   -2,483413815e-01    0,000000000e+00    0,000000000e+00    0,000000000e+00    0,000000000e+00
     1248000000   -1,203385517e-01    1,762425154e-01   -6,047241092e-01    2,729441598e-02    0,000000000e+00    0,000000000e+00    0,000000000e+00    0,000000000e+00
     1262000000    1,250400441e-03    1,340220422e-01   -5,023778677e-01    2,941675186e-01    0,000000000e+00    0,000000000e+00    0,000000000e+00    0,000000000e+00
     1276000000    6,185686216e-02    4,495512694e-02   -2,777212858e-01    4,846009016e-01    0,000000000e+00    0,000000000e+00    0,000000000e+00    0,000000000e+00
     1290000000    6,923078001e-02   -6,805368513e-02    9,385722689e-03    5,500421524e-01    0,000000000e+00    0,000000000e+00    0,000000000e+00    0,000000000e+00
     1304000000    1,738254726e-02   -1,818220615e-01    2,958314717e-01    4,755243659e-01    0,000000000e+00    0,000000000e+00    0,000000000e+00    0,000000000e+00
     1318000000   -9,512726218e-02   -2,531553805e-01    5,372976661e-01    2,662554383e-01    0,000000000e+00    0,000000000e+00    0,000000000e+00    0,000000000e+00
     1332000000   -2,418785542e-01   -2,423724234e-01    6,521043777e-01   -4,663540795e-02    0,000000000e+00    0,000000000e+00    0,000000000e+00    0,000000000e+00
     1346000000   -3,638045490e-01   -1,426736414e-01    5,555391908e-01   -4,039166868e-01    0,000000000e+00    0,000000000e+00    0,000000000e+00    0,000000000e+00
     1360000000   -3,897913694e-01    3,704051953e-03    2,480021864e-01   -6,309941411e-01    0,000000000e+00    0,000000000e+00    0,000000000e+00    0,000000000e+00
     1374000000   -3,241624534e-01    1,227889881e-01   -9,675393999e-02   -6,284126043e-01    0,000000000e+00    0,000000000e+00    0,000000000e+00    0,000000000e+00
     1388000000   -2,388591766e-01    1,729702055e-01   -3,681159616e-01   -4,177646637e-01    0,000000000e+00    0,000000000e+00    0,000000000e+00    0,000000000e+00
     1402000000   -1,522663385e-01    1,725432724e-01   -4,726502895e-01   -1,133015752e-01    0,000000000e+00    0,000000000e+00    0,000000000e+00    0,000000000e+00
     1416000000   -8,228661120e-02    1,439579427e-01   -3,889254630e-01    1,968352795e-01    0,000000000e+00    0,000000000e+00    0,000000000e+00    0,000000000e+00
     1430000000   -2,873305231e-02    8,711761236e-02   -1,679538488e-01    4,425674081e-01    0,000000000e+00    0,000000000e+00    0,000000000e+00    0,000000000e+00
     1444000000   -1,016702037e-02    6,576927844e-03    1,146928445e-01    5,249773264e-01    0,000000000e+00    0,000000000e+00    0,000000000e+00    0,000000000e+00
     1458000000   -4,001175985e-02   -8,812941611e-02    4,400777221e-01    4,797371328e-01    0,000000000e+00    0,000000000e+00    0,000000000e+00    0,000000000e+00
     1472000000   -1,239360422e-01   -1,527243555e-01    7,283834219e-01    2,924232781e-01    0,000000000e+00    0,000000000e+00    0,000000000e+00    0,000000000e+00
     1486000000   -2,400251925e-01   -1,427291632e-01    9,056956172e-01   -3,297092393e-02    0,000000000e+00    0,000000000e+00    0,000000000e+00    0,000000000e+00
     1500000000   -3,020794392e-01   -6,622449309e-02    8,705586195e-01   -4,267541170e-01    0,000000000e+00    0,000000000e+00    0,000000000e+00    0,000000000e+00
