! NanoVNA-App
! Date: 2025-09-25 14:59:32
! Start: 100MHz Stop: 1,5GHz Points: 101
! S-Parameter data: F S11 S21 S12 S22
# Hz S RI R 50
!     Frequency           S11_Real           S11_Imag           S21_Real           S21_Imag           S12_Real           S12_Imag           S22_Real           S22_Imag
      100000000    3,557924554e-02    2,736108378e-02    4,407691658e-01   -6,695728898e-01    0,000000000e+00    0,000000000e+00    0,000000000e+00    0,000000000e+00
      114000000    6,071320549e-02    2,178770257e-03    1,285806019e-02   -7,951940894e-01    0,000000000e+00    0,000000000e+00    0,000000000e+00    0,000000000e+00
      128000000    6,839412451e-02   -4,224314541e-02   -4,082050323e-01   -6,781220436e-01    0,000000000e+00    0,000000000e+00    0,000000000e+00    0,000000000e+00
      142000000    4,347743094e-02   -8,881361037e-02   -7,052314878e-01   -3,609526753e-01    0,000000000e+00    0,000000000e+00    0,000000000e+00    0,000000000e+00
      156000000   -9,421574883e-03   -1,100715622e-01   -7,929130793e-01    6,789464504e-02    0,000000000e+00    0,000000000e+00    0,000000000e+00    0,000000000e+00
      170000000   -6,272289157e-02   -9,176158905e-02   -6,369431019e-01    4,864027500e-01    0,000000000e+00    0,000000000e+00    0,000000000e+00    0,000000000e+00
      184000000   -8,858466893e-02   -4,767202586e-02   -2,731379867e-01    7,561171651e-01    0,000000000e+00    0,000000000e+00    0,000000000e+00    0,000000000e+00
      198000000   -8,273407072e-02   -6,413992494e-03    1,798403710e-01    7,824680805e-01    0,000000000e+00    0,000000000e+00    0,000000000e+00    0,000000000e+00
      212000000   -6,271170825e-02    1,801428385e-02    5,706063509e-01    5,584763885e-01    0,000000000e+00    0,000000000e+00    0,000000000e+00    0,000000000e+00
      226000000   -4,151279479e-02    3,188035265e-02    7,768211961e-01    1,619484574e-01    0,000000000e+00    0,000000000e+00    0,000000000e+00    0,000000000e+00
      240000000   -1,492001768e-02    4,127900302e-02    7,360525727e-01   -2,786382139e-01    0,000000000e+00    0,000000000e+00    0,000000000e+00    0,000000000e+00
      254000000    2,141709812e-02    3,632381558e-02    4,676768780e-01   -6,220502257e-01    0,000000000e+00    0,000000000e+00    0,000000000e+00    0,000000000e+00
      268000000    5,333562940e-02    4,759385251e-03    6,692130119e-02   -7,671894431e-01    0,000000000e+00    0,000000000e+00    0,000000000e+00    0,000000000e+00
      282000000    5,742292106e-02   -4,487731308e-02   -3,457977474e-01   -6,826327443e-01    0,000000000e+00    0,000000000e+00    0,000000000e+00    0,000000000e+00
      296000000    2,614363655e-02   -8,470857888e-02   -6,550897956e-01   -3,978245258e-01    0,000000000e+00    0,000000000e+00    0,000000000e+00    0,000000000e+00
      310000000   -1,892508566e-02   -8,930829167e-02   -7,750121355e-01    1,052236836e-02    0,000000000e+00    0,000000000e+00    0,000000000e+00    0,000000000e+00
      324000000   -4,663912207e-02   -6,346541643e-02   -6,476738453e-01    4,294967949e-01    0,000000000e+00    0,000000000e+00    0,000000000e+00    0,000000000e+00
      338000000   -4,114322364e-02   -3,774457797e-02   -3,116010129e-01    7,113007903e-01    0,000000000e+00    0,000000000e+00    0,000000000e+00    0,000000000e+00
      352000000   -2,345893532e-02   -3,771688789e-02    1,192931980e-01    7,590274215e-01    0,000000000e+00    0,000000000e+00    0,000000000e+00    0,000000000e+00
      366000000   -2,291082777e-02   -5,617710575e-02    5,029575825e-01    5,712201595e-01    0,000000000e+00    0,000000000e+00    0,000000000e+00    0,000000000e+00
      380000000   -4,459876567e-02   -6,534197181e-02    7,263116241e-01    2,109586447e-01    0,000000000e+00    0,000000000e+00    0,000000000e+00    0,000000000e+00
      394000000   -6,629259139e-02   -5,074210092e-02    7,229220867e-01   -2,129966468e-01    0,000000000e+00    0,000000000e+00    0,000000000e+00    0,000000000e+00
      408000000   -6,744336337e-02   -2,609943971e-02    4,903154373e-01   -5,682891607e-01    0,000000000e+00    0,000000000e+00    0,000000000e+00    0,000000000e+00
      422000000   -5,353679880e-02   -1,535006985e-02    1,050253808e-01   -7,387160659e-01    0,000000000e+00    0,000000000e+00    0,000000000e+00    0,000000000e+00
      436000000   -4,611144215e-02   -1,850722171e-02   -3,062853515e-01   -6,762968302e-01    0,000000000e+00    0,000000000e+00    0,000000000e+00    0,000000000e+00
      450000000   -5,213513225e-02   -1,504515670e-02   -6,194848418e-01   -3,995130062e-01    0,000000000e+00    0,000000000e+00    0,000000000e+00    0,000000000e+00
      464000000   -5,058462545e-02    5,871512461e-03   -7,300006151e-01    3,538595978e-03    0,000000000e+00    0,000000000e+00    0,000000000e+00    0,000000000e+00
      478000000   -2,043248899e-02    2,693350613e-02   -5,981402993e-01    3,973841071e-01    0,000000000e+00    0,000000000e+00    0,000000000e+00    0,000000000e+00
      492000000    2,817311697e-02    1,482246071e-02   -2,801377475e-01    6,445680857e-01    0,000000000e+00    0,000000000e+00    0,000000000e+00    0,000000000e+00
      506000000    5,905555189e-02   -3,728983179e-02    1,054652408e-01    6,808407903e-01    0,000000000e+00    0,000000000e+00    0,000000000e+00    0,000000000e+00
      520000000    4,451432452e-02   -1,029948294e-01    4,450692534e-01    5,205959678e-01    0,000000000e+00    0,000000000e+00    0,000000000e+00    0,000000000e+00
      534000000   -1,263184939e-02   -1,440392584e-01    6,489923000e-01    2,058327347e-01    0,000000000e+00    0,000000000e+00    0,000000000e+00    0,000000000e+00
      548000000   -8,191086352e-02   -1,394426376e-01    6,594787836e-01   -1,760150045e-01    0,000000000e+00    0,000000000e+00    0,000000000e+00    0,000000000e+00
      562000000   -1,309979409e-01   -9,796795994e-02    4,506050646e-01   -5,085561275e-01    0,000000000e+00    0,000000000e+00    0,000000000e+00    0,000000000e+00
      576000000   -1,495572031e-01   -3,824285418e-02    8,167704940e-02   -6,603306532e-01    0,000000000e+00    0,000000000e+00    0,000000000e+00    0,000000000e+00
      590000000   -1,299239099e-01    2,955224924e-02   -2,979683280e-01   -5,640119314e-01    0,000000000e+00    0,000000000e+00    0,000000000e+00    0,000000000e+00
      604000000   -3,822059557e-02    6,835930049e-02   -4,882038534e-01   -2,698089182e-01    0,000000000e+00    0,000000000e+00    0,000000000e+00    0,000000000e+00
      618000000    3,467066959e-02   -3,037801944e-02   -4,935265779e-01   -5,129143596e-02    0,000000000e+00    0,000000000e+00    0,000000000e+00    0,000000000e+00
      632000000   -5,343106017e-02   -9,255513549e-02   -5,261729360e-01    1,775805652e-01    0,000000000e+00    0,000000000e+00    0,000000000e+00    0,000000000e+00
      646000000   -9,946032614e-02   -3,359389305e-02   -3,791151941e-01    4,776716530e-01    0,000000000e+00    0,000000000e+00    0,000000000e+00    0,000000000e+00
      660000000   -6,869510561e-02    1,016123872e-02   -5,176933482e-02    6,252718568e-01    0,000000000e+00    0,000000000e+00    0,000000000e+00    0,000000000e+00
      674000000   -2,998526394e-02    4,017409869e-03    2,984074652e-01    5,534743667e-01    0,000000000e+00    0,000000000e+00    0,000000000e+00    0,000000000e+00
      688000000   -1,475472189e-02   -1,814721338e-02    5,473905206e-01    3,031379580e-01    0,000000000e+00    0,000000000e+00    0,000000000e+00    0,000000000e+00
      702000000   -1,336126123e-02   -3,417048231e-02    6,169300079e-01   -3,979011253e-02    0,000000000e+00    0,000000000e+00    0,000000000e+00    0,000000000e+00
      716000000   -9,814368561e-03   -4,871750623e-02    4,914517403e-01   -3,679551482e-01    0,000000000e+00    0,000000000e+00    0,000000000e+00    0,000000000e+00
      730000000   -7,811700460e-03   -7,437799871e-02    2,117478848e-01   -5,670906305e-01    0,000000000e+00    0,000000000e+00    0,000000000e+00    0,000000000e+00
      744000000   -2,600857429e-02   -1,110705137e-01   -1,231008619e-01   -5,889241099e-01    0,000000000e+00    0,000000000e+00    0,000000000e+00    0,000000000e+00
      758000000   -7,443768531e-02   -1,321271658e-01   -4,196281731e-01   -4,317903817e-01    0,000000000e+00    0,000000000e+00    0,000000000e+00    0,000000000e+00
      772000000   -1,343613118e-01   -1,158328727e-01   -5,939115286e-01   -1,400164962e-01    0,000000000e+00    0,000000000e+00    0,000000000e+00    0,000000000e+00
      786000000   -1,714710146e-01   -5,782999843e-02   -5,813158751e-01    2,096809894e-01    0,000000000e+00    0,000000000e+00    0,000000000e+00    0,000000000e+00
      800000000   -1,594868153e-01    6,158902310e-03   -3,730179071e-01    4,958994687e-01    0,000000000e+00    0,000000000e+00    0,000000000e+00    0,000000000e+00
      814000000   -1,141171977e-01    4,272971675e-02   -4,541646317e-02    6,151218414e-01    0,000000000e+00    0,000000000e+00    0,000000000e+00    0,000000000e+00
      828000000   -6,885543466e-02    4,326945171e-02    2,851191759e-01    5,404474139e-01    0,000000000e+00    0,000000000e+00    0,000000000e+00    0,000000000e+00
      842000000   -3,880228475e-02    2,904215641e-02    5,204906464e-01    3,058553636e-01    0,000000000e+00    0,000000000e+00    0,000000000e+00    0,000000000e+00
      856000000   -1,770209894e-02    1,235588267e-02    5,944762826e-01   -1,402281038e-02    0,000000000e+00    0,000000000e+00    0,000000000e+00    0,000000000e+00
      870000000    2,139630960e-03   -1,058110688e-02    4,860639870e-01   -3,160696030e-01    0,000000000e+00    0,000000000e+00    0,000000000e+00    0,000000000e+00
      884000000    1,345741935e-02   -5,177621543e-02    2,418775111e-01   -5,117388964e-01    0,000000000e+00    0,000000000e+00    0,000000000e+00    0,000000000e+00
      898000000   -3,974704538e-03   -1,019657180e-01   -5,733714998e-02   -5,558692813e-01    0,000000000e+00    0,000000000e+00    0,000000000e+00    0,000000000e+00
      912000000   -6,291183084e-02   -1,322607398e-01   -3,816466033e-01   -4,203747511e-01    0,000000000e+00    0,000000000e+00    0,000000000e+00    0,000000000e+00
      926000000   -1,264098585e-01   -1,173790321e-01   -5,652812123e-01   -1,462594271e-01    0,000000000e+00    0,000000000e+00    0,000000000e+00    0,000000000e+00
      940000000   -1,639858484e-01   -6,076467782e-02   -5,677481890e-01    1,935432106e-01    0,000000000e+00    0,000000000e+00    0,000000000e+00    0,000000000e+00
      954000000   -1,446461380e-01   -1,659604022e-03   -3,754034340e-01    4,857111871e-01    0,000000000e+00    0,000000000e+00    0,000000000e+00    0,000000000e+00
      968000000   -9,624580294e-02    2,640031651e-02   -4,973963276e-02    6,143028140e-01    0,000000000e+00    0,000000000e+00    0,000000000e+00    0,000000000e+00
      982000000   -5,513604730e-02    8,044456132e-03    2,806563079e-01    5,551755428e-01    0,000000000e+00    0,000000000e+00    0,000000000e+00    0,000000000e+00
      996000000   -4,551595822e-02   -3,058428504e-02    5,223889947e-01    3,269232810e-01    0,000000000e+00    0,000000000e+00    0,000000000e+00    0,000000000e+00
     1010000000   -6,042875722e-02   -6,505623460e-02    6,107237339e-01    1,485355105e-02    0,000000000e+00    0,000000000e+00    0,000000000e+00    0,000000000e+00
     1024000000   -1,014019623e-01   -7,480708510e-02    5,163304806e-01   -2,817466259e-01    0,000000000e+00    0,000000000e+00    0,000000000e+00    0,000000000e+00
     1038000000   -1,394357085e-01   -5,748395622e-02    2,944949269e-01   -4,713007510e-01    0,000000000e+00    0,000000000e+00    0,000000000e+00    0,000000000e+00
     1052000000   -1,532038003e-01    8,429561276e-04    3,386887908e-02   -5,227385163e-01    0,000000000e+00    0,000000000e+00    0,000000000e+00    0,000000000e+00
     1066000000   -1,073363945e-01    3,903362155e-02   -2,132306844e-01   -4,648587108e-01    0,000000000e+00    0,000000000e+00    0,000000000e+00    0,000000000e+00
     1080000000   -5,386159569e-02    2,409421653e-02   -4,159809351e-01   -2,993508875e-01    0,000000000e+00    0,000000000e+00    0,000000000e+00    0,000000000e+00
     1094000000   -3,664614260e-02   -4,256602842e-03   -5,201809406e-01   -2,500117756e-02    0,000000000e+00    0,000000000e+00    0,000000000e+00    0,000000000e+00
     1108000000   -2,902958915e-02   -3,109741211e-02   -4,426825643e-01    2,857174575e-01    0,000000000e+00    0,000000000e+00    0,000000000e+00    0,000000000e+00
     1122000000   -3,189325333e-02   -6,018231809e-02   -1,874547452e-01    4,962916076e-01    0,000000000e+00    0,000000000e+00    0,000000000e+00    0,000000000e+00
     1136000000   -4,303290695e-02   -9,650298208e-02    1,542654335e-01    5,179145932e-01    0,000000000e+00    0,000000000e+00    0,000000000e+00    0,000000000e+00
     1150000000   -8,366559446e-02   -1,219039634e-01    4,515607953e-01    3,427420855e-01    0,000000000e+00    0,000000000e+00    0,000000000e+00    0,000000000e+00
     1164000000   -1,359856129e-01   -1,230311170e-01    6,121952534e-01    1,294295769e-02    0,000000000e+00    0,000000000e+00    0,000000000e+00    0,000000000e+00
     1178000000   -1,800005734e-01   -8,692569286e-02    5,407940745e-01   -3,767109513e-01    0,000000000e+00    0,000000000e+00    0,000000000e+00    0,000000000e+00
     1192000000   -1,766046584e-01   -4,973838851e-02    2,417448014e-01   -6,396793723e-01    0,000000000e+00    0,000000000e+00    0,000000000e+00    0,000000000e+00
     1206000000   -1,904038787e-01   -5,848380551e-02   -1,382201910e-01   -6,624591351e-01    0,000000000e+00    0,000000000e+00    0,000000000e+00    0,000000000e+00
     1220000000   -2,494947463e-01   -1,594046690e-02   -4,170751870e-01   -4,818558395e-01    0,000000000e+00    0,000000000e+00    0,000000000e+00    0,000000000e+00
     1234000000   -2,409966290e-01    1,206892580e-01   -5,589439273e-01   -2,475538254e-01    0,000000000e+00    0,000000000e+00    0,000000000e+00    0,000000000e+00
     1248000000   -1,167125404e-01    1,775102019e-01   -6,082484722e-01    2,193079516e-02    0,000000000e+00    0,000000000e+00    0,000000000e+00    0,000000000e+00
     1262000000   -4,238191992e-03    1,296423972e-01   -5,109680891e-01    2,985824645e-01    0,000000000e+00    0,000000000e+00    0,000000000e+00    0,000000000e+00
     1276000000    6,124946848e-02    4,094388336e-02   -2,770351171e-01    4,823849201e-01    0,000000000e+00    0,000000000e+00    0,000000000e+00    0,000000000e+00
     1290000000    6,879255921e-02   -6,643272191e-02    1,808340312e-03    5,510032177e-01    0,000000000e+00    0,000000000e+00    0,000000000e+00    0,000000000e+00
     1304000000    2,530073375e-02   -1,789584756e-01    2,984093130e-01    4,769570529e-01    0,000000000e+00    0,000000000e+00    0,000000000e+00    0,000000000e+00
     1318000000   -9,241461754e-02   -2,513641119e-01    5,411304235e-01    2,706197500e-01    0,000000000e+00    0,000000000e+00    0,000000000e+00    0,000000000e+00
     1332000000   -2,435307652e-01   -2,498635948e-01    6,533921361e-01   -6,050074100e-02    0,000000000e+00    0,000000000e+00    0,000000000e+00    0,000000000e+00
     1346000000   -3,639155924e-01   -1,419377476e-01    5,493952632e-01   -4,011079371e-01    0,000000000e+00    0,000000000e+00    0,000000000e+00    0,000000000e+00
     1360000000   -3,841607571e-01    5,374278408e-04    2,507572472e-01   -6,369509101e-01    0,000000000e+00    0,000000000e+00    0,000000000e+00    0,000000000e+00
     1374000000   -3,226935565e-01    1,149760336e-01   -1,012322009e-01   -6,305194497e-01    0,000000000e+00    0,000000000e+00    0,000000000e+00    0,000000000e+00
     1388000000   -2,377210706e-01    1,680723727e-01   -3,822179735e-01   -4,178605676e-01    0,000000000e+00    0,000000000e+00    0,000000000e+00    0,000000000e+00
     1402000000   -1,545723230e-01    1,715733111e-01   -4,711345434e-01   -9,840123355e-02    0,000000000e+00    0,000000000e+00    0,000000000e+00    0,000000000e+00
     1416000000   -8,460669219e-02    1,379791200e-01   -3,964073062e-01    2,115326226e-01    0,000000000e+00    0,000000000e+00    0,000000000e+00    0,000000000e+00
     1430000000   -2,988894843e-02    8,790931106e-02   -1,701671779e-01    4,603206813e-01    0,000000000e+00    0,000000000e+00    0,000000000e+00    0,000000000e+00
     1444000000   -1,399030257e-02    5,591237452e-03    1,137183905e-01    5,246506333e-01    0,000000000e+00    0,000000000e+00    0,000000000e+00    0,000000000e+00
     1458000000   -3,834377229e-02   -8,525950462e-02    4,520417154e-01    4,894245267e-01    0,000000000e+00    0,000000000e+00    0,000000000e+00    0,000000000e+00
     1472000000   -1,304719746e-01   -1,425894946e-01    7,219254375e-01    3,089103699e-01    0,000000000e+00    0,000000000e+00    0,000000000e+00    0,000000000e+00
     1486000000   -2,361122370e-01   -1,380866170e-01    8,963500261e-01   -4,347654805e-02    0,000000000e+00    0,000000000e+00    0,000000000e+00    0,000000000e+00
     1500000000   -2,988124490e-01   -6,866509467e-02    8,411787748e-01   -4,372976422e-01    0,000000000e+00    0,000000000e+00    0,000000000e+00    0,000000000e+00
