! NanoVNA-App
! Date: 2025-09-25 15:02:09
! Start: 100MHz Stop: 1,5GHz Points: 101
! S-Parameter data: F S11 S21 S12 S22
# Hz S RI R 50
!     Frequency           S11_Real           S11_Imag           S21_Real           S21_Imag           S12_Real           S12_Imag           S22_Real           S22_Imag
      100000000    3,558517620e-02    2,735590748e-02    4,407106340e-01   -6,694805026e-01    0,000000000e+00    0,000000000e+00    0,000000000e+00    0,000000000e+00
      114000000    6,071541086e-02    2,146943239e-03    1,278382353e-02   -7,954450846e-01    0,000000000e+00    0,000000000e+00    0,000000000e+00    0,000000000e+00
      128000000    6,837686151e-02   -4,231471941e-02   -4,082483947e-01   -6,780332923e-01    0,000000000e+00    0,000000000e+00    0,000000000e+00    0,000000000e+00
      142000000    4,347275570e-02   -8,882383257e-02   -7,052514553e-01   -3,608997464e-01    0,000000000e+00    0,000000000e+00    0,000000000e+00    0,000000000e+00
      156000000   -9,257010184e-03   -1,102686971e-01   -7,932793498e-01    6,817933917e-02    0,000000000e+00    0,000000000e+00    0,000000000e+00    0,000000000e+00
      170000000   -6,262221932e-02   -9,182251990e-02   -6,369662285e-01    4,863922000e-01    0,000000000e+00    0,000000000e+00    0,000000000e+00    0,000000000e+00
      184000000   -8,856776357e-02   -4,769354686e-02   -2,732707858e-01    7,563078403e-01    0,000000000e+00    0,000000000e+00    0,000000000e+00    0,000000000e+00
      198000000   -8,280730247e-02   -6,409177557e-03    1,794560999e-01    7,825595737e-01    0,000000000e+00    0,000000000e+00    0,000000000e+00    0,000000000e+00
      212000000   -6,271097064e-02    1,801156253e-02    5,704335570e-01    5,583179593e-01    0,000000000e+00    0,000000000e+00    0,000000000e+00    0,000000000e+00
      226000000   -4,154657945e-02    3,181771562e-02    7,768306136e-01    1,619349569e-01    0,000000000e+00    0,000000000e+00    0,000000000e+00    0,000000000e+00
      240000000   -1,488116011e-02    4,127663374e-02    7,360318899e-01   -2,786612511e-01    0,000000000e+00    0,000000000e+00    0,000000000e+00    0,000000000e+00
      254000000    2,140456624e-02    3,636150435e-02    4,679222107e-01   -6,221864820e-01    0,000000000e+00    0,000000000e+00    0,000000000e+00    0,000000000e+00
      268000000    5,330952257e-02    4,704074003e-03    6,677586585e-02   -7,673321962e-01    0,000000000e+00    0,000000000e+00    0,000000000e+00    0,000000000e+00
      282000000    5,749587715e-02   -4,497694969e-02   -3,459948897e-01   -6,824429631e-01    0,000000000e+00    0,000000000e+00    0,000000000e+00    0,000000000e+00
      296000000    2,606365271e-02   -8,471000940e-02   -6,551197767e-01   -3,978994787e-01    0,000000000e+00    0,000000000e+00    0,000000000e+00    0,000000000e+00
      310000000   -1,902798750e-02   -8,941573650e-02   -7,737712860e-01    1,144494023e-02    0,000000000e+00    0,000000000e+00    0,000000000e+00    0,000000000e+00
      324000000   -4,656216130e-02   -6,363768876e-02   -6,483306289e-01    4,297609329e-01    0,000000000e+00    0,000000000e+00    0,000000000e+00    0,000000000e+00
      338000000   -4,088929296e-02   -3,789516538e-02   -3,110230267e-01    7,098082900e-01    0,000000000e+00    0,000000000e+00    0,000000000e+00    0,000000000e+00
      352000000   -2,318354510e-02   -3,787869960e-02    1,196570545e-01    7,591055036e-01    0,000000000e+00    0,000000000e+00    0,000000000e+00    0,000000000e+00
      366000000   -2,319869399e-02   -5,629056320e-02    5,023890138e-01    5,711656213e-01    0,000000000e+00    0,000000000e+00    0,000000000e+00    0,000000000e+00
      380000000   -4,485392198e-02   -6,500108540e-02    7,263619304e-01    2,121593654e-01    0,000000000e+00    0,000000000e+00    0,000000000e+00    0,000000000e+00
      394000000   -6,660512835e-02   -5,057137832e-02    7,219182849e-01   -2,132399827e-01    0,000000000e+00    0,000000000e+00    0,000000000e+00    0,000000000e+00
      408000000   -6,733877212e-02   -2,645263448e-02    4,892067909e-01   -5,687367916e-01    0,000000000e+00    0,000000000e+00    0,000000000e+00    0,000000000e+00
      422000000   -5,301293731e-02   -1,503490563e-02    1,066322923e-01   -7,386179566e-01    0,000000000e+00    0,000000000e+00    0,000000000e+00    0,000000000e+00
      436000000   -4,625691846e-02   -1,837860979e-02   -3,055044413e-01   -6,756626964e-01    0,000000000e+00    0,000000000e+00    0,000000000e+00    0,000000000e+00
      450000000   -5,209218711e-02   -1,484198775e-02   -6,186037660e-01   -4,001320004e-01    0,000000000e+00    0,000000000e+00    0,000000000e+00    0,000000000e+00
      464000000   -5,034252256e-02    5,669238046e-03   -7,294645309e-01    3,371030092e-03    0,000000000e+00    0,000000000e+00    0,000000000e+00    0,000000000e+00
      478000000   -2,023942955e-02    2,629143186e-02   -5,987648964e-01    3,972120583e-01    0,000000000e+00    0,000000000e+00    0,000000000e+00    0,000000000e+00
      492000000    2,837208472e-02    1,478755660e-02   -2,794202566e-01    6,444798112e-01    0,000000000e+00    0,000000000e+00    0,000000000e+00    0,000000000e+00
      506000000    5,916856602e-02   -3,706311062e-02    1,044246405e-01    6,800326109e-01    0,000000000e+00    0,000000000e+00    0,000000000e+00    0,000000000e+00
      520000000    4,401621968e-02   -1,020769477e-01    4,420629442e-01    5,206642151e-01    0,000000000e+00    0,000000000e+00    0,000000000e+00    0,000000000e+00
      534000000   -1,258039661e-02   -1,435074806e-01    6,495608091e-01    2,068096250e-01    0,000000000e+00    0,000000000e+00    0,000000000e+00    0,000000000e+00
      548000000   -8,146763593e-02   -1,391962618e-01    6,604222059e-01   -1,756124496e-01    0,000000000e+00    0,000000000e+00    0,000000000e+00    0,000000000e+00
      562000000   -1,296203882e-01   -9,838793427e-02    4,523248971e-01   -5,081447363e-01    0,000000000e+00    0,000000000e+00    0,000000000e+00    0,000000000e+00
      576000000   -1,474481225e-01   -4,068367556e-02    8,571629971e-02   -6,620760560e-01    0,000000000e+00    0,000000000e+00    0,000000000e+00    0,000000000e+00
      590000000   -1,318216473e-01    2,314063534e-02   -2,963974178e-01   -5,689472556e-01    0,000000000e+00    0,000000000e+00    0,000000000e+00    0,000000000e+00
      604000000   -5,139583722e-02    6,954215467e-02   -5,035406351e-01   -2,721935809e-01    0,000000000e+00    0,000000000e+00    0,000000000e+00    0,000000000e+00
      618000000    3,923531994e-02   -1,123919245e-02   -4,921403229e-01   -2,703530714e-02    0,000000000e+00    0,000000000e+00    0,000000000e+00    0,000000000e+00
      632000000   -3,730073944e-02   -9,855736792e-02   -5,060739517e-01    1,723118573e-01    0,000000000e+00    0,000000000e+00    0,000000000e+00    0,000000000e+00
      646000000   -1,018406972e-01   -4,477602243e-02   -3,804366887e-01    4,639312625e-01    0,000000000e+00    0,000000000e+00    0,000000000e+00    0,000000000e+00
      660000000   -7,501499355e-02    8,151789196e-03   -5,767409876e-02    6,211449504e-01    0,000000000e+00    0,000000000e+00    0,000000000e+00    0,000000000e+00
      674000000   -3,437315300e-02    7,450732403e-03    2,946303487e-01    5,554940104e-01    0,000000000e+00    0,000000000e+00    0,000000000e+00    0,000000000e+00
      688000000   -1,607851498e-02   -1,391015295e-02    5,461171865e-01    3,058787584e-01    0,000000000e+00    0,000000000e+00    0,000000000e+00    0,000000000e+00
      702000000   -1,311976556e-02   -3,313786164e-02    6,234961152e-01   -3,757058829e-02    0,000000000e+00    0,000000000e+00    0,000000000e+00    0,000000000e+00
      716000000   -7,148035802e-03   -4,769549891e-02    4,934951365e-01   -3,674335778e-01    0,000000000e+00    0,000000000e+00    0,000000000e+00    0,000000000e+00
      730000000   -6,137776189e-03   -7,530303299e-02    2,140476555e-01   -5,673235059e-01    0,000000000e+00    0,000000000e+00    0,000000000e+00    0,000000000e+00
      744000000   -2,496499568e-02   -1,121804938e-01   -1,215905324e-01   -5,890707970e-01    0,000000000e+00    0,000000000e+00    0,000000000e+00    0,000000000e+00
      758000000   -7,579556108e-02   -1,346720308e-01   -4,189454913e-01   -4,345998168e-01    0,000000000e+00    0,000000000e+00    0,000000000e+00    0,000000000e+00
      772000000   -1,367595494e-01   -1,156526357e-01   -5,948740244e-01   -1,421065778e-01    0,000000000e+00    0,000000000e+00    0,000000000e+00    0,000000000e+00
      786000000   -1,736354232e-01   -5,725448579e-02   -5,830748677e-01    2,096584439e-01    0,000000000e+00    0,000000000e+00    0,000000000e+00    0,000000000e+00
      800000000   -1,610306948e-01    8,021394722e-03   -3,743857443e-01    4,972679615e-01    0,000000000e+00    0,000000000e+00    0,000000000e+00    0,000000000e+00
      814000000   -1,134244576e-01    4,443537444e-02   -4,580580071e-02    6,160975099e-01    0,000000000e+00    0,000000000e+00    0,000000000e+00    0,000000000e+00
      828000000   -6,725018471e-02    4,438181967e-02    2,868269682e-01    5,418946147e-01    0,000000000e+00    0,000000000e+00    0,000000000e+00    0,000000000e+00
      842000000   -3,821409494e-02    2,801029012e-02    5,221825838e-01    3,067397773e-01    0,000000000e+00    0,000000000e+00    0,000000000e+00    0,000000000e+00
      856000000   -1,855397969e-02    1,029385347e-02    5,959370732e-01   -1,400503889e-02    0,000000000e+00    0,000000000e+00    0,000000000e+00    0,000000000e+00
      870000000    1,012171968e-03   -1,223469432e-02    4,885033369e-01   -3,173688650e-01    0,000000000e+00    0,000000000e+00    0,000000000e+00    0,000000000e+00
      884000000    1,172020193e-02   -5,014950782e-02    2,432246357e-01   -5,133901834e-01    0,000000000e+00    0,000000000e+00    0,000000000e+00    0,000000000e+00
      898000000   -4,674546421e-03   -1,001774222e-01   -5,924961716e-02   -5,550770760e-01    0,000000000e+00    0,000000000e+00    0,000000000e+00    0,000000000e+00
      912000000   -6,240426376e-02   -1,308855265e-01   -3,832319379e-01   -4,149147570e-01    0,000000000e+00    0,000000000e+00    0,000000000e+00    0,000000000e+00
      926000000   -1,261909604e-01   -1,203696132e-01   -5,692740679e-01   -1,477269828e-01    0,000000000e+00    0,000000000e+00    0,000000000e+00    0,000000000e+00
      940000000   -1,623796821e-01   -6,508012116e-02   -5,689184070e-01    1,917974949e-01    0,000000000e+00    0,000000000e+00    0,000000000e+00    0,000000000e+00
      954000000   -1,454095989e-01   -2,704381943e-03   -3,748416305e-01    4,855035245e-01    0,000000000e+00    0,000000000e+00    0,000000000e+00    0,000000000e+00
      968000000   -1,005595028e-01    2,195416577e-02   -5,143180862e-02    6,137913465e-01    0,000000000e+00    0,000000000e+00    0,000000000e+00    0,000000000e+00
      982000000   -5,643296987e-02    8,393944241e-03    2,823055983e-01    5,510709286e-01    0,000000000e+00    0,000000000e+00    0,000000000e+00    0,000000000e+00
      996000000   -4,484122247e-02   -2,937540039e-02    5,234065056e-01    3,259139061e-01    0,000000000e+00    0,000000000e+00    0,000000000e+00    0,000000000e+00
     1010000000   -5,881667882e-02   -6,686899811e-02    6,083931327e-01    1,409680210e-02    0,000000000e+00    0,000000000e+00    0,000000000e+00    0,000000000e+00
     1024000000   -1,021831706e-01   -7,866276801e-02    5,148722529e-01   -2,807334363e-01    0,000000000e+00    0,000000000e+00    0,000000000e+00    0,000000000e+00
     1038000000   -1,414411962e-01   -5,997188389e-02    2,964405417e-01   -4,685302377e-01    0,000000000e+00    0,000000000e+00    0,000000000e+00    0,000000000e+00
     1052000000   -1,542540640e-01   -1,904755482e-04    3,213925660e-02   -5,243992805e-01    0,000000000e+00    0,000000000e+00    0,000000000e+00    0,000000000e+00
     1066000000   -1,074102446e-01    3,650339693e-02   -2,143167704e-01   -4,698228240e-01    0,000000000e+00    0,000000000e+00    0,000000000e+00    0,000000000e+00
     1080000000   -5,579819530e-02    2,472486347e-02   -4,182456136e-01   -2,970080078e-01    0,000000000e+00    0,000000000e+00    0,000000000e+00    0,000000000e+00
     1094000000   -3,639090434e-02   -3,190580523e-03   -5,203130841e-01   -2,376573905e-02    0,000000000e+00    0,000000000e+00    0,000000000e+00    0,000000000e+00
     1108000000   -3,438452631e-02   -3,251626343e-02   -4,430204332e-01    2,845509648e-01    0,000000000e+00    0,000000000e+00    0,000000000e+00    0,000000000e+00
     1122000000   -3,365135938e-02   -6,135250255e-02   -1,857026368e-01    4,946667552e-01    0,000000000e+00    0,000000000e+00    0,000000000e+00    0,000000000e+00
     1136000000   -4,620349407e-02   -9,452775121e-02    1,503498554e-01    5,199992657e-01    0,000000000e+00    0,000000000e+00    0,000000000e+00    0,000000000e+00
     1150000000   -8,493383974e-02   -1,268532127e-01    4,532849789e-01    3,438933492e-01    0,000000000e+00    0,000000000e+00    0,000000000e+00    0,000000000e+00
     1164000000   -1,378910989e-01   -1,191223487e-01    6,097409725e-01    1,112447120e-02    0,000000000e+00    0,000000000e+00    0,000000000e+00    0,000000000e+00
     1178000000   -1,756787896e-01   -8,350355923e-02    5,365478396e-01   -3,706981242e-01    0,000000000e+00    0,000000000e+00    0,000000000e+00    0,000000000e+00
     1192000000   -1,759498566e-01   -5,558832735e-02    2,409546524e-01   -6,362047195e-01    0,000000000e+00    0,000000000e+00    0,000000000e+00    0,000000000e+00
     1206000000   -1,902346909e-01   -5,167440698e-02   -1,401408464e-01   -6,580967307e-01    0,000000000e+00    0,000000000e+00    0,000000000e+00    0,000000000e+00
     1220000000   -2,555814683e-01   -1,434553415e-02   -4,216949940e-01   -4,808502197e-01    0,000000000e+00    0,000000000e+00    0,000000000e+00    0,000000000e+00
     1234000000   -2,388996780e-01    1,125709936e-01   -5,555834174e-01   -2,507988811e-01    0,000000000e+00    0,000000000e+00    0,000000000e+00    0,000000000e+00
     1248000000   -1,125399023e-01    1,749082357e-01   -6,045514941e-01    1,988311671e-02    0,000000000e+00    0,000000000e+00    0,000000000e+00    0,000000000e+00
     1262000000   -2,161480486e-03    1,303569376e-01   -5,064005256e-01    2,949855924e-01    0,000000000e+00    0,000000000e+00    0,000000000e+00    0,000000000e+00
     1276000000    6,416416168e-02    4,267962277e-02   -2,732261419e-01    4,833331108e-01    0,000000000e+00    0,000000000e+00    0,000000000e+00    0,000000000e+00
     1290000000    7,062035054e-02   -7,011061162e-02    1,242810022e-02    5,419758558e-01    0,000000000e+00    0,000000000e+00    0,000000000e+00    0,000000000e+00
     1304000000    1,728246920e-02   -1,768304855e-01    2,905659974e-01    4,837085307e-01    0,000000000e+00    0,000000000e+00    0,000000000e+00    0,000000000e+00
     1318000000   -9,594010562e-02   -2,514166236e-01    5,302845240e-01    2,690689266e-01    0,000000000e+00    0,000000000e+00    0,000000000e+00    0,000000000e+00
     1332000000   -2,439145744e-01   -2,487418652e-01    6,529616714e-01   -5,717572197e-02    0,000000000e+00    0,000000000e+00    0,000000000e+00    0,000000000e+00
     1346000000   -3,639740050e-01   -1,380740255e-01    5,527075529e-01   -4,069280624e-01    0,000000000e+00    0,000000000e+00    0,000000000e+00    0,000000000e+00
     1360000000   -3,824221492e-01    8,532091975e-03    2,529899478e-01   -6,373314261e-01    0,000000000e+00    0,000000000e+00    0,000000000e+00    0,000000000e+00
     1374000000   -3,232560158e-01    1,224847287e-01   -9,587883949e-02   -6,350349784e-01    0,000000000e+00    0,000000000e+00    0,000000000e+00    0,000000000e+00
     1388000000   -2,411367297e-01    1,664198190e-01   -3,755750656e-01   -4,216236472e-01    0,000000000e+00    0,000000000e+00    0,000000000e+00    0,000000000e+00
     1402000000   -1,530740261e-01    1,695813388e-01   -4,757074714e-01   -1,165875643e-01    0,000000000e+00    0,000000000e+00    0,000000000e+00    0,000000000e+00
     1416000000   -8,666425943e-02    1,399635673e-01   -3,851191700e-01    1,968023479e-01    0,000000000e+00    0,000000000e+00    0,000000000e+00    0,000000000e+00
     1430000000   -3,562904149e-02    8,398122340e-02   -1,932995319e-01    4,007695019e-01    0,000000000e+00    0,000000000e+00    0,000000000e+00    0,000000000e+00
     1444000000   -1,286869869e-02    9,593044408e-03    1,142141223e-01    5,381175280e-01    0,000000000e+00    0,000000000e+00    0,000000000e+00    0,000000000e+00
     1458000000   -3,875671700e-02   -8,660458773e-02    4,388261437e-01    4,843202531e-01    0,000000000e+00    0,000000000e+00    0,000000000e+00    0,000000000e+00
     1472000000   -1,250707656e-01   -1,485368162e-01    7,208756804e-01    3,063914776e-01    0,000000000e+00    0,000000000e+00    0,000000000e+00    0,000000000e+00
     1486000000   -2,350713611e-01   -1,487989277e-01    8,984389305e-01   -3,993711621e-02    0,000000000e+00    0,000000000e+00    0,000000000e+00    0,000000000e+00
     1500000000   -2,965889573e-01   -6,287118793e-02    8,614599109e-01   -4,251706302e-01    0,000000000e+00    0,000000000e+00    0,000000000e+00    0,000000000e+00
