! NanoVNA-App
! Date: 2025-09-25 14:57:13
! Start: 100MHz Stop: 1,5GHz Points: 101
! S-Parameter data: F S11 S21 S12 S22
# Hz S RI R 50
!     Frequency           S11_Real           S11_Imag           S21_Real           S21_Imag           S12_Real           S12_Imag           S22_Real           S22_Imag
      100000000    3,560715541e-02    2,732680552e-02    4,407125115e-01   -6,694980264e-01    0,000000000e+00    0,000000000e+00    0,000000000e+00    0,000000000e+00
      114000000    6,074674800e-02    2,172227716e-03    1,289578900e-02   -7,953509688e-01    0,000000000e+00    0,000000000e+00    0,000000000e+00    0,000000000e+00
      128000000    6,839679927e-02   -4,222582281e-02   -4,083298445e-01   -6,781536341e-01    0,000000000e+00    0,000000000e+00    0,000000000e+00    0,000000000e+00
      142000000    4,348889366e-02   -8,875852078e-02   -7,050647736e-01   -3,608237207e-01    0,000000000e+00    0,000000000e+00    0,000000000e+00    0,000000000e+00
      156000000   -9,723695926e-03   -1,096831486e-01   -7,923428416e-01    6,769154221e-02    0,000000000e+00    0,000000000e+00    0,000000000e+00    0,000000000e+00
      170000000   -6,270229071e-02   -9,176866710e-02   -6,369200945e-01    4,864427745e-01    0,000000000e+00    0,000000000e+00    0,000000000e+00    0,000000000e+00
      184000000   -8,855164796e-02   -4,764081165e-02   -2,731614709e-01    7,563641667e-01    0,000000000e+00    0,000000000e+00    0,000000000e+00    0,000000000e+00
      198000000   -8,270876855e-02   -6,389482878e-03    1,795119494e-01    7,818210721e-01    0,000000000e+00    0,000000000e+00    0,000000000e+00    0,000000000e+00
      212000000   -6,267654896e-02    1,806193590e-02    5,707093477e-01    5,584183931e-01    0,000000000e+00    0,000000000e+00    0,000000000e+00    0,000000000e+00
      226000000   -4,132304713e-02    3,187938780e-02    7,765153646e-01    1,617975235e-01    0,000000000e+00    0,000000000e+00    0,000000000e+00    0,000000000e+00
      240000000   -1,476566214e-02    4,131082073e-02    7,358390093e-01   -2,787188888e-01    0,000000000e+00    0,000000000e+00    0,000000000e+00    0,000000000e+00
      254000000    2,151993662e-02    3,623834625e-02    4,677064419e-01   -6,218589544e-01    0,000000000e+00    0,000000000e+00    0,000000000e+00    0,000000000e+00
      268000000    5,339756981e-02    4,611898214e-03    6,691162288e-02   -7,673288584e-01    0,000000000e+00    0,000000000e+00    0,000000000e+00    0,000000000e+00
      282000000    5,752029270e-02   -4,504019395e-02   -3,457762599e-01   -6,827159524e-01    0,000000000e+00    0,000000000e+00    0,000000000e+00    0,000000000e+00
      296000000    2,606475353e-02   -8,483731747e-02   -6,548165679e-01   -3,975737095e-01    0,000000000e+00    0,000000000e+00    0,000000000e+00    0,000000000e+00
      310000000   -1,895022951e-02   -8,941208571e-02   -7,739832997e-01    1,190178655e-02    0,000000000e+00    0,000000000e+00    0,000000000e+00    0,000000000e+00
      324000000   -4,667507857e-02   -6,362462044e-02   -6,476443410e-01    4,292441308e-01    0,000000000e+00    0,000000000e+00    0,000000000e+00    0,000000000e+00
      338000000   -4,118243605e-02   -3,758130595e-02   -3,086886704e-01    7,083432078e-01    0,000000000e+00    0,000000000e+00    0,000000000e+00    0,000000000e+00
      352000000   -2,362080663e-02   -3,769280389e-02    1,192733794e-01    7,581287622e-01    0,000000000e+00    0,000000000e+00    0,000000000e+00    0,000000000e+00
      366000000   -2,288571559e-02   -5,581820384e-02    5,032821298e-01    5,714380741e-01    0,000000000e+00    0,000000000e+00    0,000000000e+00    0,000000000e+00
      380000000   -4,451983422e-02   -6,499854475e-02    7,264420390e-01    2,117264569e-01    0,000000000e+00    0,000000000e+00    0,000000000e+00    0,000000000e+00
      394000000   -6,619123369e-02   -5,053707212e-02    7,224758267e-01   -2,132250220e-01    0,000000000e+00    0,000000000e+00    0,000000000e+00    0,000000000e+00
      408000000   -6,697080284e-02   -2,614554763e-02    4,903529286e-01   -5,675846934e-01    0,000000000e+00    0,000000000e+00    0,000000000e+00    0,000000000e+00
      422000000   -5,309431627e-02   -1,557239052e-02    1,060368344e-01   -7,390407324e-01    0,000000000e+00    0,000000000e+00    0,000000000e+00    0,000000000e+00
      436000000   -4,607827961e-02   -1,928934082e-02   -3,052425086e-01   -6,755024195e-01    0,000000000e+00    0,000000000e+00    0,000000000e+00    0,000000000e+00
      450000000   -5,204821005e-02   -1,573140174e-02   -6,191439629e-01   -4,005140364e-01    0,000000000e+00    0,000000000e+00    0,000000000e+00    0,000000000e+00
      464000000   -5,061414838e-02    5,427436437e-03   -7,296008468e-01    3,240372520e-03    0,000000000e+00    0,000000000e+00    0,000000000e+00    0,000000000e+00
      478000000   -2,107807994e-02    2,595572732e-02   -5,984420180e-01    3,964322209e-01    0,000000000e+00    0,000000000e+00    0,000000000e+00    0,000000000e+00
      492000000    2,771500312e-02    1,471721753e-02   -2,808577716e-01    6,430951953e-01    0,000000000e+00    0,000000000e+00    0,000000000e+00    0,000000000e+00
      506000000    5,800717324e-02   -3,705376759e-02    1,039150506e-01    6,805489659e-01    0,000000000e+00    0,000000000e+00    0,000000000e+00    0,000000000e+00
      520000000    4,380768165e-02   -1,012702361e-01    4,396369457e-01    5,171591043e-01    0,000000000e+00    0,000000000e+00    0,000000000e+00    0,000000000e+00
      534000000   -1,164418925e-02   -1,415877938e-01    6,496093869e-01    2,076173872e-01    0,000000000e+00    0,000000000e+00    0,000000000e+00    0,000000000e+00
      548000000   -7,897336036e-02   -1,376755834e-01    6,610491276e-01   -1,738163084e-01    0,000000000e+00    0,000000000e+00    0,000000000e+00    0,000000000e+00
      562000000   -1,262820661e-01   -9,832419455e-02    4,555640817e-01   -5,077397823e-01    0,000000000e+00    0,000000000e+00    0,000000000e+00    0,000000000e+00
      576000000   -1,439697891e-01   -4,591016099e-02    9,061114490e-02   -6,655728221e-01    0,000000000e+00    0,000000000e+00    0,000000000e+00    0,000000000e+00
      590000000   -1,348224878e-01    1,233563013e-02   -2,962172329e-01   -5,822545290e-01    0,000000000e+00    0,000000000e+00    0,000000000e+00    0,000000000e+00
      604000000   -7,365125418e-02    6,710249931e-02   -5,273635983e-01   -2,810637355e-01    0,000000000e+00    0,000000000e+00    0,000000000e+00    0,000000000e+00
      618000000    3,729337081e-02    2,492587268e-02   -5,021113753e-01    1,392172184e-02    0,000000000e+00    0,000000000e+00    0,000000000e+00    0,000000000e+00
      632000000   -2,467227401e-03   -1,031090468e-01   -4,658880234e-01    1,720218956e-01    0,000000000e+00    0,000000000e+00    0,000000000e+00    0,000000000e+00
      646000000   -1,039434150e-01   -6,683586538e-02   -3,795663416e-01    4,392463267e-01    0,000000000e+00    0,000000000e+00    0,000000000e+00    0,000000000e+00
      660000000   -8,846602589e-02    3,232042305e-03   -7,031056285e-02    6,170327663e-01    0,000000000e+00    0,000000000e+00    0,000000000e+00    0,000000000e+00
      674000000   -4,049677029e-02    1,264850236e-02    2,873446941e-01    5,588557720e-01    0,000000000e+00    0,000000000e+00    0,000000000e+00    0,000000000e+00
      688000000   -1,683596335e-02   -8,641757071e-03    5,443221331e-01    3,115503192e-01    0,000000000e+00    0,000000000e+00    0,000000000e+00    0,000000000e+00
      702000000   -9,638031945e-03   -2,898184024e-02    6,224908233e-01   -3,687895089e-02    0,000000000e+00    0,000000000e+00    0,000000000e+00    0,000000000e+00
      716000000   -5,044175312e-03   -4,811874405e-02    4,958867133e-01   -3,643438220e-01    0,000000000e+00    0,000000000e+00    0,000000000e+00    0,000000000e+00
      730000000   -3,080629045e-03   -7,747905701e-02    2,172072232e-01   -5,680745244e-01    0,000000000e+00    0,000000000e+00    0,000000000e+00    0,000000000e+00
      744000000   -2,507614344e-02   -1,145627424e-01   -1,211050302e-01   -5,913057923e-01    0,000000000e+00    0,000000000e+00    0,000000000e+00    0,000000000e+00
      758000000   -7,558659464e-02   -1,362435967e-01   -4,188581407e-01   -4,377994835e-01    0,000000000e+00    0,000000000e+00    0,000000000e+00    0,000000000e+00
      772000000   -1,393994391e-01   -1,173795015e-01   -5,970225334e-01   -1,435848624e-01    0,000000000e+00    0,000000000e+00    0,000000000e+00    0,000000000e+00
      786000000   -1,752944738e-01   -5,687495321e-02   -5,858808160e-01    2,099029422e-01    0,000000000e+00    0,000000000e+00    0,000000000e+00    0,000000000e+00
      800000000   -1,608885974e-01    9,886013344e-03   -3,750489950e-01    4,987473190e-01    0,000000000e+00    0,000000000e+00    0,000000000e+00    0,000000000e+00
      814000000   -1,118530035e-01    4,545532912e-02   -4,570329562e-02    6,189568639e-01    0,000000000e+00    0,000000000e+00    0,000000000e+00    0,000000000e+00
      828000000   -6,420635432e-02    4,392340034e-02    2,875856161e-01    5,409001112e-01    0,000000000e+00    0,000000000e+00    0,000000000e+00    0,000000000e+00
      842000000   -3,579574451e-02    2,665293775e-02    5,231984854e-01    3,072920442e-01    0,000000000e+00    0,000000000e+00    0,000000000e+00    0,000000000e+00
      856000000   -1,840742677e-02    8,579478599e-03    5,972428918e-01   -1,502455771e-02    0,000000000e+00    0,000000000e+00    0,000000000e+00    0,000000000e+00
      870000000   -1,446577138e-03   -1,377130859e-02    4,875685871e-01   -3,193919659e-01    0,000000000e+00    0,000000000e+00    0,000000000e+00    0,000000000e+00
      884000000    9,394160472e-03   -5,086840689e-02    2,420237511e-01   -5,141906738e-01    0,000000000e+00    0,000000000e+00    0,000000000e+00    0,000000000e+00
      898000000   -6,725873332e-03   -9,878441691e-02   -5,977820605e-02   -5,565299392e-01    0,000000000e+00    0,000000000e+00    0,000000000e+00    0,000000000e+00
      912000000   -6,165511161e-02   -1,272736043e-01   -3,972726464e-01   -4,103451073e-01    0,000000000e+00    0,000000000e+00    0,000000000e+00    0,000000000e+00
      926000000   -1,212278008e-01   -1,169004217e-01   -5,658404231e-01   -1,456552595e-01    0,000000000e+00    0,000000000e+00    0,000000000e+00    0,000000000e+00
      940000000   -1,562116295e-01   -6,415931135e-02   -5,668316483e-01    1,935329586e-01    0,000000000e+00    0,000000000e+00    0,000000000e+00    0,000000000e+00
      954000000   -1,462595165e-01   -8,690863848e-03   -3,733357489e-01    4,830674827e-01    0,000000000e+00    0,000000000e+00    0,000000000e+00    0,000000000e+00
      968000000   -9,776840359e-02    1,752809063e-02   -5,303043872e-02    6,143063307e-01    0,000000000e+00    0,000000000e+00    0,000000000e+00    0,000000000e+00
      982000000   -5,755670741e-02    2,382025821e-03    2,817107737e-01    5,538750291e-01    0,000000000e+00    0,000000000e+00    0,000000000e+00    0,000000000e+00
      996000000   -5,081857741e-02   -3,022649325e-02    5,241282582e-01    3,280748725e-01    0,000000000e+00    0,000000000e+00    0,000000000e+00    0,000000000e+00
     1010000000   -6,217768416e-02   -5,894118547e-02    6,102613807e-01    1,464414224e-02    0,000000000e+00    0,000000000e+00    0,000000000e+00    0,000000000e+00
     1024000000   -9,537357837e-02   -6,839087605e-02    5,168013573e-01   -2,852464318e-01    0,000000000e+00    0,000000000e+00    0,000000000e+00    0,000000000e+00
     1038000000   -1,290915310e-01   -5,600568280e-02    2,938953340e-01   -4,762003124e-01    0,000000000e+00    0,000000000e+00    0,000000000e+00    0,000000000e+00
     1052000000   -1,461576521e-01   -1,483223308e-02    3,013384342e-02   -5,308988690e-01    0,000000000e+00    0,000000000e+00    0,000000000e+00    0,000000000e+00
     1066000000   -1,146352515e-01    3,244066611e-02   -2,158963233e-01   -4,632165134e-01    0,000000000e+00    0,000000000e+00    0,000000000e+00    0,000000000e+00
     1080000000   -6,706906110e-02    3,252572194e-02   -4,214922488e-01   -2,890712917e-01    0,000000000e+00    0,000000000e+00    0,000000000e+00    0,000000000e+00
     1094000000   -3,957660124e-02    4,962269682e-03   -5,114867091e-01   -1,578271389e-02    0,000000000e+00    0,000000000e+00    0,000000000e+00    0,000000000e+00
     1108000000   -2,833190374e-02   -2,625798993e-02   -4,309426546e-01    2,827962339e-01    0,000000000e+00    0,000000000e+00    0,000000000e+00    0,000000000e+00
     1122000000   -2,528485097e-02   -6,160241365e-02   -1,799171418e-01    4,896905422e-01    0,000000000e+00    0,000000000e+00    0,000000000e+00    0,000000000e+00
     1136000000   -3,956743330e-02   -1,017259881e-01    1,460019946e-01    5,123170614e-01    0,000000000e+00    0,000000000e+00    0,000000000e+00    0,000000000e+00
     1150000000   -8,332630247e-02   -1,248787567e-01    4,456612170e-01    3,410210609e-01    0,000000000e+00    0,000000000e+00    0,000000000e+00    0,000000000e+00
     1164000000   -1,391096413e-01   -1,275497675e-01    6,048424840e-01    1,483280770e-02    0,000000000e+00    0,000000000e+00    0,000000000e+00    0,000000000e+00
     1178000000   -1,760099977e-01   -8,944453299e-02    5,353633761e-01   -3,655024171e-01    0,000000000e+00    0,000000000e+00    0,000000000e+00    0,000000000e+00
     1192000000   -1,813288629e-01   -5,205500498e-02    2,462808937e-01   -6,284086108e-01    0,000000000e+00    0,000000000e+00    0,000000000e+00    0,000000000e+00
     1206000000   -1,935759485e-01   -4,502351582e-02   -1,365775019e-01   -6,597564220e-01    0,000000000e+00    0,000000000e+00    0,000000000e+00    0,000000000e+00
     1220000000   -2,475946099e-01   -1,916301996e-02   -4,195829928e-01   -4,918352365e-01    0,000000000e+00    0,000000000e+00    0,000000000e+00    0,000000000e+00
     1234000000   -2,393779606e-01    1,104778573e-01   -5,567848086e-01   -2,514711916e-01    0,000000000e+00    0,000000000e+00    0,000000000e+00    0,000000000e+00
     1248000000   -1,196589917e-01    1,708639264e-01   -6,071736217e-01    1,891648956e-02    0,000000000e+00    0,000000000e+00    0,000000000e+00    0,000000000e+00
     1262000000   -4,347783979e-03    1,354755610e-01   -5,070574284e-01    2,970628738e-01    0,000000000e+00    0,000000000e+00    0,000000000e+00    0,000000000e+00
     1276000000    5,699165165e-02    4,358197749e-02   -2,812985480e-01    4,861794114e-01    0,000000000e+00    0,000000000e+00    0,000000000e+00    0,000000000e+00
     1290000000    7,018090039e-02   -7,254981995e-02    5,382569972e-03    5,459008217e-01    0,000000000e+00    0,000000000e+00    0,000000000e+00    0,000000000e+00
     1304000000    2,131321654e-02   -1,821332276e-01    2,935492694e-01    4,797827303e-01    0,000000000e+00    0,000000000e+00    0,000000000e+00    0,000000000e+00
     1318000000   -9,438566864e-02   -2,525933981e-01    5,361660123e-01    2,710097432e-01    0,000000000e+00    0,000000000e+00    0,000000000e+00    0,000000000e+00
     1332000000   -2,428779006e-01   -2,473482788e-01    6,528131962e-01   -5,507609621e-02    0,000000000e+00    0,000000000e+00    0,000000000e+00    0,000000000e+00
     1346000000   -3,588848114e-01   -1,413673162e-01    5,588936210e-01   -4,024204910e-01    0,000000000e+00    0,000000000e+00    0,000000000e+00    0,000000000e+00
     1360000000   -3,838036060e-01    1,043100841e-02    2,648363113e-01   -6,308335662e-01    0,000000000e+00    0,000000000e+00    0,000000000e+00    0,000000000e+00
     1374000000   -3,299102783e-01    1,171794161e-01   -1,081613153e-01   -6,306000948e-01    0,000000000e+00    0,000000000e+00    0,000000000e+00    0,000000000e+00
     1388000000   -2,378469855e-01    1,718395650e-01   -3,755645156e-01   -4,109866619e-01    0,000000000e+00    0,000000000e+00    0,000000000e+00    0,000000000e+00
     1402000000   -1,538895220e-01    1,703970134e-01   -4,765126407e-01   -1,063330993e-01    0,000000000e+00    0,000000000e+00    0,000000000e+00    0,000000000e+00
     1416000000   -8,259036392e-02    1,482609510e-01   -3,944557607e-01    2,030816525e-01    0,000000000e+00    0,000000000e+00    0,000000000e+00    0,000000000e+00
     1430000000   -2,693682350e-02    8,489914238e-02   -1,787812412e-01    4,215248227e-01    0,000000000e+00    0,000000000e+00    0,000000000e+00    0,000000000e+00
     1444000000   -1,147921849e-02    8,739117533e-03    1,271680892e-01    5,333564878e-01    0,000000000e+00    0,000000000e+00    0,000000000e+00    0,000000000e+00
     1458000000   -3,679503500e-02   -8,797128499e-02    4,401840568e-01    4,831065834e-01    0,000000000e+00    0,000000000e+00    0,000000000e+00    0,000000000e+00
     1472000000   -1,156414375e-01   -1,491583586e-01    7,335789204e-01    3,037355840e-01    0,000000000e+00    0,000000000e+00    0,000000000e+00    0,000000000e+00
     1486000000   -2,340387255e-01   -1,413442343e-01    9,116462469e-01   -2,714120224e-02    0,000000000e+00    0,000000000e+00    0,000000000e+00    0,000000000e+00
     1500000000   -3,082774878e-01   -6,403730810e-02    8,292343020e-01   -4,356014431e-01    0,000000000e+00    0,000000000e+00    0,000000000e+00    0,000000000e+00
