! NanoVNA-App
! Date: 2025-09-25 14:56:42
! Start: 100MHz Stop: 1,5GHz Points: 101
! S-Parameter data: F S11 S21 S12 S22
# Hz S RI R 50
!     Frequency           S11_Real           S11_Imag           S21_Real           S21_Imag           S12_Real           S12_Imag           S22_Real           S22_Imag
      100000000    3,561244160e-02    2,730989270e-02    4,406586587e-01   -6,694980860e-01    0,000000000e+00    0,000000000e+00    0,000000000e+00    0,000000000e+00
      114000000    6,073984876e-02    2,151045250e-03    1,289263181e-02   -7,953912020e-01    0,000000000e+00    0,000000000e+00    0,000000000e+00    0,000000000e+00
      128000000    6,833183020e-02   -4,225694388e-02   -4,082551301e-01   -6,779816151e-01    0,000000000e+00    0,000000000e+00    0,000000000e+00    0,000000000e+00
      142000000    4,348719120e-02   -8,869979531e-02   -7,050422430e-01   -3,607183397e-01    0,000000000e+00    0,000000000e+00    0,000000000e+00    0,000000000e+00
      156000000   -9,177731350e-03   -1,096534804e-01   -7,933447957e-01    6,728211045e-02    0,000000000e+00    0,000000000e+00    0,000000000e+00    0,000000000e+00
      170000000   -6,258220971e-02   -9,179764241e-02   -6,369396448e-01    4,863068461e-01    0,000000000e+00    0,000000000e+00    0,000000000e+00    0,000000000e+00
      184000000   -8,849407732e-02   -4,764179140e-02   -2,729043067e-01    7,562302351e-01    0,000000000e+00    0,000000000e+00    0,000000000e+00    0,000000000e+00
      198000000   -8,270240575e-02   -6,393156014e-03    1,795284301e-01    7,819461226e-01    0,000000000e+00    0,000000000e+00    0,000000000e+00    0,000000000e+00
      212000000   -6,263070554e-02    1,805777289e-02    5,706622601e-01    5,580968857e-01    0,000000000e+00    0,000000000e+00    0,000000000e+00    0,000000000e+00
      226000000   -4,126384482e-02    3,182047606e-02    7,764868736e-01    1,617862880e-01    0,000000000e+00    0,000000000e+00    0,000000000e+00    0,000000000e+00
      240000000   -1,469109394e-02    4,125873744e-02    7,357985377e-01   -2,787316442e-01    0,000000000e+00    0,000000000e+00    0,000000000e+00    0,000000000e+00
      254000000    2,152879536e-02    3,615946323e-02    4,677792788e-01   -6,218861341e-01    0,000000000e+00    0,000000000e+00    0,000000000e+00    0,000000000e+00
      268000000    5,333490670e-02    4,535622895e-03    6,656859815e-02   -7,670619488e-01    0,000000000e+00    0,000000000e+00    0,000000000e+00    0,000000000e+00
      282000000    5,735194683e-02   -4,505077749e-02   -3,455247879e-01   -6,823776960e-01    0,000000000e+00    0,000000000e+00    0,000000000e+00    0,000000000e+00
      296000000    2,596842311e-02   -8,472555131e-02   -6,548920870e-01   -3,976753950e-01    0,000000000e+00    0,000000000e+00    0,000000000e+00    0,000000000e+00
      310000000   -1,899690181e-02   -8,954558522e-02   -7,729372382e-01    1,009838842e-02    0,000000000e+00    0,000000000e+00    0,000000000e+00    0,000000000e+00
      324000000   -4,681940749e-02   -6,356408447e-02   -6,473490596e-01    4,287533760e-01    0,000000000e+00    0,000000000e+00    0,000000000e+00    0,000000000e+00
      338000000   -4,120215401e-02   -3,775847703e-02   -3,091802299e-01    7,066535354e-01    0,000000000e+00    0,000000000e+00    0,000000000e+00    0,000000000e+00
      352000000   -2,336664870e-02   -3,758677468e-02    1,197441518e-01    7,585598826e-01    0,000000000e+00    0,000000000e+00    0,000000000e+00    0,000000000e+00
      366000000   -2,272657864e-02   -5,593614653e-02    5,039280653e-01    5,719458461e-01    0,000000000e+00    0,000000000e+00    0,000000000e+00    0,000000000e+00
      380000000   -4,449498281e-02   -6,484562904e-02    7,260923982e-01    2,114073634e-01    0,000000000e+00    0,000000000e+00    0,000000000e+00    0,000000000e+00
      394000000   -6,623684615e-02   -5,064839497e-02    7,223052382e-01   -2,134654373e-01    0,000000000e+00    0,000000000e+00    0,000000000e+00    0,000000000e+00
      408000000   -6,691981107e-02   -2,632230148e-02    4,896503091e-01   -5,674192309e-01    0,000000000e+00    0,000000000e+00    0,000000000e+00    0,000000000e+00
      422000000   -5,320606753e-02   -1,548040565e-02    1,060907543e-01   -7,384743690e-01    0,000000000e+00    0,000000000e+00    0,000000000e+00    0,000000000e+00
      436000000   -4,590173811e-02   -1,890501939e-02   -3,044630289e-01   -6,760191321e-01    0,000000000e+00    0,000000000e+00    0,000000000e+00    0,000000000e+00
      450000000   -5,211631954e-02   -1,535231061e-02   -6,188513637e-01   -4,001193345e-01    0,000000000e+00    0,000000000e+00    0,000000000e+00    0,000000000e+00
      464000000   -5,044037476e-02    5,608457141e-03   -7,295362949e-01    3,670447739e-03    0,000000000e+00    0,000000000e+00    0,000000000e+00    0,000000000e+00
      478000000   -2,065105364e-02    2,589846775e-02   -5,987794995e-01    3,966606557e-01    0,000000000e+00    0,000000000e+00    0,000000000e+00    0,000000000e+00
      492000000    2,746213600e-02    1,481273491e-02   -2,808156610e-01    6,437196732e-01    0,000000000e+00    0,000000000e+00    0,000000000e+00    0,000000000e+00
      506000000    5,822525173e-02   -3,692704067e-02    1,040951610e-01    6,807805896e-01    0,000000000e+00    0,000000000e+00    0,000000000e+00    0,000000000e+00
      520000000    4,310368374e-02   -1,009851024e-01    4,379791021e-01    5,176305771e-01    0,000000000e+00    0,000000000e+00    0,000000000e+00    0,000000000e+00
      534000000   -1,219214592e-02   -1,414600164e-01    6,489841938e-01    2,080124319e-01    0,000000000e+00    0,000000000e+00    0,000000000e+00    0,000000000e+00
      548000000   -7,931423932e-02   -1,375667453e-01    6,606038213e-01   -1,738222837e-01    0,000000000e+00    0,000000000e+00    0,000000000e+00    0,000000000e+00
      562000000   -1,260062307e-01   -9,792605788e-02    4,555522501e-01   -5,066310167e-01    0,000000000e+00    0,000000000e+00    0,000000000e+00    0,000000000e+00
      576000000   -1,433782130e-01   -4,459397122e-02    8,909837157e-02   -6,634191871e-01    0,000000000e+00    0,000000000e+00    0,000000000e+00    0,000000000e+00
      590000000   -1,328299791e-01    1,299262140e-02   -2,920748889e-01   -5,815631151e-01    0,000000000e+00    0,000000000e+00    0,000000000e+00    0,000000000e+00
      604000000   -7,041996717e-02    6,414994597e-02   -5,223546624e-01   -2,840966880e-01    0,000000000e+00    0,000000000e+00    0,000000000e+00    0,000000000e+00
      618000000    3,152316809e-02    1,931253821e-02   -5,071106553e-01    5,498112179e-03    0,000000000e+00    0,000000000e+00    0,000000000e+00    0,000000000e+00
      632000000   -7,494242396e-03   -9,649167955e-02   -4,729482532e-01    1,791907549e-01    0,000000000e+00    0,000000000e+00    0,000000000e+00    0,000000000e+00
      646000000   -9,823090583e-02   -6,304846704e-02   -3,744674325e-01    4,446997941e-01    0,000000000e+00    0,000000000e+00    0,000000000e+00    0,000000000e+00
      660000000   -8,436203003e-02    4,519167123e-04   -6,746719778e-02    6,151488423e-01    0,000000000e+00    0,000000000e+00    0,000000000e+00    0,000000000e+00
      674000000   -4,026954249e-02    9,344628081e-03    2,874660194e-01    5,565124154e-01    0,000000000e+00    0,000000000e+00    0,000000000e+00    0,000000000e+00
      688000000   -1,748547889e-02   -9,773590602e-03    5,435212255e-01    3,103809357e-01    0,000000000e+00    0,000000000e+00    0,000000000e+00    0,000000000e+00
      702000000   -1,041105203e-02   -2,880728059e-02    6,219651103e-01   -3,804226965e-02    0,000000000e+00    0,000000000e+00    0,000000000e+00    0,000000000e+00
      716000000   -6,138889585e-03   -4,696460441e-02    4,952341616e-01   -3,651133776e-01    0,000000000e+00    0,000000000e+00    0,000000000e+00    0,000000000e+00
      730000000   -3,062066156e-03   -7,661559433e-02    2,161757499e-01   -5,678194165e-01    0,000000000e+00    0,000000000e+00    0,000000000e+00    0,000000000e+00
      744000000   -2,446238883e-02   -1,136321276e-01   -1,211146563e-01   -5,903490186e-01    0,000000000e+00    0,000000000e+00    0,000000000e+00    0,000000000e+00
      758000000   -7,585653663e-02   -1,357517391e-01   -4,179295301e-01   -4,369554818e-01    0,000000000e+00    0,000000000e+00    0,000000000e+00    0,000000000e+00
      772000000   -1,378029883e-01   -1,177284047e-01   -5,963423848e-01   -1,431965083e-01    0,000000000e+00    0,000000000e+00    0,000000000e+00    0,000000000e+00
      786000000   -1,753769815e-01   -5,703397095e-02   -5,854624510e-01    2,092224061e-01    0,000000000e+00    0,000000000e+00    0,000000000e+00    0,000000000e+00
      800000000   -1,610845178e-01    9,598877281e-03   -3,759165704e-01    4,975917041e-01    0,000000000e+00    0,000000000e+00    0,000000000e+00    0,000000000e+00
      814000000   -1,130642444e-01    4,500050843e-02   -4,523187131e-02    6,169713736e-01    0,000000000e+00    0,000000000e+00    0,000000000e+00    0,000000000e+00
      828000000   -6,550220400e-02    4,391229898e-02    2,875648439e-01    5,430772305e-01    0,000000000e+00    0,000000000e+00    0,000000000e+00    0,000000000e+00
      842000000   -3,661421686e-02    2,708939090e-02    5,227895975e-01    3,060092330e-01    0,000000000e+00    0,000000000e+00    0,000000000e+00    0,000000000e+00
      856000000   -1,878157258e-02    8,280256763e-03    5,965352654e-01   -1,468002144e-02    0,000000000e+00    0,000000000e+00    0,000000000e+00    0,000000000e+00
      870000000   -7,190103061e-04   -1,476720627e-02    4,876481593e-01   -3,189010024e-01    0,000000000e+00    0,000000000e+00    0,000000000e+00    0,000000000e+00
      884000000    9,649304673e-03   -5,162956193e-02    2,423151881e-01   -5,157873034e-01    0,000000000e+00    0,000000000e+00    0,000000000e+00    0,000000000e+00
      898000000   -7,223844994e-03   -9,880921990e-02   -6,121872365e-02   -5,558515787e-01    0,000000000e+00    0,000000000e+00    0,000000000e+00    0,000000000e+00
      912000000   -6,207389757e-02   -1,286864728e-01   -3,843148649e-01   -4,198405445e-01    0,000000000e+00    0,000000000e+00    0,000000000e+00    0,000000000e+00
      926000000   -1,206554025e-01   -1,160577536e-01   -5,636200309e-01   -1,471516937e-01    0,000000000e+00    0,000000000e+00    0,000000000e+00    0,000000000e+00
      940000000   -1,588790119e-01   -6,516034901e-02   -5,679951310e-01    1,922716051e-01    0,000000000e+00    0,000000000e+00    0,000000000e+00    0,000000000e+00
      954000000   -1,447866857e-01   -7,358138449e-03   -3,722875416e-01    4,815090597e-01    0,000000000e+00    0,000000000e+00    0,000000000e+00    0,000000000e+00
      968000000   -9,828678519e-02    1,859573275e-02   -5,248703063e-02    6,150943041e-01    0,000000000e+00    0,000000000e+00    0,000000000e+00    0,000000000e+00
      982000000   -5,759451166e-02    3,832622664e-03    2,831391990e-01    5,522543192e-01    0,000000000e+00    0,000000000e+00    0,000000000e+00    0,000000000e+00
      996000000   -4,875272140e-02   -3,373408690e-02    5,251292586e-01    3,293370306e-01    0,000000000e+00    0,000000000e+00    0,000000000e+00    0,000000000e+00
     1010000000   -6,546381116e-02   -5,732492357e-02    6,088407636e-01    1,438420266e-02    0,000000000e+00    0,000000000e+00    0,000000000e+00    0,000000000e+00
     1024000000   -9,893377870e-02   -7,003074884e-02    5,182178617e-01   -2,836757004e-01    0,000000000e+00    0,000000000e+00    0,000000000e+00    0,000000000e+00
     1038000000   -1,325318515e-01   -5,564950034e-02    2,951954305e-01   -4,809855819e-01    0,000000000e+00    0,000000000e+00    0,000000000e+00    0,000000000e+00
     1052000000   -1,462838501e-01   -1,528850384e-02    2,938072383e-02   -5,303280950e-01    0,000000000e+00    0,000000000e+00    0,000000000e+00    0,000000000e+00
     1066000000   -1,180962995e-01    2,552802674e-02   -2,169153243e-01   -4,625197053e-01    0,000000000e+00    0,000000000e+00    0,000000000e+00    0,000000000e+00
     1080000000   -6,635878235e-02    2,795035951e-02   -4,199007154e-01   -2,851176262e-01    0,000000000e+00    0,000000000e+00    0,000000000e+00    0,000000000e+00
     1094000000   -3,355373442e-02    4,950193688e-03   -5,097979307e-01   -1,259759255e-02    0,000000000e+00    0,000000000e+00    0,000000000e+00    0,000000000e+00
     1108000000   -2,891577594e-02   -2,649079077e-02   -4,313462377e-01    2,799407542e-01    0,000000000e+00    0,000000000e+00    0,000000000e+00    0,000000000e+00
     1122000000   -2,295585908e-02   -6,102690473e-02   -1,829564720e-01    4,866392016e-01    0,000000000e+00    0,000000000e+00    0,000000000e+00    0,000000000e+00
     1136000000   -4,242139682e-02   -9,670177847e-02    1,504476964e-01    5,151385665e-01    0,000000000e+00    0,000000000e+00    0,000000000e+00    0,000000000e+00
     1150000000   -7,880593836e-02   -1,269264817e-01    4,447737634e-01    3,414183855e-01    0,000000000e+00    0,000000000e+00    0,000000000e+00    0,000000000e+00
     1164000000   -1,425185055e-01   -1,251363158e-01    6,033491492e-01    1,291924063e-02    0,000000000e+00    0,000000000e+00    0,000000000e+00    0,000000000e+00
     1178000000   -1,857194304e-01   -8,784371614e-02    5,410107970e-01   -3,641412258e-01    0,000000000e+00    0,000000000e+00    0,000000000e+00    0,000000000e+00
     1192000000   -1,804892272e-01   -5,114192888e-02    2,469420731e-01   -6,285807490e-01    0,000000000e+00    0,000000000e+00    0,000000000e+00    0,000000000e+00
     1206000000   -1,938407570e-01   -4,178445041e-02   -1,336316615e-01   -6,631768346e-01    0,000000000e+00    0,000000000e+00    0,000000000e+00    0,000000000e+00
     1220000000   -2,487637103e-01   -9,935041890e-03   -4,267151058e-01   -4,912665784e-01    0,000000000e+00    0,000000000e+00    0,000000000e+00    0,000000000e+00
     1234000000   -2,373246849e-01    1,100667194e-01   -5,577179790e-01   -2,471912205e-01    0,000000000e+00    0,000000000e+00    0,000000000e+00    0,000000000e+00
     1248000000   -1,199737787e-01    1,680907458e-01   -6,045168042e-01    1,832147501e-02    0,000000000e+00    0,000000000e+00    0,000000000e+00    0,000000000e+00
     1262000000   -4,753263202e-03    1,293994635e-01   -5,024181604e-01    2,905221581e-01    0,000000000e+00    0,000000000e+00    0,000000000e+00    0,000000000e+00
     1276000000    6,424450874e-02    4,149847105e-02   -2,756192088e-01    4,840711951e-01    0,000000000e+00    0,000000000e+00    0,000000000e+00    0,000000000e+00
     1290000000    7,128190249e-02   -7,178041339e-02    6,492348853e-03    5,403339863e-01    0,000000000e+00    0,000000000e+00    0,000000000e+00    0,000000000e+00
     1304000000    1,998059824e-02   -1,794592142e-01    3,003038764e-01    4,760547876e-01    0,000000000e+00    0,000000000e+00    0,000000000e+00    0,000000000e+00
     1318000000   -9,297008812e-02   -2,565279305e-01    5,347710848e-01    2,694599032e-01    0,000000000e+00    0,000000000e+00    0,000000000e+00    0,000000000e+00
     1332000000   -2,455910891e-01   -2,469815165e-01    6,474372149e-01   -5,296228454e-02    0,000000000e+00    0,000000000e+00    0,000000000e+00    0,000000000e+00
     1346000000   -3,571072519e-01   -1,450229436e-01    5,540201068e-01   -4,083984494e-01    0,000000000e+00    0,000000000e+00    0,000000000e+00    0,000000000e+00
     1360000000   -3,907205760e-01    7,651882246e-03    2,549097240e-01   -6,303052902e-01    0,000000000e+00    0,000000000e+00    0,000000000e+00    0,000000000e+00
     1374000000   -3,231247365e-01    1,275978684e-01   -1,031551287e-01   -6,228889823e-01    0,000000000e+00    0,000000000e+00    0,000000000e+00    0,000000000e+00
     1388000000   -2,384534329e-01    1,717303842e-01   -3,724606633e-01   -4,178713560e-01    0,000000000e+00    0,000000000e+00    0,000000000e+00    0,000000000e+00
     1402000000   -1,538331062e-01    1,702402681e-01   -4,827080667e-01   -1,019073501e-01    0,000000000e+00    0,000000000e+00    0,000000000e+00    0,000000000e+00
     1416000000   -8,435975015e-02    1,434069574e-01   -3,976547420e-01    2,020301819e-01    0,000000000e+00    0,000000000e+00    0,000000000e+00    0,000000000e+00
     1430000000   -3,067507781e-02    9,157562256e-02   -1,944119334e-01    4,514858425e-01    0,000000000e+00    0,000000000e+00    0,000000000e+00    0,000000000e+00
     1444000000   -1,447286829e-02    5,060639232e-03    1,164918840e-01    5,205579996e-01    0,000000000e+00    0,000000000e+00    0,000000000e+00    0,000000000e+00
     1458000000   -4,048742354e-02   -8,478657901e-02    4,279882908e-01    4,834039509e-01    0,000000000e+00    0,000000000e+00    0,000000000e+00    0,000000000e+00
     1472000000   -1,219017729e-01   -1,485992819e-01    7,253747582e-01    3,177945018e-01    0,000000000e+00    0,000000000e+00    0,000000000e+00    0,000000000e+00
     1486000000   -2,350201458e-01   -1,429006308e-01    8,838684559e-01   -1,926418208e-02    0,000000000e+00    0,000000000e+00    0,000000000e+00    0,000000000e+00
     1500000000   -3,155831099e-01   -6,066684425e-02    8,310121298e-01   -4,208723009e-01    0,000000000e+00    0,000000000e+00    0,000000000e+00    0,000000000e+00
