! NanoVNA-App
! Date: 2025-09-25 14:59:08
! Start: 100MHz Stop: 1,5GHz Points: 101
! S-Parameter data: F S11 S21 S12 S22
# Hz S RI R 50
!     Frequency           S11_Real           S11_Imag           S21_Real           S21_Imag           S12_Real           S12_Imag           S22_Real           S22_Imag
      100000000    3,557677194e-02    2,735897526e-02    4,407734573e-01   -6,695027947e-01    0,000000000e+00    0,000000000e+00    0,000000000e+00    0,000000000e+00
      114000000    6,070768088e-02    2,190618077e-03    1,295867283e-02   -7,955340147e-01    0,000000000e+00    0,000000000e+00    0,000000000e+00    0,000000000e+00
      128000000    6,836826354e-02   -4,229110107e-02   -4,083481431e-01   -6,781634092e-01    0,000000000e+00    0,000000000e+00    0,000000000e+00    0,000000000e+00
      142000000    4,351671785e-02   -8,879491687e-02   -7,052077055e-01   -3,609283864e-01    0,000000000e+00    0,000000000e+00    0,000000000e+00    0,000000000e+00
      156000000   -9,398573078e-03   -1,100684851e-01   -7,928802967e-01    6,792248785e-02    0,000000000e+00    0,000000000e+00    0,000000000e+00    0,000000000e+00
      170000000   -6,272634119e-02   -9,175942093e-02   -6,368304491e-01    4,862401485e-01    0,000000000e+00    0,000000000e+00    0,000000000e+00    0,000000000e+00
      184000000   -8,859759569e-02   -4,768254980e-02   -2,730091512e-01    7,563505769e-01    0,000000000e+00    0,000000000e+00    0,000000000e+00    0,000000000e+00
      198000000   -8,273265511e-02   -6,435967050e-03    1,794639826e-01    7,821044326e-01    0,000000000e+00    0,000000000e+00    0,000000000e+00    0,000000000e+00
      212000000   -6,266452372e-02    1,801833883e-02    5,704330802e-01    5,585702062e-01    0,000000000e+00    0,000000000e+00    0,000000000e+00    0,000000000e+00
      226000000   -4,143591970e-02    3,182439134e-02    7,765803337e-01    1,617899090e-01    0,000000000e+00    0,000000000e+00    0,000000000e+00    0,000000000e+00
      240000000   -1,486412063e-02    4,132142290e-02    7,359195948e-01   -2,788152099e-01    0,000000000e+00    0,000000000e+00    0,000000000e+00    0,000000000e+00
      254000000    2,138226293e-02    3,629956022e-02    4,678250551e-01   -6,221708655e-01    0,000000000e+00    0,000000000e+00    0,000000000e+00    0,000000000e+00
      268000000    5,327285826e-02    4,752651323e-03    6,697319448e-02   -7,672372460e-01    0,000000000e+00    0,000000000e+00    0,000000000e+00    0,000000000e+00
      282000000    5,736996979e-02   -4,492165893e-02   -3,455247581e-01   -6,825270653e-01    0,000000000e+00    0,000000000e+00    0,000000000e+00    0,000000000e+00
      296000000    2,608405799e-02   -8,463555574e-02   -6,548917294e-01   -3,975118697e-01    0,000000000e+00    0,000000000e+00    0,000000000e+00    0,000000000e+00
      310000000   -1,894632727e-02   -8,937930316e-02   -7,748999596e-01    1,001053024e-02    0,000000000e+00    0,000000000e+00    0,000000000e+00    0,000000000e+00
      324000000   -4,656514898e-02   -6,328180432e-02   -6,482208371e-01    4,298288226e-01    0,000000000e+00    0,000000000e+00    0,000000000e+00    0,000000000e+00
      338000000   -4,110081866e-02   -3,777182475e-02   -3,120484054e-01    7,110064626e-01    0,000000000e+00    0,000000000e+00    0,000000000e+00    0,000000000e+00
      352000000   -2,320220694e-02   -3,809761256e-02    1,202614680e-01    7,583102584e-01    0,000000000e+00    0,000000000e+00    0,000000000e+00    0,000000000e+00
      366000000   -2,282346226e-02   -5,601521581e-02    5,031886101e-01    5,715665221e-01    0,000000000e+00    0,000000000e+00    0,000000000e+00    0,000000000e+00
      380000000   -4,448297620e-02   -6,494766474e-02    7,264726758e-01    2,118847668e-01    0,000000000e+00    0,000000000e+00    0,000000000e+00    0,000000000e+00
      394000000   -6,657869369e-02   -5,065304413e-02    7,226544619e-01   -2,133077383e-01    0,000000000e+00    0,000000000e+00    0,000000000e+00    0,000000000e+00
      408000000   -6,740924716e-02   -2,613305487e-02    4,904339910e-01   -5,689984560e-01    0,000000000e+00    0,000000000e+00    0,000000000e+00    0,000000000e+00
      422000000   -5,323007703e-02   -1,528732758e-02    1,054515541e-01   -7,382810712e-01    0,000000000e+00    0,000000000e+00    0,000000000e+00    0,000000000e+00
      436000000   -4,666103050e-02   -1,826143451e-02   -3,066665530e-01   -6,764290929e-01    0,000000000e+00    0,000000000e+00    0,000000000e+00    0,000000000e+00
      450000000   -5,177161098e-02   -1,498359255e-02   -6,187312007e-01   -3,991314173e-01    0,000000000e+00    0,000000000e+00    0,000000000e+00    0,000000000e+00
      464000000   -5,009545386e-02    5,882333964e-03   -7,300123572e-01    3,475569887e-03    0,000000000e+00    0,000000000e+00    0,000000000e+00    0,000000000e+00
      478000000   -2,048884705e-02    2,643536776e-02   -5,985567570e-01    3,975337744e-01    0,000000000e+00    0,000000000e+00    0,000000000e+00    0,000000000e+00
      492000000    2,842614800e-02    1,449092571e-02   -2,792678773e-01    6,439808607e-01    0,000000000e+00    0,000000000e+00    0,000000000e+00    0,000000000e+00
      506000000    5,913825333e-02   -3,770778328e-02    1,052487418e-01    6,794666648e-01    0,000000000e+00    0,000000000e+00    0,000000000e+00    0,000000000e+00
      520000000    4,396858439e-02   -1,024128124e-01    4,389457703e-01    5,173152685e-01    0,000000000e+00    0,000000000e+00    0,000000000e+00    0,000000000e+00
      534000000   -1,303825993e-02   -1,440727711e-01    6,495940089e-01    2,051723599e-01    0,000000000e+00    0,000000000e+00    0,000000000e+00    0,000000000e+00
      548000000   -8,201158047e-02   -1,403021812e-01    6,598317623e-01   -1,770713925e-01    0,000000000e+00    0,000000000e+00    0,000000000e+00    0,000000000e+00
      562000000   -1,315277219e-01   -9,765563160e-02    4,506540298e-01   -5,084545612e-01    0,000000000e+00    0,000000000e+00    0,000000000e+00    0,000000000e+00
      576000000   -1,494037509e-01   -3,830558807e-02    8,297603577e-02   -6,605765224e-01    0,000000000e+00    0,000000000e+00    0,000000000e+00    0,000000000e+00
      590000000   -1,297848821e-01    2,975921519e-02   -2,962844372e-01   -5,639739633e-01    0,000000000e+00    0,000000000e+00    0,000000000e+00    0,000000000e+00
      604000000   -3,718696535e-02    6,825657189e-02   -4,869486392e-01   -2,700611353e-01    0,000000000e+00    0,000000000e+00    0,000000000e+00    0,000000000e+00
      618000000    3,498926386e-02   -3,136566281e-02   -4,936470091e-01   -5,181787163e-02    0,000000000e+00    0,000000000e+00    0,000000000e+00    0,000000000e+00
      632000000   -5,299553648e-02   -9,204504639e-02   -5,262310505e-01    1,774474233e-01    0,000000000e+00    0,000000000e+00    0,000000000e+00    0,000000000e+00
      646000000   -9,988001734e-02   -3,319367394e-02   -3,796159923e-01    4,774035215e-01    0,000000000e+00    0,000000000e+00    0,000000000e+00    0,000000000e+00
      660000000   -6,915233284e-02    1,010132767e-02   -5,137098953e-02    6,249263883e-01    0,000000000e+00    0,000000000e+00    0,000000000e+00    0,000000000e+00
      674000000   -3,057078458e-02    4,681380466e-03    2,985824049e-01    5,529759526e-01    0,000000000e+00    0,000000000e+00    0,000000000e+00    0,000000000e+00
      688000000   -1,537930313e-02   -1,868209615e-02    5,473215580e-01    3,035097420e-01    0,000000000e+00    0,000000000e+00    0,000000000e+00    0,000000000e+00
      702000000   -1,389227621e-02   -3,479227796e-02    6,192291975e-01   -4,193386063e-02    0,000000000e+00    0,000000000e+00    0,000000000e+00    0,000000000e+00
      716000000   -9,279650636e-03   -4,835607111e-02    4,922778904e-01   -3,683294356e-01    0,000000000e+00    0,000000000e+00    0,000000000e+00    0,000000000e+00
      730000000   -7,136026863e-03   -7,391794026e-02    2,115991414e-01   -5,679251552e-01    0,000000000e+00    0,000000000e+00    0,000000000e+00    0,000000000e+00
      744000000   -2,563678101e-02   -1,109093726e-01   -1,238940656e-01   -5,877317190e-01    0,000000000e+00    0,000000000e+00    0,000000000e+00    0,000000000e+00
      758000000   -7,505350560e-02   -1,326935142e-01   -4,195050001e-01   -4,314271212e-01    0,000000000e+00    0,000000000e+00    0,000000000e+00    0,000000000e+00
      772000000   -1,350930035e-01   -1,166086122e-01   -5,937291384e-01   -1,395619363e-01    0,000000000e+00    0,000000000e+00    0,000000000e+00    0,000000000e+00
      786000000   -1,721069068e-01   -5,811047554e-02   -5,812395811e-01    2,097340822e-01    0,000000000e+00    0,000000000e+00    0,000000000e+00    0,000000000e+00
      800000000   -1,593079120e-01    6,766951177e-03   -3,736059964e-01    4,954519272e-01    0,000000000e+00    0,000000000e+00    0,000000000e+00    0,000000000e+00
      814000000   -1,146340817e-01    4,209166020e-02   -4,510169476e-02    6,149476767e-01    0,000000000e+00    0,000000000e+00    0,000000000e+00    0,000000000e+00
      828000000   -6,935454905e-02    4,434184358e-02    2,863287330e-01    5,409776568e-01    0,000000000e+00    0,000000000e+00    0,000000000e+00    0,000000000e+00
      842000000   -3,845632821e-02    2,922301739e-02    5,202224255e-01    3,055851758e-01    0,000000000e+00    0,000000000e+00    0,000000000e+00    0,000000000e+00
      856000000   -1,838275976e-02    1,299828663e-02    5,944762230e-01   -1,398916170e-02    0,000000000e+00    0,000000000e+00    0,000000000e+00    0,000000000e+00
      870000000    2,338858088e-03   -1,105930191e-02    4,856759012e-01   -3,169232309e-01    0,000000000e+00    0,000000000e+00    0,000000000e+00    0,000000000e+00
      884000000    1,376053225e-02   -5,113432929e-02    2,422281653e-01   -5,108031631e-01    0,000000000e+00    0,000000000e+00    0,000000000e+00    0,000000000e+00
      898000000   -3,901780350e-03   -1,018176749e-01   -5,811022967e-02   -5,547391772e-01    0,000000000e+00    0,000000000e+00    0,000000000e+00    0,000000000e+00
      912000000   -6,280162930e-02   -1,320892721e-01   -3,906449378e-01   -4,251018167e-01    0,000000000e+00    0,000000000e+00    0,000000000e+00    0,000000000e+00
      926000000   -1,261288971e-01   -1,215040535e-01   -5,660162568e-01   -1,502407044e-01    0,000000000e+00    0,000000000e+00    0,000000000e+00    0,000000000e+00
      940000000   -1,620526910e-01   -6,467388570e-02   -5,676430464e-01    1,924129725e-01    0,000000000e+00    0,000000000e+00    0,000000000e+00    0,000000000e+00
      954000000   -1,438064426e-01   -9,430890204e-04   -3,723304570e-01    4,822970033e-01    0,000000000e+00    0,000000000e+00    0,000000000e+00    0,000000000e+00
      968000000   -9,951130301e-02    2,224938944e-02   -5,284103379e-02    6,146587133e-01    0,000000000e+00    0,000000000e+00    0,000000000e+00    0,000000000e+00
      982000000   -5,602055416e-02    7,840088569e-03    2,822067142e-01    5,527801514e-01    0,000000000e+00    0,000000000e+00    0,000000000e+00    0,000000000e+00
      996000000   -4,609082639e-02   -3,295373172e-02    5,242699981e-01    3,291821480e-01    0,000000000e+00    0,000000000e+00    0,000000000e+00    0,000000000e+00
     1010000000   -6,462968886e-02   -6,768365949e-02    6,084483862e-01    1,389657706e-02    0,000000000e+00    0,000000000e+00    0,000000000e+00    0,000000000e+00
     1024000000   -9,930305183e-02   -7,558525354e-02    5,150589943e-01   -2,798801959e-01    0,000000000e+00    0,000000000e+00    0,000000000e+00    0,000000000e+00
     1038000000   -1,442199945e-01   -5,357647687e-02    2,946891487e-01   -4,737518728e-01    0,000000000e+00    0,000000000e+00    0,000000000e+00    0,000000000e+00
     1052000000   -1,535697132e-01    7,088047569e-04    3,576958179e-02   -5,246471763e-01    0,000000000e+00    0,000000000e+00    0,000000000e+00    0,000000000e+00
     1066000000   -1,086790040e-01    3,879072890e-02   -2,152239829e-01   -4,648802578e-01    0,000000000e+00    0,000000000e+00    0,000000000e+00    0,000000000e+00
     1080000000   -5,123402551e-02    2,977801114e-02   -4,198254645e-01   -2,989512682e-01    0,000000000e+00    0,000000000e+00    0,000000000e+00    0,000000000e+00
     1094000000   -3,421798348e-02   -1,080491673e-02   -5,208911300e-01   -2,532652579e-02    0,000000000e+00    0,000000000e+00    0,000000000e+00    0,000000000e+00
     1108000000   -3,384978697e-02   -3,108616173e-02   -4,406043887e-01    2,845044732e-01    0,000000000e+00    0,000000000e+00    0,000000000e+00    0,000000000e+00
     1122000000   -2,882688865e-02   -5,904101580e-02   -1,873141974e-01    4,953858256e-01    0,000000000e+00    0,000000000e+00    0,000000000e+00    0,000000000e+00
     1136000000   -3,960944712e-02   -9,279017895e-02    1,505383253e-01    5,192175508e-01    0,000000000e+00    0,000000000e+00    0,000000000e+00    0,000000000e+00
     1150000000   -8,181207627e-02   -1,264930069e-01    4,544291496e-01    3,417829573e-01    0,000000000e+00    0,000000000e+00    0,000000000e+00    0,000000000e+00
     1164000000   -1,410889179e-01   -1,187968105e-01    6,077228189e-01    1,244398020e-02    0,000000000e+00    0,000000000e+00    0,000000000e+00    0,000000000e+00
     1178000000   -1,739246398e-01   -8,567421883e-02    5,378022194e-01   -3,741160631e-01    0,000000000e+00    0,000000000e+00    0,000000000e+00    0,000000000e+00
     1192000000   -1,825354993e-01   -5,193955451e-02    2,424638569e-01   -6,360873580e-01    0,000000000e+00    0,000000000e+00    0,000000000e+00    0,000000000e+00
     1206000000   -1,876699626e-01   -5,359246954e-02   -1,385115087e-01   -6,585309505e-01    0,000000000e+00    0,000000000e+00    0,000000000e+00    0,000000000e+00
     1220000000   -2,519772649e-01   -1,486815792e-02   -4,184053242e-01   -4,842218757e-01    0,000000000e+00    0,000000000e+00    0,000000000e+00    0,000000000e+00
     1234000000   -2,408493906e-01    1,181026697e-01   -5,586895943e-01   -2,459092438e-01    0,000000000e+00    0,000000000e+00    0,000000000e+00    0,000000000e+00
     1248000000   -1,114895493e-01    1,695611477e-01   -6,030420661e-01    1,728385501e-02    0,000000000e+00    0,000000000e+00    0,000000000e+00    0,000000000e+00
     1262000000   -1,527501387e-03    1,356768459e-01   -5,022519231e-01    2,986322343e-01    0,000000000e+00    0,000000000e+00    0,000000000e+00    0,000000000e+00
     1276000000    6,190195307e-02    4,144996777e-02   -2,751359046e-01    4,871678352e-01    0,000000000e+00    0,000000000e+00    0,000000000e+00    0,000000000e+00
     1290000000    6,743915379e-02   -6,918595731e-02    7,423733827e-03    5,491145849e-01    0,000000000e+00    0,000000000e+00    0,000000000e+00    0,000000000e+00
     1304000000    2,205485106e-02   -1,808294654e-01    3,005159199e-01    4,769540429e-01    0,000000000e+00    0,000000000e+00    0,000000000e+00    0,000000000e+00
     1318000000   -9,275098145e-02   -2,480988204e-01    5,312202573e-01    2,791442573e-01    0,000000000e+00    0,000000000e+00    0,000000000e+00    0,000000000e+00
     1332000000   -2,368471175e-01   -2,477092743e-01    6,563461423e-01   -5,573643744e-02    0,000000000e+00    0,000000000e+00    0,000000000e+00    0,000000000e+00
     1346000000   -3,662730753e-01   -1,382017583e-01    5,522901416e-01   -4,157796800e-01    0,000000000e+00    0,000000000e+00    0,000000000e+00    0,000000000e+00
     1360000000   -3,849756718e-01    9,644449688e-03    2,575058639e-01   -6,309360862e-01    0,000000000e+00    0,000000000e+00    0,000000000e+00    0,000000000e+00
     1374000000   -3,275281191e-01    1,247040182e-01   -1,075144038e-01   -6,211603880e-01    0,000000000e+00    0,000000000e+00    0,000000000e+00    0,000000000e+00
     1388000000   -2,367826402e-01    1,668730825e-01   -3,714840114e-01   -4,227957428e-01    0,000000000e+00    0,000000000e+00    0,000000000e+00    0,000000000e+00
     1402000000   -1,555900276e-01    1,736312062e-01   -4,669058919e-01   -1,045452282e-01    0,000000000e+00    0,000000000e+00    0,000000000e+00    0,000000000e+00
     1416000000   -8,642356098e-02    1,438418776e-01   -3,929605186e-01    2,042545378e-01    0,000000000e+00    0,000000000e+00    0,000000000e+00    0,000000000e+00
     1430000000   -3,770082816e-02    8,349242806e-02   -1,586380899e-01    4,133736789e-01    0,000000000e+00    0,000000000e+00    0,000000000e+00    0,000000000e+00
     1444000000   -1,305610128e-02    1,351376250e-02    1,208901927e-01    5,444864631e-01    0,000000000e+00    0,000000000e+00    0,000000000e+00    0,000000000e+00
     1458000000   -3,374137729e-02   -8,438982069e-02    4,437136352e-01    4,875820875e-01    0,000000000e+00    0,000000000e+00    0,000000000e+00    0,000000000e+00
     1472000000   -1,075658575e-01   -1,455423385e-01    7,298262119e-01    3,077201247e-01    0,000000000e+00    0,000000000e+00    0,000000000e+00    0,000000000e+00
     1486000000   -2,268192768e-01   -1,366406679e-01    9,167788625e-01   -2,872113325e-02    0,000000000e+00    0,000000000e+00    0,000000000e+00    0,000000000e+00
     1500000000   -3,040659726e-01   -6,406188756e-02    8,450386524e-01   -4,354103506e-01    0,000000000e+00    0,000000000e+00    0,000000000e+00    0,000000000e+00
