! NanoVNA-App
! Date: 2025-09-25 14:56:10
! Start: 100MHz Stop: 1,5GHz Points: 101
! S-Parameter data: F S11 S21 S12 S22
# Hz S RI R 50
!     Frequency           S11_Real           S11_Imag           S21_Real           S21_Imag           S12_Real           S12_Imag           S22_Real           S22_Imag
      100000000    3,558643535e-02    2,699545585e-02    4,406400919e-01   -6,695978045e-01    0,000000000e+00    0,000000000e+00    0,000000000e+00    0,000000000e+00
      114000000    6,049195305e-02    1,737566548e-03    1,269060560e-02   -7,954890728e-01    0,000000000e+00    0,000000000e+00    0,000000000e+00    0,000000000e+00
      128000000    6,790138036e-02   -4,254841059e-02   -4,084079862e-01   -6,783377528e-01    0,000000000e+00    0,000000000e+00    0,000000000e+00    0,000000000e+00
      142000000    4,278353602e-02   -8,889693022e-02   -7,054114342e-01   -3,607748151e-01    0,000000000e+00    0,000000000e+00    0,000000000e+00    0,000000000e+00
      156000000   -1,043192111e-02   -1,090176702e-01   -7,926654816e-01    6,724783033e-02    0,000000000e+00    0,000000000e+00    0,000000000e+00    0,000000000e+00
      170000000   -6,329532713e-02   -9,099230915e-02   -6,368098259e-01    4,865676165e-01    0,000000000e+00    0,000000000e+00    0,000000000e+00    0,000000000e+00
      184000000   -8,867359906e-02   -4,659138247e-02   -2,726025879e-01    7,565392256e-01    0,000000000e+00    0,000000000e+00    0,000000000e+00    0,000000000e+00
      198000000   -8,213477582e-02   -5,404860247e-03    1,799415052e-01    7,823557854e-01    0,000000000e+00    0,000000000e+00    0,000000000e+00    0,000000000e+00
      212000000   -6,149185449e-02    1,860989816e-02    5,708721280e-01    5,580360889e-01    0,000000000e+00    0,000000000e+00    0,000000000e+00    0,000000000e+00
      226000000   -4,015111178e-02    3,165201843e-02    7,767513990e-01    1,616396159e-01    0,000000000e+00    0,000000000e+00    0,000000000e+00    0,000000000e+00
      240000000   -1,379268896e-02    4,037159309e-02    7,360315919e-01   -2,788458169e-01    0,000000000e+00    0,000000000e+00    0,000000000e+00    0,000000000e+00
      254000000    2,191169746e-02    3,485035151e-02    4,678943455e-01   -6,221820116e-01    0,000000000e+00    0,000000000e+00    0,000000000e+00    0,000000000e+00
      268000000    5,296155438e-02    3,153637750e-03    6,678944081e-02   -7,674788237e-01    0,000000000e+00    0,000000000e+00    0,000000000e+00    0,000000000e+00
      282000000    5,620264634e-02   -4,625101760e-02   -3,459158242e-01   -6,828610897e-01    0,000000000e+00    0,000000000e+00    0,000000000e+00    0,000000000e+00
      296000000    2,428597398e-02   -8,528515697e-02   -6,555343270e-01   -3,972416818e-01    0,000000000e+00    0,000000000e+00    0,000000000e+00    0,000000000e+00
      310000000   -2,073914558e-02   -8,894544095e-02   -7,751277089e-01    1,090192236e-02    0,000000000e+00    0,000000000e+00    0,000000000e+00    0,000000000e+00
      324000000   -4,797826707e-02   -6,185657904e-02   -6,474413276e-01    4,306394756e-01    0,000000000e+00    0,000000000e+00    0,000000000e+00    0,000000000e+00
      338000000   -4,128057137e-02   -3,574877977e-02   -3,076611757e-01    7,104497552e-01    0,000000000e+00    0,000000000e+00    0,000000000e+00    0,000000000e+00
      352000000   -2,252465487e-02   -3,594559431e-02    1,205433384e-01    7,584941983e-01    0,000000000e+00    0,000000000e+00    0,000000000e+00    0,000000000e+00
      366000000   -2,124986425e-02   -5,471480638e-02    5,041981936e-01    5,708845258e-01    0,000000000e+00    0,000000000e+00    0,000000000e+00    0,000000000e+00
      380000000   -4,268034175e-02   -6,508669257e-02    7,259276509e-01    2,107881755e-01    0,000000000e+00    0,000000000e+00    0,000000000e+00    0,000000000e+00
      394000000   -6,476639956e-02   -5,150664598e-02    7,227981687e-01   -2,129398435e-01    0,000000000e+00    0,000000000e+00    0,000000000e+00    0,000000000e+00
      408000000   -6,641707569e-02   -2,784586698e-02    4,896504283e-01   -5,676496625e-01    0,000000000e+00    0,000000000e+00    0,000000000e+00    0,000000000e+00
      422000000   -5,283527076e-02   -1,732895151e-02    1,064876318e-01   -7,386530638e-01    0,000000000e+00    0,000000000e+00    0,000000000e+00    0,000000000e+00
      436000000   -4,702113569e-02   -2,062077448e-02   -3,062759936e-01   -6,763093472e-01    0,000000000e+00    0,000000000e+00    0,000000000e+00    0,000000000e+00
      450000000   -5,399017408e-02   -1,633370295e-02   -6,191642284e-01   -4,002097249e-01    0,000000000e+00    0,000000000e+00    0,000000000e+00    0,000000000e+00
      464000000   -5,233759061e-02    5,649626255e-03   -7,304999232e-01    3,974237479e-03    0,000000000e+00    0,000000000e+00    0,000000000e+00    0,000000000e+00
      478000000   -2,297035418e-02    2,719726972e-02   -5,998710394e-01    3,979108334e-01    0,000000000e+00    0,000000000e+00    0,000000000e+00    0,000000000e+00
      492000000    2,681960724e-02    1,644156501e-02   -2,806951106e-01    6,445598006e-01    0,000000000e+00    0,000000000e+00    0,000000000e+00    0,000000000e+00
      506000000    5,849482119e-02   -3,462090343e-02    1,053930074e-01    6,820021272e-01    0,000000000e+00    0,000000000e+00    0,000000000e+00    0,000000000e+00
      520000000    4,535702243e-02   -1,000958383e-01    4,408949018e-01    5,182384849e-01    0,000000000e+00    0,000000000e+00    0,000000000e+00    0,000000000e+00
      534000000   -9,655370377e-03   -1,415920407e-01    6,511119008e-01    2,071830034e-01    0,000000000e+00    0,000000000e+00    0,000000000e+00    0,000000000e+00
      548000000   -7,680690289e-02   -1,392915398e-01    6,625338197e-01   -1,754095703e-01    0,000000000e+00    0,000000000e+00    0,000000000e+00    0,000000000e+00
      562000000   -1,256145686e-01   -1,011974663e-01    4,553255439e-01   -5,102843046e-01    0,000000000e+00    0,000000000e+00    0,000000000e+00    0,000000000e+00
      576000000   -1,477420479e-01   -4,844681919e-02    8,601521701e-02   -6,690500975e-01    0,000000000e+00    0,000000000e+00    0,000000000e+00    0,000000000e+00
      590000000   -1,442997754e-01    1,466196124e-02   -3,078880906e-01   -5,803756118e-01    0,000000000e+00    0,000000000e+00    0,000000000e+00    0,000000000e+00
      604000000   -7,399747521e-02    9,029930830e-02   -5,337584615e-01   -2,544569373e-01    0,000000000e+00    0,000000000e+00    0,000000000e+00    0,000000000e+00
      618000000    8,574619144e-02    1,544796862e-02   -4,434753656e-01    8,623631671e-03    0,000000000e+00    0,000000000e+00    0,000000000e+00    0,000000000e+00
      632000000   -3,702607006e-02   -1,420978308e-01   -5,048263073e-01    1,225223988e-01    0,000000000e+00    0,000000000e+00    0,000000000e+00    0,000000000e+00
      646000000   -1,255883127e-01   -4,364134371e-02   -4,089203477e-01    4,664753973e-01    0,000000000e+00    0,000000000e+00    0,000000000e+00    0,000000000e+00
      660000000   -8,018934727e-02    1,954029128e-02   -6,256230921e-02    6,390272975e-01    0,000000000e+00    0,000000000e+00    0,000000000e+00    0,000000000e+00
      674000000   -2,905687317e-02    1,434138976e-02    3,013984263e-01    5,642305017e-01    0,000000000e+00    0,000000000e+00    0,000000000e+00    0,000000000e+00
      688000000   -9,970178828e-03   -1,364587992e-02    5,548989773e-01    3,071180582e-01    0,000000000e+00    0,000000000e+00    0,000000000e+00    0,000000000e+00
      702000000   -9,774053469e-03   -3,519231454e-02    6,300492287e-01   -4,363420978e-02    0,000000000e+00    0,000000000e+00    0,000000000e+00    0,000000000e+00
      716000000   -7,039792836e-03   -5,055958778e-02    4,966340065e-01   -3,732349873e-01    0,000000000e+00    0,000000000e+00    0,000000000e+00    0,000000000e+00
      730000000   -6,784798112e-03   -7,774088532e-02    2,132041603e-01   -5,745891929e-01    0,000000000e+00    0,000000000e+00    0,000000000e+00    0,000000000e+00
      744000000   -2,636030316e-02   -1,141595170e-01   -1,263594180e-01   -5,946776867e-01    0,000000000e+00    0,000000000e+00    0,000000000e+00    0,000000000e+00
      758000000   -7,767231762e-02   -1,341434419e-01   -4,264694452e-01   -4,360388815e-01    0,000000000e+00    0,000000000e+00    0,000000000e+00    0,000000000e+00
      772000000   -1,393180192e-01   -1,152441055e-01   -6,020208597e-01   -1,388838738e-01    0,000000000e+00    0,000000000e+00    0,000000000e+00    0,000000000e+00
      786000000   -1,741228253e-01   -5,381476879e-02   -5,874757171e-01    2,172434032e-01    0,000000000e+00    0,000000000e+00    0,000000000e+00    0,000000000e+00
      800000000   -1,581872702e-01    1,128885709e-02   -3,721943200e-01    5,059872270e-01    0,000000000e+00    0,000000000e+00    0,000000000e+00    0,000000000e+00
      814000000   -1,098152921e-01    4,418404028e-02   -3,748153895e-02    6,216316223e-01    0,000000000e+00    0,000000000e+00    0,000000000e+00    0,000000000e+00
      828000000   -6,377913058e-02    4,160819948e-02    2,960831225e-01    5,435810685e-01    0,000000000e+00    0,000000000e+00    0,000000000e+00    0,000000000e+00
      842000000   -3,588686511e-02    2,404640429e-02    5,309292674e-01    3,022342324e-01    0,000000000e+00    0,000000000e+00    0,000000000e+00    0,000000000e+00
      856000000   -1,965972595e-02    6,796594243e-03    6,024677157e-01   -2,306780778e-02    0,000000000e+00    0,000000000e+00    0,000000000e+00    0,000000000e+00
      870000000   -1,755766920e-03   -1,373254508e-02    4,875170588e-01   -3,290931880e-01    0,000000000e+00    0,000000000e+00    0,000000000e+00    0,000000000e+00
      884000000    9,060683660e-03   -5,245526507e-02    2,356756479e-01   -5,240753293e-01    0,000000000e+00    0,000000000e+00    0,000000000e+00    0,000000000e+00
      898000000   -7,593594026e-03   -1,011365056e-01   -7,202671468e-02   -5,611637831e-01    0,000000000e+00    0,000000000e+00    0,000000000e+00    0,000000000e+00
      912000000   -6,582595408e-02   -1,306053698e-01   -4,151824415e-01   -4,109135866e-01    0,000000000e+00    0,000000000e+00    0,000000000e+00    0,000000000e+00
      926000000   -1,277898252e-01   -1,146574393e-01   -5,782853961e-01   -1,305193454e-01    0,000000000e+00    0,000000000e+00    0,000000000e+00    0,000000000e+00
      940000000   -1,634533554e-01   -5,543252081e-02   -5,690180063e-01    2,187894434e-01    0,000000000e+00    0,000000000e+00    0,000000000e+00    0,000000000e+00
      954000000   -1,439929008e-01    8,537968621e-03   -3,541709781e-01    5,063165426e-01    0,000000000e+00    0,000000000e+00    0,000000000e+00    0,000000000e+00
      968000000   -9,117037803e-02    2,823989093e-02   -1,745224930e-02    6,193501353e-01    0,000000000e+00    0,000000000e+00    0,000000000e+00    0,000000000e+00
      982000000   -4,083328322e-02    8,106636815e-03    3,117533624e-01    5,320981145e-01    0,000000000e+00    0,000000000e+00    0,000000000e+00    0,000000000e+00
      996000000   -2,551559918e-02   -3,637829795e-02    5,277084112e-01    2,865921259e-01    0,000000000e+00    0,000000000e+00    0,000000000e+00    0,000000000e+00
     1010000000   -5,035436153e-02   -8,772782236e-02    5,739594102e-01   -1,534147933e-02    0,000000000e+00    0,000000000e+00    0,000000000e+00    0,000000000e+00
     1024000000   -1,138081774e-01   -1,044441909e-01    4,685772955e-01   -2,679799497e-01    0,000000000e+00    0,000000000e+00    0,000000000e+00    0,000000000e+00
     1038000000   -1,695123017e-01   -6,081386283e-02    2,905464172e-01   -4,319995642e-01    0,000000000e+00    0,000000000e+00    0,000000000e+00    0,000000000e+00
     1052000000   -1,664428264e-01    1,628999226e-02    5,637924001e-02   -5,188044310e-01    0,000000000e+00    0,000000000e+00    0,000000000e+00    0,000000000e+00
     1066000000   -1,103742421e-01    5,153707787e-02   -2,173366994e-01   -4,711464345e-01    0,000000000e+00    0,000000000e+00    0,000000000e+00    0,000000000e+00
     1080000000   -5,850579590e-02    4,667005688e-02   -4,254950583e-01   -2,845931649e-01    0,000000000e+00    0,000000000e+00    0,000000000e+00    0,000000000e+00
     1094000000   -1,876211725e-02    1,651135832e-02   -5,020385981e-01   -1,693047467e-03    0,000000000e+00    0,000000000e+00    0,000000000e+00    0,000000000e+00
     1108000000   -9,577747434e-03   -2,472550236e-02   -4,106059670e-01    2,769342065e-01    0,000000000e+00    0,000000000e+00    0,000000000e+00    0,000000000e+00
     1122000000   -1,386171579e-02   -7,101436704e-02   -1,777704209e-01    4,661132097e-01    0,000000000e+00    0,000000000e+00    0,000000000e+00    0,000000000e+00
     1136000000   -4,027703777e-02   -1,104503497e-01    1,368595958e-01    4,964119494e-01    0,000000000e+00    0,000000000e+00    0,000000000e+00    0,000000000e+00
     1150000000   -9,203166515e-02   -1,399791390e-01    4,292573631e-01    3,398236632e-01    0,000000000e+00    0,000000000e+00    0,000000000e+00    0,000000000e+00
     1164000000   -1,477671266e-01   -1,295319200e-01    5,962502956e-01    2,237673104e-02    0,000000000e+00    0,000000000e+00    0,000000000e+00    0,000000000e+00
     1178000000   -1,888771057e-01   -9,372524917e-02    5,343980193e-01   -3,549736440e-01    0,000000000e+00    0,000000000e+00    0,000000000e+00    0,000000000e+00
     1192000000   -1,898675412e-01   -5,516713113e-02    2,473576516e-01   -6,300599575e-01    0,000000000e+00    0,000000000e+00    0,000000000e+00    0,000000000e+00
     1206000000   -1,978458911e-01   -4,645537585e-02   -1,312655807e-01   -6,606061459e-01    0,000000000e+00    0,000000000e+00    0,000000000e+00    0,000000000e+00
     1220000000   -2,532866597e-01   -9,754653089e-03   -4,216394424e-01   -4,854233265e-01    0,000000000e+00    0,000000000e+00    0,000000000e+00    0,000000000e+00
     1234000000   -2,378709614e-01    1,207877174e-01   -5,575181246e-01   -2,392283976e-01    0,000000000e+00    0,000000000e+00    0,000000000e+00    0,000000000e+00
     1248000000   -1,145440340e-01    1,778489202e-01   -5,972868800e-01    2,135520056e-02    0,000000000e+00    0,000000000e+00    0,000000000e+00    0,000000000e+00
     1262000000   -1,902882592e-03    1,306398958e-01   -4,990275204e-01    2,910216451e-01    0,000000000e+00    0,000000000e+00    0,000000000e+00    0,000000000e+00
     1276000000    6,871835887e-02    4,016216099e-02   -2,737481594e-01    4,804088175e-01    0,000000000e+00    0,000000000e+00    0,000000000e+00    0,000000000e+00
     1290000000    7,255563885e-02   -6,754107773e-02    5,775662605e-03    5,377083421e-01    0,000000000e+00    0,000000000e+00    0,000000000e+00    0,000000000e+00
     1304000000    1,825930178e-02   -1,822026223e-01    2,905416489e-01    4,730894864e-01    0,000000000e+00    0,000000000e+00    0,000000000e+00    0,000000000e+00
     1318000000   -9,308125824e-02   -2,541505694e-01    5,253650546e-01    2,704252899e-01    0,000000000e+00    0,000000000e+00    0,000000000e+00    0,000000000e+00
     1332000000   -2,409702092e-01   -2,491091937e-01    6,470499635e-01   -5,758200213e-02    0,000000000e+00    0,000000000e+00    0,000000000e+00    0,000000000e+00
     1346000000   -3,604418635e-01   -1,452944279e-01    5,471306443e-01   -3,979984820e-01    0,000000000e+00    0,000000000e+00    0,000000000e+00    0,000000000e+00
     1360000000   -3,944725394e-01    7,757889573e-03    2,564440370e-01   -6,208683252e-01    0,000000000e+00    0,000000000e+00    0,000000000e+00    0,000000000e+00
     1374000000   -3,323206306e-01    1,164845750e-01   -1,106016412e-01   -6,193679571e-01    0,000000000e+00    0,000000000e+00    0,000000000e+00    0,000000000e+00
     1388000000   -2,444169223e-01    1,648863554e-01   -3,706780672e-01   -4,198613763e-01    0,000000000e+00    0,000000000e+00    0,000000000e+00    0,000000000e+00
     1402000000   -1,564454138e-01    1,780065894e-01   -4,712566733e-01   -1,041941270e-01    0,000000000e+00    0,000000000e+00    0,000000000e+00    0,000000000e+00
     1416000000   -8,732856810e-02    1,518825293e-01   -3,862536550e-01    2,103844285e-01    0,000000000e+00    0,000000000e+00    0,000000000e+00    0,000000000e+00
     1430000000   -3,306668624e-02    8,972886205e-02   -1,693914533e-01    3,972986042e-01    0,000000000e+00    0,000000000e+00    0,000000000e+00    0,000000000e+00
     1444000000   -7,761118468e-03    1,361999847e-02    1,261198521e-01    5,162467957e-01    0,000000000e+00    0,000000000e+00    0,000000000e+00    0,000000000e+00
     1458000000   -3,360958770e-02   -7,950934768e-02    4,260007143e-01    4,854157865e-01    0,000000000e+00    0,000000000e+00    0,000000000e+00    0,000000000e+00
     1472000000   -1,143714786e-01   -1,409571618e-01    7,161374688e-01    3,031390607e-01    0,000000000e+00    0,000000000e+00    0,000000000e+00    0,000000000e+00
     1486000000   -2,115869075e-01   -1,500434279e-01    8,917774558e-01   -3,909274936e-02    0,000000000e+00    0,000000000e+00    0,000000000e+00    0,000000000e+00
     1500000000   -2,918973267e-01   -7,599236816e-02    8,197456598e-01   -4,151976109e-01    0,000000000e+00    0,000000000e+00    0,000000000e+00    0,000000000e+00
