! NanoVNA-App
! Date: 2025-09-25 15:00:36
! Start: 100MHz Stop: 1,5GHz Points: 101
! S-Parameter data: F S11 S21 S12 S22
# Hz S RI R 50
!     Frequency           S11_Real           S11_Imag           S21_Real           S21_Imag           S12_Real           S12_Imag           S22_Real           S22_Imag
      100000000    3,558598086e-02    2,735970914e-02    4,407344162e-01   -6,695157290e-01    0,000000000e+00    0,000000000e+00    0,000000000e+00    0,000000000e+00
      114000000    6,072282791e-02    2,188625280e-03    1,302010193e-02   -7,954728007e-01    0,000000000e+00    0,000000000e+00    0,000000000e+00    0,000000000e+00
      128000000    6,836716831e-02   -4,228772596e-02   -4,083648622e-01   -6,781434417e-01    0,000000000e+00    0,000000000e+00    0,000000000e+00    0,000000000e+00
      142000000    4,349577427e-02   -8,877614141e-02   -7,052544951e-01   -3,608969748e-01    0,000000000e+00    0,000000000e+00    0,000000000e+00    0,000000000e+00
      156000000   -9,305777960e-03   -1,103167534e-01   -7,932240367e-01    6,820120662e-02    0,000000000e+00    0,000000000e+00    0,000000000e+00    0,000000000e+00
      170000000   -6,273200363e-02   -9,183856100e-02   -6,368310452e-01    4,863749743e-01    0,000000000e+00    0,000000000e+00    0,000000000e+00    0,000000000e+00
      184000000   -8,859490603e-02   -4,767241329e-02   -2,732811570e-01    7,562074065e-01    0,000000000e+00    0,000000000e+00    0,000000000e+00    0,000000000e+00
      198000000   -8,277912438e-02   -6,456532516e-03    1,798008233e-01    7,821754217e-01    0,000000000e+00    0,000000000e+00    0,000000000e+00    0,000000000e+00
      212000000   -6,271616369e-02    1,808267087e-02    5,707455277e-01    5,584034324e-01    0,000000000e+00    0,000000000e+00    0,000000000e+00    0,000000000e+00
      226000000   -4,149947688e-02    3,178868070e-02    7,767575979e-01    1,620384902e-01    0,000000000e+00    0,000000000e+00    0,000000000e+00    0,000000000e+00
      240000000   -1,496146619e-02    4,129429162e-02    7,361797094e-01   -2,789146602e-01    0,000000000e+00    0,000000000e+00    0,000000000e+00    0,000000000e+00
      254000000    2,140183747e-02    3,633302450e-02    4,679475427e-01   -6,221843958e-01    0,000000000e+00    0,000000000e+00    0,000000000e+00    0,000000000e+00
      268000000    5,330986902e-02    4,777088761e-03    6,659449637e-02   -7,672293782e-01    0,000000000e+00    0,000000000e+00    0,000000000e+00    0,000000000e+00
      282000000    5,743714795e-02   -4,489467293e-02   -3,457903564e-01   -6,824021935e-01    0,000000000e+00    0,000000000e+00    0,000000000e+00    0,000000000e+00
      296000000    2,624671347e-02   -8,473177254e-02   -6,549427509e-01   -3,978640437e-01    0,000000000e+00    0,000000000e+00    0,000000000e+00    0,000000000e+00
      310000000   -1,895705424e-02   -8,944279701e-02   -7,750406265e-01    1,097885799e-02    0,000000000e+00    0,000000000e+00    0,000000000e+00    0,000000000e+00
      324000000   -4,634932056e-02   -6,345398724e-02   -6,472210288e-01    4,298078418e-01    0,000000000e+00    0,000000000e+00    0,000000000e+00    0,000000000e+00
      338000000   -4,122454301e-02   -3,776269034e-02   -3,085814416e-01    7,088534236e-01    0,000000000e+00    0,000000000e+00    0,000000000e+00    0,000000000e+00
      352000000   -2,358972281e-02   -3,789831698e-02    1,193440557e-01    7,585482597e-01    0,000000000e+00    0,000000000e+00    0,000000000e+00    0,000000000e+00
      366000000   -2,280356176e-02   -5,622148886e-02    5,028835535e-01    5,715813637e-01    0,000000000e+00    0,000000000e+00    0,000000000e+00    0,000000000e+00
      380000000   -4,478305951e-02   -6,519450992e-02    7,264997959e-01    2,111645192e-01    0,000000000e+00    0,000000000e+00    0,000000000e+00    0,000000000e+00
      394000000   -6,614611298e-02   -5,066012964e-02    7,232623100e-01   -2,132963538e-01    0,000000000e+00    0,000000000e+00    0,000000000e+00    0,000000000e+00
      408000000   -6,779041141e-02   -2,663396485e-02    4,902071357e-01   -5,691200495e-01    0,000000000e+00    0,000000000e+00    0,000000000e+00    0,000000000e+00
      422000000   -5,328600481e-02   -1,510401256e-02    1,058149934e-01   -7,388612032e-01    0,000000000e+00    0,000000000e+00    0,000000000e+00    0,000000000e+00
      436000000   -4,642837867e-02   -1,861542277e-02   -3,069489002e-01   -6,761001348e-01    0,000000000e+00    0,000000000e+00    0,000000000e+00    0,000000000e+00
      450000000   -5,214545876e-02   -1,491740346e-02   -6,189861298e-01   -3,990592659e-01    0,000000000e+00    0,000000000e+00    0,000000000e+00    0,000000000e+00
      464000000   -5,076457188e-02    5,844111554e-03   -7,300910950e-01    3,493118333e-03    0,000000000e+00    0,000000000e+00    0,000000000e+00    0,000000000e+00
      478000000   -2,036574110e-02    2,653190680e-02   -5,988286138e-01    3,973502815e-01    0,000000000e+00    0,000000000e+00    0,000000000e+00    0,000000000e+00
      492000000    2,822868899e-02    1,480247825e-02   -2,806555629e-01    6,447087526e-01    0,000000000e+00    0,000000000e+00    0,000000000e+00    0,000000000e+00
      506000000    5,874901265e-02   -3,728618473e-02    1,050103381e-01    6,804547310e-01    0,000000000e+00    0,000000000e+00    0,000000000e+00    0,000000000e+00
      520000000    4,477980733e-02   -1,025859118e-01    4,424776137e-01    5,202289820e-01    0,000000000e+00    0,000000000e+00    0,000000000e+00    0,000000000e+00
      534000000   -1,295927819e-02   -1,439145505e-01    6,491693854e-01    2,056129873e-01    0,000000000e+00    0,000000000e+00    0,000000000e+00    0,000000000e+00
      548000000   -8,187300712e-02   -1,395727992e-01    6,598394513e-01   -1,757563353e-01    0,000000000e+00    0,000000000e+00    0,000000000e+00    0,000000000e+00
      562000000   -1,310996264e-01   -9,839661419e-02    4,507257938e-01   -5,083686113e-01    0,000000000e+00    0,000000000e+00    0,000000000e+00    0,000000000e+00
      576000000   -1,493943334e-01   -3,937327117e-02    8,368517458e-02   -6,612654328e-01    0,000000000e+00    0,000000000e+00    0,000000000e+00    0,000000000e+00
      590000000   -1,302046329e-01    2,847990394e-02   -2,943719923e-01   -5,660191178e-01    0,000000000e+00    0,000000000e+00    0,000000000e+00    0,000000000e+00
      604000000   -4,025832936e-02    6,848850101e-02   -4,898728728e-01   -2,707134485e-01    0,000000000e+00    0,000000000e+00    0,000000000e+00    0,000000000e+00
      618000000    3,495318815e-02   -2,714676596e-02   -4,935648739e-01   -4,743639380e-02    0,000000000e+00    0,000000000e+00    0,000000000e+00    0,000000000e+00
      632000000   -5,023620278e-02   -9,416802973e-02   -5,225763917e-01    1,763955802e-01    0,000000000e+00    0,000000000e+00    0,000000000e+00    0,000000000e+00
      646000000   -1,005914882e-01   -3,539404273e-02   -3,798850775e-01    4,750200212e-01    0,000000000e+00    0,000000000e+00    0,000000000e+00    0,000000000e+00
      660000000   -6,952211261e-02    9,659226052e-03   -5,410596356e-02    6,239583492e-01    0,000000000e+00    0,000000000e+00    0,000000000e+00    0,000000000e+00
      674000000   -3,098463081e-02    4,768458661e-03    2,979181111e-01    5,540633202e-01    0,000000000e+00    0,000000000e+00    0,000000000e+00    0,000000000e+00
      688000000   -1,553483773e-02   -1,692950539e-02    5,476551652e-01    3,040199578e-01    0,000000000e+00    0,000000000e+00    0,000000000e+00    0,000000000e+00
      702000000   -1,422941964e-02   -3,401313350e-02    6,195050478e-01   -4,014187306e-02    0,000000000e+00    0,000000000e+00    0,000000000e+00    0,000000000e+00
      716000000   -8,975826204e-03   -4,839844629e-02    4,926473498e-01   -3,686570227e-01    0,000000000e+00    0,000000000e+00    0,000000000e+00    0,000000000e+00
      730000000   -6,822418887e-03   -7,438631356e-02    2,126199752e-01   -5,684268475e-01    0,000000000e+00    0,000000000e+00    0,000000000e+00    0,000000000e+00
      744000000   -2,584298514e-02   -1,114508510e-01   -1,225293204e-01   -5,884638429e-01    0,000000000e+00    0,000000000e+00    0,000000000e+00    0,000000000e+00
      758000000   -7,480536401e-02   -1,338092685e-01   -4,195899665e-01   -4,326238036e-01    0,000000000e+00    0,000000000e+00    0,000000000e+00    0,000000000e+00
      772000000   -1,361647546e-01   -1,158011854e-01   -5,937669873e-01   -1,407484710e-01    0,000000000e+00    0,000000000e+00    0,000000000e+00    0,000000000e+00
      786000000   -1,712798476e-01   -5,814986303e-02   -5,821537375e-01    2,098458409e-01    0,000000000e+00    0,000000000e+00    0,000000000e+00    0,000000000e+00
      800000000   -1,598539054e-01    7,490897086e-03   -3,723330796e-01    4,954725802e-01    0,000000000e+00    0,000000000e+00    0,000000000e+00    0,000000000e+00
      814000000   -1,149565876e-01    4,320421442e-02   -4,638168216e-02    6,156463623e-01    0,000000000e+00    0,000000000e+00    0,000000000e+00    0,000000000e+00
      828000000   -6,885613501e-02    4,352135211e-02    2,871083319e-01    5,402126908e-01    0,000000000e+00    0,000000000e+00    0,000000000e+00    0,000000000e+00
      842000000   -3,881561384e-02    2,936639078e-02    5,214306712e-01    3,047839999e-01    0,000000000e+00    0,000000000e+00    0,000000000e+00    0,000000000e+00
      856000000   -1,891478710e-02    1,231667679e-02    5,948587060e-01   -1,378537342e-02    0,000000000e+00    0,000000000e+00    0,000000000e+00    0,000000000e+00
      870000000    1,842711587e-03   -1,106451731e-02    4,870935082e-01   -3,165136874e-01    0,000000000e+00    0,000000000e+00    0,000000000e+00    0,000000000e+00
      884000000    1,280458737e-02   -5,101864785e-02    2,424688339e-01   -5,127631426e-01    0,000000000e+00    0,000000000e+00    0,000000000e+00    0,000000000e+00
      898000000   -3,519188380e-03   -1,011743024e-01   -5,864876881e-02   -5,555549860e-01    0,000000000e+00    0,000000000e+00    0,000000000e+00    0,000000000e+00
      912000000   -6,302979589e-02   -1,321759969e-01   -3,810903132e-01   -4,196918309e-01    0,000000000e+00    0,000000000e+00    0,000000000e+00    0,000000000e+00
      926000000   -1,248012632e-01   -1,186193153e-01   -5,658029318e-01   -1,470695734e-01    0,000000000e+00    0,000000000e+00    0,000000000e+00    0,000000000e+00
      940000000   -1,649265289e-01   -6,512571871e-02   -5,674828291e-01    1,918649822e-01    0,000000000e+00    0,000000000e+00    0,000000000e+00    0,000000000e+00
      954000000   -1,454868466e-01   -2,636501798e-03   -3,738218844e-01    4,836626947e-01    0,000000000e+00    0,000000000e+00    0,000000000e+00    0,000000000e+00
      968000000   -9,659683704e-02    2,571664564e-02   -5,255360156e-02    6,173936725e-01    0,000000000e+00    0,000000000e+00    0,000000000e+00    0,000000000e+00
      982000000   -5,381561816e-02    3,987307195e-03    2,797340155e-01    5,533083081e-01    0,000000000e+00    0,000000000e+00    0,000000000e+00    0,000000000e+00
      996000000   -4,070521146e-02   -3,292845935e-02    5,247000456e-01    3,282243013e-01    0,000000000e+00    0,000000000e+00    0,000000000e+00    0,000000000e+00
     1010000000   -5,958815664e-02   -6,425564736e-02    6,082150340e-01    1,616258733e-02    0,000000000e+00    0,000000000e+00    0,000000000e+00    0,000000000e+00
     1024000000   -1,007114500e-01   -7,372416556e-02    5,141851902e-01   -2,824877501e-01    0,000000000e+00    0,000000000e+00    0,000000000e+00    0,000000000e+00
     1038000000   -1,388235539e-01   -5,682936311e-02    2,956374884e-01   -4,712890089e-01    0,000000000e+00    0,000000000e+00    0,000000000e+00    0,000000000e+00
     1052000000   -1,528144628e-01   -2,267307369e-03    3,510311618e-02   -5,270954370e-01    0,000000000e+00    0,000000000e+00    0,000000000e+00    0,000000000e+00
     1066000000   -1,071011648e-01    3,783935681e-02   -2,116996199e-01   -4,650529623e-01    0,000000000e+00    0,000000000e+00    0,000000000e+00    0,000000000e+00
     1080000000   -5,599611625e-02    2,943672985e-02   -4,185054302e-01   -3,002404869e-01    0,000000000e+00    0,000000000e+00    0,000000000e+00    0,000000000e+00
     1094000000   -3,040024452e-02   -7,890044712e-03   -5,213732719e-01   -2,368286625e-02    0,000000000e+00    0,000000000e+00    0,000000000e+00    0,000000000e+00
     1108000000   -3,063894622e-02   -2,946712077e-02   -4,405424297e-01    2,857035398e-01    0,000000000e+00    0,000000000e+00    0,000000000e+00    0,000000000e+00
     1122000000   -3,185855225e-02   -5,411231890e-02   -1,857181489e-01    4,953553975e-01    0,000000000e+00    0,000000000e+00    0,000000000e+00    0,000000000e+00
     1136000000   -4,437421262e-02   -9,127555043e-02    1,529430747e-01    5,184728503e-01    0,000000000e+00    0,000000000e+00    0,000000000e+00    0,000000000e+00
     1150000000   -8,106750995e-02   -1,215223297e-01    4,534498453e-01    3,413220644e-01    0,000000000e+00    0,000000000e+00    0,000000000e+00    0,000000000e+00
     1164000000   -1,368951052e-01   -1,243195757e-01    6,151032448e-01    1,265935693e-02    0,000000000e+00    0,000000000e+00    0,000000000e+00    0,000000000e+00
     1178000000   -1,734027714e-01   -8,618432283e-02    5,408332944e-01   -3,725363314e-01    0,000000000e+00    0,000000000e+00    0,000000000e+00    0,000000000e+00
     1192000000   -1,829663962e-01   -5,717347190e-02    2,423128337e-01   -6,361638904e-01    0,000000000e+00    0,000000000e+00    0,000000000e+00    0,000000000e+00
     1206000000   -1,932444572e-01   -5,640967935e-02   -1,410981119e-01   -6,632103324e-01    0,000000000e+00    0,000000000e+00    0,000000000e+00    0,000000000e+00
     1220000000   -2,535639405e-01   -1,896097325e-02   -4,227731526e-01   -4,838269949e-01    0,000000000e+00    0,000000000e+00    0,000000000e+00    0,000000000e+00
     1234000000   -2,391925901e-01    1,137018502e-01   -5,578017235e-01   -2,516394258e-01    0,000000000e+00    0,000000000e+00    0,000000000e+00    0,000000000e+00
     1248000000   -1,173072755e-01    1,738163978e-01   -6,049973369e-01    2,031592280e-02    0,000000000e+00    0,000000000e+00    0,000000000e+00    0,000000000e+00
     1262000000   -1,785215572e-03    1,346194297e-01   -5,041583180e-01    2,991601825e-01    0,000000000e+00    0,000000000e+00    0,000000000e+00    0,000000000e+00
     1276000000    6,460360438e-02    4,008363560e-02   -2,758665383e-01    4,857901931e-01    0,000000000e+00    0,000000000e+00    0,000000000e+00    0,000000000e+00
     1290000000    6,806983799e-02   -7,202039659e-02    3,989769146e-03    5,456290841e-01    0,000000000e+00    0,000000000e+00    0,000000000e+00    0,000000000e+00
     1304000000    1,802898943e-02   -1,768705249e-01    2,979894876e-01    4,816800952e-01    0,000000000e+00    0,000000000e+00    0,000000000e+00    0,000000000e+00
     1318000000   -9,529260546e-02   -2,535765171e-01    5,386080146e-01    2,712281048e-01    0,000000000e+00    0,000000000e+00    0,000000000e+00    0,000000000e+00
     1332000000   -2,434608787e-01   -2,438470721e-01    6,525614858e-01   -5,132300779e-02    0,000000000e+00    0,000000000e+00    0,000000000e+00    0,000000000e+00
     1346000000   -3,644298911e-01   -1,466077119e-01    5,480694175e-01   -4,103657901e-01    0,000000000e+00    0,000000000e+00    0,000000000e+00    0,000000000e+00
     1360000000   -3,843339086e-01    1,163609605e-02    2,544322312e-01   -6,328640580e-01    0,000000000e+00    0,000000000e+00    0,000000000e+00    0,000000000e+00
     1374000000   -3,237903118e-01    1,235309988e-01   -1,069993153e-01   -6,214303970e-01    0,000000000e+00    0,000000000e+00    0,000000000e+00    0,000000000e+00
     1388000000   -2,341654450e-01    1,711713672e-01   -3,728933632e-01   -4,170176387e-01    0,000000000e+00    0,000000000e+00    0,000000000e+00    0,000000000e+00
     1402000000   -1,527281702e-01    1,727968156e-01   -4,811103046e-01   -1,041198820e-01    0,000000000e+00    0,000000000e+00    0,000000000e+00    0,000000000e+00
     1416000000   -8,738994598e-02    1,439355612e-01   -3,956985176e-01    2,035841197e-01    0,000000000e+00    0,000000000e+00    0,000000000e+00    0,000000000e+00
     1430000000   -3,356160969e-02    8,402577043e-02   -1,790003479e-01    4,330155253e-01    0,000000000e+00    0,000000000e+00    0,000000000e+00    0,000000000e+00
     1444000000   -1,116692554e-02    8,489866741e-03    1,251668483e-01    5,342594981e-01    0,000000000e+00    0,000000000e+00    0,000000000e+00    0,000000000e+00
     1458000000   -4,136307165e-02   -8,707995713e-02    4,473193586e-01    4,926916957e-01    0,000000000e+00    0,000000000e+00    0,000000000e+00    0,000000000e+00
     1472000000   -1,262009740e-01   -1,477660537e-01    7,266764641e-01    2,978884876e-01    0,000000000e+00    0,000000000e+00    0,000000000e+00    0,000000000e+00
     1486000000   -2,276535332e-01   -1,381364912e-01    8,992523551e-01   -3,713692725e-02    0,000000000e+00    0,000000000e+00    0,000000000e+00    0,000000000e+00
     1500000000   -3,024780452e-01   -6,572107226e-02    8,610162735e-01   -4,181289673e-01    0,000000000e+00    0,000000000e+00    0,000000000e+00    0,000000000e+00
