! NanoVNA-App
! Date: 2025-09-25 14:58:40
! Start: 100MHz Stop: 1,5GHz Points: 101
! S-Parameter data: F S11 S21 S12 S22
# Hz S RI R 50
!     Frequency           S11_Real           S11_Imag           S21_Real           S21_Imag           S12_Real           S12_Imag           S22_Real           S22_Imag
      100000000    3,559350967e-02    2,735530399e-02    4,407754540e-01   -6,695238352e-01    0,000000000e+00    0,000000000e+00    0,000000000e+00    0,000000000e+00
      114000000    6,071735173e-02    2,152924892e-03    1,274630241e-02   -7,954811454e-01    0,000000000e+00    0,000000000e+00    0,000000000e+00    0,000000000e+00
      128000000    6,836119294e-02   -4,222813249e-02   -4,082336724e-01   -6,782459021e-01    0,000000000e+00    0,000000000e+00    0,000000000e+00    0,000000000e+00
      142000000    4,347606376e-02   -8,876101673e-02   -7,051003575e-01   -3,608122766e-01    0,000000000e+00    0,000000000e+00    0,000000000e+00    0,000000000e+00
      156000000   -9,524887428e-03   -1,101463810e-01   -7,929385900e-01    6,787250191e-02    0,000000000e+00    0,000000000e+00    0,000000000e+00    0,000000000e+00
      170000000   -6,263520569e-02   -9,174456447e-02   -6,370938420e-01    4,863928258e-01    0,000000000e+00    0,000000000e+00    0,000000000e+00    0,000000000e+00
      184000000   -8,860100806e-02   -4,767644033e-02   -2,733366191e-01    7,562909126e-01    0,000000000e+00    0,000000000e+00    0,000000000e+00    0,000000000e+00
      198000000   -8,272381872e-02   -6,431759335e-03    1,794962585e-01    7,819355726e-01    0,000000000e+00    0,000000000e+00    0,000000000e+00    0,000000000e+00
      212000000   -6,264530122e-02    1,798553020e-02    5,704805255e-01    5,580111742e-01    0,000000000e+00    0,000000000e+00    0,000000000e+00    0,000000000e+00
      226000000   -4,142683372e-02    3,179110587e-02    7,766944170e-01    1,620008498e-01    0,000000000e+00    0,000000000e+00    0,000000000e+00    0,000000000e+00
      240000000   -1,484773401e-02    4,126978293e-02    7,359405756e-01   -2,787546515e-01    0,000000000e+00    0,000000000e+00    0,000000000e+00    0,000000000e+00
      254000000    2,137886360e-02    3,625947610e-02    4,678602815e-01   -6,219673753e-01    0,000000000e+00    0,000000000e+00    0,000000000e+00    0,000000000e+00
      268000000    5,330127850e-02    4,703895655e-03    6,660325080e-02   -7,673122287e-01    0,000000000e+00    0,000000000e+00    0,000000000e+00    0,000000000e+00
      282000000    5,739639327e-02   -4,491273686e-02   -3,457071781e-01   -6,830278039e-01    0,000000000e+00    0,000000000e+00    0,000000000e+00    0,000000000e+00
      296000000    2,616883814e-02   -8,468407393e-02   -6,553402543e-01   -3,975631297e-01    0,000000000e+00    0,000000000e+00    0,000000000e+00    0,000000000e+00
      310000000   -1,898486912e-02   -8,916938305e-02   -7,747218609e-01    1,100885775e-02    0,000000000e+00    0,000000000e+00    0,000000000e+00    0,000000000e+00
      324000000   -4,649752006e-02   -6,345922500e-02   -6,474184394e-01    4,297752976e-01    0,000000000e+00    0,000000000e+00    0,000000000e+00    0,000000000e+00
      338000000   -4,129493982e-02   -3,771857172e-02   -3,091410398e-01    7,084445953e-01    0,000000000e+00    0,000000000e+00    0,000000000e+00    0,000000000e+00
      352000000   -2,343034744e-02   -3,773684427e-02    1,200189218e-01    7,583650351e-01    0,000000000e+00    0,000000000e+00    0,000000000e+00    0,000000000e+00
      366000000   -2,295804024e-02   -5,622540787e-02    5,031347871e-01    5,721664429e-01    0,000000000e+00    0,000000000e+00    0,000000000e+00    0,000000000e+00
      380000000   -4,441009834e-02   -6,517611444e-02    7,267405391e-01    2,116066068e-01    0,000000000e+00    0,000000000e+00    0,000000000e+00    0,000000000e+00
      394000000   -6,653851271e-02   -5,069648847e-02    7,232638597e-01   -2,133100480e-01    0,000000000e+00    0,000000000e+00    0,000000000e+00    0,000000000e+00
      408000000   -6,758701056e-02   -2,655868232e-02    4,894092679e-01   -5,690553188e-01    0,000000000e+00    0,000000000e+00    0,000000000e+00    0,000000000e+00
      422000000   -5,326927081e-02   -1,501549780e-02    1,055839881e-01   -7,381836176e-01    0,000000000e+00    0,000000000e+00    0,000000000e+00    0,000000000e+00
      436000000   -4,651589319e-02   -1,851263642e-02   -3,067831993e-01   -6,764990091e-01    0,000000000e+00    0,000000000e+00    0,000000000e+00    0,000000000e+00
      450000000   -5,193701014e-02   -1,519935392e-02   -6,194570065e-01   -3,998309672e-01    0,000000000e+00    0,000000000e+00    0,000000000e+00    0,000000000e+00
      464000000   -5,016868934e-02    5,993942730e-03   -7,298731804e-01    3,393847262e-03    0,000000000e+00    0,000000000e+00    0,000000000e+00    0,000000000e+00
      478000000   -2,025647089e-02    2,636793628e-02   -5,986269116e-01    3,974357843e-01    0,000000000e+00    0,000000000e+00    0,000000000e+00    0,000000000e+00
      492000000    2,838911489e-02    1,500633638e-02   -2,796917856e-01    6,447826028e-01    0,000000000e+00    0,000000000e+00    0,000000000e+00    0,000000000e+00
      506000000    5,890186504e-02   -3,740762919e-02    1,045612171e-01    6,793435812e-01    0,000000000e+00    0,000000000e+00    0,000000000e+00    0,000000000e+00
      520000000    4,450115934e-02   -1,028368920e-01    4,441809058e-01    5,164695382e-01    0,000000000e+00    0,000000000e+00    0,000000000e+00    0,000000000e+00
      534000000   -1,297562663e-02   -1,441204995e-01    6,495131850e-01    2,053800821e-01    0,000000000e+00    0,000000000e+00    0,000000000e+00    0,000000000e+00
      548000000   -8,202672005e-02   -1,402075738e-01    6,598415375e-01   -1,766835451e-01    0,000000000e+00    0,000000000e+00    0,000000000e+00    0,000000000e+00
      562000000   -1,311337799e-01   -9,825120121e-02    4,503763020e-01   -5,087224245e-01    0,000000000e+00    0,000000000e+00    0,000000000e+00    0,000000000e+00
      576000000   -1,495465934e-01   -3,850553930e-02    8,164805174e-02   -6,605680585e-01    0,000000000e+00    0,000000000e+00    0,000000000e+00    0,000000000e+00
      590000000   -1,296798140e-01    2,981212921e-02   -2,979472876e-01   -5,633764267e-01    0,000000000e+00    0,000000000e+00    0,000000000e+00    0,000000000e+00
      604000000   -3,703324869e-02    6,814714521e-02   -4,864751101e-01   -2,706945240e-01    0,000000000e+00    0,000000000e+00    0,000000000e+00    0,000000000e+00
      618000000    3,426206484e-02   -3,229156509e-02   -4,937617481e-01   -5,276308581e-02    0,000000000e+00    0,000000000e+00    0,000000000e+00    0,000000000e+00
      632000000   -5,345014855e-02   -9,243714809e-02   -5,268438458e-01    1,774931997e-01    0,000000000e+00    0,000000000e+00    0,000000000e+00    0,000000000e+00
      646000000   -9,933260828e-02   -3,298027068e-02   -3,789143562e-01    4,774327278e-01    0,000000000e+00    0,000000000e+00    0,000000000e+00    0,000000000e+00
      660000000   -6,843477488e-02    9,330565110e-03   -5,066131800e-02    6,251467466e-01    0,000000000e+00    0,000000000e+00    0,000000000e+00    0,000000000e+00
      674000000   -2,987973019e-02    3,886348335e-03    2,983956933e-01    5,528446436e-01    0,000000000e+00    0,000000000e+00    0,000000000e+00    0,000000000e+00
      688000000   -1,585641317e-02   -1,787248440e-02    5,471224189e-01    3,031256795e-01    0,000000000e+00    0,000000000e+00    0,000000000e+00    0,000000000e+00
      702000000   -1,425794046e-02   -3,403972834e-02    6,218581796e-01   -4,170964286e-02    0,000000000e+00    0,000000000e+00    0,000000000e+00    0,000000000e+00
      716000000   -1,034436375e-02   -4,774190858e-02    4,911063910e-01   -3,683383763e-01    0,000000000e+00    0,000000000e+00    0,000000000e+00    0,000000000e+00
      730000000   -6,730510853e-03   -7,451076806e-02    2,118411660e-01   -5,687879920e-01    0,000000000e+00    0,000000000e+00    0,000000000e+00    0,000000000e+00
      744000000   -2,642373368e-02   -1,105643287e-01   -1,238700598e-01   -5,869816542e-01    0,000000000e+00    0,000000000e+00    0,000000000e+00    0,000000000e+00
      758000000   -7,387351990e-02   -1,325227767e-01   -4,204588830e-01   -4,315621853e-01    0,000000000e+00    0,000000000e+00    0,000000000e+00    0,000000000e+00
      772000000   -1,354579777e-01   -1,150472090e-01   -5,936235785e-01   -1,397125572e-01    0,000000000e+00    0,000000000e+00    0,000000000e+00    0,000000000e+00
      786000000   -1,711790264e-01   -5,890350044e-02   -5,812005997e-01    2,100554556e-01    0,000000000e+00    0,000000000e+00    0,000000000e+00    0,000000000e+00
      800000000   -1,591007411e-01    6,652212236e-03   -3,726032376e-01    4,948801994e-01    0,000000000e+00    0,000000000e+00    0,000000000e+00    0,000000000e+00
      814000000   -1,146404520e-01    4,200043902e-02   -4,431260750e-02    6,148673296e-01    0,000000000e+00    0,000000000e+00    0,000000000e+00    0,000000000e+00
      828000000   -6,865593791e-02    4,353132844e-02    2,864302993e-01    5,399118066e-01    0,000000000e+00    0,000000000e+00    0,000000000e+00    0,000000000e+00
      842000000   -3,950848803e-02    2,943474799e-02    5,212458372e-01    3,053579032e-01    0,000000000e+00    0,000000000e+00    0,000000000e+00    0,000000000e+00
      856000000   -1,829010621e-02    1,219691895e-02    5,942525864e-01   -1,369080041e-02    0,000000000e+00    0,000000000e+00    0,000000000e+00    0,000000000e+00
      870000000    2,141513163e-03   -1,073052268e-02    4,859974086e-01   -3,162127435e-01    0,000000000e+00    0,000000000e+00    0,000000000e+00    0,000000000e+00
      884000000    1,367467176e-02   -5,156514421e-02    2,437065095e-01   -5,114942789e-01    0,000000000e+00    0,000000000e+00    0,000000000e+00    0,000000000e+00
      898000000   -4,302580375e-03   -1,023258120e-01   -5,829913914e-02   -5,543322563e-01    0,000000000e+00    0,000000000e+00    0,000000000e+00    0,000000000e+00
      912000000   -6,301567703e-02   -1,323099881e-01   -3,888846040e-01   -4,256902933e-01    0,000000000e+00    0,000000000e+00    0,000000000e+00    0,000000000e+00
      926000000   -1,263173819e-01   -1,167527735e-01   -5,663778186e-01   -1,468760967e-01    0,000000000e+00    0,000000000e+00    0,000000000e+00    0,000000000e+00
      940000000   -1,654079556e-01   -6,202454865e-02   -5,706496239e-01    1,931849271e-01    0,000000000e+00    0,000000000e+00    0,000000000e+00    0,000000000e+00
      954000000   -1,517006159e-01   -1,976623666e-03   -3,762777150e-01    4,834961295e-01    0,000000000e+00    0,000000000e+00    0,000000000e+00    0,000000000e+00
      968000000   -9,639333934e-02    2,538737841e-02   -5,241939425e-02    6,156139374e-01    0,000000000e+00    0,000000000e+00    0,000000000e+00    0,000000000e+00
      982000000   -5,566565692e-02    8,853261359e-03    2,811296582e-01    5,521434546e-01    0,000000000e+00    0,000000000e+00    0,000000000e+00    0,000000000e+00
      996000000   -4,261554033e-02   -3,111188486e-02    5,240321755e-01    3,282584846e-01    0,000000000e+00    0,000000000e+00    0,000000000e+00    0,000000000e+00
     1010000000   -6,409967691e-02   -6,431809813e-02    6,079769731e-01    1,305687986e-02    0,000000000e+00    0,000000000e+00    0,000000000e+00    0,000000000e+00
     1024000000   -9,793052822e-02   -7,514390349e-02    5,170319080e-01   -2,809996009e-01    0,000000000e+00    0,000000000e+00    0,000000000e+00    0,000000000e+00
     1038000000   -1,418651640e-01   -5,487473682e-02    2,969597280e-01   -4,709763825e-01    0,000000000e+00    0,000000000e+00    0,000000000e+00    0,000000000e+00
     1052000000   -1,486125588e-01   -1,933605177e-03    3,505259007e-02   -5,248559117e-01    0,000000000e+00    0,000000000e+00    0,000000000e+00    0,000000000e+00
     1066000000   -1,075881943e-01    4,290288314e-02   -2,072603405e-01   -4,624032080e-01    0,000000000e+00    0,000000000e+00    0,000000000e+00    0,000000000e+00
     1080000000   -5,515354127e-02    2,672132663e-02   -4,166787565e-01   -2,967723608e-01    0,000000000e+00    0,000000000e+00    0,000000000e+00    0,000000000e+00
     1094000000   -3,340829909e-02   -4,150146618e-03   -5,207842588e-01   -2,392466553e-02    0,000000000e+00    0,000000000e+00    0,000000000e+00    0,000000000e+00
     1108000000   -3,337969631e-02   -2,982508019e-02   -4,440327883e-01    2,833691835e-01    0,000000000e+00    0,000000000e+00    0,000000000e+00    0,000000000e+00
     1122000000   -2,805221453e-02   -5,895592272e-02   -1,868181378e-01    4,967055321e-01    0,000000000e+00    0,000000000e+00    0,000000000e+00    0,000000000e+00
     1136000000   -3,955161199e-02   -9,298808873e-02    1,523445845e-01    5,167698264e-01    0,000000000e+00    0,000000000e+00    0,000000000e+00    0,000000000e+00
     1150000000   -8,135989308e-02   -1,228912473e-01    4,556018710e-01    3,423142731e-01    0,000000000e+00    0,000000000e+00    0,000000000e+00    0,000000000e+00
     1164000000   -1,389100701e-01   -1,259667873e-01    6,100582480e-01    1,508057304e-02    0,000000000e+00    0,000000000e+00    0,000000000e+00    0,000000000e+00
     1178000000   -1,774509847e-01   -8,226589113e-02    5,391048789e-01   -3,737370372e-01    0,000000000e+00    0,000000000e+00    0,000000000e+00    0,000000000e+00
     1192000000   -1,819786429e-01   -5,160694197e-02    2,383823395e-01   -6,345848441e-01    0,000000000e+00    0,000000000e+00    0,000000000e+00    0,000000000e+00
     1206000000   -1,886770129e-01   -5,270524696e-02   -1,394617409e-01   -6,622821689e-01    0,000000000e+00    0,000000000e+00    0,000000000e+00    0,000000000e+00
     1220000000   -2,570728064e-01   -1,669642515e-02   -4,170918763e-01   -4,842650890e-01    0,000000000e+00    0,000000000e+00    0,000000000e+00    0,000000000e+00
     1234000000   -2,441215962e-01    1,132398695e-01   -5,561664104e-01   -2,476487756e-01    0,000000000e+00    0,000000000e+00    0,000000000e+00    0,000000000e+00
     1248000000   -1,159480289e-01    1,782072634e-01   -6,022756696e-01    1,983061992e-02    0,000000000e+00    0,000000000e+00    0,000000000e+00    0,000000000e+00
     1262000000    7,699350826e-04    1,307416111e-01   -5,037581325e-01    2,980410159e-01    0,000000000e+00    0,000000000e+00    0,000000000e+00    0,000000000e+00
     1276000000    6,221415102e-02    4,417080060e-02   -2,745103240e-01    4,878337383e-01    0,000000000e+00    0,000000000e+00    0,000000000e+00    0,000000000e+00
     1290000000    7,036956400e-02   -7,303617895e-02    4,033170175e-03    5,451912284e-01    0,000000000e+00    0,000000000e+00    0,000000000e+00    0,000000000e+00
     1304000000    1,998186670e-02   -1,769499481e-01    2,973065376e-01    4,775418043e-01    0,000000000e+00    0,000000000e+00    0,000000000e+00    0,000000000e+00
     1318000000   -9,606401622e-02   -2,553649843e-01    5,449591279e-01    2,697827816e-01    0,000000000e+00    0,000000000e+00    0,000000000e+00    0,000000000e+00
     1332000000   -2,436622530e-01   -2,428419143e-01    6,475914717e-01   -5,660325289e-02    0,000000000e+00    0,000000000e+00    0,000000000e+00    0,000000000e+00
     1346000000   -3,629914522e-01   -1,371115297e-01    5,591092706e-01   -4,070771635e-01    0,000000000e+00    0,000000000e+00    0,000000000e+00    0,000000000e+00
     1360000000   -3,837822676e-01    8,377431892e-03    2,617177963e-01   -6,349937320e-01    0,000000000e+00    0,000000000e+00    0,000000000e+00    0,000000000e+00
     1374000000   -3,265868723e-01    1,177864075e-01   -1,052499935e-01   -6,251872182e-01    0,000000000e+00    0,000000000e+00    0,000000000e+00    0,000000000e+00
     1388000000   -2,382216305e-01    1,685449332e-01   -3,845328689e-01   -4,215205312e-01    0,000000000e+00    0,000000000e+00    0,000000000e+00    0,000000000e+00
     1402000000   -1,494970769e-01    1,737639308e-01   -4,814580381e-01   -1,047122777e-01    0,000000000e+00    0,000000000e+00    0,000000000e+00    0,000000000e+00
     1416000000   -8,510222286e-02    1,375873685e-01   -3,877068460e-01    2,077652812e-01    0,000000000e+00    0,000000000e+00    0,000000000e+00    0,000000000e+00
     1430000000   -3,129832819e-02    8,647482842e-02   -1,808328480e-01    4,050225914e-01    0,000000000e+00    0,000000000e+00    0,000000000e+00    0,000000000e+00
     1444000000   -1,472870819e-02    7,389219943e-03    1,187276542e-01    5,320400596e-01    0,000000000e+00    0,000000000e+00    0,000000000e+00    0,000000000e+00
     1458000000   -4,250151664e-02   -7,353052497e-02    4,332982600e-01    5,003049970e-01    0,000000000e+00    0,000000000e+00    0,000000000e+00    0,000000000e+00
     1472000000   -1,201594546e-01   -1,453538835e-01    7,502712011e-01    3,037988245e-01    0,000000000e+00    0,000000000e+00    0,000000000e+00    0,000000000e+00
     1486000000   -2,328229249e-01   -1,430128068e-01    9,099833965e-01   -3,682019934e-02    0,000000000e+00    0,000000000e+00    0,000000000e+00    0,000000000e+00
     1500000000   -3,048163056e-01   -6,338617951e-02    8,366397023e-01   -4,234813452e-01    0,000000000e+00    0,000000000e+00    0,000000000e+00    0,000000000e+00
