! NanoVNA-App
! Date: 2025-09-25 15:02:58
! Start: 100MHz Stop: 1,5GHz Points: 101
! S-Parameter data: F S11 S21 S12 S22
# Hz S RI R 50
!     Frequency           S11_Real           S11_Imag           S21_Real           S21_Imag           S12_Real           S12_Imag           S22_Real           S22_Imag
      100000000    3,559190035e-02    2,736590803e-02    4,407743514e-01   -6,695063710e-01    0,000000000e+00    0,000000000e+00    0,000000000e+00    0,000000000e+00
      114000000    6,073986739e-02    2,184323501e-03    1,289408468e-02   -7,956037521e-01    0,000000000e+00    0,000000000e+00    0,000000000e+00    0,000000000e+00
      128000000    6,840278208e-02   -4,224608466e-02   -4,081888795e-01   -6,780886650e-01    0,000000000e+00    0,000000000e+00    0,000000000e+00    0,000000000e+00
      142000000    4,349396750e-02   -8,881069720e-02   -7,051211596e-01   -3,609679043e-01    0,000000000e+00    0,000000000e+00    0,000000000e+00    0,000000000e+00
      156000000   -9,680065326e-03   -1,098533049e-01   -7,925269604e-01    6,753943861e-02    0,000000000e+00    0,000000000e+00    0,000000000e+00    0,000000000e+00
      170000000   -6,274586916e-02   -9,177648276e-02   -6,369529963e-01    4,863752127e-01    0,000000000e+00    0,000000000e+00    0,000000000e+00    0,000000000e+00
      184000000   -8,860521764e-02   -4,763140902e-02   -2,733297944e-01    7,561061382e-01    0,000000000e+00    0,000000000e+00    0,000000000e+00    0,000000000e+00
      198000000   -8,276703954e-02   -6,439229939e-03    1,795530319e-01    7,823008895e-01    0,000000000e+00    0,000000000e+00    0,000000000e+00    0,000000000e+00
      212000000   -6,273818761e-02    1,798878051e-02    5,705307126e-01    5,585772991e-01    0,000000000e+00    0,000000000e+00    0,000000000e+00    0,000000000e+00
      226000000   -4,154684022e-02    3,186196461e-02    7,767590880e-01    1,619891971e-01    0,000000000e+00    0,000000000e+00    0,000000000e+00    0,000000000e+00
      240000000   -1,494229492e-02    4,134887829e-02    7,361168265e-01   -2,787205875e-01    0,000000000e+00    0,000000000e+00    0,000000000e+00    0,000000000e+00
      254000000    2,138843015e-02    3,628374636e-02    4,680126309e-01   -6,221013665e-01    0,000000000e+00    0,000000000e+00    0,000000000e+00    0,000000000e+00
      268000000    5,328338966e-02    4,750838038e-03    6,680843234e-02   -7,676131129e-01    0,000000000e+00    0,000000000e+00    0,000000000e+00    0,000000000e+00
      282000000    5,743324012e-02   -4,500881955e-02   -3,456029892e-01   -6,826409101e-01    0,000000000e+00    0,000000000e+00    0,000000000e+00    0,000000000e+00
      296000000    2,611608617e-02   -8,461908996e-02   -6,554621458e-01   -3,983258307e-01    0,000000000e+00    0,000000000e+00    0,000000000e+00    0,000000000e+00
      310000000   -1,907830499e-02   -8,932752162e-02   -7,739104629e-01    9,703514166e-03    0,000000000e+00    0,000000000e+00    0,000000000e+00    0,000000000e+00
      324000000   -4,657673463e-02   -6,360755861e-02   -6,481620669e-01    4,302209914e-01    0,000000000e+00    0,000000000e+00    0,000000000e+00    0,000000000e+00
      338000000   -4,097641632e-02   -3,787608445e-02   -3,111081719e-01    7,110230327e-01    0,000000000e+00    0,000000000e+00    0,000000000e+00    0,000000000e+00
      352000000   -2,333674580e-02   -3,783954307e-02    1,191875562e-01    7,589095831e-01    0,000000000e+00    0,000000000e+00    0,000000000e+00    0,000000000e+00
      366000000   -2,292553522e-02   -5,632848293e-02    5,027862787e-01    5,716290474e-01    0,000000000e+00    0,000000000e+00    0,000000000e+00    0,000000000e+00
      380000000   -4,450470954e-02   -6,557073444e-02    7,263946533e-01    2,115293741e-01    0,000000000e+00    0,000000000e+00    0,000000000e+00    0,000000000e+00
      394000000   -6,661496311e-02   -5,049162731e-02    7,232421041e-01   -2,127438635e-01    0,000000000e+00    0,000000000e+00    0,000000000e+00    0,000000000e+00
      408000000   -6,771086901e-02   -2,625787072e-02    4,895926714e-01   -5,688110590e-01    0,000000000e+00    0,000000000e+00    0,000000000e+00    0,000000000e+00
      422000000   -5,320394412e-02   -1,512460597e-02    1,061837822e-01   -7,372028232e-01    0,000000000e+00    0,000000000e+00    0,000000000e+00    0,000000000e+00
      436000000   -4,653599858e-02   -1,913450658e-02   -3,070676029e-01   -6,763135195e-01    0,000000000e+00    0,000000000e+00    0,000000000e+00    0,000000000e+00
      450000000   -5,197059736e-02   -1,508166920e-02   -6,188385487e-01   -4,000217021e-01    0,000000000e+00    0,000000000e+00    0,000000000e+00    0,000000000e+00
      464000000   -5,060327798e-02    5,972657818e-03   -7,300279140e-01    3,276321338e-03    0,000000000e+00    0,000000000e+00    0,000000000e+00    0,000000000e+00
      478000000   -2,070267498e-02    2,656756900e-02   -5,989598036e-01    3,974039555e-01    0,000000000e+00    0,000000000e+00    0,000000000e+00    0,000000000e+00
      492000000    2,848426998e-02    1,446360070e-02   -2,797018886e-01    6,441819668e-01    0,000000000e+00    0,000000000e+00    0,000000000e+00    0,000000000e+00
      506000000    5,948155373e-02   -3,754869848e-02    1,055545509e-01    6,807066798e-01    0,000000000e+00    0,000000000e+00    0,000000000e+00    0,000000000e+00
      520000000    4,454396665e-02   -1,029506773e-01    4,440163076e-01    5,193225145e-01    0,000000000e+00    0,000000000e+00    0,000000000e+00    0,000000000e+00
      534000000   -1,288694050e-02   -1,439930648e-01    6,489341855e-01    2,060405165e-01    0,000000000e+00    0,000000000e+00    0,000000000e+00    0,000000000e+00
      548000000   -8,187919110e-02   -1,399781257e-01    6,599549055e-01   -1,759075522e-01    0,000000000e+00    0,000000000e+00    0,000000000e+00    0,000000000e+00
      562000000   -1,316888481e-01   -9,829382598e-02    4,505031109e-01   -5,089473724e-01    0,000000000e+00    0,000000000e+00    0,000000000e+00    0,000000000e+00
      576000000   -1,499227881e-01   -3,864875808e-02    8,115734160e-02   -6,599483490e-01    0,000000000e+00    0,000000000e+00    0,000000000e+00    0,000000000e+00
      590000000   -1,298356503e-01    3,055299819e-02   -2,942869067e-01   -5,621474385e-01    0,000000000e+00    0,000000000e+00    0,000000000e+00    0,000000000e+00
      604000000   -3,579720855e-02    6,837695837e-02   -4,856619537e-01   -2,699000835e-01    0,000000000e+00    0,000000000e+00    0,000000000e+00    0,000000000e+00
      618000000    3,399835154e-02   -3,297780827e-02   -4,941363633e-01   -5,469635874e-02    0,000000000e+00    0,000000000e+00    0,000000000e+00    0,000000000e+00
      632000000   -5,499016494e-02   -9,261106700e-02   -5,283834338e-01    1,774519086e-01    0,000000000e+00    0,000000000e+00    0,000000000e+00    0,000000000e+00
      646000000   -9,952448308e-02   -3,291412070e-02   -3,796961010e-01    4,786473513e-01    0,000000000e+00    0,000000000e+00    0,000000000e+00    0,000000000e+00
      660000000   -6,764767319e-02    9,781371802e-03   -4,927450791e-02    6,258916855e-01    0,000000000e+00    0,000000000e+00    0,000000000e+00    0,000000000e+00
      674000000   -2,937572263e-02    4,122842569e-03    2,988886237e-01    5,538727045e-01    0,000000000e+00    0,000000000e+00    0,000000000e+00    0,000000000e+00
      688000000   -1,584031805e-02   -1,823830046e-02    5,482665896e-01    3,028549850e-01    0,000000000e+00    0,000000000e+00    0,000000000e+00    0,000000000e+00
      702000000   -1,340671536e-02   -3,434614465e-02    6,183437109e-01   -4,148660973e-02    0,000000000e+00    0,000000000e+00    0,000000000e+00    0,000000000e+00
      716000000   -1,054773666e-02   -4,916222021e-02    4,915480316e-01   -3,679662645e-01    0,000000000e+00    0,000000000e+00    0,000000000e+00    0,000000000e+00
      730000000   -7,996582426e-03   -7,418586314e-02    2,116556913e-01   -5,681403875e-01    0,000000000e+00    0,000000000e+00    0,000000000e+00    0,000000000e+00
      744000000   -2,559567802e-02   -1,100299880e-01   -1,255953312e-01   -5,882962942e-01    0,000000000e+00    0,000000000e+00    0,000000000e+00    0,000000000e+00
      758000000   -7,461614907e-02   -1,322443634e-01   -4,193622470e-01   -4,326899648e-01    0,000000000e+00    0,000000000e+00    0,000000000e+00    0,000000000e+00
      772000000   -1,356993318e-01   -1,160341948e-01   -5,937924981e-01   -1,399324536e-01    0,000000000e+00    0,000000000e+00    0,000000000e+00    0,000000000e+00
      786000000   -1,718877554e-01   -5,927989259e-02   -5,813776851e-01    2,096203417e-01    0,000000000e+00    0,000000000e+00    0,000000000e+00    0,000000000e+00
      800000000   -1,599040329e-01    5,817544181e-03   -3,721765578e-01    4,959657490e-01    0,000000000e+00    0,000000000e+00    0,000000000e+00    0,000000000e+00
      814000000   -1,154705584e-01    4,213241860e-02   -4,587640986e-02    6,147522330e-01    0,000000000e+00    0,000000000e+00    0,000000000e+00    0,000000000e+00
      828000000   -6,933590025e-02    4,459858686e-02    2,850978673e-01    5,399899483e-01    0,000000000e+00    0,000000000e+00    0,000000000e+00    0,000000000e+00
      842000000   -3,970853984e-02    2,918655984e-02    5,207465291e-01    3,056612909e-01    0,000000000e+00    0,000000000e+00    0,000000000e+00    0,000000000e+00
      856000000   -1,796490327e-02    1,299319696e-02    5,947734714e-01   -1,400798187e-02    0,000000000e+00    0,000000000e+00    0,000000000e+00    0,000000000e+00
      870000000    2,451879671e-03   -1,057217270e-02    4,863548577e-01   -3,168852329e-01    0,000000000e+00    0,000000000e+00    0,000000000e+00    0,000000000e+00
      884000000    1,394509338e-02   -5,152185634e-02    2,433182150e-01   -5,115373135e-01    0,000000000e+00    0,000000000e+00    0,000000000e+00    0,000000000e+00
      898000000   -3,930015489e-03   -1,024359837e-01   -5,777982622e-02   -5,549846888e-01    0,000000000e+00    0,000000000e+00    0,000000000e+00    0,000000000e+00
      912000000   -6,275534630e-02   -1,322427392e-01   -3,938870728e-01   -4,109699726e-01    0,000000000e+00    0,000000000e+00    0,000000000e+00    0,000000000e+00
      926000000   -1,295800060e-01   -1,184938326e-01   -5,681654811e-01   -1,478744149e-01    0,000000000e+00    0,000000000e+00    0,000000000e+00    0,000000000e+00
      940000000   -1,623968780e-01   -6,118669733e-02   -5,675733089e-01    1,923756450e-01    0,000000000e+00    0,000000000e+00    0,000000000e+00    0,000000000e+00
      954000000   -1,479603797e-01    1,824681880e-03   -3,742011786e-01    4,840042889e-01    0,000000000e+00    0,000000000e+00    0,000000000e+00    0,000000000e+00
      968000000   -9,451838583e-02    2,432489023e-02   -5,181163549e-02    6,137319803e-01    0,000000000e+00    0,000000000e+00    0,000000000e+00    0,000000000e+00
      982000000   -5,598165467e-02    1,702490728e-03    2,795598507e-01    5,528923869e-01    0,000000000e+00    0,000000000e+00    0,000000000e+00    0,000000000e+00
      996000000   -4,107649624e-02   -3,452929482e-02    5,242956877e-01    3,278898001e-01    0,000000000e+00    0,000000000e+00    0,000000000e+00    0,000000000e+00
     1010000000   -6,531725824e-02   -6,878572702e-02    6,060926914e-01    1,828437299e-02    0,000000000e+00    0,000000000e+00    0,000000000e+00    0,000000000e+00
     1024000000   -1,010179967e-01   -7,503230870e-02    5,150555372e-01   -2,795081735e-01    0,000000000e+00    0,000000000e+00    0,000000000e+00    0,000000000e+00
     1038000000   -1,461880654e-01   -5,527311191e-02    2,975153327e-01   -4,718413651e-01    0,000000000e+00    0,000000000e+00    0,000000000e+00    0,000000000e+00
     1052000000   -1,467736810e-01    1,993770478e-03    3,726257011e-02   -5,267972350e-01    0,000000000e+00    0,000000000e+00    0,000000000e+00    0,000000000e+00
     1066000000   -1,057737172e-01    3,668511659e-02   -2,088416517e-01   -4,637960792e-01    0,000000000e+00    0,000000000e+00    0,000000000e+00    0,000000000e+00
     1080000000   -5,610447377e-02    2,709754370e-02   -4,173563421e-01   -3,011672199e-01    0,000000000e+00    0,000000000e+00    0,000000000e+00    0,000000000e+00
     1094000000   -3,249296546e-02   -5,450349767e-03   -5,228956342e-01   -2,336251922e-02    0,000000000e+00    0,000000000e+00    0,000000000e+00    0,000000000e+00
     1108000000   -3,401778638e-02   -3,383663669e-02   -4,454138577e-01    2,872391939e-01    0,000000000e+00    0,000000000e+00    0,000000000e+00    0,000000000e+00
     1122000000   -3,229893744e-02   -5,472195521e-02   -1,858040988e-01    4,950927794e-01    0,000000000e+00    0,000000000e+00    0,000000000e+00    0,000000000e+00
     1136000000   -4,591289163e-02   -9,105153382e-02    1,532623619e-01    5,214288235e-01    0,000000000e+00    0,000000000e+00    0,000000000e+00    0,000000000e+00
     1150000000   -8,205816895e-02   -1,211220175e-01    4,541755915e-01    3,413920999e-01    0,000000000e+00    0,000000000e+00    0,000000000e+00    0,000000000e+00
     1164000000   -1,417479366e-01   -1,212157458e-01    6,108827591e-01    1,118521299e-02    0,000000000e+00    0,000000000e+00    0,000000000e+00    0,000000000e+00
     1178000000   -1,722640097e-01   -8,502837270e-02    5,401617289e-01   -3,735653758e-01    0,000000000e+00    0,000000000e+00    0,000000000e+00    0,000000000e+00
     1192000000   -1,818589717e-01   -5,687713251e-02    2,441977412e-01   -6,366897821e-01    0,000000000e+00    0,000000000e+00    0,000000000e+00    0,000000000e+00
     1206000000   -1,936093420e-01   -5,272342637e-02   -1,376588643e-01   -6,607000232e-01    0,000000000e+00    0,000000000e+00    0,000000000e+00    0,000000000e+00
     1220000000   -2,482267767e-01   -1,386148110e-02   -4,147652984e-01   -4,802314043e-01    0,000000000e+00    0,000000000e+00    0,000000000e+00    0,000000000e+00
     1234000000   -2,390784621e-01    1,160175726e-01   -5,583288670e-01   -2,502712905e-01    0,000000000e+00    0,000000000e+00    0,000000000e+00    0,000000000e+00
     1248000000   -1,111213788e-01    1,724133044e-01   -6,035960913e-01    1,626770012e-02    0,000000000e+00    0,000000000e+00    0,000000000e+00    0,000000000e+00
     1262000000   -5,350992549e-03    1,332173645e-01   -5,071243048e-01    2,941213846e-01    0,000000000e+00    0,000000000e+00    0,000000000e+00    0,000000000e+00
     1276000000    6,407900900e-02    4,057661071e-02   -2,744071782e-01    4,861589372e-01    0,000000000e+00    0,000000000e+00    0,000000000e+00    0,000000000e+00
     1290000000    6,863438338e-02   -7,190937549e-02    1,053362899e-02    5,464988947e-01    0,000000000e+00    0,000000000e+00    0,000000000e+00    0,000000000e+00
     1304000000    2,199555561e-02   -1,797017008e-01    2,985852361e-01    4,708247185e-01    0,000000000e+00    0,000000000e+00    0,000000000e+00    0,000000000e+00
     1318000000   -9,832515568e-02   -2,507455945e-01    5,418547392e-01    2,691335678e-01    0,000000000e+00    0,000000000e+00    0,000000000e+00    0,000000000e+00
     1332000000   -2,414570600e-01   -2,401785851e-01    6,531578898e-01   -5,039607733e-02    0,000000000e+00    0,000000000e+00    0,000000000e+00    0,000000000e+00
     1346000000   -3,628490269e-01   -1,454388350e-01    5,539053679e-01   -4,160428643e-01    0,000000000e+00    0,000000000e+00    0,000000000e+00    0,000000000e+00
     1360000000   -3,786526918e-01    5,545075517e-03    2,637240887e-01   -6,365350485e-01    0,000000000e+00    0,000000000e+00    0,000000000e+00    0,000000000e+00
     1374000000   -3,254498541e-01    1,225996763e-01   -9,911312908e-02   -6,173937321e-01    0,000000000e+00    0,000000000e+00    0,000000000e+00    0,000000000e+00
     1388000000   -2,359018028e-01    1,653009504e-01   -3,741188347e-01   -4,150504470e-01    0,000000000e+00    0,000000000e+00    0,000000000e+00    0,000000000e+00
     1402000000   -1,549134701e-01    1,706445515e-01   -4,786430299e-01   -1,111775786e-01    0,000000000e+00    0,000000000e+00    0,000000000e+00    0,000000000e+00
     1416000000   -8,734514564e-02    1,384216845e-01   -3,919231296e-01    2,030635029e-01    0,000000000e+00    0,000000000e+00    0,000000000e+00    0,000000000e+00
     1430000000   -3,176826239e-02    8,566420525e-02   -1,724821627e-01    4,240159690e-01    0,000000000e+00    0,000000000e+00    0,000000000e+00    0,000000000e+00
     1444000000   -1,524448115e-02    5,861078389e-03    1,159449816e-01    5,199775100e-01    0,000000000e+00    0,000000000e+00    0,000000000e+00    0,000000000e+00
     1458000000   -3,851000592e-02   -8,288782835e-02    4,351315796e-01    4,902838469e-01    0,000000000e+00    0,000000000e+00    0,000000000e+00    0,000000000e+00
     1472000000   -1,216826737e-01   -1,462798566e-01    7,422565222e-01    3,064415157e-01    0,000000000e+00    0,000000000e+00    0,000000000e+00    0,000000000e+00
     1486000000   -2,288483679e-01   -1,403454244e-01    9,177325964e-01   -2,934036590e-02    0,000000000e+00    0,000000000e+00    0,000000000e+00    0,000000000e+00
     1500000000   -3,081391454e-01   -7,116156071e-02    8,422971368e-01   -4,229993820e-01    0,000000000e+00    0,000000000e+00    0,000000000e+00    0,000000000e+00
