! NanoVNA-App
! Date: 2025-09-25 14:59:35
! Start: 100MHz Stop: 1,5GHz Points: 101
! S-Parameter data: F S11 S21 S12 S22
# Hz S RI R 50
!     Frequency           S11_Real           S11_Imag           S21_Real           S21_Imag           S12_Real           S12_Imag           S22_Real           S22_Imag
      100000000    3,558123112e-02    2,736376040e-02    4,407393038e-01   -6,695108414e-01    0,000000000e+00    0,000000000e+00    0,000000000e+00    0,000000000e+00
      114000000    6,071130931e-02    2,170239110e-03    1,285881083e-02   -7,952162027e-01    0,000000000e+00    0,000000000e+00    0,000000000e+00    0,000000000e+00
      128000000    6,835329533e-02   -4,225869849e-02   -4,081802070e-01   -6,780334711e-01    0,000000000e+00    0,000000000e+00    0,000000000e+00    0,000000000e+00
      142000000    4,351259023e-02   -8,878960460e-02   -7,050502300e-01   -3,608481586e-01    0,000000000e+00    0,000000000e+00    0,000000000e+00    0,000000000e+00
      156000000   -8,658627048e-03   -1,104083806e-01   -7,942306995e-01    6,836104393e-02    0,000000000e+00    0,000000000e+00    0,000000000e+00    0,000000000e+00
      170000000   -6,260354817e-02   -9,177100658e-02   -6,369683743e-01    4,865429401e-01    0,000000000e+00    0,000000000e+00    0,000000000e+00    0,000000000e+00
      184000000   -8,866255730e-02   -4,768465459e-02   -2,732733786e-01    7,561131716e-01    0,000000000e+00    0,000000000e+00    0,000000000e+00    0,000000000e+00
      198000000   -8,273718506e-02   -6,412683986e-03    1,795275360e-01    7,820049524e-01    0,000000000e+00    0,000000000e+00    0,000000000e+00    0,000000000e+00
      212000000   -6,270044297e-02    1,807434112e-02    5,707020760e-01    5,584702492e-01    0,000000000e+00    0,000000000e+00    0,000000000e+00    0,000000000e+00
      226000000   -4,150765017e-02    3,187584877e-02    7,767693400e-01    1,617593467e-01    0,000000000e+00    0,000000000e+00    0,000000000e+00    0,000000000e+00
      240000000   -1,494214777e-02    4,134503007e-02    7,359591126e-01   -2,787254751e-01    0,000000000e+00    0,000000000e+00    0,000000000e+00    0,000000000e+00
      254000000    2,138803527e-02    3,630591184e-02    4,678855538e-01   -6,220598221e-01    0,000000000e+00    0,000000000e+00    0,000000000e+00    0,000000000e+00
      268000000    5,326510221e-02    4,739129916e-03    6,689330190e-02   -7,674555779e-01    0,000000000e+00    0,000000000e+00    0,000000000e+00    0,000000000e+00
      282000000    5,746854469e-02   -4,488028958e-02   -3,454346359e-01   -6,823555231e-01    0,000000000e+00    0,000000000e+00    0,000000000e+00    0,000000000e+00
      296000000    2,609168924e-02   -8,480034024e-02   -6,547551155e-01   -3,981810212e-01    0,000000000e+00    0,000000000e+00    0,000000000e+00    0,000000000e+00
      310000000   -1,906235330e-02   -8,942433447e-02   -7,738720179e-01    9,329267778e-03    0,000000000e+00    0,000000000e+00    0,000000000e+00    0,000000000e+00
      324000000   -4,642805457e-02   -6,330557913e-02   -6,485916376e-01    4,297282994e-01    0,000000000e+00    0,000000000e+00    0,000000000e+00    0,000000000e+00
      338000000   -4,099896550e-02   -3,786003590e-02   -3,121695817e-01    7,083592415e-01    0,000000000e+00    0,000000000e+00    0,000000000e+00    0,000000000e+00
      352000000   -2,351606824e-02   -3,791875392e-02    1,197428405e-01    7,583843470e-01    0,000000000e+00    0,000000000e+00    0,000000000e+00    0,000000000e+00
      366000000   -2,278243378e-02   -5,636851117e-02    5,029974580e-01    5,713610053e-01    0,000000000e+00    0,000000000e+00    0,000000000e+00    0,000000000e+00
      380000000   -4,481085017e-02   -6,531982869e-02    7,261043787e-01    2,117908448e-01    0,000000000e+00    0,000000000e+00    0,000000000e+00    0,000000000e+00
      394000000   -6,635700911e-02   -5,066531524e-02    7,238717675e-01   -2,138987035e-01    0,000000000e+00    0,000000000e+00    0,000000000e+00    0,000000000e+00
      408000000   -6,743485481e-02   -2,637307718e-02    4,908557832e-01   -5,679206252e-01    0,000000000e+00    0,000000000e+00    0,000000000e+00    0,000000000e+00
      422000000   -5,339427292e-02   -1,530160476e-02    1,055475399e-01   -7,403203845e-01    0,000000000e+00    0,000000000e+00    0,000000000e+00    0,000000000e+00
      436000000   -4,621604830e-02   -1,860275120e-02   -3,060863912e-01   -6,763737798e-01    0,000000000e+00    0,000000000e+00    0,000000000e+00    0,000000000e+00
      450000000   -5,220076069e-02   -1,486820541e-02   -6,189392209e-01   -3,996275961e-01    0,000000000e+00    0,000000000e+00    0,000000000e+00    0,000000000e+00
      464000000   -5,056269094e-02    5,974468309e-03   -7,297397852e-01    3,663392505e-03    0,000000000e+00    0,000000000e+00    0,000000000e+00    0,000000000e+00
      478000000   -2,016086131e-02    2,673019841e-02   -5,985759497e-01    3,973216414e-01    0,000000000e+00    0,000000000e+00    0,000000000e+00    0,000000000e+00
      492000000    2,821467817e-02    1,458800770e-02   -2,798902690e-01    6,443104148e-01    0,000000000e+00    0,000000000e+00    0,000000000e+00    0,000000000e+00
      506000000    5,895886943e-02   -3,783258423e-02    1,049557179e-01    6,800399423e-01    0,000000000e+00    0,000000000e+00    0,000000000e+00    0,000000000e+00
      520000000    4,370350018e-02   -1,035784632e-01    4,436531365e-01    5,157738924e-01    0,000000000e+00    0,000000000e+00    0,000000000e+00    0,000000000e+00
      534000000   -1,299993321e-02   -1,441371739e-01    6,491137743e-01    2,054708898e-01    0,000000000e+00    0,000000000e+00    0,000000000e+00    0,000000000e+00
      548000000   -8,164627105e-02   -1,403406262e-01    6,595593691e-01   -1,766176969e-01    0,000000000e+00    0,000000000e+00    0,000000000e+00    0,000000000e+00
      562000000   -1,312630922e-01   -9,824077785e-02    4,510538876e-01   -5,093402863e-01    0,000000000e+00    0,000000000e+00    0,000000000e+00    0,000000000e+00
      576000000   -1,493659019e-01   -3,853455186e-02    8,110617101e-02   -6,598677635e-01    0,000000000e+00    0,000000000e+00    0,000000000e+00    0,000000000e+00
      590000000   -1,299334019e-01    2,958430722e-02   -2,948808968e-01   -5,616993308e-01    0,000000000e+00    0,000000000e+00    0,000000000e+00    0,000000000e+00
      604000000   -3,763603792e-02    6,811804324e-02   -4,877018034e-01   -2,707782090e-01    0,000000000e+00    0,000000000e+00    0,000000000e+00    0,000000000e+00
      618000000    3,483728692e-02   -3,083021939e-02   -4,935895801e-01   -5,133122206e-02    0,000000000e+00    0,000000000e+00    0,000000000e+00    0,000000000e+00
      632000000   -5,340295658e-02   -9,245897084e-02   -5,263960958e-01    1,771897525e-01    0,000000000e+00    0,000000000e+00    0,000000000e+00    0,000000000e+00
      646000000   -9,946579486e-02   -3,360063955e-02   -3,790398836e-01    4,768713415e-01    0,000000000e+00    0,000000000e+00    0,000000000e+00    0,000000000e+00
      660000000   -6,885692477e-02    9,184815921e-03   -5,127804726e-02    6,249232888e-01    0,000000000e+00    0,000000000e+00    0,000000000e+00    0,000000000e+00
      674000000   -3,063511290e-02    5,118526518e-03    2,982631624e-01    5,536786914e-01    0,000000000e+00    0,000000000e+00    0,000000000e+00    0,000000000e+00
      688000000   -1,479218807e-02   -1,776655950e-02    5,475592017e-01    3,037073314e-01    0,000000000e+00    0,000000000e+00    0,000000000e+00    0,000000000e+00
      702000000   -1,411929727e-02   -3,585579991e-02    6,176331639e-01   -4,147499427e-02    0,000000000e+00    0,000000000e+00    0,000000000e+00    0,000000000e+00
      716000000   -9,868428111e-03   -4,900332168e-02    4,913860857e-01   -3,678743541e-01    0,000000000e+00    0,000000000e+00    0,000000000e+00    0,000000000e+00
      730000000   -6,649460644e-03   -7,431781292e-02    2,114678174e-01   -5,677145123e-01    0,000000000e+00    0,000000000e+00    0,000000000e+00    0,000000000e+00
      744000000   -2,629688755e-02   -1,099588573e-01   -1,235161424e-01   -5,885351896e-01    0,000000000e+00    0,000000000e+00    0,000000000e+00    0,000000000e+00
      758000000   -7,394137233e-02   -1,331853122e-01   -4,195670784e-01   -4,322243631e-01    0,000000000e+00    0,000000000e+00    0,000000000e+00    0,000000000e+00
      772000000   -1,345121861e-01   -1,154796183e-01   -5,940025449e-01   -1,399602741e-01    0,000000000e+00    0,000000000e+00    0,000000000e+00    0,000000000e+00
      786000000   -1,709169596e-01   -5,812226981e-02   -5,816622972e-01    2,100227624e-01    0,000000000e+00    0,000000000e+00    0,000000000e+00    0,000000000e+00
      800000000   -1,596527398e-01    6,149827037e-03   -3,726433218e-01    4,960680902e-01    0,000000000e+00    0,000000000e+00    0,000000000e+00    0,000000000e+00
      814000000   -1,150804833e-01    4,261464998e-02   -4,560533538e-02    6,152347922e-01    0,000000000e+00    0,000000000e+00    0,000000000e+00    0,000000000e+00
      828000000   -6,930659711e-02    4,389854521e-02    2,861202061e-01    5,399948955e-01    0,000000000e+00    0,000000000e+00    0,000000000e+00    0,000000000e+00
      842000000   -3,901599348e-02    2,951469645e-02    5,210164785e-01    3,059372306e-01    0,000000000e+00    0,000000000e+00    0,000000000e+00    0,000000000e+00
      856000000   -1,796934009e-02    1,248312555e-02    5,941970348e-01   -1,338882092e-02    0,000000000e+00    0,000000000e+00    0,000000000e+00    0,000000000e+00
      870000000    2,322826535e-03   -1,075365208e-02    4,862579703e-01   -3,168258965e-01    0,000000000e+00    0,000000000e+00    0,000000000e+00    0,000000000e+00
      884000000    1,334201172e-02   -5,159087479e-02    2,422089726e-01   -5,115653276e-01    0,000000000e+00    0,000000000e+00    0,000000000e+00    0,000000000e+00
      898000000   -4,075459670e-03   -1,017448157e-01   -5,695646256e-02   -5,555813909e-01    0,000000000e+00    0,000000000e+00    0,000000000e+00    0,000000000e+00
      912000000   -6,297662854e-02   -1,317877173e-01   -3,864737451e-01   -4,238511920e-01    0,000000000e+00    0,000000000e+00    0,000000000e+00    0,000000000e+00
      926000000   -1,256094873e-01   -1,180425659e-01   -5,645558238e-01   -1,483952999e-01    0,000000000e+00    0,000000000e+00    0,000000000e+00    0,000000000e+00
      940000000   -1,623470038e-01   -6,036479026e-02   -5,678300261e-01    1,927111298e-01    0,000000000e+00    0,000000000e+00    0,000000000e+00    0,000000000e+00
      954000000   -1,463240087e-01   -3,845232073e-03   -3,729904294e-01    4,817887843e-01    0,000000000e+00    0,000000000e+00    0,000000000e+00    0,000000000e+00
      968000000   -1,005148515e-01    2,470050007e-02   -5,146947131e-02    6,175569296e-01    0,000000000e+00    0,000000000e+00    0,000000000e+00    0,000000000e+00
      982000000   -5,700385571e-02    4,515310749e-03    2,799839079e-01    5,510944128e-01    0,000000000e+00    0,000000000e+00    0,000000000e+00    0,000000000e+00
      996000000   -4,217736050e-02   -3,055013344e-02    5,239304900e-01    3,292702734e-01    0,000000000e+00    0,000000000e+00    0,000000000e+00    0,000000000e+00
     1010000000   -6,210194901e-02   -6,833284348e-02    6,091349721e-01    1,498893742e-02    0,000000000e+00    0,000000000e+00    0,000000000e+00    0,000000000e+00
     1024000000   -9,692102671e-02   -7,832926512e-02    5,162371993e-01   -2,832098901e-01    0,000000000e+00    0,000000000e+00    0,000000000e+00    0,000000000e+00
     1038000000   -1,440065950e-01   -5,831180140e-02    2,981574237e-01   -4,716806114e-01    0,000000000e+00    0,000000000e+00    0,000000000e+00    0,000000000e+00
     1052000000   -1,508751214e-01    2,809330355e-03    3,467451409e-02   -5,262155533e-01    0,000000000e+00    0,000000000e+00    0,000000000e+00    0,000000000e+00
     1066000000   -1,029559597e-01    4,037708044e-02   -2,127536684e-01   -4,682531655e-01    0,000000000e+00    0,000000000e+00    0,000000000e+00    0,000000000e+00
     1080000000   -5,536219850e-02    2,540916763e-02   -4,158749878e-01   -2,976828218e-01    0,000000000e+00    0,000000000e+00    0,000000000e+00    0,000000000e+00
     1094000000   -3,529923409e-02   -9,260054678e-03   -5,186496377e-01   -2,487575077e-02    0,000000000e+00    0,000000000e+00    0,000000000e+00    0,000000000e+00
     1108000000   -3,496074677e-02   -3,061618842e-02   -4,432200491e-01    2,841507196e-01    0,000000000e+00    0,000000000e+00    0,000000000e+00    0,000000000e+00
     1122000000   -3,429701179e-02   -5,929318070e-02   -1,892379671e-01    4,977687001e-01    0,000000000e+00    0,000000000e+00    0,000000000e+00    0,000000000e+00
     1136000000   -4,334229976e-02   -9,080757201e-02    1,493737102e-01    5,180034041e-01    0,000000000e+00    0,000000000e+00    0,000000000e+00    0,000000000e+00
     1150000000   -8,589718491e-02   -1,233039647e-01    4,553847015e-01    3,441928625e-01    0,000000000e+00    0,000000000e+00    0,000000000e+00    0,000000000e+00
     1164000000   -1,376352161e-01   -1,194932610e-01    6,139554381e-01    1,013555843e-02    0,000000000e+00    0,000000000e+00    0,000000000e+00    0,000000000e+00
     1178000000   -1,782477796e-01   -8,439012617e-02    5,411248207e-01   -3,713238239e-01    0,000000000e+00    0,000000000e+00    0,000000000e+00    0,000000000e+00
     1192000000   -1,813593656e-01   -5,644483119e-02    2,364235967e-01   -6,366856694e-01    0,000000000e+00    0,000000000e+00    0,000000000e+00    0,000000000e+00
     1206000000   -1,929249913e-01   -5,549336970e-02   -1,398748606e-01   -6,618905067e-01    0,000000000e+00    0,000000000e+00    0,000000000e+00    0,000000000e+00
     1220000000   -2,568373084e-01   -1,084942184e-02   -4,188859463e-01   -4,809868634e-01    0,000000000e+00    0,000000000e+00    0,000000000e+00    0,000000000e+00
     1234000000   -2,393207550e-01    1,142652035e-01   -5,574547648e-01   -2,517794669e-01    0,000000000e+00    0,000000000e+00    0,000000000e+00    0,000000000e+00
     1248000000   -1,132417023e-01    1,773343682e-01   -6,043503284e-01    2,594115585e-02    0,000000000e+00    0,000000000e+00    0,000000000e+00    0,000000000e+00
     1262000000    3,971300321e-04    1,317092180e-01   -5,074877739e-01    2,943982184e-01    0,000000000e+00    0,000000000e+00    0,000000000e+00    0,000000000e+00
     1276000000    5,944958702e-02    4,096864536e-02   -2,789193094e-01    4,900945127e-01    0,000000000e+00    0,000000000e+00    0,000000000e+00    0,000000000e+00
     1290000000    7,148786634e-02   -6,949561089e-02    1,209549978e-02    5,507977009e-01    0,000000000e+00    0,000000000e+00    0,000000000e+00    0,000000000e+00
     1304000000    1,726800762e-02   -1,813411713e-01    2,926807404e-01    4,839749634e-01    0,000000000e+00    0,000000000e+00    0,000000000e+00    0,000000000e+00
     1318000000   -9,187544882e-02   -2,471577078e-01    5,420091748e-01    2,712706625e-01    0,000000000e+00    0,000000000e+00    0,000000000e+00    0,000000000e+00
     1332000000   -2,460760623e-01   -2,413025200e-01    6,395066977e-01   -5,338848755e-02    0,000000000e+00    0,000000000e+00    0,000000000e+00    0,000000000e+00
     1346000000   -3,607505560e-01   -1,407277584e-01    5,505626798e-01   -4,089193940e-01    0,000000000e+00    0,000000000e+00    0,000000000e+00    0,000000000e+00
     1360000000   -3,848815262e-01    1,329391822e-02    2,559419274e-01   -6,300022602e-01    0,000000000e+00    0,000000000e+00    0,000000000e+00    0,000000000e+00
     1374000000   -3,312772214e-01    1,226038337e-01   -1,101425439e-01   -6,227813363e-01    0,000000000e+00    0,000000000e+00    0,000000000e+00    0,000000000e+00
     1388000000   -2,317725122e-01    1,689547002e-01   -3,707490563e-01   -4,211220741e-01    0,000000000e+00    0,000000000e+00    0,000000000e+00    0,000000000e+00
     1402000000   -1,556646675e-01    1,700063944e-01   -4,777094722e-01   -1,100261584e-01    0,000000000e+00    0,000000000e+00    0,000000000e+00    0,000000000e+00
     1416000000   -8,771333843e-02    1,375655532e-01   -3,901958466e-01    2,082917541e-01    0,000000000e+00    0,000000000e+00    0,000000000e+00    0,000000000e+00
     1430000000   -3,319685906e-02    8,358390629e-02   -1,696321815e-01    4,266917706e-01    0,000000000e+00    0,000000000e+00    0,000000000e+00    0,000000000e+00
     1444000000   -1,030525193e-02    3,756501013e-03    1,150569394e-01    5,202465653e-01    0,000000000e+00    0,000000000e+00    0,000000000e+00    0,000000000e+00
     1458000000   -4,833938181e-02   -8,134644479e-02    4,361505508e-01    4,987882078e-01    0,000000000e+00    0,000000000e+00    0,000000000e+00    0,000000000e+00
     1472000000   -1,290542185e-01   -1,514487565e-01    7,278767228e-01    3,054650128e-01    0,000000000e+00    0,000000000e+00    0,000000000e+00    0,000000000e+00
     1486000000   -2,401974946e-01   -1,394683421e-01    8,923925757e-01   -3,447499126e-02    0,000000000e+00    0,000000000e+00    0,000000000e+00    0,000000000e+00
     1500000000   -3,003555834e-01   -6,821303070e-02    8,331069350e-01   -4,291453362e-01    0,000000000e+00    0,000000000e+00    0,000000000e+00    0,000000000e+00
