! NanoVNA-App
! Date: 2025-09-25 14:55:28
! Start: 100MHz Stop: 1,5GHz Points: 101
! S-Parameter data: F S11 S21 S12 S22
# Hz S RI R 50
!     Frequency           S11_Real           S11_Imag           S21_Real           S21_Imag           S12_Real           S12_Imag           S22_Real           S22_Imag
      100000000    3,558972105e-02    2,691795118e-02    4,406809509e-01   -6,696375608e-01    0,000000000e+00    0,000000000e+00    0,000000000e+00    0,000000000e+00
      114000000    6,045707315e-02    1,689654309e-03    1,265869942e-02   -7,955187559e-01    0,000000000e+00    0,000000000e+00    0,000000000e+00    0,000000000e+00
      128000000    6,782831252e-02   -4,259509593e-02   -4,084691703e-01   -6,780782342e-01    0,000000000e+00    0,000000000e+00    0,000000000e+00    0,000000000e+00
      142000000    4,267073795e-02   -8,884596825e-02   -7,056182027e-01   -3,608782291e-01    0,000000000e+00    0,000000000e+00    0,000000000e+00    0,000000000e+00
      156000000   -1,041468233e-02   -1,090787575e-01   -7,930829525e-01    6,727889180e-02    0,000000000e+00    0,000000000e+00    0,000000000e+00    0,000000000e+00
      170000000   -6,321820617e-02   -9,084340185e-02   -6,367219687e-01    4,868202209e-01    0,000000000e+00    0,000000000e+00    0,000000000e+00    0,000000000e+00
      184000000   -8,859927952e-02   -4,645031691e-02   -2,726379931e-01    7,562527061e-01    0,000000000e+00    0,000000000e+00    0,000000000e+00    0,000000000e+00
      198000000   -8,198764920e-02   -5,270491354e-03    1,799227446e-01    7,821134329e-01    0,000000000e+00    0,000000000e+00    0,000000000e+00    0,000000000e+00
      212000000   -6,133366004e-02    1,869307086e-02    5,707658529e-01    5,577987432e-01    0,000000000e+00    0,000000000e+00    0,000000000e+00    0,000000000e+00
      226000000   -3,992773220e-02    3,159705549e-02    7,768388987e-01    1,616422534e-01    0,000000000e+00    0,000000000e+00    0,000000000e+00    0,000000000e+00
      240000000   -1,365862228e-02    4,027853161e-02    7,359302640e-01   -2,789235413e-01    0,000000000e+00    0,000000000e+00    0,000000000e+00    0,000000000e+00
      254000000    2,195739001e-02    3,461904824e-02    4,676865637e-01   -6,222146153e-01    0,000000000e+00    0,000000000e+00    0,000000000e+00    0,000000000e+00
      268000000    5,288648233e-02    2,920761704e-03    6,653877348e-02   -7,675637603e-01    0,000000000e+00    0,000000000e+00    0,000000000e+00    0,000000000e+00
      282000000    5,596965924e-02   -4,627323523e-02   -3,458733857e-01   -6,831634045e-01    0,000000000e+00    0,000000000e+00    0,000000000e+00    0,000000000e+00
      296000000    2,413289435e-02   -8,519715071e-02   -6,556720734e-01   -3,971853554e-01    0,000000000e+00    0,000000000e+00    0,000000000e+00    0,000000000e+00
      310000000   -2,103716694e-02   -8,898068964e-02   -7,746191025e-01    1,204747707e-02    0,000000000e+00    0,000000000e+00    0,000000000e+00    0,000000000e+00
      324000000   -4,815203696e-02   -6,183160096e-02   -6,474214196e-01    4,300900400e-01    0,000000000e+00    0,000000000e+00    0,000000000e+00    0,000000000e+00
      338000000   -4,150237143e-02   -3,567826748e-02   -3,086391389e-01    7,120681405e-01    0,000000000e+00    0,000000000e+00    0,000000000e+00    0,000000000e+00
      352000000   -2,260038815e-02   -3,553875163e-02    1,193052009e-01    7,572209835e-01    0,000000000e+00    0,000000000e+00    0,000000000e+00    0,000000000e+00
      366000000   -2,105535753e-02   -5,485398322e-02    5,038850307e-01    5,715141892e-01    0,000000000e+00    0,000000000e+00    0,000000000e+00    0,000000000e+00
      380000000   -4,227139801e-02   -6,497306377e-02    7,262499332e-01    2,110865116e-01    0,000000000e+00    0,000000000e+00    0,000000000e+00    0,000000000e+00
      394000000   -6,429204345e-02   -5,141587183e-02    7,223132849e-01   -2,128364146e-01    0,000000000e+00    0,000000000e+00    0,000000000e+00    0,000000000e+00
      408000000   -6,617939472e-02   -2,793101966e-02    4,892804027e-01   -5,680522323e-01    0,000000000e+00    0,000000000e+00    0,000000000e+00    0,000000000e+00
      422000000   -5,316540226e-02   -1,747143455e-02    1,050849631e-01   -7,386655807e-01    0,000000000e+00    0,000000000e+00    0,000000000e+00    0,000000000e+00
      436000000   -4,689264297e-02   -2,085360885e-02   -3,061400652e-01   -6,769730449e-01    0,000000000e+00    0,000000000e+00    0,000000000e+00    0,000000000e+00
      450000000   -5,390551314e-02   -1,621473767e-02   -6,197234988e-01   -4,001036584e-01    0,000000000e+00    0,000000000e+00    0,000000000e+00    0,000000000e+00
      464000000   -5,240480602e-02    5,777861457e-03   -7,302460074e-01    3,825777909e-03    0,000000000e+00    0,000000000e+00    0,000000000e+00    0,000000000e+00
      478000000   -2,250298113e-02    2,763432823e-02   -5,995336771e-01    3,983665705e-01    0,000000000e+00    0,000000000e+00    0,000000000e+00    0,000000000e+00
      492000000    2,652550675e-02    1,700966619e-02   -2,799271941e-01    6,452256441e-01    0,000000000e+00    0,000000000e+00    0,000000000e+00    0,000000000e+00
      506000000    5,834692717e-02   -3,450985253e-02    1,045826226e-01    6,818588376e-01    0,000000000e+00    0,000000000e+00    0,000000000e+00    0,000000000e+00
      520000000    4,494915903e-02   -9,936038405e-02    4,392834902e-01    5,184317231e-01    0,000000000e+00    0,000000000e+00    0,000000000e+00    0,000000000e+00
      534000000   -9,429522790e-03   -1,414506584e-01    6,517605186e-01    2,071574032e-01    0,000000000e+00    0,000000000e+00    0,000000000e+00    0,000000000e+00
      548000000   -7,637460530e-02   -1,396740824e-01    6,635763645e-01   -1,760968864e-01    0,000000000e+00    0,000000000e+00    0,000000000e+00    0,000000000e+00
      562000000   -1,255160421e-01   -1,024965569e-01    4,548128843e-01   -5,110338330e-01    0,000000000e+00    0,000000000e+00    0,000000000e+00    0,000000000e+00
      576000000   -1,484472752e-01   -5,020023510e-02    8,523819596e-02   -6,713960171e-01    0,000000000e+00    0,000000000e+00    0,000000000e+00    0,000000000e+00
      590000000   -1,468358934e-01    1,597266644e-02   -3,089290559e-01   -5,838758945e-01    0,000000000e+00    0,000000000e+00    0,000000000e+00    0,000000000e+00
      604000000   -7,252991945e-02    9,794073552e-02   -5,340251327e-01   -2,445924282e-01    0,000000000e+00    0,000000000e+00    0,000000000e+00    0,000000000e+00
      618000000    1,010581926e-01    6,336017512e-03   -4,244061708e-01    3,643776057e-03    0,000000000e+00    0,000000000e+00    0,000000000e+00    0,000000000e+00
      632000000   -4,920328036e-02   -1,502306163e-01   -5,168440342e-01    1,116492823e-01    0,000000000e+00    0,000000000e+00    0,000000000e+00    0,000000000e+00
      646000000   -1,310423315e-01   -3,888458014e-02   -4,145833254e-01    4,716382921e-01    0,000000000e+00    0,000000000e+00    0,000000000e+00    0,000000000e+00
      660000000   -7,870992273e-02    2,413368970e-02   -6,055530161e-02    6,435104609e-01    0,000000000e+00    0,000000000e+00    0,000000000e+00    0,000000000e+00
      674000000   -2,672643773e-02    1,580435969e-02    3,040776551e-01    5,649119616e-01    0,000000000e+00    0,000000000e+00    0,000000000e+00    0,000000000e+00
      688000000   -8,701220155e-03   -1,476644259e-02    5,570325851e-01    3,070863187e-01    0,000000000e+00    0,000000000e+00    0,000000000e+00    0,000000000e+00
      702000000   -8,618169464e-03   -3,657095879e-02    6,298783422e-01   -4,248420149e-02    0,000000000e+00    0,000000000e+00    0,000000000e+00    0,000000000e+00
      716000000   -7,888969965e-03   -5,228720605e-02    4,965718985e-01   -3,759047985e-01    0,000000000e+00    0,000000000e+00    0,000000000e+00    0,000000000e+00
      730000000   -8,237717673e-03   -7,953987271e-02    2,107770741e-01   -5,763821602e-01    0,000000000e+00    0,000000000e+00    0,000000000e+00    0,000000000e+00
      744000000   -2,892362326e-02   -1,134701148e-01   -1,299664825e-01   -5,949786305e-01    0,000000000e+00    0,000000000e+00    0,000000000e+00    0,000000000e+00
      758000000   -7,926821709e-02   -1,336779594e-01   -4,290389419e-01   -4,351814687e-01    0,000000000e+00    0,000000000e+00    0,000000000e+00    0,000000000e+00
      772000000   -1,400272548e-01   -1,118374094e-01   -6,036711335e-01   -1,355537921e-01    0,000000000e+00    0,000000000e+00    0,000000000e+00    0,000000000e+00
      786000000   -1,730470806e-01   -5,251361802e-02   -5,866515040e-01    2,205087543e-01    0,000000000e+00    0,000000000e+00    0,000000000e+00    0,000000000e+00
      800000000   -1,550761610e-01    1,187043637e-02   -3,710840940e-01    5,075094104e-01    0,000000000e+00    0,000000000e+00    0,000000000e+00    0,000000000e+00
      814000000   -1,071854532e-01    4,361835122e-02   -3,480506316e-02    6,207656860e-01    0,000000000e+00    0,000000000e+00    0,000000000e+00    0,000000000e+00
      828000000   -6,257895380e-02    3,919520974e-02    2,973422110e-01    5,408766270e-01    0,000000000e+00    0,000000000e+00    0,000000000e+00    0,000000000e+00
      842000000   -3,713990375e-02    2,164261602e-02    5,311706066e-01    2,988059223e-01    0,000000000e+00    0,000000000e+00    0,000000000e+00    0,000000000e+00
      856000000   -2,201928012e-02    5,242442712e-03    6,001794338e-01   -2,566608600e-02    0,000000000e+00    0,000000000e+00    0,000000000e+00    0,000000000e+00
      870000000   -5,213816650e-03   -1,457721647e-02    4,843140841e-01   -3,310243785e-01    0,000000000e+00    0,000000000e+00    0,000000000e+00    0,000000000e+00
      884000000    5,264915992e-03   -5,030674487e-02    2,300862074e-01   -5,229032040e-01    0,000000000e+00    0,000000000e+00    0,000000000e+00    0,000000000e+00
      898000000   -9,376707487e-03   -9,566289186e-02   -7,504145801e-02   -5,559492111e-01    0,000000000e+00    0,000000000e+00    0,000000000e+00    0,000000000e+00
      912000000   -6,250906736e-02   -1,239835769e-01   -3,985926509e-01   -4,133797586e-01    0,000000000e+00    0,000000000e+00    0,000000000e+00    0,000000000e+00
      926000000   -1,208746806e-01   -1,124397367e-01   -5,718689561e-01   -1,284786612e-01    0,000000000e+00    0,000000000e+00    0,000000000e+00    0,000000000e+00
      940000000   -1,572918743e-01   -6,234546378e-02   -5,624828935e-01    2,117849290e-01    0,000000000e+00    0,000000000e+00    0,000000000e+00    0,000000000e+00
      954000000   -1,408637315e-01   -1,985960174e-03   -3,581421077e-01    4,971026182e-01    0,000000000e+00    0,000000000e+00    0,000000000e+00    0,000000000e+00
      968000000   -9,908699989e-02    2,180171944e-02   -3,065042384e-02    6,154396534e-01    0,000000000e+00    0,000000000e+00    0,000000000e+00    0,000000000e+00
      982000000   -5,577255785e-02    3,591361921e-03    2,989808321e-01    5,392682552e-01    0,000000000e+00    0,000000000e+00    0,000000000e+00    0,000000000e+00
      996000000   -4,405655339e-02   -2,692330629e-02    5,341040492e-01    3,013393283e-01    0,000000000e+00    0,000000000e+00    0,000000000e+00    0,000000000e+00
     1010000000   -5,380827934e-02   -6,423551589e-02    5,948185325e-01   -1,319957245e-02    0,000000000e+00    0,000000000e+00    0,000000000e+00    0,000000000e+00
     1024000000   -9,292349219e-02   -8,259085566e-02    4,824495912e-01   -2,915641665e-01    0,000000000e+00    0,000000000e+00    0,000000000e+00    0,000000000e+00
     1038000000   -1,369755268e-01   -7,772733271e-02    2,757465243e-01   -4,508168399e-01    0,000000000e+00    0,000000000e+00    0,000000000e+00    0,000000000e+00
     1052000000   -1,664266288e-01   -2,087391727e-02    3,317487612e-02   -5,140870810e-01    0,000000000e+00    0,000000000e+00    0,000000000e+00    0,000000000e+00
     1066000000   -1,346839219e-01    3,220643848e-02   -2,260070145e-01   -4,600807130e-01    0,000000000e+00    0,000000000e+00    0,000000000e+00    0,000000000e+00
     1080000000   -8,327348530e-02    5,593848228e-02   -4,255915284e-01   -2,629187405e-01    0,000000000e+00    0,000000000e+00    0,000000000e+00    0,000000000e+00
     1094000000   -3,470693156e-02    3,943407908e-02   -4,870168865e-01    1,245221309e-02    0,000000000e+00    0,000000000e+00    0,000000000e+00    0,000000000e+00
     1108000000   -1,843762235e-03   -5,514052697e-03   -3,842020631e-01    2,765045166e-01    0,000000000e+00    0,000000000e+00    0,000000000e+00    0,000000000e+00
     1122000000    9,266717359e-03   -5,954480544e-02   -1,620566845e-01    4,407640696e-01    0,000000000e+00    0,000000000e+00    0,000000000e+00    0,000000000e+00
     1136000000   -1,870839670e-02   -1,220433488e-01    1,218955666e-01    4,728001654e-01    0,000000000e+00    0,000000000e+00    0,000000000e+00    0,000000000e+00
     1150000000   -7,869510353e-02   -1,510040015e-01    4,036251307e-01    3,350716531e-01    0,000000000e+00    0,000000000e+00    0,000000000e+00    0,000000000e+00
     1164000000   -1,521967798e-01   -1,441865265e-01    5,736432076e-01    3,743966669e-02    0,000000000e+00    0,000000000e+00    0,000000000e+00    0,000000000e+00
     1178000000   -2,074395120e-01   -1,007101312e-01    5,404210091e-01   -3,306987882e-01    0,000000000e+00    0,000000000e+00    0,000000000e+00    0,000000000e+00
     1192000000   -2,089179456e-01   -4,294861853e-02    2,694426179e-01   -6,191579103e-01    0,000000000e+00    0,000000000e+00    0,000000000e+00    0,000000000e+00
     1206000000   -2,020937800e-01   -2,305353060e-02   -1,161313429e-01   -6,774802208e-01    0,000000000e+00    0,000000000e+00    0,000000000e+00    0,000000000e+00
     1220000000   -2,292327136e-01    1,296492293e-03   -4,322273731e-01   -5,004124045e-01    0,000000000e+00    0,000000000e+00    0,000000000e+00    0,000000000e+00
     1234000000   -2,317125648e-01    1,032524705e-01   -5,684472322e-01   -2,282831669e-01    0,000000000e+00    0,000000000e+00    0,000000000e+00    0,000000000e+00
     1248000000   -1,216991842e-01    1,773174554e-01   -5,850204229e-01    3,293738142e-02    0,000000000e+00    0,000000000e+00    0,000000000e+00    0,000000000e+00
     1262000000    6,688711001e-04    1,403382570e-01   -4,895928204e-01    2,865170240e-01    0,000000000e+00    0,000000000e+00    0,000000000e+00    0,000000000e+00
     1276000000    6,813991815e-02    4,801372066e-02   -2,732736766e-01    4,752014875e-01    0,000000000e+00    0,000000000e+00    0,000000000e+00    0,000000000e+00
     1290000000    7,701439410e-02   -7,087856531e-02    1,507499837e-03    5,390574336e-01    0,000000000e+00    0,000000000e+00    0,000000000e+00    0,000000000e+00
     1304000000    2,841199748e-02   -1,846141219e-01    2,869718373e-01    4,655539095e-01    0,000000000e+00    0,000000000e+00    0,000000000e+00    0,000000000e+00
     1318000000   -8,908751607e-02   -2,631762028e-01    5,200391412e-01    2,643277049e-01    0,000000000e+00    0,000000000e+00    0,000000000e+00    0,000000000e+00
     1332000000   -2,423615456e-01   -2,547762990e-01    6,445947289e-01   -4,406142235e-02    0,000000000e+00    0,000000000e+00    0,000000000e+00    0,000000000e+00
     1346000000   -3,710941076e-01   -1,454046071e-01    5,442880392e-01   -3,946134448e-01    0,000000000e+00    0,000000000e+00    0,000000000e+00    0,000000000e+00
     1360000000   -3,935618401e-01    6,964502856e-03    2,566344440e-01   -6,207209229e-01    0,000000000e+00    0,000000000e+00    0,000000000e+00    0,000000000e+00
     1374000000   -3,378784060e-01    1,201543882e-01   -9,551930428e-02   -6,194282174e-01    0,000000000e+00    0,000000000e+00    0,000000000e+00    0,000000000e+00
     1388000000   -2,472721189e-01    1,697379649e-01   -3,639496863e-01   -4,235911369e-01    0,000000000e+00    0,000000000e+00    0,000000000e+00    0,000000000e+00
     1402000000   -1,537970304e-01    1,827870905e-01   -4,664026201e-01   -9,611326456e-02    0,000000000e+00    0,000000000e+00    0,000000000e+00    0,000000000e+00
     1416000000   -8,039967716e-02    1,561491489e-01   -3,794951141e-01    1,953387707e-01    0,000000000e+00    0,000000000e+00    0,000000000e+00    0,000000000e+00
     1430000000   -2,544173412e-02    9,093198180e-02   -1,656645685e-01    3,935895860e-01    0,000000000e+00    0,000000000e+00    0,000000000e+00    0,000000000e+00
     1444000000   -2,393221017e-03    6,896878127e-03    1,215920597e-01    5,156958103e-01    0,000000000e+00    0,000000000e+00    0,000000000e+00    0,000000000e+00
     1458000000   -3,039521910e-02   -7,705250382e-02    4,176846147e-01    4,854291081e-01    0,000000000e+00    0,000000000e+00    0,000000000e+00    0,000000000e+00
     1472000000   -1,173719764e-01   -1,449739337e-01    7,046725750e-01    3,151125014e-01    0,000000000e+00    0,000000000e+00    0,000000000e+00    0,000000000e+00
     1486000000   -2,126180828e-01   -1,487049311e-01    9,037853479e-01   -1,397084445e-02    0,000000000e+00    0,000000000e+00    0,000000000e+00    0,000000000e+00
     1500000000   -3,086734116e-01   -8,819832653e-02    8,414785266e-01   -4,130187929e-01    0,000000000e+00    0,000000000e+00    0,000000000e+00    0,000000000e+00
