! NanoVNA-App
! Date: 2025-09-25 15:02:05
! Start: 100MHz Stop: 1,5GHz Points: 101
! S-Parameter data: F S11 S21 S12 S22
# Hz S RI R 50
!     Frequency           S11_Real           S11_Imag           S21_Real           S21_Imag           S12_Real           S12_Imag           S22_Real           S22_Imag
      100000000    3,557006270e-02    2,735819668e-02    4,407600462e-01   -6,695035696e-01    0,000000000e+00    0,000000000e+00    0,000000000e+00    0,000000000e+00
      114000000    6,071228907e-02    2,180976793e-03    1,277294289e-02   -7,952304482e-01    0,000000000e+00    0,000000000e+00    0,000000000e+00    0,000000000e+00
      128000000    6,838802248e-02   -4,224537686e-02   -4,080256820e-01   -6,779252887e-01    0,000000000e+00    0,000000000e+00    0,000000000e+00    0,000000000e+00
      142000000    4,349245876e-02   -8,877440542e-02   -7,054970860e-01   -3,610918522e-01    0,000000000e+00    0,000000000e+00    0,000000000e+00    0,000000000e+00
      156000000   -8,781917393e-03   -1,102673411e-01   -7,942417860e-01    6,796988845e-02    0,000000000e+00    0,000000000e+00    0,000000000e+00    0,000000000e+00
      170000000   -6,274776161e-02   -9,181123227e-02   -6,368908882e-01    4,861716330e-01    0,000000000e+00    0,000000000e+00    0,000000000e+00    0,000000000e+00
      184000000   -8,861058205e-02   -4,771732166e-02   -2,731363177e-01    7,558308244e-01    0,000000000e+00    0,000000000e+00    0,000000000e+00    0,000000000e+00
      198000000   -8,276080340e-02   -6,441802718e-03    1,795742214e-01    7,824997902e-01    0,000000000e+00    0,000000000e+00    0,000000000e+00    0,000000000e+00
      212000000   -6,277575344e-02    1,807670295e-02    5,705020428e-01    5,585711002e-01    0,000000000e+00    0,000000000e+00    0,000000000e+00    0,000000000e+00
      226000000   -4,150249064e-02    3,180592507e-02    7,767173052e-01    1,620642692e-01    0,000000000e+00    0,000000000e+00    0,000000000e+00    0,000000000e+00
      240000000   -1,491012704e-02    4,128012061e-02    7,360674739e-01   -2,786176205e-01    0,000000000e+00    0,000000000e+00    0,000000000e+00    0,000000000e+00
      254000000    2,138859965e-02    3,633528203e-02    4,680850208e-01   -6,220347881e-01    0,000000000e+00    0,000000000e+00    0,000000000e+00    0,000000000e+00
      268000000    5,333320051e-02    4,721228499e-03    6,698979437e-02   -7,670630813e-01    0,000000000e+00    0,000000000e+00    0,000000000e+00    0,000000000e+00
      282000000    5,748485774e-02   -4,494574293e-02   -3,454624712e-01   -6,825525165e-01    0,000000000e+00    0,000000000e+00    0,000000000e+00    0,000000000e+00
      296000000    2,606827021e-02   -8,471812308e-02   -6,552889347e-01   -3,978202939e-01    0,000000000e+00    0,000000000e+00    0,000000000e+00    0,000000000e+00
      310000000   -1,889181510e-02   -8,927804977e-02   -7,739455700e-01    9,811038151e-03    0,000000000e+00    0,000000000e+00    0,000000000e+00    0,000000000e+00
      324000000   -4,665770382e-02   -6,345529854e-02   -6,473956704e-01    4,300381541e-01    0,000000000e+00    0,000000000e+00    0,000000000e+00    0,000000000e+00
      338000000   -4,109460115e-02   -3,772343323e-02   -3,108935952e-01    7,079873681e-01    0,000000000e+00    0,000000000e+00    0,000000000e+00    0,000000000e+00
      352000000   -2,346356027e-02   -3,790948913e-02    1,193857864e-01    7,578925490e-01    0,000000000e+00    0,000000000e+00    0,000000000e+00    0,000000000e+00
      366000000   -2,312918752e-02   -5,622899905e-02    5,027630925e-01    5,714836717e-01    0,000000000e+00    0,000000000e+00    0,000000000e+00    0,000000000e+00
      380000000   -4,491290078e-02   -6,523025781e-02    7,262980938e-01    2,117512524e-01    0,000000000e+00    0,000000000e+00    0,000000000e+00    0,000000000e+00
      394000000   -6,645243615e-02   -5,057862774e-02    7,224291563e-01   -2,126419246e-01    0,000000000e+00    0,000000000e+00    0,000000000e+00    0,000000000e+00
      408000000   -6,758819520e-02   -2,622270212e-02    4,903253615e-01   -5,680731535e-01    0,000000000e+00    0,000000000e+00    0,000000000e+00    0,000000000e+00
      422000000   -5,317943543e-02   -1,528541744e-02    1,055638865e-01   -7,389401793e-01    0,000000000e+00    0,000000000e+00    0,000000000e+00    0,000000000e+00
      436000000   -4,648728669e-02   -1,840073802e-02   -3,058501184e-01   -6,752560735e-01    0,000000000e+00    0,000000000e+00    0,000000000e+00    0,000000000e+00
      450000000   -5,158882961e-02   -1,495415810e-02   -6,191173196e-01   -3,996177316e-01    0,000000000e+00    0,000000000e+00    0,000000000e+00    0,000000000e+00
      464000000   -5,014481023e-02    5,774379242e-03   -7,295396924e-01    3,476104932e-03    0,000000000e+00    0,000000000e+00    0,000000000e+00    0,000000000e+00
      478000000   -2,063866146e-02    2,607494406e-02   -5,985408425e-01    3,971629143e-01    0,000000000e+00    0,000000000e+00    0,000000000e+00    0,000000000e+00
      492000000    2,782588452e-02    1,473764610e-02   -2,810042202e-01    6,449618936e-01    0,000000000e+00    0,000000000e+00    0,000000000e+00    0,000000000e+00
      506000000    5,866022035e-02   -3,733639792e-02    1,046712473e-01    6,799625158e-01    0,000000000e+00    0,000000000e+00    0,000000000e+00    0,000000000e+00
      520000000    4,438061640e-02   -1,026382819e-01    4,426151812e-01    5,198941231e-01    0,000000000e+00    0,000000000e+00    0,000000000e+00    0,000000000e+00
      534000000   -1,244789734e-02   -1,430952549e-01    6,498540044e-01    2,070437074e-01    0,000000000e+00    0,000000000e+00    0,000000000e+00    0,000000000e+00
      548000000   -8,104483038e-02   -1,389033347e-01    6,604220867e-01   -1,751120985e-01    0,000000000e+00    0,000000000e+00    0,000000000e+00    0,000000000e+00
      562000000   -1,293381155e-01   -9,824729711e-02    4,523721039e-01   -5,081993937e-01    0,000000000e+00    0,000000000e+00    0,000000000e+00    0,000000000e+00
      576000000   -1,477910280e-01   -4,082143679e-02    8,523201197e-02   -6,623970866e-01    0,000000000e+00    0,000000000e+00    0,000000000e+00    0,000000000e+00
      590000000   -1,319495589e-01    2,302236669e-02   -2,956798077e-01   -5,726225376e-01    0,000000000e+00    0,000000000e+00    0,000000000e+00    0,000000000e+00
      604000000   -5,155697465e-02    7,007969916e-02   -5,037806630e-01   -2,719061077e-01    0,000000000e+00    0,000000000e+00    0,000000000e+00    0,000000000e+00
      618000000    3,955292702e-02   -1,112361252e-02   -4,922393858e-01   -2,722841129e-02    0,000000000e+00    0,000000000e+00    0,000000000e+00    0,000000000e+00
      632000000   -3,751165420e-02   -9,956163168e-02   -5,069924593e-01    1,720936745e-01    0,000000000e+00    0,000000000e+00    0,000000000e+00    0,000000000e+00
      646000000   -1,023999006e-01   -4,510324076e-02   -3,796115518e-01    4,651161134e-01    0,000000000e+00    0,000000000e+00    0,000000000e+00    0,000000000e+00
      660000000   -7,519600540e-02    7,386901882e-03   -5,740080029e-02    6,229631305e-01    0,000000000e+00    0,000000000e+00    0,000000000e+00    0,000000000e+00
      674000000   -3,345060721e-02    7,826966234e-03    2,943926752e-01    5,549959540e-01    0,000000000e+00    0,000000000e+00    0,000000000e+00    0,000000000e+00
      688000000   -1,598402113e-02   -1,510295831e-02    5,456994176e-01    3,063955605e-01    0,000000000e+00    0,000000000e+00    0,000000000e+00    0,000000000e+00
      702000000   -1,296035573e-02   -3,190798312e-02    6,199489832e-01   -3,960074112e-02    0,000000000e+00    0,000000000e+00    0,000000000e+00    0,000000000e+00
      716000000   -8,541818708e-03   -4,809119925e-02    4,941236675e-01   -3,670540452e-01    0,000000000e+00    0,000000000e+00    0,000000000e+00    0,000000000e+00
      730000000   -5,531348754e-03   -7,500956208e-02    2,142972052e-01   -5,678055882e-01    0,000000000e+00    0,000000000e+00    0,000000000e+00    0,000000000e+00
      744000000   -2,552930824e-02   -1,130208969e-01   -1,219421998e-01   -5,900013447e-01    0,000000000e+00    0,000000000e+00    0,000000000e+00    0,000000000e+00
      758000000   -7,465673238e-02   -1,348751187e-01   -4,196513593e-01   -4,337772429e-01    0,000000000e+00    0,000000000e+00    0,000000000e+00    0,000000000e+00
      772000000   -1,374166012e-01   -1,165631488e-01   -5,947244167e-01   -1,412248909e-01    0,000000000e+00    0,000000000e+00    0,000000000e+00    0,000000000e+00
      786000000   -1,731904298e-01   -5,818083510e-02   -5,834895372e-01    2,102174610e-01    0,000000000e+00    0,000000000e+00    0,000000000e+00    0,000000000e+00
      800000000   -1,596509367e-01    7,971605286e-03   -3,745784760e-01    4,957587123e-01    0,000000000e+00    0,000000000e+00    0,000000000e+00    0,000000000e+00
      814000000   -1,130271330e-01    4,382248968e-02   -4,617970809e-02    6,167209744e-01    0,000000000e+00    0,000000000e+00    0,000000000e+00    0,000000000e+00
      828000000   -6,695363671e-02    4,473699257e-02    2,858074307e-01    5,418021679e-01    0,000000000e+00    0,000000000e+00    0,000000000e+00    0,000000000e+00
      842000000   -3,743623197e-02    2,812074497e-02    5,220057368e-01    3,066111505e-01    0,000000000e+00    0,000000000e+00    0,000000000e+00    0,000000000e+00
      856000000   -1,837884821e-02    1,042654552e-02    5,959967971e-01   -1,381118782e-02    0,000000000e+00    0,000000000e+00    0,000000000e+00    0,000000000e+00
      870000000    1,165862079e-03   -1,194654591e-02    4,882086217e-01   -3,188357651e-01    0,000000000e+00    0,000000000e+00    0,000000000e+00    0,000000000e+00
      884000000    1,218801923e-02   -5,075081438e-02    2,433465868e-01   -5,136236548e-01    0,000000000e+00    0,000000000e+00    0,000000000e+00    0,000000000e+00
      898000000   -4,221635871e-03   -1,002821252e-01   -5,880538747e-02   -5,556237102e-01    0,000000000e+00    0,000000000e+00    0,000000000e+00    0,000000000e+00
      912000000   -6,129243970e-02   -1,316222697e-01   -3,831839859e-01   -4,174720943e-01    0,000000000e+00    0,000000000e+00    0,000000000e+00    0,000000000e+00
      926000000   -1,263542175e-01   -1,204368919e-01   -5,669853687e-01   -1,483723223e-01    0,000000000e+00    0,000000000e+00    0,000000000e+00    0,000000000e+00
      940000000   -1,609140635e-01   -6,522502750e-02   -5,686911941e-01    1,932594180e-01    0,000000000e+00    0,000000000e+00    0,000000000e+00    0,000000000e+00
      954000000   -1,455126554e-01   -2,094342373e-03   -3,716972768e-01    4,846095443e-01    0,000000000e+00    0,000000000e+00    0,000000000e+00    0,000000000e+00
      968000000   -9,987843782e-02    2,054862492e-02   -5,169727653e-02    6,158557534e-01    0,000000000e+00    0,000000000e+00    0,000000000e+00    0,000000000e+00
      982000000   -5,542479083e-02    8,494046517e-03    2,817001641e-01    5,538020134e-01    0,000000000e+00    0,000000000e+00    0,000000000e+00    0,000000000e+00
      996000000   -4,187909514e-02   -3,428611904e-02    5,248245001e-01    3,251597583e-01    0,000000000e+00    0,000000000e+00    0,000000000e+00    0,000000000e+00
     1010000000   -6,406600028e-02   -6,622025371e-02    6,063280702e-01    1,309201028e-02    0,000000000e+00    0,000000000e+00    0,000000000e+00    0,000000000e+00
     1024000000   -9,751537442e-02   -7,567453384e-02    5,115169287e-01   -2,826629281e-01    0,000000000e+00    0,000000000e+00    0,000000000e+00    0,000000000e+00
     1038000000   -1,428423077e-01   -5,501842871e-02    2,975445390e-01   -4,697374403e-01    0,000000000e+00    0,000000000e+00    0,000000000e+00    0,000000000e+00
     1052000000   -1,466837078e-01   -8,869208978e-04    3,833214194e-02   -5,256502628e-01    0,000000000e+00    0,000000000e+00    0,000000000e+00    0,000000000e+00
     1066000000   -1,074651703e-01    3,612076864e-02   -2,126349360e-01   -4,671271741e-01    0,000000000e+00    0,000000000e+00    0,000000000e+00    0,000000000e+00
     1080000000   -5,747633055e-02    2,928222157e-02   -4,188498557e-01   -2,981604338e-01    0,000000000e+00    0,000000000e+00    0,000000000e+00    0,000000000e+00
     1094000000   -3,720136359e-02   -7,782062050e-03   -5,190740228e-01   -2,323366515e-02    0,000000000e+00    0,000000000e+00    0,000000000e+00    0,000000000e+00
     1108000000   -2,885571495e-02   -2,957827412e-02   -4,382577837e-01    2,841247022e-01    0,000000000e+00    0,000000000e+00    0,000000000e+00    0,000000000e+00
     1122000000   -3,271397948e-02   -5,510688946e-02   -1,846269369e-01    4,933792949e-01    0,000000000e+00    0,000000000e+00    0,000000000e+00    0,000000000e+00
     1136000000   -4,081796482e-02   -9,472968429e-02    1,488753855e-01    5,190808177e-01    0,000000000e+00    0,000000000e+00    0,000000000e+00    0,000000000e+00
     1150000000   -8,499576151e-02   -1,266986132e-01    4,522888064e-01    3,430553675e-01    0,000000000e+00    0,000000000e+00    0,000000000e+00    0,000000000e+00
     1164000000   -1,380087733e-01   -1,240243837e-01    6,089730859e-01    1,265087817e-02    0,000000000e+00    0,000000000e+00    0,000000000e+00    0,000000000e+00
     1178000000   -1,731580049e-01   -8,435005695e-02    5,392986536e-01   -3,690110445e-01    0,000000000e+00    0,000000000e+00    0,000000000e+00    0,000000000e+00
     1192000000   -1,765821576e-01   -5,191280693e-02    2,418859452e-01   -6,377146244e-01    0,000000000e+00    0,000000000e+00    0,000000000e+00    0,000000000e+00
     1206000000   -1,893635094e-01   -5,703438818e-02   -1,414526999e-01   -6,652134657e-01    0,000000000e+00    0,000000000e+00    0,000000000e+00    0,000000000e+00
     1220000000   -2,489677221e-01   -1,645394787e-02   -4,204564989e-01   -4,828435481e-01    0,000000000e+00    0,000000000e+00    0,000000000e+00    0,000000000e+00
     1234000000   -2,434587777e-01    1,115379259e-01   -5,571134090e-01   -2,533516288e-01    0,000000000e+00    0,000000000e+00    0,000000000e+00    0,000000000e+00
     1248000000   -1,171362698e-01    1,676973999e-01   -6,070394516e-01    1,703404821e-02    0,000000000e+00    0,000000000e+00    0,000000000e+00    0,000000000e+00
     1262000000    1,679197070e-03    1,307671219e-01   -5,058271885e-01    2,974237502e-01    0,000000000e+00    0,000000000e+00    0,000000000e+00    0,000000000e+00
     1276000000    5,870760977e-02    3,912286088e-02   -2,846498191e-01    4,869062006e-01    0,000000000e+00    0,000000000e+00    0,000000000e+00    0,000000000e+00
     1290000000    7,221863419e-02   -7,364954799e-02    1,434565056e-02    5,416668653e-01    0,000000000e+00    0,000000000e+00    0,000000000e+00    0,000000000e+00
     1304000000    1,570222154e-02   -1,798884571e-01    2,979420424e-01    4,758188725e-01    0,000000000e+00    0,000000000e+00    0,000000000e+00    0,000000000e+00
     1318000000   -9,144310653e-02   -2,490326762e-01    5,445426106e-01    2,736221254e-01    0,000000000e+00    0,000000000e+00    0,000000000e+00    0,000000000e+00
     1332000000   -2,420562506e-01   -2,440743148e-01    6,530858874e-01   -5,345037952e-02    0,000000000e+00    0,000000000e+00    0,000000000e+00    0,000000000e+00
     1346000000   -3,600330651e-01   -1,466620862e-01    5,554745197e-01   -4,077464044e-01    0,000000000e+00    0,000000000e+00    0,000000000e+00    0,000000000e+00
     1360000000   -3,871170282e-01    1,008632965e-02    2,494702041e-01   -6,291861534e-01    0,000000000e+00    0,000000000e+00    0,000000000e+00    0,000000000e+00
     1374000000   -3,221483231e-01    1,132733002e-01   -1,040176228e-01   -6,322216392e-01    0,000000000e+00    0,000000000e+00    0,000000000e+00    0,000000000e+00
     1388000000   -2,403653115e-01    1,689583361e-01   -3,845930099e-01   -4,183622301e-01    0,000000000e+00    0,000000000e+00    0,000000000e+00    0,000000000e+00
     1402000000   -1,517844051e-01    1,721946150e-01   -4,798553586e-01   -1,115840077e-01    0,000000000e+00    0,000000000e+00    0,000000000e+00    0,000000000e+00
     1416000000   -8,175269514e-02    1,457836181e-01   -4,004997313e-01    2,057059109e-01    0,000000000e+00    0,000000000e+00    0,000000000e+00    0,000000000e+00
     1430000000   -3,315927833e-02    8,365148306e-02   -1,724402606e-01    4,130679369e-01    0,000000000e+00    0,000000000e+00    0,000000000e+00    0,000000000e+00
     1444000000   -1,188193727e-02    3,401126945e-03    1,144630611e-01    5,170933008e-01    0,000000000e+00    0,000000000e+00    0,000000000e+00    0,000000000e+00
     1458000000   -3,791346774e-02   -8,527736366e-02    4,430106878e-01    5,036636591e-01    0,000000000e+00    0,000000000e+00    0,000000000e+00    0,000000000e+00
     1472000000   -1,168819815e-01   -1,446560919e-01    7,442886829e-01    3,122631907e-01    0,000000000e+00    0,000000000e+00    0,000000000e+00    0,000000000e+00
     1486000000   -2,324080318e-01   -1,449801028e-01    8,957130909e-01   -4,764895141e-02    0,000000000e+00    0,000000000e+00    0,000000000e+00    0,000000000e+00
     1500000000   -3,109063208e-01   -6,410432607e-02    8,354089856e-01   -4,220876396e-01    0,000000000e+00    0,000000000e+00    0,000000000e+00    0,000000000e+00
