! NanoVNA-App
! Date: 2025-09-25 14:55:58
! Start: 100MHz Stop: 1,5GHz Points: 101
! S-Parameter data: F S11 S21 S12 S22
# Hz S RI R 50
!     Frequency           S11_Real           S11_Imag           S21_Real           S21_Imag           S12_Real           S12_Imag           S22_Real           S22_Imag
      100000000    3,561064601e-02    2,696374618e-02    4,407177567e-01   -6,696593165e-01    0,000000000e+00    0,000000000e+00    0,000000000e+00    0,000000000e+00
      114000000    6,049258634e-02    1,705617993e-03    1,270618383e-02   -7,955459952e-01    0,000000000e+00    0,000000000e+00    0,000000000e+00    0,000000000e+00
      128000000    6,783905625e-02   -4,262248427e-02   -4,083176553e-01   -6,782577634e-01    0,000000000e+00    0,000000000e+00    0,000000000e+00    0,000000000e+00
      142000000    4,275637120e-02   -8,887919784e-02   -7,053804994e-01   -3,608998656e-01    0,000000000e+00    0,000000000e+00    0,000000000e+00    0,000000000e+00
      156000000   -9,860474616e-03   -1,100028828e-01   -7,937703729e-01    6,858553737e-02    0,000000000e+00    0,000000000e+00    0,000000000e+00    0,000000000e+00
      170000000   -6,321750581e-02   -9,098088741e-02   -6,370327473e-01    4,868347049e-01    0,000000000e+00    0,000000000e+00    0,000000000e+00    0,000000000e+00
      184000000   -8,863414079e-02   -4,650327563e-02   -2,728439271e-01    7,565274835e-01    0,000000000e+00    0,000000000e+00    0,000000000e+00    0,000000000e+00
      198000000   -8,212476969e-02   -5,358088296e-03    1,798154563e-01    7,822866440e-01    0,000000000e+00    0,000000000e+00    0,000000000e+00    0,000000000e+00
      212000000   -6,146950275e-02    1,865018904e-02    5,707793832e-01    5,578600168e-01    0,000000000e+00    0,000000000e+00    0,000000000e+00    0,000000000e+00
      226000000   -4,010225832e-02    3,165998682e-02    7,767127752e-01    1,616284102e-01    0,000000000e+00    0,000000000e+00    0,000000000e+00    0,000000000e+00
      240000000   -1,373153925e-02    4,034684598e-02    7,360914946e-01   -2,789508998e-01    0,000000000e+00    0,000000000e+00    0,000000000e+00    0,000000000e+00
      254000000    2,191571333e-02    3,479265794e-02    4,680685401e-01   -6,220195293e-01    0,000000000e+00    0,000000000e+00    0,000000000e+00    0,000000000e+00
      268000000    5,295571685e-02    3,031889442e-03    6,678040326e-02   -7,676947713e-01    0,000000000e+00    0,000000000e+00    0,000000000e+00    0,000000000e+00
      282000000    5,613635480e-02   -4,621958733e-02   -3,457782567e-01   -6,834151149e-01    0,000000000e+00    0,000000000e+00    0,000000000e+00    0,000000000e+00
      296000000    2,421220019e-02   -8,516762406e-02   -6,554128528e-01   -3,974905610e-01    0,000000000e+00    0,000000000e+00    0,000000000e+00    0,000000000e+00
      310000000   -2,077583410e-02   -8,869875968e-02   -7,749205828e-01    1,190926880e-02    0,000000000e+00    0,000000000e+00    0,000000000e+00    0,000000000e+00
      324000000   -4,812999442e-02   -6,186495349e-02   -6,473557353e-01    4,301110804e-01    0,000000000e+00    0,000000000e+00    0,000000000e+00    0,000000000e+00
      338000000   -4,162873328e-02   -3,571840003e-02   -3,115234375e-01    7,100542188e-01    0,000000000e+00    0,000000000e+00    0,000000000e+00    0,000000000e+00
      352000000   -2,254002914e-02   -3,579326347e-02    1,200688332e-01    7,584121823e-01    0,000000000e+00    0,000000000e+00    0,000000000e+00    0,000000000e+00
      366000000   -2,143046260e-02   -5,485517904e-02    5,046871901e-01    5,716906786e-01    0,000000000e+00    0,000000000e+00    0,000000000e+00    0,000000000e+00
      380000000   -4,276499152e-02   -6,489265710e-02    7,257224917e-01    2,112866491e-01    0,000000000e+00    0,000000000e+00    0,000000000e+00    0,000000000e+00
      394000000   -6,483439356e-02   -5,159447342e-02    7,228025198e-01   -2,136869729e-01    0,000000000e+00    0,000000000e+00    0,000000000e+00    0,000000000e+00
      408000000   -6,636111438e-02   -2,798005939e-02    4,892311394e-01   -5,693181753e-01    0,000000000e+00    0,000000000e+00    0,000000000e+00    0,000000000e+00
      422000000   -5,316335335e-02   -1,722746715e-02    1,063677743e-01   -7,385014296e-01    0,000000000e+00    0,000000000e+00    0,000000000e+00    0,000000000e+00
      436000000   -4,698425531e-02   -2,066300623e-02   -3,049219549e-01   -6,774756908e-01    0,000000000e+00    0,000000000e+00    0,000000000e+00    0,000000000e+00
      450000000   -5,380960181e-02   -1,609184407e-02   -6,194853783e-01   -4,000599682e-01    0,000000000e+00    0,000000000e+00    0,000000000e+00    0,000000000e+00
      464000000   -5,255770311e-02    5,374938715e-03   -7,305342555e-01    3,289561020e-03    0,000000000e+00    0,000000000e+00    0,000000000e+00    0,000000000e+00
      478000000   -2,267746255e-02    2,770665661e-02   -5,995292664e-01    3,978980482e-01    0,000000000e+00    0,000000000e+00    0,000000000e+00    0,000000000e+00
      492000000    2,700314671e-02    1,670727693e-02   -2,802537978e-01    6,449543238e-01    0,000000000e+00    0,000000000e+00    0,000000000e+00    0,000000000e+00
      506000000    5,854702741e-02   -3,463719040e-02    1,051970646e-01    6,819545031e-01    0,000000000e+00    0,000000000e+00    0,000000000e+00    0,000000000e+00
      520000000    4,463020340e-02   -1,004178524e-01    4,452904761e-01    5,191228390e-01    0,000000000e+00    0,000000000e+00    0,000000000e+00    0,000000000e+00
      534000000   -9,701585397e-03   -1,419133097e-01    6,511790752e-01    2,067783624e-01    0,000000000e+00    0,000000000e+00    0,000000000e+00    0,000000000e+00
      548000000   -7,653214782e-02   -1,395412385e-01    6,636342406e-01   -1,756740063e-01    0,000000000e+00    0,000000000e+00    0,000000000e+00    0,000000000e+00
      562000000   -1,257478297e-01   -1,025960892e-01    4,556691945e-01   -5,109003782e-01    0,000000000e+00    0,000000000e+00    0,000000000e+00    0,000000000e+00
      576000000   -1,481678039e-01   -5,021246895e-02    8,646360040e-02   -6,715488434e-01    0,000000000e+00    0,000000000e+00    0,000000000e+00    0,000000000e+00
      590000000   -1,467552036e-01    1,572594605e-02   -3,090750277e-01   -5,839353204e-01    0,000000000e+00    0,000000000e+00    0,000000000e+00    0,000000000e+00
      604000000   -7,299135625e-02    9,713049978e-02   -5,342841744e-01   -2,460039556e-01    0,000000000e+00    0,000000000e+00    0,000000000e+00    0,000000000e+00
      618000000    9,969238937e-02    8,364012465e-03   -4,256544113e-01    5,082210992e-03    0,000000000e+00    0,000000000e+00    0,000000000e+00    0,000000000e+00
      632000000   -4,758698493e-02   -1,499134153e-01   -5,152923465e-01    1,119247228e-01    0,000000000e+00    0,000000000e+00    0,000000000e+00    0,000000000e+00
      646000000   -1,299972236e-01   -3,998328373e-02   -4,139118791e-01    4,707614779e-01    0,000000000e+00    0,000000000e+00    0,000000000e+00    0,000000000e+00
      660000000   -7,869791240e-02    2,325876616e-02   -6,215038523e-02    6,418554187e-01    0,000000000e+00    0,000000000e+00    0,000000000e+00    0,000000000e+00
      674000000   -2,670195512e-02    1,531414595e-02    3,030276000e-01    5,653291345e-01    0,000000000e+00    0,000000000e+00    0,000000000e+00    0,000000000e+00
      688000000   -8,753472939e-03   -1,476652641e-02    5,564485788e-01    3,076198995e-01    0,000000000e+00    0,000000000e+00    0,000000000e+00    0,000000000e+00
      702000000   -7,946101017e-03   -3,629088402e-02    6,275285482e-01   -4,578294605e-02    0,000000000e+00    0,000000000e+00    0,000000000e+00    0,000000000e+00
      716000000   -7,812405936e-03   -5,260945857e-02    4,973354340e-01   -3,742182553e-01    0,000000000e+00    0,000000000e+00    0,000000000e+00    0,000000000e+00
      730000000   -7,645280566e-03   -7,945349813e-02    2,123209685e-01   -5,752771497e-01    0,000000000e+00    0,000000000e+00    0,000000000e+00    0,000000000e+00
      744000000   -2,827921323e-02   -1,133398041e-01   -1,289195865e-01   -5,955377221e-01    0,000000000e+00    0,000000000e+00    0,000000000e+00    0,000000000e+00
      758000000   -7,984554023e-02   -1,330719143e-01   -4,287138879e-01   -4,351877868e-01    0,000000000e+00    0,000000000e+00    0,000000000e+00    0,000000000e+00
      772000000   -1,391752362e-01   -1,130841523e-01   -6,026356220e-01   -1,361593753e-01    0,000000000e+00    0,000000000e+00    0,000000000e+00    0,000000000e+00
      786000000   -1,726626009e-01   -5,234022811e-02   -5,863215923e-01    2,192779630e-01    0,000000000e+00    0,000000000e+00    0,000000000e+00    0,000000000e+00
      800000000   -1,552377641e-01    1,127323881e-02   -3,707205951e-01    5,068873763e-01    0,000000000e+00    0,000000000e+00    0,000000000e+00    0,000000000e+00
      814000000   -1,069356799e-01    4,348283634e-02   -3,841050714e-02    6,215420365e-01    0,000000000e+00    0,000000000e+00    0,000000000e+00    0,000000000e+00
      828000000   -6,278310716e-02    4,015551880e-02    2,970136106e-01    5,407254696e-01    0,000000000e+00    0,000000000e+00    0,000000000e+00    0,000000000e+00
      842000000   -3,732739016e-02    2,258164808e-02    5,308104157e-01    3,008718491e-01    0,000000000e+00    0,000000000e+00    0,000000000e+00    0,000000000e+00
      856000000   -2,124590054e-02    5,515356082e-03    6,007065773e-01   -2,391973324e-02    0,000000000e+00    0,000000000e+00    0,000000000e+00    0,000000000e+00
      870000000   -4,729746375e-03   -1,366051938e-02    4,859497249e-01   -3,303215802e-01    0,000000000e+00    0,000000000e+00    0,000000000e+00    0,000000000e+00
      884000000    6,753555499e-03   -5,026910827e-02    2,338357121e-01   -5,232201815e-01    0,000000000e+00    0,000000000e+00    0,000000000e+00    0,000000000e+00
      898000000   -7,636981551e-03   -9,739492089e-02   -7,357628644e-02   -5,566649437e-01    0,000000000e+00    0,000000000e+00    0,000000000e+00    0,000000000e+00
      912000000   -6,343584508e-02   -1,266875416e-01   -4,027695060e-01   -4,022317231e-01    0,000000000e+00    0,000000000e+00    0,000000000e+00    0,000000000e+00
      926000000   -1,223435327e-01   -1,154403538e-01   -5,743752718e-01   -1,328081936e-01    0,000000000e+00    0,000000000e+00    0,000000000e+00    0,000000000e+00
      940000000   -1,576789021e-01   -6,172975898e-02   -5,652341247e-01    2,127569169e-01    0,000000000e+00    0,000000000e+00    0,000000000e+00    0,000000000e+00
      954000000   -1,472298950e-01   -4,050874151e-03   -3,572828770e-01    4,973821342e-01    0,000000000e+00    0,000000000e+00    0,000000000e+00    0,000000000e+00
      968000000   -9,581522644e-02    1,977847703e-02   -2,912736498e-02    6,168453693e-01    0,000000000e+00    0,000000000e+00    0,000000000e+00    0,000000000e+00
      982000000   -5,217427015e-02    6,270153914e-03    3,064038157e-01    5,403822660e-01    0,000000000e+00    0,000000000e+00    0,000000000e+00    0,000000000e+00
      996000000   -4,184513912e-02   -3,048485890e-02    5,348437428e-01    2,957883179e-01    0,000000000e+00    0,000000000e+00    0,000000000e+00    0,000000000e+00
     1010000000   -5,421410501e-02   -6,447684765e-02    5,903155208e-01   -1,740724221e-02    0,000000000e+00    0,000000000e+00    0,000000000e+00    0,000000000e+00
     1024000000   -9,432435036e-02   -9,070481360e-02    4,756705463e-01   -2,876316905e-01    0,000000000e+00    0,000000000e+00    0,000000000e+00    0,000000000e+00
     1038000000   -1,458882540e-01   -7,116296142e-02    2,764505148e-01   -4,447879493e-01    0,000000000e+00    0,000000000e+00    0,000000000e+00    0,000000000e+00
     1052000000   -1,644388884e-01   -1,593549736e-02    4,116448760e-02   -5,113013983e-01    0,000000000e+00    0,000000000e+00    0,000000000e+00    0,000000000e+00
     1066000000   -1,336094439e-01    4,192344472e-02   -2,193085104e-01   -4,646094739e-01    0,000000000e+00    0,000000000e+00    0,000000000e+00    0,000000000e+00
     1080000000   -7,497920096e-02    4,904368520e-02   -4,249220192e-01   -2,712434530e-01    0,000000000e+00    0,000000000e+00    0,000000000e+00    0,000000000e+00
     1094000000   -3,051926568e-02    3,249225765e-02   -4,935888946e-01    6,684571039e-03    0,000000000e+00    0,000000000e+00    0,000000000e+00    0,000000000e+00
     1108000000    7,992962492e-04   -1,053335331e-02   -3,941949010e-01    2,760127783e-01    0,000000000e+00    0,000000000e+00    0,000000000e+00    0,000000000e+00
     1122000000   -2,600836335e-03   -6,980225444e-02   -1,655565798e-01    4,505116642e-01    0,000000000e+00    0,000000000e+00    0,000000000e+00    0,000000000e+00
     1136000000   -2,922883257e-02   -1,139515340e-01    1,281573623e-01    4,840326309e-01    0,000000000e+00    0,000000000e+00    0,000000000e+00    0,000000000e+00
     1150000000   -7,920170575e-02   -1,459960938e-01    4,108887911e-01    3,381184936e-01    0,000000000e+00    0,000000000e+00    0,000000000e+00    0,000000000e+00
     1164000000   -1,503998190e-01   -1,438502371e-01    5,857714415e-01    3,339510784e-02    0,000000000e+00    0,000000000e+00    0,000000000e+00    0,000000000e+00
     1178000000   -1,964967102e-01   -1,000303477e-01    5,364775658e-01   -3,434982300e-01    0,000000000e+00    0,000000000e+00    0,000000000e+00    0,000000000e+00
     1192000000   -2,079593241e-01   -4,749284685e-02    2,638088465e-01   -6,216556430e-01    0,000000000e+00    0,000000000e+00    0,000000000e+00    0,000000000e+00
     1206000000   -2,040826976e-01   -2,806385048e-02   -1,192684472e-01   -6,688836217e-01    0,000000000e+00    0,000000000e+00    0,000000000e+00    0,000000000e+00
     1220000000   -2,326462269e-01   -5,100099836e-03   -4,267660379e-01   -4,955161214e-01    0,000000000e+00    0,000000000e+00    0,000000000e+00    0,000000000e+00
     1234000000   -2,381097376e-01    1,090432256e-01   -5,698698759e-01   -2,357538044e-01    0,000000000e+00    0,000000000e+00    0,000000000e+00    0,000000000e+00
     1248000000   -1,156673580e-01    1,755865961e-01   -5,919954777e-01    2,405505814e-02    0,000000000e+00    0,000000000e+00    0,000000000e+00    0,000000000e+00
     1262000000    2,727730898e-03    1,335419714e-01   -4,924999177e-01    2,872797847e-01    0,000000000e+00    0,000000000e+00    0,000000000e+00    0,000000000e+00
     1276000000    6,234253570e-02    4,627555609e-02   -2,798478007e-01    4,768075347e-01    0,000000000e+00    0,000000000e+00    0,000000000e+00    0,000000000e+00
     1290000000    7,997066528e-02   -6,885493547e-02    1,033329125e-02    5,393859744e-01    0,000000000e+00    0,000000000e+00    0,000000000e+00    0,000000000e+00
     1304000000    2,713948674e-02   -1,791899353e-01    2,938003242e-01    4,725613594e-01    0,000000000e+00    0,000000000e+00    0,000000000e+00    0,000000000e+00
     1318000000   -9,099572152e-02   -2,549089193e-01    5,259789824e-01    2,744727135e-01    0,000000000e+00    0,000000000e+00    0,000000000e+00    0,000000000e+00
     1332000000   -2,456121445e-01   -2,548261285e-01    6,428368688e-01   -4,832916707e-02    0,000000000e+00    0,000000000e+00    0,000000000e+00    0,000000000e+00
     1346000000   -3,693920374e-01   -1,528226584e-01    5,465743542e-01   -4,025870264e-01    0,000000000e+00    0,000000000e+00    0,000000000e+00    0,000000000e+00
     1360000000   -3,935070038e-01    8,210364729e-03    2,564476728e-01   -6,252163053e-01    0,000000000e+00    0,000000000e+00    0,000000000e+00    0,000000000e+00
     1374000000   -3,380689919e-01    1,212820262e-01   -1,089771912e-01   -6,250483990e-01    0,000000000e+00    0,000000000e+00    0,000000000e+00    0,000000000e+00
     1388000000   -2,465608567e-01    1,760551929e-01   -3,666107357e-01   -4,127800763e-01    0,000000000e+00    0,000000000e+00    0,000000000e+00    0,000000000e+00
     1402000000   -1,554135233e-01    1,772704422e-01   -4,658968449e-01   -1,008109897e-01    0,000000000e+00    0,000000000e+00    0,000000000e+00    0,000000000e+00
     1416000000   -8,083914965e-02    1,530388594e-01   -3,820388317e-01    2,030455619e-01    0,000000000e+00    0,000000000e+00    0,000000000e+00    0,000000000e+00
     1430000000   -2,993662469e-02    9,311614931e-02   -1,801505536e-01    4,117211401e-01    0,000000000e+00    0,000000000e+00    0,000000000e+00    0,000000000e+00
     1444000000   -9,315033443e-03    6,365431473e-03    1,266031116e-01    5,164909363e-01    0,000000000e+00    0,000000000e+00    0,000000000e+00    0,000000000e+00
     1458000000   -3,092464991e-02   -8,341169357e-02    4,196083248e-01    4,771925211e-01    0,000000000e+00    0,000000000e+00    0,000000000e+00    0,000000000e+00
     1472000000   -1,064515263e-01   -1,503898799e-01    7,204085588e-01    2,983360589e-01    0,000000000e+00    0,000000000e+00    0,000000000e+00    0,000000000e+00
     1486000000   -2,266931981e-01   -1,499902010e-01    8,833506107e-01   -2,569716983e-02    0,000000000e+00    0,000000000e+00    0,000000000e+00    0,000000000e+00
     1500000000   -3,077756763e-01   -8,347067982e-02    8,400345445e-01   -4,104021788e-01    0,000000000e+00    0,000000000e+00    0,000000000e+00    0,000000000e+00
