! NanoVNA-App
! Date: 2025-09-25 14:59:15
! Start: 100MHz Stop: 1,5GHz Points: 101
! S-Parameter data: F S11 S21 S12 S22
# Hz S RI R 50
!     Frequency           S11_Real           S11_Imag           S21_Real           S21_Imag           S12_Real           S12_Imag           S22_Real           S22_Imag
      100000000    3,558798507e-02    2,735020220e-02    4,407341480e-01   -6,694771051e-01    0,000000000e+00    0,000000000e+00    0,000000000e+00    0,000000000e+00
      114000000    6,072055921e-02    2,188496757e-03    1,271019783e-02   -7,953492999e-01    0,000000000e+00    0,000000000e+00    0,000000000e+00    0,000000000e+00
      128000000    6,836862117e-02   -4,229492322e-02   -4,082510173e-01   -6,781778336e-01    0,000000000e+00    0,000000000e+00    0,000000000e+00    0,000000000e+00
      142000000    4,347800463e-02   -8,878718317e-02   -7,051786780e-01   -3,609936535e-01    0,000000000e+00    0,000000000e+00    0,000000000e+00    0,000000000e+00
      156000000   -9,683755226e-03   -1,097413749e-01   -7,926331162e-01    6,758128852e-02    0,000000000e+00    0,000000000e+00    0,000000000e+00    0,000000000e+00
      170000000   -6,271004677e-02   -9,184948355e-02   -6,371781826e-01    4,864083827e-01    0,000000000e+00    0,000000000e+00    0,000000000e+00    0,000000000e+00
      184000000   -8,858823031e-02   -4,769749939e-02   -2,731845081e-01    7,561748624e-01    0,000000000e+00    0,000000000e+00    0,000000000e+00    0,000000000e+00
      198000000   -8,278252184e-02   -6,419139914e-03    1,794672757e-01    7,821866274e-01    0,000000000e+00    0,000000000e+00    0,000000000e+00    0,000000000e+00
      212000000   -6,274750829e-02    1,802525483e-02    5,706567168e-01    5,583247542e-01    0,000000000e+00    0,000000000e+00    0,000000000e+00    0,000000000e+00
      226000000   -4,147983342e-02    3,182965890e-02    7,767243981e-01    1,619003117e-01    0,000000000e+00    0,000000000e+00    0,000000000e+00    0,000000000e+00
      240000000   -1,491338946e-02    4,127151147e-02    7,359581590e-01   -2,786822915e-01    0,000000000e+00    0,000000000e+00    0,000000000e+00    0,000000000e+00
      254000000    2,139640786e-02    3,633126989e-02    4,678525925e-01   -6,221765876e-01    0,000000000e+00    0,000000000e+00    0,000000000e+00    0,000000000e+00
      268000000    5,331872031e-02    4,712206777e-03    6,655501574e-02   -7,671228647e-01    0,000000000e+00    0,000000000e+00    0,000000000e+00    0,000000000e+00
      282000000    5,746984482e-02   -4,490856454e-02   -3,460280299e-01   -6,828004122e-01    0,000000000e+00    0,000000000e+00    0,000000000e+00    0,000000000e+00
      296000000    2,606827207e-02   -8,465477824e-02   -6,549658775e-01   -3,978112638e-01    0,000000000e+00    0,000000000e+00    0,000000000e+00    0,000000000e+00
      310000000   -1,898958907e-02   -8,945714682e-02   -7,744891644e-01    9,416114539e-03    0,000000000e+00    0,000000000e+00    0,000000000e+00    0,000000000e+00
      324000000   -4,650454596e-02   -6,356488913e-02   -6,474651098e-01    4,299339652e-01    0,000000000e+00    0,000000000e+00    0,000000000e+00    0,000000000e+00
      338000000   -4,117023945e-02   -3,766036406e-02   -3,106793165e-01    7,071705461e-01    0,000000000e+00    0,000000000e+00    0,000000000e+00    0,000000000e+00
      352000000   -2,345215157e-02   -3,784070536e-02    1,190651208e-01    7,587272525e-01    0,000000000e+00    0,000000000e+00    0,000000000e+00    0,000000000e+00
      366000000   -2,297532931e-02   -5,597257614e-02    5,027076006e-01    5,711658597e-01    0,000000000e+00    0,000000000e+00    0,000000000e+00    0,000000000e+00
      380000000   -4,475603998e-02   -6,533530354e-02    7,259674668e-01    2,118150592e-01    0,000000000e+00    0,000000000e+00    0,000000000e+00    0,000000000e+00
      394000000   -6,655196100e-02   -5,057535321e-02    7,234002948e-01   -2,128500938e-01    0,000000000e+00    0,000000000e+00    0,000000000e+00    0,000000000e+00
      408000000   -6,734276563e-02   -2,616045251e-02    4,892387986e-01   -5,684758425e-01    0,000000000e+00    0,000000000e+00    0,000000000e+00    0,000000000e+00
      422000000   -5,322736129e-02   -1,548850909e-02    1,051877216e-01   -7,397345304e-01    0,000000000e+00    0,000000000e+00    0,000000000e+00    0,000000000e+00
      436000000   -4,665279016e-02   -1,837684587e-02   -3,064556122e-01   -6,756193042e-01    0,000000000e+00    0,000000000e+00    0,000000000e+00    0,000000000e+00
      450000000   -5,213064328e-02   -1,519836579e-02   -6,191387773e-01   -3,996424675e-01    0,000000000e+00    0,000000000e+00    0,000000000e+00    0,000000000e+00
      464000000   -5,024044961e-02    6,004827097e-03   -7,301912308e-01    3,431990510e-03    0,000000000e+00    0,000000000e+00    0,000000000e+00    0,000000000e+00
      478000000   -2,033586986e-02    2,623299882e-02   -5,987811685e-01    3,973429501e-01    0,000000000e+00    0,000000000e+00    0,000000000e+00    0,000000000e+00
      492000000    2,842435054e-02    1,485924982e-02   -2,787550986e-01    6,438218951e-01    0,000000000e+00    0,000000000e+00    0,000000000e+00    0,000000000e+00
      506000000    5,952476710e-02   -3,743951768e-02    1,058844551e-01    6,802601218e-01    0,000000000e+00    0,000000000e+00    0,000000000e+00    0,000000000e+00
      520000000    4,420032725e-02   -1,028352305e-01    4,433036149e-01    5,205505490e-01    0,000000000e+00    0,000000000e+00    0,000000000e+00    0,000000000e+00
      534000000   -1,252281666e-02   -1,441332996e-01    6,497412920e-01    2,052564919e-01    0,000000000e+00    0,000000000e+00    0,000000000e+00    0,000000000e+00
      548000000   -8,150634915e-02   -1,399631351e-01    6,601349115e-01   -1,762168407e-01    0,000000000e+00    0,000000000e+00    0,000000000e+00    0,000000000e+00
      562000000   -1,313530505e-01   -9,766495228e-02    4,511572123e-01   -5,084142685e-01    0,000000000e+00    0,000000000e+00    0,000000000e+00    0,000000000e+00
      576000000   -1,499895602e-01   -3,834433109e-02    8,152552694e-02   -6,605770588e-01    0,000000000e+00    0,000000000e+00    0,000000000e+00    0,000000000e+00
      590000000   -1,298048943e-01    2,969018742e-02   -2,946175039e-01   -5,643678308e-01    0,000000000e+00    0,000000000e+00    0,000000000e+00    0,000000000e+00
      604000000   -3,741777688e-02    6,840805709e-02   -4,874704182e-01   -2,693212032e-01    0,000000000e+00    0,000000000e+00    0,000000000e+00    0,000000000e+00
      618000000    3,419329971e-02   -3,100081906e-02   -4,938663840e-01   -5,160373077e-02    0,000000000e+00    0,000000000e+00    0,000000000e+00    0,000000000e+00
      632000000   -5,318673700e-02   -9,287086874e-02   -5,263873339e-01    1,773411185e-01    0,000000000e+00    0,000000000e+00    0,000000000e+00    0,000000000e+00
      646000000   -9,971919656e-02   -3,408580646e-02   -3,803803623e-01    4,776138663e-01    0,000000000e+00    0,000000000e+00    0,000000000e+00    0,000000000e+00
      660000000   -6,934863329e-02    9,846743196e-03   -5,105411261e-02    6,247931123e-01    0,000000000e+00    0,000000000e+00    0,000000000e+00    0,000000000e+00
      674000000   -3,068290651e-02    4,284860101e-03    2,983081341e-01    5,532777905e-01    0,000000000e+00    0,000000000e+00    0,000000000e+00    0,000000000e+00
      688000000   -1,523939427e-02   -1,836123690e-02    5,475263000e-01    3,031217158e-01    0,000000000e+00    0,000000000e+00    0,000000000e+00    0,000000000e+00
      702000000   -1,468081959e-02   -3,472758457e-02    6,172307730e-01   -4,184403643e-02    0,000000000e+00    0,000000000e+00    0,000000000e+00    0,000000000e+00
      716000000   -1,018150337e-02   -4,924488068e-02    4,919733405e-01   -3,684626222e-01    0,000000000e+00    0,000000000e+00    0,000000000e+00    0,000000000e+00
      730000000   -7,875779644e-03   -7,433106005e-02    2,114575654e-01   -5,682799220e-01    0,000000000e+00    0,000000000e+00    0,000000000e+00    0,000000000e+00
      744000000   -2,512791567e-02   -1,105422750e-01   -1,237751395e-01   -5,864977241e-01    0,000000000e+00    0,000000000e+00    0,000000000e+00    0,000000000e+00
      758000000   -7,432124019e-02   -1,334516853e-01   -4,195302129e-01   -4,324174821e-01    0,000000000e+00    0,000000000e+00    0,000000000e+00    0,000000000e+00
      772000000   -1,349220127e-01   -1,152762100e-01   -5,936923623e-01   -1,400818080e-01    0,000000000e+00    0,000000000e+00    0,000000000e+00    0,000000000e+00
      786000000   -1,715897471e-01   -5,906329677e-02   -5,812582374e-01    2,099659294e-01    0,000000000e+00    0,000000000e+00    0,000000000e+00    0,000000000e+00
      800000000   -1,591977477e-01    6,460200995e-03   -3,726847172e-01    4,959569573e-01    0,000000000e+00    0,000000000e+00    0,000000000e+00    0,000000000e+00
      814000000   -1,142873839e-01    4,267979786e-02   -4,598700255e-02    6,144503355e-01    0,000000000e+00    0,000000000e+00    0,000000000e+00    0,000000000e+00
      828000000   -6,913585216e-02    4,336543009e-02    2,860980928e-01    5,403228998e-01    0,000000000e+00    0,000000000e+00    0,000000000e+00    0,000000000e+00
      842000000   -3,906938806e-02    2,956267074e-02    5,218695402e-01    3,064900637e-01    0,000000000e+00    0,000000000e+00    0,000000000e+00    0,000000000e+00
      856000000   -1,853488758e-02    1,228530426e-02    5,940695405e-01   -1,338657830e-02    0,000000000e+00    0,000000000e+00    0,000000000e+00    0,000000000e+00
      870000000    2,076997887e-03   -1,047637779e-02    4,865953922e-01   -3,169686198e-01    0,000000000e+00    0,000000000e+00    0,000000000e+00    0,000000000e+00
      884000000    1,279097889e-02   -5,150101706e-02    2,420280278e-01   -5,117669702e-01    0,000000000e+00    0,000000000e+00    0,000000000e+00    0,000000000e+00
      898000000   -4,014892504e-03   -1,014518067e-01   -5,807073787e-02   -5,545246601e-01    0,000000000e+00    0,000000000e+00    0,000000000e+00    0,000000000e+00
      912000000   -6,238940358e-02   -1,324443519e-01   -3,911575377e-01   -4,239406288e-01    0,000000000e+00    0,000000000e+00    0,000000000e+00    0,000000000e+00
      926000000   -1,282229722e-01   -1,179024950e-01   -5,678375959e-01   -1,478863955e-01    0,000000000e+00    0,000000000e+00    0,000000000e+00    0,000000000e+00
      940000000   -1,614846140e-01   -6,218417734e-02   -5,685342550e-01    1,902350187e-01    0,000000000e+00    0,000000000e+00    0,000000000e+00    0,000000000e+00
      954000000   -1,480278969e-01   -3,192091594e-03   -3,731133938e-01    4,830642343e-01    0,000000000e+00    0,000000000e+00    0,000000000e+00    0,000000000e+00
      968000000   -9,973724186e-02    2,436828986e-02   -5,097120255e-02    6,172729135e-01    0,000000000e+00    0,000000000e+00    0,000000000e+00    0,000000000e+00
      982000000   -5,784443021e-02    3,411043435e-03    2,814259231e-01    5,497385263e-01    0,000000000e+00    0,000000000e+00    0,000000000e+00    0,000000000e+00
      996000000   -4,474906251e-02   -3,551971540e-02    5,250199437e-01    3,268181086e-01    0,000000000e+00    0,000000000e+00    0,000000000e+00    0,000000000e+00
     1010000000   -6,423781812e-02   -6,494259089e-02    6,086564660e-01    1,579971798e-02    0,000000000e+00    0,000000000e+00    0,000000000e+00    0,000000000e+00
     1024000000   -9,979452938e-02   -7,535599172e-02    5,175603628e-01   -2,814704776e-01    0,000000000e+00    0,000000000e+00    0,000000000e+00    0,000000000e+00
     1038000000   -1,383823901e-01   -5,727341026e-02    2,934356928e-01   -4,715569317e-01    0,000000000e+00    0,000000000e+00    0,000000000e+00    0,000000000e+00
     1052000000   -1,542409062e-01   -2,526911441e-03    3,466393799e-02   -5,248551369e-01    0,000000000e+00    0,000000000e+00    0,000000000e+00    0,000000000e+00
     1066000000   -1,061059013e-01    4,437844083e-02   -2,122167349e-01   -4,667271972e-01    0,000000000e+00    0,000000000e+00    0,000000000e+00    0,000000000e+00
     1080000000   -5,031985044e-02    2,467427962e-02   -4,160991013e-01   -2,975243628e-01    0,000000000e+00    0,000000000e+00    0,000000000e+00    0,000000000e+00
     1094000000   -3,807936981e-02   -7,643403951e-03   -5,192244649e-01   -2,097409591e-02    0,000000000e+00    0,000000000e+00    0,000000000e+00    0,000000000e+00
     1108000000   -3,392019868e-02   -3,467998654e-02   -4,417496324e-01    2,834395170e-01    0,000000000e+00    0,000000000e+00    0,000000000e+00    0,000000000e+00
     1122000000   -3,169759735e-02   -6,116253138e-02   -1,864475757e-01    4,990151525e-01    0,000000000e+00    0,000000000e+00    0,000000000e+00    0,000000000e+00
     1136000000   -4,367429763e-02   -9,171042591e-02    1,519836932e-01    5,216952562e-01    0,000000000e+00    0,000000000e+00    0,000000000e+00    0,000000000e+00
     1150000000   -7,976420224e-02   -1,249583587e-01    4,513733983e-01    3,439965546e-01    0,000000000e+00    0,000000000e+00    0,000000000e+00    0,000000000e+00
     1164000000   -1,416739821e-01   -1,254497319e-01    6,086930633e-01    9,893936105e-03    0,000000000e+00    0,000000000e+00    0,000000000e+00    0,000000000e+00
     1178000000   -1,788192391e-01   -8,367878199e-02    5,374644399e-01   -3,688904345e-01    0,000000000e+00    0,000000000e+00    0,000000000e+00    0,000000000e+00
     1192000000   -1,762355119e-01   -5,486667901e-02    2,382328510e-01   -6,395987272e-01    0,000000000e+00    0,000000000e+00    0,000000000e+00    0,000000000e+00
     1206000000   -1,921263486e-01   -5,806671828e-02   -1,415615827e-01   -6,594938040e-01    0,000000000e+00    0,000000000e+00    0,000000000e+00    0,000000000e+00
     1220000000   -2,516593635e-01   -1,261018962e-02   -4,215924442e-01   -4,827352762e-01    0,000000000e+00    0,000000000e+00    0,000000000e+00    0,000000000e+00
     1234000000   -2,387809455e-01    1,145656109e-01   -5,574713349e-01   -2,461648285e-01    0,000000000e+00    0,000000000e+00    0,000000000e+00    0,000000000e+00
     1248000000   -1,139227077e-01    1,748957634e-01   -6,015688181e-01    1,929165050e-02    0,000000000e+00    0,000000000e+00    0,000000000e+00    0,000000000e+00
     1262000000   -5,986564211e-04    1,285576671e-01   -5,043556690e-01    2,949257195e-01    0,000000000e+00    0,000000000e+00    0,000000000e+00    0,000000000e+00
     1276000000    5,789883807e-02    4,336401075e-02   -2,826033831e-01    4,894585013e-01    0,000000000e+00    0,000000000e+00    0,000000000e+00    0,000000000e+00
     1290000000    7,145833224e-02   -7,131814212e-02    8,930857293e-03    5,435700417e-01    0,000000000e+00    0,000000000e+00    0,000000000e+00    0,000000000e+00
     1304000000    1,918599196e-02   -1,780337542e-01    3,005226552e-01    4,812374711e-01    0,000000000e+00    0,000000000e+00    0,000000000e+00    0,000000000e+00
     1318000000   -9,066910297e-02   -2,504296303e-01    5,365189314e-01    2,737849355e-01    0,000000000e+00    0,000000000e+00    0,000000000e+00    0,000000000e+00
     1332000000   -2,395575494e-01   -2,458113432e-01    6,482698321e-01   -6,101043522e-02    0,000000000e+00    0,000000000e+00    0,000000000e+00    0,000000000e+00
     1346000000   -3,606607318e-01   -1,366297156e-01    5,516920090e-01   -4,089224637e-01    0,000000000e+00    0,000000000e+00    0,000000000e+00    0,000000000e+00
     1360000000   -3,893446922e-01    3,698867513e-03    2,501127720e-01   -6,370320320e-01    0,000000000e+00    0,000000000e+00    0,000000000e+00    0,000000000e+00
     1374000000   -3,281563520e-01    1,221435219e-01   -1,081864759e-01   -6,252121925e-01    0,000000000e+00    0,000000000e+00    0,000000000e+00    0,000000000e+00
     1388000000   -2,364938557e-01    1,609428972e-01   -3,692165613e-01   -4,213349521e-01    0,000000000e+00    0,000000000e+00    0,000000000e+00    0,000000000e+00
     1402000000   -1,501071155e-01    1,750084907e-01   -4,707170725e-01   -1,055676043e-01    0,000000000e+00    0,000000000e+00    0,000000000e+00    0,000000000e+00
     1416000000   -8,411876857e-02    1,396819800e-01   -3,959105909e-01    2,006293982e-01    0,000000000e+00    0,000000000e+00    0,000000000e+00    0,000000000e+00
     1430000000   -3,475798666e-02    8,804534376e-02   -1,588717848e-01    4,328584075e-01    0,000000000e+00    0,000000000e+00    0,000000000e+00    0,000000000e+00
     1444000000   -1,274803933e-02    6,022999994e-03    1,222793609e-01    5,262004137e-01    0,000000000e+00    0,000000000e+00    0,000000000e+00    0,000000000e+00
     1458000000   -4,241301492e-02   -7,962946594e-02    4,394824505e-01    5,007602572e-01    0,000000000e+00    0,000000000e+00    0,000000000e+00    0,000000000e+00
     1472000000   -1,264590621e-01   -1,409878284e-01    7,174987197e-01    2,970934808e-01    0,000000000e+00    0,000000000e+00    0,000000000e+00    0,000000000e+00
     1486000000   -2,289302498e-01   -1,352935582e-01    9,039658308e-01   -1,799669117e-02    0,000000000e+00    0,000000000e+00    0,000000000e+00    0,000000000e+00
     1500000000   -3,077163398e-01   -5,340883508e-02    8,374090791e-01   -4,144701064e-01    0,000000000e+00    0,000000000e+00    0,000000000e+00    0,000000000e+00
