! NanoVNA-App
! Date: 2025-09-25 14:57:45
! Start: 100MHz Stop: 1,5GHz Points: 101
! S-Parameter data: F S11 S21 S12 S22
# Hz S RI R 50
!     Frequency           S11_Real           S11_Imag           S21_Real           S21_Imag           S12_Real           S12_Imag           S22_Real           S22_Imag
      100000000    3,558043018e-02    2,733759396e-02    4,406892359e-01   -6,694782376e-01    0,000000000e+00    0,000000000e+00    0,000000000e+00    0,000000000e+00
      114000000    6,068692729e-02    2,180754207e-03    1,297868788e-02   -7,951960564e-01    0,000000000e+00    0,000000000e+00    0,000000000e+00    0,000000000e+00
      128000000    6,836021692e-02   -4,221860692e-02   -4,082864821e-01   -6,781498790e-01    0,000000000e+00    0,000000000e+00    0,000000000e+00    0,000000000e+00
      142000000    4,347660393e-02   -8,879650384e-02   -7,051149607e-01   -3,608225286e-01    0,000000000e+00    0,000000000e+00    0,000000000e+00    0,000000000e+00
      156000000   -8,925150149e-03   -1,102804020e-01   -7,935098410e-01    6,850039214e-02    0,000000000e+00    0,000000000e+00    0,000000000e+00    0,000000000e+00
      170000000   -6,260832399e-02   -9,171511233e-02   -6,368739605e-01    4,861804843e-01    0,000000000e+00    0,000000000e+00    0,000000000e+00    0,000000000e+00
      184000000   -8,857197315e-02   -4,771120474e-02   -2,729086876e-01    7,562013865e-01    0,000000000e+00    0,000000000e+00    0,000000000e+00    0,000000000e+00
      198000000   -8,275108039e-02   -6,434959359e-03    1,794377416e-01    7,819144130e-01    0,000000000e+00    0,000000000e+00    0,000000000e+00    0,000000000e+00
      212000000   -6,266209483e-02    1,804373972e-02    5,707207322e-01    5,582138300e-01    0,000000000e+00    0,000000000e+00    0,000000000e+00    0,000000000e+00
      226000000   -4,149205238e-02    3,183452785e-02    7,765908837e-01    1,618466973e-01    0,000000000e+00    0,000000000e+00    0,000000000e+00    0,000000000e+00
      240000000   -1,485605352e-02    4,129198194e-02    7,361047268e-01   -2,787029445e-01    0,000000000e+00    0,000000000e+00    0,000000000e+00    0,000000000e+00
      254000000    2,144154161e-02    3,625790402e-02    4,677510560e-01   -6,217853427e-01    0,000000000e+00    0,000000000e+00    0,000000000e+00    0,000000000e+00
      268000000    5,334892496e-02    4,657404032e-03    6,683755666e-02   -7,671763301e-01    0,000000000e+00    0,000000000e+00    0,000000000e+00    0,000000000e+00
      282000000    5,743533373e-02   -4,492691532e-02   -3,458192050e-01   -6,828457713e-01    0,000000000e+00    0,000000000e+00    0,000000000e+00    0,000000000e+00
      296000000    2,612586692e-02   -8,467736840e-02   -6,548417807e-01   -3,976562917e-01    0,000000000e+00    0,000000000e+00    0,000000000e+00    0,000000000e+00
      310000000   -1,892961748e-02   -8,943052590e-02   -7,744892836e-01    1,100590266e-02    0,000000000e+00    0,000000000e+00    0,000000000e+00    0,000000000e+00
      324000000   -4,684504867e-02   -6,325913966e-02   -6,484803557e-01    4,296775758e-01    0,000000000e+00    0,000000000e+00    0,000000000e+00    0,000000000e+00
      338000000   -4,128777981e-02   -3,785599023e-02   -3,086750209e-01    7,095874548e-01    0,000000000e+00    0,000000000e+00    0,000000000e+00    0,000000000e+00
      352000000   -2,364982665e-02   -3,776725009e-02    1,196008027e-01    7,580103278e-01    0,000000000e+00    0,000000000e+00    0,000000000e+00    0,000000000e+00
      366000000   -2,293227799e-02   -5,610057339e-02    5,026084781e-01    5,706877112e-01    0,000000000e+00    0,000000000e+00    0,000000000e+00    0,000000000e+00
      380000000   -4,459140077e-02   -6,496100873e-02    7,270011306e-01    2,118641138e-01    0,000000000e+00    0,000000000e+00    0,000000000e+00    0,000000000e+00
      394000000   -6,640142947e-02   -5,033716932e-02    7,226436138e-01   -2,129947990e-01    0,000000000e+00    0,000000000e+00    0,000000000e+00    0,000000000e+00
      408000000   -6,716784835e-02   -2,623240277e-02    4,900816679e-01   -5,683333278e-01    0,000000000e+00    0,000000000e+00    0,000000000e+00    0,000000000e+00
      422000000   -5,309534818e-02   -1,542515121e-02    1,061012223e-01   -7,383921742e-01    0,000000000e+00    0,000000000e+00    0,000000000e+00    0,000000000e+00
      436000000   -4,624481872e-02   -1,897415332e-02   -3,058145046e-01   -6,755005121e-01    0,000000000e+00    0,000000000e+00    0,000000000e+00    0,000000000e+00
      450000000   -5,219332501e-02   -1,548886672e-02   -6,191720366e-01   -3,996780515e-01    0,000000000e+00    0,000000000e+00    0,000000000e+00    0,000000000e+00
      464000000   -5,018992350e-02    5,509479437e-03   -7,293254137e-01    3,214680590e-03    0,000000000e+00    0,000000000e+00    0,000000000e+00    0,000000000e+00
      478000000   -2,084952779e-02    2,570111863e-02   -5,990794301e-01    3,967554867e-01    0,000000000e+00    0,000000000e+00    0,000000000e+00    0,000000000e+00
      492000000    2,748343907e-02    1,472318731e-02   -2,807030082e-01    6,440879703e-01    0,000000000e+00    0,000000000e+00    0,000000000e+00    0,000000000e+00
      506000000    5,822889879e-02   -3,691712022e-02    1,042360589e-01    6,805373430e-01    0,000000000e+00    0,000000000e+00    0,000000000e+00    0,000000000e+00
      520000000    4,335831478e-02   -1,009612679e-01    4,419127703e-01    5,161191821e-01    0,000000000e+00    0,000000000e+00    0,000000000e+00    0,000000000e+00
      534000000   -1,172827557e-02   -1,414087266e-01    6,495627165e-01    2,080166340e-01    0,000000000e+00    0,000000000e+00    0,000000000e+00    0,000000000e+00
      548000000   -7,869239151e-02   -1,379274875e-01    6,615262628e-01   -1,737460941e-01    0,000000000e+00    0,000000000e+00    0,000000000e+00    0,000000000e+00
      562000000   -1,259544641e-01   -9,885356575e-02    4,554654360e-01   -5,085194707e-01    0,000000000e+00    0,000000000e+00    0,000000000e+00    0,000000000e+00
      576000000   -1,434894055e-01   -4,603385925e-02    9,023734927e-02   -6,657626033e-01    0,000000000e+00    0,000000000e+00    0,000000000e+00    0,000000000e+00
      590000000   -1,349632144e-01    1,207321975e-02   -2,938336730e-01   -5,838090777e-01    0,000000000e+00    0,000000000e+00    0,000000000e+00    0,000000000e+00
      604000000   -7,418251038e-02    6,730969995e-02   -5,284225941e-01   -2,808416188e-01    0,000000000e+00    0,000000000e+00    0,000000000e+00    0,000000000e+00
      618000000    3,711459786e-02    2,672814764e-02   -5,025039315e-01    1,613039337e-02    0,000000000e+00    0,000000000e+00    0,000000000e+00    0,000000000e+00
      632000000    3,029482614e-04   -1,033899561e-01   -4,629992843e-01    1,719446629e-01    0,000000000e+00    0,000000000e+00    0,000000000e+00    0,000000000e+00
      646000000   -1,032692119e-01   -6,916131824e-02   -3,790434301e-01    4,383646548e-01    0,000000000e+00    0,000000000e+00    0,000000000e+00    0,000000000e+00
      660000000   -8,826717734e-02    2,323555760e-03   -7,164382935e-02    6,165757775e-01    0,000000000e+00    0,000000000e+00    0,000000000e+00    0,000000000e+00
      674000000   -4,067035392e-02    1,227013301e-02    2,866047323e-01    5,585489869e-01    0,000000000e+00    0,000000000e+00    0,000000000e+00    0,000000000e+00
      688000000   -1,617919467e-02   -8,456659503e-03    5,436646938e-01    3,120009303e-01    0,000000000e+00    0,000000000e+00    0,000000000e+00    0,000000000e+00
      702000000   -9,710838087e-03   -2,845720015e-02    6,222774386e-01   -3,748099506e-02    0,000000000e+00    0,000000000e+00    0,000000000e+00    0,000000000e+00
      716000000   -5,109302234e-03   -4,678368196e-02    4,964698255e-01   -3,645482361e-01    0,000000000e+00    0,000000000e+00    0,000000000e+00    0,000000000e+00
      730000000   -2,734237583e-03   -7,732633501e-02    2,170841247e-01   -5,674368143e-01    0,000000000e+00    0,000000000e+00    0,000000000e+00    0,000000000e+00
      744000000   -2,518012002e-02   -1,150687337e-01   -1,194640845e-01   -5,913762450e-01    0,000000000e+00    0,000000000e+00    0,000000000e+00    0,000000000e+00
      758000000   -7,582740486e-02   -1,362651289e-01   -4,190893173e-01   -4,371837378e-01    0,000000000e+00    0,000000000e+00    0,000000000e+00    0,000000000e+00
      772000000   -1,389906257e-01   -1,165603623e-01   -5,971924067e-01   -1,439269632e-01    0,000000000e+00    0,000000000e+00    0,000000000e+00    0,000000000e+00
      786000000   -1,748214513e-01   -5,741025880e-02   -5,854910016e-01    2,083079964e-01    0,000000000e+00    0,000000000e+00    0,000000000e+00    0,000000000e+00
      800000000   -1,616005599e-01    1,020480227e-02   -3,766603172e-01    4,982596636e-01    0,000000000e+00    0,000000000e+00    0,000000000e+00    0,000000000e+00
      814000000   -1,121134385e-01    4,615085572e-02   -4,731335491e-02    6,168289185e-01    0,000000000e+00    0,000000000e+00    0,000000000e+00    0,000000000e+00
      828000000   -6,504691392e-02    4,394314438e-02    2,870164812e-01    5,414126515e-01    0,000000000e+00    0,000000000e+00    0,000000000e+00    0,000000000e+00
      842000000   -3,617529571e-02    2,740017511e-02    5,226209760e-01    3,074726462e-01    0,000000000e+00    0,000000000e+00    0,000000000e+00    0,000000000e+00
      856000000   -1,880137622e-02    9,059007280e-03    5,970204473e-01   -1,383694168e-02    0,000000000e+00    0,000000000e+00    0,000000000e+00    0,000000000e+00
      870000000   -6,721790414e-04   -1,328949258e-02    4,890734255e-01   -3,181477487e-01    0,000000000e+00    0,000000000e+00    0,000000000e+00    0,000000000e+00
      884000000    9,725471027e-03   -5,005702749e-02    2,453011125e-01   -5,141204000e-01    0,000000000e+00    0,000000000e+00    0,000000000e+00    0,000000000e+00
      898000000   -5,213001743e-03   -9,896115959e-02   -5,965951458e-02   -5,571368337e-01    0,000000000e+00    0,000000000e+00    0,000000000e+00    0,000000000e+00
      912000000   -6,095260382e-02   -1,287686527e-01   -4,010094404e-01   -4,241524041e-01    0,000000000e+00    0,000000000e+00    0,000000000e+00    0,000000000e+00
      926000000   -1,225591078e-01   -1,192384586e-01   -5,690968633e-01   -1,493150592e-01    0,000000000e+00    0,000000000e+00    0,000000000e+00    0,000000000e+00
      940000000   -1,591449678e-01   -6,636489928e-02   -5,692778230e-01    1,940724105e-01    0,000000000e+00    0,000000000e+00    0,000000000e+00    0,000000000e+00
      954000000   -1,448008269e-01   -5,652433727e-03   -3,752445877e-01    4,865366518e-01    0,000000000e+00    0,000000000e+00    0,000000000e+00    0,000000000e+00
      968000000   -1,024024189e-01    2,036493272e-02   -4,985527322e-02    6,188853383e-01    0,000000000e+00    0,000000000e+00    0,000000000e+00    0,000000000e+00
      982000000   -5,712310970e-02    7,024284918e-03    2,843511403e-01    5,538011193e-01    0,000000000e+00    0,000000000e+00    0,000000000e+00    0,000000000e+00
      996000000   -4,581489041e-02   -3,266475350e-02    5,289191008e-01    3,250256777e-01    0,000000000e+00    0,000000000e+00    0,000000000e+00    0,000000000e+00
     1010000000   -6,412573904e-02   -6,135735661e-02    6,095026135e-01    1,017012261e-02    0,000000000e+00    0,000000000e+00    0,000000000e+00    0,000000000e+00
     1024000000   -9,910377860e-02   -7,611960918e-02    5,117208362e-01   -2,869794965e-01    0,000000000e+00    0,000000000e+00    0,000000000e+00    0,000000000e+00
     1038000000   -1,393605620e-01   -6,128793210e-02    2,902798951e-01   -4,689875841e-01    0,000000000e+00    0,000000000e+00    0,000000000e+00    0,000000000e+00
     1052000000   -1,492585391e-01   -1,002260577e-02    3,365669027e-02   -5,211516619e-01    0,000000000e+00    0,000000000e+00    0,000000000e+00    0,000000000e+00
     1066000000   -1,150734052e-01    3,890087828e-02   -2,138644457e-01   -4,656657875e-01    0,000000000e+00    0,000000000e+00    0,000000000e+00    0,000000000e+00
     1080000000   -6,234302372e-02    2,928133495e-02   -4,206187129e-01   -2,952610850e-01    0,000000000e+00    0,000000000e+00    0,000000000e+00    0,000000000e+00
     1094000000   -3,560076281e-02   -3,303040517e-03   -5,167884231e-01   -1,928174496e-02    0,000000000e+00    0,000000000e+00    0,000000000e+00    0,000000000e+00
     1108000000   -2,594679780e-02   -2,780418843e-02   -4,383873343e-01    2,826234400e-01    0,000000000e+00    0,000000000e+00    0,000000000e+00    0,000000000e+00
     1122000000   -2,839762904e-02   -5,700567737e-02   -1,852387339e-01    4,907806516e-01    0,000000000e+00    0,000000000e+00    0,000000000e+00    0,000000000e+00
     1136000000   -4,366135225e-02   -9,482203424e-02    1,472254843e-01    5,150113702e-01    0,000000000e+00    0,000000000e+00    0,000000000e+00    0,000000000e+00
     1150000000   -7,980158925e-02   -1,256282479e-01    4,496338069e-01    3,429137468e-01    0,000000000e+00    0,000000000e+00    0,000000000e+00    0,000000000e+00
     1164000000   -1,449418813e-01   -1,234483421e-01    6,086012125e-01    1,129324362e-02    0,000000000e+00    0,000000000e+00    0,000000000e+00    0,000000000e+00
     1178000000   -1,787657887e-01   -8,918857574e-02    5,378845334e-01   -3,707870245e-01    0,000000000e+00    0,000000000e+00    0,000000000e+00    0,000000000e+00
     1192000000   -1,776520610e-01   -5,546584353e-02    2,425788939e-01   -6,347194910e-01    0,000000000e+00    0,000000000e+00    0,000000000e+00    0,000000000e+00
     1206000000   -1,874706298e-01   -5,015657470e-02   -1,362499148e-01   -6,586850286e-01    0,000000000e+00    0,000000000e+00    0,000000000e+00    0,000000000e+00
     1220000000   -2,486633509e-01   -2,103102580e-02   -4,184103012e-01   -4,873709381e-01    0,000000000e+00    0,000000000e+00    0,000000000e+00    0,000000000e+00
     1234000000   -2,398120761e-01    1,143537536e-01   -5,610834956e-01   -2,486755252e-01    0,000000000e+00    0,000000000e+00    0,000000000e+00    0,000000000e+00
     1248000000   -1,144805551e-01    1,761556119e-01   -6,061583757e-01    2,079570107e-02    0,000000000e+00    0,000000000e+00    0,000000000e+00    0,000000000e+00
     1262000000   -4,247562960e-03    1,373395175e-01   -5,067674518e-01    2,962807715e-01    0,000000000e+00    0,000000000e+00    0,000000000e+00    0,000000000e+00
     1276000000    6,190783903e-02    4,086603224e-02   -2,780766487e-01    4,847365320e-01    0,000000000e+00    0,000000000e+00    0,000000000e+00    0,000000000e+00
     1290000000    7,520132512e-02   -7,020857185e-02    1,004762575e-02    5,464752316e-01    0,000000000e+00    0,000000000e+00    0,000000000e+00    0,000000000e+00
     1304000000    1,671183854e-02   -1,813319623e-01    2,976678908e-01    4,727620780e-01    0,000000000e+00    0,000000000e+00    0,000000000e+00    0,000000000e+00
     1318000000   -9,211754054e-02   -2,487108409e-01    5,427656770e-01    2,716192603e-01    0,000000000e+00    0,000000000e+00    0,000000000e+00    0,000000000e+00
     1332000000   -2,435588390e-01   -2,484261990e-01    6,493325233e-01   -5,227641016e-02    0,000000000e+00    0,000000000e+00    0,000000000e+00    0,000000000e+00
     1346000000   -3,650294542e-01   -1,458695829e-01    5,487804413e-01   -4,144115150e-01    0,000000000e+00    0,000000000e+00    0,000000000e+00    0,000000000e+00
     1360000000   -3,926258981e-01    4,029041622e-03    2,548997402e-01   -6,424372792e-01    0,000000000e+00    0,000000000e+00    0,000000000e+00    0,000000000e+00
     1374000000   -3,264055550e-01    1,194864884e-01   -1,031569019e-01   -6,286462545e-01    0,000000000e+00    0,000000000e+00    0,000000000e+00    0,000000000e+00
     1388000000   -2,351592630e-01    1,672943980e-01   -3,642630279e-01   -4,178728461e-01    0,000000000e+00    0,000000000e+00    0,000000000e+00    0,000000000e+00
     1402000000   -1,520058960e-01    1,698318422e-01   -4,751433432e-01   -1,086657196e-01    0,000000000e+00    0,000000000e+00    0,000000000e+00    0,000000000e+00
     1416000000   -8,363139629e-02    1,420943290e-01   -4,000141025e-01    2,122844905e-01    0,000000000e+00    0,000000000e+00    0,000000000e+00    0,000000000e+00
     1430000000   -3,251524642e-02    8,673786372e-02   -1,761328429e-01    4,185245931e-01    0,000000000e+00    0,000000000e+00    0,000000000e+00    0,000000000e+00
     1444000000   -1,013777312e-02    5,933504086e-03    1,169426441e-01    5,204912424e-01    0,000000000e+00    0,000000000e+00    0,000000000e+00    0,000000000e+00
     1458000000   -3,692715243e-02   -8,534200490e-02    4,396117330e-01    4,816956222e-01    0,000000000e+00    0,000000000e+00    0,000000000e+00    0,000000000e+00
     1472000000   -1,303842068e-01   -1,481568962e-01    7,197397351e-01    3,032095432e-01    0,000000000e+00    0,000000000e+00    0,000000000e+00    0,000000000e+00
     1486000000   -2,394995987e-01   -1,508836895e-01    8,968698978e-01   -4,610858858e-02    0,000000000e+00    0,000000000e+00    0,000000000e+00    0,000000000e+00
     1500000000   -3,013512492e-01   -6,398829073e-02    8,408164382e-01   -4,204005301e-01    0,000000000e+00    0,000000000e+00    0,000000000e+00    0,000000000e+00
