! NanoVNA-App
! Date: 2025-09-25 15:02:28
! Start: 100MHz Stop: 1,5GHz Points: 101
! S-Parameter data: F S11 S21 S12 S22
# Hz S RI R 50
!     Frequency           S11_Real           S11_Imag           S21_Real           S21_Imag           S12_Real           S12_Imag           S22_Real           S22_Imag
      100000000    3,559421748e-02    2,736554854e-02    4,407844543e-01   -6,695577502e-01    0,000000000e+00    0,000000000e+00    0,000000000e+00    0,000000000e+00
      114000000    6,072922796e-02    2,197085647e-03    1,300628483e-02   -7,954642177e-01    0,000000000e+00    0,000000000e+00    0,000000000e+00    0,000000000e+00
      128000000    6,843057275e-02   -4,229403287e-02   -4,081464708e-01   -6,781470180e-01    0,000000000e+00    0,000000000e+00    0,000000000e+00    0,000000000e+00
      142000000    4,349154234e-02   -8,882419020e-02   -7,052053213e-01   -3,609825969e-01    0,000000000e+00    0,000000000e+00    0,000000000e+00    0,000000000e+00
      156000000   -9,884508327e-03   -1,093548164e-01   -7,924868464e-01    6,695076078e-02    0,000000000e+00    0,000000000e+00    0,000000000e+00    0,000000000e+00
      170000000   -6,276561320e-02   -9,182716906e-02   -6,369116902e-01    4,864025116e-01    0,000000000e+00    0,000000000e+00    0,000000000e+00    0,000000000e+00
      184000000   -8,856597543e-02   -4,768035188e-02   -2,731114328e-01    7,563498020e-01    0,000000000e+00    0,000000000e+00    0,000000000e+00    0,000000000e+00
      198000000   -8,278193325e-02   -6,447795779e-03    1,795981973e-01    7,822755575e-01    0,000000000e+00    0,000000000e+00    0,000000000e+00    0,000000000e+00
      212000000   -6,275324523e-02    1,798396558e-02    5,706375837e-01    5,584328771e-01    0,000000000e+00    0,000000000e+00    0,000000000e+00    0,000000000e+00
      226000000   -4,151794314e-02    3,178660572e-02    7,766777873e-01    1,620242000e-01    0,000000000e+00    0,000000000e+00    0,000000000e+00    0,000000000e+00
      240000000   -1,493888535e-02    4,128491879e-02    7,360618114e-01   -2,787272036e-01    0,000000000e+00    0,000000000e+00    0,000000000e+00    0,000000000e+00
      254000000    2,137691714e-02    3,629732132e-02    4,680640101e-01   -6,219844222e-01    0,000000000e+00    0,000000000e+00    0,000000000e+00    0,000000000e+00
      268000000    5,331987888e-02    4,769684281e-03    6,686049700e-02   -7,669435740e-01    0,000000000e+00    0,000000000e+00    0,000000000e+00    0,000000000e+00
      282000000    5,748090148e-02   -4,490816221e-02   -3,454492688e-01   -6,824738383e-01    0,000000000e+00    0,000000000e+00    0,000000000e+00    0,000000000e+00
      296000000    2,605160140e-02   -8,465927094e-02   -6,551437378e-01   -3,982677758e-01    0,000000000e+00    0,000000000e+00    0,000000000e+00    0,000000000e+00
      310000000   -1,886277646e-02   -8,933449537e-02   -7,748760581e-01    1,083745807e-02    0,000000000e+00    0,000000000e+00    0,000000000e+00    0,000000000e+00
      324000000   -4,641355947e-02   -6,363662332e-02   -6,484681964e-01    4,287512302e-01    0,000000000e+00    0,000000000e+00    0,000000000e+00    0,000000000e+00
      338000000   -4,133157805e-02   -3,753665462e-02   -3,094787300e-01    7,129416466e-01    0,000000000e+00    0,000000000e+00    0,000000000e+00    0,000000000e+00
      352000000   -2,359383926e-02   -3,810083494e-02    1,195958182e-01    7,588138580e-01    0,000000000e+00    0,000000000e+00    0,000000000e+00    0,000000000e+00
      366000000   -2,287119068e-02   -5,634317920e-02    5,033104420e-01    5,714072585e-01    0,000000000e+00    0,000000000e+00    0,000000000e+00    0,000000000e+00
      380000000   -4,438695312e-02   -6,532651931e-02    7,264565229e-01    2,117728144e-01    0,000000000e+00    0,000000000e+00    0,000000000e+00    0,000000000e+00
      394000000   -6,639811397e-02   -5,040393397e-02    7,228955626e-01   -2,130915076e-01    0,000000000e+00    0,000000000e+00    0,000000000e+00    0,000000000e+00
      408000000   -6,752844900e-02   -2,622284181e-02    4,899782240e-01   -5,689021349e-01    0,000000000e+00    0,000000000e+00    0,000000000e+00    0,000000000e+00
      422000000   -5,317476019e-02   -1,512048487e-02    1,056207046e-01   -7,384337187e-01    0,000000000e+00    0,000000000e+00    0,000000000e+00    0,000000000e+00
      436000000   -4,644923285e-02   -1,846636459e-02   -3,057168424e-01   -6,757662296e-01    0,000000000e+00    0,000000000e+00    0,000000000e+00    0,000000000e+00
      450000000   -5,173383653e-02   -1,508284546e-02   -6,188158393e-01   -3,999268115e-01    0,000000000e+00    0,000000000e+00    0,000000000e+00    0,000000000e+00
      464000000   -5,013866723e-02    5,976625253e-03   -7,296704054e-01    3,428039607e-03    0,000000000e+00    0,000000000e+00    0,000000000e+00    0,000000000e+00
      478000000   -2,060741559e-02    2,634448744e-02   -5,987691283e-01    3,968436122e-01    0,000000000e+00    0,000000000e+00    0,000000000e+00    0,000000000e+00
      492000000    2,851216123e-02    1,440913603e-02   -2,802495360e-01    6,440228820e-01    0,000000000e+00    0,000000000e+00    0,000000000e+00    0,000000000e+00
      506000000    5,886170268e-02   -3,760968521e-02    1,049138084e-01    6,792438626e-01    0,000000000e+00    0,000000000e+00    0,000000000e+00    0,000000000e+00
      520000000    4,412699118e-02   -1,022767276e-01    4,388001263e-01    5,162398219e-01    0,000000000e+00    0,000000000e+00    0,000000000e+00    0,000000000e+00
      534000000   -1,264857128e-02   -1,437335312e-01    6,495762467e-01    2,055289894e-01    0,000000000e+00    0,000000000e+00    0,000000000e+00    0,000000000e+00
      548000000   -8,186800778e-02   -1,401733011e-01    6,598280072e-01   -1,769149601e-01    0,000000000e+00    0,000000000e+00    0,000000000e+00    0,000000000e+00
      562000000   -1,321139038e-01   -9,820785373e-02    4,500733316e-01   -5,087703466e-01    0,000000000e+00    0,000000000e+00    0,000000000e+00    0,000000000e+00
      576000000   -1,503931135e-01   -3,861667588e-02    8,163397014e-02   -6,602851748e-01    0,000000000e+00    0,000000000e+00    0,000000000e+00    0,000000000e+00
      590000000   -1,298075616e-01    3,077206947e-02   -2,943005562e-01   -5,635334253e-01    0,000000000e+00    0,000000000e+00    0,000000000e+00    0,000000000e+00
      604000000   -3,587347269e-02    6,838658452e-02   -4,859359562e-01   -2,691830099e-01    0,000000000e+00    0,000000000e+00    0,000000000e+00    0,000000000e+00
      618000000    3,398789465e-02   -3,303084150e-02   -4,936518967e-01   -5,471609905e-02    0,000000000e+00    0,000000000e+00    0,000000000e+00    0,000000000e+00
      632000000   -5,479136482e-02   -9,237890691e-02   -5,287888050e-01    1,773625463e-01    0,000000000e+00    0,000000000e+00    0,000000000e+00    0,000000000e+00
      646000000   -9,919910133e-02   -3,261388093e-02   -3,792704940e-01    4,786152244e-01    0,000000000e+00    0,000000000e+00    0,000000000e+00    0,000000000e+00
      660000000   -6,838091463e-02    9,803896770e-03   -5,152339488e-02    6,258882284e-01    0,000000000e+00    0,000000000e+00    0,000000000e+00    0,000000000e+00
      674000000   -2,981356718e-02    4,956819117e-03    2,993076444e-01    5,529904366e-01    0,000000000e+00    0,000000000e+00    0,000000000e+00    0,000000000e+00
      688000000   -1,485987101e-02   -1,882532425e-02    5,474588275e-01    3,031249046e-01    0,000000000e+00    0,000000000e+00    0,000000000e+00    0,000000000e+00
      702000000   -1,507626846e-02   -3,442320600e-02    6,232789755e-01   -4,259454831e-02    0,000000000e+00    0,000000000e+00    0,000000000e+00    0,000000000e+00
      716000000   -9,953553788e-03   -4,793060943e-02    4,919648767e-01   -3,682675660e-01    0,000000000e+00    0,000000000e+00    0,000000000e+00    0,000000000e+00
      730000000   -7,379543968e-03   -7,502418011e-02    2,122232467e-01   -5,677676201e-01    0,000000000e+00    0,000000000e+00    0,000000000e+00    0,000000000e+00
      744000000   -2,657789178e-02   -1,103986427e-01   -1,241311282e-01   -5,874430537e-01    0,000000000e+00    0,000000000e+00    0,000000000e+00    0,000000000e+00
      758000000   -7,375136018e-02   -1,324419528e-01   -4,192154408e-01   -4,326470494e-01    0,000000000e+00    0,000000000e+00    0,000000000e+00    0,000000000e+00
      772000000   -1,355129331e-01   -1,161345094e-01   -5,937183499e-01   -1,401475072e-01    0,000000000e+00    0,000000000e+00    0,000000000e+00    0,000000000e+00
      786000000   -1,713443995e-01   -5,946061388e-02   -5,809869766e-01    2,102740258e-01    0,000000000e+00    0,000000000e+00    0,000000000e+00    0,000000000e+00
      800000000   -1,604498327e-01    6,159195676e-03   -3,731292188e-01    4,952698052e-01    0,000000000e+00    0,000000000e+00    0,000000000e+00    0,000000000e+00
      814000000   -1,147045568e-01    4,303824157e-02   -4,543256760e-02    6,150251031e-01    0,000000000e+00    0,000000000e+00    0,000000000e+00    0,000000000e+00
      828000000   -6,893528253e-02    4,352398589e-02    2,861557305e-01    5,400385857e-01    0,000000000e+00    0,000000000e+00    0,000000000e+00    0,000000000e+00
      842000000   -3,866789863e-02    2,957298048e-02    5,208651423e-01    3,051499426e-01    0,000000000e+00    0,000000000e+00    0,000000000e+00    0,000000000e+00
      856000000   -1,806104369e-02    1,304449607e-02    5,939968228e-01   -1,418139320e-02    0,000000000e+00    0,000000000e+00    0,000000000e+00    0,000000000e+00
      870000000    2,012427431e-03   -1,087274309e-02    4,863438308e-01   -3,174893856e-01    0,000000000e+00    0,000000000e+00    0,000000000e+00    0,000000000e+00
      884000000    1,389930770e-02   -5,215952173e-02    2,429451197e-01   -5,126134157e-01    0,000000000e+00    0,000000000e+00    0,000000000e+00    0,000000000e+00
      898000000   -4,067696631e-03   -1,024438962e-01   -5,776568875e-02   -5,548061132e-01    0,000000000e+00    0,000000000e+00    0,000000000e+00    0,000000000e+00
      912000000   -6,359358132e-02   -1,320841908e-01   -3,816120625e-01   -4,243309200e-01    0,000000000e+00    0,000000000e+00    0,000000000e+00    0,000000000e+00
      926000000   -1,283151656e-01   -1,202394813e-01   -5,674980879e-01   -1,501032710e-01    0,000000000e+00    0,000000000e+00    0,000000000e+00    0,000000000e+00
      940000000   -1,634176970e-01   -6,393092126e-02   -5,686257482e-01    1,907837093e-01    0,000000000e+00    0,000000000e+00    0,000000000e+00    0,000000000e+00
      954000000   -1,496169716e-01    9,704859112e-04   -3,752227426e-01    4,864260554e-01    0,000000000e+00    0,000000000e+00    0,000000000e+00    0,000000000e+00
      968000000   -9,532444179e-02    2,396397106e-02   -5,088042468e-02    6,170970798e-01    0,000000000e+00    0,000000000e+00    0,000000000e+00    0,000000000e+00
      982000000   -5,498771369e-02    2,525960095e-03    2,799646854e-01    5,503000617e-01    0,000000000e+00    0,000000000e+00    0,000000000e+00    0,000000000e+00
      996000000   -4,239011556e-02   -3,494514897e-02    5,251250267e-01    3,285754621e-01    0,000000000e+00    0,000000000e+00    0,000000000e+00    0,000000000e+00
     1010000000   -6,039051712e-02   -6,661482900e-02    6,070095897e-01    1,635428704e-02    0,000000000e+00    0,000000000e+00    0,000000000e+00    0,000000000e+00
     1024000000   -1,047856435e-01   -7,963851094e-02    5,148422122e-01   -2,815281451e-01    0,000000000e+00    0,000000000e+00    0,000000000e+00    0,000000000e+00
     1038000000   -1,417319179e-01   -5,760790780e-02    2,958054543e-01   -4,722257257e-01    0,000000000e+00    0,000000000e+00    0,000000000e+00    0,000000000e+00
     1052000000   -1,475715488e-01    2,172602217e-05    3,713220358e-02   -5,244866014e-01    0,000000000e+00    0,000000000e+00    0,000000000e+00    0,000000000e+00
     1066000000   -1,012971178e-01    4,260578379e-02   -2,126193643e-01   -4,693680704e-01    0,000000000e+00    0,000000000e+00    0,000000000e+00    0,000000000e+00
     1080000000   -5,440051109e-02    2,767469734e-02   -4,192964435e-01   -3,015559614e-01    0,000000000e+00    0,000000000e+00    0,000000000e+00    0,000000000e+00
     1094000000   -3,081220388e-02   -8,591501974e-03   -5,204784274e-01   -2,303838171e-02    0,000000000e+00    0,000000000e+00    0,000000000e+00    0,000000000e+00
     1108000000   -3,378392383e-02   -3,511754796e-02   -4,438428581e-01    2,871373296e-01    0,000000000e+00    0,000000000e+00    0,000000000e+00    0,000000000e+00
     1122000000   -3,055279143e-02   -5,798275024e-02   -1,856326759e-01    5,001553297e-01    0,000000000e+00    0,000000000e+00    0,000000000e+00    0,000000000e+00
     1136000000   -4,536567628e-02   -9,244076163e-02    1,522882730e-01    5,179607868e-01    0,000000000e+00    0,000000000e+00    0,000000000e+00    0,000000000e+00
     1150000000   -8,396440744e-02   -1,266446412e-01    4,523889422e-01    3,468403220e-01    0,000000000e+00    0,000000000e+00    0,000000000e+00    0,000000000e+00
     1164000000   -1,383340955e-01   -1,205474809e-01    6,108458042e-01    1,148275472e-02    0,000000000e+00    0,000000000e+00    0,000000000e+00    0,000000000e+00
     1178000000   -1,796111465e-01   -8,665695041e-02    5,362942815e-01   -3,725415468e-01    0,000000000e+00    0,000000000e+00    0,000000000e+00    0,000000000e+00
     1192000000   -1,763989031e-01   -5,357480049e-02    2,409219593e-01   -6,375397444e-01    0,000000000e+00    0,000000000e+00    0,000000000e+00    0,000000000e+00
     1206000000   -1,899653375e-01   -5,736099556e-02   -1,348609477e-01   -6,602838039e-01    0,000000000e+00    0,000000000e+00    0,000000000e+00    0,000000000e+00
     1220000000   -2,519575059e-01   -1,503261086e-02   -4,134000838e-01   -4,881128073e-01    0,000000000e+00    0,000000000e+00    0,000000000e+00    0,000000000e+00
     1234000000   -2,413194925e-01    1,114067212e-01   -5,591065884e-01   -2,512608469e-01    0,000000000e+00    0,000000000e+00    0,000000000e+00    0,000000000e+00
     1248000000   -1,159480661e-01    1,700907201e-01   -6,069174409e-01    1,880307309e-02    0,000000000e+00    0,000000000e+00    0,000000000e+00    0,000000000e+00
     1262000000    2,008142648e-03    1,316049397e-01   -5,090326667e-01    3,010947406e-01    0,000000000e+00    0,000000000e+00    0,000000000e+00    0,000000000e+00
     1276000000    6,204661354e-02    4,298625514e-02   -2,804616094e-01    4,906273186e-01    0,000000000e+00    0,000000000e+00    0,000000000e+00    0,000000000e+00
     1290000000    7,033652812e-02   -6,887790561e-02    9,032764472e-03    5,550491214e-01    0,000000000e+00    0,000000000e+00    0,000000000e+00    0,000000000e+00
     1304000000    1,795536652e-02   -1,810641736e-01    2,967076898e-01    4,740691781e-01    0,000000000e+00    0,000000000e+00    0,000000000e+00    0,000000000e+00
     1318000000   -9,523788095e-02   -2,510819435e-01    5,394837856e-01    2,714819908e-01    0,000000000e+00    0,000000000e+00    0,000000000e+00    0,000000000e+00
     1332000000   -2,449650764e-01   -2,413366139e-01    6,537492275e-01   -5,077238008e-02    0,000000000e+00    0,000000000e+00    0,000000000e+00    0,000000000e+00
     1346000000   -3,672698438e-01   -1,390021443e-01    5,486344099e-01   -4,061261117e-01    0,000000000e+00    0,000000000e+00    0,000000000e+00    0,000000000e+00
     1360000000   -3,880414963e-01    4,542797338e-03    2,478833944e-01   -6,284784079e-01    0,000000000e+00    0,000000000e+00    0,000000000e+00    0,000000000e+00
     1374000000   -3,232945502e-01    1,235899255e-01   -1,105333492e-01   -6,095560193e-01    0,000000000e+00    0,000000000e+00    0,000000000e+00    0,000000000e+00
     1388000000   -2,398768067e-01    1,670448631e-01   -3,643356562e-01   -4,283616245e-01    0,000000000e+00    0,000000000e+00    0,000000000e+00    0,000000000e+00
     1402000000   -1,530659050e-01    1,704964340e-01   -4,804202616e-01   -1,128294170e-01    0,000000000e+00    0,000000000e+00    0,000000000e+00    0,000000000e+00
     1416000000   -8,061265200e-02    1,424102932e-01   -3,903847933e-01    2,016507238e-01    0,000000000e+00    0,000000000e+00    0,000000000e+00    0,000000000e+00
     1430000000   -3,478696942e-02    8,790091425e-02   -1,665797085e-01    4,449433684e-01    0,000000000e+00    0,000000000e+00    0,000000000e+00    0,000000000e+00
     1444000000   -1,146309357e-02    7,945246994e-03    1,252402812e-01    5,323449969e-01    0,000000000e+00    0,000000000e+00    0,000000000e+00    0,000000000e+00
     1458000000   -4,368721321e-02   -8,368215710e-02    4,349254072e-01    5,048003793e-01    0,000000000e+00    0,000000000e+00    0,000000000e+00    0,000000000e+00
     1472000000   -1,262909025e-01   -1,491130143e-01    7,247972488e-01    3,140251935e-01    0,000000000e+00    0,000000000e+00    0,000000000e+00    0,000000000e+00
     1486000000   -2,317030877e-01   -1,331543773e-01    9,084044695e-01   -2,543128096e-02    0,000000000e+00    0,000000000e+00    0,000000000e+00    0,000000000e+00
     1500000000   -3,058607280e-01   -5,722370744e-02    8,347541094e-01   -4,178679585e-01    0,000000000e+00    0,000000000e+00    0,000000000e+00    0,000000000e+00
