! NanoVNA-App
! Date: 2025-09-25 14:58:07
! Start: 100MHz Stop: 1,5GHz Points: 101
! S-Parameter data: F S11 S21 S12 S22
# Hz S RI R 50
!     Frequency           S11_Real           S11_Imag           S21_Real           S21_Imag           S12_Real           S12_Imag           S22_Real           S22_Imag
      100000000    3,558229655e-02    2,735016681e-02    4,407164752e-01   -6,695008278e-01    0,000000000e+00    0,000000000e+00    0,000000000e+00    0,000000000e+00
      114000000    6,071444973e-02    2,194978762e-03    1,304476988e-02   -7,954359055e-01    0,000000000e+00    0,000000000e+00    0,000000000e+00    0,000000000e+00
      128000000    6,838149577e-02   -4,225476459e-02   -4,081938267e-01   -6,781482100e-01    0,000000000e+00    0,000000000e+00    0,000000000e+00    0,000000000e+00
      142000000    4,346054047e-02   -8,875703067e-02   -7,052395344e-01   -3,609513640e-01    0,000000000e+00    0,000000000e+00    0,000000000e+00    0,000000000e+00
      156000000   -8,948177099e-03   -1,098970920e-01   -7,940528393e-01    6,755600870e-02    0,000000000e+00    0,000000000e+00    0,000000000e+00    0,000000000e+00
      170000000   -6,265012175e-02   -9,170974791e-02   -6,367263794e-01    4,862478375e-01    0,000000000e+00    0,000000000e+00    0,000000000e+00    0,000000000e+00
      184000000   -8,851560950e-02   -4,767691717e-02   -2,730555236e-01    7,558619976e-01    0,000000000e+00    0,000000000e+00    0,000000000e+00    0,000000000e+00
      198000000   -8,273977786e-02   -6,445082836e-03    1,795448512e-01    7,824447155e-01    0,000000000e+00    0,000000000e+00    0,000000000e+00    0,000000000e+00
      212000000   -6,271532923e-02    1,800385304e-02    5,707001090e-01    5,583246946e-01    0,000000000e+00    0,000000000e+00    0,000000000e+00    0,000000000e+00
      226000000   -4,147241637e-02    3,179384023e-02    7,767717242e-01    1,618391126e-01    0,000000000e+00    0,000000000e+00    0,000000000e+00    0,000000000e+00
      240000000   -1,483057626e-02    4,130105302e-02    7,361127734e-01   -2,787971795e-01    0,000000000e+00    0,000000000e+00    0,000000000e+00    0,000000000e+00
      254000000    2,141875215e-02    3,629570454e-02    4,678082764e-01   -6,218363047e-01    0,000000000e+00    0,000000000e+00    0,000000000e+00    0,000000000e+00
      268000000    5,331704766e-02    4,700963851e-03    6,682934612e-02   -7,674506903e-01    0,000000000e+00    0,000000000e+00    0,000000000e+00    0,000000000e+00
      282000000    5,744482204e-02   -4,498820007e-02   -3,457257748e-01   -6,826993227e-01    0,000000000e+00    0,000000000e+00    0,000000000e+00    0,000000000e+00
      296000000    2,613787167e-02   -8,470886946e-02   -6,549918056e-01   -3,977070749e-01    0,000000000e+00    0,000000000e+00    0,000000000e+00    0,000000000e+00
      310000000   -1,915371604e-02   -8,943873644e-02   -7,750287056e-01    9,878506884e-03    0,000000000e+00    0,000000000e+00    0,000000000e+00    0,000000000e+00
      324000000   -4,654314741e-02   -6,372597814e-02   -6,482733488e-01    4,300733209e-01    0,000000000e+00    0,000000000e+00    0,000000000e+00    0,000000000e+00
      338000000   -4,114612192e-02   -3,754504770e-02   -3,117688894e-01    7,113556862e-01    0,000000000e+00    0,000000000e+00    0,000000000e+00    0,000000000e+00
      352000000   -2,361113764e-02   -3,761432692e-02    1,195346490e-01    7,590963244e-01    0,000000000e+00    0,000000000e+00    0,000000000e+00    0,000000000e+00
      366000000   -2,287342772e-02   -5,617400259e-02    5,028947592e-01    5,713046789e-01    0,000000000e+00    0,000000000e+00    0,000000000e+00    0,000000000e+00
      380000000   -4,461026564e-02   -6,531769037e-02    7,264503837e-01    2,116515040e-01    0,000000000e+00    0,000000000e+00    0,000000000e+00    0,000000000e+00
      394000000   -6,618552655e-02   -5,078015476e-02    7,231396437e-01   -2,138461769e-01    0,000000000e+00    0,000000000e+00    0,000000000e+00    0,000000000e+00
      408000000   -6,736598909e-02   -2,630773559e-02    4,888935983e-01   -5,689502358e-01    0,000000000e+00    0,000000000e+00    0,000000000e+00    0,000000000e+00
      422000000   -5,308232829e-02   -1,522485912e-02    1,058153510e-01   -7,388461828e-01    0,000000000e+00    0,000000000e+00    0,000000000e+00    0,000000000e+00
      436000000   -4,675855115e-02   -1,864368655e-02   -3,064254820e-01   -6,755501032e-01    0,000000000e+00    0,000000000e+00    0,000000000e+00    0,000000000e+00
      450000000   -5,191933736e-02   -1,494860556e-02   -6,185701489e-01   -3,993994892e-01    0,000000000e+00    0,000000000e+00    0,000000000e+00    0,000000000e+00
      464000000   -5,058551207e-02    5,667546298e-03   -7,300377488e-01    3,201050451e-03    0,000000000e+00    0,000000000e+00    0,000000000e+00    0,000000000e+00
      478000000   -2,053663693e-02    2,649671957e-02   -5,985273123e-01    3,971756697e-01    0,000000000e+00    0,000000000e+00    0,000000000e+00    0,000000000e+00
      492000000    2,835123055e-02    1,451022085e-02   -2,795863748e-01    6,445605159e-01    0,000000000e+00    0,000000000e+00    0,000000000e+00    0,000000000e+00
      506000000    5,892864987e-02   -3,735534102e-02    1,047471389e-01    6,805377007e-01    0,000000000e+00    0,000000000e+00    0,000000000e+00    0,000000000e+00
      520000000    4,470808059e-02   -1,031730846e-01    4,451336563e-01    5,198071599e-01    0,000000000e+00    0,000000000e+00    0,000000000e+00    0,000000000e+00
      534000000   -1,276016142e-02   -1,442994922e-01    6,488671303e-01    2,058448493e-01    0,000000000e+00    0,000000000e+00    0,000000000e+00    0,000000000e+00
      548000000   -8,153340966e-02   -1,398725808e-01    6,599503756e-01   -1,764706075e-01    0,000000000e+00    0,000000000e+00    0,000000000e+00    0,000000000e+00
      562000000   -1,316340417e-01   -9,836965799e-02    4,498841763e-01   -5,087419152e-01    0,000000000e+00    0,000000000e+00    0,000000000e+00    0,000000000e+00
      576000000   -1,495862305e-01   -3,836218640e-02    8,203430474e-02   -6,600503922e-01    0,000000000e+00    0,000000000e+00    0,000000000e+00    0,000000000e+00
      590000000   -1,294745952e-01    3,022507578e-02   -2,970828116e-01   -5,629448295e-01    0,000000000e+00    0,000000000e+00    0,000000000e+00    0,000000000e+00
      604000000   -3,624952212e-02    6,770909578e-02   -4,859108925e-01   -2,704620361e-01    0,000000000e+00    0,000000000e+00    0,000000000e+00    0,000000000e+00
      618000000    3,390005231e-02   -3,226020560e-02   -4,939585924e-01   -5,361491442e-02    0,000000000e+00    0,000000000e+00    0,000000000e+00    0,000000000e+00
      632000000   -5,455126986e-02   -9,164218605e-02   -5,279801488e-01    1,778810471e-01    0,000000000e+00    0,000000000e+00    0,000000000e+00    0,000000000e+00
      646000000   -9,909931570e-02   -3,284062073e-02   -3,793246150e-01    4,784080088e-01    0,000000000e+00    0,000000000e+00    0,000000000e+00    0,000000000e+00
      660000000   -6,863733381e-02    9,374151006e-03   -5,087302253e-02    6,265550256e-01    0,000000000e+00    0,000000000e+00    0,000000000e+00    0,000000000e+00
      674000000   -3,026569448e-02    3,879436525e-03    2,987365425e-01    5,519096255e-01    0,000000000e+00    0,000000000e+00    0,000000000e+00    0,000000000e+00
      688000000   -1,579550281e-02   -1,797270216e-02    5,468667746e-01    3,030377626e-01    0,000000000e+00    0,000000000e+00    0,000000000e+00    0,000000000e+00
      702000000   -1,471952535e-02   -3,472254425e-02    6,217021942e-01   -4,009972513e-02    0,000000000e+00    0,000000000e+00    0,000000000e+00    0,000000000e+00
      716000000   -9,893406183e-03   -4,794361815e-02    4,916043878e-01   -3,680117726e-01    0,000000000e+00    0,000000000e+00    0,000000000e+00    0,000000000e+00
      730000000   -7,910354063e-03   -7,390553504e-02    2,118424475e-01   -5,678172708e-01    0,000000000e+00    0,000000000e+00    0,000000000e+00    0,000000000e+00
      744000000   -2,657340840e-02   -1,104325801e-01   -1,244938746e-01   -5,874402523e-01    0,000000000e+00    0,000000000e+00    0,000000000e+00    0,000000000e+00
      758000000   -7,374276221e-02   -1,320880502e-01   -4,199736118e-01   -4,326951206e-01    0,000000000e+00    0,000000000e+00    0,000000000e+00    0,000000000e+00
      772000000   -1,351841539e-01   -1,166083738e-01   -5,935958624e-01   -1,392853856e-01    0,000000000e+00    0,000000000e+00    0,000000000e+00    0,000000000e+00
      786000000   -1,707286239e-01   -5,890467763e-02   -5,811797380e-01    2,094235867e-01    0,000000000e+00    0,000000000e+00    0,000000000e+00    0,000000000e+00
      800000000   -1,587967277e-01    6,345765665e-03   -3,724739254e-01    4,955572486e-01    0,000000000e+00    0,000000000e+00    0,000000000e+00    0,000000000e+00
      814000000   -1,143962815e-01    4,271185771e-02   -4,630983248e-02    6,123824716e-01    0,000000000e+00    0,000000000e+00    0,000000000e+00    0,000000000e+00
      828000000   -6,886993349e-02    4,337070510e-02    2,867742777e-01    5,400922894e-01    0,000000000e+00    0,000000000e+00    0,000000000e+00    0,000000000e+00
      842000000   -3,946087509e-02    2,961085923e-02    5,205248594e-01    3,053447902e-01    0,000000000e+00    0,000000000e+00    0,000000000e+00    0,000000000e+00
      856000000   -1,862834767e-02    1,289122086e-02    5,941619873e-01   -1,421139762e-02    0,000000000e+00    0,000000000e+00    0,000000000e+00    0,000000000e+00
      870000000    2,260433277e-03   -1,049719099e-02    4,862193763e-01   -3,166610599e-01    0,000000000e+00    0,000000000e+00    0,000000000e+00    0,000000000e+00
      884000000    1,355251484e-02   -5,103712901e-02    2,422583103e-01   -5,114129782e-01    0,000000000e+00    0,000000000e+00    0,000000000e+00    0,000000000e+00
      898000000   -3,218621947e-03   -1,024043187e-01   -5,848560110e-02   -5,541175604e-01    0,000000000e+00    0,000000000e+00    0,000000000e+00    0,000000000e+00
      912000000   -6,351789087e-02   -1,323383451e-01   -3,846824169e-01   -4,107244015e-01    0,000000000e+00    0,000000000e+00    0,000000000e+00    0,000000000e+00
      926000000   -1,256587654e-01   -1,201426983e-01   -5,646268129e-01   -1,474810392e-01    0,000000000e+00    0,000000000e+00    0,000000000e+00    0,000000000e+00
      940000000   -1,656221300e-01   -6,362597644e-02   -5,686495304e-01    1,929535419e-01    0,000000000e+00    0,000000000e+00    0,000000000e+00    0,000000000e+00
      954000000   -1,459210664e-01    1,608803985e-03   -3,752429485e-01    4,847272635e-01    0,000000000e+00    0,000000000e+00    0,000000000e+00    0,000000000e+00
      968000000   -9,737596661e-02    2,173221111e-02   -5,338249356e-02    6,144483089e-01    0,000000000e+00    0,000000000e+00    0,000000000e+00    0,000000000e+00
      982000000   -5,500819534e-02    7,258228958e-03    2,797330022e-01    5,533177853e-01    0,000000000e+00    0,000000000e+00    0,000000000e+00    0,000000000e+00
      996000000   -4,138904437e-02   -3,429472446e-02    5,236468911e-01    3,295750916e-01    0,000000000e+00    0,000000000e+00    0,000000000e+00    0,000000000e+00
     1010000000   -6,593164802e-02   -6,763894111e-02    6,070070267e-01    1,453362219e-02    0,000000000e+00    0,000000000e+00    0,000000000e+00    0,000000000e+00
     1024000000   -9,888229519e-02   -7,509659231e-02    5,159799457e-01   -2,829041779e-01    0,000000000e+00    0,000000000e+00    0,000000000e+00    0,000000000e+00
     1038000000   -1,440228820e-01   -5,626046658e-02    2,953386605e-01   -4,726490080e-01    0,000000000e+00    0,000000000e+00    0,000000000e+00    0,000000000e+00
     1052000000   -1,549723148e-01   -1,756365178e-03    3,410867602e-02   -5,264843702e-01    0,000000000e+00    0,000000000e+00    0,000000000e+00    0,000000000e+00
     1066000000   -1,069161519e-01    3,819375485e-02   -2,064857334e-01   -4,657739401e-01    0,000000000e+00    0,000000000e+00    0,000000000e+00    0,000000000e+00
     1080000000   -5,366502702e-02    3,118015826e-02   -4,148162007e-01   -2,990755439e-01    0,000000000e+00    0,000000000e+00    0,000000000e+00    0,000000000e+00
     1094000000   -3,614201397e-02   -3,088832600e-03   -5,189527869e-01   -2,427580208e-02    0,000000000e+00    0,000000000e+00    0,000000000e+00    0,000000000e+00
     1108000000   -3,478790075e-02   -3,133582324e-02   -4,420229197e-01    2,858206928e-01    0,000000000e+00    0,000000000e+00    0,000000000e+00    0,000000000e+00
     1122000000   -2,871259116e-02   -5,882677063e-02   -1,877261400e-01    4,993034303e-01    0,000000000e+00    0,000000000e+00    0,000000000e+00    0,000000000e+00
     1136000000   -4,673259705e-02   -9,652317315e-02    1,514278650e-01    5,181237459e-01    0,000000000e+00    0,000000000e+00    0,000000000e+00    0,000000000e+00
     1150000000   -8,273691684e-02   -1,214368939e-01    4,519250989e-01    3,425686657e-01    0,000000000e+00    0,000000000e+00    0,000000000e+00    0,000000000e+00
     1164000000   -1,357848197e-01   -1,247334555e-01    6,089065671e-01    1,160146482e-02    0,000000000e+00    0,000000000e+00    0,000000000e+00    0,000000000e+00
     1178000000   -1,799742281e-01   -8,923091739e-02    5,385202169e-01   -3,726157546e-01    0,000000000e+00    0,000000000e+00    0,000000000e+00    0,000000000e+00
     1192000000   -1,793339103e-01   -5,114182085e-02    2,428153455e-01   -6,386652589e-01    0,000000000e+00    0,000000000e+00    0,000000000e+00    0,000000000e+00
     1206000000   -1,909842938e-01   -5,795693025e-02   -1,383175552e-01   -6,632968187e-01    0,000000000e+00    0,000000000e+00    0,000000000e+00    0,000000000e+00
     1220000000   -2,496305853e-01   -1,764852554e-02   -4,185088277e-01   -4,805527925e-01    0,000000000e+00    0,000000000e+00    0,000000000e+00    0,000000000e+00
     1234000000   -2,444106936e-01    1,181974038e-01   -5,556144118e-01   -2,507511377e-01    0,000000000e+00    0,000000000e+00    0,000000000e+00    0,000000000e+00
     1248000000   -1,184960976e-01    1,730072051e-01   -6,081731319e-01    1,953779720e-02    0,000000000e+00    0,000000000e+00    0,000000000e+00    0,000000000e+00
     1262000000   -1,563054509e-03    1,349637210e-01   -5,069888830e-01    3,008612096e-01    0,000000000e+00    0,000000000e+00    0,000000000e+00    0,000000000e+00
     1276000000    5,957751349e-02    4,528893903e-02   -2,778613567e-01    4,870503843e-01    0,000000000e+00    0,000000000e+00    0,000000000e+00    0,000000000e+00
     1290000000    7,337574661e-02   -6,910104305e-02    1,142253261e-02    5,437588096e-01    0,000000000e+00    0,000000000e+00    0,000000000e+00    0,000000000e+00
     1304000000    2,058845386e-02   -1,790376008e-01    3,052512109e-01    4,773519933e-01    0,000000000e+00    0,000000000e+00    0,000000000e+00    0,000000000e+00
     1318000000   -9,349003434e-02   -2,562227547e-01    5,375910997e-01    2,701948583e-01    0,000000000e+00    0,000000000e+00    0,000000000e+00    0,000000000e+00
     1332000000   -2,444788516e-01   -2,408171743e-01    6,492307782e-01   -5,317166448e-02    0,000000000e+00    0,000000000e+00    0,000000000e+00    0,000000000e+00
     1346000000   -3,597965240e-01   -1,396537870e-01    5,604714751e-01   -4,107349515e-01    0,000000000e+00    0,000000000e+00    0,000000000e+00    0,000000000e+00
     1360000000   -3,845774829e-01    6,934407633e-03    2,618634105e-01   -6,389862299e-01    0,000000000e+00    0,000000000e+00    0,000000000e+00    0,000000000e+00
     1374000000   -3,205832541e-01    1,210596561e-01   -1,021371111e-01   -6,282055974e-01    0,000000000e+00    0,000000000e+00    0,000000000e+00    0,000000000e+00
     1388000000   -2,365885079e-01    1,671887040e-01   -3,723987639e-01   -4,197542965e-01    0,000000000e+00    0,000000000e+00    0,000000000e+00    0,000000000e+00
     1402000000   -1,544944793e-01    1,699326783e-01   -4,757780433e-01   -1,136488691e-01    0,000000000e+00    0,000000000e+00    0,000000000e+00    0,000000000e+00
     1416000000   -8,571675420e-02    1,440193802e-01   -3,951000571e-01    1,944314539e-01    0,000000000e+00    0,000000000e+00    0,000000000e+00    0,000000000e+00
     1430000000   -3,286862373e-02    9,178529680e-02   -1,767874956e-01    4,304360747e-01    0,000000000e+00    0,000000000e+00    0,000000000e+00    0,000000000e+00
     1444000000   -1,289212238e-02    6,942370906e-03    1,265560240e-01    5,177753568e-01    0,000000000e+00    0,000000000e+00    0,000000000e+00    0,000000000e+00
     1458000000   -3,302082792e-02   -7,530010492e-02    4,409143925e-01    4,988443553e-01    0,000000000e+00    0,000000000e+00    0,000000000e+00    0,000000000e+00
     1472000000   -1,190916002e-01   -1,404273510e-01    7,306576371e-01    3,202143013e-01    0,000000000e+00    0,000000000e+00    0,000000000e+00    0,000000000e+00
     1486000000   -2,273744643e-01   -1,431543529e-01    9,125611782e-01   -3,751451895e-02    0,000000000e+00    0,000000000e+00    0,000000000e+00    0,000000000e+00
     1500000000   -3,101021349e-01   -6,583645940e-02    8,347305655e-01   -4,265404940e-01    0,000000000e+00    0,000000000e+00    0,000000000e+00    0,000000000e+00
