! NanoVNA-App
! Date: 2025-09-25 14:57:21
! Start: 100MHz Stop: 1,5GHz Points: 101
! S-Parameter data: F S11 S21 S12 S22
# Hz S RI R 50
!     Frequency           S11_Real           S11_Imag           S21_Real           S21_Imag           S12_Real           S12_Imag           S22_Real           S22_Imag
      100000000    3,559319675e-02    2,732943743e-02    4,407078326e-01   -6,695533991e-01    0,000000000e+00    0,000000000e+00    0,000000000e+00    0,000000000e+00
      114000000    6,071565673e-02    2,169082640e-03    1,287499163e-02   -7,952494025e-01    0,000000000e+00    0,000000000e+00    0,000000000e+00    0,000000000e+00
      128000000    6,838577986e-02   -4,222764447e-02   -4,081597626e-01   -6,779684424e-01    0,000000000e+00    0,000000000e+00    0,000000000e+00    0,000000000e+00
      142000000    4,348506033e-02   -8,873955905e-02   -7,051422596e-01   -3,607659340e-01    0,000000000e+00    0,000000000e+00    0,000000000e+00    0,000000000e+00
      156000000   -8,784987964e-03   -1,104117632e-01   -7,935760617e-01    6,857646257e-02    0,000000000e+00    0,000000000e+00    0,000000000e+00    0,000000000e+00
      170000000   -6,267333031e-02   -9,180077910e-02   -6,368333101e-01    4,862386882e-01    0,000000000e+00    0,000000000e+00    0,000000000e+00    0,000000000e+00
      184000000   -8,857062459e-02   -4,764526710e-02   -2,730550170e-01    7,561215162e-01    0,000000000e+00    0,000000000e+00    0,000000000e+00    0,000000000e+00
      198000000   -8,272278309e-02   -6,413345691e-03    1,796209216e-01    7,822535038e-01    0,000000000e+00    0,000000000e+00    0,000000000e+00    0,000000000e+00
      212000000   -6,268253922e-02    1,807520166e-02    5,707460046e-01    5,584441423e-01    0,000000000e+00    0,000000000e+00    0,000000000e+00    0,000000000e+00
      226000000   -4,145492613e-02    3,190781921e-02    7,765699625e-01    1,618301570e-01    0,000000000e+00    0,000000000e+00    0,000000000e+00    0,000000000e+00
      240000000   -1,475409791e-02    4,124816135e-02    7,358901501e-01   -2,786020339e-01    0,000000000e+00    0,000000000e+00    0,000000000e+00    0,000000000e+00
      254000000    2,149457112e-02    3,624186665e-02    4,679135084e-01   -6,220035553e-01    0,000000000e+00    0,000000000e+00    0,000000000e+00    0,000000000e+00
      268000000    5,333480611e-02    4,604532849e-03    6,641735137e-02   -7,673380971e-01    0,000000000e+00    0,000000000e+00    0,000000000e+00    0,000000000e+00
      282000000    5,739076808e-02   -4,507829994e-02   -3,456670940e-01   -6,826838255e-01    0,000000000e+00    0,000000000e+00    0,000000000e+00    0,000000000e+00
      296000000    2,614052221e-02   -8,481904864e-02   -6,552039981e-01   -3,975347579e-01    0,000000000e+00    0,000000000e+00    0,000000000e+00    0,000000000e+00
      310000000   -1,904028654e-02   -8,963836730e-02   -7,744596004e-01    1,001266949e-02    0,000000000e+00    0,000000000e+00    0,000000000e+00    0,000000000e+00
      324000000   -4,659190774e-02   -6,351537257e-02   -6,480364799e-01    4,296891093e-01    0,000000000e+00    0,000000000e+00    0,000000000e+00    0,000000000e+00
      338000000   -4,125682637e-02   -3,788864985e-02   -3,110370934e-01    7,108024359e-01    0,000000000e+00    0,000000000e+00    0,000000000e+00    0,000000000e+00
      352000000   -2,351504192e-02   -3,778131679e-02    1,188578755e-01    7,583583593e-01    0,000000000e+00    0,000000000e+00    0,000000000e+00    0,000000000e+00
      366000000   -2,314271219e-02   -5,581124499e-02    5,028946996e-01    5,716040134e-01    0,000000000e+00    0,000000000e+00    0,000000000e+00    0,000000000e+00
      380000000   -4,449617490e-02   -6,506983191e-02    7,264173031e-01    2,110514045e-01    0,000000000e+00    0,000000000e+00    0,000000000e+00    0,000000000e+00
      394000000   -6,631825864e-02   -5,042779446e-02    7,224583030e-01   -2,125870585e-01    0,000000000e+00    0,000000000e+00    0,000000000e+00    0,000000000e+00
      408000000   -6,697511673e-02   -2,624006756e-02    4,897724092e-01   -5,673380494e-01    0,000000000e+00    0,000000000e+00    0,000000000e+00    0,000000000e+00
      422000000   -5,306352675e-02   -1,528742537e-02    1,053207144e-01   -7,393072844e-01    0,000000000e+00    0,000000000e+00    0,000000000e+00    0,000000000e+00
      436000000   -4,603987187e-02   -1,881948113e-02   -3,051644266e-01   -6,752651930e-01    0,000000000e+00    0,000000000e+00    0,000000000e+00    0,000000000e+00
      450000000   -5,212561786e-02   -1,566204801e-02   -6,185479760e-01   -4,004195631e-01    0,000000000e+00    0,000000000e+00    0,000000000e+00    0,000000000e+00
      464000000   -5,044523254e-02    5,355909467e-03   -7,294455767e-01    3,032154869e-03    0,000000000e+00    0,000000000e+00    0,000000000e+00    0,000000000e+00
      478000000   -2,102496102e-02    2,637863159e-02   -5,986892581e-01    3,963255882e-01    0,000000000e+00    0,000000000e+00    0,000000000e+00    0,000000000e+00
      492000000    2,712162212e-02    1,467872597e-02   -2,813415825e-01    6,437978148e-01    0,000000000e+00    0,000000000e+00    0,000000000e+00    0,000000000e+00
      506000000    5,816891044e-02   -3,644851595e-02    1,046502739e-01    6,799638271e-01    0,000000000e+00    0,000000000e+00    0,000000000e+00    0,000000000e+00
      520000000    4,370250553e-02   -1,011151224e-01    4,429159760e-01    5,214940906e-01    0,000000000e+00    0,000000000e+00    0,000000000e+00    0,000000000e+00
      534000000   -1,199669763e-02   -1,420534700e-01    6,493604779e-01    2,074690759e-01    0,000000000e+00    0,000000000e+00    0,000000000e+00    0,000000000e+00
      548000000   -7,935213298e-02   -1,380366981e-01    6,613625884e-01   -1,744088382e-01    0,000000000e+00    0,000000000e+00    0,000000000e+00    0,000000000e+00
      562000000   -1,261103004e-01   -9,893991798e-02    4,559359550e-01   -5,073600411e-01    0,000000000e+00    0,000000000e+00    0,000000000e+00    0,000000000e+00
      576000000   -1,438664198e-01   -4,620882496e-02    9,038534015e-02   -6,656587720e-01    0,000000000e+00    0,000000000e+00    0,000000000e+00    0,000000000e+00
      590000000   -1,348190010e-01    1,208627503e-02   -2,934392393e-01   -5,825221539e-01    0,000000000e+00    0,000000000e+00    0,000000000e+00    0,000000000e+00
      604000000   -7,360447943e-02    6,740960479e-02   -5,274598002e-01   -2,804795504e-01    0,000000000e+00    0,000000000e+00    0,000000000e+00    0,000000000e+00
      618000000    3,691628203e-02    2,501629852e-02   -5,022497177e-01    1,424358599e-02    0,000000000e+00    0,000000000e+00    0,000000000e+00    0,000000000e+00
      632000000   -1,907310449e-03   -1,036488414e-01   -4,652978778e-01    1,721992344e-01    0,000000000e+00    0,000000000e+00    0,000000000e+00    0,000000000e+00
      646000000   -1,036872938e-01   -6,776621938e-02   -3,796871305e-01    4,397797287e-01    0,000000000e+00    0,000000000e+00    0,000000000e+00    0,000000000e+00
      660000000   -8,805844188e-02    2,598926891e-03   -7,227785885e-02    6,168583632e-01    0,000000000e+00    0,000000000e+00    0,000000000e+00    0,000000000e+00
      674000000   -4,098142311e-02    1,254858077e-02    2,865644097e-01    5,588092208e-01    0,000000000e+00    0,000000000e+00    0,000000000e+00    0,000000000e+00
      688000000   -1,709149033e-02   -9,034803137e-03    5,436086059e-01    3,113382161e-01    0,000000000e+00    0,000000000e+00    0,000000000e+00    0,000000000e+00
      702000000   -1,009585243e-02   -2,996125445e-02    6,206234694e-01   -3,129984438e-02    0,000000000e+00    0,000000000e+00    0,000000000e+00    0,000000000e+00
      716000000   -4,646949470e-03   -4,686720297e-02    4,968269467e-01   -3,645618558e-01    0,000000000e+00    0,000000000e+00    0,000000000e+00    0,000000000e+00
      730000000   -3,802363994e-03   -7,692532986e-02    2,165957838e-01   -5,673746467e-01    0,000000000e+00    0,000000000e+00    0,000000000e+00    0,000000000e+00
      744000000   -2,513373829e-02   -1,152101010e-01   -1,197335497e-01   -5,909892917e-01    0,000000000e+00    0,000000000e+00    0,000000000e+00    0,000000000e+00
      758000000   -7,607001811e-02   -1,359492838e-01   -4,196352959e-01   -4,376882911e-01    0,000000000e+00    0,000000000e+00    0,000000000e+00    0,000000000e+00
      772000000   -1,393601894e-01   -1,166781858e-01   -5,968053937e-01   -1,432451159e-01    0,000000000e+00    0,000000000e+00    0,000000000e+00    0,000000000e+00
      786000000   -1,742960215e-01   -5,665891990e-02   -5,857748985e-01    2,096035331e-01    0,000000000e+00    0,000000000e+00    0,000000000e+00    0,000000000e+00
      800000000   -1,611920148e-01    9,940830059e-03   -3,763608634e-01    4,976853430e-01    0,000000000e+00    0,000000000e+00    0,000000000e+00    0,000000000e+00
      814000000   -1,124032587e-01    4,532181844e-02   -4,654810205e-02    6,190340519e-01    0,000000000e+00    0,000000000e+00    0,000000000e+00    0,000000000e+00
      828000000   -6,499457359e-02    4,466661066e-02    2,872897387e-01    5,423986316e-01    0,000000000e+00    0,000000000e+00    0,000000000e+00    0,000000000e+00
      842000000   -3,559387475e-02    2,670869045e-02    5,235136151e-01    3,063002229e-01    0,000000000e+00    0,000000000e+00    0,000000000e+00    0,000000000e+00
      856000000   -1,810177788e-02    8,507552557e-03    5,971689224e-01   -1,424472127e-02    0,000000000e+00    0,000000000e+00    0,000000000e+00    0,000000000e+00
      870000000   -1,508277259e-03   -1,386065688e-02    4,883343875e-01   -3,194790781e-01    0,000000000e+00    0,000000000e+00    0,000000000e+00    0,000000000e+00
      884000000    9,199766442e-03   -5,128508434e-02    2,417174280e-01   -5,150676370e-01    0,000000000e+00    0,000000000e+00    0,000000000e+00    0,000000000e+00
      898000000   -6,351148710e-03   -9,816070646e-02   -6,119455025e-02   -5,560259819e-01    0,000000000e+00    0,000000000e+00    0,000000000e+00    0,000000000e+00
      912000000   -6,175966933e-02   -1,270138174e-01   -3,856892288e-01   -4,123129845e-01    0,000000000e+00    0,000000000e+00    0,000000000e+00    0,000000000e+00
      926000000   -1,241561249e-01   -1,177507192e-01   -5,681920052e-01   -1,461903304e-01    0,000000000e+00    0,000000000e+00    0,000000000e+00    0,000000000e+00
      940000000   -1,604904681e-01   -6,266908348e-02   -5,691238642e-01    1,952081174e-01    0,000000000e+00    0,000000000e+00    0,000000000e+00    0,000000000e+00
      954000000   -1,423317045e-01   -5,152393598e-03   -3,751255870e-01    4,839818478e-01    0,000000000e+00    0,000000000e+00    0,000000000e+00    0,000000000e+00
      968000000   -9,894351661e-02    2,154573612e-02   -5,160598084e-02    6,164827347e-01    0,000000000e+00    0,000000000e+00    0,000000000e+00    0,000000000e+00
      982000000   -6,068431959e-02    5,764462054e-03    2,802687287e-01    5,526078343e-01    0,000000000e+00    0,000000000e+00    0,000000000e+00    0,000000000e+00
      996000000   -4,563236609e-02   -3,017865680e-02    5,244916081e-01    3,304789960e-01    0,000000000e+00    0,000000000e+00    0,000000000e+00    0,000000000e+00
     1010000000   -6,678513438e-02   -6,177364290e-02    6,103903055e-01    1,282484736e-02    0,000000000e+00    0,000000000e+00    0,000000000e+00    0,000000000e+00
     1024000000   -9,688589722e-02   -7,252496481e-02    5,160843134e-01   -2,821848094e-01    0,000000000e+00    0,000000000e+00    0,000000000e+00    0,000000000e+00
     1038000000   -1,290611774e-01   -5,656069517e-02    2,945539355e-01   -4,736938775e-01    0,000000000e+00    0,000000000e+00    0,000000000e+00    0,000000000e+00
     1052000000   -1,443257183e-01   -1,067042258e-02    2,913716622e-02   -5,316964984e-01    0,000000000e+00    0,000000000e+00    0,000000000e+00    0,000000000e+00
     1066000000   -1,125380918e-01    3,121614456e-02   -2,214173526e-01   -4,649713039e-01    0,000000000e+00    0,000000000e+00    0,000000000e+00    0,000000000e+00
     1080000000   -6,890439987e-02    3,250015527e-02   -4,198876321e-01   -2,872904241e-01    0,000000000e+00    0,000000000e+00    0,000000000e+00    0,000000000e+00
     1094000000   -3,974658623e-02    1,709931763e-03   -5,121319890e-01   -1,452659164e-02    0,000000000e+00    0,000000000e+00    0,000000000e+00    0,000000000e+00
     1108000000   -2,742116153e-02   -2,850048617e-02   -4,303389788e-01    2,818600237e-01    0,000000000e+00    0,000000000e+00    0,000000000e+00    0,000000000e+00
     1122000000   -2,309365384e-02   -6,193145365e-02   -1,817372590e-01    4,871774912e-01    0,000000000e+00    0,000000000e+00    0,000000000e+00    0,000000000e+00
     1136000000   -4,210352525e-02   -9,614659101e-02    1,509228051e-01    5,130558610e-01    0,000000000e+00    0,000000000e+00    0,000000000e+00    0,000000000e+00
     1150000000   -8,215666562e-02   -1,260959506e-01    4,449981153e-01    3,430482149e-01    0,000000000e+00    0,000000000e+00    0,000000000e+00    0,000000000e+00
     1164000000   -1,420851052e-01   -1,295968890e-01    6,056701541e-01    1,528106257e-02    0,000000000e+00    0,000000000e+00    0,000000000e+00    0,000000000e+00
     1178000000   -1,805345118e-01   -8,383124322e-02    5,350928307e-01   -3,679367006e-01    0,000000000e+00    0,000000000e+00    0,000000000e+00    0,000000000e+00
     1192000000   -1,806037128e-01   -5,225249380e-02    2,503372729e-01   -6,300839782e-01    0,000000000e+00    0,000000000e+00    0,000000000e+00    0,000000000e+00
     1206000000   -1,905160844e-01   -5,037347227e-02   -1,319168955e-01   -6,576272845e-01    0,000000000e+00    0,000000000e+00    0,000000000e+00    0,000000000e+00
     1220000000   -2,500131726e-01   -1,153264940e-02   -4,201808572e-01   -4,836649001e-01    0,000000000e+00    0,000000000e+00    0,000000000e+00    0,000000000e+00
     1234000000   -2,408460677e-01    1,152272150e-01   -5,628459454e-01   -2,464008182e-01    0,000000000e+00    0,000000000e+00    0,000000000e+00    0,000000000e+00
     1248000000   -1,167768389e-01    1,738038808e-01   -5,977926850e-01    2,184066549e-02    0,000000000e+00    0,000000000e+00    0,000000000e+00    0,000000000e+00
     1262000000   -1,830448513e-03    1,331981868e-01   -5,014980435e-01    2,981652915e-01    0,000000000e+00    0,000000000e+00    0,000000000e+00    0,000000000e+00
     1276000000    6,132840365e-02    3,921585158e-02   -2,806591988e-01    4,835835099e-01    0,000000000e+00    0,000000000e+00    0,000000000e+00    0,000000000e+00
     1290000000    7,442781329e-02   -7,288444787e-02    1,412057783e-02    5,453404188e-01    0,000000000e+00    0,000000000e+00    0,000000000e+00    0,000000000e+00
     1304000000    1,874981262e-02   -1,818590164e-01    2,916344106e-01    4,805614054e-01    0,000000000e+00    0,000000000e+00    0,000000000e+00    0,000000000e+00
     1318000000   -9,102094918e-02   -2,526225150e-01    5,421333313e-01    2,733013928e-01    0,000000000e+00    0,000000000e+00    0,000000000e+00    0,000000000e+00
     1332000000   -2,433307767e-01   -2,438478619e-01    6,537357569e-01   -4,516671970e-02    0,000000000e+00    0,000000000e+00    0,000000000e+00    0,000000000e+00
     1346000000   -3,656704128e-01   -1,360449493e-01    5,526167154e-01   -4,073570073e-01    0,000000000e+00    0,000000000e+00    0,000000000e+00    0,000000000e+00
     1360000000   -3,859694600e-01    4,351322539e-03    2,568348646e-01   -6,376445889e-01    0,000000000e+00    0,000000000e+00    0,000000000e+00    0,000000000e+00
     1374000000   -3,239922822e-01    1,217173934e-01   -9,983797371e-02   -6,331802607e-01    0,000000000e+00    0,000000000e+00    0,000000000e+00    0,000000000e+00
     1388000000   -2,391104698e-01    1,731796563e-01   -3,742903471e-01   -4,220531583e-01    0,000000000e+00    0,000000000e+00    0,000000000e+00    0,000000000e+00
     1402000000   -1,496011764e-01    1,733741760e-01   -4,810974896e-01   -1,123763248e-01    0,000000000e+00    0,000000000e+00    0,000000000e+00    0,000000000e+00
     1416000000   -8,256519586e-02    1,422747672e-01   -3,899693489e-01    2,028157264e-01    0,000000000e+00    0,000000000e+00    0,000000000e+00    0,000000000e+00
     1430000000   -2,682593651e-02    8,901012689e-02   -1,483223140e-01    4,443591535e-01    0,000000000e+00    0,000000000e+00    0,000000000e+00    0,000000000e+00
     1444000000   -1,068698708e-02    6,640684791e-03    1,234168634e-01    5,296988487e-01    0,000000000e+00    0,000000000e+00    0,000000000e+00    0,000000000e+00
     1458000000   -3,763611242e-02   -8,088898659e-02    4,391219020e-01    5,000571012e-01    0,000000000e+00    0,000000000e+00    0,000000000e+00    0,000000000e+00
     1472000000   -1,303844899e-01   -1,469236016e-01    7,280357480e-01    3,124612570e-01    0,000000000e+00    0,000000000e+00    0,000000000e+00    0,000000000e+00
     1486000000   -2,336358279e-01   -1,447784901e-01    9,132534862e-01   -3,186707944e-02    0,000000000e+00    0,000000000e+00    0,000000000e+00    0,000000000e+00
     1500000000   -3,080197573e-01   -5,649698526e-02    8,521692157e-01   -4,044072330e-01    0,000000000e+00    0,000000000e+00    0,000000000e+00    0,000000000e+00
