! NanoVNA-App
! Date: 2025-09-25 15:00:42
! Start: 100MHz Stop: 1,5GHz Points: 101
! S-Parameter data: F S11 S21 S12 S22
# Hz S RI R 50
!     Frequency           S11_Real           S11_Imag           S21_Real           S21_Imag           S12_Real           S12_Imag           S22_Real           S22_Imag
      100000000    3,556833044e-02    2,737163752e-02    4,407497644e-01   -6,695213318e-01    0,000000000e+00    0,000000000e+00    0,000000000e+00    0,000000000e+00
      114000000    6,072366238e-02    2,197945025e-03    1,283581462e-02   -7,955350876e-01    0,000000000e+00    0,000000000e+00    0,000000000e+00    0,000000000e+00
      128000000    6,837109476e-02   -4,222545773e-02   -4,082753360e-01   -6,780503392e-01    0,000000000e+00    0,000000000e+00    0,000000000e+00    0,000000000e+00
      142000000    4,347522184e-02   -8,879099041e-02   -7,053637505e-01   -3,609876633e-01    0,000000000e+00    0,000000000e+00    0,000000000e+00    0,000000000e+00
      156000000   -9,266658686e-03   -1,096433997e-01   -7,936171889e-01    6,707241386e-02    0,000000000e+00    0,000000000e+00    0,000000000e+00    0,000000000e+00
      170000000   -6,270200014e-02   -9,179683030e-02   -6,370639205e-01    4,862222970e-01    0,000000000e+00    0,000000000e+00    0,000000000e+00    0,000000000e+00
      184000000   -8,857899904e-02   -4,765142500e-02   -2,731612623e-01    7,558887601e-01    0,000000000e+00    0,000000000e+00    0,000000000e+00    0,000000000e+00
      198000000   -8,274538815e-02   -6,394067779e-03    1,797108203e-01    7,823200226e-01    0,000000000e+00    0,000000000e+00    0,000000000e+00    0,000000000e+00
      212000000   -6,272403896e-02    1,806521788e-02    5,708795786e-01    5,583637357e-01    0,000000000e+00    0,000000000e+00    0,000000000e+00    0,000000000e+00
      226000000   -4,153073579e-02    3,182753548e-02    7,768210769e-01    1,618508995e-01    0,000000000e+00    0,000000000e+00    0,000000000e+00    0,000000000e+00
      240000000   -1,489809714e-02    4,129297659e-02    7,361316681e-01   -2,787793279e-01    0,000000000e+00    0,000000000e+00    0,000000000e+00    0,000000000e+00
      254000000    2,137735859e-02    3,630076721e-02    4,682638943e-01   -6,222857237e-01    0,000000000e+00    0,000000000e+00    0,000000000e+00    0,000000000e+00
      268000000    5,325371027e-02    4,722740036e-03    6,674063951e-02   -7,674187422e-01    0,000000000e+00    0,000000000e+00    0,000000000e+00    0,000000000e+00
      282000000    5,747359246e-02   -4,490368068e-02   -3,456842303e-01   -6,826342940e-01    0,000000000e+00    0,000000000e+00    0,000000000e+00    0,000000000e+00
      296000000    2,605183423e-02   -8,476694673e-02   -6,550296545e-01   -3,976269960e-01    0,000000000e+00    0,000000000e+00    0,000000000e+00    0,000000000e+00
      310000000   -1,914272085e-02   -8,926782012e-02   -7,742915154e-01    1,166950166e-02    0,000000000e+00    0,000000000e+00    0,000000000e+00    0,000000000e+00
      324000000   -4,670015350e-02   -6,366726011e-02   -6,475110650e-01    4,292274714e-01    0,000000000e+00    0,000000000e+00    0,000000000e+00    0,000000000e+00
      338000000   -4,095591977e-02   -3,795215487e-02   -3,106197119e-01    7,098924518e-01    0,000000000e+00    0,000000000e+00    0,000000000e+00    0,000000000e+00
      352000000   -2,340310998e-02   -3,762259707e-02    1,197092682e-01    7,574809790e-01    0,000000000e+00    0,000000000e+00    0,000000000e+00    0,000000000e+00
      366000000   -2,299958281e-02   -5,592674389e-02    5,029831529e-01    5,712235570e-01    0,000000000e+00    0,000000000e+00    0,000000000e+00    0,000000000e+00
      380000000   -4,473112896e-02   -6,546483189e-02    7,261939645e-01    2,114020437e-01    0,000000000e+00    0,000000000e+00    0,000000000e+00    0,000000000e+00
      394000000   -6,665260345e-02   -5,047508329e-02    7,228883505e-01   -2,128265798e-01    0,000000000e+00    0,000000000e+00    0,000000000e+00    0,000000000e+00
      408000000   -6,760935485e-02   -2,626057155e-02    4,896803200e-01   -5,694204569e-01    0,000000000e+00    0,000000000e+00    0,000000000e+00    0,000000000e+00
      422000000   -5,311782658e-02   -1,538897958e-02    1,060984433e-01   -7,385361791e-01    0,000000000e+00    0,000000000e+00    0,000000000e+00    0,000000000e+00
      436000000   -4,622295871e-02   -1,857283525e-02   -3,057881296e-01   -6,752575636e-01    0,000000000e+00    0,000000000e+00    0,000000000e+00    0,000000000e+00
      450000000   -5,198992789e-02   -1,524336636e-02   -6,185936928e-01   -3,995465040e-01    0,000000000e+00    0,000000000e+00    0,000000000e+00    0,000000000e+00
      464000000   -5,027846247e-02    5,607116502e-03   -7,296697497e-01    3,529606154e-03    0,000000000e+00    0,000000000e+00    0,000000000e+00    0,000000000e+00
      478000000   -2,032819204e-02    2,645597979e-02   -5,985885262e-01    3,969994783e-01    0,000000000e+00    0,000000000e+00    0,000000000e+00    0,000000000e+00
      492000000    2,811579220e-02    1,452509593e-02   -2,791030109e-01    6,436595321e-01    0,000000000e+00    0,000000000e+00    0,000000000e+00    0,000000000e+00
      506000000    5,915409327e-02   -3,728466108e-02    1,047138944e-01    6,801355481e-01    0,000000000e+00    0,000000000e+00    0,000000000e+00    0,000000000e+00
      520000000    4,399351031e-02   -1,025005579e-01    4,427452087e-01    5,183113813e-01    0,000000000e+00    0,000000000e+00    0,000000000e+00    0,000000000e+00
      534000000   -1,279818919e-02   -1,437774450e-01    6,491480470e-01    2,057800442e-01    0,000000000e+00    0,000000000e+00    0,000000000e+00    0,000000000e+00
      548000000   -8,189425617e-02   -1,397933960e-01    6,594249606e-01   -1,762081832e-01    0,000000000e+00    0,000000000e+00    0,000000000e+00    0,000000000e+00
      562000000   -1,306805164e-01   -9,820961207e-02    4,516025484e-01   -5,083108544e-01    0,000000000e+00    0,000000000e+00    0,000000000e+00    0,000000000e+00
      576000000   -1,490935236e-01   -3,854112327e-02    8,256298304e-02   -6,608356833e-01    0,000000000e+00    0,000000000e+00    0,000000000e+00    0,000000000e+00
      590000000   -1,302707046e-01    2,805767767e-02   -2,967505455e-01   -5,634263754e-01    0,000000000e+00    0,000000000e+00    0,000000000e+00    0,000000000e+00
      604000000   -4,070221633e-02    6,870885193e-02   -4,904594421e-01   -2,705581188e-01    0,000000000e+00    0,000000000e+00    0,000000000e+00    0,000000000e+00
      618000000    3,550167382e-02   -2,723973803e-02   -4,932403564e-01   -4,685661569e-02    0,000000000e+00    0,000000000e+00    0,000000000e+00    0,000000000e+00
      632000000   -4,998397455e-02   -9,410885721e-02   -5,222604871e-01    1,761365980e-01    0,000000000e+00    0,000000000e+00    0,000000000e+00    0,000000000e+00
      646000000   -9,963512421e-02   -3,618557751e-02   -3,793103397e-01    4,746036530e-01    0,000000000e+00    0,000000000e+00    0,000000000e+00    0,000000000e+00
      660000000   -6,962868571e-02    9,088334627e-03   -5,179860815e-02    6,237214804e-01    0,000000000e+00    0,000000000e+00    0,000000000e+00    0,000000000e+00
      674000000   -3,055492975e-02    5,543841980e-03    2,979079485e-01    5,537080765e-01    0,000000000e+00    0,000000000e+00    0,000000000e+00    0,000000000e+00
      688000000   -1,511457190e-02   -1,695108786e-02    5,469295382e-01    3,040961623e-01    0,000000000e+00    0,000000000e+00    0,000000000e+00    0,000000000e+00
      702000000   -1,341502182e-02   -3,337731585e-02    6,172741652e-01   -4,291086271e-02    0,000000000e+00    0,000000000e+00    0,000000000e+00    0,000000000e+00
      716000000   -1,011133101e-02   -4,782401025e-02    4,928591549e-01   -3,683748543e-01    0,000000000e+00    0,000000000e+00    0,000000000e+00    0,000000000e+00
      730000000   -6,482440978e-03   -7,458080351e-02    2,127768844e-01   -5,673114061e-01    0,000000000e+00    0,000000000e+00    0,000000000e+00    0,000000000e+00
      744000000   -2,601384185e-02   -1,116455272e-01   -1,242229268e-01   -5,886098146e-01    0,000000000e+00    0,000000000e+00    0,000000000e+00    0,000000000e+00
      758000000   -7,402875274e-02   -1,334552914e-01   -4,197224081e-01   -4,339342117e-01    0,000000000e+00    0,000000000e+00    0,000000000e+00    0,000000000e+00
      772000000   -1,360886544e-01   -1,160897315e-01   -5,934777260e-01   -1,403111368e-01    0,000000000e+00    0,000000000e+00    0,000000000e+00    0,000000000e+00
      786000000   -1,718484312e-01   -5,788407102e-02   -5,818536878e-01    2,095631212e-01    0,000000000e+00    0,000000000e+00    0,000000000e+00    0,000000000e+00
      800000000   -1,601363569e-01    7,271210197e-03   -3,730748594e-01    4,959863126e-01    0,000000000e+00    0,000000000e+00    0,000000000e+00    0,000000000e+00
      814000000   -1,148842126e-01    4,303044453e-02   -4,653992504e-02    6,139293313e-01    0,000000000e+00    0,000000000e+00    0,000000000e+00    0,000000000e+00
      828000000   -6,841795146e-02    4,427371547e-02    2,856824398e-01    5,413510203e-01    0,000000000e+00    0,000000000e+00    0,000000000e+00    0,000000000e+00
      842000000   -3,854207322e-02    2,918978781e-02    5,215362906e-01    3,057556450e-01    0,000000000e+00    0,000000000e+00    0,000000000e+00    0,000000000e+00
      856000000   -1,792552322e-02    1,198807918e-02    5,946209431e-01   -1,374709699e-02    0,000000000e+00    0,000000000e+00    0,000000000e+00    0,000000000e+00
      870000000    1,966835232e-03   -1,105789375e-02    4,871197641e-01   -3,172041774e-01    0,000000000e+00    0,000000000e+00    0,000000000e+00    0,000000000e+00
      884000000    1,279712282e-02   -5,176065862e-02    2,418142706e-01   -5,127122998e-01    0,000000000e+00    0,000000000e+00    0,000000000e+00    0,000000000e+00
      898000000   -4,151464906e-03   -1,013851985e-01   -5,897190049e-02   -5,533633828e-01    0,000000000e+00    0,000000000e+00    0,000000000e+00    0,000000000e+00
      912000000   -6,228138134e-02   -1,326309443e-01   -3,811718822e-01   -4,181240499e-01    0,000000000e+00    0,000000000e+00    0,000000000e+00    0,000000000e+00
      926000000   -1,267955750e-01   -1,201244071e-01   -5,681025386e-01   -1,498179287e-01    0,000000000e+00    0,000000000e+00    0,000000000e+00    0,000000000e+00
      940000000   -1,632130593e-01   -6,451194733e-02   -5,712276697e-01    1,922897249e-01    0,000000000e+00    0,000000000e+00    0,000000000e+00    0,000000000e+00
      954000000   -1,479399353e-01    2,820417576e-04   -3,754167855e-01    4,843995273e-01    0,000000000e+00    0,000000000e+00    0,000000000e+00    0,000000000e+00
      968000000   -1,014914736e-01    2,369575575e-02   -5,158685893e-02    6,149326563e-01    0,000000000e+00    0,000000000e+00    0,000000000e+00    0,000000000e+00
      982000000   -5,779607221e-02    4,842343740e-03    2,823547125e-01    5,522385836e-01    0,000000000e+00    0,000000000e+00    0,000000000e+00    0,000000000e+00
      996000000   -4,550300166e-02   -3,454379365e-02    5,223824978e-01    3,264767230e-01    0,000000000e+00    0,000000000e+00    0,000000000e+00    0,000000000e+00
     1010000000   -6,192103028e-02   -6,905647367e-02    6,091850400e-01    1,491686609e-02    0,000000000e+00    0,000000000e+00    0,000000000e+00    0,000000000e+00
     1024000000   -9,899158031e-02   -7,966592163e-02    5,160566568e-01   -2,820944786e-01    0,000000000e+00    0,000000000e+00    0,000000000e+00    0,000000000e+00
     1038000000   -1,448613405e-01   -5,528651923e-02    2,963199317e-01   -4,728597403e-01    0,000000000e+00    0,000000000e+00    0,000000000e+00    0,000000000e+00
     1052000000   -1,547890604e-01   -3,124275710e-03    3,368072212e-02   -5,248895884e-01    0,000000000e+00    0,000000000e+00    0,000000000e+00    0,000000000e+00
     1066000000   -1,057282537e-01    3,570885211e-02   -2,087234408e-01   -4,617773592e-01    0,000000000e+00    0,000000000e+00    0,000000000e+00    0,000000000e+00
     1080000000   -5,223634839e-02    2,361191809e-02   -4,169587493e-01   -3,003025651e-01    0,000000000e+00    0,000000000e+00    0,000000000e+00    0,000000000e+00
     1094000000   -3,171367943e-02   -6,526635960e-03   -5,206418037e-01   -2,429009229e-02    0,000000000e+00    0,000000000e+00    0,000000000e+00    0,000000000e+00
     1108000000   -3,384632245e-02   -3,442725912e-02   -4,430657923e-01    2,840678394e-01    0,000000000e+00    0,000000000e+00    0,000000000e+00    0,000000000e+00
     1122000000   -3,202262521e-02   -6,052841991e-02   -1,869388223e-01    4,972364604e-01    0,000000000e+00    0,000000000e+00    0,000000000e+00    0,000000000e+00
     1136000000   -4,580073059e-02   -9,193263948e-02    1,538476050e-01    5,171641111e-01    0,000000000e+00    0,000000000e+00    0,000000000e+00    0,000000000e+00
     1150000000   -8,589329571e-02   -1,253000349e-01    4,534311295e-01    3,436319530e-01    0,000000000e+00    0,000000000e+00    0,000000000e+00    0,000000000e+00
     1164000000   -1,389666796e-01   -1,198586747e-01    6,114737988e-01    1,203649957e-02    0,000000000e+00    0,000000000e+00    0,000000000e+00    0,000000000e+00
     1178000000   -1,760230064e-01   -8,986011147e-02    5,387193561e-01   -3,716875911e-01    0,000000000e+00    0,000000000e+00    0,000000000e+00    0,000000000e+00
     1192000000   -1,830952764e-01   -5,284995958e-02    2,391193062e-01   -6,386957765e-01    0,000000000e+00    0,000000000e+00    0,000000000e+00    0,000000000e+00
     1206000000   -1,942395568e-01   -5,669752508e-02   -1,401333809e-01   -6,598450541e-01    0,000000000e+00    0,000000000e+00    0,000000000e+00    0,000000000e+00
     1220000000   -2,520094216e-01   -1,693449542e-02   -4,188573658e-01   -4,821383059e-01    0,000000000e+00    0,000000000e+00    0,000000000e+00    0,000000000e+00
     1234000000   -2,407740653e-01    1,181891486e-01   -5,588147044e-01   -2,458021641e-01    0,000000000e+00    0,000000000e+00    0,000000000e+00    0,000000000e+00
     1248000000   -1,138333604e-01    1,743952334e-01   -6,016095281e-01    1,832090877e-02    0,000000000e+00    0,000000000e+00    0,000000000e+00    0,000000000e+00
     1262000000   -6,307153497e-03    1,276279539e-01   -5,082188845e-01    2,997080982e-01    0,000000000e+00    0,000000000e+00    0,000000000e+00    0,000000000e+00
     1276000000    6,063885987e-02    4,415383190e-02   -2,828568816e-01    4,877216220e-01    0,000000000e+00    0,000000000e+00    0,000000000e+00    0,000000000e+00
     1290000000    7,211758196e-02   -6,729456782e-02    1,043039374e-02    5,504904389e-01    0,000000000e+00    0,000000000e+00    0,000000000e+00    0,000000000e+00
     1304000000    2,045286633e-02   -1,828302443e-01    2,988646626e-01    4,720107913e-01    0,000000000e+00    0,000000000e+00    0,000000000e+00    0,000000000e+00
     1318000000   -9,549571574e-02   -2,547575831e-01    5,387482643e-01    2,686790824e-01    0,000000000e+00    0,000000000e+00    0,000000000e+00    0,000000000e+00
     1332000000   -2,456816435e-01   -2,434208244e-01    6,507599950e-01   -5,478144065e-02    0,000000000e+00    0,000000000e+00    0,000000000e+00    0,000000000e+00
     1346000000   -3,616666496e-01   -1,420397609e-01    5,549548864e-01   -4,082487822e-01    0,000000000e+00    0,000000000e+00    0,000000000e+00    0,000000000e+00
     1360000000   -3,885565400e-01    1,802288112e-03    2,478441447e-01   -6,366246343e-01    0,000000000e+00    0,000000000e+00    0,000000000e+00    0,000000000e+00
     1374000000   -3,259632289e-01    1,195495948e-01   -9,913746268e-02   -6,267096400e-01    0,000000000e+00    0,000000000e+00    0,000000000e+00    0,000000000e+00
     1388000000   -2,405252308e-01    1,684978753e-01   -3,715476096e-01   -4,167297781e-01    0,000000000e+00    0,000000000e+00    0,000000000e+00    0,000000000e+00
     1402000000   -1,573101431e-01    1,717865616e-01   -4,703122973e-01   -9,954857081e-02    0,000000000e+00    0,000000000e+00    0,000000000e+00    0,000000000e+00
     1416000000   -8,214928955e-02    1,452839971e-01   -3,978446424e-01    2,035865784e-01    0,000000000e+00    0,000000000e+00    0,000000000e+00    0,000000000e+00
     1430000000   -3,126264736e-02    8,741693199e-02   -1,718467772e-01    4,554649591e-01    0,000000000e+00    0,000000000e+00    0,000000000e+00    0,000000000e+00
     1444000000   -1,080815122e-02    8,015747182e-03    1,215938553e-01    5,344095826e-01    0,000000000e+00    0,000000000e+00    0,000000000e+00    0,000000000e+00
     1458000000   -4,142952710e-02   -8,896426857e-02    4,465833008e-01    4,886366427e-01    0,000000000e+00    0,000000000e+00    0,000000000e+00    0,000000000e+00
     1472000000   -1,251210719e-01   -1,405811608e-01    7,149479985e-01    3,088469803e-01    0,000000000e+00    0,000000000e+00    0,000000000e+00    0,000000000e+00
     1486000000   -2,322055399e-01   -1,323926002e-01    9,054594040e-01   -2,259742282e-02    0,000000000e+00    0,000000000e+00    0,000000000e+00    0,000000000e+00
     1500000000   -3,062193096e-01   -5,692311004e-02    8,515904546e-01   -4,225168824e-01    0,000000000e+00    0,000000000e+00    0,000000000e+00    0,000000000e+00
