! NanoVNA-App
! Date: 2025-09-25 15:02:18
! Start: 100MHz Stop: 1,5GHz Points: 101
! S-Parameter data: F S11 S21 S12 S22
# Hz S RI R 50
!     Frequency           S11_Real           S11_Imag           S21_Real           S21_Imag           S12_Real           S12_Imag           S22_Real           S22_Imag
      100000000    3,559631854e-02    2,735612169e-02    4,407821298e-01   -6,695378423e-01    0,000000000e+00    0,000000000e+00    0,000000000e+00    0,000000000e+00
      114000000    6,074423343e-02    2,187015722e-03    1,272118744e-02   -7,953637242e-01    0,000000000e+00    0,000000000e+00    0,000000000e+00    0,000000000e+00
      128000000    6,841587275e-02   -4,224630818e-02   -4,079672396e-01   -6,779305339e-01    0,000000000e+00    0,000000000e+00    0,000000000e+00    0,000000000e+00
      142000000    4,350405931e-02   -8,878055215e-02   -7,051953077e-01   -3,608449399e-01    0,000000000e+00    0,000000000e+00    0,000000000e+00    0,000000000e+00
      156000000   -9,568423033e-03   -1,101480275e-01   -7,929301858e-01    6,784464419e-02    0,000000000e+00    0,000000000e+00    0,000000000e+00    0,000000000e+00
      170000000   -6,271102279e-02   -9,185523540e-02   -6,369311213e-01    4,863801003e-01    0,000000000e+00    0,000000000e+00    0,000000000e+00    0,000000000e+00
      184000000   -8,858117461e-02   -4,767340422e-02   -2,733567059e-01    7,563518882e-01    0,000000000e+00    0,000000000e+00    0,000000000e+00    0,000000000e+00
      198000000   -8,276180923e-02   -6,450601853e-03    1,795905828e-01    7,821796536e-01    0,000000000e+00    0,000000000e+00    0,000000000e+00    0,000000000e+00
      212000000   -6,273868680e-02    1,800853200e-02    5,705539584e-01    5,583796501e-01    0,000000000e+00    0,000000000e+00    0,000000000e+00    0,000000000e+00
      226000000   -4,151080549e-02    3,180265799e-02    7,767227292e-01    1,620220840e-01    0,000000000e+00    0,000000000e+00    0,000000000e+00    0,000000000e+00
      240000000   -1,494130306e-02    4,126459733e-02    7,362025976e-01   -2,787061334e-01    0,000000000e+00    0,000000000e+00    0,000000000e+00    0,000000000e+00
      254000000    2,140238136e-02    3,634439781e-02    4,680424631e-01   -6,224461794e-01    0,000000000e+00    0,000000000e+00    0,000000000e+00    0,000000000e+00
      268000000    5,329775065e-02    4,719097167e-03    6,664825231e-02   -7,675022483e-01    0,000000000e+00    0,000000000e+00    0,000000000e+00    0,000000000e+00
      282000000    5,745236203e-02   -4,486721382e-02   -3,456919491e-01   -6,826733947e-01    0,000000000e+00    0,000000000e+00    0,000000000e+00    0,000000000e+00
      296000000    2,607026324e-02   -8,467156440e-02   -6,548973322e-01   -3,981132209e-01    0,000000000e+00    0,000000000e+00    0,000000000e+00    0,000000000e+00
      310000000   -1,889313012e-02   -8,935315162e-02   -7,733124495e-01    9,822119959e-03    0,000000000e+00    0,000000000e+00    0,000000000e+00    0,000000000e+00
      324000000   -4,657408968e-02   -6,357744336e-02   -6,472542882e-01    4,294722080e-01    0,000000000e+00    0,000000000e+00    0,000000000e+00    0,000000000e+00
      338000000   -4,116699100e-02   -3,793292120e-02   -3,118350804e-01    7,107677460e-01    0,000000000e+00    0,000000000e+00    0,000000000e+00    0,000000000e+00
      352000000   -2,360248938e-02   -3,791692853e-02    1,190397441e-01    7,589839101e-01    0,000000000e+00    0,000000000e+00    0,000000000e+00    0,000000000e+00
      366000000   -2,278256416e-02   -5,601615831e-02    5,036796927e-01    5,717693567e-01    0,000000000e+00    0,000000000e+00    0,000000000e+00    0,000000000e+00
      380000000   -4,473960400e-02   -6,531582773e-02    7,264663577e-01    2,115644962e-01    0,000000000e+00    0,000000000e+00    0,000000000e+00    0,000000000e+00
      394000000   -6,679978222e-02   -5,073848739e-02    7,226474285e-01   -2,134296894e-01    0,000000000e+00    0,000000000e+00    0,000000000e+00    0,000000000e+00
      408000000   -6,775905192e-02   -2,644368634e-02    4,899786115e-01   -5,686200857e-01    0,000000000e+00    0,000000000e+00    0,000000000e+00    0,000000000e+00
      422000000   -5,328929424e-02   -1,530126575e-02    1,055101678e-01   -7,391991019e-01    0,000000000e+00    0,000000000e+00    0,000000000e+00    0,000000000e+00
      436000000   -4,642294720e-02   -1,845567673e-02   -3,066339791e-01   -6,757170558e-01    0,000000000e+00    0,000000000e+00    0,000000000e+00    0,000000000e+00
      450000000   -5,183558166e-02   -1,511588600e-02   -6,186891198e-01   -3,998286128e-01    0,000000000e+00    0,000000000e+00    0,000000000e+00    0,000000000e+00
      464000000   -5,056804419e-02    6,004543975e-03   -7,301501036e-01    3,568330547e-03    0,000000000e+00    0,000000000e+00    0,000000000e+00    0,000000000e+00
      478000000   -2,027743496e-02    2,686223947e-02   -5,983496308e-01    3,975419402e-01    0,000000000e+00    0,000000000e+00    0,000000000e+00    0,000000000e+00
      492000000    2,858738229e-02    1,436789799e-02   -2,800116837e-01    6,444936395e-01    0,000000000e+00    0,000000000e+00    0,000000000e+00    0,000000000e+00
      506000000    5,946321040e-02   -3,743003681e-02    1,054419875e-01    6,804823875e-01    0,000000000e+00    0,000000000e+00    0,000000000e+00    0,000000000e+00
      520000000    4,418041185e-02   -1,023871750e-01    4,388908744e-01    5,187056661e-01    0,000000000e+00    0,000000000e+00    0,000000000e+00    0,000000000e+00
      534000000   -1,287279464e-02   -1,441992074e-01    6,494998932e-01    2,058130205e-01    0,000000000e+00    0,000000000e+00    0,000000000e+00    0,000000000e+00
      548000000   -8,160837740e-02   -1,400449425e-01    6,600430012e-01   -1,767420173e-01    0,000000000e+00    0,000000000e+00    0,000000000e+00    0,000000000e+00
      562000000   -1,321023405e-01   -9,812612832e-02    4,503806829e-01   -5,087365508e-01    0,000000000e+00    0,000000000e+00    0,000000000e+00    0,000000000e+00
      576000000   -1,503061354e-01   -3,854190186e-02    8,135546744e-02   -6,611331105e-01    0,000000000e+00    0,000000000e+00    0,000000000e+00    0,000000000e+00
      590000000   -1,296821833e-01    3,070526570e-02   -2,938621342e-01   -5,616686344e-01    0,000000000e+00    0,000000000e+00    0,000000000e+00    0,000000000e+00
      604000000   -3,564972803e-02    6,825940311e-02   -4,852780700e-01   -2,697771788e-01    0,000000000e+00    0,000000000e+00    0,000000000e+00    0,000000000e+00
      618000000    3,368088230e-02   -3,410029784e-02   -4,941619337e-01   -5,496071279e-02    0,000000000e+00    0,000000000e+00    0,000000000e+00    0,000000000e+00
      632000000   -5,465483293e-02   -9,186138958e-02   -5,287030339e-01    1,778161824e-01    0,000000000e+00    0,000000000e+00    0,000000000e+00    0,000000000e+00
      646000000   -9,935893863e-02   -3,197790682e-02   -3,796301186e-01    4,788160324e-01    0,000000000e+00    0,000000000e+00    0,000000000e+00    0,000000000e+00
      660000000   -6,822712719e-02    1,030327193e-02   -5,093190446e-02    6,252328753e-01    0,000000000e+00    0,000000000e+00    0,000000000e+00    0,000000000e+00
      674000000   -3,031792492e-02    4,419829231e-03    2,996853590e-01    5,535739660e-01    0,000000000e+00    0,000000000e+00    0,000000000e+00    0,000000000e+00
      688000000   -1,547133364e-02   -1,875338331e-02    5,475117564e-01    3,029991984e-01    0,000000000e+00    0,000000000e+00    0,000000000e+00    0,000000000e+00
      702000000   -1,429343503e-02   -3,397184238e-02    6,188663244e-01   -4,355570301e-02    0,000000000e+00    0,000000000e+00    0,000000000e+00    0,000000000e+00
      716000000   -1,000889670e-02   -4,884560034e-02    4,917691946e-01   -3,691532314e-01    0,000000000e+00    0,000000000e+00    0,000000000e+00    0,000000000e+00
      730000000   -8,042669855e-03   -7,471974194e-02    2,116056830e-01   -5,673609972e-01    0,000000000e+00    0,000000000e+00    0,000000000e+00    0,000000000e+00
      744000000   -2,623868361e-02   -1,109916568e-01   -1,240627989e-01   -5,879226327e-01    0,000000000e+00    0,000000000e+00    0,000000000e+00    0,000000000e+00
      758000000   -7,466411591e-02   -1,322341412e-01   -4,192922711e-01   -4,322358668e-01    0,000000000e+00    0,000000000e+00    0,000000000e+00    0,000000000e+00
      772000000   -1,356453747e-01   -1,164113656e-01   -5,933513045e-01   -1,396325529e-01    0,000000000e+00    0,000000000e+00    0,000000000e+00    0,000000000e+00
      786000000   -1,715308279e-01   -5,805052444e-02   -5,811356902e-01    2,100016624e-01    0,000000000e+00    0,000000000e+00    0,000000000e+00    0,000000000e+00
      800000000   -1,594959497e-01    6,147706416e-03   -3,735970855e-01    4,954425097e-01    0,000000000e+00    0,000000000e+00    0,000000000e+00    0,000000000e+00
      814000000   -1,145788506e-01    4,283853993e-02   -4,638336226e-02    6,146491766e-01    0,000000000e+00    0,000000000e+00    0,000000000e+00    0,000000000e+00
      828000000   -6,972041726e-02    4,405369237e-02    2,853831649e-01    5,393449664e-01    0,000000000e+00    0,000000000e+00    0,000000000e+00    0,000000000e+00
      842000000   -3,878822550e-02    2,948556840e-02    5,203812122e-01    3,052123189e-01    0,000000000e+00    0,000000000e+00    0,000000000e+00    0,000000000e+00
      856000000   -1,775502227e-02    1,314984355e-02    5,942337513e-01   -1,390035450e-02    0,000000000e+00    0,000000000e+00    0,000000000e+00    0,000000000e+00
      870000000    3,038935130e-03   -1,083214022e-02    4,858059585e-01   -3,163608611e-01    0,000000000e+00    0,000000000e+00    0,000000000e+00    0,000000000e+00
      884000000    1,389613282e-02   -5,147681013e-02    2,430498451e-01   -5,123769045e-01    0,000000000e+00    0,000000000e+00    0,000000000e+00    0,000000000e+00
      898000000   -3,632020671e-03   -1,030710861e-01   -5,842391774e-02   -5,543271899e-01    0,000000000e+00    0,000000000e+00    0,000000000e+00    0,000000000e+00
      912000000   -6,352031231e-02   -1,329485923e-01   -3,868926466e-01   -4,256772995e-01    0,000000000e+00    0,000000000e+00    0,000000000e+00    0,000000000e+00
      926000000   -1,258887947e-01   -1,209306344e-01   -5,650342703e-01   -1,502555758e-01    0,000000000e+00    0,000000000e+00    0,000000000e+00    0,000000000e+00
      940000000   -1,661968529e-01   -6,187811121e-02   -5,695261359e-01    1,912628859e-01    0,000000000e+00    0,000000000e+00    0,000000000e+00    0,000000000e+00
      954000000   -1,451162249e-01    1,152287121e-03   -3,754318058e-01    4,853770137e-01    0,000000000e+00    0,000000000e+00    0,000000000e+00    0,000000000e+00
      968000000   -9,728550911e-02    2,185321413e-02   -4,817400873e-02    6,148560643e-01    0,000000000e+00    0,000000000e+00    0,000000000e+00    0,000000000e+00
      982000000   -5,594956502e-02    7,193513680e-03    2,791000903e-01    5,519013405e-01    0,000000000e+00    0,000000000e+00    0,000000000e+00    0,000000000e+00
      996000000   -4,060699418e-02   -3,501160815e-02    5,241328478e-01    3,280429244e-01    0,000000000e+00    0,000000000e+00    0,000000000e+00    0,000000000e+00
     1010000000   -6,404170394e-02   -6,924933195e-02    6,086272001e-01    1,349921059e-02    0,000000000e+00    0,000000000e+00    0,000000000e+00    0,000000000e+00
     1024000000   -1,039507166e-01   -7,709711790e-02    5,142892599e-01   -2,803347111e-01    0,000000000e+00    0,000000000e+00    0,000000000e+00    0,000000000e+00
     1038000000   -1,445593238e-01   -5,756337196e-02    2,973173261e-01   -4,723933041e-01    0,000000000e+00    0,000000000e+00    0,000000000e+00    0,000000000e+00
     1052000000   -1,496948749e-01   -1,797897741e-03    3,818195686e-02   -5,238853097e-01    0,000000000e+00    0,000000000e+00    0,000000000e+00    0,000000000e+00
     1066000000   -1,054704264e-01    4,226979986e-02   -2,071344703e-01   -4,669119418e-01    0,000000000e+00    0,000000000e+00    0,000000000e+00    0,000000000e+00
     1080000000   -5,365771428e-02    2,193989605e-02   -4,171226621e-01   -3,018959165e-01    0,000000000e+00    0,000000000e+00    0,000000000e+00    0,000000000e+00
     1094000000   -3,289794177e-02   -9,323343635e-03   -5,213021636e-01   -2,500319853e-02    0,000000000e+00    0,000000000e+00    0,000000000e+00    0,000000000e+00
     1108000000   -3,486695513e-02   -3,412749246e-02   -4,433656335e-01    2,873690724e-01    0,000000000e+00    0,000000000e+00    0,000000000e+00    0,000000000e+00
     1122000000   -3,083801828e-02   -5,478462949e-02   -1,882403493e-01    4,965343177e-01    0,000000000e+00    0,000000000e+00    0,000000000e+00    0,000000000e+00
     1136000000   -4,163429514e-02   -9,454246610e-02    1,513759047e-01    5,213294625e-01    0,000000000e+00    0,000000000e+00    0,000000000e+00    0,000000000e+00
     1150000000   -8,670013398e-02   -1,258840859e-01    4,536283612e-01    3,459272683e-01    0,000000000e+00    0,000000000e+00    0,000000000e+00    0,000000000e+00
     1164000000   -1,368579417e-01   -1,265136898e-01    6,104291677e-01    1,168807130e-02    0,000000000e+00    0,000000000e+00    0,000000000e+00    0,000000000e+00
     1178000000   -1,729711741e-01   -8,887084574e-02    5,393364429e-01   -3,774243593e-01    0,000000000e+00    0,000000000e+00    0,000000000e+00    0,000000000e+00
     1192000000   -1,822919995e-01   -5,716845393e-02    2,396964282e-01   -6,382462382e-01    0,000000000e+00    0,000000000e+00    0,000000000e+00    0,000000000e+00
     1206000000   -1,911464483e-01   -5,830371380e-02   -1,377210170e-01   -6,622452140e-01    0,000000000e+00    0,000000000e+00    0,000000000e+00    0,000000000e+00
     1220000000   -2,508706152e-01   -1,937040314e-02   -4,167407453e-01   -4,839250147e-01    0,000000000e+00    0,000000000e+00    0,000000000e+00    0,000000000e+00
     1234000000   -2,433128804e-01    1,143284515e-01   -5,568526983e-01   -2,524020672e-01    0,000000000e+00    0,000000000e+00    0,000000000e+00    0,000000000e+00
     1248000000   -1,109239161e-01    1,740119308e-01   -6,063856483e-01    2,223968320e-02    0,000000000e+00    0,000000000e+00    0,000000000e+00    0,000000000e+00
     1262000000   -2,226961311e-03    1,345222145e-01   -5,114495158e-01    2,977455258e-01    0,000000000e+00    0,000000000e+00    0,000000000e+00    0,000000000e+00
     1276000000    6,235793233e-02    4,102394730e-02   -2,788964510e-01    4,895642102e-01    0,000000000e+00    0,000000000e+00    0,000000000e+00    0,000000000e+00
     1290000000    7,313881069e-02   -6,805200130e-02    1,294882689e-02    5,493115187e-01    0,000000000e+00    0,000000000e+00    0,000000000e+00    0,000000000e+00
     1304000000    1,782209054e-02   -1,829175353e-01    2,995023131e-01    4,785306156e-01    0,000000000e+00    0,000000000e+00    0,000000000e+00    0,000000000e+00
     1318000000   -9,201747924e-02   -2,513335049e-01    5,445846319e-01    2,702257037e-01    0,000000000e+00    0,000000000e+00    0,000000000e+00    0,000000000e+00
     1332000000   -2,416870147e-01   -2,493523657e-01    6,528870463e-01   -6,047325581e-02    0,000000000e+00    0,000000000e+00    0,000000000e+00    0,000000000e+00
     1346000000   -3,630458117e-01   -1,365924776e-01    5,554714203e-01   -4,119503498e-01    0,000000000e+00    0,000000000e+00    0,000000000e+00    0,000000000e+00
     1360000000   -3,879905343e-01    9,484449401e-03    2,518459857e-01   -6,363127828e-01    0,000000000e+00    0,000000000e+00    0,000000000e+00    0,000000000e+00
     1374000000   -3,271949291e-01    1,223239824e-01   -1,099380404e-01   -6,228295565e-01    0,000000000e+00    0,000000000e+00    0,000000000e+00    0,000000000e+00
     1388000000   -2,336569279e-01    1,680439711e-01   -3,677126467e-01   -4,205504954e-01    0,000000000e+00    0,000000000e+00    0,000000000e+00    0,000000000e+00
     1402000000   -1,531978995e-01    1,741559952e-01   -4,800724089e-01   -1,041374877e-01    0,000000000e+00    0,000000000e+00    0,000000000e+00    0,000000000e+00
     1416000000   -8,956369758e-02    1,388936490e-01   -3,985490501e-01    2,044850290e-01    0,000000000e+00    0,000000000e+00    0,000000000e+00    0,000000000e+00
     1430000000   -3,725134581e-02    8,780170232e-02   -1,763378531e-01    4,240232706e-01    0,000000000e+00    0,000000000e+00    0,000000000e+00    0,000000000e+00
     1444000000   -1,090570912e-02    1,097864658e-02    1,253774613e-01    5,285688043e-01    0,000000000e+00    0,000000000e+00    0,000000000e+00    0,000000000e+00
     1458000000   -4,095142707e-02   -8,378119022e-02    4,265965521e-01    4,884383678e-01    0,000000000e+00    0,000000000e+00    0,000000000e+00    0,000000000e+00
     1472000000   -1,273997873e-01   -1,473973244e-01    7,200924158e-01    3,068785965e-01    0,000000000e+00    0,000000000e+00    0,000000000e+00    0,000000000e+00
     1486000000   -2,316201329e-01   -1,376272738e-01    9,172871709e-01   -3,604214638e-02    0,000000000e+00    0,000000000e+00    0,000000000e+00    0,000000000e+00
     1500000000   -3,055434823e-01   -6,850050390e-02    8,414722085e-01   -4,299072325e-01    0,000000000e+00    0,000000000e+00    0,000000000e+00    0,000000000e+00
