! NanoVNA-App
! Date: 2025-09-25 14:58:03
! Start: 100MHz Stop: 1,5GHz Points: 101
! S-Parameter data: F S11 S21 S12 S22
# Hz S RI R 50
!     Frequency           S11_Real           S11_Imag           S21_Real           S21_Imag           S12_Real           S12_Imag           S22_Real           S22_Imag
      100000000    3,561794385e-02    2,735572122e-02    4,407292604e-01   -6,695040464e-01    0,000000000e+00    0,000000000e+00    0,000000000e+00    0,000000000e+00
      114000000    6,075336039e-02    2,167486586e-03    1,280231588e-02   -7,955235243e-01    0,000000000e+00    0,000000000e+00    0,000000000e+00    0,000000000e+00
      128000000    6,841513515e-02   -4,225186631e-02   -4,081014395e-01   -6,780799627e-01    0,000000000e+00    0,000000000e+00    0,000000000e+00    0,000000000e+00
      142000000    4,348308966e-02   -8,876615763e-02   -7,052349448e-01   -3,608703613e-01    0,000000000e+00    0,000000000e+00    0,000000000e+00    0,000000000e+00
      156000000   -9,690600447e-03   -1,092471778e-01   -7,925172448e-01    6,702983379e-02    0,000000000e+00    0,000000000e+00    0,000000000e+00    0,000000000e+00
      170000000   -6,261406094e-02   -9,185057878e-02   -6,370059252e-01    4,866214395e-01    0,000000000e+00    0,000000000e+00    0,000000000e+00    0,000000000e+00
      184000000   -8,850517869e-02   -4,765660688e-02   -2,729682028e-01    7,561539412e-01    0,000000000e+00    0,000000000e+00    0,000000000e+00    0,000000000e+00
      198000000   -8,267346025e-02   -6,418688223e-03    1,797109097e-01    7,822455168e-01    0,000000000e+00    0,000000000e+00    0,000000000e+00    0,000000000e+00
      212000000   -6,267941743e-02    1,801830903e-02    5,707954764e-01    5,583184958e-01    0,000000000e+00    0,000000000e+00    0,000000000e+00    0,000000000e+00
      226000000   -4,136852548e-02    3,182148933e-02    7,768118382e-01    1,618651450e-01    0,000000000e+00    0,000000000e+00    0,000000000e+00    0,000000000e+00
      240000000   -1,484554075e-02    4,125678167e-02    7,360319495e-01   -2,786546648e-01    0,000000000e+00    0,000000000e+00    0,000000000e+00    0,000000000e+00
      254000000    2,143723331e-02    3,630456328e-02    4,679522216e-01   -6,225194335e-01    0,000000000e+00    0,000000000e+00    0,000000000e+00    0,000000000e+00
      268000000    5,333464593e-02    4,656278528e-03    6,663575023e-02   -7,673089504e-01    0,000000000e+00    0,000000000e+00    0,000000000e+00    0,000000000e+00
      282000000    5,746746436e-02   -4,498596117e-02   -3,451986909e-01   -6,818670034e-01    0,000000000e+00    0,000000000e+00    0,000000000e+00    0,000000000e+00
      296000000    2,588219568e-02   -8,474963158e-02   -6,549919844e-01   -3,974319994e-01    0,000000000e+00    0,000000000e+00    0,000000000e+00    0,000000000e+00
      310000000   -1,897019893e-02   -8,941018581e-02   -7,750001550e-01    1,023935340e-02    0,000000000e+00    0,000000000e+00    0,000000000e+00    0,000000000e+00
      324000000   -4,635932669e-02   -6,334220618e-02   -6,478528976e-01    4,295467734e-01    0,000000000e+00    0,000000000e+00    0,000000000e+00    0,000000000e+00
      338000000   -4,086972401e-02   -3,785665706e-02   -3,105082512e-01    7,106363773e-01    0,000000000e+00    0,000000000e+00    0,000000000e+00    0,000000000e+00
      352000000   -2,360018715e-02   -3,748058155e-02    1,197290495e-01    7,587052584e-01    0,000000000e+00    0,000000000e+00    0,000000000e+00    0,000000000e+00
      366000000   -2,277107537e-02   -5,599312484e-02    5,031959414e-01    5,706920624e-01    0,000000000e+00    0,000000000e+00    0,000000000e+00    0,000000000e+00
      380000000   -4,467223212e-02   -6,533975154e-02    7,265087366e-01    2,114922404e-01    0,000000000e+00    0,000000000e+00    0,000000000e+00    0,000000000e+00
      394000000   -6,621520221e-02   -5,093460903e-02    7,227485776e-01   -2,138977051e-01    0,000000000e+00    0,000000000e+00    0,000000000e+00    0,000000000e+00
      408000000   -6,745716184e-02   -2,632203326e-02    4,909635782e-01   -5,680578351e-01    0,000000000e+00    0,000000000e+00    0,000000000e+00    0,000000000e+00
      422000000   -5,320235342e-02   -1,552820299e-02    1,062317342e-01   -7,392601371e-01    0,000000000e+00    0,000000000e+00    0,000000000e+00    0,000000000e+00
      436000000   -4,657478258e-02   -1,847104169e-02   -3,061861694e-01   -6,755946875e-01    0,000000000e+00    0,000000000e+00    0,000000000e+00    0,000000000e+00
      450000000   -5,212317407e-02   -1,551381964e-02   -6,190791130e-01   -4,002508223e-01    0,000000000e+00    0,000000000e+00    0,000000000e+00    0,000000000e+00
      464000000   -5,045940354e-02    5,930980202e-03   -7,298253179e-01    3,702277318e-03    0,000000000e+00    0,000000000e+00    0,000000000e+00    0,000000000e+00
      478000000   -2,010870539e-02    2,653966285e-02   -5,986419320e-01    3,978799284e-01    0,000000000e+00    0,000000000e+00    0,000000000e+00    0,000000000e+00
      492000000    2,824809216e-02    1,452067215e-02   -2,803446054e-01    6,449539661e-01    0,000000000e+00    0,000000000e+00    0,000000000e+00    0,000000000e+00
      506000000    5,916901678e-02   -3,722325712e-02    1,058999673e-01    6,802194715e-01    0,000000000e+00    0,000000000e+00    0,000000000e+00    0,000000000e+00
      520000000    4,406546801e-02   -1,026570126e-01    4,440435469e-01    5,157831907e-01    0,000000000e+00    0,000000000e+00    0,000000000e+00    0,000000000e+00
      534000000   -1,256625634e-02   -1,438068002e-01    6,495509744e-01    2,056572288e-01    0,000000000e+00    0,000000000e+00    0,000000000e+00    0,000000000e+00
      548000000   -8,166787773e-02   -1,402101964e-01    6,593563557e-01   -1,769491732e-01    0,000000000e+00    0,000000000e+00    0,000000000e+00    0,000000000e+00
      562000000   -1,311102509e-01   -9,801489860e-02    4,501700997e-01   -5,086512566e-01    0,000000000e+00    0,000000000e+00    0,000000000e+00    0,000000000e+00
      576000000   -1,501028240e-01   -3,840668499e-02    8,071984351e-02   -6,596654654e-01    0,000000000e+00    0,000000000e+00    0,000000000e+00    0,000000000e+00
      590000000   -1,293936521e-01    3,068726137e-02   -2,963461876e-01   -5,596185327e-01    0,000000000e+00    0,000000000e+00    0,000000000e+00    0,000000000e+00
      604000000   -3,546844795e-02    6,800820678e-02   -4,852465391e-01   -2,695254683e-01    0,000000000e+00    0,000000000e+00    0,000000000e+00    0,000000000e+00
      618000000    3,372893482e-02   -3,347723186e-02   -4,944622219e-01   -5,497965589e-02    0,000000000e+00    0,000000000e+00    0,000000000e+00    0,000000000e+00
      632000000   -5,478772148e-02   -9,198872745e-02   -5,288570523e-01    1,783968806e-01    0,000000000e+00    0,000000000e+00    0,000000000e+00    0,000000000e+00
      646000000   -1,001651585e-01   -3,250607848e-02   -3,790565431e-01    4,787249863e-01    0,000000000e+00    0,000000000e+00    0,000000000e+00    0,000000000e+00
      660000000   -6,778663397e-02    1,041285042e-02   -4,894544184e-02    6,243504286e-01    0,000000000e+00    0,000000000e+00    0,000000000e+00    0,000000000e+00
      674000000   -2,980949730e-02    3,794834716e-03    2,993217409e-01    5,525004268e-01    0,000000000e+00    0,000000000e+00    0,000000000e+00    0,000000000e+00
      688000000   -1,457323041e-02   -1,864934154e-02    5,473986864e-01    3,028414547e-01    0,000000000e+00    0,000000000e+00    0,000000000e+00    0,000000000e+00
      702000000   -1,411335077e-02   -3,544035926e-02    6,180309653e-01   -4,142331704e-02    0,000000000e+00    0,000000000e+00    0,000000000e+00    0,000000000e+00
      716000000   -9,540607221e-03   -4,812750220e-02    4,918807149e-01   -3,687992096e-01    0,000000000e+00    0,000000000e+00    0,000000000e+00    0,000000000e+00
      730000000   -7,751901168e-03   -7,369385660e-02    2,108231485e-01   -5,686888695e-01    0,000000000e+00    0,000000000e+00    0,000000000e+00    0,000000000e+00
      744000000   -2,532321587e-02   -1,106214747e-01   -1,236528307e-01   -5,872615576e-01    0,000000000e+00    0,000000000e+00    0,000000000e+00    0,000000000e+00
      758000000   -7,359692454e-02   -1,319520324e-01   -4,196773469e-01   -4,314792752e-01    0,000000000e+00    0,000000000e+00    0,000000000e+00    0,000000000e+00
      772000000   -1,354540288e-01   -1,156048998e-01   -5,930886269e-01   -1,398111284e-01    0,000000000e+00    0,000000000e+00    0,000000000e+00    0,000000000e+00
      786000000   -1,705568284e-01   -5,850989372e-02   -5,814315677e-01    2,095204890e-01    0,000000000e+00    0,000000000e+00    0,000000000e+00    0,000000000e+00
      800000000   -1,593045443e-01    6,946969777e-03   -3,728316724e-01    4,958822429e-01    0,000000000e+00    0,000000000e+00    0,000000000e+00    0,000000000e+00
      814000000   -1,145069301e-01    4,190186411e-02   -4,594777897e-02    6,159371734e-01    0,000000000e+00    0,000000000e+00    0,000000000e+00    0,000000000e+00
      828000000   -6,968767941e-02    4,398948699e-02    2,859092653e-01    5,399036407e-01    0,000000000e+00    0,000000000e+00    0,000000000e+00    0,000000000e+00
      842000000   -3,849755228e-02    2,960761636e-02    5,204110146e-01    3,053252399e-01    0,000000000e+00    0,000000000e+00    0,000000000e+00    0,000000000e+00
      856000000   -1,775070466e-02    1,214357093e-02    5,940533280e-01   -1,398793794e-02    0,000000000e+00    0,000000000e+00    0,000000000e+00    0,000000000e+00
      870000000    2,695388161e-03   -1,111304853e-02    4,853692949e-01   -3,167177141e-01    0,000000000e+00    0,000000000e+00    0,000000000e+00    0,000000000e+00
      884000000    1,358282939e-02   -5,207530409e-02    2,419389486e-01   -5,118999481e-01    0,000000000e+00    0,000000000e+00    0,000000000e+00    0,000000000e+00
      898000000   -3,579867072e-03   -1,020865142e-01   -5,767483264e-02   -5,541128516e-01    0,000000000e+00    0,000000000e+00    0,000000000e+00    0,000000000e+00
      912000000   -6,323137879e-02   -1,328939795e-01   -3,982628286e-01   -4,213779271e-01    0,000000000e+00    0,000000000e+00    0,000000000e+00    0,000000000e+00
      926000000   -1,279452294e-01   -1,197421402e-01   -5,673099756e-01   -1,509465575e-01    0,000000000e+00    0,000000000e+00    0,000000000e+00    0,000000000e+00
      940000000   -1,632358581e-01   -5,945654213e-02   -5,682759881e-01    1,939381808e-01    0,000000000e+00    0,000000000e+00    0,000000000e+00    0,000000000e+00
      954000000   -1,488358527e-01    2,403027844e-03   -3,733019531e-01    4,852879345e-01    0,000000000e+00    0,000000000e+00    0,000000000e+00    0,000000000e+00
      968000000   -9,555002302e-02    2,270597033e-02   -5,008945614e-02    6,142403483e-01    0,000000000e+00    0,000000000e+00    0,000000000e+00    0,000000000e+00
      982000000   -5,251826346e-02    4,777185153e-03    2,822427750e-01    5,521442890e-01    0,000000000e+00    0,000000000e+00    0,000000000e+00    0,000000000e+00
      996000000   -4,523647204e-02   -3,573187068e-02    5,253286362e-01    3,248055279e-01    0,000000000e+00    0,000000000e+00    0,000000000e+00    0,000000000e+00
     1010000000   -6,375101209e-02   -6,416352093e-02    6,078849435e-01    1,544999983e-02    0,000000000e+00    0,000000000e+00    0,000000000e+00    0,000000000e+00
     1024000000   -1,019980907e-01   -7,612837106e-02    5,155605674e-01   -2,827330232e-01    0,000000000e+00    0,000000000e+00    0,000000000e+00    0,000000000e+00
     1038000000   -1,393016130e-01   -5,601916090e-02    2,951134443e-01   -4,729107916e-01    0,000000000e+00    0,000000000e+00    0,000000000e+00    0,000000000e+00
     1052000000   -1,515991986e-01   -5,082655232e-03    3,454270959e-02   -5,224450827e-01    0,000000000e+00    0,000000000e+00    0,000000000e+00    0,000000000e+00
     1066000000   -1,085928753e-01    4,271972552e-02   -2,096977979e-01   -4,639402032e-01    0,000000000e+00    0,000000000e+00    0,000000000e+00    0,000000000e+00
     1080000000   -5,599630252e-02    2,859103680e-02   -4,142483175e-01   -2,978776395e-01    0,000000000e+00    0,000000000e+00    0,000000000e+00    0,000000000e+00
     1094000000   -3,811709955e-02   -6,926019676e-03   -5,194679499e-01   -2,363745682e-02    0,000000000e+00    0,000000000e+00    0,000000000e+00    0,000000000e+00
     1108000000   -3,085640632e-02   -3,497944772e-02   -4,414053559e-01    2,851497233e-01    0,000000000e+00    0,000000000e+00    0,000000000e+00    0,000000000e+00
     1122000000   -3,440767154e-02   -5,773917958e-02   -1,856783479e-01    4,949221313e-01    0,000000000e+00    0,000000000e+00    0,000000000e+00    0,000000000e+00
     1136000000   -4,460585490e-02   -9,058348089e-02    1,515587121e-01    5,212652087e-01    0,000000000e+00    0,000000000e+00    0,000000000e+00    0,000000000e+00
     1150000000   -8,021779358e-02   -1,243632883e-01    4,537104666e-01    3,445768952e-01    0,000000000e+00    0,000000000e+00    0,000000000e+00    0,000000000e+00
     1164000000   -1,396146566e-01   -1,243894324e-01    6,086810231e-01    1,589408517e-02    0,000000000e+00    0,000000000e+00    0,000000000e+00    0,000000000e+00
     1178000000   -1,782180518e-01   -8,945688605e-02    5,399620533e-01   -3,693169951e-01    0,000000000e+00    0,000000000e+00    0,000000000e+00    0,000000000e+00
     1192000000   -1,761837155e-01   -5,568601936e-02    2,435397208e-01   -6,379213333e-01    0,000000000e+00    0,000000000e+00    0,000000000e+00    0,000000000e+00
     1206000000   -1,892969757e-01   -5,140585452e-02   -1,365350783e-01   -6,611433625e-01    0,000000000e+00    0,000000000e+00    0,000000000e+00    0,000000000e+00
     1220000000   -2,522283792e-01   -1,925550029e-02   -4,212362468e-01   -4,853486717e-01    0,000000000e+00    0,000000000e+00    0,000000000e+00    0,000000000e+00
     1234000000   -2,371521294e-01    1,150102094e-01   -5,557236075e-01   -2,451360971e-01    0,000000000e+00    0,000000000e+00    0,000000000e+00    0,000000000e+00
     1248000000   -1,178726554e-01    1,706402898e-01   -6,089043021e-01    1,838431321e-02    0,000000000e+00    0,000000000e+00    0,000000000e+00    0,000000000e+00
     1262000000   -1,648847101e-04    1,282587796e-01   -5,036065578e-01    2,979313731e-01    0,000000000e+00    0,000000000e+00    0,000000000e+00    0,000000000e+00
     1276000000    5,979247391e-02    4,094310850e-02   -2,785440683e-01    4,878236055e-01    0,000000000e+00    0,000000000e+00    0,000000000e+00    0,000000000e+00
     1290000000    7,026658207e-02   -7,311422378e-02    1,120573934e-02    5,446445942e-01    0,000000000e+00    0,000000000e+00    0,000000000e+00    0,000000000e+00
     1304000000    1,792331040e-02   -1,799945533e-01    2,988790870e-01    4,809198081e-01    0,000000000e+00    0,000000000e+00    0,000000000e+00    0,000000000e+00
     1318000000   -9,076868743e-02   -2,457670867e-01    5,362436771e-01    2,747318447e-01    0,000000000e+00    0,000000000e+00    0,000000000e+00    0,000000000e+00
     1332000000   -2,414744645e-01   -2,427908182e-01    6,480509043e-01   -4,619946703e-02    0,000000000e+00    0,000000000e+00    0,000000000e+00    0,000000000e+00
     1346000000   -3,627574444e-01   -1,442792863e-01    5,549072027e-01   -4,088181853e-01    0,000000000e+00    0,000000000e+00    0,000000000e+00    0,000000000e+00
     1360000000   -3,919177651e-01    9,641955607e-03    2,471957654e-01   -6,346563697e-01    0,000000000e+00    0,000000000e+00    0,000000000e+00    0,000000000e+00
     1374000000   -3,235348761e-01    1,176407933e-01   -9,750247747e-02   -6,232643127e-01    0,000000000e+00    0,000000000e+00    0,000000000e+00    0,000000000e+00
     1388000000   -2,386221737e-01    1,652005613e-01   -3,728702962e-01   -4,123389423e-01    0,000000000e+00    0,000000000e+00    0,000000000e+00    0,000000000e+00
     1402000000   -1,532188207e-01    1,717734039e-01   -4,814991653e-01   -1,068653390e-01    0,000000000e+00    0,000000000e+00    0,000000000e+00    0,000000000e+00
     1416000000   -8,708966523e-02    1,428443044e-01   -3,933943510e-01    2,155422270e-01    0,000000000e+00    0,000000000e+00    0,000000000e+00    0,000000000e+00
     1430000000   -3,412005678e-02    8,174667507e-02   -1,687383503e-01    4,426203072e-01    0,000000000e+00    0,000000000e+00    0,000000000e+00    0,000000000e+00
     1444000000   -1,781173609e-02    9,300493635e-03    1,173905134e-01    5,288004279e-01    0,000000000e+00    0,000000000e+00    0,000000000e+00    0,000000000e+00
     1458000000   -4,087531567e-02   -8,100309968e-02    4,394706190e-01    4,880818427e-01    0,000000000e+00    0,000000000e+00    0,000000000e+00    0,000000000e+00
     1472000000   -1,255467832e-01   -1,399874091e-01    7,320149541e-01    3,115142882e-01    0,000000000e+00    0,000000000e+00    0,000000000e+00    0,000000000e+00
     1486000000   -2,268357426e-01   -1,369381547e-01    9,198845029e-01   -2,020773664e-02    0,000000000e+00    0,000000000e+00    0,000000000e+00    0,000000000e+00
     1500000000   -3,039313257e-01   -6,113922223e-02    8,361691236e-01   -4,125209749e-01    0,000000000e+00    0,000000000e+00    0,000000000e+00    0,000000000e+00
