! NanoVNA-App
! Date: 2025-09-25 14:58:09
! Start: 100MHz Stop: 1,5GHz Points: 101
! S-Parameter data: F S11 S21 S12 S22
# Hz S RI R 50
!     Frequency           S11_Real           S11_Imag           S21_Real           S21_Imag           S12_Real           S12_Imag           S22_Real           S22_Imag
      100000000    3,558032215e-02    2,736683376e-02    4,407307506e-01   -6,695773005e-01    0,000000000e+00    0,000000000e+00    0,000000000e+00    0,000000000e+00
      114000000    6,072878838e-02    2,190554049e-03    1,290107332e-02   -7,954179645e-01    0,000000000e+00    0,000000000e+00    0,000000000e+00    0,000000000e+00
      128000000    6,837638468e-02   -4,223260656e-02   -4,082240462e-01   -6,780971289e-01    0,000000000e+00    0,000000000e+00    0,000000000e+00    0,000000000e+00
      142000000    4,346712306e-02   -8,877857029e-02   -7,051903009e-01   -3,611250818e-01    0,000000000e+00    0,000000000e+00    0,000000000e+00    0,000000000e+00
      156000000   -9,264477529e-03   -1,102721393e-01   -7,933222651e-01    6,810893118e-02    0,000000000e+00    0,000000000e+00    0,000000000e+00    0,000000000e+00
      170000000   -6,263021380e-02   -9,170158952e-02   -6,369002461e-01    4,861615598e-01    0,000000000e+00    0,000000000e+00    0,000000000e+00    0,000000000e+00
      184000000   -8,856162429e-02   -4,764802009e-02   -2,730931044e-01    7,563534379e-01    0,000000000e+00    0,000000000e+00    0,000000000e+00    0,000000000e+00
      198000000   -8,270399272e-02   -6,413721945e-03    1,798628271e-01    7,825711370e-01    0,000000000e+00    0,000000000e+00    0,000000000e+00    0,000000000e+00
      212000000   -6,265231222e-02    1,804769225e-02    5,706056952e-01    5,582711697e-01    0,000000000e+00    0,000000000e+00    0,000000000e+00    0,000000000e+00
      226000000   -4,146685079e-02    3,177275136e-02    7,768579721e-01    1,620145589e-01    0,000000000e+00    0,000000000e+00    0,000000000e+00    0,000000000e+00
      240000000   -1,488913503e-02    4,124930501e-02    7,360993624e-01   -2,786597610e-01    0,000000000e+00    0,000000000e+00    0,000000000e+00    0,000000000e+00
      254000000    2,142602392e-02    3,630171344e-02    4,678896666e-01   -6,219536662e-01    0,000000000e+00    0,000000000e+00    0,000000000e+00    0,000000000e+00
      268000000    5,329811573e-02    4,744540900e-03    6,673037261e-02   -7,672430873e-01    0,000000000e+00    0,000000000e+00    0,000000000e+00    0,000000000e+00
      282000000    5,747697130e-02   -4,491958395e-02   -3,455095291e-01   -6,827604771e-01    0,000000000e+00    0,000000000e+00    0,000000000e+00    0,000000000e+00
      296000000    2,602570504e-02   -8,459039778e-02   -6,551703811e-01   -3,976682425e-01    0,000000000e+00    0,000000000e+00    0,000000000e+00    0,000000000e+00
      310000000   -1,909498125e-02   -8,922431618e-02   -7,749193907e-01    1,113362424e-02    0,000000000e+00    0,000000000e+00    0,000000000e+00    0,000000000e+00
      324000000   -4,635755345e-02   -6,358177960e-02   -6,480547786e-01    4,294636250e-01    0,000000000e+00    0,000000000e+00    0,000000000e+00    0,000000000e+00
      338000000   -4,106141254e-02   -3,768708929e-02   -3,102423251e-01    7,090824246e-01    0,000000000e+00    0,000000000e+00    0,000000000e+00    0,000000000e+00
      352000000   -2,333023027e-02   -3,764639795e-02    1,196493655e-01    7,580784559e-01    0,000000000e+00    0,000000000e+00    0,000000000e+00    0,000000000e+00
      366000000   -2,293552086e-02   -5,643271282e-02    5,028497577e-01    5,712075830e-01    0,000000000e+00    0,000000000e+00    0,000000000e+00    0,000000000e+00
      380000000   -4,459381104e-02   -6,533506513e-02    7,262615561e-01    2,114677578e-01    0,000000000e+00    0,000000000e+00    0,000000000e+00    0,000000000e+00
      394000000   -6,634919345e-02   -5,076081306e-02    7,225611210e-01   -2,140624523e-01    0,000000000e+00    0,000000000e+00    0,000000000e+00    0,000000000e+00
      408000000   -6,784304976e-02   -2,639068663e-02    4,884144366e-01   -5,684216022e-01    0,000000000e+00    0,000000000e+00    0,000000000e+00    0,000000000e+00
      422000000   -5,333163962e-02   -1,521753520e-02    1,052731127e-01   -7,386259437e-01    0,000000000e+00    0,000000000e+00    0,000000000e+00    0,000000000e+00
      436000000   -4,682634398e-02   -1,872590929e-02   -3,061251640e-01   -6,766713262e-01    0,000000000e+00    0,000000000e+00    0,000000000e+00    0,000000000e+00
      450000000   -5,219584703e-02   -1,532524079e-02   -6,185521483e-01   -4,002448320e-01    0,000000000e+00    0,000000000e+00    0,000000000e+00    0,000000000e+00
      464000000   -5,041171983e-02    6,065946538e-03   -7,297270298e-01    3,364798613e-03    0,000000000e+00    0,000000000e+00    0,000000000e+00    0,000000000e+00
      478000000   -2,038566023e-02    2,642615885e-02   -5,983439684e-01    3,971691132e-01    0,000000000e+00    0,000000000e+00    0,000000000e+00    0,000000000e+00
      492000000    2,821267396e-02    1,498039812e-02   -2,796376944e-01    6,442363262e-01    0,000000000e+00    0,000000000e+00    0,000000000e+00    0,000000000e+00
      506000000    5,883408710e-02   -3,734774143e-02    1,051734537e-01    6,795538068e-01    0,000000000e+00    0,000000000e+00    0,000000000e+00    0,000000000e+00
      520000000    4,415009171e-02   -1,019946709e-01    4,404510856e-01    5,165268779e-01    0,000000000e+00    0,000000000e+00    0,000000000e+00    0,000000000e+00
      534000000   -1,257107593e-02   -1,444172859e-01    6,492625475e-01    2,053749263e-01    0,000000000e+00    0,000000000e+00    0,000000000e+00    0,000000000e+00
      548000000   -8,220959455e-02   -1,398447603e-01    6,592326760e-01   -1,762529761e-01    0,000000000e+00    0,000000000e+00    0,000000000e+00    0,000000000e+00
      562000000   -1,309833825e-01   -9,822013974e-02    4,509538412e-01   -5,086652040e-01    0,000000000e+00    0,000000000e+00    0,000000000e+00    0,000000000e+00
      576000000   -1,496845633e-01   -3,804422170e-02    8,134268969e-02   -6,591857076e-01    0,000000000e+00    0,000000000e+00    0,000000000e+00    0,000000000e+00
      590000000   -1,294869781e-01    3,016794845e-02   -2,960988581e-01   -5,609632134e-01    0,000000000e+00    0,000000000e+00    0,000000000e+00    0,000000000e+00
      604000000   -3,679258749e-02    6,814405322e-02   -4,860903323e-01   -2,700484693e-01    0,000000000e+00    0,000000000e+00    0,000000000e+00    0,000000000e+00
      618000000    3,415657952e-02   -3,265117854e-02   -4,938080013e-01   -5,313086882e-02    0,000000000e+00    0,000000000e+00    0,000000000e+00    0,000000000e+00
      632000000   -5,465558544e-02   -9,246611595e-02   -5,278605223e-01    1,781270951e-01    0,000000000e+00    0,000000000e+00    0,000000000e+00    0,000000000e+00
      646000000   -9,957300127e-02   -3,232887015e-02   -3,791188598e-01    4,781679213e-01    0,000000000e+00    0,000000000e+00    0,000000000e+00    0,000000000e+00
      660000000   -6,848212332e-02    1,030704007e-02   -5,103898421e-02    6,245513558e-01    0,000000000e+00    0,000000000e+00    0,000000000e+00    0,000000000e+00
      674000000   -3,042539768e-02    4,576508887e-03    2,993036807e-01    5,531123281e-01    0,000000000e+00    0,000000000e+00    0,000000000e+00    0,000000000e+00
      688000000   -1,585612632e-02   -1,829376817e-02    5,467851162e-01    3,027593493e-01    0,000000000e+00    0,000000000e+00    0,000000000e+00    0,000000000e+00
      702000000   -1,485135872e-02   -3,454014286e-02    6,192178726e-01   -4,068361968e-02    0,000000000e+00    0,000000000e+00    0,000000000e+00    0,000000000e+00
      716000000   -1,026986446e-02   -4,758745432e-02    4,910076261e-01   -3,683761954e-01    0,000000000e+00    0,000000000e+00    0,000000000e+00    0,000000000e+00
      730000000   -7,040791214e-03   -7,469205558e-02    2,111628205e-01   -5,677360296e-01    0,000000000e+00    0,000000000e+00    0,000000000e+00    0,000000000e+00
      744000000   -2,646743506e-02   -1,108124331e-01   -1,236063987e-01   -5,873392820e-01    0,000000000e+00    0,000000000e+00    0,000000000e+00    0,000000000e+00
      758000000   -7,470086962e-02   -1,334573328e-01   -4,187438488e-01   -4,321179986e-01    0,000000000e+00    0,000000000e+00    0,000000000e+00    0,000000000e+00
      772000000   -1,355295181e-01   -1,155664101e-01   -5,940319896e-01   -1,398391128e-01    0,000000000e+00    0,000000000e+00    0,000000000e+00    0,000000000e+00
      786000000   -1,706849486e-01   -5,889099091e-02   -5,813786387e-01    2,096678168e-01    0,000000000e+00    0,000000000e+00    0,000000000e+00    0,000000000e+00
      800000000   -1,593179107e-01    6,838674657e-03   -3,718474805e-01    4,958152473e-01    0,000000000e+00    0,000000000e+00    0,000000000e+00    0,000000000e+00
      814000000   -1,146899536e-01    4,180780426e-02   -4,636335000e-02    6,147700548e-01    0,000000000e+00    0,000000000e+00    0,000000000e+00    0,000000000e+00
      828000000   -6,851409376e-02    4,347771779e-02    2,854154110e-01    5,404133797e-01    0,000000000e+00    0,000000000e+00    0,000000000e+00    0,000000000e+00
      842000000   -3,948497400e-02    2,946257032e-02    5,212057829e-01    3,047601581e-01    0,000000000e+00    0,000000000e+00    0,000000000e+00    0,000000000e+00
      856000000   -1,759357192e-02    1,281708665e-02    5,939978361e-01   -1,409022138e-02    0,000000000e+00    0,000000000e+00    0,000000000e+00    0,000000000e+00
      870000000    1,840163837e-03   -1,079125982e-02    4,857988358e-01   -3,166823685e-01    0,000000000e+00    0,000000000e+00    0,000000000e+00    0,000000000e+00
      884000000    1,346065104e-02   -5,143510178e-02    2,409668714e-01   -5,120642185e-01    0,000000000e+00    0,000000000e+00    0,000000000e+00    0,000000000e+00
      898000000   -3,685747506e-03   -1,021195799e-01   -5,704886839e-02   -5,531683564e-01    0,000000000e+00    0,000000000e+00    0,000000000e+00    0,000000000e+00
      912000000   -6,263197213e-02   -1,316888183e-01   -3,912797272e-01   -4,239626527e-01    0,000000000e+00    0,000000000e+00    0,000000000e+00    0,000000000e+00
      926000000   -1,271472871e-01   -1,178567037e-01   -5,668958426e-01   -1,461627036e-01    0,000000000e+00    0,000000000e+00    0,000000000e+00    0,000000000e+00
      940000000   -1,645461619e-01   -6,204888597e-02   -5,698151588e-01    1,920416802e-01    0,000000000e+00    0,000000000e+00    0,000000000e+00    0,000000000e+00
      954000000   -1,465881020e-01    1,454419107e-03   -3,731987774e-01    4,828640223e-01    0,000000000e+00    0,000000000e+00    0,000000000e+00    0,000000000e+00
      968000000   -9,881933779e-02    2,565382794e-02   -5,206228048e-02    6,162418723e-01    0,000000000e+00    0,000000000e+00    0,000000000e+00    0,000000000e+00
      982000000   -5,246176198e-02    6,014733110e-03    2,804224193e-01    5,511493683e-01    0,000000000e+00    0,000000000e+00    0,000000000e+00    0,000000000e+00
      996000000   -4,562395811e-02   -3,544822335e-02    5,240322351e-01    3,283104300e-01    0,000000000e+00    0,000000000e+00    0,000000000e+00    0,000000000e+00
     1010000000   -6,036715582e-02   -6,918323785e-02    6,081333160e-01    1,676824130e-02    0,000000000e+00    0,000000000e+00    0,000000000e+00    0,000000000e+00
     1024000000   -1,038209498e-01   -7,532902062e-02    5,158925056e-01   -2,811783552e-01    0,000000000e+00    0,000000000e+00    0,000000000e+00    0,000000000e+00
     1038000000   -1,392513365e-01   -5,569612980e-02    2,971809804e-01   -4,717381001e-01    0,000000000e+00    0,000000000e+00    0,000000000e+00    0,000000000e+00
     1052000000   -1,491783410e-01    1,274580834e-03    3,577390686e-02   -5,237455368e-01    0,000000000e+00    0,000000000e+00    0,000000000e+00    0,000000000e+00
     1066000000   -1,048355103e-01    4,105119035e-02   -2,028438747e-01   -4,644780159e-01    0,000000000e+00    0,000000000e+00    0,000000000e+00    0,000000000e+00
     1080000000   -5,542416871e-02    3,179950267e-02   -4,173944890e-01   -2,973001301e-01    0,000000000e+00    0,000000000e+00    0,000000000e+00    0,000000000e+00
     1094000000   -3,670320660e-02   -5,882008001e-03   -5,200805068e-01   -2,422076836e-02    0,000000000e+00    0,000000000e+00    0,000000000e+00    0,000000000e+00
     1108000000   -3,074834123e-02   -2,740393206e-02   -4,431586564e-01    2,827255726e-01    0,000000000e+00    0,000000000e+00    0,000000000e+00    0,000000000e+00
     1122000000   -2,870426141e-02   -6,085717306e-02   -1,881341785e-01    4,985655248e-01    0,000000000e+00    0,000000000e+00    0,000000000e+00    0,000000000e+00
     1136000000   -3,906444088e-02   -9,408042580e-02    1,503385603e-01    5,201560855e-01    0,000000000e+00    0,000000000e+00    0,000000000e+00    0,000000000e+00
     1150000000   -8,407050371e-02   -1,292506754e-01    4,519559145e-01    3,442478478e-01    0,000000000e+00    0,000000000e+00    0,000000000e+00    0,000000000e+00
     1164000000   -1,394268274e-01   -1,284099668e-01    6,114588976e-01    1,175776310e-02    0,000000000e+00    0,000000000e+00    0,000000000e+00    0,000000000e+00
     1178000000   -1,733241677e-01   -8,956558257e-02    5,395144224e-01   -3,725657463e-01    0,000000000e+00    0,000000000e+00    0,000000000e+00    0,000000000e+00
     1192000000   -1,832859218e-01   -5,676730722e-02    2,386801392e-01   -6,364487410e-01    0,000000000e+00    0,000000000e+00    0,000000000e+00    0,000000000e+00
     1206000000   -1,922217011e-01   -5,435633659e-02   -1,377600431e-01   -6,610579491e-01    0,000000000e+00    0,000000000e+00    0,000000000e+00    0,000000000e+00
     1220000000   -2,483835518e-01   -1,487265900e-02   -4,205651879e-01   -4,837945700e-01    0,000000000e+00    0,000000000e+00    0,000000000e+00    0,000000000e+00
     1234000000   -2,412571162e-01    1,161642000e-01   -5,575331450e-01   -2,516855896e-01    0,000000000e+00    0,000000000e+00    0,000000000e+00    0,000000000e+00
     1248000000   -1,156281605e-01    1,729298085e-01   -6,075510383e-01    2,105778456e-02    0,000000000e+00    0,000000000e+00    0,000000000e+00    0,000000000e+00
     1262000000   -4,869668745e-03    1,337092966e-01   -5,061462522e-01    3,023729622e-01    0,000000000e+00    0,000000000e+00    0,000000000e+00    0,000000000e+00
     1276000000    5,611491576e-02    4,396193847e-02   -2,812142968e-01    4,903698862e-01    0,000000000e+00    0,000000000e+00    0,000000000e+00    0,000000000e+00
     1290000000    7,265289873e-02   -7,070488483e-02    1,358042099e-02    5,477439165e-01    0,000000000e+00    0,000000000e+00    0,000000000e+00    0,000000000e+00
     1304000000    2,043519169e-02   -1,785091609e-01    2,985790670e-01    4,806721210e-01    0,000000000e+00    0,000000000e+00    0,000000000e+00    0,000000000e+00
     1318000000   -9,452924132e-02   -2,559103668e-01    5,313610435e-01    2,710435688e-01    0,000000000e+00    0,000000000e+00    0,000000000e+00    0,000000000e+00
     1332000000   -2,445395291e-01   -2,437518537e-01    6,493148208e-01   -4,904750735e-02    0,000000000e+00    0,000000000e+00    0,000000000e+00    0,000000000e+00
     1346000000   -3,591347337e-01   -1,403508037e-01    5,459773540e-01   -4,143640995e-01    0,000000000e+00    0,000000000e+00    0,000000000e+00    0,000000000e+00
     1360000000   -3,850791752e-01   -5,845241831e-04    2,512464523e-01   -6,405235529e-01    0,000000000e+00    0,000000000e+00    0,000000000e+00    0,000000000e+00
     1374000000   -3,247904778e-01    1,173465550e-01   -1,077123061e-01   -6,279922724e-01    0,000000000e+00    0,000000000e+00    0,000000000e+00    0,000000000e+00
     1388000000   -2,378613949e-01    1,663553417e-01   -3,813708723e-01   -4,223403037e-01    0,000000000e+00    0,000000000e+00    0,000000000e+00    0,000000000e+00
     1402000000   -1,565324813e-01    1,717088670e-01   -4,765880406e-01   -1,030987129e-01    0,000000000e+00    0,000000000e+00    0,000000000e+00    0,000000000e+00
     1416000000   -8,192835003e-02    1,381358504e-01   -3,830261827e-01    1,926100254e-01    0,000000000e+00    0,000000000e+00    0,000000000e+00    0,000000000e+00
     1430000000   -3,411363438e-02    8,656559885e-02   -1,499798596e-01    4,294990897e-01    0,000000000e+00    0,000000000e+00    0,000000000e+00    0,000000000e+00
     1444000000   -1,065035257e-02    1,109053660e-02    1,292511523e-01    5,294107199e-01    0,000000000e+00    0,000000000e+00    0,000000000e+00    0,000000000e+00
     1458000000   -3,815525770e-02   -8,243381232e-02    4,508897066e-01    4,959890544e-01    0,000000000e+00    0,000000000e+00    0,000000000e+00    0,000000000e+00
     1472000000   -1,183317527e-01   -1,436132640e-01    7,555118799e-01    3,112212718e-01    0,000000000e+00    0,000000000e+00    0,000000000e+00    0,000000000e+00
     1486000000   -2,327967584e-01   -1,475042999e-01    8,782330751e-01   -5,297460407e-02    0,000000000e+00    0,000000000e+00    0,000000000e+00    0,000000000e+00
     1500000000   -3,134596348e-01   -6,332881004e-02    8,444877267e-01   -4,223363101e-01    0,000000000e+00    0,000000000e+00    0,000000000e+00    0,000000000e+00
