! NanoVNA-App
! Date: 2025-09-25 14:55:18
! Start: 100MHz Stop: 1,5GHz Points: 101
! S-Parameter data: F S11 S21 S12 S22
# Hz S RI R 50
!     Frequency           S11_Real           S11_Imag           S21_Real           S21_Imag           S12_Real           S12_Imag           S22_Real           S22_Imag
      100000000    3,559336811e-02    2,690149471e-02    4,406632483e-01   -6,696856022e-01    0,000000000e+00    0,000000000e+00    0,000000000e+00    0,000000000e+00
      114000000    6,045127660e-02    1,666175085e-03    1,262473222e-02   -7,955108881e-01    0,000000000e+00    0,000000000e+00    0,000000000e+00    0,000000000e+00
      128000000    6,783702970e-02   -4,265176505e-02   -4,084298611e-01   -6,780388951e-01    0,000000000e+00    0,000000000e+00    0,000000000e+00    0,000000000e+00
      142000000    4,271347821e-02   -8,885626495e-02   -7,053575516e-01   -3,606767058e-01    0,000000000e+00    0,000000000e+00    0,000000000e+00    0,000000000e+00
      156000000   -9,702689014e-03   -1,098989844e-01   -7,944598794e-01    6,831810623e-02    0,000000000e+00    0,000000000e+00    0,000000000e+00    0,000000000e+00
      170000000   -6,322508305e-02   -9,083469957e-02   -6,368551850e-01    4,868199229e-01    0,000000000e+00    0,000000000e+00    0,000000000e+00    0,000000000e+00
      184000000   -8,859182894e-02   -4,641041905e-02   -2,727135122e-01    7,564581037e-01    0,000000000e+00    0,000000000e+00    0,000000000e+00    0,000000000e+00
      198000000   -8,201077580e-02   -5,250991322e-03    1,802680641e-01    7,819846869e-01    0,000000000e+00    0,000000000e+00    0,000000000e+00    0,000000000e+00
      212000000   -6,135826185e-02    1,863234490e-02    5,707324147e-01    5,578845143e-01    0,000000000e+00    0,000000000e+00    0,000000000e+00    0,000000000e+00
      226000000   -3,985769674e-02    3,159613162e-02    7,767232060e-01    1,614340395e-01    0,000000000e+00    0,000000000e+00    0,000000000e+00    0,000000000e+00
      240000000   -1,357844565e-02    4,025018960e-02    7,358555198e-01   -2,789697349e-01    0,000000000e+00    0,000000000e+00    0,000000000e+00    0,000000000e+00
      254000000    2,194358781e-02    3,461351246e-02    4,680200815e-01   -6,227072477e-01    0,000000000e+00    0,000000000e+00    0,000000000e+00    0,000000000e+00
      268000000    5,288729444e-02    2,866369206e-03    6,650412828e-02   -7,677106857e-01    0,000000000e+00    0,000000000e+00    0,000000000e+00    0,000000000e+00
      282000000    5,604262277e-02   -4,638441652e-02   -3,463972807e-01   -6,828995347e-01    0,000000000e+00    0,000000000e+00    0,000000000e+00    0,000000000e+00
      296000000    2,404157631e-02   -8,512288332e-02   -6,557815075e-01   -3,974699378e-01    0,000000000e+00    0,000000000e+00    0,000000000e+00    0,000000000e+00
      310000000   -2,102622017e-02   -8,873801678e-02   -7,745700479e-01    1,198439114e-02    0,000000000e+00    0,000000000e+00    0,000000000e+00    0,000000000e+00
      324000000   -4,799420759e-02   -6,186620146e-02   -6,477326751e-01    4,307484925e-01    0,000000000e+00    0,000000000e+00    0,000000000e+00    0,000000000e+00
      338000000   -4,144552723e-02   -3,569408879e-02   -3,096794486e-01    7,110338807e-01    0,000000000e+00    0,000000000e+00    0,000000000e+00    0,000000000e+00
      352000000   -2,262139134e-02   -3,569741920e-02    1,207323372e-01    7,587194443e-01    0,000000000e+00    0,000000000e+00    0,000000000e+00    0,000000000e+00
      366000000   -2,112862654e-02   -5,454064906e-02    5,030823946e-01    5,719127059e-01    0,000000000e+00    0,000000000e+00    0,000000000e+00    0,000000000e+00
      380000000   -4,246263951e-02   -6,485101581e-02    7,257374525e-01    2,112846673e-01    0,000000000e+00    0,000000000e+00    0,000000000e+00    0,000000000e+00
      394000000   -6,399338692e-02   -5,160201713e-02    7,232698798e-01   -2,137078792e-01    0,000000000e+00    0,000000000e+00    0,000000000e+00    0,000000000e+00
      408000000   -6,608869880e-02   -2,809027024e-02    4,896488786e-01   -5,686225295e-01    0,000000000e+00    0,000000000e+00    0,000000000e+00    0,000000000e+00
      422000000   -5,314402655e-02   -1,740985923e-02    1,050696373e-01   -7,391074300e-01    0,000000000e+00    0,000000000e+00    0,000000000e+00    0,000000000e+00
      436000000   -4,735521972e-02   -2,084939368e-02   -3,062326014e-01   -6,764053106e-01    0,000000000e+00    0,000000000e+00    0,000000000e+00    0,000000000e+00
      450000000   -5,390141532e-02   -1,597228274e-02   -6,197369099e-01   -3,997189403e-01    0,000000000e+00    0,000000000e+00    0,000000000e+00    0,000000000e+00
      464000000   -5,267585069e-02    5,327701569e-03   -7,304678559e-01    3,563836683e-03    0,000000000e+00    0,000000000e+00    0,000000000e+00    0,000000000e+00
      478000000   -2,276166715e-02    2,746842243e-02   -5,994847417e-01    3,981091380e-01    0,000000000e+00    0,000000000e+00    0,000000000e+00    0,000000000e+00
      492000000    2,688485384e-02    1,686547883e-02   -2,801835239e-01    6,447272301e-01    0,000000000e+00    0,000000000e+00    0,000000000e+00    0,000000000e+00
      506000000    5,837818608e-02   -3,508150205e-02    1,055956632e-01    6,811974049e-01    0,000000000e+00    0,000000000e+00    0,000000000e+00    0,000000000e+00
      520000000    4,533709586e-02   -9,959652275e-02    4,409074783e-01    5,196938515e-01    0,000000000e+00    0,000000000e+00    0,000000000e+00    0,000000000e+00
      534000000   -9,045741521e-03   -1,416115761e-01    6,511113048e-01    2,064418495e-01    0,000000000e+00    0,000000000e+00    0,000000000e+00    0,000000000e+00
      548000000   -7,711476088e-02   -1,395213008e-01    6,628678441e-01   -1,758171618e-01    0,000000000e+00    0,000000000e+00    0,000000000e+00    0,000000000e+00
      562000000   -1,253221482e-01   -1,022295952e-01    4,561453164e-01   -5,108900070e-01    0,000000000e+00    0,000000000e+00    0,000000000e+00    0,000000000e+00
      576000000   -1,484414339e-01   -4,993239790e-02    8,528939635e-02   -6,712452173e-01    0,000000000e+00    0,000000000e+00    0,000000000e+00    0,000000000e+00
      590000000   -1,466519237e-01    1,580991969e-02   -3,093995452e-01   -5,810084343e-01    0,000000000e+00    0,000000000e+00    0,000000000e+00    0,000000000e+00
      604000000   -7,236033678e-02    9,756115079e-02   -5,337606668e-01   -2,446410656e-01    0,000000000e+00    0,000000000e+00    0,000000000e+00    0,000000000e+00
      618000000    1,004696563e-01    6,346553098e-03   -4,242789745e-01    3,629893530e-03    0,000000000e+00    0,000000000e+00    0,000000000e+00    0,000000000e+00
      632000000   -5,044332147e-02   -1,496708244e-01   -5,179708004e-01    1,119431034e-01    0,000000000e+00    0,000000000e+00    0,000000000e+00    0,000000000e+00
      646000000   -1,299602836e-01   -3,757467493e-02   -4,135590494e-01    4,718522727e-01    0,000000000e+00    0,000000000e+00    0,000000000e+00    0,000000000e+00
      660000000   -7,871896774e-02    2,357118577e-02   -6,035917625e-02    6,430867910e-01    0,000000000e+00    0,000000000e+00    0,000000000e+00    0,000000000e+00
      674000000   -2,657112479e-02    1,508394070e-02    3,045089543e-01    5,650752187e-01    0,000000000e+00    0,000000000e+00    0,000000000e+00    0,000000000e+00
      688000000   -7,775517646e-03   -1,434693858e-02    5,570693016e-01    3,072289824e-01    0,000000000e+00    0,000000000e+00    0,000000000e+00    0,000000000e+00
      702000000   -8,829778992e-03   -3,681373224e-02    6,278785467e-01   -4,500493407e-02    0,000000000e+00    0,000000000e+00    0,000000000e+00    0,000000000e+00
      716000000   -7,195834536e-03   -5,337295681e-02    4,969898760e-01   -3,756058514e-01    0,000000000e+00    0,000000000e+00    0,000000000e+00    0,000000000e+00
      730000000   -7,375224493e-03   -7,972212136e-02    2,119866312e-01   -5,762106776e-01    0,000000000e+00    0,000000000e+00    0,000000000e+00    0,000000000e+00
      744000000   -2,883689478e-02   -1,137992293e-01   -1,291151792e-01   -5,951564312e-01    0,000000000e+00    0,000000000e+00    0,000000000e+00    0,000000000e+00
      758000000   -7,970271260e-02   -1,335444450e-01   -4,295128286e-01   -4,357532263e-01    0,000000000e+00    0,000000000e+00    0,000000000e+00    0,000000000e+00
      772000000   -1,398723722e-01   -1,116735861e-01   -6,037714481e-01   -1,356492043e-01    0,000000000e+00    0,000000000e+00    0,000000000e+00    0,000000000e+00
      786000000   -1,731452048e-01   -5,190047249e-02   -5,864449143e-01    2,201889902e-01    0,000000000e+00    0,000000000e+00    0,000000000e+00    0,000000000e+00
      800000000   -1,554684043e-01    1,177696139e-02   -3,697391450e-01    5,081733465e-01    0,000000000e+00    0,000000000e+00    0,000000000e+00    0,000000000e+00
      814000000   -1,061642990e-01    4,358876869e-02   -3,591258451e-02    6,215227246e-01    0,000000000e+00    0,000000000e+00    0,000000000e+00    0,000000000e+00
      828000000   -6,227144971e-02    3,894754872e-02    2,984271049e-01    5,411774516e-01    0,000000000e+00    0,000000000e+00    0,000000000e+00    0,000000000e+00
      842000000   -3,630892560e-02    2,056717686e-02    5,315593481e-01    2,985242903e-01    0,000000000e+00    0,000000000e+00    0,000000000e+00    0,000000000e+00
      856000000   -2,171411179e-02    4,187946673e-03    6,001330614e-01   -2,610313892e-02    0,000000000e+00    0,000000000e+00    0,000000000e+00    0,000000000e+00
      870000000   -5,756364204e-03   -1,480887551e-02    4,840096831e-01   -3,312436044e-01    0,000000000e+00    0,000000000e+00    0,000000000e+00    0,000000000e+00
      884000000    5,582314916e-03   -4,986710474e-02    2,306632102e-01   -5,225839019e-01    0,000000000e+00    0,000000000e+00    0,000000000e+00    0,000000000e+00
      898000000   -9,952932596e-03   -9,618010372e-02   -7,682792842e-02   -5,560212731e-01    0,000000000e+00    0,000000000e+00    0,000000000e+00    0,000000000e+00
      912000000   -6,411711872e-02   -1,245462298e-01   -4,080219269e-01   -3,987500370e-01    0,000000000e+00    0,000000000e+00    0,000000000e+00    0,000000000e+00
      926000000   -1,236337200e-01   -1,097638905e-01   -5,741071105e-01   -1,264992058e-01    0,000000000e+00    0,000000000e+00    0,000000000e+00    0,000000000e+00
      940000000   -1,567148566e-01   -6,092103571e-02   -5,626442432e-01    2,121931911e-01    0,000000000e+00    0,000000000e+00    0,000000000e+00    0,000000000e+00
      954000000   -1,401359588e-01   -6,954566576e-03   -3,570812941e-01    4,927738011e-01    0,000000000e+00    0,000000000e+00    0,000000000e+00    0,000000000e+00
      968000000   -9,906218201e-02    1,731073298e-02   -3,141154721e-02    6,158779263e-01    0,000000000e+00    0,000000000e+00    0,000000000e+00    0,000000000e+00
      982000000   -5,686854571e-02    3,877263749e-03    3,008876741e-01    5,370202661e-01    0,000000000e+00    0,000000000e+00    0,000000000e+00    0,000000000e+00
      996000000   -4,617517069e-02   -3,308226168e-02    5,330388546e-01    3,021025360e-01    0,000000000e+00    0,000000000e+00    0,000000000e+00    0,000000000e+00
     1010000000   -5,865952000e-02   -5,761420727e-02    5,927438140e-01   -1,302352548e-02    0,000000000e+00    0,000000000e+00    0,000000000e+00    0,000000000e+00
     1024000000   -8,652789146e-02   -8,005035669e-02    4,849769771e-01   -2,904981673e-01    0,000000000e+00    0,000000000e+00    0,000000000e+00    0,000000000e+00
     1038000000   -1,340645254e-01   -7,011620700e-02    2,757340968e-01   -4,550764263e-01    0,000000000e+00    0,000000000e+00    0,000000000e+00    0,000000000e+00
     1052000000   -1,628397405e-01   -2,290685847e-02    3,166278452e-02   -5,182930827e-01    0,000000000e+00    0,000000000e+00    0,000000000e+00    0,000000000e+00
     1066000000   -1,359208822e-01    2,847805806e-02   -2,262847275e-01   -4,596777856e-01    0,000000000e+00    0,000000000e+00    0,000000000e+00    0,000000000e+00
     1080000000   -8,835315704e-02    4,885613546e-02   -4,241642952e-01   -2,602277696e-01    0,000000000e+00    0,000000000e+00    0,000000000e+00    0,000000000e+00
     1094000000   -3,454815224e-02    3,600475192e-02   -4,850108325e-01    1,733599044e-02    0,000000000e+00    0,000000000e+00    0,000000000e+00    0,000000000e+00
     1108000000    5,321010482e-03   -1,532630413e-03   -3,806981444e-01    2,751611471e-01    0,000000000e+00    0,000000000e+00    0,000000000e+00    0,000000000e+00
     1122000000    8,605981246e-03   -6,399905682e-02   -1,590551287e-01    4,373313785e-01    0,000000000e+00    0,000000000e+00    0,000000000e+00    0,000000000e+00
     1136000000   -2,146489546e-02   -1,188129410e-01    1,241369694e-01    4,691753387e-01    0,000000000e+00    0,000000000e+00    0,000000000e+00    0,000000000e+00
     1150000000   -7,994519919e-02   -1,557961851e-01    4,004836082e-01    3,368234038e-01    0,000000000e+00    0,000000000e+00    0,000000000e+00    0,000000000e+00
     1164000000   -1,521016061e-01   -1,514224410e-01    5,753492713e-01    4,058577865e-02    0,000000000e+00    0,000000000e+00    0,000000000e+00    0,000000000e+00
     1178000000   -2,066982538e-01   -9,848906845e-02    5,390326381e-01   -3,324446082e-01    0,000000000e+00    0,000000000e+00    0,000000000e+00    0,000000000e+00
     1192000000   -2,106892020e-01   -4,490301013e-02    2,686972916e-01   -6,201589108e-01    0,000000000e+00    0,000000000e+00    0,000000000e+00    0,000000000e+00
     1206000000   -2,029231936e-01   -1,304307673e-02   -1,114725247e-01   -6,793565750e-01    0,000000000e+00    0,000000000e+00    0,000000000e+00    0,000000000e+00
     1220000000   -2,202249467e-01    5,515119061e-03   -4,345187247e-01   -5,050351024e-01    0,000000000e+00    0,000000000e+00    0,000000000e+00    0,000000000e+00
     1234000000   -2,348703146e-01    9,836976975e-02   -5,741673112e-01   -2,277703434e-01    0,000000000e+00    0,000000000e+00    0,000000000e+00    0,000000000e+00
     1248000000   -1,243910268e-01    1,699588746e-01   -5,822011232e-01    3,001636080e-02    0,000000000e+00    0,000000000e+00    0,000000000e+00    0,000000000e+00
     1262000000    9,864276508e-04    1,382238269e-01   -4,854460955e-01    2,860027254e-01    0,000000000e+00    0,000000000e+00    0,000000000e+00    0,000000000e+00
     1276000000    6,923379749e-02    4,667389393e-02   -2,729886174e-01    4,721551538e-01    0,000000000e+00    0,000000000e+00    0,000000000e+00    0,000000000e+00
     1290000000    8,051721752e-02   -7,174654305e-02    9,369037580e-04    5,319457054e-01    0,000000000e+00    0,000000000e+00    0,000000000e+00    0,000000000e+00
     1304000000    2,568618581e-02   -1,851952374e-01    2,844668925e-01    4,708374441e-01    0,000000000e+00    0,000000000e+00    0,000000000e+00    0,000000000e+00
     1318000000   -8,811459690e-02   -2,589132488e-01    5,227839351e-01    2,761856318e-01    0,000000000e+00    0,000000000e+00    0,000000000e+00    0,000000000e+00
     1332000000   -2,382077277e-01   -2,544861138e-01    6,384316683e-01   -4,759337008e-02    0,000000000e+00    0,000000000e+00    0,000000000e+00    0,000000000e+00
     1346000000   -3,647032082e-01   -1,549042314e-01    5,478598475e-01   -3,903045654e-01    0,000000000e+00    0,000000000e+00    0,000000000e+00    0,000000000e+00
     1360000000   -3,970978260e-01    3,632999957e-03    2,574317455e-01   -6,194162369e-01    0,000000000e+00    0,000000000e+00    0,000000000e+00    0,000000000e+00
     1374000000   -3,375342786e-01    1,197918802e-01   -9,140827507e-02   -6,123695374e-01    0,000000000e+00    0,000000000e+00    0,000000000e+00    0,000000000e+00
     1388000000   -2,428125143e-01    1,739503145e-01   -3,656980097e-01   -4,198082089e-01    0,000000000e+00    0,000000000e+00    0,000000000e+00    0,000000000e+00
     1402000000   -1,626409441e-01    1,788920164e-01   -4,692008197e-01   -1,137135997e-01    0,000000000e+00    0,000000000e+00    0,000000000e+00    0,000000000e+00
     1416000000   -8,357136697e-02    1,495238692e-01   -3,889639378e-01    1,838183403e-01    0,000000000e+00    0,000000000e+00    0,000000000e+00    0,000000000e+00
     1430000000   -2,431266382e-02    9,584036469e-02   -1,907119304e-01    4,258722961e-01    0,000000000e+00    0,000000000e+00    0,000000000e+00    0,000000000e+00
     1444000000   -4,589410964e-03    1,131897792e-02    1,167800203e-01    5,162662268e-01    0,000000000e+00    0,000000000e+00    0,000000000e+00    0,000000000e+00
     1458000000   -3,046229854e-02   -7,660939544e-02    4,337643683e-01    4,885673225e-01    0,000000000e+00    0,000000000e+00    0,000000000e+00    0,000000000e+00
     1472000000   -1,022170708e-01   -1,526435912e-01    7,109985352e-01    2,920183837e-01    0,000000000e+00    0,000000000e+00    0,000000000e+00    0,000000000e+00
     1486000000   -2,162022889e-01   -1,499060839e-01    8,906909227e-01   -6,823373958e-03    0,000000000e+00    0,000000000e+00    0,000000000e+00    0,000000000e+00
     1500000000   -3,008784056e-01   -7,066269219e-02    8,461019397e-01   -4,032477140e-01    0,000000000e+00    0,000000000e+00    0,000000000e+00    0,000000000e+00
