! NanoVNA-App
! Date: 2025-09-25 14:58:31
! Start: 100MHz Stop: 1,5GHz Points: 101
! S-Parameter data: F S11 S21 S12 S22
# Hz S RI R 50
!     Frequency           S11_Real           S11_Imag           S21_Real           S21_Imag           S12_Real           S12_Imag           S22_Real           S22_Imag
      100000000    3,558111191e-02    2,735604718e-02    4,407187998e-01   -6,695300341e-01    0,000000000e+00    0,000000000e+00    0,000000000e+00    0,000000000e+00
      114000000    6,070728227e-02    2,190693049e-03    1,279021427e-02   -7,953683138e-01    0,000000000e+00    0,000000000e+00    0,000000000e+00    0,000000000e+00
      128000000    6,837239861e-02   -4,222893342e-02   -4,082459211e-01   -6,779814363e-01    0,000000000e+00    0,000000000e+00    0,000000000e+00    0,000000000e+00
      142000000    4,347508028e-02   -8,878142387e-02   -7,052431703e-01   -3,609442115e-01    0,000000000e+00    0,000000000e+00    0,000000000e+00    0,000000000e+00
      156000000   -9,769319557e-03   -1,093018726e-01   -7,926141620e-01    6,697392464e-02    0,000000000e+00    0,000000000e+00    0,000000000e+00    0,000000000e+00
      170000000   -6,267247349e-02   -9,178221226e-02   -6,369494796e-01    4,862829447e-01    0,000000000e+00    0,000000000e+00    0,000000000e+00    0,000000000e+00
      184000000   -8,855335414e-02   -4,766046628e-02   -2,731811404e-01    7,560374141e-01    0,000000000e+00    0,000000000e+00    0,000000000e+00    0,000000000e+00
      198000000   -8,275157958e-02   -6,443566643e-03    1,799084544e-01    7,825095057e-01    0,000000000e+00    0,000000000e+00    0,000000000e+00    0,000000000e+00
      212000000   -6,270224601e-02    1,798968390e-02    5,706182122e-01    5,585073233e-01    0,000000000e+00    0,000000000e+00    0,000000000e+00    0,000000000e+00
      226000000   -4,150071740e-02    3,180425242e-02    7,767741084e-01    1,618659794e-01    0,000000000e+00    0,000000000e+00    0,000000000e+00    0,000000000e+00
      240000000   -1,485044602e-02    4,131280258e-02    7,360164523e-01   -2,787651122e-01    0,000000000e+00    0,000000000e+00    0,000000000e+00    0,000000000e+00
      254000000    2,139823698e-02    3,629355133e-02    4,676237106e-01   -6,219492555e-01    0,000000000e+00    0,000000000e+00    0,000000000e+00    0,000000000e+00
      268000000    5,331907421e-02    4,695168231e-03    6,640705466e-02   -7,672625184e-01    0,000000000e+00    0,000000000e+00    0,000000000e+00    0,000000000e+00
      282000000    5,746020377e-02   -4,503600672e-02   -3,458656371e-01   -6,821113229e-01    0,000000000e+00    0,000000000e+00    0,000000000e+00    0,000000000e+00
      296000000    2,617288381e-02   -8,477039635e-02   -6,550236940e-01   -3,975841403e-01    0,000000000e+00    0,000000000e+00    0,000000000e+00    0,000000000e+00
      310000000   -1,918603666e-02   -8,932194859e-02   -7,731145620e-01    1,121720485e-02    0,000000000e+00    0,000000000e+00    0,000000000e+00    0,000000000e+00
      324000000   -4,679612443e-02   -6,345909089e-02   -6,481591463e-01    4,294623435e-01    0,000000000e+00    0,000000000e+00    0,000000000e+00    0,000000000e+00
      338000000   -4,109250754e-02   -3,777569160e-02   -3,115025461e-01    7,107994556e-01    0,000000000e+00    0,000000000e+00    0,000000000e+00    0,000000000e+00
      352000000   -2,342029847e-02   -3,771557286e-02    1,199419349e-01    7,592800856e-01    0,000000000e+00    0,000000000e+00    0,000000000e+00    0,000000000e+00
      366000000   -2,303449996e-02   -5,625888705e-02    5,025537014e-01    5,714635253e-01    0,000000000e+00    0,000000000e+00    0,000000000e+00    0,000000000e+00
      380000000   -4,476801679e-02   -6,524693221e-02    7,269018292e-01    2,116916925e-01    0,000000000e+00    0,000000000e+00    0,000000000e+00    0,000000000e+00
      394000000   -6,651741266e-02   -5,055738613e-02    7,230007648e-01   -2,137704343e-01    0,000000000e+00    0,000000000e+00    0,000000000e+00    0,000000000e+00
      408000000   -6,749770790e-02   -2,607038990e-02    4,893776476e-01   -5,678265691e-01    0,000000000e+00    0,000000000e+00    0,000000000e+00    0,000000000e+00
      422000000   -5,315844342e-02   -1,542651467e-02    1,055988297e-01   -7,390933037e-01    0,000000000e+00    0,000000000e+00    0,000000000e+00    0,000000000e+00
      436000000   -4,624265432e-02   -1,863502525e-02   -3,058312237e-01   -6,760459542e-01    0,000000000e+00    0,000000000e+00    0,000000000e+00    0,000000000e+00
      450000000   -5,193176121e-02   -1,500741858e-02   -6,194002032e-01   -3,992743194e-01    0,000000000e+00    0,000000000e+00    0,000000000e+00    0,000000000e+00
      464000000   -5,053661764e-02    5,799639504e-03   -7,301085591e-01    3,188746981e-03    0,000000000e+00    0,000000000e+00    0,000000000e+00    0,000000000e+00
      478000000   -2,020909078e-02    2,633447759e-02   -5,985502005e-01    3,972073197e-01    0,000000000e+00    0,000000000e+00    0,000000000e+00    0,000000000e+00
      492000000    2,839608677e-02    1,445484348e-02   -2,803724110e-01    6,446362734e-01    0,000000000e+00    0,000000000e+00    0,000000000e+00    0,000000000e+00
      506000000    5,945806950e-02   -3,738511726e-02    1,056919321e-01    6,804653406e-01    0,000000000e+00    0,000000000e+00    0,000000000e+00    0,000000000e+00
      520000000    4,449405521e-02   -1,029375643e-01    4,434447885e-01    5,187149048e-01    0,000000000e+00    0,000000000e+00    0,000000000e+00    0,000000000e+00
      534000000   -1,247217786e-02   -1,437577605e-01    6,490185857e-01    2,055768222e-01    0,000000000e+00    0,000000000e+00    0,000000000e+00    0,000000000e+00
      548000000   -8,192132413e-02   -1,402509809e-01    6,600311995e-01   -1,764408201e-01    0,000000000e+00    0,000000000e+00    0,000000000e+00    0,000000000e+00
      562000000   -1,311991066e-01   -9,838266671e-02    4,508573413e-01   -5,092143416e-01    0,000000000e+00    0,000000000e+00    0,000000000e+00    0,000000000e+00
      576000000   -1,499238759e-01   -3,806943446e-02    8,160442114e-02   -6,602773666e-01    0,000000000e+00    0,000000000e+00    0,000000000e+00    0,000000000e+00
      590000000   -1,294712573e-01    3,006006405e-02   -2,962347567e-01   -5,636856556e-01    0,000000000e+00    0,000000000e+00    0,000000000e+00    0,000000000e+00
      604000000   -3,692638874e-02    6,856109947e-02   -4,870501757e-01   -2,698946297e-01    0,000000000e+00    0,000000000e+00    0,000000000e+00    0,000000000e+00
      618000000    3,455479816e-02   -3,209749609e-02   -4,938341081e-01   -5,278149247e-02    0,000000000e+00    0,000000000e+00    0,000000000e+00    0,000000000e+00
      632000000   -5,333530530e-02   -9,201420099e-02   -5,269460082e-01    1,776495576e-01    0,000000000e+00    0,000000000e+00    0,000000000e+00    0,000000000e+00
      646000000   -9,987630695e-02   -3,358151764e-02   -3,791361749e-01    4,781107306e-01    0,000000000e+00    0,000000000e+00    0,000000000e+00    0,000000000e+00
      660000000   -6,848426163e-02    1,048492920e-02   -5,160026997e-02    6,243633032e-01    0,000000000e+00    0,000000000e+00    0,000000000e+00    0,000000000e+00
      674000000   -3,053306416e-02    4,736440256e-03    2,979594171e-01    5,527018905e-01    0,000000000e+00    0,000000000e+00    0,000000000e+00    0,000000000e+00
      688000000   -1,470189355e-02   -1,805653982e-02    5,470334888e-01    3,031119406e-01    0,000000000e+00    0,000000000e+00    0,000000000e+00    0,000000000e+00
      702000000   -1,503221504e-02   -3,480294719e-02    6,216672063e-01   -4,172959179e-02    0,000000000e+00    0,000000000e+00    0,000000000e+00    0,000000000e+00
      716000000   -9,819884785e-03   -4,790904745e-02    4,916445613e-01   -3,677841127e-01    0,000000000e+00    0,000000000e+00    0,000000000e+00    0,000000000e+00
      730000000   -7,414915599e-03   -7,519995421e-02    2,118302137e-01   -5,682013631e-01    0,000000000e+00    0,000000000e+00    0,000000000e+00    0,000000000e+00
      744000000   -2,541281655e-02   -1,109693274e-01   -1,235577539e-01   -5,884577632e-01    0,000000000e+00    0,000000000e+00    0,000000000e+00    0,000000000e+00
      758000000   -7,385286689e-02   -1,327074915e-01   -4,195402861e-01   -4,325149655e-01    0,000000000e+00    0,000000000e+00    0,000000000e+00    0,000000000e+00
      772000000   -1,356506646e-01   -1,158747599e-01   -5,934391022e-01   -1,394788921e-01    0,000000000e+00    0,000000000e+00    0,000000000e+00    0,000000000e+00
      786000000   -1,719648093e-01   -5,929312482e-02   -5,813733935e-01    2,097861022e-01    0,000000000e+00    0,000000000e+00    0,000000000e+00    0,000000000e+00
      800000000   -1,598977298e-01    6,842080969e-03   -3,727596402e-01    4,954865575e-01    0,000000000e+00    0,000000000e+00    0,000000000e+00    0,000000000e+00
      814000000   -1,149878427e-01    4,272777960e-02   -4,555194080e-02    6,140657067e-01    0,000000000e+00    0,000000000e+00    0,000000000e+00    0,000000000e+00
      828000000   -6,847990304e-02    4,374146461e-02    2,852468491e-01    5,402868986e-01    0,000000000e+00    0,000000000e+00    0,000000000e+00    0,000000000e+00
      842000000   -3,951781243e-02    2,939805761e-02    5,207430720e-01    3,061557710e-01    0,000000000e+00    0,000000000e+00    0,000000000e+00    0,000000000e+00
      856000000   -1,774830930e-02    1,255824789e-02    5,940689445e-01   -1,458546799e-02    0,000000000e+00    0,000000000e+00    0,000000000e+00    0,000000000e+00
      870000000    2,158842050e-03   -1,066758297e-02    4,858674705e-01   -3,161699772e-01    0,000000000e+00    0,000000000e+00    0,000000000e+00    0,000000000e+00
      884000000    1,326439437e-02   -5,135490745e-02    2,431441247e-01   -5,114847422e-01    0,000000000e+00    0,000000000e+00    0,000000000e+00    0,000000000e+00
      898000000   -3,451255383e-03   -1,018642113e-01   -5,843489617e-02   -5,530405641e-01    0,000000000e+00    0,000000000e+00    0,000000000e+00    0,000000000e+00
      912000000   -6,169199198e-02   -1,319698095e-01   -3,820743859e-01   -4,119434059e-01    0,000000000e+00    0,000000000e+00    0,000000000e+00    0,000000000e+00
      926000000   -1,273725629e-01   -1,205821037e-01   -5,669456720e-01   -1,510430723e-01    0,000000000e+00    0,000000000e+00    0,000000000e+00    0,000000000e+00
      940000000   -1,615580320e-01   -6,425114721e-02   -5,688429475e-01    1,914145350e-01    0,000000000e+00    0,000000000e+00    0,000000000e+00    0,000000000e+00
      954000000   -1,453000009e-01   -2,834007144e-03   -3,732996285e-01    4,848276377e-01    0,000000000e+00    0,000000000e+00    0,000000000e+00    0,000000000e+00
      968000000   -1,003055796e-01    2,426474169e-02   -5,388230830e-02    6,141954064e-01    0,000000000e+00    0,000000000e+00    0,000000000e+00    0,000000000e+00
      982000000   -5,199436098e-02    5,526207853e-03    2,822399735e-01    5,539631844e-01    0,000000000e+00    0,000000000e+00    0,000000000e+00    0,000000000e+00
      996000000   -4,576430842e-02   -3,389091790e-02    5,231636763e-01    3,255607188e-01    0,000000000e+00    0,000000000e+00    0,000000000e+00    0,000000000e+00
     1010000000   -6,087631360e-02   -6,431458145e-02    6,083564162e-01    1,433243975e-02    0,000000000e+00    0,000000000e+00    0,000000000e+00    0,000000000e+00
     1024000000   -1,005605832e-01   -8,022426814e-02    5,180362463e-01   -2,812351882e-01    0,000000000e+00    0,000000000e+00    0,000000000e+00    0,000000000e+00
     1038000000   -1,385279596e-01   -5,923418328e-02    2,929518819e-01   -4,713196158e-01    0,000000000e+00    0,000000000e+00    0,000000000e+00    0,000000000e+00
     1052000000   -1,531441808e-01   -2,443739446e-03    3,490226343e-02   -5,242031813e-01    0,000000000e+00    0,000000000e+00    0,000000000e+00    0,000000000e+00
     1066000000   -1,091902927e-01    4,040127993e-02   -2,132144719e-01   -4,679988921e-01    0,000000000e+00    0,000000000e+00    0,000000000e+00    0,000000000e+00
     1080000000   -5,613921955e-02    2,494943701e-02   -4,163516164e-01   -2,972664237e-01    0,000000000e+00    0,000000000e+00    0,000000000e+00    0,000000000e+00
     1094000000   -3,358402848e-02   -2,261733636e-03   -5,191662312e-01   -2,373450249e-02    0,000000000e+00    0,000000000e+00    0,000000000e+00    0,000000000e+00
     1108000000   -3,029501811e-02   -3,502292931e-02   -4,451301098e-01    2,848321199e-01    0,000000000e+00    0,000000000e+00    0,000000000e+00    0,000000000e+00
     1122000000   -3,369517624e-02   -5,834641680e-02   -1,872555763e-01    4,969027638e-01    0,000000000e+00    0,000000000e+00    0,000000000e+00    0,000000000e+00
     1136000000   -4,410627112e-02   -9,564992785e-02    1,499344110e-01    5,234007239e-01    0,000000000e+00    0,000000000e+00    0,000000000e+00    0,000000000e+00
     1150000000   -8,223282546e-02   -1,198761910e-01    4,539670646e-01    3,449360430e-01    0,000000000e+00    0,000000000e+00    0,000000000e+00    0,000000000e+00
     1164000000   -1,422002017e-01   -1,216505691e-01    6,085849404e-01    1,020273846e-02    0,000000000e+00    0,000000000e+00    0,000000000e+00    0,000000000e+00
     1178000000   -1,799142361e-01   -8,716645092e-02    5,378615260e-01   -3,759202361e-01    0,000000000e+00    0,000000000e+00    0,000000000e+00    0,000000000e+00
     1192000000   -1,781946719e-01   -5,167521164e-02    2,436088622e-01   -6,375607252e-01    0,000000000e+00    0,000000000e+00    0,000000000e+00    0,000000000e+00
     1206000000   -1,920479238e-01   -5,691731349e-02   -1,399483532e-01   -6,602643132e-01    0,000000000e+00    0,000000000e+00    0,000000000e+00    0,000000000e+00
     1220000000   -2,567789853e-01   -1,483522262e-02   -4,215927124e-01   -4,820222557e-01    0,000000000e+00    0,000000000e+00    0,000000000e+00    0,000000000e+00
     1234000000   -2,410220802e-01    1,094449908e-01   -5,536739826e-01   -2,534678876e-01    0,000000000e+00    0,000000000e+00    0,000000000e+00    0,000000000e+00
     1248000000   -1,115082502e-01    1,758517921e-01   -6,053962111e-01    1,746157929e-02    0,000000000e+00    0,000000000e+00    0,000000000e+00    0,000000000e+00
     1262000000   -3,079907503e-03    1,305858791e-01   -5,114510655e-01    2,929705977e-01    0,000000000e+00    0,000000000e+00    0,000000000e+00    0,000000000e+00
     1276000000    5,702354014e-02    4,051472619e-02   -2,797596455e-01    4,877461195e-01    0,000000000e+00    0,000000000e+00    0,000000000e+00    0,000000000e+00
     1290000000    7,374787331e-02   -6,780127436e-02    1,115956344e-02    5,531790853e-01    0,000000000e+00    0,000000000e+00    0,000000000e+00    0,000000000e+00
     1304000000    2,096259780e-02   -1,840791404e-01    3,022121489e-01    4,755115211e-01    0,000000000e+00    0,000000000e+00    0,000000000e+00    0,000000000e+00
     1318000000   -9,286635369e-02   -2,521983385e-01    5,416125655e-01    2,709748149e-01    0,000000000e+00    0,000000000e+00    0,000000000e+00    0,000000000e+00
     1332000000   -2,403526753e-01   -2,447211146e-01    6,556448340e-01   -5,047379434e-02    0,000000000e+00    0,000000000e+00    0,000000000e+00    0,000000000e+00
     1346000000   -3,595022261e-01   -1,399332732e-01    5,560172200e-01   -4,045635760e-01    0,000000000e+00    0,000000000e+00    0,000000000e+00    0,000000000e+00
     1360000000   -3,833202720e-01    8,173547685e-03    2,566682994e-01   -6,311583519e-01    0,000000000e+00    0,000000000e+00    0,000000000e+00    0,000000000e+00
     1374000000   -3,207277358e-01    1,190791875e-01   -1,052499041e-01   -6,387348175e-01    0,000000000e+00    0,000000000e+00    0,000000000e+00    0,000000000e+00
     1388000000   -2,373712510e-01    1,726973355e-01   -3,809240460e-01   -4,133539498e-01    0,000000000e+00    0,000000000e+00    0,000000000e+00    0,000000000e+00
     1402000000   -1,523684710e-01    1,748450994e-01   -4,769459963e-01   -1,111945063e-01    0,000000000e+00    0,000000000e+00    0,000000000e+00    0,000000000e+00
     1416000000   -8,325228840e-02    1,412026435e-01   -3,945440054e-01    1,982893944e-01    0,000000000e+00    0,000000000e+00    0,000000000e+00    0,000000000e+00
     1430000000   -3,173477948e-02    8,654014021e-02   -1,579601616e-01    4,159123600e-01    0,000000000e+00    0,000000000e+00    0,000000000e+00    0,000000000e+00
     1444000000   -1,840735786e-02    9,349890985e-03    1,112218574e-01    5,230921507e-01    0,000000000e+00    0,000000000e+00    0,000000000e+00    0,000000000e+00
     1458000000   -4,352596030e-02   -8,488358557e-02    4,212183952e-01    4,914876819e-01    0,000000000e+00    0,000000000e+00    0,000000000e+00    0,000000000e+00
     1472000000   -1,199041754e-01   -1,467553526e-01    7,427083254e-01    2,927412391e-01    0,000000000e+00    0,000000000e+00    0,000000000e+00    0,000000000e+00
     1486000000   -2,299850732e-01   -1,415376067e-01    9,106941223e-01   -3,441141546e-02    0,000000000e+00    0,000000000e+00    0,000000000e+00    0,000000000e+00
     1500000000   -3,035612404e-01   -6,442225724e-02    8,388761878e-01   -4,362966418e-01    0,000000000e+00    0,000000000e+00    0,000000000e+00    0,000000000e+00
