! NanoVNA-App
! Date: 2025-09-25 14:56:54
! Start: 100MHz Stop: 1,5GHz Points: 101
! S-Parameter data: F S11 S21 S12 S22
# Hz S RI R 50
!     Frequency           S11_Real           S11_Imag           S21_Real           S21_Imag           S12_Real           S12_Imag           S22_Real           S22_Imag
      100000000    3,559758142e-02    2,732201852e-02    4,406775534e-01   -6,695155501e-01    0,000000000e+00    0,000000000e+00    0,000000000e+00    0,000000000e+00
      114000000    6,070660427e-02    2,153328154e-03    1,268569939e-02   -7,952761650e-01    0,000000000e+00    0,000000000e+00    0,000000000e+00    0,000000000e+00
      128000000    6,832023710e-02   -4,224408790e-02   -4,081932306e-01   -6,779957414e-01    0,000000000e+00    0,000000000e+00    0,000000000e+00    0,000000000e+00
      142000000    4,347236454e-02   -8,877778798e-02   -7,049953341e-01   -3,607571423e-01    0,000000000e+00    0,000000000e+00    0,000000000e+00    0,000000000e+00
      156000000   -9,570399299e-03   -1,093634963e-01   -7,927724719e-01    6,699401885e-02    0,000000000e+00    0,000000000e+00    0,000000000e+00    0,000000000e+00
      170000000   -6,271397322e-02   -9,179284424e-02   -6,368697286e-01    4,863843322e-01    0,000000000e+00    0,000000000e+00    0,000000000e+00    0,000000000e+00
      184000000   -8,860199898e-02   -4,760824144e-02   -2,731524408e-01    7,559390664e-01    0,000000000e+00    0,000000000e+00    0,000000000e+00    0,000000000e+00
      198000000   -8,271743357e-02   -6,384349428e-03    1,797681898e-01    7,825047374e-01    0,000000000e+00    0,000000000e+00    0,000000000e+00    0,000000000e+00
      212000000   -6,265577674e-02    1,808739081e-02    5,707949996e-01    5,581454039e-01    0,000000000e+00    0,000000000e+00    0,000000000e+00    0,000000000e+00
      226000000   -4,131025821e-02    3,188206628e-02    7,766876817e-01    1,618215740e-01    0,000000000e+00    0,000000000e+00    0,000000000e+00    0,000000000e+00
      240000000   -1,472242642e-02    4,127944633e-02    7,360031605e-01   -2,787695229e-01    0,000000000e+00    0,000000000e+00    0,000000000e+00    0,000000000e+00
      254000000    2,149632387e-02    3,619744629e-02    4,679145217e-01   -6,220643520e-01    0,000000000e+00    0,000000000e+00    0,000000000e+00    0,000000000e+00
      268000000    5,332143605e-02    4,550170619e-03    6,694952399e-02   -7,676886320e-01    0,000000000e+00    0,000000000e+00    0,000000000e+00    0,000000000e+00
      282000000    5,743089691e-02   -4,510528222e-02   -3,458145261e-01   -6,821892262e-01    0,000000000e+00    0,000000000e+00    0,000000000e+00    0,000000000e+00
      296000000    2,598528564e-02   -8,489913493e-02   -6,552526951e-01   -3,976168334e-01    0,000000000e+00    0,000000000e+00    0,000000000e+00    0,000000000e+00
      310000000   -1,922327839e-02   -8,944288641e-02   -7,745553255e-01    1,133533567e-02    0,000000000e+00    0,000000000e+00    0,000000000e+00    0,000000000e+00
      324000000   -4,647944495e-02   -6,331147254e-02   -6,478070021e-01    4,300379455e-01    0,000000000e+00    0,000000000e+00    0,000000000e+00    0,000000000e+00
      338000000   -4,143119603e-02   -3,765999153e-02   -3,097091317e-01    7,083269954e-01    0,000000000e+00    0,000000000e+00    0,000000000e+00    0,000000000e+00
      352000000   -2,347438596e-02   -3,768813238e-02    1,194872260e-01    7,587039471e-01    0,000000000e+00    0,000000000e+00    0,000000000e+00    0,000000000e+00
      366000000   -2,325149067e-02   -5,604476109e-02    5,027419329e-01    5,713748336e-01    0,000000000e+00    0,000000000e+00    0,000000000e+00    0,000000000e+00
      380000000   -4,441651702e-02   -6,476680934e-02    7,265801430e-01    2,122064382e-01    0,000000000e+00    0,000000000e+00    0,000000000e+00    0,000000000e+00
      394000000   -6,605596840e-02   -5,033159256e-02    7,228649855e-01   -2,130622864e-01    0,000000000e+00    0,000000000e+00    0,000000000e+00    0,000000000e+00
      408000000   -6,702651083e-02   -2,624164149e-02    4,898843765e-01   -5,681880713e-01    0,000000000e+00    0,000000000e+00    0,000000000e+00    0,000000000e+00
      422000000   -5,312592909e-02   -1,543520577e-02    1,060700715e-01   -7,381151319e-01    0,000000000e+00    0,000000000e+00    0,000000000e+00    0,000000000e+00
      436000000   -4,604021087e-02   -1,888644695e-02   -3,054837286e-01   -6,761685610e-01    0,000000000e+00    0,000000000e+00    0,000000000e+00    0,000000000e+00
      450000000   -5,211411044e-02   -1,524308696e-02   -6,186967492e-01   -3,998268247e-01    0,000000000e+00    0,000000000e+00    0,000000000e+00    0,000000000e+00
      464000000   -5,057396740e-02    5,706641823e-03   -7,294592261e-01    3,432393074e-03    0,000000000e+00    0,000000000e+00    0,000000000e+00    0,000000000e+00
      478000000   -2,090349793e-02    2,638944238e-02   -5,986652374e-01    3,963966072e-01    0,000000000e+00    0,000000000e+00    0,000000000e+00    0,000000000e+00
      492000000    2,763112448e-02    1,457908005e-02   -2,804348171e-01    6,441232562e-01    0,000000000e+00    0,000000000e+00    0,000000000e+00    0,000000000e+00
      506000000    5,794636160e-02   -3,700301796e-02    1,034937203e-01    6,806472540e-01    0,000000000e+00    0,000000000e+00    0,000000000e+00    0,000000000e+00
      520000000    4,294468090e-02   -1,016592309e-01    4,417659044e-01    5,178143978e-01    0,000000000e+00    0,000000000e+00    0,000000000e+00    0,000000000e+00
      534000000   -1,178504806e-02   -1,422090083e-01    6,494590044e-01    2,077554017e-01    0,000000000e+00    0,000000000e+00    0,000000000e+00    0,000000000e+00
      548000000   -7,892804593e-02   -1,378199756e-01    6,613567472e-01   -1,736746728e-01    0,000000000e+00    0,000000000e+00    0,000000000e+00    0,000000000e+00
      562000000   -1,261481941e-01   -9,807693958e-02    4,557320774e-01   -5,067679882e-01    0,000000000e+00    0,000000000e+00    0,000000000e+00    0,000000000e+00
      576000000   -1,435125619e-01   -4,528841749e-02    9,039773792e-02   -6,652491689e-01    0,000000000e+00    0,000000000e+00    0,000000000e+00    0,000000000e+00
      590000000   -1,337703019e-01    1,328261662e-02   -2,937208712e-01   -5,805513859e-01    0,000000000e+00    0,000000000e+00    0,000000000e+00    0,000000000e+00
      604000000   -7,106181234e-02    6,692779809e-02   -5,245358944e-01   -2,806341648e-01    0,000000000e+00    0,000000000e+00    0,000000000e+00    0,000000000e+00
      618000000    3,657863662e-02    2,079416439e-02   -5,019242167e-01    9,271288291e-03    0,000000000e+00    0,000000000e+00    0,000000000e+00    0,000000000e+00
      632000000   -6,051704288e-03   -1,021621376e-01   -4,712241888e-01    1,733218580e-01    0,000000000e+00    0,000000000e+00    0,000000000e+00    0,000000000e+00
      646000000   -1,020539999e-01   -6,368800253e-02   -3,788682222e-01    4,427381754e-01    0,000000000e+00    0,000000000e+00    0,000000000e+00    0,000000000e+00
      660000000   -8,621919155e-02    2,520022681e-03   -6,800062209e-02    6,160705090e-01    0,000000000e+00    0,000000000e+00    0,000000000e+00    0,000000000e+00
      674000000   -3,964576498e-02    1,091098133e-02    2,881387174e-01    5,577096939e-01    0,000000000e+00    0,000000000e+00    0,000000000e+00    0,000000000e+00
      688000000   -1,711597107e-02   -9,829030372e-03    5,443875194e-01    3,110766411e-01    0,000000000e+00    0,000000000e+00    0,000000000e+00    0,000000000e+00
      702000000   -1,031672768e-02   -2,895782515e-02    6,239485145e-01   -3,425712138e-02    0,000000000e+00    0,000000000e+00    0,000000000e+00    0,000000000e+00
      716000000   -5,003416911e-03   -4,692730680e-02    4,959065616e-01   -3,657763600e-01    0,000000000e+00    0,000000000e+00    0,000000000e+00    0,000000000e+00
      730000000   -3,319695825e-03   -7,725563645e-02    2,155129910e-01   -5,680485964e-01    0,000000000e+00    0,000000000e+00    0,000000000e+00    0,000000000e+00
      744000000   -2,415137552e-02   -1,147254631e-01   -1,209273115e-01   -5,920241475e-01    0,000000000e+00    0,000000000e+00    0,000000000e+00    0,000000000e+00
      758000000   -7,573264092e-02   -1,356175989e-01   -4,196633399e-01   -4,381681979e-01    0,000000000e+00    0,000000000e+00    0,000000000e+00    0,000000000e+00
      772000000   -1,383888125e-01   -1,163090244e-01   -5,965823531e-01   -1,438325495e-01    0,000000000e+00    0,000000000e+00    0,000000000e+00    0,000000000e+00
      786000000   -1,745526195e-01   -5,752925947e-02   -5,852522254e-01    2,098770291e-01    0,000000000e+00    0,000000000e+00    0,000000000e+00    0,000000000e+00
      800000000   -1,600642800e-01    9,856027551e-03   -3,743024468e-01    4,986071289e-01    0,000000000e+00    0,000000000e+00    0,000000000e+00    0,000000000e+00
      814000000   -1,126703545e-01    4,578386620e-02   -4,554357007e-02    6,183078289e-01    0,000000000e+00    0,000000000e+00    0,000000000e+00    0,000000000e+00
      828000000   -6,424342096e-02    4,439704493e-02    2,880405486e-01    5,416915417e-01    0,000000000e+00    0,000000000e+00    0,000000000e+00    0,000000000e+00
      842000000   -3,597752750e-02    2,649810351e-02    5,235303044e-01    3,057866991e-01    0,000000000e+00    0,000000000e+00    0,000000000e+00    0,000000000e+00
      856000000   -1,808268204e-02    8,055841550e-03    5,969270468e-01   -1,441435702e-02    0,000000000e+00    0,000000000e+00    0,000000000e+00    0,000000000e+00
      870000000   -9,523243643e-04   -1,403917652e-02    4,884628356e-01   -3,190308809e-01    0,000000000e+00    0,000000000e+00    0,000000000e+00    0,000000000e+00
      884000000    8,502973244e-03   -5,087503418e-02    2,422949821e-01   -5,139921904e-01    0,000000000e+00    0,000000000e+00    0,000000000e+00    0,000000000e+00
      898000000   -6,903000642e-03   -9,781970084e-02   -6,068683788e-02   -5,578044653e-01    0,000000000e+00    0,000000000e+00    0,000000000e+00    0,000000000e+00
      912000000   -6,164279208e-02   -1,270514429e-01   -3,867292106e-01   -4,125328660e-01    0,000000000e+00    0,000000000e+00    0,000000000e+00    0,000000000e+00
      926000000   -1,224252209e-01   -1,177439094e-01   -5,671900511e-01   -1,474469751e-01    0,000000000e+00    0,000000000e+00    0,000000000e+00    0,000000000e+00
      940000000   -1,585547924e-01   -6,223688275e-02   -5,682657957e-01    1,942197382e-01    0,000000000e+00    0,000000000e+00    0,000000000e+00    0,000000000e+00
      954000000   -1,440216601e-01   -7,432867773e-03   -3,723573387e-01    4,813980162e-01    0,000000000e+00    0,000000000e+00    0,000000000e+00    0,000000000e+00
      968000000   -9,768349677e-02    1,788230054e-02   -5,409609526e-02    6,163641214e-01    0,000000000e+00    0,000000000e+00    0,000000000e+00    0,000000000e+00
      982000000   -6,283772737e-02    1,743244706e-03    2,815739810e-01    5,546159148e-01    0,000000000e+00    0,000000000e+00    0,000000000e+00    0,000000000e+00
      996000000   -4,977866262e-02   -2,794537693e-02    5,268978477e-01    3,294236362e-01    0,000000000e+00    0,000000000e+00    0,000000000e+00    0,000000000e+00
     1010000000   -6,336396933e-02   -6,036855653e-02    6,121206880e-01    1,705025323e-02    0,000000000e+00    0,000000000e+00    0,000000000e+00    0,000000000e+00
     1024000000   -9,209873527e-02   -6,940075010e-02    5,188959837e-01   -2,853435874e-01    0,000000000e+00    0,000000000e+00    0,000000000e+00    0,000000000e+00
     1038000000   -1,302127540e-01   -5,278568715e-02    2,956622839e-01   -4,770216048e-01    0,000000000e+00    0,000000000e+00    0,000000000e+00    0,000000000e+00
     1052000000   -1,464510113e-01   -1,158451568e-02    2,514814213e-02   -5,315400362e-01    0,000000000e+00    0,000000000e+00    0,000000000e+00    0,000000000e+00
     1066000000   -1,190330908e-01    3,100770153e-02   -2,189515233e-01   -4,636141956e-01    0,000000000e+00    0,000000000e+00    0,000000000e+00    0,000000000e+00
     1080000000   -7,080642879e-02    3,358407691e-02   -4,197133482e-01   -2,857885361e-01    0,000000000e+00    0,000000000e+00    0,000000000e+00    0,000000000e+00
     1094000000   -3,343916312e-02    7,276632357e-03   -5,110724568e-01   -1,533291396e-02    0,000000000e+00    0,000000000e+00    0,000000000e+00    0,000000000e+00
     1108000000   -2,277598530e-02   -2,255895734e-02   -4,279924035e-01    2,815352678e-01    0,000000000e+00    0,000000000e+00    0,000000000e+00    0,000000000e+00
     1122000000   -2,657036297e-02   -5,614430457e-02   -1,824543327e-01    4,831803441e-01    0,000000000e+00    0,000000000e+00    0,000000000e+00    0,000000000e+00
     1136000000   -4,163310304e-02   -9,717998654e-02    1,463510543e-01    5,143787861e-01    0,000000000e+00    0,000000000e+00    0,000000000e+00    0,000000000e+00
     1150000000   -8,185999095e-02   -1,272898018e-01    4,448312223e-01    3,418793082e-01    0,000000000e+00    0,000000000e+00    0,000000000e+00    0,000000000e+00
     1164000000   -1,420816183e-01   -1,299920231e-01    6,047639847e-01    1,575346105e-02    0,000000000e+00    0,000000000e+00    0,000000000e+00    0,000000000e+00
     1178000000   -1,838725060e-01   -8,622734994e-02    5,353555083e-01   -3,658709228e-01    0,000000000e+00    0,000000000e+00    0,000000000e+00    0,000000000e+00
     1192000000   -1,861297637e-01   -5,492666364e-02    2,450613678e-01   -6,329726577e-01    0,000000000e+00    0,000000000e+00    0,000000000e+00    0,000000000e+00
     1206000000   -1,936735362e-01   -4,589120671e-02   -1,345652193e-01   -6,615414619e-01    0,000000000e+00    0,000000000e+00    0,000000000e+00    0,000000000e+00
     1220000000   -2,500810921e-01   -1,430556085e-02   -4,216043055e-01   -4,885667861e-01    0,000000000e+00    0,000000000e+00    0,000000000e+00    0,000000000e+00
     1234000000   -2,397695333e-01    1,144753844e-01   -5,588147044e-01   -2,430538535e-01    0,000000000e+00    0,000000000e+00    0,000000000e+00    0,000000000e+00
     1248000000   -1,199204102e-01    1,717387885e-01   -6,017228365e-01    2,035882510e-02    0,000000000e+00    0,000000000e+00    0,000000000e+00    0,000000000e+00
     1262000000    4,441208730e-04    1,326632053e-01   -5,027261376e-01    2,927311361e-01    0,000000000e+00    0,000000000e+00    0,000000000e+00    0,000000000e+00
     1276000000    6,458814442e-02    4,347948730e-02   -2,773039937e-01    4,814733863e-01    0,000000000e+00    0,000000000e+00    0,000000000e+00    0,000000000e+00
     1290000000    7,063143700e-02   -7,385464013e-02    9,228443727e-03    5,430691242e-01    0,000000000e+00    0,000000000e+00    0,000000000e+00    0,000000000e+00
     1304000000    1,674666069e-02   -1,795920134e-01    2,923973799e-01    4,777147174e-01    0,000000000e+00    0,000000000e+00    0,000000000e+00    0,000000000e+00
     1318000000   -9,563130140e-02   -2,547794878e-01    5,395430923e-01    2,670471668e-01    0,000000000e+00    0,000000000e+00    0,000000000e+00    0,000000000e+00
     1332000000   -2,411997169e-01   -2,495358586e-01    6,526900530e-01   -5,248874426e-02    0,000000000e+00    0,000000000e+00    0,000000000e+00    0,000000000e+00
     1346000000   -3,617114425e-01   -1,439209282e-01    5,497775674e-01   -4,033835232e-01    0,000000000e+00    0,000000000e+00    0,000000000e+00    0,000000000e+00
     1360000000   -3,915310204e-01    2,320334548e-03    2,594273686e-01   -6,380470395e-01    0,000000000e+00    0,000000000e+00    0,000000000e+00    0,000000000e+00
     1374000000   -3,274880648e-01    1,250886768e-01   -1,119009554e-01   -6,226773262e-01    0,000000000e+00    0,000000000e+00    0,000000000e+00    0,000000000e+00
     1388000000   -2,358965129e-01    1,726341099e-01   -3,660589755e-01   -4,136166573e-01    0,000000000e+00    0,000000000e+00    0,000000000e+00    0,000000000e+00
     1402000000   -1,562800109e-01    1,726031452e-01   -4,798122048e-01   -1,142461300e-01    0,000000000e+00    0,000000000e+00    0,000000000e+00    0,000000000e+00
     1416000000   -8,430605382e-02    1,401278377e-01   -3,995041251e-01    2,032079846e-01    0,000000000e+00    0,000000000e+00    0,000000000e+00    0,000000000e+00
     1430000000   -3,264962509e-02    8,782065660e-02   -1,665211916e-01    4,438397884e-01    0,000000000e+00    0,000000000e+00    0,000000000e+00    0,000000000e+00
     1444000000   -9,609985165e-03    8,526948281e-03    1,252427995e-01    5,263220668e-01    0,000000000e+00    0,000000000e+00    0,000000000e+00    0,000000000e+00
     1458000000   -4,007250816e-02   -8,084484190e-02    4,364369810e-01    5,020769835e-01    0,000000000e+00    0,000000000e+00    0,000000000e+00    0,000000000e+00
     1472000000   -1,258915961e-01   -1,493743211e-01    7,188991308e-01    3,115695119e-01    0,000000000e+00    0,000000000e+00    0,000000000e+00    0,000000000e+00
     1486000000   -2,337100655e-01   -1,431781054e-01    9,009621143e-01   -1,181899570e-02    0,000000000e+00    0,000000000e+00    0,000000000e+00    0,000000000e+00
     1500000000   -3,105623722e-01   -6,347703189e-02    8,380370140e-01   -3,955905139e-01    0,000000000e+00    0,000000000e+00    0,000000000e+00    0,000000000e+00
