! NanoVNA-App
! Date: 2025-09-25 14:58:55
! Start: 100MHz Stop: 1,5GHz Points: 101
! S-Parameter data: F S11 S21 S12 S22
# Hz S RI R 50
!     Frequency           S11_Real           S11_Imag           S21_Real           S21_Imag           S12_Real           S12_Imag           S22_Real           S22_Imag
      100000000    3,558024392e-02    2,735225856e-02    4,407474697e-01   -6,695060730e-01    0,000000000e+00    0,000000000e+00    0,000000000e+00    0,000000000e+00
      114000000    6,069076061e-02    2,184004057e-03    1,290395577e-02   -7,951778769e-01    0,000000000e+00    0,000000000e+00    0,000000000e+00    0,000000000e+00
      128000000    6,839323789e-02   -4,226446152e-02   -4,081689417e-01   -6,783735156e-01    0,000000000e+00    0,000000000e+00    0,000000000e+00    0,000000000e+00
      142000000    4,349499941e-02   -8,880209923e-02   -7,051684260e-01   -3,609364033e-01    0,000000000e+00    0,000000000e+00    0,000000000e+00    0,000000000e+00
      156000000   -9,595925920e-03   -1,094322205e-01   -7,928377390e-01    6,691031903e-02    0,000000000e+00    0,000000000e+00    0,000000000e+00    0,000000000e+00
      170000000   -6,273829192e-02   -9,177801758e-02   -6,369319558e-01    4,862482250e-01    0,000000000e+00    0,000000000e+00    0,000000000e+00    0,000000000e+00
      184000000   -8,856383711e-02   -4,764279351e-02   -2,732911110e-01    7,558897138e-01    0,000000000e+00    0,000000000e+00    0,000000000e+00    0,000000000e+00
      198000000   -8,273413032e-02   -6,450135261e-03    1,794810593e-01    7,823795080e-01    0,000000000e+00    0,000000000e+00    0,000000000e+00    0,000000000e+00
      212000000   -6,266168505e-02    1,803976297e-02    5,704646111e-01    5,584604144e-01    0,000000000e+00    0,000000000e+00    0,000000000e+00    0,000000000e+00
      226000000   -4,145465046e-02    3,186852112e-02    7,768383622e-01    1,618241966e-01    0,000000000e+00    0,000000000e+00    0,000000000e+00    0,000000000e+00
      240000000   -1,486753579e-02    4,133060575e-02    7,360994816e-01   -2,788460851e-01    0,000000000e+00    0,000000000e+00    0,000000000e+00    0,000000000e+00
      254000000    2,140350454e-02    3,628755733e-02    4,679912925e-01   -6,222874522e-01    0,000000000e+00    0,000000000e+00    0,000000000e+00    0,000000000e+00
      268000000    5,330859870e-02    4,703291226e-03    6,690559536e-02   -7,673064470e-01    0,000000000e+00    0,000000000e+00    0,000000000e+00    0,000000000e+00
      282000000    5,746262893e-02   -4,490245506e-02   -3,455425501e-01   -6,821444631e-01    0,000000000e+00    0,000000000e+00    0,000000000e+00    0,000000000e+00
      296000000    2,610372938e-02   -8,466280252e-02   -6,548132896e-01   -3,975920975e-01    0,000000000e+00    0,000000000e+00    0,000000000e+00    0,000000000e+00
      310000000   -1,896874607e-02   -8,952009678e-02   -7,749108672e-01    1,073463820e-02    0,000000000e+00    0,000000000e+00    0,000000000e+00    0,000000000e+00
      324000000   -4,669697210e-02   -6,347022951e-02   -6,482954025e-01    4,294668436e-01    0,000000000e+00    0,000000000e+00    0,000000000e+00    0,000000000e+00
      338000000   -4,118594155e-02   -3,785165399e-02   -3,110790253e-01    7,078500986e-01    0,000000000e+00    0,000000000e+00    0,000000000e+00    0,000000000e+00
      352000000   -2,354897186e-02   -3,764918074e-02    1,191383526e-01    7,591998577e-01    0,000000000e+00    0,000000000e+00    0,000000000e+00    0,000000000e+00
      366000000   -2,298122272e-02   -5,603932589e-02    5,028103590e-01    5,718746781e-01    0,000000000e+00    0,000000000e+00    0,000000000e+00    0,000000000e+00
      380000000   -4,474908859e-02   -6,548064947e-02    7,264952064e-01    2,115556598e-01    0,000000000e+00    0,000000000e+00    0,000000000e+00    0,000000000e+00
      394000000   -6,635750085e-02   -5,069952458e-02    7,230848074e-01   -2,131189257e-01    0,000000000e+00    0,000000000e+00    0,000000000e+00    0,000000000e+00
      408000000   -6,756258011e-02   -2,645536885e-02    4,897033870e-01   -5,685681701e-01    0,000000000e+00    0,000000000e+00    0,000000000e+00    0,000000000e+00
      422000000   -5,338096619e-02   -1,533796731e-02    1,057385281e-01   -7,390716076e-01    0,000000000e+00    0,000000000e+00    0,000000000e+00    0,000000000e+00
      436000000   -4,639843479e-02   -1,841411367e-02   -3,058846295e-01   -6,756804585e-01    0,000000000e+00    0,000000000e+00    0,000000000e+00    0,000000000e+00
      450000000   -5,192593485e-02   -1,488891989e-02   -6,185381413e-01   -3,994310200e-01    0,000000000e+00    0,000000000e+00    0,000000000e+00    0,000000000e+00
      464000000   -5,052258447e-02    5,771518219e-03   -7,298693657e-01    3,102842718e-03    0,000000000e+00    0,000000000e+00    0,000000000e+00    0,000000000e+00
      478000000   -2,053697221e-02    2,628245205e-02   -5,982009172e-01    3,974022269e-01    0,000000000e+00    0,000000000e+00    0,000000000e+00    0,000000000e+00
      492000000    2,823781408e-02    1,474238094e-02   -2,798115015e-01    6,444096565e-01    0,000000000e+00    0,000000000e+00    0,000000000e+00    0,000000000e+00
      506000000    5,899494514e-02   -3,782686219e-02    1,051542982e-01    6,799111962e-01    0,000000000e+00    0,000000000e+00    0,000000000e+00    0,000000000e+00
      520000000    4,415124282e-02   -1,022291929e-01    4,421186447e-01    5,189775825e-01    0,000000000e+00    0,000000000e+00    0,000000000e+00    0,000000000e+00
      534000000   -1,286786608e-02   -1,437572688e-01    6,489478350e-01    2,057345659e-01    0,000000000e+00    0,000000000e+00    0,000000000e+00    0,000000000e+00
      548000000   -8,180563897e-02   -1,402162164e-01    6,601194739e-01   -1,770116091e-01    0,000000000e+00    0,000000000e+00    0,000000000e+00    0,000000000e+00
      562000000   -1,317616105e-01   -9,807997942e-02    4,507142603e-01   -5,086492300e-01    0,000000000e+00    0,000000000e+00    0,000000000e+00    0,000000000e+00
      576000000   -1,491471380e-01   -3,824022040e-02    8,301031590e-02   -6,602615118e-01    0,000000000e+00    0,000000000e+00    0,000000000e+00    0,000000000e+00
      590000000   -1,296684593e-01    2,995315380e-02   -2,968187928e-01   -5,627724528e-01    0,000000000e+00    0,000000000e+00    0,000000000e+00    0,000000000e+00
      604000000   -3,719503433e-02    6,857293844e-02   -4,867171645e-01   -2,694092095e-01    0,000000000e+00    0,000000000e+00    0,000000000e+00    0,000000000e+00
      618000000    3,447216749e-02   -3,109919094e-02   -4,937265515e-01   -5,177571997e-02    0,000000000e+00    0,000000000e+00    0,000000000e+00    0,000000000e+00
      632000000   -5,370942131e-02   -9,270027280e-02   -5,263695121e-01    1,773153841e-01    0,000000000e+00    0,000000000e+00    0,000000000e+00    0,000000000e+00
      646000000   -9,930983186e-02   -3,355717659e-02   -3,793112934e-01    4,777104557e-01    0,000000000e+00    0,000000000e+00    0,000000000e+00    0,000000000e+00
      660000000   -6,803791225e-02    9,951284155e-03   -5,135870352e-02    6,254084706e-01    0,000000000e+00    0,000000000e+00    0,000000000e+00    0,000000000e+00
      674000000   -3,065609001e-02    4,402614199e-03    2,992084622e-01    5,529490113e-01    0,000000000e+00    0,000000000e+00    0,000000000e+00    0,000000000e+00
      688000000   -1,495489758e-02   -1,771116443e-02    5,468530655e-01    3,034664392e-01    0,000000000e+00    0,000000000e+00    0,000000000e+00    0,000000000e+00
      702000000   -1,454827283e-02   -3,508958593e-02    6,209366918e-01   -3,953497484e-02    0,000000000e+00    0,000000000e+00    0,000000000e+00    0,000000000e+00
      716000000   -1,019733027e-02   -4,918208346e-02    4,909866750e-01   -3,685243726e-01    0,000000000e+00    0,000000000e+00    0,000000000e+00    0,000000000e+00
      730000000   -7,914515212e-03   -7,417669892e-02    2,098659575e-01   -5,671609640e-01    0,000000000e+00    0,000000000e+00    0,000000000e+00    0,000000000e+00
      744000000   -2,647859603e-02   -1,107749715e-01   -1,239878163e-01   -5,879409313e-01    0,000000000e+00    0,000000000e+00    0,000000000e+00    0,000000000e+00
      758000000   -7,451295108e-02   -1,332962513e-01   -4,201067686e-01   -4,320544899e-01    0,000000000e+00    0,000000000e+00    0,000000000e+00    0,000000000e+00
      772000000   -1,354740411e-01   -1,164788678e-01   -5,935409069e-01   -1,398740858e-01    0,000000000e+00    0,000000000e+00    0,000000000e+00    0,000000000e+00
      786000000   -1,711458266e-01   -5,884641781e-02   -5,815972090e-01    2,098170221e-01    0,000000000e+00    0,000000000e+00    0,000000000e+00    0,000000000e+00
      800000000   -1,603962630e-01    6,148437038e-03   -3,726155460e-01    4,962806106e-01    0,000000000e+00    0,000000000e+00    0,000000000e+00    0,000000000e+00
      814000000   -1,145672724e-01    4,179603606e-02   -4,502302781e-02    6,154498458e-01    0,000000000e+00    0,000000000e+00    0,000000000e+00    0,000000000e+00
      828000000   -6,844212115e-02    4,365381971e-02    2,856934369e-01    5,400846004e-01    0,000000000e+00    0,000000000e+00    0,000000000e+00    0,000000000e+00
      842000000   -3,858849779e-02    2,884040773e-02    5,205954313e-01    3,056812882e-01    0,000000000e+00    0,000000000e+00    0,000000000e+00    0,000000000e+00
      856000000   -1,853291690e-02    1,190586854e-02    5,942121744e-01   -1,392444596e-02    0,000000000e+00    0,000000000e+00    0,000000000e+00    0,000000000e+00
      870000000    1,986030256e-03   -1,058315951e-02    4,860548973e-01   -3,174030185e-01    0,000000000e+00    0,000000000e+00    0,000000000e+00    0,000000000e+00
      884000000    1,382664777e-02   -5,131942034e-02    2,434230745e-01   -5,120430589e-01    0,000000000e+00    0,000000000e+00    0,000000000e+00    0,000000000e+00
      898000000   -3,763607005e-03   -1,025083736e-01   -5,774144456e-02   -5,540710092e-01    0,000000000e+00    0,000000000e+00    0,000000000e+00    0,000000000e+00
      912000000   -6,323128939e-02   -1,335871220e-01   -3,805523217e-01   -4,169951379e-01    0,000000000e+00    0,000000000e+00    0,000000000e+00    0,000000000e+00
      926000000   -1,250293851e-01   -1,182255447e-01   -5,648563504e-01   -1,469377726e-01    0,000000000e+00    0,000000000e+00    0,000000000e+00    0,000000000e+00
      940000000   -1,639852226e-01   -6,111792475e-02   -5,679925084e-01    1,936449111e-01    0,000000000e+00    0,000000000e+00    0,000000000e+00    0,000000000e+00
      954000000   -1,460203677e-01   -3,603756195e-03   -3,764531910e-01    4,818982184e-01    0,000000000e+00    0,000000000e+00    0,000000000e+00    0,000000000e+00
      968000000   -9,569890052e-02    2,227186412e-02   -5,302289128e-02    6,172027588e-01    0,000000000e+00    0,000000000e+00    0,000000000e+00    0,000000000e+00
      982000000   -5,255810544e-02    6,475647446e-03    2,811355889e-01    5,538088083e-01    0,000000000e+00    0,000000000e+00    0,000000000e+00    0,000000000e+00
      996000000   -4,504344240e-02   -3,583857045e-02    5,237751007e-01    3,252633810e-01    0,000000000e+00    0,000000000e+00    0,000000000e+00    0,000000000e+00
     1010000000   -6,504221261e-02   -6,534641236e-02    6,076378822e-01    1,580682397e-02    0,000000000e+00    0,000000000e+00    0,000000000e+00    0,000000000e+00
     1024000000   -1,033251360e-01   -7,835397869e-02    5,161371231e-01   -2,808413804e-01    0,000000000e+00    0,000000000e+00    0,000000000e+00    0,000000000e+00
     1038000000   -1,421470046e-01   -6,040342152e-02    2,964321971e-01   -4,713601768e-01    0,000000000e+00    0,000000000e+00    0,000000000e+00    0,000000000e+00
     1052000000   -1,515723914e-01   -4,916737787e-03    3,415855765e-02   -5,262378454e-01    0,000000000e+00    0,000000000e+00    0,000000000e+00    0,000000000e+00
     1066000000   -1,038171127e-01    3,854103759e-02   -2,124350220e-01   -4,682580233e-01    0,000000000e+00    0,000000000e+00    0,000000000e+00    0,000000000e+00
     1080000000   -4,984642938e-02    2,790381201e-02   -4,135689139e-01   -2,975790203e-01    0,000000000e+00    0,000000000e+00    0,000000000e+00    0,000000000e+00
     1094000000   -3,553639352e-02   -1,042594761e-02   -5,189573765e-01   -2,248722315e-02    0,000000000e+00    0,000000000e+00    0,000000000e+00    0,000000000e+00
     1108000000   -3,349620849e-02   -2,888223343e-02   -4,405194819e-01    2,823289931e-01    0,000000000e+00    0,000000000e+00    0,000000000e+00    0,000000000e+00
     1122000000   -3,337400034e-02   -5,905244127e-02   -1,859060824e-01    4,978569448e-01    0,000000000e+00    0,000000000e+00    0,000000000e+00    0,000000000e+00
     1136000000   -4,102614149e-02   -9,221007675e-02    1,489665359e-01    5,178701878e-01    0,000000000e+00    0,000000000e+00    0,000000000e+00    0,000000000e+00
     1150000000   -8,321543038e-02   -1,211190522e-01    4,572507441e-01    3,460168540e-01    0,000000000e+00    0,000000000e+00    0,000000000e+00    0,000000000e+00
     1164000000   -1,354218423e-01   -1,231256351e-01    6,088083982e-01    1,021914463e-02    0,000000000e+00    0,000000000e+00    0,000000000e+00    0,000000000e+00
     1178000000   -1,774279922e-01   -8,439880610e-02    5,380929708e-01   -3,727563024e-01    0,000000000e+00    0,000000000e+00    0,000000000e+00    0,000000000e+00
     1192000000   -1,763673127e-01   -5,859560519e-02    2,416885793e-01   -6,406601071e-01    0,000000000e+00    0,000000000e+00    0,000000000e+00    0,000000000e+00
     1206000000   -1,887952834e-01   -5,588577315e-02   -1,431111842e-01   -6,659290195e-01    0,000000000e+00    0,000000000e+00    0,000000000e+00    0,000000000e+00
     1220000000   -2,520520687e-01   -1,429067459e-02   -4,175353050e-01   -4,822568893e-01    0,000000000e+00    0,000000000e+00    0,000000000e+00    0,000000000e+00
     1234000000   -2,394967377e-01    1,143048927e-01   -5,590525866e-01   -2,473221868e-01    0,000000000e+00    0,000000000e+00    0,000000000e+00    0,000000000e+00
     1248000000   -1,156443879e-01    1,746396720e-01   -6,015290618e-01    2,181666717e-02    0,000000000e+00    0,000000000e+00    0,000000000e+00    0,000000000e+00
     1262000000   -1,252049347e-03    1,264581084e-01   -5,093868971e-01    2,951001823e-01    0,000000000e+00    0,000000000e+00    0,000000000e+00    0,000000000e+00
     1276000000    6,077301130e-02    3,961627558e-02   -2,753708363e-01    4,844621718e-01    0,000000000e+00    0,000000000e+00    0,000000000e+00    0,000000000e+00
     1290000000    6,934951246e-02   -7,042143494e-02    6,185138132e-03    5,467808843e-01    0,000000000e+00    0,000000000e+00    0,000000000e+00    0,000000000e+00
     1304000000    2,197594196e-02   -1,763963252e-01    3,055573702e-01    4,811348021e-01    0,000000000e+00    0,000000000e+00    0,000000000e+00    0,000000000e+00
     1318000000   -9,702176601e-02   -2,479085624e-01    5,324257612e-01    2,759077847e-01    0,000000000e+00    0,000000000e+00    0,000000000e+00    0,000000000e+00
     1332000000   -2,484737337e-01   -2,484621257e-01    6,457263231e-01   -5,795043707e-02    0,000000000e+00    0,000000000e+00    0,000000000e+00    0,000000000e+00
     1346000000   -3,642553091e-01   -1,413728744e-01    5,541099906e-01   -4,131084681e-01    0,000000000e+00    0,000000000e+00    0,000000000e+00    0,000000000e+00
     1360000000   -3,876461685e-01    9,535228834e-03    2,532278895e-01   -6,303490400e-01    0,000000000e+00    0,000000000e+00    0,000000000e+00    0,000000000e+00
     1374000000   -3,208588362e-01    1,167977452e-01   -9,567932785e-02   -6,301636696e-01    0,000000000e+00    0,000000000e+00    0,000000000e+00    0,000000000e+00
     1388000000   -2,375629246e-01    1,704079062e-01   -3,767362833e-01   -4,273954034e-01    0,000000000e+00    0,000000000e+00    0,000000000e+00    0,000000000e+00
     1402000000   -1,511423439e-01    1,701720506e-01   -4,761679471e-01   -1,098934412e-01    0,000000000e+00    0,000000000e+00    0,000000000e+00    0,000000000e+00
     1416000000   -8,418904245e-02    1,370777190e-01   -3,999679685e-01    2,070659250e-01    0,000000000e+00    0,000000000e+00    0,000000000e+00    0,000000000e+00
     1430000000   -3,158789501e-02    8,510688692e-02   -1,792147905e-01    4,503950477e-01    0,000000000e+00    0,000000000e+00    0,000000000e+00    0,000000000e+00
     1444000000   -1,068613771e-02    5,568629131e-03    1,150141954e-01    5,187575221e-01    0,000000000e+00    0,000000000e+00    0,000000000e+00    0,000000000e+00
     1458000000   -3,999231756e-02   -8,481259644e-02    4,422108233e-01    4,821867347e-01    0,000000000e+00    0,000000000e+00    0,000000000e+00    0,000000000e+00
     1472000000   -1,264591962e-01   -1,380704492e-01    7,213600278e-01    3,021881282e-01    0,000000000e+00    0,000000000e+00    0,000000000e+00    0,000000000e+00
     1486000000   -2,323528379e-01   -1,347836554e-01    9,028117657e-01   -2,367730252e-02    0,000000000e+00    0,000000000e+00    0,000000000e+00    0,000000000e+00
     1500000000   -2,993495464e-01   -7,057197392e-02    8,558431268e-01   -4,218377471e-01    0,000000000e+00    0,000000000e+00    0,000000000e+00    0,000000000e+00
