! NanoVNA-App
! Date: 2025-09-25 14:58:26
! Start: 100MHz Stop: 1,5GHz Points: 101
! S-Parameter data: F S11 S21 S12 S22
# Hz S RI R 50
!     Frequency           S11_Real           S11_Imag           S21_Real           S21_Imag           S12_Real           S12_Imag           S22_Real           S22_Imag
      100000000    3,558776900e-02    2,734878287e-02    4,407641590e-01   -6,695732474e-01    0,000000000e+00    0,000000000e+00    0,000000000e+00    0,000000000e+00
      114000000    6,072138995e-02    2,148018917e-03    1,274888776e-02   -7,952958941e-01    0,000000000e+00    0,000000000e+00    0,000000000e+00    0,000000000e+00
      128000000    6,838693470e-02   -4,223127291e-02   -4,081896842e-01   -6,780284643e-01    0,000000000e+00    0,000000000e+00    0,000000000e+00    0,000000000e+00
      142000000    4,347213358e-02   -8,879051358e-02   -7,052693963e-01   -3,609132171e-01    0,000000000e+00    0,000000000e+00    0,000000000e+00    0,000000000e+00
      156000000   -9,813017212e-03   -1,093801335e-01   -7,925696373e-01    6,699760258e-02    0,000000000e+00    0,000000000e+00    0,000000000e+00    0,000000000e+00
      170000000   -6,269890815e-02   -9,182605147e-02   -6,369988918e-01    4,865221381e-01    0,000000000e+00    0,000000000e+00    0,000000000e+00    0,000000000e+00
      184000000   -8,854483813e-02   -4,766472429e-02   -2,731239200e-01    7,558753490e-01    0,000000000e+00    0,000000000e+00    0,000000000e+00    0,000000000e+00
      198000000   -8,271615207e-02   -6,445729174e-03    1,797215790e-01    7,825998068e-01    0,000000000e+00    0,000000000e+00    0,000000000e+00    0,000000000e+00
      212000000   -6,269355118e-02    1,798030175e-02    5,707820654e-01    5,584781170e-01    0,000000000e+00    0,000000000e+00    0,000000000e+00    0,000000000e+00
      226000000   -4,147562385e-02    3,177057952e-02    7,768279910e-01    1,618701816e-01    0,000000000e+00    0,000000000e+00    0,000000000e+00    0,000000000e+00
      240000000   -1,489420701e-02    4,133428633e-02    7,360535860e-01   -2,787152827e-01    0,000000000e+00    0,000000000e+00    0,000000000e+00    0,000000000e+00
      254000000    2,140883356e-02    3,630539775e-02    4,679741859e-01   -6,221858263e-01    0,000000000e+00    0,000000000e+00    0,000000000e+00    0,000000000e+00
      268000000    5,333808437e-02    4,707938526e-03    6,657022983e-02   -7,672238946e-01    0,000000000e+00    0,000000000e+00    0,000000000e+00    0,000000000e+00
      282000000    5,736488104e-02   -4,489536956e-02   -3,453697860e-01   -6,827677488e-01    0,000000000e+00    0,000000000e+00    0,000000000e+00    0,000000000e+00
      296000000    2,599522099e-02   -8,466599882e-02   -6,548774242e-01   -3,978282213e-01    0,000000000e+00    0,000000000e+00    0,000000000e+00    0,000000000e+00
      310000000   -1,883211546e-02   -8,911141753e-02   -7,739899158e-01    1,145865582e-02    0,000000000e+00    0,000000000e+00    0,000000000e+00    0,000000000e+00
      324000000   -4,668908939e-02   -6,333496422e-02   -6,478941441e-01    4,297200143e-01    0,000000000e+00    0,000000000e+00    0,000000000e+00    0,000000000e+00
      338000000   -4,130900651e-02   -3,785194829e-02   -3,107835650e-01    7,078332305e-01    0,000000000e+00    0,000000000e+00    0,000000000e+00    0,000000000e+00
      352000000   -2,339475788e-02   -3,789544106e-02    1,199588403e-01    7,573361993e-01    0,000000000e+00    0,000000000e+00    0,000000000e+00    0,000000000e+00
      366000000   -2,277767472e-02   -5,618858337e-02    5,036231875e-01    5,712593198e-01    0,000000000e+00    0,000000000e+00    0,000000000e+00    0,000000000e+00
      380000000   -4,458097368e-02   -6,524486840e-02    7,268795371e-01    2,116278559e-01    0,000000000e+00    0,000000000e+00    0,000000000e+00    0,000000000e+00
      394000000   -6,641146541e-02   -5,083063990e-02    7,226282954e-01   -2,134547532e-01    0,000000000e+00    0,000000000e+00    0,000000000e+00    0,000000000e+00
      408000000   -6,726305932e-02   -2,653015964e-02    4,899305999e-01   -5,682422519e-01    0,000000000e+00    0,000000000e+00    0,000000000e+00    0,000000000e+00
      422000000   -5,312321708e-02   -1,529926900e-02    1,051723436e-01   -7,386373878e-01    0,000000000e+00    0,000000000e+00    0,000000000e+00    0,000000000e+00
      436000000   -4,660633206e-02   -1,872918569e-02   -3,059103489e-01   -6,750670671e-01    0,000000000e+00    0,000000000e+00    0,000000000e+00    0,000000000e+00
      450000000   -5,194781721e-02   -1,502425130e-02   -6,195544004e-01   -3,996518850e-01    0,000000000e+00    0,000000000e+00    0,000000000e+00    0,000000000e+00
      464000000   -5,050244182e-02    5,859309342e-03   -7,301860452e-01    3,458362771e-03    0,000000000e+00    0,000000000e+00    0,000000000e+00    0,000000000e+00
      478000000   -2,006258257e-02    2,645200491e-02   -5,983944535e-01    3,972822130e-01    0,000000000e+00    0,000000000e+00    0,000000000e+00    0,000000000e+00
      492000000    2,867356874e-02    1,456498727e-02   -2,798875272e-01    6,442363858e-01    0,000000000e+00    0,000000000e+00    0,000000000e+00    0,000000000e+00
      506000000    5,923457071e-02   -3,788318485e-02    1,049119458e-01    6,804004312e-01    0,000000000e+00    0,000000000e+00    0,000000000e+00    0,000000000e+00
      520000000    4,413987324e-02   -1,035817787e-01    4,464316666e-01    5,166580081e-01    0,000000000e+00    0,000000000e+00    0,000000000e+00    0,000000000e+00
      534000000   -1,245101728e-02   -1,441148221e-01    6,495168805e-01    2,051884383e-01    0,000000000e+00    0,000000000e+00    0,000000000e+00    0,000000000e+00
      548000000   -8,161108941e-02   -1,398328245e-01    6,598355174e-01   -1,760494858e-01    0,000000000e+00    0,000000000e+00    0,000000000e+00    0,000000000e+00
      562000000   -1,314198226e-01   -9,840463102e-02    4,506843984e-01   -5,094630122e-01    0,000000000e+00    0,000000000e+00    0,000000000e+00    0,000000000e+00
      576000000   -1,503900588e-01   -3,815554082e-02    8,159011602e-02   -6,606656909e-01    0,000000000e+00    0,000000000e+00    0,000000000e+00    0,000000000e+00
      590000000   -1,293769032e-01    3,000130132e-02   -2,941009700e-01   -5,622670054e-01    0,000000000e+00    0,000000000e+00    0,000000000e+00    0,000000000e+00
      604000000   -3,676014021e-02    6,832785159e-02   -4,870168865e-01   -2,695283294e-01    0,000000000e+00    0,000000000e+00    0,000000000e+00    0,000000000e+00
      618000000    3,428684175e-02   -3,207815811e-02   -4,939330518e-01   -5,275996774e-02    0,000000000e+00    0,000000000e+00    0,000000000e+00    0,000000000e+00
      632000000   -5,403826758e-02   -9,263374656e-02   -5,269492269e-01    1,775791794e-01    0,000000000e+00    0,000000000e+00    0,000000000e+00    0,000000000e+00
      646000000   -9,994342178e-02   -3,271840885e-02   -3,792470992e-01    4,777722359e-01    0,000000000e+00    0,000000000e+00    0,000000000e+00    0,000000000e+00
      660000000   -6,786098331e-02    9,664417244e-03   -4,994783923e-02    6,248861551e-01    0,000000000e+00    0,000000000e+00    0,000000000e+00    0,000000000e+00
      674000000   -3,030734137e-02    4,140425473e-03    2,986386120e-01    5,531919003e-01    0,000000000e+00    0,000000000e+00    0,000000000e+00    0,000000000e+00
      688000000   -1,500569005e-02   -1,857253909e-02    5,476344228e-01    3,031500876e-01    0,000000000e+00    0,000000000e+00    0,000000000e+00    0,000000000e+00
      702000000   -1,504491270e-02   -3,416603059e-02    6,195854545e-01   -4,092083871e-02    0,000000000e+00    0,000000000e+00    0,000000000e+00    0,000000000e+00
      716000000   -1,067437883e-02   -4,903298244e-02    4,917840362e-01   -3,691247404e-01    0,000000000e+00    0,000000000e+00    0,000000000e+00    0,000000000e+00
      730000000   -7,804700639e-03   -7,392743975e-02    2,106572539e-01   -5,673425198e-01    0,000000000e+00    0,000000000e+00    0,000000000e+00    0,000000000e+00
      744000000   -2,632729895e-02   -1,101615652e-01   -1,242647097e-01   -5,873360038e-01    0,000000000e+00    0,000000000e+00    0,000000000e+00    0,000000000e+00
      758000000   -7,504471391e-02   -1,323958188e-01   -4,206755459e-01   -4,320835173e-01    0,000000000e+00    0,000000000e+00    0,000000000e+00    0,000000000e+00
      772000000   -1,359016150e-01   -1,162656024e-01   -5,932326913e-01   -1,395195723e-01    0,000000000e+00    0,000000000e+00    0,000000000e+00    0,000000000e+00
      786000000   -1,710532904e-01   -5,790127814e-02   -5,811849833e-01    2,098918110e-01    0,000000000e+00    0,000000000e+00    0,000000000e+00    0,000000000e+00
      800000000   -1,603229940e-01    6,104367319e-03   -3,726801872e-01    4,950859547e-01    0,000000000e+00    0,000000000e+00    0,000000000e+00    0,000000000e+00
      814000000   -1,142803803e-01    4,255492985e-02   -4,461542889e-02    6,146159768e-01    0,000000000e+00    0,000000000e+00    0,000000000e+00    0,000000000e+00
      828000000   -6,870258600e-02    4,423106462e-02    2,857864499e-01    5,406345725e-01    0,000000000e+00    0,000000000e+00    0,000000000e+00    0,000000000e+00
      842000000   -3,941634297e-02    2,955514938e-02    5,215078592e-01    3,050011098e-01    0,000000000e+00    0,000000000e+00    0,000000000e+00    0,000000000e+00
      856000000   -1,851853728e-02    1,253951993e-02    5,943880081e-01   -1,358397678e-02    0,000000000e+00    0,000000000e+00    0,000000000e+00    0,000000000e+00
      870000000    2,657315694e-03   -1,092058606e-02    4,863114059e-01   -3,169221878e-01    0,000000000e+00    0,000000000e+00    0,000000000e+00    0,000000000e+00
      884000000    1,345881075e-02   -5,120182410e-02    2,436789721e-01   -5,120595694e-01    0,000000000e+00    0,000000000e+00    0,000000000e+00    0,000000000e+00
      898000000   -3,813469317e-03   -1,025937125e-01   -5,700279772e-02   -5,555984378e-01    0,000000000e+00    0,000000000e+00    0,000000000e+00    0,000000000e+00
      912000000   -6,236889586e-02   -1,329813451e-01   -3,854542673e-01   -4,118609428e-01    0,000000000e+00    0,000000000e+00    0,000000000e+00    0,000000000e+00
      926000000   -1,266284585e-01   -1,172248945e-01   -5,650947690e-01   -1,465432197e-01    0,000000000e+00    0,000000000e+00    0,000000000e+00    0,000000000e+00
      940000000   -1,651021540e-01   -6,198114529e-02   -5,692521334e-01    1,926012784e-01    0,000000000e+00    0,000000000e+00    0,000000000e+00    0,000000000e+00
      954000000   -1,455169171e-01    6,002829832e-05   -3,749946654e-01    4,834620655e-01    0,000000000e+00    0,000000000e+00    0,000000000e+00    0,000000000e+00
      968000000   -9,760051221e-02    2,622660808e-02   -5,290975049e-02    6,144464016e-01    0,000000000e+00    0,000000000e+00    0,000000000e+00    0,000000000e+00
      982000000   -5,450873077e-02    3,174442798e-03    2,802498043e-01    5,525652766e-01    0,000000000e+00    0,000000000e+00    0,000000000e+00    0,000000000e+00
      996000000   -4,111096635e-02   -3,300002590e-02    5,236340761e-01    3,271775246e-01    0,000000000e+00    0,000000000e+00    0,000000000e+00    0,000000000e+00
     1010000000   -6,539566815e-02   -6,660131365e-02    6,088682413e-01    1,685952954e-02    0,000000000e+00    0,000000000e+00    0,000000000e+00    0,000000000e+00
     1024000000   -9,747962654e-02   -7,631686330e-02    5,158010721e-01   -2,828462720e-01    0,000000000e+00    0,000000000e+00    0,000000000e+00    0,000000000e+00
     1038000000   -1,396452338e-01   -6,057754904e-02    2,959196866e-01   -4,720098674e-01    0,000000000e+00    0,000000000e+00    0,000000000e+00    0,000000000e+00
     1052000000   -1,474122703e-01   -1,620500116e-04    3,483811766e-02   -5,254117846e-01    0,000000000e+00    0,000000000e+00    0,000000000e+00    0,000000000e+00
     1066000000   -1,085590720e-01    3,782285377e-02   -2,045879066e-01   -4,660058022e-01    0,000000000e+00    0,000000000e+00    0,000000000e+00    0,000000000e+00
     1080000000   -5,382532999e-02    2,373010479e-02   -4,138051569e-01   -2,961842418e-01    0,000000000e+00    0,000000000e+00    0,000000000e+00    0,000000000e+00
     1094000000   -3,224625811e-02   -9,996550158e-03   -5,217036009e-01   -2,452617325e-02    0,000000000e+00    0,000000000e+00    0,000000000e+00    0,000000000e+00
     1108000000   -2,855905145e-02   -3,216757998e-02   -4,430655241e-01    2,834224701e-01    0,000000000e+00    0,000000000e+00    0,000000000e+00    0,000000000e+00
     1122000000   -3,411726654e-02   -5,798350647e-02   -1,881791949e-01    4,951478541e-01    0,000000000e+00    0,000000000e+00    0,000000000e+00    0,000000000e+00
     1136000000   -4,432772473e-02   -9,438594431e-02    1,505283266e-01    5,193377137e-01    0,000000000e+00    0,000000000e+00    0,000000000e+00    0,000000000e+00
     1150000000   -8,025844395e-02   -1,207811460e-01    4,529943168e-01    3,479819894e-01    0,000000000e+00    0,000000000e+00    0,000000000e+00    0,000000000e+00
     1164000000   -1,371746361e-01   -1,262067705e-01    6,122642159e-01    1,356292330e-02    0,000000000e+00    0,000000000e+00    0,000000000e+00    0,000000000e+00
     1178000000   -1,735940129e-01   -8,911402524e-02    5,381026268e-01   -3,697234988e-01    0,000000000e+00    0,000000000e+00    0,000000000e+00    0,000000000e+00
     1192000000   -1,821018457e-01   -5,852856860e-02    2,431232333e-01   -6,409327984e-01    0,000000000e+00    0,000000000e+00    0,000000000e+00    0,000000000e+00
     1206000000   -1,907039285e-01   -5,706723034e-02   -1,392153949e-01   -6,638001204e-01    0,000000000e+00    0,000000000e+00    0,000000000e+00    0,000000000e+00
     1220000000   -2,555833459e-01   -1,429441106e-02   -4,239710867e-01   -4,804231524e-01    0,000000000e+00    0,000000000e+00    0,000000000e+00    0,000000000e+00
     1234000000   -2,376497537e-01    1,126266345e-01   -5,574221015e-01   -2,525645792e-01    0,000000000e+00    0,000000000e+00    0,000000000e+00    0,000000000e+00
     1248000000   -1,198263764e-01    1,763001531e-01   -6,026006341e-01    2,178933285e-02    0,000000000e+00    0,000000000e+00    0,000000000e+00    0,000000000e+00
     1262000000   -1,603147684e-04    1,334003955e-01   -5,042662621e-01    2,979195714e-01    0,000000000e+00    0,000000000e+00    0,000000000e+00    0,000000000e+00
     1276000000    6,344368309e-02    3,627048805e-02   -2,765191495e-01    4,838900268e-01    0,000000000e+00    0,000000000e+00    0,000000000e+00    0,000000000e+00
     1290000000    7,385036349e-02   -7,018812001e-02    1,073746197e-02    5,479769707e-01    0,000000000e+00    0,000000000e+00    0,000000000e+00    0,000000000e+00
     1304000000    1,925607771e-02   -1,781238168e-01    3,038703799e-01    4,799503684e-01    0,000000000e+00    0,000000000e+00    0,000000000e+00    0,000000000e+00
     1318000000   -9,710251540e-02   -2,488351762e-01    5,343813300e-01    2,724570930e-01    0,000000000e+00    0,000000000e+00    0,000000000e+00    0,000000000e+00
     1332000000   -2,454151660e-01   -2,435239404e-01    6,467075944e-01   -4,849039018e-02    0,000000000e+00    0,000000000e+00    0,000000000e+00    0,000000000e+00
     1346000000   -3,608863950e-01   -1,381818950e-01    5,586014390e-01   -3,969076872e-01    0,000000000e+00    0,000000000e+00    0,000000000e+00    0,000000000e+00
     1360000000   -3,866494298e-01    6,564913318e-03    2,508595586e-01   -6,429529786e-01    0,000000000e+00    0,000000000e+00    0,000000000e+00    0,000000000e+00
     1374000000   -3,253773153e-01    1,189386919e-01   -1,012105346e-01   -6,271548271e-01    0,000000000e+00    0,000000000e+00    0,000000000e+00    0,000000000e+00
     1388000000   -2,368785739e-01    1,704081595e-01   -3,751251400e-01   -4,161311090e-01    0,000000000e+00    0,000000000e+00    0,000000000e+00    0,000000000e+00
     1402000000   -1,589570493e-01    1,693445146e-01   -4,776800871e-01   -1,082837284e-01    0,000000000e+00    0,000000000e+00    0,000000000e+00    0,000000000e+00
     1416000000   -8,525507152e-02    1,386010796e-01   -3,943403661e-01    2,095869631e-01    0,000000000e+00    0,000000000e+00    0,000000000e+00    0,000000000e+00
     1430000000   -3,188801184e-02    8,528637886e-02   -1,692583114e-01    4,151423275e-01    0,000000000e+00    0,000000000e+00    0,000000000e+00    0,000000000e+00
     1444000000   -9,686346166e-03    1,131459326e-02    1,209720373e-01    5,258865356e-01    0,000000000e+00    0,000000000e+00    0,000000000e+00    0,000000000e+00
     1458000000   -3,788283840e-02   -8,474094421e-02    4,410135150e-01    4,836308062e-01    0,000000000e+00    0,000000000e+00    0,000000000e+00    0,000000000e+00
     1472000000   -1,288965493e-01   -1,433413178e-01    7,211567163e-01    3,196652234e-01    0,000000000e+00    0,000000000e+00    0,000000000e+00    0,000000000e+00
     1486000000   -2,318639606e-01   -1,419436336e-01    9,109138846e-01   -2,071687952e-02    0,000000000e+00    0,000000000e+00    0,000000000e+00    0,000000000e+00
     1500000000   -2,967565060e-01   -6,145405397e-02    8,465964198e-01   -4,361569583e-01    0,000000000e+00    0,000000000e+00    0,000000000e+00    0,000000000e+00
