! NanoVNA-App
! Date: 2025-09-25 15:02:30
! Start: 100MHz Stop: 1,5GHz Points: 101
! S-Parameter data: F S11 S21 S12 S22
# Hz S RI R 50
!     Frequency           S11_Real           S11_Imag           S21_Real           S21_Imag           S12_Real           S12_Imag           S22_Real           S22_Imag
      100000000    3,559579700e-02    2,737684548e-02    4,407697320e-01   -6,695467234e-01    0,000000000e+00    0,000000000e+00    0,000000000e+00    0,000000000e+00
      114000000    6,073480844e-02    2,188801067e-03    1,273408253e-02   -7,954083681e-01    0,000000000e+00    0,000000000e+00    0,000000000e+00    0,000000000e+00
      128000000    6,841013581e-02   -4,224387556e-02   -4,081385434e-01   -6,779490113e-01    0,000000000e+00    0,000000000e+00    0,000000000e+00    0,000000000e+00
      142000000    4,350928962e-02   -8,880812675e-02   -7,050926685e-01   -3,610258400e-01    0,000000000e+00    0,000000000e+00    0,000000000e+00    0,000000000e+00
      156000000   -8,741836064e-03   -1,102516502e-01   -7,942414284e-01    6,797675788e-02    0,000000000e+00    0,000000000e+00    0,000000000e+00    0,000000000e+00
      170000000   -6,262236834e-02   -9,181462973e-02   -6,370100379e-01    4,864147007e-01    0,000000000e+00    0,000000000e+00    0,000000000e+00    0,000000000e+00
      184000000   -8,857265860e-02   -4,766449705e-02   -2,732776999e-01    7,563812733e-01    0,000000000e+00    0,000000000e+00    0,000000000e+00    0,000000000e+00
      198000000   -8,276017755e-02   -6,441955455e-03    1,797354817e-01    7,825778127e-01    0,000000000e+00    0,000000000e+00    0,000000000e+00    0,000000000e+00
      212000000   -6,272374839e-02    1,808339730e-02    5,704010725e-01    5,584124923e-01    0,000000000e+00    0,000000000e+00    0,000000000e+00    0,000000000e+00
      226000000   -4,151296988e-02    3,185702860e-02    7,767191529e-01    1,618530154e-01    0,000000000e+00    0,000000000e+00    0,000000000e+00    0,000000000e+00
      240000000   -1,494634990e-02    4,133860022e-02    7,363001108e-01   -2,788401246e-01    0,000000000e+00    0,000000000e+00    0,000000000e+00    0,000000000e+00
      254000000    2,142405882e-02    3,632412478e-02    4,679892063e-01   -6,219366193e-01    0,000000000e+00    0,000000000e+00    0,000000000e+00    0,000000000e+00
      268000000    5,334705487e-02    4,772808868e-03    6,675722450e-02   -7,675318718e-01    0,000000000e+00    0,000000000e+00    0,000000000e+00    0,000000000e+00
      282000000    5,747769773e-02   -4,488879815e-02   -3,453453779e-01   -6,826583147e-01    0,000000000e+00    0,000000000e+00    0,000000000e+00    0,000000000e+00
      296000000    2,613374591e-02   -8,480393142e-02   -6,549769044e-01   -3,975817561e-01    0,000000000e+00    0,000000000e+00    0,000000000e+00    0,000000000e+00
      310000000   -1,898022555e-02   -8,958557248e-02   -7,744163871e-01    1,135453768e-02    0,000000000e+00    0,000000000e+00    0,000000000e+00    0,000000000e+00
      324000000   -4,662960768e-02   -6,348229945e-02   -6,477513313e-01    4,291999340e-01    0,000000000e+00    0,000000000e+00    0,000000000e+00    0,000000000e+00
      338000000   -4,109378532e-02   -3,791944310e-02   -3,122329712e-01    7,102158666e-01    0,000000000e+00    0,000000000e+00    0,000000000e+00    0,000000000e+00
      352000000   -2,366312779e-02   -3,778244928e-02    1,190316677e-01    7,580311298e-01    0,000000000e+00    0,000000000e+00    0,000000000e+00    0,000000000e+00
      366000000   -2,276042290e-02   -5,621466786e-02    5,022051334e-01    5,707587004e-01    0,000000000e+00    0,000000000e+00    0,000000000e+00    0,000000000e+00
      380000000   -4,482368380e-02   -6,559682637e-02    7,263739109e-01    2,116648853e-01    0,000000000e+00    0,000000000e+00    0,000000000e+00    0,000000000e+00
      394000000   -6,629701704e-02   -5,049446225e-02    7,233996987e-01   -2,134699970e-01    0,000000000e+00    0,000000000e+00    0,000000000e+00    0,000000000e+00
      408000000   -6,751844287e-02   -2,638108283e-02    4,896777570e-01   -5,690155029e-01    0,000000000e+00    0,000000000e+00    0,000000000e+00    0,000000000e+00
      422000000   -5,344382674e-02   -1,547927968e-02    1,058680713e-01   -7,389244437e-01    0,000000000e+00    0,000000000e+00    0,000000000e+00    0,000000000e+00
      436000000   -4,641012475e-02   -1,876071654e-02   -3,062353134e-01   -6,765760183e-01    0,000000000e+00    0,000000000e+00    0,000000000e+00    0,000000000e+00
      450000000   -5,200802162e-02   -1,532525104e-02   -6,189820170e-01   -4,001660645e-01    0,000000000e+00    0,000000000e+00    0,000000000e+00    0,000000000e+00
      464000000   -5,063884705e-02    5,746927578e-03   -7,301207185e-01    3,250068752e-03    0,000000000e+00    0,000000000e+00    0,000000000e+00    0,000000000e+00
      478000000   -2,046732232e-02    2,642909437e-02   -5,985109806e-01    3,976363540e-01    0,000000000e+00    0,000000000e+00    0,000000000e+00    0,000000000e+00
      492000000    2,841438726e-02    1,483667456e-02   -2,799686491e-01    6,441821456e-01    0,000000000e+00    0,000000000e+00    0,000000000e+00    0,000000000e+00
      506000000    5,931844190e-02   -3,751973063e-02    1,060106382e-01    6,797559261e-01    0,000000000e+00    0,000000000e+00    0,000000000e+00    0,000000000e+00
      520000000    4,432664067e-02   -1,038358435e-01    4,443092644e-01    5,173393488e-01    0,000000000e+00    0,000000000e+00    0,000000000e+00    0,000000000e+00
      534000000   -1,307644323e-02   -1,445560008e-01    6,490195990e-01    2,050121129e-01    0,000000000e+00    0,000000000e+00    0,000000000e+00    0,000000000e+00
      548000000   -8,200255036e-02   -1,402504146e-01    6,598625779e-01   -1,767304987e-01    0,000000000e+00    0,000000000e+00    0,000000000e+00    0,000000000e+00
      562000000   -1,318982989e-01   -9,806107730e-02    4,502195120e-01   -5,087491274e-01    0,000000000e+00    0,000000000e+00    0,000000000e+00    0,000000000e+00
      576000000   -1,503304988e-01   -3,843455762e-02    8,187661320e-02   -6,605516672e-01    0,000000000e+00    0,000000000e+00    0,000000000e+00    0,000000000e+00
      590000000   -1,297975034e-01    3,062235191e-02   -2,966164649e-01   -5,635061860e-01    0,000000000e+00    0,000000000e+00    0,000000000e+00    0,000000000e+00
      604000000   -3,566902876e-02    6,830956787e-02   -4,853285551e-01   -2,695338726e-01    0,000000000e+00    0,000000000e+00    0,000000000e+00    0,000000000e+00
      618000000    3,392127156e-02   -3,406194597e-02   -4,936670065e-01   -5,500455946e-02    0,000000000e+00    0,000000000e+00    0,000000000e+00    0,000000000e+00
      632000000   -5,555369332e-02   -9,158497304e-02   -5,289398432e-01    1,779702157e-01    0,000000000e+00    0,000000000e+00    0,000000000e+00    0,000000000e+00
      646000000   -9,919429570e-02   -3,204063699e-02   -3,791274428e-01    4,790458977e-01    0,000000000e+00    0,000000000e+00    0,000000000e+00    0,000000000e+00
      660000000   -6,806661934e-02    9,430373088e-03   -4,888316244e-02    6,256373525e-01    0,000000000e+00    0,000000000e+00    0,000000000e+00    0,000000000e+00
      674000000   -3,021594882e-02    4,543313291e-03    2,987315655e-01    5,526306629e-01    0,000000000e+00    0,000000000e+00    0,000000000e+00    0,000000000e+00
      688000000   -1,477133762e-02   -1,794527844e-02    5,475732684e-01    3,029735982e-01    0,000000000e+00    0,000000000e+00    0,000000000e+00    0,000000000e+00
      702000000   -1,442139316e-02   -3,392388299e-02    6,229975224e-01   -4,269077629e-02    0,000000000e+00    0,000000000e+00    0,000000000e+00    0,000000000e+00
      716000000   -1,079122350e-02   -4,854972661e-02    4,918017983e-01   -3,682131767e-01    0,000000000e+00    0,000000000e+00    0,000000000e+00    0,000000000e+00
      730000000   -7,759639062e-03   -7,503158599e-02    2,106608003e-01   -5,676460862e-01    0,000000000e+00    0,000000000e+00    0,000000000e+00    0,000000000e+00
      744000000   -2,568183094e-02   -1,110365689e-01   -1,238832548e-01   -5,872350335e-01    0,000000000e+00    0,000000000e+00    0,000000000e+00    0,000000000e+00
      758000000   -7,359059900e-02   -1,326012164e-01   -4,200356901e-01   -4,318388104e-01    0,000000000e+00    0,000000000e+00    0,000000000e+00    0,000000000e+00
      772000000   -1,353859901e-01   -1,160482317e-01   -5,937630534e-01   -1,400348693e-01    0,000000000e+00    0,000000000e+00    0,000000000e+00    0,000000000e+00
      786000000   -1,715437621e-01   -5,815263838e-02   -5,818915367e-01    2,094662040e-01    0,000000000e+00    0,000000000e+00    0,000000000e+00    0,000000000e+00
      800000000   -1,596517563e-01    5,913907196e-03   -3,735431135e-01    4,958332181e-01    0,000000000e+00    0,000000000e+00    0,000000000e+00    0,000000000e+00
      814000000   -1,149278283e-01    4,178692773e-02   -4,588150978e-02    6,136139631e-01    0,000000000e+00    0,000000000e+00    0,000000000e+00    0,000000000e+00
      828000000   -6,938069314e-02    4,433623329e-02    2,861508131e-01    5,400863886e-01    0,000000000e+00    0,000000000e+00    0,000000000e+00    0,000000000e+00
      842000000   -3,952947631e-02    2,906758711e-02    5,206432343e-01    3,057499826e-01    0,000000000e+00    0,000000000e+00    0,000000000e+00    0,000000000e+00
      856000000   -1,792896725e-02    1,221605763e-02    5,945358276e-01   -1,383781526e-02    0,000000000e+00    0,000000000e+00    0,000000000e+00    0,000000000e+00
      870000000    1,978782937e-03   -1,143206935e-02    4,864253402e-01   -3,165262938e-01    0,000000000e+00    0,000000000e+00    0,000000000e+00    0,000000000e+00
      884000000    1,401067059e-02   -5,192608759e-02    2,436357290e-01   -5,119153261e-01    0,000000000e+00    0,000000000e+00    0,000000000e+00    0,000000000e+00
      898000000   -3,218325088e-03   -1,021908000e-01   -5,856183171e-02   -5,542380810e-01    0,000000000e+00    0,000000000e+00    0,000000000e+00    0,000000000e+00
      912000000   -6,250061095e-02   -1,316113472e-01   -3,986003995e-01   -4,144593775e-01    0,000000000e+00    0,000000000e+00    0,000000000e+00    0,000000000e+00
      926000000   -1,257929206e-01   -1,174652353e-01   -5,644164681e-01   -1,473887265e-01    0,000000000e+00    0,000000000e+00    0,000000000e+00    0,000000000e+00
      940000000   -1,643190682e-01   -6,526460499e-02   -5,688921809e-01    1,929915100e-01    0,000000000e+00    0,000000000e+00    0,000000000e+00    0,000000000e+00
      954000000   -1,484960765e-01    2,175763482e-03   -3,742309511e-01    4,847356975e-01    0,000000000e+00    0,000000000e+00    0,000000000e+00    0,000000000e+00
      968000000   -9,490524232e-02    2,390279248e-02   -5,275439098e-02    6,143997908e-01    0,000000000e+00    0,000000000e+00    0,000000000e+00    0,000000000e+00
      982000000   -5,680305511e-02    4,723195918e-03    2,808195055e-01    5,523089170e-01    0,000000000e+00    0,000000000e+00    0,000000000e+00    0,000000000e+00
      996000000   -4,352413863e-02   -3,081998602e-02    5,243437290e-01    3,259659708e-01    0,000000000e+00    0,000000000e+00    0,000000000e+00    0,000000000e+00
     1010000000   -6,048192084e-02   -6,879853457e-02    6,076976657e-01    1,492211781e-02    0,000000000e+00    0,000000000e+00    0,000000000e+00    0,000000000e+00
     1024000000   -1,047685593e-01   -7,650418580e-02    5,173843503e-01   -2,819261849e-01    0,000000000e+00    0,000000000e+00    0,000000000e+00    0,000000000e+00
     1038000000   -1,438451260e-01   -5,616148189e-02    2,966028750e-01   -4,697197378e-01    0,000000000e+00    0,000000000e+00    0,000000000e+00    0,000000000e+00
     1052000000   -1,494839787e-01   -3,338173497e-03    3,714585677e-02   -5,244220495e-01    0,000000000e+00    0,000000000e+00    0,000000000e+00    0,000000000e+00
     1066000000   -1,054348648e-01    4,097883403e-02   -2,110507190e-01   -4,689674079e-01    0,000000000e+00    0,000000000e+00    0,000000000e+00    0,000000000e+00
     1080000000   -5,140520632e-02    2,652972192e-02   -4,180843830e-01   -3,001797497e-01    0,000000000e+00    0,000000000e+00    0,000000000e+00    0,000000000e+00
     1094000000   -3,242870048e-02   -6,926537026e-03   -5,224460959e-01   -2,323191054e-02    0,000000000e+00    0,000000000e+00    0,000000000e+00    0,000000000e+00
     1108000000   -3,431709483e-02   -2,986843511e-02   -4,428963959e-01    2,875890136e-01    0,000000000e+00    0,000000000e+00    0,000000000e+00    0,000000000e+00
     1122000000   -3,317033127e-02   -5,595613644e-02   -1,844653785e-01    4,992179573e-01    0,000000000e+00    0,000000000e+00    0,000000000e+00    0,000000000e+00
     1136000000   -4,482735321e-02   -9,556076676e-02    1,536312252e-01    5,221685171e-01    0,000000000e+00    0,000000000e+00    0,000000000e+00    0,000000000e+00
     1150000000   -8,484447747e-02   -1,211289987e-01    4,548164904e-01    3,437045813e-01    0,000000000e+00    0,000000000e+00    0,000000000e+00    0,000000000e+00
     1164000000   -1,354399174e-01   -1,217463166e-01    6,145532131e-01    1,204831060e-02    0,000000000e+00    0,000000000e+00    0,000000000e+00    0,000000000e+00
     1178000000   -1,769024581e-01   -9,055367857e-02    5,392363071e-01   -3,732780516e-01    0,000000000e+00    0,000000000e+00    0,000000000e+00    0,000000000e+00
     1192000000   -1,780358702e-01   -5,724584684e-02    2,459941953e-01   -6,364027262e-01    0,000000000e+00    0,000000000e+00    0,000000000e+00    0,000000000e+00
     1206000000   -1,949194223e-01   -5,474460497e-02   -1,400876939e-01   -6,559950113e-01    0,000000000e+00    0,000000000e+00    0,000000000e+00    0,000000000e+00
     1220000000   -2,532317340e-01   -1,279122941e-02   -4,159407318e-01   -4,889184833e-01    0,000000000e+00    0,000000000e+00    0,000000000e+00    0,000000000e+00
     1234000000   -2,387085557e-01    1,130071878e-01   -5,591408014e-01   -2,533142269e-01    0,000000000e+00    0,000000000e+00    0,000000000e+00    0,000000000e+00
     1248000000   -1,078457162e-01    1,729480624e-01   -6,084897518e-01    1,660985872e-02    0,000000000e+00    0,000000000e+00    0,000000000e+00    0,000000000e+00
     1262000000   -3,643349046e-03    1,336254030e-01   -5,096524358e-01    3,023076057e-01    0,000000000e+00    0,000000000e+00    0,000000000e+00    0,000000000e+00
     1276000000    6,381959468e-02    4,161034897e-02   -2,757148743e-01    4,835728109e-01    0,000000000e+00    0,000000000e+00    0,000000000e+00    0,000000000e+00
     1290000000    7,027819008e-02   -7,229834050e-02    1,010374725e-02    5,485120416e-01    0,000000000e+00    0,000000000e+00    0,000000000e+00    0,000000000e+00
     1304000000    2,017759345e-02   -1,790584773e-01    3,025077581e-01    4,845513701e-01    0,000000000e+00    0,000000000e+00    0,000000000e+00    0,000000000e+00
     1318000000   -9,378273785e-02   -2,535691857e-01    5,390072465e-01    2,719005048e-01    0,000000000e+00    0,000000000e+00    0,000000000e+00    0,000000000e+00
     1332000000   -2,482271940e-01   -2,475367934e-01    6,563978195e-01   -5,443033949e-02    0,000000000e+00    0,000000000e+00    0,000000000e+00    0,000000000e+00
     1346000000   -3,590673506e-01   -1,411178857e-01    5,606994033e-01   -4,156336486e-01    0,000000000e+00    0,000000000e+00    0,000000000e+00    0,000000000e+00
     1360000000   -3,815271556e-01    5,621243268e-03    2,514705956e-01   -6,394051909e-01    0,000000000e+00    0,000000000e+00    0,000000000e+00    0,000000000e+00
     1374000000   -3,241260946e-01    1,188305691e-01   -1,126875579e-01   -6,170611978e-01    0,000000000e+00    0,000000000e+00    0,000000000e+00    0,000000000e+00
     1388000000   -2,343973666e-01    1,666191518e-01   -3,753569424e-01   -4,238660336e-01    0,000000000e+00    0,000000000e+00    0,000000000e+00    0,000000000e+00
     1402000000   -1,519654691e-01    1,687598079e-01   -4,759336114e-01   -1,121757105e-01    0,000000000e+00    0,000000000e+00    0,000000000e+00    0,000000000e+00
     1416000000   -8,576556295e-02    1,390190721e-01   -3,923364580e-01    2,027244568e-01    0,000000000e+00    0,000000000e+00    0,000000000e+00    0,000000000e+00
     1430000000   -3,199834004e-02    8,644114435e-02   -1,655484885e-01    4,195855558e-01    0,000000000e+00    0,000000000e+00    0,000000000e+00    0,000000000e+00
     1444000000   -1,111018192e-02    8,623626083e-03    1,280368268e-01    5,278151631e-01    0,000000000e+00    0,000000000e+00    0,000000000e+00    0,000000000e+00
     1458000000   -4,135239869e-02   -8,144538850e-02    4,408938587e-01    4,922027886e-01    0,000000000e+00    0,000000000e+00    0,000000000e+00    0,000000000e+00
     1472000000   -1,179805025e-01   -1,423230767e-01    7,396188378e-01    3,125352263e-01    0,000000000e+00    0,000000000e+00    0,000000000e+00    0,000000000e+00
     1486000000   -2,327431887e-01   -1,417894810e-01    8,925998807e-01   -4,093521833e-02    0,000000000e+00    0,000000000e+00    0,000000000e+00    0,000000000e+00
     1500000000   -2,984360456e-01   -7,079757005e-02    8,517748713e-01   -4,191019833e-01    0,000000000e+00    0,000000000e+00    0,000000000e+00    0,000000000e+00
