! NanoVNA-App
! Date: 2025-09-25 15:02:40
! Start: 100MHz Stop: 1,5GHz Points: 101
! S-Parameter data: F S11 S21 S12 S22
# Hz S RI R 50
!     Frequency           S11_Real           S11_Imag           S21_Real           S21_Imag           S12_Real           S12_Imag           S22_Real           S22_Imag
      100000000    3,560476750e-02    2,737602405e-02    4,407800734e-01   -6,695538163e-01    0,000000000e+00    0,000000000e+00    0,000000000e+00    0,000000000e+00
      114000000    6,071841717e-02    2,178920433e-03    1,301909983e-02   -7,952502966e-01    0,000000000e+00    0,000000000e+00    0,000000000e+00    0,000000000e+00
      128000000    6,842548400e-02   -4,228012264e-02   -4,081081450e-01   -6,781736016e-01    0,000000000e+00    0,000000000e+00    0,000000000e+00    0,000000000e+00
      142000000    4,348050803e-02   -8,877987415e-02   -7,052263021e-01   -3,611903787e-01    0,000000000e+00    0,000000000e+00    0,000000000e+00    0,000000000e+00
      156000000   -9,645009413e-03   -1,098464653e-01   -7,926234007e-01    6,758082658e-02    0,000000000e+00    0,000000000e+00    0,000000000e+00    0,000000000e+00
      170000000   -6,271433085e-02   -9,175137430e-02   -6,368880868e-01    4,864695966e-01    0,000000000e+00    0,000000000e+00    0,000000000e+00    0,000000000e+00
      184000000   -8,864413202e-02   -4,771147296e-02   -2,732779980e-01    7,563890219e-01    0,000000000e+00    0,000000000e+00    0,000000000e+00    0,000000000e+00
      198000000   -8,277481049e-02   -6,444289815e-03    1,796839386e-01    7,822976112e-01    0,000000000e+00    0,000000000e+00    0,000000000e+00    0,000000000e+00
      212000000   -6,268823147e-02    1,804550365e-02    5,705623031e-01    5,584257841e-01    0,000000000e+00    0,000000000e+00    0,000000000e+00    0,000000000e+00
      226000000   -4,147496074e-02    3,187450394e-02    7,767962217e-01    1,618103087e-01    0,000000000e+00    0,000000000e+00    0,000000000e+00    0,000000000e+00
      240000000   -1,494175103e-02    4,131419212e-02    7,361708283e-01   -2,785503268e-01    0,000000000e+00    0,000000000e+00    0,000000000e+00    0,000000000e+00
      254000000    2,138640173e-02    3,632228076e-02    4,680029750e-01   -6,217801571e-01    0,000000000e+00    0,000000000e+00    0,000000000e+00    0,000000000e+00
      268000000    5,333828926e-02    4,732604604e-03    6,681877375e-02   -7,674534321e-01    0,000000000e+00    0,000000000e+00    0,000000000e+00    0,000000000e+00
      282000000    5,748282000e-02   -4,492463544e-02   -3,459807336e-01   -6,825796962e-01    0,000000000e+00    0,000000000e+00    0,000000000e+00    0,000000000e+00
      296000000    2,602574043e-02   -8,476725966e-02   -6,547141075e-01   -3,976651430e-01    0,000000000e+00    0,000000000e+00    0,000000000e+00    0,000000000e+00
      310000000   -1,887472160e-02   -8,920233697e-02   -7,743150592e-01    1,133240480e-02    0,000000000e+00    0,000000000e+00    0,000000000e+00    0,000000000e+00
      324000000   -4,652646556e-02   -6,358230859e-02   -6,480502486e-01    4,293194115e-01    0,000000000e+00    0,000000000e+00    0,000000000e+00    0,000000000e+00
      338000000   -4,119709134e-02   -3,800277412e-02   -3,116258681e-01    7,092983127e-01    0,000000000e+00    0,000000000e+00    0,000000000e+00    0,000000000e+00
      352000000   -2,346836217e-02   -3,772171587e-02    1,202870384e-01    7,577287555e-01    0,000000000e+00    0,000000000e+00    0,000000000e+00    0,000000000e+00
      366000000   -2,313129976e-02   -5,653972179e-02    5,033263564e-01    5,719884634e-01    0,000000000e+00    0,000000000e+00    0,000000000e+00    0,000000000e+00
      380000000   -4,497988150e-02   -6,518437713e-02    7,261095047e-01    2,118329108e-01    0,000000000e+00    0,000000000e+00    0,000000000e+00    0,000000000e+00
      394000000   -6,635264307e-02   -5,057486519e-02    7,238893509e-01   -2,136756778e-01    0,000000000e+00    0,000000000e+00    0,000000000e+00    0,000000000e+00
      408000000   -6,762941927e-02   -2,638101950e-02    4,895035625e-01   -5,692194104e-01    0,000000000e+00    0,000000000e+00    0,000000000e+00    0,000000000e+00
      422000000   -5,320664868e-02   -1,553442702e-02    1,051178575e-01   -7,388803959e-01    0,000000000e+00    0,000000000e+00    0,000000000e+00    0,000000000e+00
      436000000   -4,657243192e-02   -1,855204813e-02   -3,063204288e-01   -6,764239669e-01    0,000000000e+00    0,000000000e+00    0,000000000e+00    0,000000000e+00
      450000000   -5,217852816e-02   -1,485765725e-02   -6,192795634e-01   -3,997282386e-01    0,000000000e+00    0,000000000e+00    0,000000000e+00    0,000000000e+00
      464000000   -5,016304180e-02    6,032412872e-03   -7,295786738e-01    3,480883082e-03    0,000000000e+00    0,000000000e+00    0,000000000e+00    0,000000000e+00
      478000000   -2,020258643e-02    2,618779428e-02   -5,988855958e-01    3,970880210e-01    0,000000000e+00    0,000000000e+00    0,000000000e+00    0,000000000e+00
      492000000    2,854020894e-02    1,450618356e-02   -2,799562216e-01    6,436365843e-01    0,000000000e+00    0,000000000e+00    0,000000000e+00    0,000000000e+00
      506000000    5,900158361e-02   -3,758211806e-02    1,046331897e-01    6,796403527e-01    0,000000000e+00    0,000000000e+00    0,000000000e+00    0,000000000e+00
      520000000    4,462580010e-02   -1,027845368e-01    4,440724850e-01    5,200971961e-01    0,000000000e+00    0,000000000e+00    0,000000000e+00    0,000000000e+00
      534000000   -1,289598551e-02   -1,441697776e-01    6,493595839e-01    2,055546641e-01    0,000000000e+00    0,000000000e+00    0,000000000e+00    0,000000000e+00
      548000000   -8,225746453e-02   -1,402429193e-01    6,593798995e-01   -1,763237715e-01    0,000000000e+00    0,000000000e+00    0,000000000e+00    0,000000000e+00
      562000000   -1,313903034e-01   -9,763372689e-02    4,507333040e-01   -5,084310174e-01    0,000000000e+00    0,000000000e+00    0,000000000e+00    0,000000000e+00
      576000000   -1,502757072e-01   -3,825429827e-02    8,153296262e-02   -6,595370173e-01    0,000000000e+00    0,000000000e+00    0,000000000e+00    0,000000000e+00
      590000000   -1,295989752e-01    3,073036671e-02   -2,956249416e-01   -5,628210306e-01    0,000000000e+00    0,000000000e+00    0,000000000e+00    0,000000000e+00
      604000000   -3,540626913e-02    6,824773550e-02   -4,848519862e-01   -2,697388530e-01    0,000000000e+00    0,000000000e+00    0,000000000e+00    0,000000000e+00
      618000000    3,424765542e-02   -3,329358995e-02   -4,937438369e-01   -5,485333875e-02    0,000000000e+00    0,000000000e+00    0,000000000e+00    0,000000000e+00
      632000000   -5,509865284e-02   -9,249503911e-02   -5,288445950e-01    1,778073013e-01    0,000000000e+00    0,000000000e+00    0,000000000e+00    0,000000000e+00
      646000000   -9,971025586e-02   -3,310771286e-02   -3,796978295e-01    4,788413048e-01    0,000000000e+00    0,000000000e+00    0,000000000e+00    0,000000000e+00
      660000000   -6,778917462e-02    9,766351432e-03   -5,110726878e-02    6,256055236e-01    0,000000000e+00    0,000000000e+00    0,000000000e+00    0,000000000e+00
      674000000   -2,930923179e-02    5,027899519e-03    2,993398309e-01    5,532887578e-01    0,000000000e+00    0,000000000e+00    0,000000000e+00    0,000000000e+00
      688000000   -1,522458810e-02   -1,903302036e-02    5,474364161e-01    3,034080267e-01    0,000000000e+00    0,000000000e+00    0,000000000e+00    0,000000000e+00
      702000000   -1,320982818e-02   -3,485255688e-02    6,198500991e-01   -4,226368666e-02    0,000000000e+00    0,000000000e+00    0,000000000e+00    0,000000000e+00
      716000000   -1,018929854e-02   -4,795731232e-02    4,917958677e-01   -3,685918450e-01    0,000000000e+00    0,000000000e+00    0,000000000e+00    0,000000000e+00
      730000000   -7,631951943e-03   -7,412336767e-02    2,112818211e-01   -5,683319569e-01    0,000000000e+00    0,000000000e+00    0,000000000e+00    0,000000000e+00
      744000000   -2,654965222e-02   -1,108335406e-01   -1,238156557e-01   -5,889412761e-01    0,000000000e+00    0,000000000e+00    0,000000000e+00    0,000000000e+00
      758000000   -7,440523803e-02   -1,331397891e-01   -4,194841683e-01   -4,321950674e-01    0,000000000e+00    0,000000000e+00    0,000000000e+00    0,000000000e+00
      772000000   -1,344732940e-01   -1,161884293e-01   -5,936248899e-01   -1,399984956e-01    0,000000000e+00    0,000000000e+00    0,000000000e+00    0,000000000e+00
      786000000   -1,721970141e-01   -5,901185051e-02   -5,810804367e-01    2,098359615e-01    0,000000000e+00    0,000000000e+00    0,000000000e+00    0,000000000e+00
      800000000   -1,600467861e-01    7,030822337e-03   -3,730298877e-01    4,959977865e-01    0,000000000e+00    0,000000000e+00    0,000000000e+00    0,000000000e+00
      814000000   -1,149775013e-01    4,283139110e-02   -4,596726969e-02    6,152055860e-01    0,000000000e+00    0,000000000e+00    0,000000000e+00    0,000000000e+00
      828000000   -6,847327948e-02    4,419958964e-02    2,857434750e-01    5,407414436e-01    0,000000000e+00    0,000000000e+00    0,000000000e+00    0,000000000e+00
      842000000   -3,906016797e-02    2,902938612e-02    5,210421681e-01    3,054098487e-01    0,000000000e+00    0,000000000e+00    0,000000000e+00    0,000000000e+00
      856000000   -1,766993105e-02    1,275825035e-02    5,941419601e-01   -1,397413388e-02    0,000000000e+00    0,000000000e+00    0,000000000e+00    0,000000000e+00
      870000000    2,289965050e-03   -1,072364673e-02    4,855186045e-01   -3,168013692e-01    0,000000000e+00    0,000000000e+00    0,000000000e+00    0,000000000e+00
      884000000    1,389561035e-02   -5,120485649e-02    2,431003302e-01   -5,113465786e-01    0,000000000e+00    0,000000000e+00    0,000000000e+00    0,000000000e+00
      898000000   -3,768236609e-03   -1,021334305e-01   -5,773943663e-02   -5,537833571e-01    0,000000000e+00    0,000000000e+00    0,000000000e+00    0,000000000e+00
      912000000   -6,289923191e-02   -1,324109286e-01   -3,863759041e-01   -4,104923904e-01    0,000000000e+00    0,000000000e+00    0,000000000e+00    0,000000000e+00
      926000000   -1,267299801e-01   -1,213799939e-01   -5,646173358e-01   -1,499968171e-01    0,000000000e+00    0,000000000e+00    0,000000000e+00    0,000000000e+00
      940000000   -1,608050168e-01   -6,190233678e-02   -5,698933005e-01    1,931282431e-01    0,000000000e+00    0,000000000e+00    0,000000000e+00    0,000000000e+00
      954000000   -1,476042271e-01   -3,006723011e-03   -3,735735118e-01    4,818671942e-01    0,000000000e+00    0,000000000e+00    0,000000000e+00    0,000000000e+00
      968000000   -1,003953740e-01    2,374194376e-02   -5,346735567e-02    6,149071455e-01    0,000000000e+00    0,000000000e+00    0,000000000e+00    0,000000000e+00
      982000000   -5,330977961e-02    2,726261038e-03    2,818248272e-01    5,507748127e-01    0,000000000e+00    0,000000000e+00    0,000000000e+00    0,000000000e+00
      996000000   -4,654054344e-02   -3,317075595e-02    5,224071145e-01    3,266990185e-01    0,000000000e+00    0,000000000e+00    0,000000000e+00    0,000000000e+00
     1010000000   -6,155326590e-02   -6,441838294e-02    6,070767641e-01    1,506478060e-02    0,000000000e+00    0,000000000e+00    0,000000000e+00    0,000000000e+00
     1024000000   -1,005815715e-01   -8,134856075e-02    5,139408112e-01   -2,815030813e-01    0,000000000e+00    0,000000000e+00    0,000000000e+00    0,000000000e+00
     1038000000   -1,443636119e-01   -5,559001490e-02    2,942540348e-01   -4,689916968e-01    0,000000000e+00    0,000000000e+00    0,000000000e+00    0,000000000e+00
     1052000000   -1,495649219e-01   -1,182446722e-03    3,559255600e-02   -5,236105919e-01    0,000000000e+00    0,000000000e+00    0,000000000e+00    0,000000000e+00
     1066000000   -1,065926105e-01    4,107132554e-02   -2,087603658e-01   -4,687517285e-01    0,000000000e+00    0,000000000e+00    0,000000000e+00    0,000000000e+00
     1080000000   -5,578205734e-02    2,287784219e-02   -4,200350940e-01   -2,988027632e-01    0,000000000e+00    0,000000000e+00    0,000000000e+00    0,000000000e+00
     1094000000   -3,472876549e-02   -9,329143912e-03   -5,239591002e-01   -2,355911210e-02    0,000000000e+00    0,000000000e+00    0,000000000e+00    0,000000000e+00
     1108000000   -3,642751649e-02   -3,198871762e-02   -4,415515065e-01    2,869435251e-01    0,000000000e+00    0,000000000e+00    0,000000000e+00    0,000000000e+00
     1122000000   -3,472458944e-02   -6,000316888e-02   -1,860739142e-01    4,983801842e-01    0,000000000e+00    0,000000000e+00    0,000000000e+00    0,000000000e+00
     1136000000   -4,279060289e-02   -8,976832777e-02    1,531282812e-01    5,186737776e-01    0,000000000e+00    0,000000000e+00    0,000000000e+00    0,000000000e+00
     1150000000   -7,865283638e-02   -1,261675656e-01    4,531085789e-01    3,465759158e-01    0,000000000e+00    0,000000000e+00    0,000000000e+00    0,000000000e+00
     1164000000   -1,417405754e-01   -1,227225587e-01    6,105367541e-01    1,295890659e-02    0,000000000e+00    0,000000000e+00    0,000000000e+00    0,000000000e+00
     1178000000   -1,778865308e-01   -8,890274912e-02    5,398265719e-01   -3,734792173e-01    0,000000000e+00    0,000000000e+00    0,000000000e+00    0,000000000e+00
     1192000000   -1,805504113e-01   -5,874400586e-02    2,383066118e-01   -6,338480711e-01    0,000000000e+00    0,000000000e+00    0,000000000e+00    0,000000000e+00
     1206000000   -1,887758374e-01   -5,586739630e-02   -1,367494613e-01   -6,597549319e-01    0,000000000e+00    0,000000000e+00    0,000000000e+00    0,000000000e+00
     1220000000   -2,556923032e-01   -1,350720599e-02   -4,187101424e-01   -4,880075753e-01    0,000000000e+00    0,000000000e+00    0,000000000e+00    0,000000000e+00
     1234000000   -2,421940118e-01    1,139823347e-01   -5,631811619e-01   -2,584461868e-01    0,000000000e+00    0,000000000e+00    0,000000000e+00    0,000000000e+00
     1248000000   -1,175924689e-01    1,765574664e-01   -6,102510691e-01    2,450359426e-02    0,000000000e+00    0,000000000e+00    0,000000000e+00    0,000000000e+00
     1262000000   -7,243764587e-03    1,322415769e-01   -5,122551322e-01    2,994870842e-01    0,000000000e+00    0,000000000e+00    0,000000000e+00    0,000000000e+00
     1276000000    6,357277185e-02    4,616010562e-02   -2,763479948e-01    4,872668386e-01    0,000000000e+00    0,000000000e+00    0,000000000e+00    0,000000000e+00
     1290000000    6,888098270e-02   -6,759439409e-02    1,467059460e-02    5,554660559e-01    0,000000000e+00    0,000000000e+00    0,000000000e+00    0,000000000e+00
     1304000000    1,810247637e-02   -1,838887334e-01    2,922181487e-01    4,756437242e-01    0,000000000e+00    0,000000000e+00    0,000000000e+00    0,000000000e+00
     1318000000   -9,545659274e-02   -2,562721074e-01    5,383521318e-01    2,691023648e-01    0,000000000e+00    0,000000000e+00    0,000000000e+00    0,000000000e+00
     1332000000   -2,423800230e-01   -2,431758344e-01    6,537225246e-01   -5,672601238e-02    0,000000000e+00    0,000000000e+00    0,000000000e+00    0,000000000e+00
     1346000000   -3,606872559e-01   -1,459856033e-01    5,558512211e-01   -4,165441990e-01    0,000000000e+00    0,000000000e+00    0,000000000e+00    0,000000000e+00
     1360000000   -3,886519372e-01    8,162469603e-03    2,485890538e-01   -6,319473982e-01    0,000000000e+00    0,000000000e+00    0,000000000e+00    0,000000000e+00
     1374000000   -3,265465498e-01    1,201955900e-01   -1,045913622e-01   -6,274333596e-01    0,000000000e+00    0,000000000e+00    0,000000000e+00    0,000000000e+00
     1388000000   -2,334705293e-01    1,728983074e-01   -3,768059611e-01   -4,112548530e-01    0,000000000e+00    0,000000000e+00    0,000000000e+00    0,000000000e+00
     1402000000   -1,504525393e-01    1,706984192e-01   -4,748401344e-01   -1,136781797e-01    0,000000000e+00    0,000000000e+00    0,000000000e+00    0,000000000e+00
     1416000000   -8,501385897e-02    1,433184147e-01   -3,847941160e-01    1,998154074e-01    0,000000000e+00    0,000000000e+00    0,000000000e+00    0,000000000e+00
     1430000000   -3,939106688e-02    8,338227868e-02   -1,978950351e-01    4,339967370e-01    0,000000000e+00    0,000000000e+00    0,000000000e+00    0,000000000e+00
     1444000000   -1,198026258e-02    7,581398357e-03    1,253685504e-01    5,297285318e-01    0,000000000e+00    0,000000000e+00    0,000000000e+00    0,000000000e+00
     1458000000   -3,910757974e-02   -7,914324850e-02    4,354891777e-01    4,888955653e-01    0,000000000e+00    0,000000000e+00    0,000000000e+00    0,000000000e+00
     1472000000   -1,106745675e-01   -1,504445672e-01    7,458095551e-01    3,032478094e-01    0,000000000e+00    0,000000000e+00    0,000000000e+00    0,000000000e+00
     1486000000   -2,287736684e-01   -1,334226280e-01    9,126828313e-01   -1,565207168e-02    0,000000000e+00    0,000000000e+00    0,000000000e+00    0,000000000e+00
     1500000000   -2,989944816e-01   -6,213777512e-02    8,462780714e-01   -4,014853239e-01    0,000000000e+00    0,000000000e+00    0,000000000e+00    0,000000000e+00
