! NanoVNA-App
! Date: 2025-09-25 14:59:01
! Start: 100MHz Stop: 1,5GHz Points: 101
! S-Parameter data: F S11 S21 S12 S22
# Hz S RI R 50
!     Frequency           S11_Real           S11_Imag           S21_Real           S21_Imag           S12_Real           S12_Imag           S22_Real           S22_Imag
      100000000    3,557663411e-02    2,736579441e-02    4,407580197e-01   -6,695074439e-01    0,000000000e+00    0,000000000e+00    0,000000000e+00    0,000000000e+00
      114000000    6,069870666e-02    2,172078006e-03    1,283027604e-02   -7,954080701e-01    0,000000000e+00    0,000000000e+00    0,000000000e+00    0,000000000e+00
      128000000    6,839435548e-02   -4,221690074e-02   -4,082643986e-01   -6,780889630e-01    0,000000000e+00    0,000000000e+00    0,000000000e+00    0,000000000e+00
      142000000    4,349503666e-02   -8,880002052e-02   -7,049784660e-01   -3,608773351e-01    0,000000000e+00    0,000000000e+00    0,000000000e+00    0,000000000e+00
      156000000   -9,596703574e-03   -1,100737527e-01   -7,928969264e-01    6,789743155e-02    0,000000000e+00    0,000000000e+00    0,000000000e+00    0,000000000e+00
      170000000   -6,262417138e-02   -9,173125774e-02   -6,371176243e-01    4,865553677e-01    0,000000000e+00    0,000000000e+00    0,000000000e+00    0,000000000e+00
      184000000   -8,858595788e-02   -4,771700501e-02   -2,731193006e-01    7,559977174e-01    0,000000000e+00    0,000000000e+00    0,000000000e+00    0,000000000e+00
      198000000   -8,275809139e-02   -6,464342121e-03    1,798356622e-01    7,823598981e-01    0,000000000e+00    0,000000000e+00    0,000000000e+00    0,000000000e+00
      212000000   -6,269112229e-02    1,805716939e-02    5,708063245e-01    5,584138036e-01    0,000000000e+00    0,000000000e+00    0,000000000e+00    0,000000000e+00
      226000000   -4,151591659e-02    3,184558824e-02    7,766504288e-01    1,618341208e-01    0,000000000e+00    0,000000000e+00    0,000000000e+00    0,000000000e+00
      240000000   -1,493631303e-02    4,129561782e-02    7,361549139e-01   -2,787329555e-01    0,000000000e+00    0,000000000e+00    0,000000000e+00    0,000000000e+00
      254000000    2,138782851e-02    3,633684665e-02    4,679636657e-01   -6,222889423e-01    0,000000000e+00    0,000000000e+00    0,000000000e+00    0,000000000e+00
      268000000    5,328390747e-02    4,689742811e-03    6,654518098e-02   -7,671978474e-01    0,000000000e+00    0,000000000e+00    0,000000000e+00    0,000000000e+00
      282000000    5,743534490e-02   -4,496684298e-02   -3,456463218e-01   -6,823586822e-01    0,000000000e+00    0,000000000e+00    0,000000000e+00    0,000000000e+00
      296000000    2,615107410e-02   -8,458437771e-02   -6,547951102e-01   -3,980491757e-01    0,000000000e+00    0,000000000e+00    0,000000000e+00    0,000000000e+00
      310000000   -1,899200492e-02   -8,944334090e-02   -7,732070088e-01    1,124508400e-02    0,000000000e+00    0,000000000e+00    0,000000000e+00    0,000000000e+00
      324000000   -4,664384946e-02   -6,341375411e-02   -6,485479474e-01    4,300866723e-01    0,000000000e+00    0,000000000e+00    0,000000000e+00    0,000000000e+00
      338000000   -4,111414030e-02   -3,797030821e-02   -3,108922243e-01    7,102820277e-01    0,000000000e+00    0,000000000e+00    0,000000000e+00    0,000000000e+00
      352000000   -2,352356911e-02   -3,778403997e-02    1,186963543e-01    7,577958703e-01    0,000000000e+00    0,000000000e+00    0,000000000e+00    0,000000000e+00
      366000000   -2,277022973e-02   -5,624979734e-02    5,034515858e-01    5,719119310e-01    0,000000000e+00    0,000000000e+00    0,000000000e+00    0,000000000e+00
      380000000   -4,461688176e-02   -6,504227966e-02    7,261252403e-01    2,122792155e-01    0,000000000e+00    0,000000000e+00    0,000000000e+00    0,000000000e+00
      394000000   -6,659164280e-02   -5,052866414e-02    7,229188681e-01   -2,126074880e-01    0,000000000e+00    0,000000000e+00    0,000000000e+00    0,000000000e+00
      408000000   -6,760007888e-02   -2,616465092e-02    4,892233610e-01   -5,680971146e-01    0,000000000e+00    0,000000000e+00    0,000000000e+00    0,000000000e+00
      422000000   -5,312844366e-02   -1,514321659e-02    1,059207991e-01   -7,382755280e-01    0,000000000e+00    0,000000000e+00    0,000000000e+00    0,000000000e+00
      436000000   -4,636831582e-02   -1,856776327e-02   -3,059995770e-01   -6,764778495e-01    0,000000000e+00    0,000000000e+00    0,000000000e+00    0,000000000e+00
      450000000   -5,201010033e-02   -1,512715872e-02   -6,183158159e-01   -3,997741342e-01    0,000000000e+00    0,000000000e+00    0,000000000e+00    0,000000000e+00
      464000000   -5,047383532e-02    5,792660639e-03   -7,299361229e-01    3,556850832e-03    0,000000000e+00    0,000000000e+00    0,000000000e+00    0,000000000e+00
      478000000   -2,056553774e-02    2,626132220e-02   -5,986750722e-01    3,974282742e-01    0,000000000e+00    0,000000000e+00    0,000000000e+00    0,000000000e+00
      492000000    2,808489278e-02    1,485067885e-02   -2,799046636e-01    6,446615458e-01    0,000000000e+00    0,000000000e+00    0,000000000e+00    0,000000000e+00
      506000000    5,886077881e-02   -3,727661073e-02    1,049355567e-01    6,801354885e-01    0,000000000e+00    0,000000000e+00    0,000000000e+00    0,000000000e+00
      520000000    4,457744956e-02   -1,022849753e-01    4,399401546e-01    5,198777914e-01    0,000000000e+00    0,000000000e+00    0,000000000e+00    0,000000000e+00
      534000000   -1,297878008e-02   -1,443954259e-01    6,487836838e-01    2,055793852e-01    0,000000000e+00    0,000000000e+00    0,000000000e+00    0,000000000e+00
      548000000   -8,172800392e-02   -1,402744651e-01    6,597476006e-01   -1,761877984e-01    0,000000000e+00    0,000000000e+00    0,000000000e+00    0,000000000e+00
      562000000   -1,315325052e-01   -9,775947034e-02    4,505122304e-01   -5,087969303e-01    0,000000000e+00    0,000000000e+00    0,000000000e+00    0,000000000e+00
      576000000   -1,500453949e-01   -3,857093304e-02    8,118252456e-02   -6,599296331e-01    0,000000000e+00    0,000000000e+00    0,000000000e+00    0,000000000e+00
      590000000   -1,296259761e-01    2,992913872e-02   -2,941795886e-01   -5,617418885e-01    0,000000000e+00    0,000000000e+00    0,000000000e+00    0,000000000e+00
      604000000   -3,738416731e-02    6,815714389e-02   -4,874719381e-01   -2,704645991e-01    0,000000000e+00    0,000000000e+00    0,000000000e+00    0,000000000e+00
      618000000    3,402518108e-02   -3,105806746e-02   -4,940038025e-01   -5,208813399e-02    0,000000000e+00    0,000000000e+00    0,000000000e+00    0,000000000e+00
      632000000   -5,381507799e-02   -9,238745272e-02   -5,270581841e-01    1,775001734e-01    0,000000000e+00    0,000000000e+00    0,000000000e+00    0,000000000e+00
      646000000   -9,999856353e-02   -3,387371823e-02   -3,797248006e-01    4,773652256e-01    0,000000000e+00    0,000000000e+00    0,000000000e+00    0,000000000e+00
      660000000   -6,844291091e-02    9,373573586e-03   -5,040496215e-02    6,247779727e-01    0,000000000e+00    0,000000000e+00    0,000000000e+00    0,000000000e+00
      674000000   -2,950976230e-02    4,398160614e-03    2,980151176e-01    5,524380803e-01    0,000000000e+00    0,000000000e+00    0,000000000e+00    0,000000000e+00
      688000000   -1,579836383e-02   -1,852227375e-02    5,470613837e-01    3,026451766e-01    0,000000000e+00    0,000000000e+00    0,000000000e+00    0,000000000e+00
      702000000   -1,400528383e-02   -3,491272777e-02    6,228431463e-01   -4,257623106e-02    0,000000000e+00    0,000000000e+00    0,000000000e+00    0,000000000e+00
      716000000   -1,019809488e-02   -4,767875746e-02    4,915266037e-01   -3,684403598e-01    0,000000000e+00    0,000000000e+00    0,000000000e+00    0,000000000e+00
      730000000   -7,700022310e-03   -7,398739457e-02    2,121245563e-01   -5,680991411e-01    0,000000000e+00    0,000000000e+00    0,000000000e+00    0,000000000e+00
      744000000   -2,636271715e-02   -1,101205796e-01   -1,237143055e-01   -5,876076818e-01    0,000000000e+00    0,000000000e+00    0,000000000e+00    0,000000000e+00
      758000000   -7,367405295e-02   -1,328216493e-01   -4,191565812e-01   -4,324433506e-01    0,000000000e+00    0,000000000e+00    0,000000000e+00    0,000000000e+00
      772000000   -1,357536167e-01   -1,159690544e-01   -5,937071443e-01   -1,399025470e-01    0,000000000e+00    0,000000000e+00    0,000000000e+00    0,000000000e+00
      786000000   -1,719697863e-01   -5,925315991e-02   -5,812357664e-01    2,098629326e-01    0,000000000e+00    0,000000000e+00    0,000000000e+00    0,000000000e+00
      800000000   -1,595762223e-01    5,845695268e-03   -3,730687797e-01    4,953052700e-01    0,000000000e+00    0,000000000e+00    0,000000000e+00    0,000000000e+00
      814000000   -1,151329502e-01    4,274801537e-02   -4,574726522e-02    6,148726940e-01    0,000000000e+00    0,000000000e+00    0,000000000e+00    0,000000000e+00
      828000000   -6,850611418e-02    4,430580884e-02    2,851960361e-01    5,390996933e-01    0,000000000e+00    0,000000000e+00    0,000000000e+00    0,000000000e+00
      842000000   -3,874595463e-02    2,952208929e-02    5,208891034e-01    3,057231307e-01    0,000000000e+00    0,000000000e+00    0,000000000e+00    0,000000000e+00
      856000000   -1,823862642e-02    1,309773419e-02    5,940954685e-01   -1,436759625e-02    0,000000000e+00    0,000000000e+00    0,000000000e+00    0,000000000e+00
      870000000    2,389512258e-03   -1,130664162e-02    4,862227738e-01   -3,171188533e-01    0,000000000e+00    0,000000000e+00    0,000000000e+00    0,000000000e+00
      884000000    1,400402281e-02   -5,167960376e-02    2,425771952e-01   -5,119271278e-01    0,000000000e+00    0,000000000e+00    0,000000000e+00    0,000000000e+00
      898000000   -3,646026133e-03   -1,021770686e-01   -5,872992799e-02   -5,556389689e-01    0,000000000e+00    0,000000000e+00    0,000000000e+00    0,000000000e+00
      912000000   -6,262754649e-02   -1,315000802e-01   -3,827893436e-01   -4,151442051e-01    0,000000000e+00    0,000000000e+00    0,000000000e+00    0,000000000e+00
      926000000   -1,261492372e-01   -1,168387905e-01   -5,670469403e-01   -1,461187750e-01    0,000000000e+00    0,000000000e+00    0,000000000e+00    0,000000000e+00
      940000000   -1,612008959e-01   -6,308412552e-02   -5,679331422e-01    1,919640154e-01    0,000000000e+00    0,000000000e+00    0,000000000e+00    0,000000000e+00
      954000000   -1,504438519e-01   -1,986769261e-03   -3,739300072e-01    4,839923680e-01    0,000000000e+00    0,000000000e+00    0,000000000e+00    0,000000000e+00
      968000000   -9,644584358e-02    2,613340318e-02   -5,181562901e-02    6,161091924e-01    0,000000000e+00    0,000000000e+00    0,000000000e+00    0,000000000e+00
      982000000   -5,457478762e-02    7,299705409e-03    2,823147476e-01    5,524311662e-01    0,000000000e+00    0,000000000e+00    0,000000000e+00    0,000000000e+00
      996000000   -4,497860000e-02   -3,021286614e-02    5,228816271e-01    3,268257380e-01    0,000000000e+00    0,000000000e+00    0,000000000e+00    0,000000000e+00
     1010000000   -6,406190991e-02   -6,436069310e-02    6,087941527e-01    1,569947787e-02    0,000000000e+00    0,000000000e+00    0,000000000e+00    0,000000000e+00
     1024000000   -9,701743722e-02   -7,839688659e-02    5,156769753e-01   -2,814563811e-01    0,000000000e+00    0,000000000e+00    0,000000000e+00    0,000000000e+00
     1038000000   -1,408365667e-01   -5,401496962e-02    2,966066003e-01   -4,719607234e-01    0,000000000e+00    0,000000000e+00    0,000000000e+00    0,000000000e+00
     1052000000   -1,509105563e-01   -3,724216484e-03    3,618080914e-02   -5,232218504e-01    0,000000000e+00    0,000000000e+00    0,000000000e+00    0,000000000e+00
     1066000000   -1,087267175e-01    3,864366189e-02   -2,109531313e-01   -4,670271873e-01    0,000000000e+00    0,000000000e+00    0,000000000e+00    0,000000000e+00
     1080000000   -5,389878526e-02    2,394019440e-02   -4,159290195e-01   -2,985739708e-01    0,000000000e+00    0,000000000e+00    0,000000000e+00    0,000000000e+00
     1094000000   -3,241186216e-02   -1,031133346e-02   -5,195210576e-01   -2,367558703e-02    0,000000000e+00    0,000000000e+00    0,000000000e+00    0,000000000e+00
     1108000000   -3,638524562e-02   -3,326351941e-02   -4,426816702e-01    2,838720381e-01    0,000000000e+00    0,000000000e+00    0,000000000e+00    0,000000000e+00
     1122000000   -3,351264074e-02   -5,762506649e-02   -1,847337186e-01    4,963704348e-01    0,000000000e+00    0,000000000e+00    0,000000000e+00    0,000000000e+00
     1136000000   -4,581947625e-02   -9,625269473e-02    1,512912214e-01    5,213575363e-01    0,000000000e+00    0,000000000e+00    0,000000000e+00    0,000000000e+00
     1150000000   -8,331760764e-02   -1,257398427e-01    4,533992708e-01    3,458896577e-01    0,000000000e+00    0,000000000e+00    0,000000000e+00    0,000000000e+00
     1164000000   -1,356304288e-01   -1,231462508e-01    6,116614938e-01    1,054276433e-02    0,000000000e+00    0,000000000e+00    0,000000000e+00    0,000000000e+00
     1178000000   -1,806415766e-01   -8,734748513e-02    5,388097763e-01   -3,717779517e-01    0,000000000e+00    0,000000000e+00    0,000000000e+00    0,000000000e+00
     1192000000   -1,807594448e-01   -5,783194304e-02    2,405224591e-01   -6,420220137e-01    0,000000000e+00    0,000000000e+00    0,000000000e+00    0,000000000e+00
     1206000000   -1,884513944e-01   -5,766665563e-02   -1,401233822e-01   -6,628723145e-01    0,000000000e+00    0,000000000e+00    0,000000000e+00    0,000000000e+00
     1220000000   -2,501251101e-01   -1,801117882e-02   -4,212567508e-01   -4,808802307e-01    0,000000000e+00    0,000000000e+00    0,000000000e+00    0,000000000e+00
     1234000000   -2,439626753e-01    1,119402498e-01   -5,631465316e-01   -2,501742840e-01    0,000000000e+00    0,000000000e+00    0,000000000e+00    0,000000000e+00
     1248000000   -1,159742624e-01    1,706736535e-01   -6,036207676e-01    2,192622051e-02    0,000000000e+00    0,000000000e+00    0,000000000e+00    0,000000000e+00
     1262000000   -5,487640388e-03    1,335017681e-01   -5,115203261e-01    2,964052856e-01    0,000000000e+00    0,000000000e+00    0,000000000e+00    0,000000000e+00
     1276000000    6,392827630e-02    4,363519326e-02   -2,796050608e-01    4,906391203e-01    0,000000000e+00    0,000000000e+00    0,000000000e+00    0,000000000e+00
     1290000000    7,229200006e-02   -7,136369497e-02    8,741777390e-03    5,400355458e-01    0,000000000e+00    0,000000000e+00    0,000000000e+00    0,000000000e+00
     1304000000    2,026725188e-02   -1,844851226e-01    3,042359650e-01    4,756707549e-01    0,000000000e+00    0,000000000e+00    0,000000000e+00    0,000000000e+00
     1318000000   -9,708470106e-02   -2,518291771e-01    5,335152149e-01    2,708724737e-01    0,000000000e+00    0,000000000e+00    0,000000000e+00    0,000000000e+00
     1332000000   -2,444401532e-01   -2,484851927e-01    6,519376040e-01   -5,876978487e-02    0,000000000e+00    0,000000000e+00    0,000000000e+00    0,000000000e+00
     1346000000   -3,632727563e-01   -1,451451331e-01    5,579676628e-01   -4,109847844e-01    0,000000000e+00    0,000000000e+00    0,000000000e+00    0,000000000e+00
     1360000000   -3,817464113e-01    5,029496737e-03    2,617589235e-01   -6,358830333e-01    0,000000000e+00    0,000000000e+00    0,000000000e+00    0,000000000e+00
     1374000000   -3,296163380e-01    1,229519919e-01   -1,135130376e-01   -6,259534955e-01    0,000000000e+00    0,000000000e+00    0,000000000e+00    0,000000000e+00
     1388000000   -2,396814376e-01    1,684060395e-01   -3,722160161e-01   -4,133733809e-01    0,000000000e+00    0,000000000e+00    0,000000000e+00    0,000000000e+00
     1402000000   -1,484599411e-01    1,678300649e-01   -4,691916108e-01   -1,128841043e-01    0,000000000e+00    0,000000000e+00    0,000000000e+00    0,000000000e+00
     1416000000   -8,637680113e-02    1,429584622e-01   -3,864124119e-01    2,064183950e-01    0,000000000e+00    0,000000000e+00    0,000000000e+00    0,000000000e+00
     1430000000   -3,297646344e-02    8,880646527e-02   -1,655498594e-01    4,548643231e-01    0,000000000e+00    0,000000000e+00    0,000000000e+00    0,000000000e+00
     1444000000   -8,690510876e-03    5,518551450e-03    1,209620386e-01    5,244656801e-01    0,000000000e+00    0,000000000e+00    0,000000000e+00    0,000000000e+00
     1458000000   -3,709794208e-02   -8,124965429e-02    4,483588338e-01    5,012583733e-01    0,000000000e+00    0,000000000e+00    0,000000000e+00    0,000000000e+00
     1472000000   -1,194830537e-01   -1,498202980e-01    7,267048955e-01    2,920857072e-01    0,000000000e+00    0,000000000e+00    0,000000000e+00    0,000000000e+00
     1486000000   -2,349436879e-01   -1,383333951e-01    8,889281154e-01   -2,672942914e-02    0,000000000e+00    0,000000000e+00    0,000000000e+00    0,000000000e+00
     1500000000   -3,009107113e-01   -6,165805459e-02    8,581953049e-01   -4,223982692e-01    0,000000000e+00    0,000000000e+00    0,000000000e+00    0,000000000e+00
