! NanoVNA-App
! Date: 2025-09-25 15:00:54
! Start: 100MHz Stop: 1,5GHz Points: 101
! S-Parameter data: F S11 S21 S12 S22
# Hz S RI R 50
!     Frequency           S11_Real           S11_Imag           S21_Real           S21_Imag           S12_Real           S12_Imag           S22_Real           S22_Imag
      100000000    3,558424115e-02    2,735962532e-02    4,407290816e-01   -6,695106626e-01    0,000000000e+00    0,000000000e+00    0,000000000e+00    0,000000000e+00
      114000000    6,070900336e-02    2,182644326e-03    1,298260782e-02   -7,953858376e-01    0,000000000e+00    0,000000000e+00    0,000000000e+00    0,000000000e+00
      128000000    6,839282066e-02   -4,224104807e-02   -4,081840813e-01   -6,780046821e-01    0,000000000e+00    0,000000000e+00    0,000000000e+00    0,000000000e+00
      142000000    4,345936328e-02   -8,878704160e-02   -7,054141760e-01   -3,610844314e-01    0,000000000e+00    0,000000000e+00    0,000000000e+00    0,000000000e+00
      156000000   -9,513417259e-03   -1,094402373e-01   -7,930317521e-01    6,688570976e-02    0,000000000e+00    0,000000000e+00    0,000000000e+00    0,000000000e+00
      170000000   -6,264239550e-02   -9,177877754e-02   -6,370331049e-01    4,864974618e-01    0,000000000e+00    0,000000000e+00    0,000000000e+00    0,000000000e+00
      184000000   -8,862592280e-02   -4,770620167e-02   -2,732730210e-01    7,562253475e-01    0,000000000e+00    0,000000000e+00    0,000000000e+00    0,000000000e+00
      198000000   -8,276133239e-02   -6,410741713e-03    1,794786602e-01    7,823966146e-01    0,000000000e+00    0,000000000e+00    0,000000000e+00    0,000000000e+00
      212000000   -6,272064894e-02    1,807032712e-02    5,706190467e-01    5,583432317e-01    0,000000000e+00    0,000000000e+00    0,000000000e+00    0,000000000e+00
      226000000   -4,155216366e-02    3,181344271e-02    7,768138051e-01    1,618722230e-01    0,000000000e+00    0,000000000e+00    0,000000000e+00    0,000000000e+00
      240000000   -1,494474616e-02    4,131884873e-02    7,361065149e-01   -2,787360847e-01    0,000000000e+00    0,000000000e+00    0,000000000e+00    0,000000000e+00
      254000000    2,137858979e-02    3,633508459e-02    4,681211710e-01   -6,222736239e-01    0,000000000e+00    0,000000000e+00    0,000000000e+00    0,000000000e+00
      268000000    5,328129604e-02    4,724086728e-03    6,696689129e-02   -7,673125863e-01    0,000000000e+00    0,000000000e+00    0,000000000e+00    0,000000000e+00
      282000000    5,743212253e-02   -4,491112381e-02   -3,456895053e-01   -6,827787161e-01    0,000000000e+00    0,000000000e+00    0,000000000e+00    0,000000000e+00
      296000000    2,619788796e-02   -8,473362774e-02   -6,546881199e-01   -3,976225555e-01    0,000000000e+00    0,000000000e+00    0,000000000e+00    0,000000000e+00
      310000000   -1,898715273e-02   -8,949507028e-02   -7,744356394e-01    1,132219471e-02    0,000000000e+00    0,000000000e+00    0,000000000e+00    0,000000000e+00
      324000000   -4,625393823e-02   -6,334024668e-02   -6,471210122e-01    4,291308224e-01    0,000000000e+00    0,000000000e+00    0,000000000e+00    0,000000000e+00
      338000000   -4,101596028e-02   -3,751411289e-02   -3,108435571e-01    7,082516551e-01    0,000000000e+00    0,000000000e+00    0,000000000e+00    0,000000000e+00
      352000000   -2,322282828e-02   -3,766632080e-02    1,186781451e-01    7,581635714e-01    0,000000000e+00    0,000000000e+00    0,000000000e+00    0,000000000e+00
      366000000   -2,285497077e-02   -5,610418692e-02    5,035194159e-01    5,716992021e-01    0,000000000e+00    0,000000000e+00    0,000000000e+00    0,000000000e+00
      380000000   -4,463799298e-02   -6,515549123e-02    7,268400192e-01    2,117649764e-01    0,000000000e+00    0,000000000e+00    0,000000000e+00    0,000000000e+00
      394000000   -6,662943214e-02   -5,045732483e-02    7,231188416e-01   -2,129296064e-01    0,000000000e+00    0,000000000e+00    0,000000000e+00    0,000000000e+00
      408000000   -6,765589863e-02   -2,656344883e-02    4,901647270e-01   -5,685551763e-01    0,000000000e+00    0,000000000e+00    0,000000000e+00    0,000000000e+00
      422000000   -5,315234140e-02   -1,542807091e-02    1,057161018e-01   -7,384533286e-01    0,000000000e+00    0,000000000e+00    0,000000000e+00    0,000000000e+00
      436000000   -4,621509090e-02   -1,841805130e-02   -3,055842221e-01   -6,760643125e-01    0,000000000e+00    0,000000000e+00    0,000000000e+00    0,000000000e+00
      450000000   -5,174718425e-02   -1,493356470e-02   -6,191428304e-01   -3,994326591e-01    0,000000000e+00    0,000000000e+00    0,000000000e+00    0,000000000e+00
      464000000   -5,039792508e-02    5,474178120e-03   -7,294942141e-01    3,218848724e-03    0,000000000e+00    0,000000000e+00    0,000000000e+00    0,000000000e+00
      478000000   -2,044534497e-02    2,620028704e-02   -5,985351801e-01    3,971491158e-01    0,000000000e+00    0,000000000e+00    0,000000000e+00    0,000000000e+00
      492000000    2,826664224e-02    1,465509459e-02   -2,810777724e-01    6,443698406e-01    0,000000000e+00    0,000000000e+00    0,000000000e+00    0,000000000e+00
      506000000    5,898447707e-02   -3,706038743e-02    1,049332991e-01    6,805040836e-01    0,000000000e+00    0,000000000e+00    0,000000000e+00    0,000000000e+00
      520000000    4,360438883e-02   -1,026793793e-01    4,454073906e-01    5,149599314e-01    0,000000000e+00    0,000000000e+00    0,000000000e+00    0,000000000e+00
      534000000   -1,258718595e-02   -1,434467882e-01    6,499119401e-01    2,061602026e-01    0,000000000e+00    0,000000000e+00    0,000000000e+00    0,000000000e+00
      548000000   -8,098588884e-02   -1,393995583e-01    6,606239080e-01   -1,755280197e-01    0,000000000e+00    0,000000000e+00    0,000000000e+00    0,000000000e+00
      562000000   -1,295955181e-01   -9,797138721e-02    4,526737928e-01   -5,077165365e-01    0,000000000e+00    0,000000000e+00    0,000000000e+00    0,000000000e+00
      576000000   -1,476737112e-01   -4,039536789e-02    8,413438499e-02   -6,618595719e-01    0,000000000e+00    0,000000000e+00    0,000000000e+00    0,000000000e+00
      590000000   -1,316832006e-01    2,370927483e-02   -2,973866463e-01   -5,702493191e-01    0,000000000e+00    0,000000000e+00    0,000000000e+00    0,000000000e+00
      604000000   -5,032215267e-02    6,945092976e-02   -5,021069050e-01   -2,716335058e-01    0,000000000e+00    0,000000000e+00    0,000000000e+00    0,000000000e+00
      618000000    3,899078444e-02   -1,288597193e-02   -4,925372005e-01   -2,905249223e-02    0,000000000e+00    0,000000000e+00    0,000000000e+00    0,000000000e+00
      632000000   -3,819859400e-02   -9,901142865e-02   -5,085342526e-01    1,726961881e-01    0,000000000e+00    0,000000000e+00    0,000000000e+00    0,000000000e+00
      646000000   -1,023714244e-01   -4,336137697e-02   -3,800310493e-01    4,661763310e-01    0,000000000e+00    0,000000000e+00    0,000000000e+00    0,000000000e+00
      660000000   -7,427630574e-02    8,301938884e-03   -5,769926682e-02    6,212286353e-01    0,000000000e+00    0,000000000e+00    0,000000000e+00    0,000000000e+00
      674000000   -3,383563831e-02    6,767292973e-03    2,946648300e-01    5,547489524e-01    0,000000000e+00    0,000000000e+00    0,000000000e+00    0,000000000e+00
      688000000   -1,613641158e-02   -1,434588712e-02    5,458363295e-01    3,061484694e-01    0,000000000e+00    0,000000000e+00    0,000000000e+00    0,000000000e+00
      702000000   -1,226041839e-02   -3,272229061e-02    6,234306693e-01   -4,038034379e-02    0,000000000e+00    0,000000000e+00    0,000000000e+00    0,000000000e+00
      716000000   -7,254709024e-03   -4,778214917e-02    4,931163788e-01   -3,665868640e-01    0,000000000e+00    0,000000000e+00    0,000000000e+00    0,000000000e+00
      730000000   -5,942166783e-03   -7,620209455e-02    2,135830373e-01   -5,679413080e-01    0,000000000e+00    0,000000000e+00    0,000000000e+00    0,000000000e+00
      744000000   -2,591763809e-02   -1,119463369e-01   -1,221079379e-01   -5,893074274e-01    0,000000000e+00    0,000000000e+00    0,000000000e+00    0,000000000e+00
      758000000   -7,469770312e-02   -1,339084357e-01   -4,191690981e-01   -4,348028004e-01    0,000000000e+00    0,000000000e+00    0,000000000e+00    0,000000000e+00
      772000000   -1,365253329e-01   -1,159248129e-01   -5,948249102e-01   -1,413394511e-01    0,000000000e+00    0,000000000e+00    0,000000000e+00    0,000000000e+00
      786000000   -1,728492826e-01   -5,846210569e-02   -5,832113028e-01    2,096487284e-01    0,000000000e+00    0,000000000e+00    0,000000000e+00    0,000000000e+00
      800000000   -1,604654789e-01    8,509449661e-03   -3,744821250e-01    4,964075089e-01    0,000000000e+00    0,000000000e+00    0,000000000e+00    0,000000000e+00
      814000000   -1,140118688e-01    4,347597435e-02   -4,613522440e-02    6,156979799e-01    0,000000000e+00    0,000000000e+00    0,000000000e+00    0,000000000e+00
      828000000   -6,714241207e-02    4,348914325e-02    2,864027619e-01    5,418077707e-01    0,000000000e+00    0,000000000e+00    0,000000000e+00    0,000000000e+00
      842000000   -3,736097738e-02    2,755874023e-02    5,219934583e-01    3,061668277e-01    0,000000000e+00    0,000000000e+00    0,000000000e+00    0,000000000e+00
      856000000   -1,885337941e-02    1,094320416e-02    5,961779356e-01   -1,379808784e-02    0,000000000e+00    0,000000000e+00    0,000000000e+00    0,000000000e+00
      870000000    5,021311226e-04   -1,217048336e-02    4,882139862e-01   -3,184080422e-01    0,000000000e+00    0,000000000e+00    0,000000000e+00    0,000000000e+00
      884000000    1,224415004e-02   -5,103245005e-02    2,422052920e-01   -5,142153502e-01    0,000000000e+00    0,000000000e+00    0,000000000e+00    0,000000000e+00
      898000000   -4,947391804e-03   -1,006315947e-01   -5,913364515e-02   -5,563783646e-01    0,000000000e+00    0,000000000e+00    0,000000000e+00    0,000000000e+00
      912000000   -6,181124970e-02   -1,297572553e-01   -3,877059817e-01   -4,254258573e-01    0,000000000e+00    0,000000000e+00    0,000000000e+00    0,000000000e+00
      926000000   -1,229383722e-01   -1,191382483e-01   -5,658738613e-01   -1,461768150e-01    0,000000000e+00    0,000000000e+00    0,000000000e+00    0,000000000e+00
      940000000   -1,632779986e-01   -6,523004919e-02   -5,706083179e-01    1,924858540e-01    0,000000000e+00    0,000000000e+00    0,000000000e+00    0,000000000e+00
      954000000   -1,461066604e-01   -4,180154763e-03   -3,720734715e-01    4,838357568e-01    0,000000000e+00    0,000000000e+00    0,000000000e+00    0,000000000e+00
      968000000   -1,012045220e-01    2,463960089e-02   -5,324744433e-02    6,136878133e-01    0,000000000e+00    0,000000000e+00    0,000000000e+00    0,000000000e+00
      982000000   -5,882952362e-02    4,822924733e-03    2,823334932e-01    5,528392792e-01    0,000000000e+00    0,000000000e+00    0,000000000e+00    0,000000000e+00
      996000000   -4,336181283e-02   -2,942012064e-02    5,245936513e-01    3,259428442e-01    0,000000000e+00    0,000000000e+00    0,000000000e+00    0,000000000e+00
     1010000000   -6,436294317e-02   -6,347306818e-02    6,060705185e-01    1,367606502e-02    0,000000000e+00    0,000000000e+00    0,000000000e+00    0,000000000e+00
     1024000000   -1,014640033e-01   -7,716395706e-02    5,141371489e-01   -2,810725272e-01    0,000000000e+00    0,000000000e+00    0,000000000e+00    0,000000000e+00
     1038000000   -1,406809986e-01   -5,313630775e-02    2,954047620e-01   -4,714159667e-01    0,000000000e+00    0,000000000e+00    0,000000000e+00    0,000000000e+00
     1052000000   -1,517525762e-01   -3,561606398e-03    3,427982703e-02   -5,250948668e-01    0,000000000e+00    0,000000000e+00    0,000000000e+00    0,000000000e+00
     1066000000   -1,046437174e-01    3,704089299e-02   -2,062627226e-01   -4,680396914e-01    0,000000000e+00    0,000000000e+00    0,000000000e+00    0,000000000e+00
     1080000000   -5,625821650e-02    2,553491667e-02   -4,164355993e-01   -2,962223887e-01    0,000000000e+00    0,000000000e+00    0,000000000e+00    0,000000000e+00
     1094000000   -3,407735750e-02   -2,076748759e-03   -5,194585323e-01   -2,324094623e-02    0,000000000e+00    0,000000000e+00    0,000000000e+00    0,000000000e+00
     1108000000   -3,116732277e-02   -3,407842666e-02   -4,429487288e-01    2,819700837e-01    0,000000000e+00    0,000000000e+00    0,000000000e+00    0,000000000e+00
     1122000000   -2,813760564e-02   -5,857288465e-02   -1,854574680e-01    4,950709641e-01    0,000000000e+00    0,000000000e+00    0,000000000e+00    0,000000000e+00
     1136000000   -4,116922989e-02   -9,182975441e-02    1,500516981e-01    5,185556412e-01    0,000000000e+00    0,000000000e+00    0,000000000e+00    0,000000000e+00
     1150000000   -8,172132075e-02   -1,221457198e-01    4,517487586e-01    3,436116576e-01    0,000000000e+00    0,000000000e+00    0,000000000e+00    0,000000000e+00
     1164000000   -1,380651295e-01   -1,267573386e-01    6,101922393e-01    1,110140420e-02    0,000000000e+00    0,000000000e+00    0,000000000e+00    0,000000000e+00
     1178000000   -1,735868603e-01   -8,888085186e-02    5,397037268e-01   -3,707689941e-01    0,000000000e+00    0,000000000e+00    0,000000000e+00    0,000000000e+00
     1192000000   -1,774202585e-01   -5,555884168e-02    2,419180423e-01   -6,366161704e-01    0,000000000e+00    0,000000000e+00    0,000000000e+00    0,000000000e+00
     1206000000   -1,911950409e-01   -5,340129510e-02   -1,404305547e-01   -6,610212326e-01    0,000000000e+00    0,000000000e+00    0,000000000e+00    0,000000000e+00
     1220000000   -2,570649683e-01   -1,142859552e-02   -4,187050164e-01   -4,834468961e-01    0,000000000e+00    0,000000000e+00    0,000000000e+00    0,000000000e+00
     1234000000   -2,392602414e-01    1,143185571e-01   -5,586799383e-01   -2,493239790e-01    0,000000000e+00    0,000000000e+00    0,000000000e+00    0,000000000e+00
     1248000000   -1,157451943e-01    1,712335497e-01   -6,060100794e-01    1,784157567e-02    0,000000000e+00    0,000000000e+00    0,000000000e+00    0,000000000e+00
     1262000000   -2,748739207e-04    1,301921606e-01   -5,035871267e-01    2,991807759e-01    0,000000000e+00    0,000000000e+00    0,000000000e+00    0,000000000e+00
     1276000000    5,957585573e-02    4,086844623e-02   -2,821910679e-01    4,886428714e-01    0,000000000e+00    0,000000000e+00    0,000000000e+00    0,000000000e+00
     1290000000    7,278781384e-02   -6,687688828e-02    9,752501734e-03    5,519889593e-01    0,000000000e+00    0,000000000e+00    0,000000000e+00    0,000000000e+00
     1304000000    1,674942486e-02   -1,769098490e-01    2,909229100e-01    4,813667834e-01    0,000000000e+00    0,000000000e+00    0,000000000e+00    0,000000000e+00
     1318000000   -9,756773710e-02   -2,542576492e-01    5,348093510e-01    2,724699974e-01    0,000000000e+00    0,000000000e+00    0,000000000e+00    0,000000000e+00
     1332000000   -2,472405881e-01   -2,422731668e-01    6,525366306e-01   -5,272223055e-02    0,000000000e+00    0,000000000e+00    0,000000000e+00    0,000000000e+00
     1346000000   -3,623279631e-01   -1,371912807e-01    5,526989102e-01   -4,030094147e-01    0,000000000e+00    0,000000000e+00    0,000000000e+00    0,000000000e+00
     1360000000   -3,856350482e-01    1,084265485e-02    2,568849027e-01   -6,323575377e-01    0,000000000e+00    0,000000000e+00    0,000000000e+00    0,000000000e+00
     1374000000   -3,289442062e-01    1,154659837e-01   -1,125917062e-01   -6,282476783e-01    0,000000000e+00    0,000000000e+00    0,000000000e+00    0,000000000e+00
     1388000000   -2,365209460e-01    1,664044857e-01   -3,736468256e-01   -4,218341410e-01    0,000000000e+00    0,000000000e+00    0,000000000e+00    0,000000000e+00
     1402000000   -1,540485620e-01    1,724250764e-01   -4,728775322e-01   -1,053605527e-01    0,000000000e+00    0,000000000e+00    0,000000000e+00    0,000000000e+00
     1416000000   -8,104818314e-02    1,414148659e-01   -3,947454095e-01    2,002392262e-01    0,000000000e+00    0,000000000e+00    0,000000000e+00    0,000000000e+00
     1430000000   -3,006363474e-02    8,851969987e-02   -1,683238447e-01    4,432639778e-01    0,000000000e+00    0,000000000e+00    0,000000000e+00    0,000000000e+00
     1444000000   -1,091807522e-02    2,641105559e-03    1,266843379e-01    5,280382037e-01    0,000000000e+00    0,000000000e+00    0,000000000e+00    0,000000000e+00
     1458000000   -3,675463423e-02   -7,956647128e-02    4,465276599e-01    4,937977791e-01    0,000000000e+00    0,000000000e+00    0,000000000e+00    0,000000000e+00
     1472000000   -1,244635507e-01   -1,466153860e-01    7,347236872e-01    2,917474806e-01    0,000000000e+00    0,000000000e+00    0,000000000e+00    0,000000000e+00
     1486000000   -2,342112213e-01   -1,427768022e-01    8,876582384e-01   -2,255511098e-02    0,000000000e+00    0,000000000e+00    0,000000000e+00    0,000000000e+00
     1500000000   -3,086484075e-01   -6,183998659e-02    8,554403782e-01   -4,173997045e-01    0,000000000e+00    0,000000000e+00    0,000000000e+00    0,000000000e+00
