! NanoVNA-App
! Date: 2025-09-25 15:01:45
! Start: 100MHz Stop: 1,5GHz Points: 101
! S-Parameter data: F S11 S21 S12 S22
# Hz S RI R 50
!     Frequency           S11_Real           S11_Imag           S21_Real           S21_Imag           S12_Real           S12_Imag           S22_Real           S22_Imag
      100000000    3,558267653e-02    2,735406160e-02    4,407349527e-01   -6,695549488e-01    0,000000000e+00    0,000000000e+00    0,000000000e+00    0,000000000e+00
      114000000    6,075236201e-02    2,178139985e-03    1,286565326e-02   -7,954928875e-01    0,000000000e+00    0,000000000e+00    0,000000000e+00    0,000000000e+00
      128000000    6,837050617e-02   -4,229585081e-02   -4,084576368e-01   -6,781771183e-01    0,000000000e+00    0,000000000e+00    0,000000000e+00    0,000000000e+00
      142000000    4,348901287e-02   -8,879873902e-02   -7,052834034e-01   -3,608361483e-01    0,000000000e+00    0,000000000e+00    0,000000000e+00    0,000000000e+00
      156000000   -8,831863292e-03   -1,103808507e-01   -7,942268252e-01    6,795661896e-02    0,000000000e+00    0,000000000e+00    0,000000000e+00    0,000000000e+00
      170000000   -6,263103336e-02   -9,183759987e-02   -6,371119022e-01    4,863756895e-01    0,000000000e+00    0,000000000e+00    0,000000000e+00    0,000000000e+00
      184000000   -8,858829737e-02   -4,771814868e-02   -2,729723454e-01    7,561281323e-01    0,000000000e+00    0,000000000e+00    0,000000000e+00    0,000000000e+00
      198000000   -8,277303725e-02   -6,416812073e-03    1,798520535e-01    7,826156616e-01    0,000000000e+00    0,000000000e+00    0,000000000e+00    0,000000000e+00
      212000000   -6,277696788e-02    1,804723218e-02    5,707315803e-01    5,584089160e-01    0,000000000e+00    0,000000000e+00    0,000000000e+00    0,000000000e+00
      226000000   -4,152690619e-02    3,179557994e-02    7,768386006e-01    1,619100124e-01    0,000000000e+00    0,000000000e+00    0,000000000e+00    0,000000000e+00
      240000000   -1,492306869e-02    4,129725695e-02    7,361539602e-01   -2,787405252e-01    0,000000000e+00    0,000000000e+00    0,000000000e+00    0,000000000e+00
      254000000    2,137503773e-02    3,637215868e-02    4,678006470e-01   -6,222417355e-01    0,000000000e+00    0,000000000e+00    0,000000000e+00    0,000000000e+00
      268000000    5,325765163e-02    4,766537342e-03    6,688906997e-02   -7,674154043e-01    0,000000000e+00    0,000000000e+00    0,000000000e+00    0,000000000e+00
      282000000    5,742609128e-02   -4,493562505e-02   -3,455156088e-01   -6,828554869e-01    0,000000000e+00    0,000000000e+00    0,000000000e+00    0,000000000e+00
      296000000    2,617266588e-02   -8,465865254e-02   -6,547903419e-01   -3,973625898e-01    0,000000000e+00    0,000000000e+00    0,000000000e+00    0,000000000e+00
      310000000   -1,902037300e-02   -8,921822906e-02   -7,745781541e-01    1,076037623e-02    0,000000000e+00    0,000000000e+00    0,000000000e+00    0,000000000e+00
      324000000   -4,641955346e-02   -6,319794059e-02   -6,483560205e-01    4,295324385e-01    0,000000000e+00    0,000000000e+00    0,000000000e+00    0,000000000e+00
      338000000   -4,069383815e-02   -3,757211939e-02   -3,095267415e-01    7,092888355e-01    0,000000000e+00    0,000000000e+00    0,000000000e+00    0,000000000e+00
      352000000   -2,349146456e-02   -3,768615052e-02    1,191112250e-01    7,587701678e-01    0,000000000e+00    0,000000000e+00    0,000000000e+00    0,000000000e+00
      366000000   -2,308175713e-02   -5,609746277e-02    5,026496649e-01    5,716693997e-01    0,000000000e+00    0,000000000e+00    0,000000000e+00    0,000000000e+00
      380000000   -4,471444339e-02   -6,524748355e-02    7,262222171e-01    2,113229334e-01    0,000000000e+00    0,000000000e+00    0,000000000e+00    0,000000000e+00
      394000000   -6,621711701e-02   -5,046854541e-02    7,229825854e-01   -2,126281410e-01    0,000000000e+00    0,000000000e+00    0,000000000e+00    0,000000000e+00
      408000000   -6,748841703e-02   -2,648275346e-02    4,895464480e-01   -5,693101883e-01    0,000000000e+00    0,000000000e+00    0,000000000e+00    0,000000000e+00
      422000000   -5,339106172e-02   -1,541390363e-02    1,059248969e-01   -7,391114235e-01    0,000000000e+00    0,000000000e+00    0,000000000e+00    0,000000000e+00
      436000000   -4,597224668e-02   -1,854829118e-02   -3,062657118e-01   -6,761276126e-01    0,000000000e+00    0,000000000e+00    0,000000000e+00    0,000000000e+00
      450000000   -5,166637525e-02   -1,514783129e-02   -6,180258989e-01   -3,996351063e-01    0,000000000e+00    0,000000000e+00    0,000000000e+00    0,000000000e+00
      464000000   -5,052351579e-02    5,532473791e-03   -7,298391461e-01    3,298624186e-03    0,000000000e+00    0,000000000e+00    0,000000000e+00    0,000000000e+00
      478000000   -2,040345781e-02    2,616680972e-02   -5,989059210e-01    3,970879614e-01    0,000000000e+00    0,000000000e+00    0,000000000e+00    0,000000000e+00
      492000000    2,846013755e-02    1,453379355e-02   -2,800788879e-01    6,438285708e-01    0,000000000e+00    0,000000000e+00    0,000000000e+00    0,000000000e+00
      506000000    5,853920802e-02   -3,701598197e-02    1,047800183e-01    6,806580424e-01    0,000000000e+00    0,000000000e+00    0,000000000e+00    0,000000000e+00
      520000000    4,300086945e-02   -1,027278155e-01    4,403489828e-01    5,148248672e-01    0,000000000e+00    0,000000000e+00    0,000000000e+00    0,000000000e+00
      534000000   -1,264155004e-02   -1,431780010e-01    6,491500139e-01    2,067543566e-01    0,000000000e+00    0,000000000e+00    0,000000000e+00    0,000000000e+00
      548000000   -8,077407628e-02   -1,393797547e-01    6,605773568e-01   -1,754586995e-01    0,000000000e+00    0,000000000e+00    0,000000000e+00    0,000000000e+00
      562000000   -1,294133216e-01   -9,796239436e-02    4,527431726e-01   -5,076686740e-01    0,000000000e+00    0,000000000e+00    0,000000000e+00    0,000000000e+00
      576000000   -1,476594359e-01   -4,111093283e-02    8,450184762e-02   -6,635334492e-01    0,000000000e+00    0,000000000e+00    0,000000000e+00    0,000000000e+00
      590000000   -1,316888481e-01    2,351043373e-02   -2,940079570e-01   -5,711495876e-01    0,000000000e+00    0,000000000e+00    0,000000000e+00    0,000000000e+00
      604000000   -5,091201514e-02    6,931825727e-02   -5,033018589e-01   -2,722173333e-01    0,000000000e+00    0,000000000e+00    0,000000000e+00    0,000000000e+00
      618000000    3,935747966e-02   -1,275080815e-02   -4,923434556e-01   -2,857016772e-02    0,000000000e+00    0,000000000e+00    0,000000000e+00    0,000000000e+00
      632000000   -3,804944083e-02   -9,798559546e-02   -5,078302026e-01    1,725362986e-01    0,000000000e+00    0,000000000e+00    0,000000000e+00    0,000000000e+00
      646000000   -1,024430096e-01   -4,373174533e-02   -3,804981709e-01    4,650416076e-01    0,000000000e+00    0,000000000e+00    0,000000000e+00    0,000000000e+00
      660000000   -7,552558184e-02    7,328566629e-03   -5,749251693e-02    6,222885251e-01    0,000000000e+00    0,000000000e+00    0,000000000e+00    0,000000000e+00
      674000000   -3,383475170e-02    7,919324562e-03    2,937525511e-01    5,541328788e-01    0,000000000e+00    0,000000000e+00    0,000000000e+00    0,000000000e+00
      688000000   -1,594234817e-02   -1,434343215e-02    5,459381342e-01    3,060012460e-01    0,000000000e+00    0,000000000e+00    0,000000000e+00    0,000000000e+00
      702000000   -1,168846432e-02   -3,227419034e-02    6,193090677e-01   -3,818855435e-02    0,000000000e+00    0,000000000e+00    0,000000000e+00    0,000000000e+00
      716000000   -7,752655074e-03   -4,753591865e-02    4,932715893e-01   -3,671158254e-01    0,000000000e+00    0,000000000e+00    0,000000000e+00    0,000000000e+00
      730000000   -6,200531498e-03   -7,480924577e-02    2,140179276e-01   -5,673622489e-01    0,000000000e+00    0,000000000e+00    0,000000000e+00    0,000000000e+00
      744000000   -2,548912168e-02   -1,118850112e-01   -1,217698157e-01   -5,887640119e-01    0,000000000e+00    0,000000000e+00    0,000000000e+00    0,000000000e+00
      758000000   -7,476020604e-02   -1,342199147e-01   -4,189991653e-01   -4,337124228e-01    0,000000000e+00    0,000000000e+00    0,000000000e+00    0,000000000e+00
      772000000   -1,370682716e-01   -1,162383705e-01   -5,946312547e-01   -1,416530609e-01    0,000000000e+00    0,000000000e+00    0,000000000e+00    0,000000000e+00
      786000000   -1,736627966e-01   -5,809987709e-02   -5,836326480e-01    2,091943920e-01    0,000000000e+00    0,000000000e+00    0,000000000e+00    0,000000000e+00
      800000000   -1,604873389e-01    7,565446664e-03   -3,751475811e-01    4,960229695e-01    0,000000000e+00    0,000000000e+00    0,000000000e+00    0,000000000e+00
      814000000   -1,133824810e-01    4,366556555e-02   -4,657408595e-02    6,163433790e-01    0,000000000e+00    0,000000000e+00    0,000000000e+00    0,000000000e+00
      828000000   -6,689519435e-02    4,410023615e-02    2,859576941e-01    5,414193273e-01    0,000000000e+00    0,000000000e+00    0,000000000e+00    0,000000000e+00
      842000000   -3,763352707e-02    2,823985927e-02    5,221021175e-01    3,065539002e-01    0,000000000e+00    0,000000000e+00    0,000000000e+00    0,000000000e+00
      856000000   -1,849023812e-02    1,022476237e-02    5,959936380e-01   -1,362840272e-02    0,000000000e+00    0,000000000e+00    0,000000000e+00    0,000000000e+00
      870000000    9,830226190e-04   -1,218046434e-02    4,886165559e-01   -3,174583018e-01    0,000000000e+00    0,000000000e+00    0,000000000e+00    0,000000000e+00
      884000000    1,240105741e-02   -5,108767748e-02    2,427161783e-01   -5,141593814e-01    0,000000000e+00    0,000000000e+00    0,000000000e+00    0,000000000e+00
      898000000   -3,949983977e-03   -1,005360484e-01   -5,948857218e-02   -5,572376847e-01    0,000000000e+00    0,000000000e+00    0,000000000e+00    0,000000000e+00
      912000000   -6,218938157e-02   -1,311382204e-01   -3,930088878e-01   -4,113372862e-01    0,000000000e+00    0,000000000e+00    0,000000000e+00    0,000000000e+00
      926000000   -1,232994795e-01   -1,188860312e-01   -5,662226677e-01   -1,470106095e-01    0,000000000e+00    0,000000000e+00    0,000000000e+00    0,000000000e+00
      940000000   -1,614008844e-01   -6,172565743e-02   -5,680915117e-01    1,959482431e-01    0,000000000e+00    0,000000000e+00    0,000000000e+00    0,000000000e+00
      954000000   -1,465951353e-01   -5,563091021e-03   -3,736185133e-01    4,840645790e-01    0,000000000e+00    0,000000000e+00    0,000000000e+00    0,000000000e+00
      968000000   -9,639186412e-02    2,277279459e-02   -4,894374683e-02    6,148937345e-01    0,000000000e+00    0,000000000e+00    0,000000000e+00    0,000000000e+00
      982000000   -5,840549991e-02    4,425410181e-03    2,818429172e-01    5,513657331e-01    0,000000000e+00    0,000000000e+00    0,000000000e+00    0,000000000e+00
      996000000   -4,492221028e-02   -3,428564593e-02    5,259065628e-01    3,237449229e-01    0,000000000e+00    0,000000000e+00    0,000000000e+00    0,000000000e+00
     1010000000   -6,057702377e-02   -6,799738109e-02    6,070945263e-01    1,371458080e-02    0,000000000e+00    0,000000000e+00    0,000000000e+00    0,000000000e+00
     1024000000   -9,719335288e-02   -7,895270735e-02    5,134632587e-01   -2,821882367e-01    0,000000000e+00    0,000000000e+00    0,000000000e+00    0,000000000e+00
     1038000000   -1,391411424e-01   -5,643391237e-02    2,933756709e-01   -4,712698162e-01    0,000000000e+00    0,000000000e+00    0,000000000e+00    0,000000000e+00
     1052000000   -1,513026506e-01   -3,884306410e-03    3,184846416e-02   -5,241213441e-01    0,000000000e+00    0,000000000e+00    0,000000000e+00    0,000000000e+00
     1066000000   -1,066360399e-01    4,289087653e-02   -2,096162140e-01   -4,632987380e-01    0,000000000e+00    0,000000000e+00    0,000000000e+00    0,000000000e+00
     1080000000   -5,569957942e-02    2,938692644e-02   -4,162777364e-01   -3,001718819e-01    0,000000000e+00    0,000000000e+00    0,000000000e+00    0,000000000e+00
     1094000000   -3,641730919e-02   -8,997893892e-03   -5,170627236e-01   -2,293628082e-02    0,000000000e+00    0,000000000e+00    0,000000000e+00    0,000000000e+00
     1108000000   -3,533842787e-02   -2,957388386e-02   -4,426948428e-01    2,845342755e-01    0,000000000e+00    0,000000000e+00    0,000000000e+00    0,000000000e+00
     1122000000   -3,360918164e-02   -5,948216096e-02   -1,852073520e-01    4,964449704e-01    0,000000000e+00    0,000000000e+00    0,000000000e+00    0,000000000e+00
     1136000000   -4,214674979e-02   -9,542536736e-02    1,507879198e-01    5,201252699e-01    0,000000000e+00    0,000000000e+00    0,000000000e+00    0,000000000e+00
     1150000000   -7,911197841e-02   -1,240651160e-01    4,514702857e-01    3,449761868e-01    0,000000000e+00    0,000000000e+00    0,000000000e+00    0,000000000e+00
     1164000000   -1,428736746e-01   -1,228563190e-01    6,082751155e-01    1,020003855e-02    0,000000000e+00    0,000000000e+00    0,000000000e+00    0,000000000e+00
     1178000000   -1,762471348e-01   -8,339949697e-02    5,420814157e-01   -3,718833625e-01    0,000000000e+00    0,000000000e+00    0,000000000e+00    0,000000000e+00
     1192000000   -1,751826853e-01   -5,647770315e-02    2,397836596e-01   -6,379965544e-01    0,000000000e+00    0,000000000e+00    0,000000000e+00    0,000000000e+00
     1206000000   -1,925128400e-01   -5,640245974e-02   -1,409151703e-01   -6,615160108e-01    0,000000000e+00    0,000000000e+00    0,000000000e+00    0,000000000e+00
     1220000000   -2,532497048e-01   -1,815325767e-02   -4,194580019e-01   -4,861291945e-01    0,000000000e+00    0,000000000e+00    0,000000000e+00    0,000000000e+00
     1234000000   -2,445538491e-01    1,166275963e-01   -5,599304438e-01   -2,494317293e-01    0,000000000e+00    0,000000000e+00    0,000000000e+00    0,000000000e+00
     1248000000   -1,195250079e-01    1,758508533e-01   -6,059929729e-01    1,621941850e-02    0,000000000e+00    0,000000000e+00    0,000000000e+00    0,000000000e+00
     1262000000   -1,547438675e-03    1,341612488e-01   -5,063358545e-01    3,004479408e-01    0,000000000e+00    0,000000000e+00    0,000000000e+00    0,000000000e+00
     1276000000    5,965863541e-02    4,367556795e-02   -2,830869555e-01    4,861514270e-01    0,000000000e+00    0,000000000e+00    0,000000000e+00    0,000000000e+00
     1290000000    6,757009029e-02   -6,957444549e-02    6,876501720e-03    5,471399426e-01    0,000000000e+00    0,000000000e+00    0,000000000e+00    0,000000000e+00
     1304000000    2,478296310e-02   -1,765961796e-01    3,016911745e-01    4,745189250e-01    0,000000000e+00    0,000000000e+00    0,000000000e+00    0,000000000e+00
     1318000000   -9,045729041e-02   -2,552478909e-01    5,394429564e-01    2,721884549e-01    0,000000000e+00    0,000000000e+00    0,000000000e+00    0,000000000e+00
     1332000000   -2,468565553e-01   -2,440591156e-01    6,560502648e-01   -5,504419655e-02    0,000000000e+00    0,000000000e+00    0,000000000e+00    0,000000000e+00
     1346000000   -3,581251204e-01   -1,390813291e-01    5,580118299e-01   -4,060642719e-01    0,000000000e+00    0,000000000e+00    0,000000000e+00    0,000000000e+00
     1360000000   -3,843421936e-01    9,542533197e-03    2,496527731e-01   -6,421386003e-01    0,000000000e+00    0,000000000e+00    0,000000000e+00    0,000000000e+00
     1374000000   -3,298796713e-01    1,221840009e-01   -1,113662273e-01   -6,232910752e-01    0,000000000e+00    0,000000000e+00    0,000000000e+00    0,000000000e+00
     1388000000   -2,350079119e-01    1,670998633e-01   -3,756031394e-01   -4,216214716e-01    0,000000000e+00    0,000000000e+00    0,000000000e+00    0,000000000e+00
     1402000000   -1,533279121e-01    1,740733832e-01   -4,799351096e-01   -1,043656021e-01    0,000000000e+00    0,000000000e+00    0,000000000e+00    0,000000000e+00
     1416000000   -8,673030138e-02    1,397384703e-01   -3,893041909e-01    2,021931708e-01    0,000000000e+00    0,000000000e+00    0,000000000e+00    0,000000000e+00
     1430000000   -2,872238867e-02    8,813578635e-02   -1,503166407e-01    4,540731311e-01    0,000000000e+00    0,000000000e+00    0,000000000e+00    0,000000000e+00
     1444000000   -1,487318426e-02    8,214785717e-03    1,193245724e-01    5,303565264e-01    0,000000000e+00    0,000000000e+00    0,000000000e+00    0,000000000e+00
     1458000000   -3,528477624e-02   -8,177436888e-02    4,593099058e-01    4,893656969e-01    0,000000000e+00    0,000000000e+00    0,000000000e+00    0,000000000e+00
     1472000000   -1,177442446e-01   -1,462440491e-01    7,361315489e-01    3,075506687e-01    0,000000000e+00    0,000000000e+00    0,000000000e+00    0,000000000e+00
     1486000000   -2,372342497e-01   -1,379771829e-01    8,803234100e-01   -2,230053395e-02    0,000000000e+00    0,000000000e+00    0,000000000e+00    0,000000000e+00
     1500000000   -2,997170091e-01   -6,174548715e-02    8,656460643e-01   -4,156009257e-01    0,000000000e+00    0,000000000e+00    0,000000000e+00    0,000000000e+00
