! NanoVNA-App
! Date: 2025-09-25 14:57:46
! Start: 100MHz Stop: 1,5GHz Points: 101
! S-Parameter data: F S11 S21 S12 S22
# Hz S RI R 50
!     Frequency           S11_Real           S11_Imag           S21_Real           S21_Imag           S12_Real           S12_Imag           S22_Real           S22_Imag
      100000000    3,558680415e-02    2,734097280e-02    4,407295585e-01   -6,695485115e-01    0,000000000e+00    0,000000000e+00    0,000000000e+00    0,000000000e+00
      114000000    6,071508676e-02    2,176515292e-03    1,280453987e-02   -7,952812910e-01    0,000000000e+00    0,000000000e+00    0,000000000e+00    0,000000000e+00
      128000000    6,834072620e-02   -4,227564484e-02   -4,082438946e-01   -6,780219078e-01    0,000000000e+00    0,000000000e+00    0,000000000e+00    0,000000000e+00
      142000000    4,346951097e-02   -8,876676857e-02   -7,053228617e-01   -3,610104024e-01    0,000000000e+00    0,000000000e+00    0,000000000e+00    0,000000000e+00
      156000000   -9,775545448e-03   -1,095594764e-01   -7,923391461e-01    6,737941504e-02    0,000000000e+00    0,000000000e+00    0,000000000e+00    0,000000000e+00
      170000000   -6,262999028e-02   -9,171442688e-02   -6,369337440e-01    4,863840938e-01    0,000000000e+00    0,000000000e+00    0,000000000e+00    0,000000000e+00
      184000000   -8,856912702e-02   -4,764830321e-02   -2,732352912e-01    7,560364604e-01    0,000000000e+00    0,000000000e+00    0,000000000e+00    0,000000000e+00
      198000000   -8,276884258e-02   -6,387189031e-03    1,795030087e-01    7,822210789e-01    0,000000000e+00    0,000000000e+00    0,000000000e+00    0,000000000e+00
      212000000   -6,273136288e-02    1,811132021e-02    5,708222389e-01    5,584106445e-01    0,000000000e+00    0,000000000e+00    0,000000000e+00    0,000000000e+00
      226000000   -4,140814394e-02    3,182767704e-02    7,765166163e-01    1,619112045e-01    0,000000000e+00    0,000000000e+00    0,000000000e+00    0,000000000e+00
      240000000   -1,484803949e-02    4,133475944e-02    7,360199094e-01   -2,787033617e-01    0,000000000e+00    0,000000000e+00    0,000000000e+00    0,000000000e+00
      254000000    2,149133757e-02    3,631163388e-02    4,681519866e-01   -6,221723557e-01    0,000000000e+00    0,000000000e+00    0,000000000e+00    0,000000000e+00
      268000000    5,334724113e-02    4,692653194e-03    6,672748178e-02   -7,672454715e-01    0,000000000e+00    0,000000000e+00    0,000000000e+00    0,000000000e+00
      282000000    5,739035085e-02   -4,503137991e-02   -3,456878662e-01   -6,824124455e-01    0,000000000e+00    0,000000000e+00    0,000000000e+00    0,000000000e+00
      296000000    2,603931166e-02   -8,481748402e-02   -6,545506716e-01   -3,977218270e-01    0,000000000e+00    0,000000000e+00    0,000000000e+00    0,000000000e+00
      310000000   -1,885950193e-02   -8,940716833e-02   -7,737925649e-01    9,627750143e-03    0,000000000e+00    0,000000000e+00    0,000000000e+00    0,000000000e+00
      324000000   -4,671329632e-02   -6,361533701e-02   -6,474453807e-01    4,291965067e-01    0,000000000e+00    0,000000000e+00    0,000000000e+00    0,000000000e+00
      338000000   -4,100691155e-02   -3,780775890e-02   -3,112449944e-01    7,101208568e-01    0,000000000e+00    0,000000000e+00    0,000000000e+00    0,000000000e+00
      352000000   -2,336426638e-02   -3,759967163e-02    1,192209870e-01    7,580712438e-01    0,000000000e+00    0,000000000e+00    0,000000000e+00    0,000000000e+00
      366000000   -2,314577438e-02   -5,603944510e-02    5,028880239e-01    5,719798803e-01    0,000000000e+00    0,000000000e+00    0,000000000e+00    0,000000000e+00
      380000000   -4,464657605e-02   -6,507425010e-02    7,266964912e-01    2,118040323e-01    0,000000000e+00    0,000000000e+00    0,000000000e+00    0,000000000e+00
      394000000   -6,643295288e-02   -5,040845647e-02    7,235282063e-01   -2,129596919e-01    0,000000000e+00    0,000000000e+00    0,000000000e+00    0,000000000e+00
      408000000   -6,742114574e-02   -2,632607892e-02    4,893148243e-01   -5,670580268e-01    0,000000000e+00    0,000000000e+00    0,000000000e+00    0,000000000e+00
      422000000   -5,301072076e-02   -1,528587099e-02    1,051900014e-01   -7,386339903e-01    0,000000000e+00    0,000000000e+00    0,000000000e+00    0,000000000e+00
      436000000   -4,585739970e-02   -1,900202595e-02   -3,050687909e-01   -6,749927402e-01    0,000000000e+00    0,000000000e+00    0,000000000e+00    0,000000000e+00
      450000000   -5,238816515e-02   -1,537273824e-02   -6,188250184e-01   -3,993361890e-01    0,000000000e+00    0,000000000e+00    0,000000000e+00    0,000000000e+00
      464000000   -5,015321448e-02    5,352704320e-03   -7,296397090e-01    3,171429504e-03    0,000000000e+00    0,000000000e+00    0,000000000e+00    0,000000000e+00
      478000000   -2,103473060e-02    2,604019642e-02   -5,989998579e-01    3,963572085e-01    0,000000000e+00    0,000000000e+00    0,000000000e+00    0,000000000e+00
      492000000    2,746835351e-02    1,482789405e-02   -2,808499038e-01    6,444103122e-01    0,000000000e+00    0,000000000e+00    0,000000000e+00    0,000000000e+00
      506000000    5,772758275e-02   -3,651033342e-02    1,030599475e-01    6,815650463e-01    0,000000000e+00    0,000000000e+00    0,000000000e+00    0,000000000e+00
      520000000    4,306443408e-02   -1,009451672e-01    4,423307776e-01    5,177159905e-01    0,000000000e+00    0,000000000e+00    0,000000000e+00    0,000000000e+00
      534000000   -1,247267425e-02   -1,418428868e-01    6,494534016e-01    2,077713758e-01    0,000000000e+00    0,000000000e+00    0,000000000e+00    0,000000000e+00
      548000000   -7,889550924e-02   -1,377306432e-01    6,618441343e-01   -1,734906584e-01    0,000000000e+00    0,000000000e+00    0,000000000e+00    0,000000000e+00
      562000000   -1,256675422e-01   -9,913326055e-02    4,555837810e-01   -5,075458288e-01    0,000000000e+00    0,000000000e+00    0,000000000e+00    0,000000000e+00
      576000000   -1,434020996e-01   -4,581001773e-02    9,025648236e-02   -6,655253172e-01    0,000000000e+00    0,000000000e+00    0,000000000e+00    0,000000000e+00
      590000000   -1,349171698e-01    1,197396219e-02   -2,947995067e-01   -5,843734145e-01    0,000000000e+00    0,000000000e+00    0,000000000e+00    0,000000000e+00
      604000000   -7,424367219e-02    6,735736877e-02   -5,278190374e-01   -2,805426419e-01    0,000000000e+00    0,000000000e+00    0,000000000e+00    0,000000000e+00
      618000000    3,684699163e-02    2,707334422e-02   -5,030820370e-01    1,678355783e-02    0,000000000e+00    0,000000000e+00    0,000000000e+00    0,000000000e+00
      632000000    2,037707745e-04   -1,031860560e-01   -4,627609253e-01    1,724967211e-01    0,000000000e+00    0,000000000e+00    0,000000000e+00    0,000000000e+00
      646000000   -1,030394658e-01   -6,909818947e-02   -3,793694377e-01    4,375301003e-01    0,000000000e+00    0,000000000e+00    0,000000000e+00    0,000000000e+00
      660000000   -8,925023675e-02    2,569230739e-03   -7,051434368e-02    6,165878773e-01    0,000000000e+00    0,000000000e+00    0,000000000e+00    0,000000000e+00
      674000000   -4,099924490e-02    1,283034775e-02    2,862047553e-01    5,584655404e-01    0,000000000e+00    0,000000000e+00    0,000000000e+00    0,000000000e+00
      688000000   -1,684768870e-02   -7,872351445e-03    5,437461734e-01    3,111847341e-01    0,000000000e+00    0,000000000e+00    0,000000000e+00    0,000000000e+00
      702000000   -1,005260181e-02   -2,914027870e-02    6,231268644e-01   -3,508320823e-02    0,000000000e+00    0,000000000e+00    0,000000000e+00    0,000000000e+00
      716000000   -4,976041615e-03   -4,709678888e-02    4,964224100e-01   -3,646293879e-01    0,000000000e+00    0,000000000e+00    0,000000000e+00    0,000000000e+00
      730000000   -2,658837009e-03   -7,660767436e-02    2,161388993e-01   -5,675985217e-01    0,000000000e+00    0,000000000e+00    0,000000000e+00    0,000000000e+00
      744000000   -2,441015467e-02   -1,138328165e-01   -1,199189126e-01   -5,914342999e-01    0,000000000e+00    0,000000000e+00    0,000000000e+00    0,000000000e+00
      758000000   -7,584960759e-02   -1,369716376e-01   -4,191629589e-01   -4,372301698e-01    0,000000000e+00    0,000000000e+00    0,000000000e+00    0,000000000e+00
      772000000   -1,393458396e-01   -1,172307506e-01   -5,961211324e-01   -1,438424885e-01    0,000000000e+00    0,000000000e+00    0,000000000e+00    0,000000000e+00
      786000000   -1,746742874e-01   -5,659246445e-02   -5,852590203e-01    2,088906914e-01    0,000000000e+00    0,000000000e+00    0,000000000e+00    0,000000000e+00
      800000000   -1,610829383e-01    9,553021751e-03   -3,757708371e-01    4,983451664e-01    0,000000000e+00    0,000000000e+00    0,000000000e+00    0,000000000e+00
      814000000   -1,124841273e-01    4,498531669e-02   -4,598688334e-02    6,178117394e-01    0,000000000e+00    0,000000000e+00    0,000000000e+00    0,000000000e+00
      828000000   -6,544257700e-02    4,466002062e-02    2,877998352e-01    5,428823829e-01    0,000000000e+00    0,000000000e+00    0,000000000e+00    0,000000000e+00
      842000000   -3,696721792e-02    2,703888342e-02    5,227426887e-01    3,070208728e-01    0,000000000e+00    0,000000000e+00    0,000000000e+00    0,000000000e+00
      856000000   -1,797214523e-02    9,068734013e-03    5,970405936e-01   -1,330837049e-02    0,000000000e+00    0,000000000e+00    0,000000000e+00    0,000000000e+00
      870000000   -1,218177378e-03   -1,346792374e-02    4,895260334e-01   -3,184427917e-01    0,000000000e+00    0,000000000e+00    0,000000000e+00    0,000000000e+00
      884000000    9,366297163e-03   -5,025250465e-02    2,425054610e-01   -5,146723986e-01    0,000000000e+00    0,000000000e+00    0,000000000e+00    0,000000000e+00
      898000000   -5,151661579e-03   -9,838876128e-02   -5,970246717e-02   -5,584579706e-01    0,000000000e+00    0,000000000e+00    0,000000000e+00    0,000000000e+00
      912000000   -6,292924285e-02   -1,287674904e-01   -3,966938853e-01   -4,147484899e-01    0,000000000e+00    0,000000000e+00    0,000000000e+00    0,000000000e+00
      926000000   -1,211436465e-01   -1,167231128e-01   -5,677579641e-01   -1,470438242e-01    0,000000000e+00    0,000000000e+00    0,000000000e+00    0,000000000e+00
      940000000   -1,593017429e-01   -6,319786608e-02   -5,701032877e-01    1,962204278e-01    0,000000000e+00    0,000000000e+00    0,000000000e+00    0,000000000e+00
      954000000   -1,458348483e-01   -7,370184641e-03   -3,741782904e-01    4,876002073e-01    0,000000000e+00    0,000000000e+00    0,000000000e+00    0,000000000e+00
      968000000   -1,023962349e-01    2,310300432e-02   -4,908837378e-02    6,192495823e-01    0,000000000e+00    0,000000000e+00    0,000000000e+00    0,000000000e+00
      982000000   -6,189654395e-02    4,915980622e-03    2,850205004e-01    5,538918376e-01    0,000000000e+00    0,000000000e+00    0,000000000e+00    0,000000000e+00
      996000000   -4,584473744e-02   -3,146703541e-02    5,273552537e-01    3,241329193e-01    0,000000000e+00    0,000000000e+00    0,000000000e+00    0,000000000e+00
     1010000000   -6,110324711e-02   -6,409617513e-02    6,096994281e-01    9,571854025e-03    0,000000000e+00    0,000000000e+00    0,000000000e+00    0,000000000e+00
     1024000000   -9,251756221e-02   -7,841817290e-02    5,093308091e-01   -2,858946919e-01    0,000000000e+00    0,000000000e+00    0,000000000e+00    0,000000000e+00
     1038000000   -1,356928647e-01   -5,992623419e-02    2,879000008e-01   -4,704168141e-01    0,000000000e+00    0,000000000e+00    0,000000000e+00    0,000000000e+00
     1052000000   -1,538012922e-01   -1,010170113e-02    3,530779481e-02   -5,203313231e-01    0,000000000e+00    0,000000000e+00    0,000000000e+00    0,000000000e+00
     1066000000   -1,122076735e-01    3,426821530e-02   -2,139601558e-01   -4,657568336e-01    0,000000000e+00    0,000000000e+00    0,000000000e+00    0,000000000e+00
     1080000000   -5,929992720e-02    3,432052210e-02   -4,188728631e-01   -2,980699837e-01    0,000000000e+00    0,000000000e+00    0,000000000e+00    0,000000000e+00
     1094000000   -2,943004668e-02    1,913479995e-03   -5,178683996e-01   -2,365229651e-02    0,000000000e+00    0,000000000e+00    0,000000000e+00    0,000000000e+00
     1108000000   -2,602822147e-02   -3,482275084e-02   -4,365296662e-01    2,838516831e-01    0,000000000e+00    0,000000000e+00    0,000000000e+00    0,000000000e+00
     1122000000   -2,521107905e-02   -6,193395332e-02   -1,857841015e-01    4,932568073e-01    0,000000000e+00    0,000000000e+00    0,000000000e+00    0,000000000e+00
     1136000000   -4,032843560e-02   -9,683743864e-02    1,514882147e-01    5,183911920e-01    0,000000000e+00    0,000000000e+00    0,000000000e+00    0,000000000e+00
     1150000000   -8,432736993e-02   -1,226645559e-01    4,490565360e-01    3,460447490e-01    0,000000000e+00    0,000000000e+00    0,000000000e+00    0,000000000e+00
     1164000000   -1,429541558e-01   -1,182076484e-01    6,076273322e-01    1,326152682e-02    0,000000000e+00    0,000000000e+00    0,000000000e+00    0,000000000e+00
     1178000000   -1,797355413e-01   -8,432414383e-02    5,389540195e-01   -3,652542233e-01    0,000000000e+00    0,000000000e+00    0,000000000e+00    0,000000000e+00
     1192000000   -1,796008945e-01   -5,634207278e-02    2,429539263e-01   -6,336620450e-01    0,000000000e+00    0,000000000e+00    0,000000000e+00    0,000000000e+00
     1206000000   -1,900192052e-01   -5,754511803e-02   -1,322955340e-01   -6,607599258e-01    0,000000000e+00    0,000000000e+00    0,000000000e+00    0,000000000e+00
     1220000000   -2,510326505e-01   -2,131607942e-02   -4,193836451e-01   -4,871068895e-01    0,000000000e+00    0,000000000e+00    0,000000000e+00    0,000000000e+00
     1234000000   -2,485442609e-01    1,120767668e-01   -5,586506724e-01   -2,490157038e-01    0,000000000e+00    0,000000000e+00    0,000000000e+00    0,000000000e+00
     1248000000   -1,169090495e-01    1,725461036e-01   -6,085333824e-01    1,953434013e-02    0,000000000e+00    0,000000000e+00    0,000000000e+00    0,000000000e+00
     1262000000   -4,247850738e-03    1,355815530e-01   -5,051871538e-01    3,005142808e-01    0,000000000e+00    0,000000000e+00    0,000000000e+00    0,000000000e+00
     1276000000    5,990333855e-02    4,526735097e-02   -2,797453701e-01    4,854039848e-01    0,000000000e+00    0,000000000e+00    0,000000000e+00    0,000000000e+00
     1290000000    6,969951838e-02   -7,215449214e-02    5,502532236e-03    5,498903394e-01    0,000000000e+00    0,000000000e+00    0,000000000e+00    0,000000000e+00
     1304000000    1,887395047e-02   -1,780527085e-01    2,935881615e-01    4,784359038e-01    0,000000000e+00    0,000000000e+00    0,000000000e+00    0,000000000e+00
     1318000000   -9,565014392e-02   -2,563787699e-01    5,373951793e-01    2,723916173e-01    0,000000000e+00    0,000000000e+00    0,000000000e+00    0,000000000e+00
     1332000000   -2,418863326e-01   -2,473648638e-01    6,545297503e-01   -5,285540596e-02    0,000000000e+00    0,000000000e+00    0,000000000e+00    0,000000000e+00
     1346000000   -3,602576256e-01   -1,417134702e-01    5,605325103e-01   -4,074536860e-01    0,000000000e+00    0,000000000e+00    0,000000000e+00    0,000000000e+00
     1360000000   -3,887477517e-01    1,379196998e-02    2,531199753e-01   -6,244487762e-01    0,000000000e+00    0,000000000e+00    0,000000000e+00    0,000000000e+00
     1374000000   -3,273005486e-01    1,182493567e-01   -9,960693121e-02   -6,238988042e-01    0,000000000e+00    0,000000000e+00    0,000000000e+00    0,000000000e+00
     1388000000   -2,394687533e-01    1,697467417e-01   -3,750435710e-01   -4,193786681e-01    0,000000000e+00    0,000000000e+00    0,000000000e+00    0,000000000e+00
     1402000000   -1,555615067e-01    1,742126793e-01   -4,776690006e-01   -1,015224457e-01    0,000000000e+00    0,000000000e+00    0,000000000e+00    0,000000000e+00
     1416000000   -8,290089667e-02    1,405903399e-01   -3,907498121e-01    2,067895979e-01    0,000000000e+00    0,000000000e+00    0,000000000e+00    0,000000000e+00
     1430000000   -2,749971114e-02    8,335561305e-02   -1,562280059e-01    4,167198539e-01    0,000000000e+00    0,000000000e+00    0,000000000e+00    0,000000000e+00
     1444000000   -1,126301289e-02    8,161193691e-03    1,235093549e-01    5,313337445e-01    0,000000000e+00    0,000000000e+00    0,000000000e+00    0,000000000e+00
     1458000000   -4,397774488e-02   -8,770525455e-02    4,349046052e-01    4,940899909e-01    0,000000000e+00    0,000000000e+00    0,000000000e+00    0,000000000e+00
     1472000000   -1,211189181e-01   -1,523336619e-01    7,349554300e-01    2,984496951e-01    0,000000000e+00    0,000000000e+00    0,000000000e+00    0,000000000e+00
     1486000000   -2,248789221e-01   -1,476402730e-01    9,077860117e-01   -3,625476360e-02    0,000000000e+00    0,000000000e+00    0,000000000e+00    0,000000000e+00
     1500000000   -3,039156795e-01   -6,964898854e-02    8,480473757e-01   -4,289335310e-01    0,000000000e+00    0,000000000e+00    0,000000000e+00    0,000000000e+00
