! NanoVNA-App
! Date: 2025-09-25 14:58:34
! Start: 100MHz Stop: 1,5GHz Points: 101
! S-Parameter data: F S11 S21 S12 S22
# Hz S RI R 50
!     Frequency           S11_Real           S11_Imag           S21_Real           S21_Imag           S12_Real           S12_Imag           S22_Real           S22_Imag
      100000000    3,558870032e-02    2,734046616e-02    4,407305419e-01   -6,695595980e-01    0,000000000e+00    0,000000000e+00    0,000000000e+00    0,000000000e+00
      114000000    6,073679775e-02    2,182941185e-03    1,297814678e-02   -7,954049110e-01    0,000000000e+00    0,000000000e+00    0,000000000e+00    0,000000000e+00
      128000000    6,836134195e-02   -4,227346927e-02   -4,081941843e-01   -6,779913902e-01    0,000000000e+00    0,000000000e+00    0,000000000e+00    0,000000000e+00
      142000000    4,349562153e-02   -8,877266198e-02   -7,051427960e-01   -3,608866632e-01    0,000000000e+00    0,000000000e+00    0,000000000e+00    0,000000000e+00
      156000000   -8,777508512e-03   -1,102121025e-01   -7,942883372e-01    6,798239052e-02    0,000000000e+00    0,000000000e+00    0,000000000e+00    0,000000000e+00
      170000000   -6,264597923e-02   -9,182853997e-02   -6,369416118e-01    4,865770638e-01    0,000000000e+00    0,000000000e+00    0,000000000e+00    0,000000000e+00
      184000000   -8,855964988e-02   -4,765891656e-02   -2,730339170e-01    7,562782168e-01    0,000000000e+00    0,000000000e+00    0,000000000e+00    0,000000000e+00
      198000000   -8,272218704e-02   -6,420628168e-03    1,796671897e-01    7,824069858e-01    0,000000000e+00    0,000000000e+00    0,000000000e+00    0,000000000e+00
      212000000   -6,268686801e-02    1,800094545e-02    5,707129836e-01    5,581892729e-01    0,000000000e+00    0,000000000e+00    0,000000000e+00    0,000000000e+00
      226000000   -4,147268832e-02    3,185131028e-02    7,767745256e-01    1,619063914e-01    0,000000000e+00    0,000000000e+00    0,000000000e+00    0,000000000e+00
      240000000   -1,489980053e-02    4,130430892e-02    7,361552119e-01   -2,787414193e-01    0,000000000e+00    0,000000000e+00    0,000000000e+00    0,000000000e+00
      254000000    2,140200697e-02    3,627662361e-02    4,678271413e-01   -6,223160625e-01    0,000000000e+00    0,000000000e+00    0,000000000e+00    0,000000000e+00
      268000000    5,329219997e-02    4,703690764e-03    6,671945006e-02   -7,675116658e-01    0,000000000e+00    0,000000000e+00    0,000000000e+00    0,000000000e+00
      282000000    5,736320838e-02   -4,498240724e-02   -3,460002840e-01   -6,826577187e-01    0,000000000e+00    0,000000000e+00    0,000000000e+00    0,000000000e+00
      296000000    2,604543790e-02   -8,475302160e-02   -6,553965807e-01   -3,980073631e-01    0,000000000e+00    0,000000000e+00    0,000000000e+00    0,000000000e+00
      310000000   -1,893240400e-02   -8,930565417e-02   -7,741812468e-01    1,150488202e-02    0,000000000e+00    0,000000000e+00    0,000000000e+00    0,000000000e+00
      324000000   -4,652653635e-02   -6,341531128e-02   -6,477288604e-01    4,300130904e-01    0,000000000e+00    0,000000000e+00    0,000000000e+00    0,000000000e+00
      338000000   -4,113870114e-02   -3,775611147e-02   -3,109563291e-01    7,084749341e-01    0,000000000e+00    0,000000000e+00    0,000000000e+00    0,000000000e+00
      352000000   -2,322577313e-02   -3,775117174e-02    1,199381649e-01    7,582025528e-01    0,000000000e+00    0,000000000e+00    0,000000000e+00    0,000000000e+00
      366000000   -2,298390307e-02   -5,625837296e-02    5,020492673e-01    5,704835653e-01    0,000000000e+00    0,000000000e+00    0,000000000e+00    0,000000000e+00
      380000000   -4,462598264e-02   -6,513936073e-02    7,265995145e-01    2,120315433e-01    0,000000000e+00    0,000000000e+00    0,000000000e+00    0,000000000e+00
      394000000   -6,621203572e-02   -5,067874119e-02    7,229681611e-01   -2,134850621e-01    0,000000000e+00    0,000000000e+00    0,000000000e+00    0,000000000e+00
      408000000   -6,739003956e-02   -2,640582807e-02    4,900889695e-01   -5,677849054e-01    0,000000000e+00    0,000000000e+00    0,000000000e+00    0,000000000e+00
      422000000   -5,354166031e-02   -1,545944251e-02    1,049416363e-01   -7,382982969e-01    0,000000000e+00    0,000000000e+00    0,000000000e+00    0,000000000e+00
      436000000   -4,679985344e-02   -1,900195889e-02   -3,063144684e-01   -6,758966446e-01    0,000000000e+00    0,000000000e+00    0,000000000e+00    0,000000000e+00
      450000000   -5,201813579e-02   -1,508268062e-02   -6,193833351e-01   -3,998466134e-01    0,000000000e+00    0,000000000e+00    0,000000000e+00    0,000000000e+00
      464000000   -5,046213418e-02    5,594280083e-03   -7,297214270e-01    3,217083402e-03    0,000000000e+00    0,000000000e+00    0,000000000e+00    0,000000000e+00
      478000000   -2,023090795e-02    2,652240358e-02   -5,981467366e-01    3,972284198e-01    0,000000000e+00    0,000000000e+00    0,000000000e+00    0,000000000e+00
      492000000    2,866314538e-02    1,466201618e-02   -2,789549232e-01    6,437163949e-01    0,000000000e+00    0,000000000e+00    0,000000000e+00    0,000000000e+00
      506000000    5,944870412e-02   -3,748532012e-02    1,051037610e-01    6,796580553e-01    0,000000000e+00    0,000000000e+00    0,000000000e+00    0,000000000e+00
      520000000    4,432878643e-02   -1,030206382e-01    4,459995031e-01    5,165004730e-01    0,000000000e+00    0,000000000e+00    0,000000000e+00    0,000000000e+00
      534000000   -1,238422934e-02   -1,442050934e-01    6,492756605e-01    2,057838738e-01    0,000000000e+00    0,000000000e+00    0,000000000e+00    0,000000000e+00
      548000000   -8,217144758e-02   -1,401340216e-01    6,591525078e-01   -1,763366759e-01    0,000000000e+00    0,000000000e+00    0,000000000e+00    0,000000000e+00
      562000000   -1,315862536e-01   -9,822382033e-02    4,505262971e-01   -5,092534423e-01    0,000000000e+00    0,000000000e+00    0,000000000e+00    0,000000000e+00
      576000000   -1,500578225e-01   -3,818368167e-02    8,142786473e-02   -6,603147984e-01    0,000000000e+00    0,000000000e+00    0,000000000e+00    0,000000000e+00
      590000000   -1,296504587e-01    3,001169674e-02   -2,972368300e-01   -5,612435937e-01    0,000000000e+00    0,000000000e+00    0,000000000e+00    0,000000000e+00
      604000000   -3,722827882e-02    6,838638335e-02   -4,872763455e-01   -2,693254948e-01    0,000000000e+00    0,000000000e+00    0,000000000e+00    0,000000000e+00
      618000000    3,448070958e-02   -3,171973303e-02   -4,936384261e-01   -5,252672732e-02    0,000000000e+00    0,000000000e+00    0,000000000e+00    0,000000000e+00
      632000000   -5,363941565e-02   -9,276256710e-02   -5,270462632e-01    1,773339361e-01    0,000000000e+00    0,000000000e+00    0,000000000e+00    0,000000000e+00
      646000000   -1,001945883e-01   -3,325354308e-02   -3,794302046e-01    4,780353010e-01    0,000000000e+00    0,000000000e+00    0,000000000e+00    0,000000000e+00
      660000000   -6,822692603e-02    1,017361321e-02   -5,099352449e-02    6,255428791e-01    0,000000000e+00    0,000000000e+00    0,000000000e+00    0,000000000e+00
      674000000   -3,022202477e-02    3,984578885e-03    2,984020710e-01    5,536754131e-01    0,000000000e+00    0,000000000e+00    0,000000000e+00    0,000000000e+00
      688000000   -1,581910998e-02   -1,761858165e-02    5,472920537e-01    3,030512035e-01    0,000000000e+00    0,000000000e+00    0,000000000e+00    0,000000000e+00
      702000000   -1,515931822e-02   -3,525008261e-02    6,189051867e-01   -3,962266818e-02    0,000000000e+00    0,000000000e+00    0,000000000e+00    0,000000000e+00
      716000000   -1,043307688e-02   -4,889633879e-02    4,918488264e-01   -3,678112328e-01    0,000000000e+00    0,000000000e+00    0,000000000e+00    0,000000000e+00
      730000000   -6,885543466e-03   -7,510223985e-02    2,111040354e-01   -5,679287314e-01    0,000000000e+00    0,000000000e+00    0,000000000e+00    0,000000000e+00
      744000000   -2,531594969e-02   -1,104906201e-01   -1,241077036e-01   -5,878437757e-01    0,000000000e+00    0,000000000e+00    0,000000000e+00    0,000000000e+00
      758000000   -7,389015704e-02   -1,325097978e-01   -4,191054702e-01   -4,324381053e-01    0,000000000e+00    0,000000000e+00    0,000000000e+00    0,000000000e+00
      772000000   -1,348180026e-01   -1,154394448e-01   -5,935806036e-01   -1,394943297e-01    0,000000000e+00    0,000000000e+00    0,000000000e+00    0,000000000e+00
      786000000   -1,714650840e-01   -5,942782015e-02   -5,815418363e-01    2,098799795e-01    0,000000000e+00    0,000000000e+00    0,000000000e+00    0,000000000e+00
      800000000   -1,590611637e-01    6,250698585e-03   -3,727293909e-01    4,948120117e-01    0,000000000e+00    0,000000000e+00    0,000000000e+00    0,000000000e+00
      814000000   -1,141216457e-01    4,252577946e-02   -4,584651813e-02    6,138970852e-01    0,000000000e+00    0,000000000e+00    0,000000000e+00    0,000000000e+00
      828000000   -6,882282346e-02    4,342408478e-02    2,865014076e-01    5,397965312e-01    0,000000000e+00    0,000000000e+00    0,000000000e+00    0,000000000e+00
      842000000   -3,952625766e-02    2,958839014e-02    5,211101174e-01    3,052667975e-01    0,000000000e+00    0,000000000e+00    0,000000000e+00    0,000000000e+00
      856000000   -1,885664277e-02    1,259356551e-02    5,940660238e-01   -1,368052326e-02    0,000000000e+00    0,000000000e+00    0,000000000e+00    0,000000000e+00
      870000000    2,540847519e-03   -1,077978313e-02    4,858177602e-01   -3,167640567e-01    0,000000000e+00    0,000000000e+00    0,000000000e+00    0,000000000e+00
      884000000    1,303712185e-02   -5,110609904e-02    2,428765148e-01   -5,116718411e-01    0,000000000e+00    0,000000000e+00    0,000000000e+00    0,000000000e+00
      898000000   -4,018130712e-03   -1,022816598e-01   -5,626623333e-02   -5,548542142e-01    0,000000000e+00    0,000000000e+00    0,000000000e+00    0,000000000e+00
      912000000   -6,255798787e-02   -1,322690398e-01   -3,916014731e-01   -4,262130260e-01    0,000000000e+00    0,000000000e+00    0,000000000e+00    0,000000000e+00
      926000000   -1,274169981e-01   -1,180018112e-01   -5,675650239e-01   -1,478630304e-01    0,000000000e+00    0,000000000e+00    0,000000000e+00    0,000000000e+00
      940000000   -1,622241288e-01   -6,294100732e-02   -5,669661164e-01    1,926065236e-01    0,000000000e+00    0,000000000e+00    0,000000000e+00    0,000000000e+00
      954000000   -1,487265825e-01   -4,388039932e-03   -3,730809391e-01    4,834444225e-01    0,000000000e+00    0,000000000e+00    0,000000000e+00    0,000000000e+00
      968000000   -9,900811315e-02    2,551734447e-02   -5,232203379e-02    6,155390739e-01    0,000000000e+00    0,000000000e+00    0,000000000e+00    0,000000000e+00
      982000000   -5,689447746e-02    4,326113500e-03    2,832829356e-01    5,517547727e-01    0,000000000e+00    0,000000000e+00    0,000000000e+00    0,000000000e+00
      996000000   -4,333861545e-02   -3,170420602e-02    5,249212980e-01    3,278014660e-01    0,000000000e+00    0,000000000e+00    0,000000000e+00    0,000000000e+00
     1010000000   -5,933222175e-02   -6,746353954e-02    6,079942584e-01    1,476186886e-02    0,000000000e+00    0,000000000e+00    0,000000000e+00    0,000000000e+00
     1024000000   -9,740629792e-02   -7,784637064e-02    5,160953999e-01   -2,825659215e-01    0,000000000e+00    0,000000000e+00    0,000000000e+00    0,000000000e+00
     1038000000   -1,442990750e-01   -5,973200127e-02    2,948792875e-01   -4,706187546e-01    0,000000000e+00    0,000000000e+00    0,000000000e+00    0,000000000e+00
     1052000000   -1,524032205e-01    1,718039974e-03    3,518596292e-02   -5,247245431e-01    0,000000000e+00    0,000000000e+00    0,000000000e+00    0,000000000e+00
     1066000000   -1,027238667e-01    3,920092434e-02   -2,083885223e-01   -4,642714262e-01    0,000000000e+00    0,000000000e+00    0,000000000e+00    0,000000000e+00
     1080000000   -5,123764649e-02    2,919534966e-02   -4,171653390e-01   -2,992250621e-01    0,000000000e+00    0,000000000e+00    0,000000000e+00    0,000000000e+00
     1094000000   -3,246207535e-02   -8,225072175e-03   -5,204315186e-01   -2,137886174e-02    0,000000000e+00    0,000000000e+00    0,000000000e+00    0,000000000e+00
     1108000000   -3,465770558e-02   -3,118485585e-02   -4,431529343e-01    2,818664908e-01    0,000000000e+00    0,000000000e+00    0,000000000e+00    0,000000000e+00
     1122000000   -3,005792014e-02   -6,031192839e-02   -1,893072575e-01    4,955975115e-01    0,000000000e+00    0,000000000e+00    0,000000000e+00    0,000000000e+00
     1136000000   -3,892007843e-02   -9,285379946e-02    1,515696794e-01    5,210285783e-01    0,000000000e+00    0,000000000e+00    0,000000000e+00    0,000000000e+00
     1150000000   -7,962381840e-02   -1,237451285e-01    4,525308609e-01    3,420927823e-01    0,000000000e+00    0,000000000e+00    0,000000000e+00    0,000000000e+00
     1164000000   -1,381710768e-01   -1,205084249e-01    6,081529856e-01    1,079041511e-02    0,000000000e+00    0,000000000e+00    0,000000000e+00    0,000000000e+00
     1178000000   -1,801015437e-01   -8,442389965e-02    5,397515297e-01   -3,749390841e-01    0,000000000e+00    0,000000000e+00    0,000000000e+00    0,000000000e+00
     1192000000   -1,832897812e-01   -5,465056002e-02    2,410618812e-01   -6,367313862e-01    0,000000000e+00    0,000000000e+00    0,000000000e+00    0,000000000e+00
     1206000000   -1,892488748e-01   -5,307172611e-02   -1,374939531e-01   -6,603618860e-01    0,000000000e+00    0,000000000e+00    0,000000000e+00    0,000000000e+00
     1220000000   -2,536652684e-01   -1,049846038e-02   -4,175954461e-01   -4,821430147e-01    0,000000000e+00    0,000000000e+00    0,000000000e+00    0,000000000e+00
     1234000000   -2,439870387e-01    1,178098843e-01   -5,557762384e-01   -2,482159585e-01    0,000000000e+00    0,000000000e+00    0,000000000e+00    0,000000000e+00
     1248000000   -1,104223952e-01    1,730563492e-01   -6,062281728e-01    2,414650284e-02    0,000000000e+00    0,000000000e+00    0,000000000e+00    0,000000000e+00
     1262000000   -3,915593959e-03    1,289568394e-01   -5,048846602e-01    2,969305217e-01    0,000000000e+00    0,000000000e+00    0,000000000e+00    0,000000000e+00
     1276000000    5,898780748e-02    3,857405856e-02   -2,765593827e-01    4,808112979e-01    0,000000000e+00    0,000000000e+00    0,000000000e+00    0,000000000e+00
     1290000000    6,899376214e-02   -6,766136736e-02    7,857282646e-03    5,464984775e-01    0,000000000e+00    0,000000000e+00    0,000000000e+00    0,000000000e+00
     1304000000    2,187528834e-02   -1,778452396e-01    3,023787737e-01    4,810946584e-01    0,000000000e+00    0,000000000e+00    0,000000000e+00    0,000000000e+00
     1318000000   -9,398257732e-02   -2,504384220e-01    5,424820781e-01    2,728108764e-01    0,000000000e+00    0,000000000e+00    0,000000000e+00    0,000000000e+00
     1332000000   -2,487933040e-01   -2,434476614e-01    6,477029324e-01   -5,412387475e-02    0,000000000e+00    0,000000000e+00    0,000000000e+00    0,000000000e+00
     1346000000   -3,662199676e-01   -1,404486448e-01    5,416914225e-01   -4,033564925e-01    0,000000000e+00    0,000000000e+00    0,000000000e+00    0,000000000e+00
     1360000000   -3,823590875e-01    4,705170169e-03    2,480849624e-01   -6,435560584e-01    0,000000000e+00    0,000000000e+00    0,000000000e+00    0,000000000e+00
     1374000000   -3,250702024e-01    1,229858696e-01   -1,194041446e-01   -6,217599511e-01    0,000000000e+00    0,000000000e+00    0,000000000e+00    0,000000000e+00
     1388000000   -2,311443239e-01    1,707372665e-01   -3,719913960e-01   -4,126351178e-01    0,000000000e+00    0,000000000e+00    0,000000000e+00    0,000000000e+00
     1402000000   -1,532660127e-01    1,723159701e-01   -4,763951600e-01   -1,025333852e-01    0,000000000e+00    0,000000000e+00    0,000000000e+00    0,000000000e+00
     1416000000   -8,083857596e-02    1,398308575e-01   -3,971528411e-01    1,958310604e-01    0,000000000e+00    0,000000000e+00    0,000000000e+00    0,000000000e+00
     1430000000   -3,267385438e-02    8,682692051e-02   -1,523046046e-01    3,937117755e-01    0,000000000e+00    0,000000000e+00    0,000000000e+00    0,000000000e+00
     1444000000   -1,155935880e-02    9,037030861e-03    1,270029992e-01    5,398288965e-01    0,000000000e+00    0,000000000e+00    0,000000000e+00    0,000000000e+00
     1458000000   -3,648035601e-02   -8,579485118e-02    4,291490018e-01    4,861741066e-01    0,000000000e+00    0,000000000e+00    0,000000000e+00    0,000000000e+00
     1472000000   -1,174350008e-01   -1,466124952e-01    7,405613661e-01    2,988854945e-01    0,000000000e+00    0,000000000e+00    0,000000000e+00    0,000000000e+00
     1486000000   -2,266644239e-01   -1,436654329e-01    9,122133851e-01   -3,383131698e-02    0,000000000e+00    0,000000000e+00    0,000000000e+00    0,000000000e+00
     1500000000   -3,089922369e-01   -6,087419763e-02    8,654463887e-01   -4,083769023e-01    0,000000000e+00    0,000000000e+00    0,000000000e+00    0,000000000e+00
