! NanoVNA-App
! Date: 2025-09-25 15:00:17
! Start: 100MHz Stop: 1,5GHz Points: 101
! S-Parameter data: F S11 S21 S12 S22
# Hz S RI R 50
!     Frequency           S11_Real           S11_Imag           S21_Real           S21_Imag           S12_Real           S12_Imag           S22_Real           S22_Imag
      100000000    3,558253869e-02    2,736094221e-02    4,407864213e-01   -6,695710421e-01    0,000000000e+00    0,000000000e+00    0,000000000e+00    0,000000000e+00
      114000000    6,072459742e-02    2,191409701e-03    1,287226938e-02   -7,955484390e-01    0,000000000e+00    0,000000000e+00    0,000000000e+00    0,000000000e+00
      128000000    6,839586794e-02   -4,225928709e-02   -4,082084298e-01   -6,781896353e-01    0,000000000e+00    0,000000000e+00    0,000000000e+00    0,000000000e+00
      142000000    4,346795008e-02   -8,874854445e-02   -7,051059008e-01   -3,608698845e-01    0,000000000e+00    0,000000000e+00    0,000000000e+00    0,000000000e+00
      156000000   -9,612650611e-03   -1,100966036e-01   -7,929636836e-01    6,793750077e-02    0,000000000e+00    0,000000000e+00    0,000000000e+00    0,000000000e+00
      170000000   -6,268115342e-02   -9,180381894e-02   -6,367976665e-01    4,863297343e-01    0,000000000e+00    0,000000000e+00    0,000000000e+00    0,000000000e+00
      184000000   -8,855167031e-02   -4,765938222e-02   -2,732912600e-01    7,562349439e-01    0,000000000e+00    0,000000000e+00    0,000000000e+00    0,000000000e+00
      198000000   -8,275458962e-02   -6,445311941e-03    1,795265377e-01    7,822868228e-01    0,000000000e+00    0,000000000e+00    0,000000000e+00    0,000000000e+00
      212000000   -6,273373961e-02    1,799695380e-02    5,706561208e-01    5,584673285e-01    0,000000000e+00    0,000000000e+00    0,000000000e+00    0,000000000e+00
      226000000   -4,149148986e-02    3,177994862e-02    7,767898440e-01    1,618861109e-01    0,000000000e+00    0,000000000e+00    0,000000000e+00    0,000000000e+00
      240000000   -1,495646406e-02    4,135381430e-02    7,361977100e-01   -2,788328230e-01    0,000000000e+00    0,000000000e+00    0,000000000e+00    0,000000000e+00
      254000000    2,138576843e-02    3,632072359e-02    4,678227901e-01   -6,222775578e-01    0,000000000e+00    0,000000000e+00    0,000000000e+00    0,000000000e+00
      268000000    5,326536670e-02    4,749790300e-03    6,675205380e-02   -7,672830224e-01    0,000000000e+00    0,000000000e+00    0,000000000e+00    0,000000000e+00
      282000000    5,744757876e-02   -4,484821483e-02   -3,457814157e-01   -6,825398803e-01    0,000000000e+00    0,000000000e+00    0,000000000e+00    0,000000000e+00
      296000000    2,620666288e-02   -8,478279412e-02   -6,548908949e-01   -3,978381157e-01    0,000000000e+00    0,000000000e+00    0,000000000e+00    0,000000000e+00
      310000000   -1,915869489e-02   -8,925016969e-02   -7,747988105e-01    1,152614411e-02    0,000000000e+00    0,000000000e+00    0,000000000e+00    0,000000000e+00
      324000000   -4,640603811e-02   -6,355373561e-02   -6,476114988e-01    4,292675853e-01    0,000000000e+00    0,000000000e+00    0,000000000e+00    0,000000000e+00
      338000000   -4,105434194e-02   -3,767701983e-02   -3,092353642e-01    7,083681822e-01    0,000000000e+00    0,000000000e+00    0,000000000e+00    0,000000000e+00
      352000000   -2,343225479e-02   -3,790434822e-02    1,195759401e-01    7,567731142e-01    0,000000000e+00    0,000000000e+00    0,000000000e+00    0,000000000e+00
      366000000   -2,282977663e-02   -5,652593821e-02    5,037442446e-01    5,705039501e-01    0,000000000e+00    0,000000000e+00    0,000000000e+00    0,000000000e+00
      380000000   -4,486264288e-02   -6,512578577e-02    7,260440588e-01    2,120770365e-01    0,000000000e+00    0,000000000e+00    0,000000000e+00    0,000000000e+00
      394000000   -6,642278284e-02   -5,081061646e-02    7,222324014e-01   -2,136354148e-01    0,000000000e+00    0,000000000e+00    0,000000000e+00    0,000000000e+00
      408000000   -6,743285805e-02   -2,635515481e-02    4,902746975e-01   -5,678275824e-01    0,000000000e+00    0,000000000e+00    0,000000000e+00    0,000000000e+00
      422000000   -5,327693000e-02   -1,504042745e-02    1,052473113e-01   -7,382447124e-01    0,000000000e+00    0,000000000e+00    0,000000000e+00    0,000000000e+00
      436000000   -4,677456990e-02   -1,844739169e-02   -3,064662814e-01   -6,752896905e-01    0,000000000e+00    0,000000000e+00    0,000000000e+00    0,000000000e+00
      450000000   -5,225978792e-02   -1,480873208e-02   -6,194439530e-01   -3,994962871e-01    0,000000000e+00    0,000000000e+00    0,000000000e+00    0,000000000e+00
      464000000   -5,053921044e-02    6,011424586e-03   -7,303540111e-01    3,570116358e-03    0,000000000e+00    0,000000000e+00    0,000000000e+00    0,000000000e+00
      478000000   -2,056892030e-02    2,651759982e-02   -5,986919999e-01    3,969991207e-01    0,000000000e+00    0,000000000e+00    0,000000000e+00    0,000000000e+00
      492000000    2,843094617e-02    1,432368718e-02   -2,796673775e-01    6,441550255e-01    0,000000000e+00    0,000000000e+00    0,000000000e+00    0,000000000e+00
      506000000    5,907694250e-02   -3,759612888e-02    1,051633433e-01    6,801230311e-01    0,000000000e+00    0,000000000e+00    0,000000000e+00    0,000000000e+00
      520000000    4,357078299e-02   -1,034740433e-01    4,437777102e-01    5,161642432e-01    0,000000000e+00    0,000000000e+00    0,000000000e+00    0,000000000e+00
      534000000   -1,254289504e-02   -1,438157409e-01    6,496326923e-01    2,061624825e-01    0,000000000e+00    0,000000000e+00    0,000000000e+00    0,000000000e+00
      548000000   -8,171367645e-02   -1,399993598e-01    6,595157981e-01   -1,763996631e-01    0,000000000e+00    0,000000000e+00    0,000000000e+00    0,000000000e+00
      562000000   -1,312802583e-01   -9,784223139e-02    4,509944022e-01   -5,086948276e-01    0,000000000e+00    0,000000000e+00    0,000000000e+00    0,000000000e+00
      576000000   -1,494173855e-01   -3,901420534e-02    8,174500614e-02   -6,612600088e-01    0,000000000e+00    0,000000000e+00    0,000000000e+00    0,000000000e+00
      590000000   -1,301622391e-01    2,857387811e-02   -2,959015965e-01   -5,664217472e-01    0,000000000e+00    0,000000000e+00    0,000000000e+00    0,000000000e+00
      604000000   -3,990181535e-02    6,874984503e-02   -4,902604818e-01   -2,701677382e-01    0,000000000e+00    0,000000000e+00    0,000000000e+00    0,000000000e+00
      618000000    3,497890010e-02   -2,786151506e-02   -4,937257767e-01   -4,779965803e-02    0,000000000e+00    0,000000000e+00    0,000000000e+00    0,000000000e+00
      632000000   -5,046569556e-02   -9,386168420e-02   -5,231047273e-01    1,769665778e-01    0,000000000e+00    0,000000000e+00    0,000000000e+00    0,000000000e+00
      646000000   -1,004860699e-01   -3,504103050e-02   -3,785442114e-01    4,757521451e-01    0,000000000e+00    0,000000000e+00    0,000000000e+00    0,000000000e+00
      660000000   -7,017337531e-02    9,489096701e-03   -5,244727060e-02    6,226536632e-01    0,000000000e+00    0,000000000e+00    0,000000000e+00    0,000000000e+00
      674000000   -3,119231947e-02    5,078538321e-03    2,979259491e-01    5,534994602e-01    0,000000000e+00    0,000000000e+00    0,000000000e+00    0,000000000e+00
      688000000   -1,509477198e-02   -1,730052009e-02    5,471599698e-01    3,037399948e-01    0,000000000e+00    0,000000000e+00    0,000000000e+00    0,000000000e+00
      702000000   -1,358563453e-02   -3,370037675e-02    6,173099279e-01   -4,321370646e-02    0,000000000e+00    0,000000000e+00    0,000000000e+00    0,000000000e+00
      716000000   -8,965285495e-03   -4,870675504e-02    4,920586944e-01   -3,683349788e-01    0,000000000e+00    0,000000000e+00    0,000000000e+00    0,000000000e+00
      730000000   -6,464073434e-03   -7,445430756e-02    2,121875882e-01   -5,681031942e-01    0,000000000e+00    0,000000000e+00    0,000000000e+00    0,000000000e+00
      744000000   -2,556479163e-02   -1,106548160e-01   -1,240072399e-01   -5,885146856e-01    0,000000000e+00    0,000000000e+00    0,000000000e+00    0,000000000e+00
      758000000   -7,491707057e-02   -1,337588280e-01   -4,201343656e-01   -4,329299629e-01    0,000000000e+00    0,000000000e+00    0,000000000e+00    0,000000000e+00
      772000000   -1,362565458e-01   -1,157058403e-01   -5,937834978e-01   -1,401458234e-01    0,000000000e+00    0,000000000e+00    0,000000000e+00    0,000000000e+00
      786000000   -1,725631505e-01   -5,868200213e-02   -5,815451145e-01    2,097198814e-01    0,000000000e+00    0,000000000e+00    0,000000000e+00    0,000000000e+00
      800000000   -1,597654372e-01    6,138119381e-03   -3,736574352e-01    4,962477684e-01    0,000000000e+00    0,000000000e+00    0,000000000e+00    0,000000000e+00
      814000000   -1,138358340e-01    4,270256311e-02   -4,581851140e-02    6,146283746e-01    0,000000000e+00    0,000000000e+00    0,000000000e+00    0,000000000e+00
      828000000   -6,824762374e-02    4,453520104e-02    2,854334712e-01    5,407996774e-01    0,000000000e+00    0,000000000e+00    0,000000000e+00    0,000000000e+00
      842000000   -3,902174532e-02    2,931304649e-02    5,214447379e-01    3,062212169e-01    0,000000000e+00    0,000000000e+00    0,000000000e+00    0,000000000e+00
      856000000   -1,786410622e-02    1,205863431e-02    5,948576927e-01   -1,414326113e-02    0,000000000e+00    0,000000000e+00    0,000000000e+00    0,000000000e+00
      870000000    2,346381545e-03   -1,119161677e-02    4,861633480e-01   -3,172822893e-01    0,000000000e+00    0,000000000e+00    0,000000000e+00    0,000000000e+00
      884000000    1,337946299e-02   -5,092748255e-02    2,426836938e-01   -5,118210912e-01    0,000000000e+00    0,000000000e+00    0,000000000e+00    0,000000000e+00
      898000000   -4,118230660e-03   -1,015420854e-01   -5,841945857e-02   -5,558778644e-01    0,000000000e+00    0,000000000e+00    0,000000000e+00    0,000000000e+00
      912000000   -6,229983643e-02   -1,326287389e-01   -3,899393380e-01   -4,270961881e-01    0,000000000e+00    0,000000000e+00    0,000000000e+00    0,000000000e+00
      926000000   -1,250177473e-01   -1,197601780e-01   -5,659005642e-01   -1,487793922e-01    0,000000000e+00    0,000000000e+00    0,000000000e+00    0,000000000e+00
      940000000   -1,605519652e-01   -6,215147674e-02   -5,691755414e-01    1,918798536e-01    0,000000000e+00    0,000000000e+00    0,000000000e+00    0,000000000e+00
      954000000   -1,493214518e-01   -3,274630290e-03   -3,740939498e-01    4,851770997e-01    0,000000000e+00    0,000000000e+00    0,000000000e+00    0,000000000e+00
      968000000   -9,827937186e-02    2,022269554e-02   -5,122451484e-02    6,164795160e-01    0,000000000e+00    0,000000000e+00    0,000000000e+00    0,000000000e+00
      982000000   -5,734170973e-02    7,466481533e-03    2,807130218e-01    5,520992279e-01    0,000000000e+00    0,000000000e+00    0,000000000e+00    0,000000000e+00
      996000000   -4,170684144e-02   -3,216303140e-02    5,236181021e-01    3,282567561e-01    0,000000000e+00    0,000000000e+00    0,000000000e+00    0,000000000e+00
     1010000000   -6,232543290e-02   -6,853444874e-02    6,074003577e-01    1,337413676e-02    0,000000000e+00    0,000000000e+00    0,000000000e+00    0,000000000e+00
     1024000000   -9,747786075e-02   -7,718193531e-02    5,131325126e-01   -2,803981900e-01    0,000000000e+00    0,000000000e+00    0,000000000e+00    0,000000000e+00
     1038000000   -1,381199062e-01   -5,595349893e-02    2,955343723e-01   -4,703726470e-01    0,000000000e+00    0,000000000e+00    0,000000000e+00    0,000000000e+00
     1052000000   -1,502552330e-01    3,923591692e-03    3,351090476e-02   -5,249994993e-01    0,000000000e+00    0,000000000e+00    0,000000000e+00    0,000000000e+00
     1066000000   -1,056508645e-01    4,433798417e-02   -2,117676884e-01   -4,690990150e-01    0,000000000e+00    0,000000000e+00    0,000000000e+00    0,000000000e+00
     1080000000   -4,999843985e-02    2,758861147e-02   -4,165374935e-01   -2,999515235e-01    0,000000000e+00    0,000000000e+00    0,000000000e+00    0,000000000e+00
     1094000000   -3,230093047e-02   -4,130953457e-03   -5,214780569e-01   -2,230266295e-02    0,000000000e+00    0,000000000e+00    0,000000000e+00    0,000000000e+00
     1108000000   -3,456234187e-02   -2,910153940e-02   -4,442964792e-01    2,845138013e-01    0,000000000e+00    0,000000000e+00    0,000000000e+00    0,000000000e+00
     1122000000   -2,951881476e-02   -5,571110547e-02   -1,850537509e-01    4,969585836e-01    0,000000000e+00    0,000000000e+00    0,000000000e+00    0,000000000e+00
     1136000000   -4,420461133e-02   -9,540267289e-02    1,532663107e-01    5,198342204e-01    0,000000000e+00    0,000000000e+00    0,000000000e+00    0,000000000e+00
     1150000000   -8,521201462e-02   -1,228893250e-01    4,558672309e-01    3,456306159e-01    0,000000000e+00    0,000000000e+00    0,000000000e+00    0,000000000e+00
     1164000000   -1,346280575e-01   -1,226749346e-01    6,120588183e-01    1,058793999e-02    0,000000000e+00    0,000000000e+00    0,000000000e+00    0,000000000e+00
     1178000000   -1,785808355e-01   -8,832735568e-02    5,414284468e-01   -3,720869422e-01    0,000000000e+00    0,000000000e+00    0,000000000e+00    0,000000000e+00
     1192000000   -1,809851825e-01   -5,268109217e-02    2,472775280e-01   -6,349582076e-01    0,000000000e+00    0,000000000e+00    0,000000000e+00    0,000000000e+00
     1206000000   -1,869710982e-01   -5,409985781e-02   -1,385761499e-01   -6,601864696e-01    0,000000000e+00    0,000000000e+00    0,000000000e+00    0,000000000e+00
     1220000000   -2,516972721e-01   -1,338721532e-02   -4,201130271e-01   -4,825001061e-01    0,000000000e+00    0,000000000e+00    0,000000000e+00    0,000000000e+00
     1234000000   -2,410257608e-01    1,165767089e-01   -5,589787960e-01   -2,474176139e-01    0,000000000e+00    0,000000000e+00    0,000000000e+00    0,000000000e+00
     1248000000   -1,155583635e-01    1,743617505e-01   -6,013540030e-01    1,501629595e-02    0,000000000e+00    0,000000000e+00    0,000000000e+00    0,000000000e+00
     1262000000   -4,294757731e-03    1,294924617e-01   -5,085556507e-01    2,921921313e-01    0,000000000e+00    0,000000000e+00    0,000000000e+00    0,000000000e+00
     1276000000    6,164468452e-02    4,332613945e-02   -2,777169049e-01    4,950987697e-01    0,000000000e+00    0,000000000e+00    0,000000000e+00    0,000000000e+00
     1290000000    6,959291548e-02   -6,898525357e-02    9,520488791e-03    5,483831167e-01    0,000000000e+00    0,000000000e+00    0,000000000e+00    0,000000000e+00
     1304000000    2,271442860e-02   -1,792773902e-01    2,992098629e-01    4,778129458e-01    0,000000000e+00    0,000000000e+00    0,000000000e+00    0,000000000e+00
     1318000000   -9,238598496e-02   -2,507746816e-01    5,397757888e-01    2,732511759e-01    0,000000000e+00    0,000000000e+00    0,000000000e+00    0,000000000e+00
     1332000000   -2,456421405e-01   -2,439466268e-01    6,529130936e-01   -4,671072587e-02    0,000000000e+00    0,000000000e+00    0,000000000e+00    0,000000000e+00
     1346000000   -3,645599484e-01   -1,382828802e-01    5,499883890e-01   -4,035727680e-01    0,000000000e+00    0,000000000e+00    0,000000000e+00    0,000000000e+00
     1360000000   -3,847471774e-01    5,232343450e-03    2,475514263e-01   -6,367340088e-01    0,000000000e+00    0,000000000e+00    0,000000000e+00    0,000000000e+00
     1374000000   -3,295399547e-01    1,251832694e-01   -1,144860685e-01   -6,275470853e-01    0,000000000e+00    0,000000000e+00    0,000000000e+00    0,000000000e+00
     1388000000   -2,385385185e-01    1,718156040e-01   -3,793739974e-01   -4,214025438e-01    0,000000000e+00    0,000000000e+00    0,000000000e+00    0,000000000e+00
     1402000000   -1,525635272e-01    1,751340032e-01   -4,795941710e-01   -1,127859131e-01    0,000000000e+00    0,000000000e+00    0,000000000e+00    0,000000000e+00
     1416000000   -8,150202036e-02    1,416082531e-01   -3,908557594e-01    2,070616186e-01    0,000000000e+00    0,000000000e+00    0,000000000e+00    0,000000000e+00
     1430000000   -3,692398965e-02    8,802818507e-02   -1,953292340e-01    4,383760989e-01    0,000000000e+00    0,000000000e+00    0,000000000e+00    0,000000000e+00
     1444000000   -1,453470904e-02    8,837953210e-03    1,070966646e-01    5,226479769e-01    0,000000000e+00    0,000000000e+00    0,000000000e+00    0,000000000e+00
     1458000000   -4,067214206e-02   -8,374743164e-02    4,477329254e-01    4,849552214e-01    0,000000000e+00    0,000000000e+00    0,000000000e+00    0,000000000e+00
     1472000000   -1,185887158e-01   -1,409194916e-01    7,471348047e-01    3,131146729e-01    0,000000000e+00    0,000000000e+00    0,000000000e+00    0,000000000e+00
     1486000000   -2,343684882e-01   -1,389866024e-01    8,920140862e-01   -1,360447891e-02    0,000000000e+00    0,000000000e+00    0,000000000e+00    0,000000000e+00
     1500000000   -3,101358414e-01   -6,056222692e-02    8,394189477e-01   -4,310663342e-01    0,000000000e+00    0,000000000e+00    0,000000000e+00    0,000000000e+00
