! NanoVNA-App
! Date: 2025-09-25 15:00:51
! Start: 100MHz Stop: 1,5GHz Points: 101
! S-Parameter data: F S11 S21 S12 S22
# Hz S RI R 50
!     Frequency           S11_Real           S11_Imag           S21_Real           S21_Imag           S12_Real           S12_Imag           S22_Real           S22_Imag
      100000000    3,558585420e-02    2,735559829e-02    4,407427609e-01   -6,695502400e-01    0,000000000e+00    0,000000000e+00    0,000000000e+00    0,000000000e+00
      114000000    6,071222574e-02    2,217368223e-03    1,285763737e-02   -7,955520153e-01    0,000000000e+00    0,000000000e+00    0,000000000e+00    0,000000000e+00
      128000000    6,834508479e-02   -4,230866954e-02   -4,082401097e-01   -6,780707240e-01    0,000000000e+00    0,000000000e+00    0,000000000e+00    0,000000000e+00
      142000000    4,351299629e-02   -8,883358538e-02   -7,050127387e-01   -3,609385192e-01    0,000000000e+00    0,000000000e+00    0,000000000e+00    0,000000000e+00
      156000000   -8,820869029e-03   -1,104852110e-01   -7,936734557e-01    6,847244501e-02    0,000000000e+00    0,000000000e+00    0,000000000e+00    0,000000000e+00
      170000000   -6,262730062e-02   -9,180623293e-02   -6,370391250e-01    4,865882397e-01    0,000000000e+00    0,000000000e+00    0,000000000e+00    0,000000000e+00
      184000000   -8,858615160e-02   -4,765486345e-02   -2,733840644e-01    7,565391660e-01    0,000000000e+00    0,000000000e+00    0,000000000e+00    0,000000000e+00
      198000000   -8,275799453e-02   -6,432415918e-03    1,797543615e-01    7,826007009e-01    0,000000000e+00    0,000000000e+00    0,000000000e+00    0,000000000e+00
      212000000   -6,277108938e-02    1,804987900e-02    5,705642700e-01    5,584841371e-01    0,000000000e+00    0,000000000e+00    0,000000000e+00    0,000000000e+00
      226000000   -4,152160510e-02    3,180758283e-02    7,768192887e-01    1,618553400e-01    0,000000000e+00    0,000000000e+00    0,000000000e+00    0,000000000e+00
      240000000   -1,492940541e-02    4,130128026e-02    7,360924482e-01   -2,786372900e-01    0,000000000e+00    0,000000000e+00    0,000000000e+00    0,000000000e+00
      254000000    2,140426822e-02    3,637205809e-02    4,678397775e-01   -6,220813394e-01    0,000000000e+00    0,000000000e+00    0,000000000e+00    0,000000000e+00
      268000000    5,330576375e-02    4,765776452e-03    6,670559198e-02   -7,677012086e-01    0,000000000e+00    0,000000000e+00    0,000000000e+00    0,000000000e+00
      282000000    5,738451704e-02   -4,494575784e-02   -3,459011018e-01   -6,828829050e-01    0,000000000e+00    0,000000000e+00    0,000000000e+00    0,000000000e+00
      296000000    2,611725032e-02   -8,472894877e-02   -6,554337740e-01   -3,979090154e-01    0,000000000e+00    0,000000000e+00    0,000000000e+00    0,000000000e+00
      310000000   -1,897263713e-02   -8,949863911e-02   -7,742094994e-01    1,008647308e-02    0,000000000e+00    0,000000000e+00    0,000000000e+00    0,000000000e+00
      324000000   -4,642737657e-02   -6,353615224e-02   -6,477081180e-01    4,289479852e-01    0,000000000e+00    0,000000000e+00    0,000000000e+00    0,000000000e+00
      338000000   -4,142210260e-02   -3,793581575e-02   -3,101477623e-01    7,103735805e-01    0,000000000e+00    0,000000000e+00    0,000000000e+00    0,000000000e+00
      352000000   -2,360519581e-02   -3,795875609e-02    1,193431541e-01    7,587233186e-01    0,000000000e+00    0,000000000e+00    0,000000000e+00    0,000000000e+00
      366000000   -2,298062295e-02   -5,617923662e-02    5,032185316e-01    5,719351172e-01    0,000000000e+00    0,000000000e+00    0,000000000e+00    0,000000000e+00
      380000000   -4,474747926e-02   -6,525074691e-02    7,261340022e-01    2,112671435e-01    0,000000000e+00    0,000000000e+00    0,000000000e+00    0,000000000e+00
      394000000   -6,652912498e-02   -5,063412711e-02    7,232198119e-01   -2,134221494e-01    0,000000000e+00    0,000000000e+00    0,000000000e+00    0,000000000e+00
      408000000   -6,736616045e-02   -2,651713975e-02    4,897162616e-01   -5,690732598e-01    0,000000000e+00    0,000000000e+00    0,000000000e+00    0,000000000e+00
      422000000   -5,340171978e-02   -1,536498684e-02    1,056109667e-01   -7,390968800e-01    0,000000000e+00    0,000000000e+00    0,000000000e+00    0,000000000e+00
      436000000   -4,625576735e-02   -1,852857508e-02   -3,062081039e-01   -6,762028933e-01    0,000000000e+00    0,000000000e+00    0,000000000e+00    0,000000000e+00
      450000000   -5,227769911e-02   -1,511177048e-02   -6,193539500e-01   -3,990440369e-01    0,000000000e+00    0,000000000e+00    0,000000000e+00    0,000000000e+00
      464000000   -5,075305700e-02    5,672534928e-03   -7,302618027e-01    3,329255618e-03    0,000000000e+00    0,000000000e+00    0,000000000e+00    0,000000000e+00
      478000000   -2,049965225e-02    2,680016682e-02   -5,985723138e-01    3,969931602e-01    0,000000000e+00    0,000000000e+00    0,000000000e+00    0,000000000e+00
      492000000    2,828472294e-02    1,438763738e-02   -2,807177305e-01    6,444223523e-01    0,000000000e+00    0,000000000e+00    0,000000000e+00    0,000000000e+00
      506000000    5,896825343e-02   -3,770887479e-02    1,046878323e-01    6,809889674e-01    0,000000000e+00    0,000000000e+00    0,000000000e+00    0,000000000e+00
      520000000    4,325242713e-02   -1,030574217e-01    4,435898960e-01    5,170138478e-01    0,000000000e+00    0,000000000e+00    0,000000000e+00    0,000000000e+00
      534000000   -1,237019338e-02   -1,433009207e-01    6,496909857e-01    2,063682228e-01    0,000000000e+00    0,000000000e+00    0,000000000e+00    0,000000000e+00
      548000000   -8,130847663e-02   -1,390972883e-01    6,597980857e-01   -1,754687130e-01    0,000000000e+00    0,000000000e+00    0,000000000e+00    0,000000000e+00
      562000000   -1,299193650e-01   -9,854470193e-02    4,530013204e-01   -5,083239675e-01    0,000000000e+00    0,000000000e+00    0,000000000e+00    0,000000000e+00
      576000000   -1,478743106e-01   -4,135306552e-02    8,525570482e-02   -6,627734900e-01    0,000000000e+00    0,000000000e+00    0,000000000e+00    0,000000000e+00
      590000000   -1,315295845e-01    2,355486341e-02   -2,935306132e-01   -5,700745583e-01    0,000000000e+00    0,000000000e+00    0,000000000e+00    0,000000000e+00
      604000000   -5,065979436e-02    6,951178610e-02   -5,028900504e-01   -2,722955942e-01    0,000000000e+00    0,000000000e+00    0,000000000e+00    0,000000000e+00
      618000000    3,951444104e-02   -1,236539800e-02   -4,927228391e-01   -2,894599549e-02    0,000000000e+00    0,000000000e+00    0,000000000e+00    0,000000000e+00
      632000000   -3,883907571e-02   -9,808182716e-02   -5,081225634e-01    1,730478704e-01    0,000000000e+00    0,000000000e+00    0,000000000e+00    0,000000000e+00
      646000000   -1,014395952e-01   -4,351129383e-02   -3,802675307e-01    4,660157859e-01    0,000000000e+00    0,000000000e+00    0,000000000e+00    0,000000000e+00
      660000000   -7,498414814e-02    7,400742266e-03   -5,643818527e-02    6,209158301e-01    0,000000000e+00    0,000000000e+00    0,000000000e+00    0,000000000e+00
      674000000   -3,293862566e-02    7,291316520e-03    2,943110466e-01    5,554726720e-01    0,000000000e+00    0,000000000e+00    0,000000000e+00    0,000000000e+00
      688000000   -1,523189154e-02   -1,450558659e-02    5,454348326e-01    3,054623902e-01    0,000000000e+00    0,000000000e+00    0,000000000e+00    0,000000000e+00
      702000000   -1,264189277e-02   -3,254190460e-02    6,180003881e-01   -3,688506037e-02    0,000000000e+00    0,000000000e+00    0,000000000e+00    0,000000000e+00
      716000000   -8,660190739e-03   -4,790823907e-02    4,930395186e-01   -3,671638668e-01    0,000000000e+00    0,000000000e+00    0,000000000e+00    0,000000000e+00
      730000000   -5,212505348e-03   -7,491552830e-02    2,139111459e-01   -5,665851831e-01    0,000000000e+00    0,000000000e+00    0,000000000e+00    0,000000000e+00
      744000000   -2,520292439e-02   -1,127544716e-01   -1,226868555e-01   -5,887978077e-01    0,000000000e+00    0,000000000e+00    0,000000000e+00    0,000000000e+00
      758000000   -7,456041873e-02   -1,341694742e-01   -4,187068641e-01   -4,345582724e-01    0,000000000e+00    0,000000000e+00    0,000000000e+00    0,000000000e+00
      772000000   -1,367587000e-01   -1,158645749e-01   -5,948635340e-01   -1,414603442e-01    0,000000000e+00    0,000000000e+00    0,000000000e+00    0,000000000e+00
      786000000   -1,728572845e-01   -5,816714466e-02   -5,833082795e-01    2,097292989e-01    0,000000000e+00    0,000000000e+00    0,000000000e+00    0,000000000e+00
      800000000   -1,598051786e-01    8,084986359e-03   -3,742273748e-01    4,971774518e-01    0,000000000e+00    0,000000000e+00    0,000000000e+00    0,000000000e+00
      814000000   -1,141322330e-01    4,361999035e-02   -4,578506574e-02    6,161016226e-01    0,000000000e+00    0,000000000e+00    0,000000000e+00    0,000000000e+00
      828000000   -6,688724458e-02    4,353451356e-02    2,867300212e-01    5,418154001e-01    0,000000000e+00    0,000000000e+00    0,000000000e+00    0,000000000e+00
      842000000   -3,744724393e-02    2,824423276e-02    5,222910047e-01    3,065213859e-01    0,000000000e+00    0,000000000e+00    0,000000000e+00    0,000000000e+00
      856000000   -1,857899316e-02    1,074272767e-02    5,959404111e-01   -1,393550262e-02    0,000000000e+00    0,000000000e+00    0,000000000e+00    0,000000000e+00
      870000000    7,976826746e-04   -1,233664062e-02    4,873933792e-01   -3,184851706e-01    0,000000000e+00    0,000000000e+00    0,000000000e+00    0,000000000e+00
      884000000    1,223635022e-02   -5,112406239e-02    2,429240197e-01   -5,133177042e-01    0,000000000e+00    0,000000000e+00    0,000000000e+00    0,000000000e+00
      898000000   -4,228255246e-03   -1,002440974e-01   -5,945743620e-02   -5,553870797e-01    0,000000000e+00    0,000000000e+00    0,000000000e+00    0,000000000e+00
      912000000   -6,211620569e-02   -1,314828247e-01   -3,848440051e-01   -4,223804772e-01    0,000000000e+00    0,000000000e+00    0,000000000e+00    0,000000000e+00
      926000000   -1,274351031e-01   -1,203949004e-01   -5,691603422e-01   -1,467243284e-01    0,000000000e+00    0,000000000e+00    0,000000000e+00    0,000000000e+00
      940000000   -1,642931104e-01   -6,645181775e-02   -5,688027740e-01    1,922287196e-01    0,000000000e+00    0,000000000e+00    0,000000000e+00    0,000000000e+00
      954000000   -1,492111832e-01   -1,494945755e-04   -3,742382526e-01    4,845627248e-01    0,000000000e+00    0,000000000e+00    0,000000000e+00    0,000000000e+00
      968000000   -9,718941152e-02    2,348702215e-02   -5,212574452e-02    6,164780855e-01    0,000000000e+00    0,000000000e+00    0,000000000e+00    0,000000000e+00
      982000000   -5,589818209e-02    8,156359196e-03    2,835486829e-01    5,515753627e-01    0,000000000e+00    0,000000000e+00    0,000000000e+00    0,000000000e+00
      996000000   -4,430541396e-02   -3,081740811e-02    5,239649415e-01    3,272841871e-01    0,000000000e+00    0,000000000e+00    0,000000000e+00    0,000000000e+00
     1010000000   -6,421310455e-02   -6,453304738e-02    6,089773178e-01    1,234617177e-02    0,000000000e+00    0,000000000e+00    0,000000000e+00    0,000000000e+00
     1024000000   -1,027249396e-01   -7,879740000e-02    5,118165016e-01   -2,815541327e-01    0,000000000e+00    0,000000000e+00    0,000000000e+00    0,000000000e+00
     1038000000   -1,440569758e-01   -5,869368836e-02    2,944400311e-01   -4,716329873e-01    0,000000000e+00    0,000000000e+00    0,000000000e+00    0,000000000e+00
     1052000000   -1,508220136e-01   -4,481399897e-03    3,605122492e-02   -5,260527730e-01    0,000000000e+00    0,000000000e+00    0,000000000e+00    0,000000000e+00
     1066000000   -1,037842706e-01    3,526557237e-02   -2,075227648e-01   -4,647244811e-01    0,000000000e+00    0,000000000e+00    0,000000000e+00    0,000000000e+00
     1080000000   -4,994222894e-02    2,691782638e-02   -4,184058309e-01   -2,973365486e-01    0,000000000e+00    0,000000000e+00    0,000000000e+00    0,000000000e+00
     1094000000   -3,123134375e-02   -4,226144403e-03   -5,185107589e-01   -2,355958521e-02    0,000000000e+00    0,000000000e+00    0,000000000e+00    0,000000000e+00
     1108000000   -3,217633814e-02   -3,630942106e-02   -4,424814284e-01    2,857827544e-01    0,000000000e+00    0,000000000e+00    0,000000000e+00    0,000000000e+00
     1122000000   -3,375891596e-02   -5,773883313e-02   -1,877047122e-01    4,960253537e-01    0,000000000e+00    0,000000000e+00    0,000000000e+00    0,000000000e+00
     1136000000   -4,701296985e-02   -9,343516082e-02    1,514736712e-01    5,185465813e-01    0,000000000e+00    0,000000000e+00    0,000000000e+00    0,000000000e+00
     1150000000   -8,589617908e-02   -1,254088432e-01    4,528417587e-01    3,433169425e-01    0,000000000e+00    0,000000000e+00    0,000000000e+00    0,000000000e+00
     1164000000   -1,385379136e-01   -1,248331293e-01    6,106784344e-01    1,510007028e-02    0,000000000e+00    0,000000000e+00    0,000000000e+00    0,000000000e+00
     1178000000   -1,725612283e-01   -8,684626222e-02    5,409519672e-01   -3,745050728e-01    0,000000000e+00    0,000000000e+00    0,000000000e+00    0,000000000e+00
     1192000000   -1,772215366e-01   -5,332275853e-02    2,394874394e-01   -6,362786889e-01    0,000000000e+00    0,000000000e+00    0,000000000e+00    0,000000000e+00
     1206000000   -1,914466470e-01   -5,057141185e-02   -1,354823112e-01   -6,649158597e-01    0,000000000e+00    0,000000000e+00    0,000000000e+00    0,000000000e+00
     1220000000   -2,505712211e-01   -1,661372930e-02   -4,159932733e-01   -4,831084311e-01    0,000000000e+00    0,000000000e+00    0,000000000e+00    0,000000000e+00
     1234000000   -2,406359464e-01    1,189215630e-01   -5,587453246e-01   -2,512343824e-01    0,000000000e+00    0,000000000e+00    0,000000000e+00    0,000000000e+00
     1248000000   -1,149822250e-01    1,709223092e-01   -6,033191681e-01    1,472579874e-02    0,000000000e+00    0,000000000e+00    0,000000000e+00    0,000000000e+00
     1262000000   -5,909446161e-03    1,318182051e-01   -5,109150410e-01    2,899715304e-01    0,000000000e+00    0,000000000e+00    0,000000000e+00    0,000000000e+00
     1276000000    6,559200585e-02    4,422058910e-02   -2,768971324e-01    4,902107418e-01    0,000000000e+00    0,000000000e+00    0,000000000e+00    0,000000000e+00
     1290000000    7,458197325e-02   -6,543239951e-02    9,645043872e-03    5,470607281e-01    0,000000000e+00    0,000000000e+00    0,000000000e+00    0,000000000e+00
     1304000000    2,276376076e-02   -1,823977381e-01    2,978904843e-01    4,747456908e-01    0,000000000e+00    0,000000000e+00    0,000000000e+00    0,000000000e+00
     1318000000   -9,744989872e-02   -2,504133582e-01    5,315770507e-01    2,764836550e-01    0,000000000e+00    0,000000000e+00    0,000000000e+00    0,000000000e+00
     1332000000   -2,402518094e-01   -2,413161844e-01    6,516895890e-01   -4,716685787e-02    0,000000000e+00    0,000000000e+00    0,000000000e+00    0,000000000e+00
     1346000000   -3,593507707e-01   -1,381788999e-01    5,566042662e-01   -4,049900472e-01    0,000000000e+00    0,000000000e+00    0,000000000e+00    0,000000000e+00
     1360000000   -3,844276667e-01    5,532461219e-03    2,592441142e-01   -6,351683736e-01    0,000000000e+00    0,000000000e+00    0,000000000e+00    0,000000000e+00
     1374000000   -3,269410431e-01    1,181440353e-01   -1,058244035e-01   -6,273779273e-01    0,000000000e+00    0,000000000e+00    0,000000000e+00    0,000000000e+00
     1388000000   -2,350769788e-01    1,709454507e-01   -3,752282262e-01   -4,133974016e-01    0,000000000e+00    0,000000000e+00    0,000000000e+00    0,000000000e+00
     1402000000   -1,521266699e-01    1,720774323e-01   -4,734976292e-01   -1,173364967e-01    0,000000000e+00    0,000000000e+00    0,000000000e+00    0,000000000e+00
     1416000000   -7,861560583e-02    1,422463357e-01   -3,882119060e-01    1,985984445e-01    0,000000000e+00    0,000000000e+00    0,000000000e+00    0,000000000e+00
     1430000000   -3,354005888e-02    8,783426881e-02   -1,774829477e-01    4,024204910e-01    0,000000000e+00    0,000000000e+00    0,000000000e+00    0,000000000e+00
     1444000000   -1,127779670e-02    2,506697550e-03    1,152311340e-01    5,266393423e-01    0,000000000e+00    0,000000000e+00    0,000000000e+00    0,000000000e+00
     1458000000   -4,342461750e-02   -8,080766350e-02    4,365001023e-01    4,852543175e-01    0,000000000e+00    0,000000000e+00    0,000000000e+00    0,000000000e+00
     1472000000   -1,260246634e-01   -1,436983496e-01    7,319884300e-01    3,031800389e-01    0,000000000e+00    0,000000000e+00    0,000000000e+00    0,000000000e+00
     1486000000   -2,318336815e-01   -1,386055648e-01    8,913254738e-01   -2,165527269e-02    0,000000000e+00    0,000000000e+00    0,000000000e+00    0,000000000e+00
     1500000000   -3,100923002e-01   -6,086152792e-02    8,349151015e-01   -4,184766710e-01    0,000000000e+00    0,000000000e+00    0,000000000e+00    0,000000000e+00
