! NanoVNA-App
! Date: 2025-09-25 14:57:33
! Start: 100MHz Stop: 1,5GHz Points: 101
! S-Parameter data: F S11 S21 S12 S22
# Hz S RI R 50
!     Frequency           S11_Real           S11_Imag           S21_Real           S21_Imag           S12_Real           S12_Imag           S22_Real           S22_Imag
      100000000    3,559477255e-02    2,734029107e-02    4,406994283e-01   -6,694591641e-01    0,000000000e+00    0,000000000e+00    0,000000000e+00    0,000000000e+00
      114000000    6,071871147e-02    2,178801922e-03    1,270970702e-02   -7,953521013e-01    0,000000000e+00    0,000000000e+00    0,000000000e+00    0,000000000e+00
      128000000    6,834208220e-02   -4,223272949e-02   -4,082824290e-01   -6,781915426e-01    0,000000000e+00    0,000000000e+00    0,000000000e+00    0,000000000e+00
      142000000    4,350677878e-02   -8,878938109e-02   -7,051177025e-01   -3,605962396e-01    0,000000000e+00    0,000000000e+00    0,000000000e+00    0,000000000e+00
      156000000   -9,754669853e-03   -1,094096303e-01   -7,924682498e-01    6,699809432e-02    0,000000000e+00    0,000000000e+00    0,000000000e+00    0,000000000e+00
      170000000   -6,271094084e-02   -9,184326231e-02   -6,367338896e-01    4,861143529e-01    0,000000000e+00    0,000000000e+00    0,000000000e+00    0,000000000e+00
      184000000   -8,859625459e-02   -4,769267887e-02   -2,731377482e-01    7,562673092e-01    0,000000000e+00    0,000000000e+00    0,000000000e+00    0,000000000e+00
      198000000   -8,275391161e-02   -6,404129788e-03    1,797422022e-01    7,821884751e-01    0,000000000e+00    0,000000000e+00    0,000000000e+00    0,000000000e+00
      212000000   -6,267345697e-02    1,811864786e-02    5,707300901e-01    5,581538677e-01    0,000000000e+00    0,000000000e+00    0,000000000e+00    0,000000000e+00
      226000000   -4,144496098e-02    3,185239434e-02    7,766169906e-01    1,619266123e-01    0,000000000e+00    0,000000000e+00    0,000000000e+00    0,000000000e+00
      240000000   -1,479574200e-02    4,138166457e-02    7,359171510e-01   -2,787023485e-01    0,000000000e+00    0,000000000e+00    0,000000000e+00    0,000000000e+00
      254000000    2,148429677e-02    3,630983829e-02    4,679256380e-01   -6,221204400e-01    0,000000000e+00    0,000000000e+00    0,000000000e+00    0,000000000e+00
      268000000    5,340738967e-02    4,643377848e-03    6,682026386e-02   -7,671494484e-01    0,000000000e+00    0,000000000e+00    0,000000000e+00    0,000000000e+00
      282000000    5,738147721e-02   -4,498285055e-02   -3,454591036e-01   -6,828007698e-01    0,000000000e+00    0,000000000e+00    0,000000000e+00    0,000000000e+00
      296000000    2,604150958e-02   -8,485501260e-02   -6,545726657e-01   -3,973612785e-01    0,000000000e+00    0,000000000e+00    0,000000000e+00    0,000000000e+00
      310000000   -1,898369938e-02   -8,933667094e-02   -7,739864588e-01    1,155505236e-02    0,000000000e+00    0,000000000e+00    0,000000000e+00    0,000000000e+00
      324000000   -4,666591436e-02   -6,349445134e-02   -6,478831768e-01    4,301261008e-01    0,000000000e+00    0,000000000e+00    0,000000000e+00    0,000000000e+00
      338000000   -4,120672494e-02   -3,793339059e-02   -3,120061755e-01    7,107129693e-01    0,000000000e+00    0,000000000e+00    0,000000000e+00    0,000000000e+00
      352000000   -2,369243838e-02   -3,759627789e-02    1,188781336e-01    7,578150034e-01    0,000000000e+00    0,000000000e+00    0,000000000e+00    0,000000000e+00
      366000000   -2,313564904e-02   -5,578237772e-02    5,025078654e-01    5,707370043e-01    0,000000000e+00    0,000000000e+00    0,000000000e+00    0,000000000e+00
      380000000   -4,479059577e-02   -6,517530233e-02    7,261488438e-01    2,116250098e-01    0,000000000e+00    0,000000000e+00    0,000000000e+00    0,000000000e+00
      394000000   -6,627235562e-02   -5,060465634e-02    7,227428555e-01   -2,136184722e-01    0,000000000e+00    0,000000000e+00    0,000000000e+00    0,000000000e+00
      408000000   -6,710502505e-02   -2,615225874e-02    4,892807007e-01   -5,681425929e-01    0,000000000e+00    0,000000000e+00    0,000000000e+00    0,000000000e+00
      422000000   -5,276141316e-02   -1,555359829e-02    1,052475721e-01   -7,381630540e-01    0,000000000e+00    0,000000000e+00    0,000000000e+00    0,000000000e+00
      436000000   -4,580228031e-02   -1,895131357e-02   -3,050269186e-01   -6,754459739e-01    0,000000000e+00    0,000000000e+00    0,000000000e+00    0,000000000e+00
      450000000   -5,240866169e-02   -1,557034254e-02   -6,192843318e-01   -4,004709125e-01    0,000000000e+00    0,000000000e+00    0,000000000e+00    0,000000000e+00
      464000000   -5,037333444e-02    5,561417434e-03   -7,295350432e-01    3,371535335e-03    0,000000000e+00    0,000000000e+00    0,000000000e+00    0,000000000e+00
      478000000   -2,100099996e-02    2,611291036e-02   -5,987672806e-01    3,970014155e-01    0,000000000e+00    0,000000000e+00    0,000000000e+00    0,000000000e+00
      492000000    2,717776597e-02    1,487008482e-02   -2,813180387e-01    6,438390017e-01    0,000000000e+00    0,000000000e+00    0,000000000e+00    0,000000000e+00
      506000000    5,774701014e-02   -3,668335453e-02    1,033469886e-01    6,805604100e-01    0,000000000e+00    0,000000000e+00    0,000000000e+00    0,000000000e+00
      520000000    4,410415515e-02   -1,015029624e-01    4,429962337e-01    5,207664371e-01    0,000000000e+00    0,000000000e+00    0,000000000e+00    0,000000000e+00
      534000000   -1,172659639e-02   -1,415851712e-01    6,492651701e-01    2,081114650e-01    0,000000000e+00    0,000000000e+00    0,000000000e+00    0,000000000e+00
      548000000   -7,899571955e-02   -1,378723383e-01    6,616045833e-01   -1,737179011e-01    0,000000000e+00    0,000000000e+00    0,000000000e+00    0,000000000e+00
      562000000   -1,265518963e-01   -9,863833338e-02    4,556694627e-01   -5,075415969e-01    0,000000000e+00    0,000000000e+00    0,000000000e+00    0,000000000e+00
      576000000   -1,439522356e-01   -4,617747292e-02    8,923351020e-02   -6,662063003e-01    0,000000000e+00    0,000000000e+00    0,000000000e+00    0,000000000e+00
      590000000   -1,347101778e-01    1,219966449e-02   -2,966765761e-01   -5,814002156e-01    0,000000000e+00    0,000000000e+00    0,000000000e+00    0,000000000e+00
      604000000   -7,405592501e-02    6,736424565e-02   -5,279722810e-01   -2,809323668e-01    0,000000000e+00    0,000000000e+00    0,000000000e+00    0,000000000e+00
      618000000    3,721774369e-02    2,590278164e-02   -5,023612380e-01    1,556876116e-02    0,000000000e+00    0,000000000e+00    0,000000000e+00    0,000000000e+00
      632000000   -1,082375180e-03   -1,042352542e-01   -4,644547105e-01    1,717208773e-01    0,000000000e+00    0,000000000e+00    0,000000000e+00    0,000000000e+00
      646000000   -1,031325310e-01   -6,807842106e-02   -3,790124059e-01    4,385565519e-01    0,000000000e+00    0,000000000e+00    0,000000000e+00    0,000000000e+00
      660000000   -8,790491521e-02    3,149834462e-03   -7,124289125e-02    6,158993244e-01    0,000000000e+00    0,000000000e+00    0,000000000e+00    0,000000000e+00
      674000000   -4,051209241e-02    1,268326305e-02    2,868338525e-01    5,589938760e-01    0,000000000e+00    0,000000000e+00    0,000000000e+00    0,000000000e+00
      688000000   -1,627317816e-02   -8,343363181e-03    5,441297889e-01    3,113465011e-01    0,000000000e+00    0,000000000e+00    0,000000000e+00    0,000000000e+00
      702000000   -1,012649108e-02   -2,959679998e-02    6,226806641e-01   -3,285587206e-02    0,000000000e+00    0,000000000e+00    0,000000000e+00    0,000000000e+00
      716000000   -5,130937323e-03   -4,713696241e-02    4,969117045e-01   -3,650508225e-01    0,000000000e+00    0,000000000e+00    0,000000000e+00    0,000000000e+00
      730000000   -2,636282472e-03   -7,650814205e-02    2,166694850e-01   -5,673143864e-01    0,000000000e+00    0,000000000e+00    0,000000000e+00    0,000000000e+00
      744000000   -2,468443289e-02   -1,140043214e-01   -1,198588163e-01   -5,912065506e-01    0,000000000e+00    0,000000000e+00    0,000000000e+00    0,000000000e+00
      758000000   -7,707977295e-02   -1,363886446e-01   -4,188484251e-01   -4,374343455e-01    0,000000000e+00    0,000000000e+00    0,000000000e+00    0,000000000e+00
      772000000   -1,397120059e-01   -1,171433926e-01   -5,967096686e-01   -1,429597288e-01    0,000000000e+00    0,000000000e+00    0,000000000e+00    0,000000000e+00
      786000000   -1,748715490e-01   -5,622052774e-02   -5,857162476e-01    2,092766613e-01    0,000000000e+00    0,000000000e+00    0,000000000e+00    0,000000000e+00
      800000000   -1,607259959e-01    1,104366221e-02   -3,758454323e-01    4,983396232e-01    0,000000000e+00    0,000000000e+00    0,000000000e+00    0,000000000e+00
      814000000   -1,126077920e-01    4,639011994e-02   -4,494946450e-02    6,183437705e-01    0,000000000e+00    0,000000000e+00    0,000000000e+00    0,000000000e+00
      828000000   -6,447137147e-02    4,452935606e-02    2,873865366e-01    5,430935621e-01    0,000000000e+00    0,000000000e+00    0,000000000e+00    0,000000000e+00
      842000000   -3,633892536e-02    2,608255483e-02    5,229430199e-01    3,064094782e-01    0,000000000e+00    0,000000000e+00    0,000000000e+00    0,000000000e+00
      856000000   -1,892500184e-02    8,567339741e-03    5,969807506e-01   -1,452415902e-02    0,000000000e+00    0,000000000e+00    0,000000000e+00    0,000000000e+00
      870000000   -1,408876269e-03   -1,374623459e-02    4,885900617e-01   -3,198323548e-01    0,000000000e+00    0,000000000e+00    0,000000000e+00    0,000000000e+00
      884000000    9,230691940e-03   -5,090308189e-02    2,427600175e-01   -5,140660405e-01    0,000000000e+00    0,000000000e+00    0,000000000e+00    0,000000000e+00
      898000000   -6,512470543e-03   -9,872832894e-02   -6,067760661e-02   -5,565727353e-01    0,000000000e+00    0,000000000e+00    0,000000000e+00    0,000000000e+00
      912000000   -6,198428571e-02   -1,289844960e-01   -3,890402615e-01   -4,261181056e-01    0,000000000e+00    0,000000000e+00    0,000000000e+00    0,000000000e+00
      926000000   -1,209058389e-01   -1,162406877e-01   -5,652655363e-01   -1,462277621e-01    0,000000000e+00    0,000000000e+00    0,000000000e+00    0,000000000e+00
      940000000   -1,572144330e-01   -6,279397756e-02   -5,675048232e-01    1,954693198e-01    0,000000000e+00    0,000000000e+00    0,000000000e+00    0,000000000e+00
      954000000   -1,473339200e-01   -3,623782191e-03   -3,733266890e-01    4,844819903e-01    0,000000000e+00    0,000000000e+00    0,000000000e+00    0,000000000e+00
      968000000   -1,022265553e-01    1,852153987e-02   -5,277650803e-02    6,159092188e-01    0,000000000e+00    0,000000000e+00    0,000000000e+00    0,000000000e+00
      982000000   -6,157387793e-02    1,533974078e-03    2,811516821e-01    5,508088470e-01    0,000000000e+00    0,000000000e+00    0,000000000e+00    0,000000000e+00
      996000000   -4,545952007e-02   -3,282905743e-02    5,268340707e-01    3,269883394e-01    0,000000000e+00    0,000000000e+00    0,000000000e+00    0,000000000e+00
     1010000000   -6,105045974e-02   -6,011227518e-02    6,079162955e-01    1,462891791e-02    0,000000000e+00    0,000000000e+00    0,000000000e+00    0,000000000e+00
     1024000000   -9,585307539e-02   -7,403524220e-02    5,168248415e-01   -2,828208506e-01    0,000000000e+00    0,000000000e+00    0,000000000e+00    0,000000000e+00
     1038000000   -1,315445006e-01   -5,737166852e-02    2,915380001e-01   -4,749782383e-01    0,000000000e+00    0,000000000e+00    0,000000000e+00    0,000000000e+00
     1052000000   -1,479038894e-01   -1,143311709e-02    3,013943881e-02   -5,296652317e-01    0,000000000e+00    0,000000000e+00    0,000000000e+00    0,000000000e+00
     1066000000   -1,170475334e-01    2,957608178e-02   -2,246547192e-01   -4,674910009e-01    0,000000000e+00    0,000000000e+00    0,000000000e+00    0,000000000e+00
     1080000000   -6,834455580e-02    2,803239785e-02   -4,221293926e-01   -2,872589827e-01    0,000000000e+00    0,000000000e+00    0,000000000e+00    0,000000000e+00
     1094000000   -3,946954384e-02    2,595836122e-05   -5,126708150e-01   -1,597073860e-02    0,000000000e+00    0,000000000e+00    0,000000000e+00    0,000000000e+00
     1108000000   -2,652942762e-02   -2,988958545e-02   -4,328517318e-01    2,828324139e-01    0,000000000e+00    0,000000000e+00    0,000000000e+00    0,000000000e+00
     1122000000   -2,680004947e-02   -5,602695420e-02   -1,793787777e-01    4,883813262e-01    0,000000000e+00    0,000000000e+00    0,000000000e+00    0,000000000e+00
     1136000000   -4,439710081e-02   -9,654394537e-02    1,462527364e-01    5,137911439e-01    0,000000000e+00    0,000000000e+00    0,000000000e+00    0,000000000e+00
     1150000000   -8,421188593e-02   -1,242831424e-01    4,435240626e-01    3,425844610e-01    0,000000000e+00    0,000000000e+00    0,000000000e+00    0,000000000e+00
     1164000000   -1,378874779e-01   -1,220621094e-01    6,072743535e-01    1,295682602e-02    0,000000000e+00    0,000000000e+00    0,000000000e+00    0,000000000e+00
     1178000000   -1,810998917e-01   -8,962495625e-02    5,374753475e-01   -3,688150942e-01    0,000000000e+00    0,000000000e+00    0,000000000e+00    0,000000000e+00
     1192000000   -1,798861921e-01   -5,512432754e-02    2,462572753e-01   -6,305510998e-01    0,000000000e+00    0,000000000e+00    0,000000000e+00    0,000000000e+00
     1206000000   -1,930819303e-01   -5,452876538e-02   -1,375510842e-01   -6,576589942e-01    0,000000000e+00    0,000000000e+00    0,000000000e+00    0,000000000e+00
     1220000000   -2,469288260e-01   -1,612336375e-02   -4,154918790e-01   -4,856028557e-01    0,000000000e+00    0,000000000e+00    0,000000000e+00    0,000000000e+00
     1234000000   -2,453945875e-01    1,116158590e-01   -5,566592813e-01   -2,498102635e-01    0,000000000e+00    0,000000000e+00    0,000000000e+00    0,000000000e+00
     1248000000   -1,134750694e-01    1,754644066e-01   -6,047797203e-01    1,671393216e-02    0,000000000e+00    0,000000000e+00    0,000000000e+00    0,000000000e+00
     1262000000   -1,801435836e-03    1,336894482e-01   -5,013430715e-01    2,916674018e-01    0,000000000e+00    0,000000000e+00    0,000000000e+00    0,000000000e+00
     1276000000    6,159567088e-02    3,823680058e-02   -2,815217376e-01    4,878924787e-01    0,000000000e+00    0,000000000e+00    0,000000000e+00    0,000000000e+00
     1290000000    7,383935153e-02   -7,430159301e-02    1,413471624e-02    5,459258556e-01    0,000000000e+00    0,000000000e+00    0,000000000e+00    0,000000000e+00
     1304000000    2,570197918e-02   -1,778915524e-01    3,004144728e-01    4,776490033e-01    0,000000000e+00    0,000000000e+00    0,000000000e+00    0,000000000e+00
     1318000000   -9,300053120e-02   -2,500152886e-01    5,412063003e-01    2,741866112e-01    0,000000000e+00    0,000000000e+00    0,000000000e+00    0,000000000e+00
     1332000000   -2,447451502e-01   -2,465349734e-01    6,557813287e-01   -5,071579292e-02    0,000000000e+00    0,000000000e+00    0,000000000e+00    0,000000000e+00
     1346000000   -3,641047776e-01   -1,413503736e-01    5,475155711e-01   -4,060038030e-01    0,000000000e+00    0,000000000e+00    0,000000000e+00    0,000000000e+00
     1360000000   -3,841706216e-01    5,633873399e-03    2,565803230e-01   -6,250485778e-01    0,000000000e+00    0,000000000e+00    0,000000000e+00    0,000000000e+00
     1374000000   -3,235796690e-01    1,201752648e-01   -1,059748232e-01   -6,239398718e-01    0,000000000e+00    0,000000000e+00    0,000000000e+00    0,000000000e+00
     1388000000   -2,332440019e-01    1,729771346e-01   -3,690508008e-01   -4,243685007e-01    0,000000000e+00    0,000000000e+00    0,000000000e+00    0,000000000e+00
     1402000000   -1,541909426e-01    1,734700799e-01   -4,757117629e-01   -1,050940156e-01    0,000000000e+00    0,000000000e+00    0,000000000e+00    0,000000000e+00
     1416000000   -8,575243503e-02    1,431068927e-01   -3,915808201e-01    2,062061727e-01    0,000000000e+00    0,000000000e+00    0,000000000e+00    0,000000000e+00
     1430000000   -3,558060154e-02    8,705656976e-02   -2,019394636e-01    4,215430915e-01    0,000000000e+00    0,000000000e+00    0,000000000e+00    0,000000000e+00
     1444000000   -1,075014006e-02    5,206591450e-03    1,224635094e-01    5,329028368e-01    0,000000000e+00    0,000000000e+00    0,000000000e+00    0,000000000e+00
     1458000000   -4,064739868e-02   -8,672911674e-02    4,292618036e-01    4,930041134e-01    0,000000000e+00    0,000000000e+00    0,000000000e+00    0,000000000e+00
     1472000000   -1,224961877e-01   -1,527146101e-01    7,211853266e-01    3,049305677e-01    0,000000000e+00    0,000000000e+00    0,000000000e+00    0,000000000e+00
     1486000000   -2,357199192e-01   -1,434340030e-01    9,024525285e-01   -1,631843857e-02    0,000000000e+00    0,000000000e+00    0,000000000e+00    0,000000000e+00
     1500000000   -3,029254675e-01   -6,704234332e-02    8,517001271e-01   -4,206115901e-01    0,000000000e+00    0,000000000e+00    0,000000000e+00    0,000000000e+00
