! NanoVNA-App
! Date: 2025-09-25 14:56:46
! Start: 100MHz Stop: 1,5GHz Points: 101
! S-Parameter data: F S11 S21 S12 S22
# Hz S RI R 50
!     Frequency           S11_Real           S11_Imag           S21_Real           S21_Imag           S12_Real           S12_Imag           S22_Real           S22_Imag
      100000000    3,564185277e-02    2,731273882e-02    4,406056702e-01   -6,694226265e-01    0,000000000e+00    0,000000000e+00    0,000000000e+00    0,000000000e+00
      114000000    6,076329947e-02    2,137361327e-03    1,290945522e-02   -7,953870296e-01    0,000000000e+00    0,000000000e+00    0,000000000e+00    0,000000000e+00
      128000000    6,838510185e-02   -4,223741964e-02   -4,081711471e-01   -6,779611111e-01    0,000000000e+00    0,000000000e+00    0,000000000e+00    0,000000000e+00
      142000000    4,352413863e-02   -8,878672123e-02   -7,052646875e-01   -3,608368933e-01    0,000000000e+00    0,000000000e+00    0,000000000e+00    0,000000000e+00
      156000000   -9,407611564e-03   -1,093252152e-01   -7,927988768e-01    6,702522933e-02    0,000000000e+00    0,000000000e+00    0,000000000e+00    0,000000000e+00
      170000000   -6,253003329e-02   -9,178278595e-02   -6,367758512e-01    4,864448905e-01    0,000000000e+00    0,000000000e+00    0,000000000e+00    0,000000000e+00
      184000000   -8,848933876e-02   -4,765361547e-02   -2,729941607e-01    7,557131052e-01    0,000000000e+00    0,000000000e+00    0,000000000e+00    0,000000000e+00
      198000000   -8,262188733e-02   -6,371532101e-03    1,796594560e-01    7,820672989e-01    0,000000000e+00    0,000000000e+00    0,000000000e+00    0,000000000e+00
      212000000   -6,255064905e-02    1,810319722e-02    5,707601905e-01    5,581615567e-01    0,000000000e+00    0,000000000e+00    0,000000000e+00    0,000000000e+00
      226000000   -4,127548262e-02    3,181243688e-02    7,764780521e-01    1,619230360e-01    0,000000000e+00    0,000000000e+00    0,000000000e+00    0,000000000e+00
      240000000   -1,467437390e-02    4,118684307e-02    7,357901931e-01   -2,785481215e-01    0,000000000e+00    0,000000000e+00    0,000000000e+00    0,000000000e+00
      254000000    2,154767141e-02    3,615545109e-02    4,679115117e-01   -6,219823360e-01    0,000000000e+00    0,000000000e+00    0,000000000e+00    0,000000000e+00
      268000000    5,332243815e-02    4,545724019e-03    6,675228477e-02   -7,672978044e-01    0,000000000e+00    0,000000000e+00    0,000000000e+00    0,000000000e+00
      282000000    5,739673600e-02   -4,518150911e-02   -3,454953432e-01   -6,823809743e-01    0,000000000e+00    0,000000000e+00    0,000000000e+00    0,000000000e+00
      296000000    2,603480406e-02   -8,487171680e-02   -6,551178694e-01   -3,972941637e-01    0,000000000e+00    0,000000000e+00    0,000000000e+00    0,000000000e+00
      310000000   -1,900656708e-02   -8,943569660e-02   -7,745009065e-01    1,101114787e-02    0,000000000e+00    0,000000000e+00    0,000000000e+00    0,000000000e+00
      324000000   -4,668804258e-02   -6,342270970e-02   -6,485320926e-01    4,295035899e-01    0,000000000e+00    0,000000000e+00    0,000000000e+00    0,000000000e+00
      338000000   -4,120741040e-02   -3,743069246e-02   -3,126901686e-01    7,080821395e-01    0,000000000e+00    0,000000000e+00    0,000000000e+00    0,000000000e+00
      352000000   -2,351881191e-02   -3,767236322e-02    1,201662943e-01    7,574026585e-01    0,000000000e+00    0,000000000e+00    0,000000000e+00    0,000000000e+00
      366000000   -2,299590781e-02   -5,592822656e-02    5,032479763e-01    5,720199943e-01    0,000000000e+00    0,000000000e+00    0,000000000e+00    0,000000000e+00
      380000000   -4,458807781e-02   -6,502624601e-02    7,268187404e-01    2,115411460e-01    0,000000000e+00    0,000000000e+00    0,000000000e+00    0,000000000e+00
      394000000   -6,639435887e-02   -5,069837347e-02    7,226635814e-01   -2,128005475e-01    0,000000000e+00    0,000000000e+00    0,000000000e+00    0,000000000e+00
      408000000   -6,728389114e-02   -2,647598460e-02    4,898763299e-01   -5,691083074e-01    0,000000000e+00    0,000000000e+00    0,000000000e+00    0,000000000e+00
      422000000   -5,278573930e-02   -1,558855735e-02    1,064761356e-01   -7,379823923e-01    0,000000000e+00    0,000000000e+00    0,000000000e+00    0,000000000e+00
      436000000   -4,615550116e-02   -1,902743801e-02   -3,057872057e-01   -6,758936048e-01    0,000000000e+00    0,000000000e+00    0,000000000e+00    0,000000000e+00
      450000000   -5,204648525e-02   -1,561821532e-02   -6,190012097e-01   -4,002548456e-01    0,000000000e+00    0,000000000e+00    0,000000000e+00    0,000000000e+00
      464000000   -5,074143782e-02    5,480409600e-03   -7,298155427e-01    3,167766146e-03    0,000000000e+00    0,000000000e+00    0,000000000e+00    0,000000000e+00
      478000000   -2,084296942e-02    2,614590898e-02   -5,991539359e-01    3,963380158e-01    0,000000000e+00    0,000000000e+00    0,000000000e+00    0,000000000e+00
      492000000    2,768795565e-02    1,477963291e-02   -2,804439366e-01    6,439240575e-01    0,000000000e+00    0,000000000e+00    0,000000000e+00    0,000000000e+00
      506000000    5,817281082e-02   -3,649519011e-02    1,032409668e-01    6,805176735e-01    0,000000000e+00    0,000000000e+00    0,000000000e+00    0,000000000e+00
      520000000    4,392956942e-02   -1,016382053e-01    4,415911138e-01    5,204423666e-01    0,000000000e+00    0,000000000e+00    0,000000000e+00    0,000000000e+00
      534000000   -1,219728962e-02   -1,423943043e-01    6,488364935e-01    2,070783824e-01    0,000000000e+00    0,000000000e+00    0,000000000e+00    0,000000000e+00
      548000000   -7,898547500e-02   -1,381521970e-01    6,613596678e-01   -1,742078066e-01    0,000000000e+00    0,000000000e+00    0,000000000e+00    0,000000000e+00
      562000000   -1,262815893e-01   -9,841837734e-02    4,550444782e-01   -5,069012046e-01    0,000000000e+00    0,000000000e+00    0,000000000e+00    0,000000000e+00
      576000000   -1,439015269e-01   -4,520043358e-02    8,928586543e-02   -6,639863849e-01    0,000000000e+00    0,000000000e+00    0,000000000e+00    0,000000000e+00
      590000000   -1,330212355e-01    1,331508718e-02   -2,925713360e-01   -5,820865035e-01    0,000000000e+00    0,000000000e+00    0,000000000e+00    0,000000000e+00
      604000000   -7,002402097e-02    6,530300528e-02   -5,226179361e-01   -2,814088166e-01    0,000000000e+00    0,000000000e+00    0,000000000e+00    0,000000000e+00
      618000000    3,352877870e-02    1,818797179e-02   -5,046902299e-01    5,798668601e-03    0,000000000e+00    0,000000000e+00    0,000000000e+00    0,000000000e+00
      632000000   -7,977903821e-03   -9,820410609e-02   -4,737831354e-01    1,768950820e-01    0,000000000e+00    0,000000000e+00    0,000000000e+00    0,000000000e+00
      646000000   -9,980875999e-02   -6,265801936e-02   -3,761436343e-01    4,456014633e-01    0,000000000e+00    0,000000000e+00    0,000000000e+00    0,000000000e+00
      660000000   -8,512151986e-02    2,625443973e-03   -6,632338464e-02    6,153157949e-01    0,000000000e+00    0,000000000e+00    0,000000000e+00    0,000000000e+00
      674000000   -4,061213881e-02    1,051579136e-02    2,889342606e-01    5,572599769e-01    0,000000000e+00    0,000000000e+00    0,000000000e+00    0,000000000e+00
      688000000   -1,694193482e-02   -9,996405803e-03    5,433648229e-01    3,100786507e-01    0,000000000e+00    0,000000000e+00    0,000000000e+00    0,000000000e+00
      702000000   -1,190350018e-02   -2,985789999e-02    6,220144033e-01   -3,877412900e-02    0,000000000e+00    0,000000000e+00    0,000000000e+00    0,000000000e+00
      716000000   -5,222531967e-03   -4,648685828e-02    4,951364100e-01   -3,645717800e-01    0,000000000e+00    0,000000000e+00    0,000000000e+00    0,000000000e+00
      730000000   -4,024698399e-03   -7,592136413e-02    2,153399289e-01   -5,677024722e-01    0,000000000e+00    0,000000000e+00    0,000000000e+00    0,000000000e+00
      744000000   -2,515004575e-02   -1,137204692e-01   -1,202178374e-01   -5,904558897e-01    0,000000000e+00    0,000000000e+00    0,000000000e+00    0,000000000e+00
      758000000   -7,663656026e-02   -1,362740248e-01   -4,192280769e-01   -4,369900823e-01    0,000000000e+00    0,000000000e+00    0,000000000e+00    0,000000000e+00
      772000000   -1,380225271e-01   -1,165781617e-01   -5,965041518e-01   -1,429268420e-01    0,000000000e+00    0,000000000e+00    0,000000000e+00    0,000000000e+00
      786000000   -1,752030551e-01   -5,752967671e-02   -5,847954750e-01    2,097865194e-01    0,000000000e+00    0,000000000e+00    0,000000000e+00    0,000000000e+00
      800000000   -1,604517102e-01    1,061623078e-02   -3,750596642e-01    4,980202019e-01    0,000000000e+00    0,000000000e+00    0,000000000e+00    0,000000000e+00
      814000000   -1,126520187e-01    4,551469162e-02   -4,518465698e-02    6,168798804e-01    0,000000000e+00    0,000000000e+00    0,000000000e+00    0,000000000e+00
      828000000   -6,455539912e-02    4,404004663e-02    2,874894440e-01    5,424030423e-01    0,000000000e+00    0,000000000e+00    0,000000000e+00    0,000000000e+00
      842000000   -3,653457016e-02    2,639130503e-02    5,235697031e-01    3,057032526e-01    0,000000000e+00    0,000000000e+00    0,000000000e+00    0,000000000e+00
      856000000   -1,850621589e-02    7,817702368e-03    5,966399908e-01   -1,476060785e-02    0,000000000e+00    0,000000000e+00    0,000000000e+00    0,000000000e+00
      870000000   -9,379983530e-04   -1,437009312e-02    4,864876866e-01   -3,191829324e-01    0,000000000e+00    0,000000000e+00    0,000000000e+00    0,000000000e+00
      884000000    8,425224572e-03   -5,145613477e-02    2,419267297e-01   -5,151078105e-01    0,000000000e+00    0,000000000e+00    0,000000000e+00    0,000000000e+00
      898000000   -7,223727647e-03   -9,887515754e-02   -6,128229573e-02   -5,553629994e-01    0,000000000e+00    0,000000000e+00    0,000000000e+00    0,000000000e+00
      912000000   -6,374911964e-02   -1,273337603e-01   -3,977289498e-01   -4,213607311e-01    0,000000000e+00    0,000000000e+00    0,000000000e+00    0,000000000e+00
      926000000   -1,213369220e-01   -1,141268015e-01   -5,661438107e-01   -1,435053051e-01    0,000000000e+00    0,000000000e+00    0,000000000e+00    0,000000000e+00
      940000000   -1,580424011e-01   -6,685381383e-02   -5,676588416e-01    1,931263655e-01    0,000000000e+00    0,000000000e+00    0,000000000e+00    0,000000000e+00
      954000000   -1,452464610e-01   -3,019609721e-03   -3,725811839e-01    4,831250012e-01    0,000000000e+00    0,000000000e+00    0,000000000e+00    0,000000000e+00
      968000000   -9,694110602e-02    1,846847311e-02   -5,107177049e-02    6,149813533e-01    0,000000000e+00    0,000000000e+00    0,000000000e+00    0,000000000e+00
      982000000   -6,203910708e-02    2,211135579e-03    2,818074226e-01    5,554959774e-01    0,000000000e+00    0,000000000e+00    0,000000000e+00    0,000000000e+00
      996000000   -4,734833911e-02   -2,896362543e-02    5,257560015e-01    3,304444551e-01    0,000000000e+00    0,000000000e+00    0,000000000e+00    0,000000000e+00
     1010000000   -6,384865940e-02   -5,633629113e-02    6,123175621e-01    1,650541835e-02    0,000000000e+00    0,000000000e+00    0,000000000e+00    0,000000000e+00
     1024000000   -9,589011967e-02   -6,782154739e-02    5,177300572e-01   -2,856952846e-01    0,000000000e+00    0,000000000e+00    0,000000000e+00    0,000000000e+00
     1038000000   -1,270667911e-01   -5,884414911e-02    2,937075198e-01   -4,803269207e-01    0,000000000e+00    0,000000000e+00    0,000000000e+00    0,000000000e+00
     1052000000   -1,476145834e-01   -1,526195928e-02    2,694624849e-02   -5,316116810e-01    0,000000000e+00    0,000000000e+00    0,000000000e+00    0,000000000e+00
     1066000000   -1,126525328e-01    2,647520043e-02   -2,206539214e-01   -4,601864219e-01    0,000000000e+00    0,000000000e+00    0,000000000e+00    0,000000000e+00
     1080000000   -6,481019408e-02    3,428126499e-02   -4,199245274e-01   -2,816770375e-01    0,000000000e+00    0,000000000e+00    0,000000000e+00    0,000000000e+00
     1094000000   -3,322269768e-02    7,585256826e-03   -5,079330802e-01   -1,542424224e-02    0,000000000e+00    0,000000000e+00    0,000000000e+00    0,000000000e+00
     1108000000   -2,598441206e-02   -2,141934261e-02   -4,308247268e-01    2,790667415e-01    0,000000000e+00    0,000000000e+00    0,000000000e+00    0,000000000e+00
     1122000000   -2,157851122e-02   -5,982027575e-02   -1,836689860e-01    4,837822318e-01    0,000000000e+00    0,000000000e+00    0,000000000e+00    0,000000000e+00
     1136000000   -3,612430766e-02   -9,686742723e-02    1,477758288e-01    5,110387206e-01    0,000000000e+00    0,000000000e+00    0,000000000e+00    0,000000000e+00
     1150000000   -8,140143752e-02   -1,311061084e-01    4,438658953e-01    3,413056135e-01    0,000000000e+00    0,000000000e+00    0,000000000e+00    0,000000000e+00
     1164000000   -1,452584714e-01   -1,246949881e-01    6,049358845e-01    1,667233557e-02    0,000000000e+00    0,000000000e+00    0,000000000e+00    0,000000000e+00
     1178000000   -1,782438904e-01   -8,952245116e-02    5,375941992e-01   -3,652865589e-01    0,000000000e+00    0,000000000e+00    0,000000000e+00    0,000000000e+00
     1192000000   -1,856311560e-01   -5,432685092e-02    2,472670823e-01   -6,309285164e-01    0,000000000e+00    0,000000000e+00    0,000000000e+00    0,000000000e+00
     1206000000   -1,928524971e-01   -5,103464052e-02   -1,356452256e-01   -6,640399694e-01    0,000000000e+00    0,000000000e+00    0,000000000e+00    0,000000000e+00
     1220000000   -2,464256585e-01   -1,921647601e-02   -4,227547646e-01   -4,917282164e-01    0,000000000e+00    0,000000000e+00    0,000000000e+00    0,000000000e+00
     1234000000   -2,401063740e-01    1,059073061e-01   -5,594942570e-01   -2,514833510e-01    0,000000000e+00    0,000000000e+00    0,000000000e+00    0,000000000e+00
     1248000000   -1,146479920e-01    1,727019697e-01   -5,991935134e-01    2,113213204e-02    0,000000000e+00    0,000000000e+00    0,000000000e+00    0,000000000e+00
     1262000000   -2,306610812e-03    1,356007159e-01   -4,975628257e-01    2,945780754e-01    0,000000000e+00    0,000000000e+00    0,000000000e+00    0,000000000e+00
     1276000000    5,997921899e-02    3,949184343e-02   -2,784374058e-01    4,814371169e-01    0,000000000e+00    0,000000000e+00    0,000000000e+00    0,000000000e+00
     1290000000    7,100920379e-02   -6,738051027e-02    9,308697656e-03    5,482789874e-01    0,000000000e+00    0,000000000e+00    0,000000000e+00    0,000000000e+00
     1304000000    2,559272386e-02   -1,832428426e-01    2,926761508e-01    4,721328914e-01    0,000000000e+00    0,000000000e+00    0,000000000e+00    0,000000000e+00
     1318000000   -8,747704327e-02   -2,548256516e-01    5,381778479e-01    2,745976150e-01    0,000000000e+00    0,000000000e+00    0,000000000e+00    0,000000000e+00
     1332000000   -2,400554568e-01   -2,467160076e-01    6,522576213e-01   -4,917196929e-02    0,000000000e+00    0,000000000e+00    0,000000000e+00    0,000000000e+00
     1346000000   -3,609838486e-01   -1,406702399e-01    5,555272698e-01   -4,042396545e-01    0,000000000e+00    0,000000000e+00    0,000000000e+00    0,000000000e+00
     1360000000   -3,867946863e-01    1,205852628e-02    2,575252652e-01   -6,365970373e-01    0,000000000e+00    0,000000000e+00    0,000000000e+00    0,000000000e+00
     1374000000   -3,285284638e-01    1,218674928e-01   -1,043178886e-01   -6,237894297e-01    0,000000000e+00    0,000000000e+00    0,000000000e+00    0,000000000e+00
     1388000000   -2,364497930e-01    1,701226681e-01   -3,777210116e-01   -4,218361080e-01    0,000000000e+00    0,000000000e+00    0,000000000e+00    0,000000000e+00
     1402000000   -1,535215229e-01    1,747297943e-01   -4,747241735e-01   -1,033484563e-01    0,000000000e+00    0,000000000e+00    0,000000000e+00    0,000000000e+00
     1416000000   -8,483518660e-02    1,425396204e-01   -3,954119682e-01    1,947729588e-01    0,000000000e+00    0,000000000e+00    0,000000000e+00    0,000000000e+00
     1430000000   -3,547073528e-02    8,570504189e-02   -1,907144636e-01    4,106783867e-01    0,000000000e+00    0,000000000e+00    0,000000000e+00    0,000000000e+00
     1444000000   -1,330509223e-02    4,353665747e-03    1,185145155e-01    5,334579945e-01    0,000000000e+00    0,000000000e+00    0,000000000e+00    0,000000000e+00
     1458000000   -3,450837359e-02   -8,411759883e-02    4,407016635e-01    4,901148677e-01    0,000000000e+00    0,000000000e+00    0,000000000e+00    0,000000000e+00
     1472000000   -1,270771027e-01   -1,406073719e-01    7,314816117e-01    3,085549772e-01    0,000000000e+00    0,000000000e+00    0,000000000e+00    0,000000000e+00
     1486000000   -2,386473715e-01   -1,393959969e-01    8,914639950e-01   -3,979367018e-02    0,000000000e+00    0,000000000e+00    0,000000000e+00    0,000000000e+00
     1500000000   -3,049974144e-01   -5,602569506e-02    8,504664302e-01   -4,176523983e-01    0,000000000e+00    0,000000000e+00    0,000000000e+00    0,000000000e+00
