! NanoVNA-App
! Date: 2025-09-25 14:58:51
! Start: 100MHz Stop: 1,5GHz Points: 101
! S-Parameter data: F S11 S21 S12 S22
# Hz S RI R 50
!     Frequency           S11_Real           S11_Imag           S21_Real           S21_Imag           S12_Real           S12_Imag           S22_Real           S22_Imag
      100000000    3,558298945e-02    2,735720389e-02    4,407587647e-01   -6,695148349e-01    0,000000000e+00    0,000000000e+00    0,000000000e+00    0,000000000e+00
      114000000    6,070599705e-02    2,198276576e-03    1,274402253e-02   -7,954112887e-01    0,000000000e+00    0,000000000e+00    0,000000000e+00    0,000000000e+00
      128000000    6,842170656e-02   -4,226293042e-02   -4,082165062e-01   -6,783272624e-01    0,000000000e+00    0,000000000e+00    0,000000000e+00    0,000000000e+00
      142000000    4,347582161e-02   -8,875884861e-02   -7,051759958e-01   -3,608640432e-01    0,000000000e+00    0,000000000e+00    0,000000000e+00    0,000000000e+00
      156000000   -8,845801465e-03   -1,103334799e-01   -7,942880988e-01    6,795857102e-02    0,000000000e+00    0,000000000e+00    0,000000000e+00    0,000000000e+00
      170000000   -6,260814518e-02   -9,181024134e-02   -6,369663477e-01    4,864625633e-01    0,000000000e+00    0,000000000e+00    0,000000000e+00    0,000000000e+00
      184000000   -8,856616914e-02   -4,768854380e-02   -2,731864154e-01    7,562527657e-01    0,000000000e+00    0,000000000e+00    0,000000000e+00    0,000000000e+00
      198000000   -8,273137361e-02   -6,450595800e-03    1,793824136e-01    7,823054194e-01    0,000000000e+00    0,000000000e+00    0,000000000e+00    0,000000000e+00
      212000000   -6,266032904e-02    1,798838191e-02    5,706363916e-01    5,583828688e-01    0,000000000e+00    0,000000000e+00    0,000000000e+00    0,000000000e+00
      226000000   -4,141684622e-02    3,181747347e-02    7,767406702e-01    1,618103832e-01    0,000000000e+00    0,000000000e+00    0,000000000e+00    0,000000000e+00
      240000000   -1,490511745e-02    4,126376286e-02    7,361426353e-01   -2,786461711e-01    0,000000000e+00    0,000000000e+00    0,000000000e+00    0,000000000e+00
      254000000    2,140600793e-02    3,632090613e-02    4,679684043e-01   -6,224029064e-01    0,000000000e+00    0,000000000e+00    0,000000000e+00    0,000000000e+00
      268000000    5,326275155e-02    4,711202811e-03    6,687127799e-02   -7,677019238e-01    0,000000000e+00    0,000000000e+00    0,000000000e+00    0,000000000e+00
      282000000    5,740385503e-02   -4,492251202e-02   -3,455869853e-01   -6,829800606e-01    0,000000000e+00    0,000000000e+00    0,000000000e+00    0,000000000e+00
      296000000    2,597757615e-02   -8,474408090e-02   -6,549447179e-01   -3,977658749e-01    0,000000000e+00    0,000000000e+00    0,000000000e+00    0,000000000e+00
      310000000   -1,897467487e-02   -8,918599784e-02   -7,750478387e-01    1,028726064e-02    0,000000000e+00    0,000000000e+00    0,000000000e+00    0,000000000e+00
      324000000   -4,642396048e-02   -6,348289549e-02   -6,476943493e-01    4,303364754e-01    0,000000000e+00    0,000000000e+00    0,000000000e+00    0,000000000e+00
      338000000   -4,099414498e-02   -3,783632815e-02   -3,085211813e-01    7,095949650e-01    0,000000000e+00    0,000000000e+00    0,000000000e+00    0,000000000e+00
      352000000   -2,315733396e-02   -3,762746602e-02    1,192192510e-01    7,592596412e-01    0,000000000e+00    0,000000000e+00    0,000000000e+00    0,000000000e+00
      366000000   -2,287310921e-02   -5,631998926e-02    5,039721727e-01    5,715123415e-01    0,000000000e+00    0,000000000e+00    0,000000000e+00    0,000000000e+00
      380000000   -4,485401884e-02   -6,538712978e-02    7,261537313e-01    2,111894339e-01    0,000000000e+00    0,000000000e+00    0,000000000e+00    0,000000000e+00
      394000000   -6,680419296e-02   -5,046608672e-02    7,227910757e-01   -2,137053907e-01    0,000000000e+00    0,000000000e+00    0,000000000e+00    0,000000000e+00
      408000000   -6,725236773e-02   -2,638273127e-02    4,906086624e-01   -5,680013895e-01    0,000000000e+00    0,000000000e+00    0,000000000e+00    0,000000000e+00
      422000000   -5,334891379e-02   -1,540506631e-02    1,052206308e-01   -7,396903038e-01    0,000000000e+00    0,000000000e+00    0,000000000e+00    0,000000000e+00
      436000000   -4,651577771e-02   -1,862427965e-02   -3,065636456e-01   -6,757978201e-01    0,000000000e+00    0,000000000e+00    0,000000000e+00    0,000000000e+00
      450000000   -5,191688240e-02   -1,512107719e-02   -6,185865402e-01   -3,993275166e-01    0,000000000e+00    0,000000000e+00    0,000000000e+00    0,000000000e+00
      464000000   -5,030342564e-02    5,678813905e-03   -7,302191854e-01    3,593747970e-03    0,000000000e+00    0,000000000e+00    0,000000000e+00    0,000000000e+00
      478000000   -2,062248252e-02    2,643789351e-02   -5,985004306e-01    3,973189294e-01    0,000000000e+00    0,000000000e+00    0,000000000e+00    0,000000000e+00
      492000000    2,876818553e-02    1,461095270e-02   -2,796021700e-01    6,444271803e-01    0,000000000e+00    0,000000000e+00    0,000000000e+00    0,000000000e+00
      506000000    5,893775448e-02   -3,745064512e-02    1,052536592e-01    6,805897355e-01    0,000000000e+00    0,000000000e+00    0,000000000e+00    0,000000000e+00
      520000000    4,425281659e-02   -1,030434296e-01    4,457666576e-01    5,162024498e-01    0,000000000e+00    0,000000000e+00    0,000000000e+00    0,000000000e+00
      534000000   -1,244587637e-02   -1,441783756e-01    6,500287652e-01    2,058345228e-01    0,000000000e+00    0,000000000e+00    0,000000000e+00    0,000000000e+00
      548000000   -8,187740296e-02   -1,399294138e-01    6,593230367e-01   -1,761291772e-01    0,000000000e+00    0,000000000e+00    0,000000000e+00    0,000000000e+00
      562000000   -1,318524927e-01   -9,828300029e-02    4,501489103e-01   -5,089489818e-01    0,000000000e+00    0,000000000e+00    0,000000000e+00    0,000000000e+00
      576000000   -1,496104598e-01   -3,860625625e-02    8,184320480e-02   -6,601076126e-01    0,000000000e+00    0,000000000e+00    0,000000000e+00    0,000000000e+00
      590000000   -1,298355311e-01    2,982180193e-02   -2,972827554e-01   -5,622098446e-01    0,000000000e+00    0,000000000e+00    0,000000000e+00    0,000000000e+00
      604000000   -3,695411980e-02    6,872519851e-02   -4,871190488e-01   -2,697329521e-01    0,000000000e+00    0,000000000e+00    0,000000000e+00    0,000000000e+00
      618000000    3,439719975e-02   -3,178272396e-02   -4,933652878e-01   -5,268024281e-02    0,000000000e+00    0,000000000e+00    0,000000000e+00    0,000000000e+00
      632000000   -5,284016207e-02   -9,239406139e-02   -5,261918902e-01    1,774161756e-01    0,000000000e+00    0,000000000e+00    0,000000000e+00    0,000000000e+00
      646000000   -9,975686669e-02   -3,295397758e-02   -3,790830076e-01    4,779189527e-01    0,000000000e+00    0,000000000e+00    0,000000000e+00    0,000000000e+00
      660000000   -6,831094623e-02    9,299733676e-03   -5,001243576e-02    6,266047955e-01    0,000000000e+00    0,000000000e+00    0,000000000e+00    0,000000000e+00
      674000000   -2,969368547e-02    4,840900656e-03    2,990621626e-01    5,528172851e-01    0,000000000e+00    0,000000000e+00    0,000000000e+00    0,000000000e+00
      688000000   -1,507822890e-02   -1,760276034e-02    5,471030474e-01    3,029209971e-01    0,000000000e+00    0,000000000e+00    0,000000000e+00    0,000000000e+00
      702000000   -1,423765905e-02   -3,395793587e-02    6,171276569e-01   -4,353440180e-02    0,000000000e+00    0,000000000e+00    0,000000000e+00    0,000000000e+00
      716000000   -1,055813860e-02   -4,876146838e-02    4,920826554e-01   -3,676731586e-01    0,000000000e+00    0,000000000e+00    0,000000000e+00    0,000000000e+00
      730000000   -7,126006763e-03   -7,390823960e-02    2,120797187e-01   -5,674858689e-01    0,000000000e+00    0,000000000e+00    0,000000000e+00    0,000000000e+00
      744000000   -2,669232897e-02   -1,101894528e-01   -1,238765344e-01   -5,871854424e-01    0,000000000e+00    0,000000000e+00    0,000000000e+00    0,000000000e+00
      758000000   -7,390089333e-02   -1,323263645e-01   -4,202593565e-01   -4,321247637e-01    0,000000000e+00    0,000000000e+00    0,000000000e+00    0,000000000e+00
      772000000   -1,356040537e-01   -1,156619862e-01   -5,937437415e-01   -1,398000717e-01    0,000000000e+00    0,000000000e+00    0,000000000e+00    0,000000000e+00
      786000000   -1,718092859e-01   -5,896848068e-02   -5,812380314e-01    2,096894830e-01    0,000000000e+00    0,000000000e+00    0,000000000e+00    0,000000000e+00
      800000000   -1,595824957e-01    5,961800925e-03   -3,726704419e-01    4,952365458e-01    0,000000000e+00    0,000000000e+00    0,000000000e+00    0,000000000e+00
      814000000   -1,150689945e-01    4,249653593e-02   -4,549244046e-02    6,152562499e-01    0,000000000e+00    0,000000000e+00    0,000000000e+00    0,000000000e+00
      828000000   -6,941983849e-02    4,354190081e-02    2,853298485e-01    5,399209261e-01    0,000000000e+00    0,000000000e+00    0,000000000e+00    0,000000000e+00
      842000000   -3,889176250e-02    2,870589122e-02    5,211244822e-01    3,058251739e-01    0,000000000e+00    0,000000000e+00    0,000000000e+00    0,000000000e+00
      856000000   -1,845252328e-02    1,252155099e-02    5,941337347e-01   -1,409027167e-02    0,000000000e+00    0,000000000e+00    0,000000000e+00    0,000000000e+00
      870000000    1,674038242e-03   -1,116034389e-02    4,861880541e-01   -3,167661428e-01    0,000000000e+00    0,000000000e+00    0,000000000e+00    0,000000000e+00
      884000000    1,343833841e-02   -5,197043717e-02    2,420496792e-01   -5,119028687e-01    0,000000000e+00    0,000000000e+00    0,000000000e+00    0,000000000e+00
      898000000   -3,443863476e-03   -1,023765579e-01   -5,758282915e-02   -5,547760725e-01    0,000000000e+00    0,000000000e+00    0,000000000e+00    0,000000000e+00
      912000000   -6,259643286e-02   -1,323387176e-01   -3,859474659e-01   -4,258171320e-01    0,000000000e+00    0,000000000e+00    0,000000000e+00    0,000000000e+00
      926000000   -1,277464777e-01   -1,176918149e-01   -5,678285956e-01   -1,464981139e-01    0,000000000e+00    0,000000000e+00    0,000000000e+00    0,000000000e+00
      940000000   -1,616371870e-01   -6,142107025e-02   -5,673217177e-01    1,927867532e-01    0,000000000e+00    0,000000000e+00    0,000000000e+00    0,000000000e+00
      954000000   -1,461088955e-01   -3,362240270e-03   -3,738642931e-01    4,806361198e-01    0,000000000e+00    0,000000000e+00    0,000000000e+00    0,000000000e+00
      968000000   -9,991017729e-02    2,338802628e-02   -5,160725117e-02    6,147367358e-01    0,000000000e+00    0,000000000e+00    0,000000000e+00    0,000000000e+00
      982000000   -5,807578936e-02    5,224047229e-03    2,804257870e-01    5,513783097e-01    0,000000000e+00    0,000000000e+00    0,000000000e+00    0,000000000e+00
      996000000   -4,236917570e-02   -3,562216088e-02    5,241231918e-01    3,292127550e-01    0,000000000e+00    0,000000000e+00    0,000000000e+00    0,000000000e+00
     1010000000   -5,991235003e-02   -6,561498344e-02    6,084224582e-01    1,796163060e-02    0,000000000e+00    0,000000000e+00    0,000000000e+00    0,000000000e+00
     1024000000   -1,030007377e-01   -8,028458059e-02    5,162108541e-01   -2,812190354e-01    0,000000000e+00    0,000000000e+00    0,000000000e+00    0,000000000e+00
     1038000000   -1,378745884e-01   -5,944278836e-02    2,954791486e-01   -4,705047607e-01    0,000000000e+00    0,000000000e+00    0,000000000e+00    0,000000000e+00
     1052000000   -1,481451690e-01   -5,741658970e-04    3,401853517e-02   -5,246535540e-01    0,000000000e+00    0,000000000e+00    0,000000000e+00    0,000000000e+00
     1066000000   -1,075214520e-01    3,794816136e-02   -2,115689367e-01   -4,651824534e-01    0,000000000e+00    0,000000000e+00    0,000000000e+00    0,000000000e+00
     1080000000   -5,306806788e-02    2,462442778e-02   -4,181430638e-01   -2,976435125e-01    0,000000000e+00    0,000000000e+00    0,000000000e+00    0,000000000e+00
     1094000000   -3,758766875e-02   -6,968582515e-03   -5,200200677e-01   -2,381534316e-02    0,000000000e+00    0,000000000e+00    0,000000000e+00    0,000000000e+00
     1108000000   -3,110274859e-02   -2,953498811e-02   -4,445139468e-01    2,844191194e-01    0,000000000e+00    0,000000000e+00    0,000000000e+00    0,000000000e+00
     1122000000   -2,782025374e-02   -5,661848933e-02   -1,879473329e-01    4,958189428e-01    0,000000000e+00    0,000000000e+00    0,000000000e+00    0,000000000e+00
     1136000000   -4,220119864e-02   -9,161961824e-02    1,531464905e-01    5,199519992e-01    0,000000000e+00    0,000000000e+00    0,000000000e+00    0,000000000e+00
     1150000000   -8,518474549e-02   -1,236725822e-01    4,554572403e-01    3,437300026e-01    0,000000000e+00    0,000000000e+00    0,000000000e+00    0,000000000e+00
     1164000000   -1,363100857e-01   -1,223656163e-01    6,106721759e-01    1,102081779e-02    0,000000000e+00    0,000000000e+00    0,000000000e+00    0,000000000e+00
     1178000000   -1,773446798e-01   -9,191793203e-02    5,385147929e-01   -3,685473800e-01    0,000000000e+00    0,000000000e+00    0,000000000e+00    0,000000000e+00
     1192000000   -1,830293536e-01   -5,314258859e-02    2,430764288e-01   -6,381149292e-01    0,000000000e+00    0,000000000e+00    0,000000000e+00    0,000000000e+00
     1206000000   -1,949885786e-01   -5,742364377e-02   -1,415557414e-01   -6,621467471e-01    0,000000000e+00    0,000000000e+00    0,000000000e+00    0,000000000e+00
     1220000000   -2,568526268e-01   -1,732422784e-02   -4,208608866e-01   -4,826009274e-01    0,000000000e+00    0,000000000e+00    0,000000000e+00    0,000000000e+00
     1234000000   -2,403542250e-01    1,142604053e-01   -5,561993718e-01   -2,484435439e-01    0,000000000e+00    0,000000000e+00    0,000000000e+00    0,000000000e+00
     1248000000   -1,203097999e-01    1,738252640e-01   -6,054005027e-01    2,230121009e-02    0,000000000e+00    0,000000000e+00    0,000000000e+00    0,000000000e+00
     1262000000   -5,556426942e-03    1,294492930e-01   -5,090554953e-01    2,931575775e-01    0,000000000e+00    0,000000000e+00    0,000000000e+00    0,000000000e+00
     1276000000    6,079877913e-02    3,752511367e-02   -2,786672115e-01    4,859417975e-01    0,000000000e+00    0,000000000e+00    0,000000000e+00    0,000000000e+00
     1290000000    7,279132307e-02   -7,430852950e-02    1,501668151e-02    5,467591286e-01    0,000000000e+00    0,000000000e+00    0,000000000e+00    0,000000000e+00
     1304000000    2,272443473e-02   -1,810008138e-01    2,950485647e-01    4,767133594e-01    0,000000000e+00    0,000000000e+00    0,000000000e+00    0,000000000e+00
     1318000000   -9,060202539e-02   -2,542602718e-01    5,377571583e-01    2,655682564e-01    0,000000000e+00    0,000000000e+00    0,000000000e+00    0,000000000e+00
     1332000000   -2,469184250e-01   -2,421701252e-01    6,458050013e-01   -4,550657049e-02    0,000000000e+00    0,000000000e+00    0,000000000e+00    0,000000000e+00
     1346000000   -3,610169590e-01   -1,404948533e-01    5,585757494e-01   -4,045920372e-01    0,000000000e+00    0,000000000e+00    0,000000000e+00    0,000000000e+00
     1360000000   -3,882722855e-01    8,806671016e-03    2,495729476e-01   -6,330860257e-01    0,000000000e+00    0,000000000e+00    0,000000000e+00    0,000000000e+00
     1374000000   -3,231312335e-01    1,216967776e-01   -9,964943677e-02   -6,371175647e-01    0,000000000e+00    0,000000000e+00    0,000000000e+00    0,000000000e+00
     1388000000   -2,343368679e-01    1,677003652e-01   -3,727664948e-01   -4,251432717e-01    0,000000000e+00    0,000000000e+00    0,000000000e+00    0,000000000e+00
     1402000000   -1,499204636e-01    1,670874208e-01   -4,730390012e-01   -1,106708795e-01    0,000000000e+00    0,000000000e+00    0,000000000e+00    0,000000000e+00
     1416000000   -8,444114774e-02    1,446974725e-01   -3,901454210e-01    2,087743282e-01    0,000000000e+00    0,000000000e+00    0,000000000e+00    0,000000000e+00
     1430000000   -3,126316145e-02    8,320601285e-02   -1,777367741e-01    4,007956684e-01    0,000000000e+00    0,000000000e+00    0,000000000e+00    0,000000000e+00
     1444000000   -1,252759807e-02    8,613089100e-03    1,193693280e-01    5,265532136e-01    0,000000000e+00    0,000000000e+00    0,000000000e+00    0,000000000e+00
     1458000000   -4,250899330e-02   -8,515176922e-02    4,357563555e-01    4,865521789e-01    0,000000000e+00    0,000000000e+00    0,000000000e+00    0,000000000e+00
     1472000000   -1,235091612e-01   -1,423177570e-01    7,362527847e-01    3,200553656e-01    0,000000000e+00    0,000000000e+00    0,000000000e+00    0,000000000e+00
     1486000000   -2,312844098e-01   -1,397549212e-01    8,965305090e-01   -2,488475852e-02    0,000000000e+00    0,000000000e+00    0,000000000e+00    0,000000000e+00
     1500000000   -2,997688949e-01   -6,430225819e-02    8,533888459e-01   -4,183634520e-01    0,000000000e+00    0,000000000e+00    0,000000000e+00    0,000000000e+00
