! NanoVNA-App
! Date: 2025-09-25 15:01:15
! Start: 100MHz Stop: 1,5GHz Points: 101
! S-Parameter data: F S11 S21 S12 S22
# Hz S RI R 50
!     Frequency           S11_Real           S11_Imag           S21_Real           S21_Imag           S12_Real           S12_Imag           S22_Real           S22_Imag
      100000000    3,557816520e-02    2,734398469e-02    4,407710433e-01   -6,695272326e-01    0,000000000e+00    0,000000000e+00    0,000000000e+00    0,000000000e+00
      114000000    6,067411602e-02    2,186547499e-03    1,293178927e-02   -7,953804731e-01    0,000000000e+00    0,000000000e+00    0,000000000e+00    0,000000000e+00
      128000000    6,838400662e-02   -4,221421480e-02   -4,082904756e-01   -6,781517863e-01    0,000000000e+00    0,000000000e+00    0,000000000e+00    0,000000000e+00
      142000000    4,348861799e-02   -8,879306167e-02   -7,053666115e-01   -3,609429896e-01    0,000000000e+00    0,000000000e+00    0,000000000e+00    0,000000000e+00
      156000000   -9,829812683e-03   -1,094114855e-01   -7,924608588e-01    6,728611141e-02    0,000000000e+00    0,000000000e+00    0,000000000e+00    0,000000000e+00
      170000000   -6,262660772e-02   -9,185539931e-02   -6,369501352e-01    4,864701927e-01    0,000000000e+00    0,000000000e+00    0,000000000e+00    0,000000000e+00
      184000000   -8,856151998e-02   -4,767233133e-02   -2,730677724e-01    7,561874390e-01    0,000000000e+00    0,000000000e+00    0,000000000e+00    0,000000000e+00
      198000000   -8,280993253e-02   -6,446350366e-03    1,796099991e-01    7,823691964e-01    0,000000000e+00    0,000000000e+00    0,000000000e+00    0,000000000e+00
      212000000   -6,277506053e-02    1,801828109e-02    5,706302524e-01    5,584756136e-01    0,000000000e+00    0,000000000e+00    0,000000000e+00    0,000000000e+00
      226000000   -4,148259014e-02    3,186721355e-02    7,768331170e-01    1,618711501e-01    0,000000000e+00    0,000000000e+00    0,000000000e+00    0,000000000e+00
      240000000   -1,491700578e-02    4,129695520e-02    7,361281514e-01   -2,786335647e-01    0,000000000e+00    0,000000000e+00    0,000000000e+00    0,000000000e+00
      254000000    2,137866616e-02    3,634570539e-02    4,678798020e-01   -6,221334934e-01    0,000000000e+00    0,000000000e+00    0,000000000e+00    0,000000000e+00
      268000000    5,327000096e-02    4,756387789e-03    6,666725129e-02   -7,676534653e-01    0,000000000e+00    0,000000000e+00    0,000000000e+00    0,000000000e+00
      282000000    5,746894330e-02   -4,487826303e-02   -3,456007838e-01   -6,826866865e-01    0,000000000e+00    0,000000000e+00    0,000000000e+00    0,000000000e+00
      296000000    2,614833787e-02   -8,465617895e-02   -6,553151608e-01   -3,974867761e-01    0,000000000e+00    0,000000000e+00    0,000000000e+00    0,000000000e+00
      310000000   -1,902453601e-02   -8,942965418e-02   -7,744678855e-01    1,122952998e-02    0,000000000e+00    0,000000000e+00    0,000000000e+00    0,000000000e+00
      324000000   -4,657679424e-02   -6,365706027e-02   -6,482512951e-01    4,296317697e-01    0,000000000e+00    0,000000000e+00    0,000000000e+00    0,000000000e+00
      338000000   -4,075512663e-02   -3,766079247e-02   -3,112659752e-01    7,083477974e-01    0,000000000e+00    0,000000000e+00    0,000000000e+00    0,000000000e+00
      352000000   -2,363382839e-02   -3,809244558e-02    1,199346036e-01    7,581464052e-01    0,000000000e+00    0,000000000e+00    0,000000000e+00    0,000000000e+00
      366000000   -2,297089435e-02   -5,626759678e-02    5,029211640e-01    5,717787147e-01    0,000000000e+00    0,000000000e+00    0,000000000e+00    0,000000000e+00
      380000000   -4,492728785e-02   -6,510830671e-02    7,264975905e-01    2,118798941e-01    0,000000000e+00    0,000000000e+00    0,000000000e+00    0,000000000e+00
      394000000   -6,618880481e-02   -5,038733780e-02    7,236723900e-01   -2,131516486e-01    0,000000000e+00    0,000000000e+00    0,000000000e+00    0,000000000e+00
      408000000   -6,754928082e-02   -2,638314851e-02    4,899542332e-01   -5,686549544e-01    0,000000000e+00    0,000000000e+00    0,000000000e+00    0,000000000e+00
      422000000   -5,325156450e-02   -1,494321879e-02    1,059575081e-01   -7,378905416e-01    0,000000000e+00    0,000000000e+00    0,000000000e+00    0,000000000e+00
      436000000   -4,622668400e-02   -1,845833659e-02   -3,058108687e-01   -6,761780381e-01    0,000000000e+00    0,000000000e+00    0,000000000e+00    0,000000000e+00
      450000000   -5,204404518e-02   -1,521517616e-02   -6,194059253e-01   -4,000055492e-01    0,000000000e+00    0,000000000e+00    0,000000000e+00    0,000000000e+00
      464000000   -5,056612566e-02    5,827054381e-03   -7,297221422e-01    3,272686154e-03    0,000000000e+00    0,000000000e+00    0,000000000e+00    0,000000000e+00
      478000000   -2,055037208e-02    2,635736577e-02   -5,989297032e-01    3,972668648e-01    0,000000000e+00    0,000000000e+00    0,000000000e+00    0,000000000e+00
      492000000    2,828645147e-02    1,452014316e-02   -2,803970575e-01    6,438587904e-01    0,000000000e+00    0,000000000e+00    0,000000000e+00    0,000000000e+00
      506000000    5,851936713e-02   -3,758702055e-02    1,043884456e-01    6,804038882e-01    0,000000000e+00    0,000000000e+00    0,000000000e+00    0,000000000e+00
      520000000    4,426711798e-02   -1,023910269e-01    4,412721395e-01    5,149663687e-01    0,000000000e+00    0,000000000e+00    0,000000000e+00    0,000000000e+00
      534000000   -1,266716886e-02   -1,436892003e-01    6,488810778e-01    2,058398873e-01    0,000000000e+00    0,000000000e+00    0,000000000e+00    0,000000000e+00
      548000000   -8,094011992e-02   -1,394510567e-01    6,602938771e-01   -1,758161783e-01    0,000000000e+00    0,000000000e+00    0,000000000e+00    0,000000000e+00
      562000000   -1,296407133e-01   -9,804287553e-02    4,522013068e-01   -5,079426169e-01    0,000000000e+00    0,000000000e+00    0,000000000e+00    0,000000000e+00
      576000000   -1,476160437e-01   -4,075156525e-02    8,467055112e-02   -6,624139547e-01    0,000000000e+00    0,000000000e+00    0,000000000e+00    0,000000000e+00
      590000000   -1,316693276e-01    2,345228568e-02   -2,974810600e-01   -5,700806379e-01    0,000000000e+00    0,000000000e+00    0,000000000e+00    0,000000000e+00
      604000000   -5,091670528e-02    6,921061873e-02   -5,028177500e-01   -2,722666562e-01    0,000000000e+00    0,000000000e+00    0,000000000e+00    0,000000000e+00
      618000000    3,919151425e-02   -1,216542535e-02   -4,924445450e-01   -2,875482850e-02    0,000000000e+00    0,000000000e+00    0,000000000e+00    0,000000000e+00
      632000000   -3,877411783e-02   -9,838581830e-02   -5,081321001e-01    1,728540361e-01    0,000000000e+00    0,000000000e+00    0,000000000e+00    0,000000000e+00
      646000000   -1,025714651e-01   -4,374440387e-02   -3,805283308e-01    4,661401808e-01    0,000000000e+00    0,000000000e+00    0,000000000e+00    0,000000000e+00
      660000000   -7,462518662e-02    8,297438733e-03   -5,729321390e-02    6,215942502e-01    0,000000000e+00    0,000000000e+00    0,000000000e+00    0,000000000e+00
      674000000   -3,382345662e-02    7,615170442e-03    2,952239215e-01    5,554333925e-01    0,000000000e+00    0,000000000e+00    0,000000000e+00    0,000000000e+00
      688000000   -1,507145539e-02   -1,476256922e-02    5,459849834e-01    3,063802123e-01    0,000000000e+00    0,000000000e+00    0,000000000e+00    0,000000000e+00
      702000000   -1,223177835e-02   -3,246248141e-02    6,215122342e-01   -3,698273003e-02    0,000000000e+00    0,000000000e+00    0,000000000e+00    0,000000000e+00
      716000000   -8,128602989e-03   -4,873036966e-02    4,929755926e-01   -3,670890629e-01    0,000000000e+00    0,000000000e+00    0,000000000e+00    0,000000000e+00
      730000000   -4,911623895e-03   -7,530777901e-02    2,135910243e-01   -5,677833557e-01    0,000000000e+00    0,000000000e+00    0,000000000e+00    0,000000000e+00
      744000000   -2,552169561e-02   -1,117365435e-01   -1,222872138e-01   -5,895739198e-01    0,000000000e+00    0,000000000e+00    0,000000000e+00    0,000000000e+00
      758000000   -7,517624646e-02   -1,346243173e-01   -4,187284112e-01   -4,342958629e-01    0,000000000e+00    0,000000000e+00    0,000000000e+00    0,000000000e+00
      772000000   -1,373255402e-01   -1,163637936e-01   -5,944629908e-01   -1,421253979e-01    0,000000000e+00    0,000000000e+00    0,000000000e+00    0,000000000e+00
      786000000   -1,737467051e-01   -5,815001577e-02   -5,835817456e-01    2,095963955e-01    0,000000000e+00    0,000000000e+00    0,000000000e+00    0,000000000e+00
      800000000   -1,597775221e-01    7,640465628e-03   -3,734318018e-01    4,968953431e-01    0,000000000e+00    0,000000000e+00    0,000000000e+00    0,000000000e+00
      814000000   -1,141097248e-01    4,439777881e-02   -4,646908864e-02    6,167740822e-01    0,000000000e+00    0,000000000e+00    0,000000000e+00    0,000000000e+00
      828000000   -6,761629134e-02    4,429600388e-02    2,871164680e-01    5,412120819e-01    0,000000000e+00    0,000000000e+00    0,000000000e+00    0,000000000e+00
      842000000   -3,768165782e-02    2,835035697e-02    5,221225023e-01    3,065035939e-01    0,000000000e+00    0,000000000e+00    0,000000000e+00    0,000000000e+00
      856000000   -1,854244061e-02    1,041496452e-02    5,958548784e-01   -1,347587351e-02    0,000000000e+00    0,000000000e+00    0,000000000e+00    0,000000000e+00
      870000000    4,609283933e-04   -1,152838208e-02    4,868907034e-01   -3,175757229e-01    0,000000000e+00    0,000000000e+00    0,000000000e+00    0,000000000e+00
      884000000    1,204026304e-02   -5,072110891e-02    2,437115163e-01   -5,134480596e-01    0,000000000e+00    0,000000000e+00    0,000000000e+00    0,000000000e+00
      898000000   -4,391680472e-03   -1,002409309e-01   -6,098937616e-02   -5,554468632e-01    0,000000000e+00    0,000000000e+00    0,000000000e+00    0,000000000e+00
      912000000   -6,182358414e-02   -1,311511099e-01   -3,925995529e-01   -4,110351801e-01    0,000000000e+00    0,000000000e+00    0,000000000e+00    0,000000000e+00
      926000000   -1,233823597e-01   -1,188055724e-01   -5,657942891e-01   -1,486763954e-01    0,000000000e+00    0,000000000e+00    0,000000000e+00    0,000000000e+00
      940000000   -1,614597589e-01   -6,236461177e-02   -5,689467192e-01    1,950010508e-01    0,000000000e+00    0,000000000e+00    0,000000000e+00    0,000000000e+00
      954000000   -1,488224119e-01   -4,581894260e-03   -3,752892613e-01    4,857742786e-01    0,000000000e+00    0,000000000e+00    0,000000000e+00    0,000000000e+00
      968000000   -9,668069333e-02    2,203324996e-02   -4,835112393e-02    6,146345139e-01    0,000000000e+00    0,000000000e+00    0,000000000e+00    0,000000000e+00
      982000000   -5,835898966e-02    5,065425765e-03    2,832783759e-01    5,512505174e-01    0,000000000e+00    0,000000000e+00    0,000000000e+00    0,000000000e+00
      996000000   -4,115979001e-02   -3,017392755e-02    5,244474411e-01    3,273805082e-01    0,000000000e+00    0,000000000e+00    0,000000000e+00    0,000000000e+00
     1010000000   -6,014876440e-02   -6,908006221e-02    6,069005132e-01    1,432676520e-02    0,000000000e+00    0,000000000e+00    0,000000000e+00    0,000000000e+00
     1024000000   -9,695164114e-02   -7,776214182e-02    5,135491490e-01   -2,847666740e-01    0,000000000e+00    0,000000000e+00    0,000000000e+00    0,000000000e+00
     1038000000   -1,439852268e-01   -5,854927376e-02    2,948861122e-01   -4,703737497e-01    0,000000000e+00    0,000000000e+00    0,000000000e+00    0,000000000e+00
     1052000000   -1,526379585e-01   -3,377472749e-03    3,778219968e-02   -5,257284641e-01    0,000000000e+00    0,000000000e+00    0,000000000e+00    0,000000000e+00
     1066000000   -1,075664237e-01    4,146933183e-02   -2,107149214e-01   -4,677312374e-01    0,000000000e+00    0,000000000e+00    0,000000000e+00    0,000000000e+00
     1080000000   -5,075583607e-02    2,718753181e-02   -4,189264774e-01   -2,960612476e-01    0,000000000e+00    0,000000000e+00    0,000000000e+00    0,000000000e+00
     1094000000   -3,592851385e-02   -9,187839925e-03   -5,191750526e-01   -2,287361771e-02    0,000000000e+00    0,000000000e+00    0,000000000e+00    0,000000000e+00
     1108000000   -3,142957389e-02   -2,875165455e-02   -4,435648024e-01    2,846287191e-01    0,000000000e+00    0,000000000e+00    0,000000000e+00    0,000000000e+00
     1122000000   -2,779263631e-02   -5,881160870e-02   -1,869538128e-01    4,963468909e-01    0,000000000e+00    0,000000000e+00    0,000000000e+00    0,000000000e+00
     1136000000   -3,970714658e-02   -9,378174692e-02    1,496617943e-01    5,203905106e-01    0,000000000e+00    0,000000000e+00    0,000000000e+00    0,000000000e+00
     1150000000   -8,400278538e-02   -1,258537322e-01    4,548502266e-01    3,450053036e-01    0,000000000e+00    0,000000000e+00    0,000000000e+00    0,000000000e+00
     1164000000   -1,369028538e-01   -1,233938187e-01    6,114469767e-01    1,227812376e-02    0,000000000e+00    0,000000000e+00    0,000000000e+00    0,000000000e+00
     1178000000   -1,795508564e-01   -8,870915323e-02    5,401184559e-01   -3,732877970e-01    0,000000000e+00    0,000000000e+00    0,000000000e+00    0,000000000e+00
     1192000000   -1,771332026e-01   -5,258316174e-02    2,378512025e-01   -6,384745240e-01    0,000000000e+00    0,000000000e+00    0,000000000e+00    0,000000000e+00
     1206000000   -1,910981685e-01   -5,884773657e-02   -1,389443427e-01   -6,608353257e-01    0,000000000e+00    0,000000000e+00    0,000000000e+00    0,000000000e+00
     1220000000   -2,579662800e-01   -1,340990327e-02   -4,199581146e-01   -4,821023643e-01    0,000000000e+00    0,000000000e+00    0,000000000e+00    0,000000000e+00
     1234000000   -2,440349758e-01    1,154256761e-01   -5,607821345e-01   -2,513820827e-01    0,000000000e+00    0,000000000e+00    0,000000000e+00    0,000000000e+00
     1248000000   -1,147148013e-01    1,753689945e-01   -6,060304642e-01    2,021731995e-02    0,000000000e+00    0,000000000e+00    0,000000000e+00    0,000000000e+00
     1262000000   -9,460135334e-05    1,296045929e-01   -5,055382252e-01    2,966179550e-01    0,000000000e+00    0,000000000e+00    0,000000000e+00    0,000000000e+00
     1276000000    5,634066463e-02    4,249743745e-02   -2,835325301e-01    4,857590795e-01    0,000000000e+00    0,000000000e+00    0,000000000e+00    0,000000000e+00
     1290000000    6,628911942e-02   -7,138983905e-02    3,755103564e-03    5,471948981e-01    0,000000000e+00    0,000000000e+00    0,000000000e+00    0,000000000e+00
     1304000000    2,188738994e-02   -1,792818308e-01    3,010521233e-01    4,794163108e-01    0,000000000e+00    0,000000000e+00    0,000000000e+00    0,000000000e+00
     1318000000   -8,879406005e-02   -2,565888464e-01    5,423938036e-01    2,685003877e-01    0,000000000e+00    0,000000000e+00    0,000000000e+00    0,000000000e+00
     1332000000   -2,397850007e-01   -2,463404685e-01    6,607089043e-01   -4,977019876e-02    0,000000000e+00    0,000000000e+00    0,000000000e+00    0,000000000e+00
     1346000000   -3,620793819e-01   -1,466861069e-01    5,552520156e-01   -4,140454829e-01    0,000000000e+00    0,000000000e+00    0,000000000e+00    0,000000000e+00
     1360000000   -3,867961466e-01    5,888546351e-03    2,589598596e-01   -6,543239355e-01    0,000000000e+00    0,000000000e+00    0,000000000e+00    0,000000000e+00
     1374000000   -3,273883164e-01    1,215179712e-01   -1,099426597e-01   -6,312688589e-01    0,000000000e+00    0,000000000e+00    0,000000000e+00    0,000000000e+00
     1388000000   -2,426850945e-01    1,684193909e-01   -3,733001351e-01   -4,177042246e-01    0,000000000e+00    0,000000000e+00    0,000000000e+00    0,000000000e+00
     1402000000   -1,517545432e-01    1,697512567e-01   -4,750573039e-01   -1,079337150e-01    0,000000000e+00    0,000000000e+00    0,000000000e+00    0,000000000e+00
     1416000000   -8,188782632e-02    1,427455246e-01   -3,964347541e-01    1,998839378e-01    0,000000000e+00    0,000000000e+00    0,000000000e+00    0,000000000e+00
     1430000000   -2,994701639e-02    8,950506896e-02   -1,564781070e-01    4,206126630e-01    0,000000000e+00    0,000000000e+00    0,000000000e+00    0,000000000e+00
     1444000000   -1,329372823e-02    6,082172506e-03    1,200936958e-01    5,374164581e-01    0,000000000e+00    0,000000000e+00    0,000000000e+00    0,000000000e+00
     1458000000   -4,313023761e-02   -8,421720564e-02    4,298206568e-01    4,914320111e-01    0,000000000e+00    0,000000000e+00    0,000000000e+00    0,000000000e+00
     1472000000   -1,234377697e-01   -1,466564089e-01    7,341889739e-01    2,982954681e-01    0,000000000e+00    0,000000000e+00    0,000000000e+00    0,000000000e+00
     1486000000   -2,355510443e-01   -1,396250725e-01    8,921590447e-01   -1,981691085e-02    0,000000000e+00    0,000000000e+00    0,000000000e+00    0,000000000e+00
     1500000000   -2,988045514e-01   -6,485769153e-02    8,565995097e-01   -4,291023910e-01    0,000000000e+00    0,000000000e+00    0,000000000e+00    0,000000000e+00
