! NanoVNA-App
! Date: 2025-09-25 15:01:23
! Start: 100MHz Stop: 1,5GHz Points: 101
! S-Parameter data: F S11 S21 S12 S22
# Hz S RI R 50
!     Frequency           S11_Real           S11_Imag           S21_Real           S21_Imag           S12_Real           S12_Imag           S22_Real           S22_Imag
      100000000    3,557207063e-02    2,736071311e-02    4,407654405e-01   -6,695471406e-01    0,000000000e+00    0,000000000e+00    0,000000000e+00    0,000000000e+00
      114000000    6,073426455e-02    2,167378785e-03    1,286147069e-02   -7,955057025e-01    0,000000000e+00    0,000000000e+00    0,000000000e+00    0,000000000e+00
      128000000    6,840834022e-02   -4,224598035e-02   -4,081637561e-01   -6,780009866e-01    0,000000000e+00    0,000000000e+00    0,000000000e+00    0,000000000e+00
      142000000    4,348724335e-02   -8,878685534e-02   -7,053058743e-01   -3,608898520e-01    0,000000000e+00    0,000000000e+00    0,000000000e+00    0,000000000e+00
      156000000   -8,842375129e-03   -1,101804003e-01   -7,942516208e-01    6,801497936e-02    0,000000000e+00    0,000000000e+00    0,000000000e+00    0,000000000e+00
      170000000   -6,266012788e-02   -9,185586870e-02   -6,369709373e-01    4,865021408e-01    0,000000000e+00    0,000000000e+00    0,000000000e+00    0,000000000e+00
      184000000   -8,861371130e-02   -4,766331241e-02   -2,732584178e-01    7,560408711e-01    0,000000000e+00    0,000000000e+00    0,000000000e+00    0,000000000e+00
      198000000   -8,279319108e-02   -6,419060286e-03    1,796383113e-01    7,822222710e-01    0,000000000e+00    0,000000000e+00    0,000000000e+00    0,000000000e+00
      212000000   -6,272673607e-02    1,800389029e-02    5,706958771e-01    5,584537387e-01    0,000000000e+00    0,000000000e+00    0,000000000e+00    0,000000000e+00
      226000000   -4,146682471e-02    3,182467446e-02    7,769248486e-01    1,618928015e-01    0,000000000e+00    0,000000000e+00    0,000000000e+00    0,000000000e+00
      240000000   -1,493465994e-02    4,128546640e-02    7,361103296e-01   -2,786077559e-01    0,000000000e+00    0,000000000e+00    0,000000000e+00    0,000000000e+00
      254000000    2,136397175e-02    3,632872924e-02    4,681400359e-01   -6,224306822e-01    0,000000000e+00    0,000000000e+00    0,000000000e+00    0,000000000e+00
      268000000    5,330111459e-02    4,781756550e-03    6,658469141e-02   -7,672802210e-01    0,000000000e+00    0,000000000e+00    0,000000000e+00    0,000000000e+00
      282000000    5,738921463e-02   -4,487765208e-02   -3,458197713e-01   -6,826127172e-01    0,000000000e+00    0,000000000e+00    0,000000000e+00    0,000000000e+00
      296000000    2,623530291e-02   -8,469471335e-02   -6,548925638e-01   -3,980191648e-01    0,000000000e+00    0,000000000e+00    0,000000000e+00    0,000000000e+00
      310000000   -1,900620945e-02   -8,946701884e-02   -7,747837901e-01    9,673532099e-03    0,000000000e+00    0,000000000e+00    0,000000000e+00    0,000000000e+00
      324000000   -4,647329450e-02   -6,354271621e-02   -6,479766965e-01    4,293994904e-01    0,000000000e+00    0,000000000e+00    0,000000000e+00    0,000000000e+00
      338000000   -4,127251729e-02   -3,789011389e-02   -3,111723065e-01    7,115241289e-01    0,000000000e+00    0,000000000e+00    0,000000000e+00    0,000000000e+00
      352000000   -2,345765382e-02   -3,774679452e-02    1,200079843e-01    7,594367862e-01    0,000000000e+00    0,000000000e+00    0,000000000e+00    0,000000000e+00
      366000000   -2,303252555e-02   -5,617864057e-02    5,028686523e-01    5,714836717e-01    0,000000000e+00    0,000000000e+00    0,000000000e+00    0,000000000e+00
      380000000   -4,469123483e-02   -6,510674208e-02    7,266179323e-01    2,124481499e-01    0,000000000e+00    0,000000000e+00    0,000000000e+00    0,000000000e+00
      394000000   -6,655748188e-02   -5,078594387e-02    7,226516008e-01   -2,132932693e-01    0,000000000e+00    0,000000000e+00    0,000000000e+00    0,000000000e+00
      408000000   -6,772978604e-02   -2,644179016e-02    4,886868000e-01   -5,689764023e-01    0,000000000e+00    0,000000000e+00    0,000000000e+00    0,000000000e+00
      422000000   -5,304937437e-02   -1,499268599e-02    1,058441997e-01   -7,381950021e-01    0,000000000e+00    0,000000000e+00    0,000000000e+00    0,000000000e+00
      436000000   -4,633849859e-02   -1,883208379e-02   -3,056143522e-01   -6,756452918e-01    0,000000000e+00    0,000000000e+00    0,000000000e+00    0,000000000e+00
      450000000   -5,189490691e-02   -1,530023944e-02   -6,191646457e-01   -4,003645778e-01    0,000000000e+00    0,000000000e+00    0,000000000e+00    0,000000000e+00
      464000000   -5,060326681e-02    5,847864319e-03   -7,303606272e-01    3,497645492e-03    0,000000000e+00    0,000000000e+00    0,000000000e+00    0,000000000e+00
      478000000   -2,076439001e-02    2,645969577e-02   -5,982023478e-01    3,976964653e-01    0,000000000e+00    0,000000000e+00    0,000000000e+00    0,000000000e+00
      492000000    2,788991295e-02    1,465772651e-02   -2,796645164e-01    6,442053914e-01    0,000000000e+00    0,000000000e+00    0,000000000e+00    0,000000000e+00
      506000000    5,850268900e-02   -3,709839284e-02    1,051608622e-01    6,812009215e-01    0,000000000e+00    0,000000000e+00    0,000000000e+00    0,000000000e+00
      520000000    4,398088902e-02   -1,022202447e-01    4,399803877e-01    5,185082555e-01    0,000000000e+00    0,000000000e+00    0,000000000e+00    0,000000000e+00
      534000000   -1,313440595e-02   -1,432598531e-01    6,492841244e-01    2,065679729e-01    0,000000000e+00    0,000000000e+00    0,000000000e+00    0,000000000e+00
      548000000   -8,084658533e-02   -1,391136050e-01    6,607730389e-01   -1,754577011e-01    0,000000000e+00    0,000000000e+00    0,000000000e+00    0,000000000e+00
      562000000   -1,294454634e-01   -9,785602242e-02    4,527739584e-01   -5,083767772e-01    0,000000000e+00    0,000000000e+00    0,000000000e+00    0,000000000e+00
      576000000   -1,478412896e-01   -4,118179530e-02    8,450438082e-02   -6,627037525e-01    0,000000000e+00    0,000000000e+00    0,000000000e+00    0,000000000e+00
      590000000   -1,317234188e-01    2,357397787e-02   -2,982991338e-01   -5,712428093e-01    0,000000000e+00    0,000000000e+00    0,000000000e+00    0,000000000e+00
      604000000   -5,062680319e-02    6,900970638e-02   -5,027277470e-01   -2,725212574e-01    0,000000000e+00    0,000000000e+00    0,000000000e+00    0,000000000e+00
      618000000    3,898680955e-02   -1,227599196e-02   -4,922757447e-01   -2,891568840e-02    0,000000000e+00    0,000000000e+00    0,000000000e+00    0,000000000e+00
      632000000   -3,807454929e-02   -9,855631739e-02   -5,083153248e-01    1,731276959e-01    0,000000000e+00    0,000000000e+00    0,000000000e+00    0,000000000e+00
      646000000   -1,011602730e-01   -4,329802468e-02   -3,801170290e-01    4,667980075e-01    0,000000000e+00    0,000000000e+00    0,000000000e+00    0,000000000e+00
      660000000   -7,511970401e-02    7,386750542e-03   -5,658350140e-02    6,219170094e-01    0,000000000e+00    0,000000000e+00    0,000000000e+00    0,000000000e+00
      674000000   -3,400233388e-02    7,726708893e-03    2,944207489e-01    5,553368926e-01    0,000000000e+00    0,000000000e+00    0,000000000e+00    0,000000000e+00
      688000000   -1,610111631e-02   -1,467575226e-02    5,459016562e-01    3,060893714e-01    0,000000000e+00    0,000000000e+00    0,000000000e+00    0,000000000e+00
      702000000   -1,266199257e-02   -3,288882971e-02    6,178668141e-01   -4,124488682e-02    0,000000000e+00    0,000000000e+00    0,000000000e+00    0,000000000e+00
      716000000   -8,008146659e-03   -4,854752123e-02    4,934271574e-01   -3,670576811e-01    0,000000000e+00    0,000000000e+00    0,000000000e+00    0,000000000e+00
      730000000   -6,586788222e-03   -7,518511266e-02    2,139821798e-01   -5,677425861e-01    0,000000000e+00    0,000000000e+00    0,000000000e+00    0,000000000e+00
      744000000   -2,601397969e-02   -1,124221981e-01   -1,228612512e-01   -5,884450674e-01    0,000000000e+00    0,000000000e+00    0,000000000e+00    0,000000000e+00
      758000000   -7,479753345e-02   -1,337285787e-01   -4,198049307e-01   -4,344830811e-01    0,000000000e+00    0,000000000e+00    0,000000000e+00    0,000000000e+00
      772000000   -1,362912655e-01   -1,156187952e-01   -5,955207944e-01   -1,418297887e-01    0,000000000e+00    0,000000000e+00    0,000000000e+00    0,000000000e+00
      786000000   -1,730520278e-01   -5,718086287e-02   -5,834560990e-01    2,091310769e-01    0,000000000e+00    0,000000000e+00    0,000000000e+00    0,000000000e+00
      800000000   -1,607370377e-01    8,314900100e-03   -3,747295141e-01    4,962156415e-01    0,000000000e+00    0,000000000e+00    0,000000000e+00    0,000000000e+00
      814000000   -1,128969416e-01    4,382264242e-02   -4,576249793e-02    6,166093349e-01    0,000000000e+00    0,000000000e+00    0,000000000e+00    0,000000000e+00
      828000000   -6,767886132e-02    4,377564788e-02    2,862715721e-01    5,423895121e-01    0,000000000e+00    0,000000000e+00    0,000000000e+00    0,000000000e+00
      842000000   -3,793535754e-02    2,769154496e-02    5,218687654e-01    3,065226972e-01    0,000000000e+00    0,000000000e+00    0,000000000e+00    0,000000000e+00
      856000000   -1,859540679e-02    1,127010863e-02    5,959655643e-01   -1,362606976e-02    0,000000000e+00    0,000000000e+00    0,000000000e+00    0,000000000e+00
      870000000    1,178677427e-03   -1,200239174e-02    4,877631366e-01   -3,181933165e-01    0,000000000e+00    0,000000000e+00    0,000000000e+00    0,000000000e+00
      884000000    1,234601159e-02   -5,085429922e-02    2,427702397e-01   -5,136754513e-01    0,000000000e+00    0,000000000e+00    0,000000000e+00    0,000000000e+00
      898000000   -4,546329845e-03   -1,003168151e-01   -6,008877233e-02   -5,568740964e-01    0,000000000e+00    0,000000000e+00    0,000000000e+00    0,000000000e+00
      912000000   -6,224248558e-02   -1,318770200e-01   -3,947789669e-01   -4,126620889e-01    0,000000000e+00    0,000000000e+00    0,000000000e+00    0,000000000e+00
      926000000   -1,258788109e-01   -1,202196404e-01   -5,697185993e-01   -1,486387551e-01    0,000000000e+00    0,000000000e+00    0,000000000e+00    0,000000000e+00
      940000000   -1,621133685e-01   -6,051100045e-02   -5,696153045e-01    1,952474117e-01    0,000000000e+00    0,000000000e+00    0,000000000e+00    0,000000000e+00
      954000000   -1,489014775e-01    2,188258222e-04   -3,745273352e-01    4,847796261e-01    0,000000000e+00    0,000000000e+00    0,000000000e+00    0,000000000e+00
      968000000   -9,693538398e-02    2,208002284e-02   -5,107172951e-02    6,159425974e-01    0,000000000e+00    0,000000000e+00    0,000000000e+00    0,000000000e+00
      982000000   -5,859551951e-02    5,300961435e-03    2,811017632e-01    5,510905385e-01    0,000000000e+00    0,000000000e+00    0,000000000e+00    0,000000000e+00
      996000000   -4,486429319e-02   -3,379193321e-02    5,259028673e-01    3,277574480e-01    0,000000000e+00    0,000000000e+00    0,000000000e+00    0,000000000e+00
     1010000000   -6,209068745e-02   -6,336012483e-02    6,075619459e-01    1,431570109e-02    0,000000000e+00    0,000000000e+00    0,000000000e+00    0,000000000e+00
     1024000000   -1,020519063e-01   -7,560187578e-02    5,152460933e-01   -2,814892530e-01    0,000000000e+00    0,000000000e+00    0,000000000e+00    0,000000000e+00
     1038000000   -1,444171220e-01   -5,687449500e-02    2,950899899e-01   -4,703651071e-01    0,000000000e+00    0,000000000e+00    0,000000000e+00    0,000000000e+00
     1052000000   -1,473395079e-01    7,795524434e-04    3,604659066e-02   -5,261539221e-01    0,000000000e+00    0,000000000e+00    0,000000000e+00    0,000000000e+00
     1066000000   -1,032285243e-01    4,296064749e-02   -2,149831802e-01   -4,654917717e-01    0,000000000e+00    0,000000000e+00    0,000000000e+00    0,000000000e+00
     1080000000   -5,218417570e-02    2,340541221e-02   -4,196186066e-01   -2,966373265e-01    0,000000000e+00    0,000000000e+00    0,000000000e+00    0,000000000e+00
     1094000000   -3,118065558e-02   -7,186179049e-03   -5,186469555e-01   -2,385503426e-02    0,000000000e+00    0,000000000e+00    0,000000000e+00    0,000000000e+00
     1108000000   -3,334140405e-02   -3,471024707e-02   -4,403310418e-01    2,843481302e-01    0,000000000e+00    0,000000000e+00    0,000000000e+00    0,000000000e+00
     1122000000   -3,442980722e-02   -5,577472970e-02   -1,849893928e-01    4,954558015e-01    0,000000000e+00    0,000000000e+00    0,000000000e+00    0,000000000e+00
     1136000000   -4,519423842e-02   -9,276534617e-02    1,490945518e-01    5,186650157e-01    0,000000000e+00    0,000000000e+00    0,000000000e+00    0,000000000e+00
     1150000000   -8,042614907e-02   -1,188084036e-01    4,512272775e-01    3,434773088e-01    0,000000000e+00    0,000000000e+00    0,000000000e+00    0,000000000e+00
     1164000000   -1,382218748e-01   -1,194630042e-01    6,114419699e-01    1,195517834e-02    0,000000000e+00    0,000000000e+00    0,000000000e+00    0,000000000e+00
     1178000000   -1,777414083e-01   -8,330591023e-02    5,385695696e-01   -3,744288385e-01    0,000000000e+00    0,000000000e+00    0,000000000e+00    0,000000000e+00
     1192000000   -1,795563996e-01   -5,250855908e-02    2,431139648e-01   -6,395339370e-01    0,000000000e+00    0,000000000e+00    0,000000000e+00    0,000000000e+00
     1206000000   -1,871906221e-01   -5,662079155e-02   -1,382485032e-01   -6,631213427e-01    0,000000000e+00    0,000000000e+00    0,000000000e+00    0,000000000e+00
     1220000000   -2,523474693e-01   -1,422980521e-02   -4,199857712e-01   -4,871547818e-01    0,000000000e+00    0,000000000e+00    0,000000000e+00    0,000000000e+00
     1234000000   -2,443259060e-01    1,174133793e-01   -5,607146025e-01   -2,465740442e-01    0,000000000e+00    0,000000000e+00    0,000000000e+00    0,000000000e+00
     1248000000   -1,181466952e-01    1,734407246e-01   -6,034128666e-01    1,669261418e-02    0,000000000e+00    0,000000000e+00    0,000000000e+00    0,000000000e+00
     1262000000   -3,212922602e-04    1,304118782e-01   -5,005560517e-01    2,989489436e-01    0,000000000e+00    0,000000000e+00    0,000000000e+00    0,000000000e+00
     1276000000    6,350626051e-02    4,039432853e-02   -2,783188820e-01    4,918687344e-01    0,000000000e+00    0,000000000e+00    0,000000000e+00    0,000000000e+00
     1290000000    7,295040786e-02   -7,231921703e-02    1,279462688e-02    5,460666418e-01    0,000000000e+00    0,000000000e+00    0,000000000e+00    0,000000000e+00
     1304000000    1,771988161e-02   -1,796233356e-01    2,923895717e-01    4,762999713e-01    0,000000000e+00    0,000000000e+00    0,000000000e+00    0,000000000e+00
     1318000000   -9,218261391e-02   -2,501102090e-01    5,388129950e-01    2,696189284e-01    0,000000000e+00    0,000000000e+00    0,000000000e+00    0,000000000e+00
     1332000000   -2,397318333e-01   -2,485222816e-01    6,544994116e-01   -5,225212872e-02    0,000000000e+00    0,000000000e+00    0,000000000e+00    0,000000000e+00
     1346000000   -3,623682857e-01   -1,448551714e-01    5,515722632e-01   -4,111313224e-01    0,000000000e+00    0,000000000e+00    0,000000000e+00    0,000000000e+00
     1360000000   -3,836649656e-01    7,444861345e-03    2,643504739e-01   -6,296760440e-01    0,000000000e+00    0,000000000e+00    0,000000000e+00    0,000000000e+00
     1374000000   -3,213167787e-01    1,235712692e-01   -1,054714248e-01   -6,189286709e-01    0,000000000e+00    0,000000000e+00    0,000000000e+00    0,000000000e+00
     1388000000   -2,360472679e-01    1,685096323e-01   -3,768289387e-01   -4,146387279e-01    0,000000000e+00    0,000000000e+00    0,000000000e+00    0,000000000e+00
     1402000000   -1,492158920e-01    1,710049510e-01   -4,733439684e-01   -1,080340371e-01    0,000000000e+00    0,000000000e+00    0,000000000e+00    0,000000000e+00
     1416000000   -8,265487105e-02    1,392322928e-01   -3,947237432e-01    2,039760947e-01    0,000000000e+00    0,000000000e+00    0,000000000e+00    0,000000000e+00
     1430000000   -3,448410332e-02    8,327981085e-02   -1,968142092e-01    4,383103251e-01    0,000000000e+00    0,000000000e+00    0,000000000e+00    0,000000000e+00
     1444000000   -1,324475091e-02    1,523826644e-02    1,311661899e-01    5,325340629e-01    0,000000000e+00    0,000000000e+00    0,000000000e+00    0,000000000e+00
     1458000000   -4,219594970e-02   -7,900565118e-02    4,298782647e-01    5,000854135e-01    0,000000000e+00    0,000000000e+00    0,000000000e+00    0,000000000e+00
     1472000000   -1,212885454e-01   -1,467815340e-01    7,396147251e-01    3,110373616e-01    0,000000000e+00    0,000000000e+00    0,000000000e+00    0,000000000e+00
     1486000000   -2,341651469e-01   -1,450015604e-01    8,957336545e-01   -5,334291235e-02    0,000000000e+00    0,000000000e+00    0,000000000e+00    0,000000000e+00
     1500000000   -3,103555143e-01   -6,249273196e-02    8,281789422e-01   -4,183151722e-01    0,000000000e+00    0,000000000e+00    0,000000000e+00    0,000000000e+00
