! NanoVNA-App
! Date: 2025-09-25 14:55:28
! Start: 100MHz Stop: 1,5GHz Points: 101
! S-Parameter data: F S11 S21 S12 S22
# Hz S RI R 50
!     Frequency           S11_Real           S11_Imag           S21_Real           S21_Imag           S12_Real           S12_Imag           S22_Real           S22_Imag
      100000000    3,558980674e-02    2,691522986e-02    4,406606555e-01   -6,696137786e-01    0,000000000e+00    0,000000000e+00    0,000000000e+00    0,000000000e+00
      114000000    6,046576053e-02    1,702304813e-03    1,274667680e-02   -7,956484556e-01    0,000000000e+00    0,000000000e+00    0,000000000e+00    0,000000000e+00
      128000000    6,779480726e-02   -4,259085283e-02   -4,082956910e-01   -6,780258417e-01    0,000000000e+00    0,000000000e+00    0,000000000e+00    0,000000000e+00
      142000000    4,266240820e-02   -8,883459866e-02   -7,056544423e-01   -3,609198034e-01    0,000000000e+00    0,000000000e+00    0,000000000e+00    0,000000000e+00
      156000000   -9,910811670e-03   -1,100451201e-01   -7,936949730e-01    6,869520247e-02    0,000000000e+00    0,000000000e+00    0,000000000e+00    0,000000000e+00
      170000000   -6,323944777e-02   -9,089284390e-02   -6,367101669e-01    4,870894849e-01    0,000000000e+00    0,000000000e+00    0,000000000e+00    0,000000000e+00
      184000000   -8,854571730e-02   -4,641680792e-02   -2,727390230e-01    7,562523484e-01    0,000000000e+00    0,000000000e+00    0,000000000e+00    0,000000000e+00
      198000000   -8,198216558e-02   -5,277711898e-03    1,801809520e-01    7,823155522e-01    0,000000000e+00    0,000000000e+00    0,000000000e+00    0,000000000e+00
      212000000   -6,133758277e-02    1,868793182e-02    5,706939101e-01    5,577058792e-01    0,000000000e+00    0,000000000e+00    0,000000000e+00    0,000000000e+00
      226000000   -3,993408754e-02    3,158378229e-02    7,767829299e-01    1,616979986e-01    0,000000000e+00    0,000000000e+00    0,000000000e+00    0,000000000e+00
      240000000   -1,366628893e-02    4,027926549e-02    7,358953953e-01   -2,789455056e-01    0,000000000e+00    0,000000000e+00    0,000000000e+00    0,000000000e+00
      254000000    2,197147906e-02    3,463596106e-02    4,677755833e-01   -6,223347783e-01    0,000000000e+00    0,000000000e+00    0,000000000e+00    0,000000000e+00
      268000000    5,291090906e-02    2,946223365e-03    6,649221480e-02   -7,675379515e-01    0,000000000e+00    0,000000000e+00    0,000000000e+00    0,000000000e+00
      282000000    5,605011061e-02   -4,628772289e-02   -3,460045457e-01   -6,828722358e-01    0,000000000e+00    0,000000000e+00    0,000000000e+00    0,000000000e+00
      296000000    2,411262691e-02   -8,517047763e-02   -6,558725238e-01   -3,972111046e-01    0,000000000e+00    0,000000000e+00    0,000000000e+00    0,000000000e+00
      310000000   -2,102146670e-02   -8,872599155e-02   -7,749733925e-01    1,185433287e-02    0,000000000e+00    0,000000000e+00    0,000000000e+00    0,000000000e+00
      324000000   -4,793211818e-02   -6,171236560e-02   -6,479360461e-01    4,304962456e-01    0,000000000e+00    0,000000000e+00    0,000000000e+00    0,000000000e+00
      338000000   -4,156079516e-02   -3,546099365e-02   -3,091748655e-01    7,107304335e-01    0,000000000e+00    0,000000000e+00    0,000000000e+00    0,000000000e+00
      352000000   -2,245168015e-02   -3,553508222e-02    1,201136783e-01    7,575917840e-01    0,000000000e+00    0,000000000e+00    0,000000000e+00    0,000000000e+00
      366000000   -2,105731890e-02   -5,474305898e-02    5,042461753e-01    5,701535940e-01    0,000000000e+00    0,000000000e+00    0,000000000e+00    0,000000000e+00
      380000000   -4,254395887e-02   -6,516990066e-02    7,264395356e-01    2,111718953e-01    0,000000000e+00    0,000000000e+00    0,000000000e+00    0,000000000e+00
      394000000   -6,441598386e-02   -5,182126537e-02    7,227243185e-01   -2,138643861e-01    0,000000000e+00    0,000000000e+00    0,000000000e+00    0,000000000e+00
      408000000   -6,610524654e-02   -2,833107486e-02    4,899165034e-01   -5,682775974e-01    0,000000000e+00    0,000000000e+00    0,000000000e+00    0,000000000e+00
      422000000   -5,287142098e-02   -1,739152148e-02    1,054361165e-01   -7,389457822e-01    0,000000000e+00    0,000000000e+00    0,000000000e+00    0,000000000e+00
      436000000   -4,747780785e-02   -2,085456066e-02   -3,059435785e-01   -6,770775914e-01    0,000000000e+00    0,000000000e+00    0,000000000e+00    0,000000000e+00
      450000000   -5,424467102e-02   -1,610009186e-02   -6,203559637e-01   -3,998744786e-01    0,000000000e+00    0,000000000e+00    0,000000000e+00    0,000000000e+00
      464000000   -5,297963694e-02    5,520191509e-03   -7,306803465e-01    3,771860851e-03    0,000000000e+00    0,000000000e+00    0,000000000e+00    0,000000000e+00
      478000000   -2,296435274e-02    2,745723538e-02   -5,994603038e-01    3,976597488e-01    0,000000000e+00    0,000000000e+00    0,000000000e+00    0,000000000e+00
      492000000    2,681517415e-02    1,699734107e-02   -2,809303701e-01    6,460089087e-01    0,000000000e+00    0,000000000e+00    0,000000000e+00    0,000000000e+00
      506000000    5,830386654e-02   -3,431940079e-02    1,050640792e-01    6,818670630e-01    0,000000000e+00    0,000000000e+00    0,000000000e+00    0,000000000e+00
      520000000    4,480291158e-02   -9,972265363e-02    4,457177520e-01    5,192866325e-01    0,000000000e+00    0,000000000e+00    0,000000000e+00    0,000000000e+00
      534000000   -9,795663878e-03   -1,418493241e-01    6,510452628e-01    2,066131532e-01    0,000000000e+00    0,000000000e+00    0,000000000e+00    0,000000000e+00
      548000000   -7,674568892e-02   -1,394233257e-01    6,624834538e-01   -1,762230098e-01    0,000000000e+00    0,000000000e+00    0,000000000e+00    0,000000000e+00
      562000000   -1,257272512e-01   -1,024877280e-01    4,559235573e-01   -5,119890571e-01    0,000000000e+00    0,000000000e+00    0,000000000e+00    0,000000000e+00
      576000000   -1,480465829e-01   -5,012319982e-02    8,560407907e-02   -6,703505516e-01    0,000000000e+00    0,000000000e+00    0,000000000e+00    0,000000000e+00
      590000000   -1,469699442e-01    1,577751897e-02   -3,102930188e-01   -5,841035247e-01    0,000000000e+00    0,000000000e+00    0,000000000e+00    0,000000000e+00
      604000000   -7,300016284e-02    9,765929729e-02   -5,348913074e-01   -2,447642237e-01    0,000000000e+00    0,000000000e+00    0,000000000e+00    0,000000000e+00
      618000000    1,004349664e-01    7,588419598e-03   -4,244883358e-01    4,848805256e-03    0,000000000e+00    0,000000000e+00    0,000000000e+00    0,000000000e+00
      632000000   -4,879045486e-02   -1,504907012e-01   -5,163804293e-01    1,109030694e-01    0,000000000e+00    0,000000000e+00    0,000000000e+00    0,000000000e+00
      646000000   -1,301283389e-01   -3,831255436e-02   -4,133523107e-01    4,714965224e-01    0,000000000e+00    0,000000000e+00    0,000000000e+00    0,000000000e+00
      660000000   -7,913298160e-02    2,456230111e-02   -6,078493595e-02    6,439140439e-01    0,000000000e+00    0,000000000e+00    0,000000000e+00    0,000000000e+00
      674000000   -2,716933377e-02    1,611228473e-02    3,041676283e-01    5,655273199e-01    0,000000000e+00    0,000000000e+00    0,000000000e+00    0,000000000e+00
      688000000   -8,915025741e-03   -1,402404997e-02    5,565199852e-01    3,070031106e-01    0,000000000e+00    0,000000000e+00    0,000000000e+00    0,000000000e+00
      702000000   -7,301079575e-03   -3,586832061e-02    6,282866597e-01   -4,454886541e-02    0,000000000e+00    0,000000000e+00    0,000000000e+00    0,000000000e+00
      716000000   -7,506303955e-03   -5,288382620e-02    4,973631203e-01   -3,752802312e-01    0,000000000e+00    0,000000000e+00    0,000000000e+00    0,000000000e+00
      730000000   -8,096380159e-03   -7,852141559e-02    2,125172615e-01   -5,764008760e-01    0,000000000e+00    0,000000000e+00    0,000000000e+00    0,000000000e+00
      744000000   -2,861475758e-02   -1,138642728e-01   -1,291221678e-01   -5,956805944e-01    0,000000000e+00    0,000000000e+00    0,000000000e+00    0,000000000e+00
      758000000   -7,971421629e-02   -1,322314739e-01   -4,296617210e-01   -4,348671138e-01    0,000000000e+00    0,000000000e+00    0,000000000e+00    0,000000000e+00
      772000000   -1,388591528e-01   -1,123758405e-01   -6,036766768e-01   -1,354300827e-01    0,000000000e+00    0,000000000e+00    0,000000000e+00    0,000000000e+00
      786000000   -1,717777550e-01   -5,197853968e-02   -5,866185427e-01    2,205221504e-01    0,000000000e+00    0,000000000e+00    0,000000000e+00    0,000000000e+00
      800000000   -1,552200466e-01    1,276850514e-02   -3,696051836e-01    5,071125627e-01    0,000000000e+00    0,000000000e+00    0,000000000e+00    0,000000000e+00
      814000000   -1,069360003e-01    4,322851077e-02   -3,588699549e-02    6,218674779e-01    0,000000000e+00    0,000000000e+00    0,000000000e+00    0,000000000e+00
      828000000   -6,187960878e-02    3,896643221e-02    2,987161875e-01    5,406306982e-01    0,000000000e+00    0,000000000e+00    0,000000000e+00    0,000000000e+00
      842000000   -3,744736314e-02    2,163459547e-02    5,313297510e-01    2,990727723e-01    0,000000000e+00    0,000000000e+00    0,000000000e+00    0,000000000e+00
      856000000   -2,149689384e-02    4,968788940e-03    5,993595719e-01   -2,608842403e-02    0,000000000e+00    0,000000000e+00    0,000000000e+00    0,000000000e+00
      870000000   -5,015801173e-03   -1,440078858e-02    4,831386507e-01   -3,309807181e-01    0,000000000e+00    0,000000000e+00    0,000000000e+00    0,000000000e+00
      884000000    5,210690200e-03   -4,946391284e-02    2,312427461e-01   -5,235053897e-01    0,000000000e+00    0,000000000e+00    0,000000000e+00    0,000000000e+00
      898000000   -9,200041182e-03   -9,570647031e-02   -7,519205660e-02   -5,581838489e-01    0,000000000e+00    0,000000000e+00    0,000000000e+00    0,000000000e+00
      912000000   -6,377663463e-02   -1,236027330e-01   -3,984722197e-01   -4,040446579e-01    0,000000000e+00    0,000000000e+00    0,000000000e+00    0,000000000e+00
      926000000   -1,228342056e-01   -1,100383028e-01   -5,725650191e-01   -1,282371134e-01    0,000000000e+00    0,000000000e+00    0,000000000e+00    0,000000000e+00
      940000000   -1,546862572e-01   -6,210227683e-02   -5,616250038e-01    2,110468149e-01    0,000000000e+00    0,000000000e+00    0,000000000e+00    0,000000000e+00
      954000000   -1,441201717e-01   -5,838627461e-03   -3,584929407e-01    4,944216013e-01    0,000000000e+00    0,000000000e+00    0,000000000e+00    0,000000000e+00
      968000000   -9,764985740e-02    2,210233174e-02   -3,089326806e-02    6,166142225e-01    0,000000000e+00    0,000000000e+00    0,000000000e+00    0,000000000e+00
      982000000   -5,839496478e-02    6,011200603e-03    2,999890745e-01    5,413727164e-01    0,000000000e+00    0,000000000e+00    0,000000000e+00    0,000000000e+00
      996000000   -4,147073254e-02   -3,019883111e-02    5,340493321e-01    3,006566167e-01    0,000000000e+00    0,000000000e+00    0,000000000e+00    0,000000000e+00
     1010000000   -5,234149843e-02   -6,114808097e-02    5,946921706e-01   -1,353752613e-02    0,000000000e+00    0,000000000e+00    0,000000000e+00    0,000000000e+00
     1024000000   -9,004726261e-02   -8,062366396e-02    4,808900654e-01   -2,910981774e-01    0,000000000e+00    0,000000000e+00    0,000000000e+00    0,000000000e+00
     1038000000   -1,352617443e-01   -7,588037103e-02    2,758218050e-01   -4,512864947e-01    0,000000000e+00    0,000000000e+00    0,000000000e+00    0,000000000e+00
     1052000000   -1,607580632e-01   -2,320941724e-02    3,242889047e-02   -5,163669586e-01    0,000000000e+00    0,000000000e+00    0,000000000e+00    0,000000000e+00
     1066000000   -1,408379674e-01    2,962609194e-02   -2,214177698e-01   -4,617800415e-01    0,000000000e+00    0,000000000e+00    0,000000000e+00    0,000000000e+00
     1080000000   -8,214093745e-02    5,565130338e-02   -4,250795543e-01   -2,640183866e-01    0,000000000e+00    0,000000000e+00    0,000000000e+00    0,000000000e+00
     1094000000   -3,391377628e-02    4,086193442e-02   -4,871757627e-01    1,302544121e-02    0,000000000e+00    0,000000000e+00    0,000000000e+00    0,000000000e+00
     1108000000    2,466986654e-03   -5,940078292e-03   -3,821274042e-01    2,768232226e-01    0,000000000e+00    0,000000000e+00    0,000000000e+00    0,000000000e+00
     1122000000    1,071002055e-02   -6,531578302e-02   -1,639079750e-01    4,402634799e-01    0,000000000e+00    0,000000000e+00    0,000000000e+00    0,000000000e+00
     1136000000   -2,313327789e-02   -1,226778105e-01    1,214529052e-01    4,720045924e-01    0,000000000e+00    0,000000000e+00    0,000000000e+00    0,000000000e+00
     1150000000   -7,974427193e-02   -1,500120610e-01    4,017507434e-01    3,388356566e-01    0,000000000e+00    0,000000000e+00    0,000000000e+00    0,000000000e+00
     1164000000   -1,521503776e-01   -1,511904895e-01    5,781637430e-01    3,960280865e-02    0,000000000e+00    0,000000000e+00    0,000000000e+00    0,000000000e+00
     1178000000   -2,007746845e-01   -1,022704095e-01    5,420171618e-01   -3,327603936e-01    0,000000000e+00    0,000000000e+00    0,000000000e+00    0,000000000e+00
     1192000000   -2,160719186e-01   -4,627710208e-02    2,697171569e-01   -6,170115471e-01    0,000000000e+00    0,000000000e+00    0,000000000e+00    0,000000000e+00
     1206000000   -2,019704729e-01   -2,144783363e-02   -1,188961565e-01   -6,744815111e-01    0,000000000e+00    0,000000000e+00    0,000000000e+00    0,000000000e+00
     1220000000   -2,295663953e-01    3,150293604e-03   -4,342348278e-01   -4,987284541e-01    0,000000000e+00    0,000000000e+00    0,000000000e+00    0,000000000e+00
     1234000000   -2,294652611e-01    1,001829281e-01   -5,689818859e-01   -2,289086729e-01    0,000000000e+00    0,000000000e+00    0,000000000e+00    0,000000000e+00
     1248000000   -1,255168617e-01    1,720452756e-01   -5,862987638e-01    2,842553332e-02    0,000000000e+00    0,000000000e+00    0,000000000e+00    0,000000000e+00
     1262000000    2,510372782e-03    1,363781989e-01   -4,904821515e-01    2,863800228e-01    0,000000000e+00    0,000000000e+00    0,000000000e+00    0,000000000e+00
     1276000000    6,973186135e-02    4,594382271e-02   -2,733826637e-01    4,742597342e-01    0,000000000e+00    0,000000000e+00    0,000000000e+00    0,000000000e+00
     1290000000    7,781413943e-02   -7,308249921e-02    4,943457432e-03    5,322590470e-01    0,000000000e+00    0,000000000e+00    0,000000000e+00    0,000000000e+00
     1304000000    2,349061146e-02   -1,854172349e-01    2,850936949e-01    4,700170755e-01    0,000000000e+00    0,000000000e+00    0,000000000e+00    0,000000000e+00
     1318000000   -9,047174454e-02   -2,604444623e-01    5,187574029e-01    2,692509592e-01    0,000000000e+00    0,000000000e+00    0,000000000e+00    0,000000000e+00
     1332000000   -2,409819514e-01   -2,580317259e-01    6,438781023e-01   -4,328229278e-02    0,000000000e+00    0,000000000e+00    0,000000000e+00    0,000000000e+00
     1346000000   -3,686837852e-01   -1,495993882e-01    5,471109748e-01   -4,039595425e-01    0,000000000e+00    0,000000000e+00    0,000000000e+00    0,000000000e+00
     1360000000   -3,927278221e-01    4,538834095e-03    2,629822791e-01   -6,303544044e-01    0,000000000e+00    0,000000000e+00    0,000000000e+00    0,000000000e+00
     1374000000   -3,382389843e-01    1,238934100e-01   -9,942236543e-02   -6,129617691e-01    0,000000000e+00    0,000000000e+00    0,000000000e+00    0,000000000e+00
     1388000000   -2,466474771e-01    1,720051467e-01   -3,628927469e-01   -4,151200950e-01    0,000000000e+00    0,000000000e+00    0,000000000e+00    0,000000000e+00
     1402000000   -1,556720585e-01    1,761507094e-01   -4,593260884e-01   -1,056362987e-01    0,000000000e+00    0,000000000e+00    0,000000000e+00    0,000000000e+00
     1416000000   -8,078758419e-02    1,511755437e-01   -3,825971186e-01    1,884527802e-01    0,000000000e+00    0,000000000e+00    0,000000000e+00    0,000000000e+00
     1430000000   -2,704489790e-02    9,335519373e-02   -1,488521099e-01    4,036678374e-01    0,000000000e+00    0,000000000e+00    0,000000000e+00    0,000000000e+00
     1444000000   -2,285822527e-03    1,196190715e-02    1,260250211e-01    5,131683350e-01    0,000000000e+00    0,000000000e+00    0,000000000e+00    0,000000000e+00
     1458000000   -3,257220984e-02   -7,971838862e-02    4,268075526e-01    4,963961840e-01    0,000000000e+00    0,000000000e+00    0,000000000e+00    0,000000000e+00
     1472000000   -1,039698794e-01   -1,517554224e-01    7,205240726e-01    3,046214581e-01    0,000000000e+00    0,000000000e+00    0,000000000e+00    0,000000000e+00
     1486000000   -2,158986777e-01   -1,480290443e-01    8,826243877e-01   -7,939691655e-03    0,000000000e+00    0,000000000e+00    0,000000000e+00    0,000000000e+00
     1500000000   -2,998020053e-01   -7,539212704e-02    8,367876410e-01   -3,979367316e-01    0,000000000e+00    0,000000000e+00    0,000000000e+00    0,000000000e+00
