! NanoVNA-App
! Date: 2025-09-25 14:55:46
! Start: 100MHz Stop: 1,5GHz Points: 101
! S-Parameter data: F S11 S21 S12 S22
# Hz S RI R 50
!     Frequency           S11_Real           S11_Imag           S21_Real           S21_Imag           S12_Real           S12_Imag           S22_Real           S22_Imag
      100000000    3,561163321e-02    2,695904486e-02    4,406984150e-01   -6,696284413e-01    0,000000000e+00    0,000000000e+00    0,000000000e+00    0,000000000e+00
      114000000    6,050173938e-02    1,696933643e-03    1,268415060e-02   -7,955728173e-01    0,000000000e+00    0,000000000e+00    0,000000000e+00    0,000000000e+00
      128000000    6,782550365e-02   -4,263064265e-02   -4,082388282e-01   -6,779959798e-01    0,000000000e+00    0,000000000e+00    0,000000000e+00    0,000000000e+00
      142000000    4,272470251e-02   -8,890571445e-02   -7,055069208e-01   -3,609142900e-01    0,000000000e+00    0,000000000e+00    0,000000000e+00    0,000000000e+00
      156000000   -1,003181748e-02   -1,092713475e-01   -7,937290668e-01    6,741409749e-02    0,000000000e+00    0,000000000e+00    0,000000000e+00    0,000000000e+00
      170000000   -6,324225664e-02   -9,091877192e-02   -6,369132996e-01    4,869422913e-01    0,000000000e+00    0,000000000e+00    0,000000000e+00    0,000000000e+00
      184000000   -8,862217516e-02   -4,652803391e-02   -2,731049359e-01    7,563403249e-01    0,000000000e+00    0,000000000e+00    0,000000000e+00    0,000000000e+00
      198000000   -8,209722489e-02   -5,344582256e-03    1,799109876e-01    7,819832563e-01    0,000000000e+00    0,000000000e+00    0,000000000e+00    0,000000000e+00
      212000000   -6,143244728e-02    1,865051500e-02    5,707048178e-01    5,578225255e-01    0,000000000e+00    0,000000000e+00    0,000000000e+00    0,000000000e+00
      226000000   -4,004459456e-02    3,169097751e-02    7,767588496e-01    1,615700126e-01    0,000000000e+00    0,000000000e+00    0,000000000e+00    0,000000000e+00
      240000000   -1,370250713e-02    4,035909101e-02    7,359357476e-01   -2,789640129e-01    0,000000000e+00    0,000000000e+00    0,000000000e+00    0,000000000e+00
      254000000    2,194445021e-02    3,473981842e-02    4,677999616e-01   -6,224167347e-01    0,000000000e+00    0,000000000e+00    0,000000000e+00    0,000000000e+00
      268000000    5,295732990e-02    3,043982200e-03    6,671673059e-02   -7,677422166e-01    0,000000000e+00    0,000000000e+00    0,000000000e+00    0,000000000e+00
      282000000    5,609104782e-02   -4,632417858e-02   -3,462126553e-01   -6,830969453e-01    0,000000000e+00    0,000000000e+00    0,000000000e+00    0,000000000e+00
      296000000    2,419035882e-02   -8,515559137e-02   -6,559444070e-01   -3,978554904e-01    0,000000000e+00    0,000000000e+00    0,000000000e+00    0,000000000e+00
      310000000   -2,102527581e-02   -8,891113847e-02   -7,748744488e-01    1,134648733e-02    0,000000000e+00    0,000000000e+00    0,000000000e+00    0,000000000e+00
      324000000   -4,773509130e-02   -6,171602383e-02   -6,481344700e-01    4,307521582e-01    0,000000000e+00    0,000000000e+00    0,000000000e+00    0,000000000e+00
      338000000   -4,146822169e-02   -3,555692732e-02   -3,101710975e-01    7,111281157e-01    0,000000000e+00    0,000000000e+00    0,000000000e+00    0,000000000e+00
      352000000   -2,272453532e-02   -3,569056466e-02    1,197804511e-01    7,578145266e-01    0,000000000e+00    0,000000000e+00    0,000000000e+00    0,000000000e+00
      366000000   -2,105733007e-02   -5,483244359e-02    5,038045049e-01    5,719400048e-01    0,000000000e+00    0,000000000e+00    0,000000000e+00    0,000000000e+00
      380000000   -4,258773103e-02   -6,502091885e-02    7,264491320e-01    2,114567310e-01    0,000000000e+00    0,000000000e+00    0,000000000e+00    0,000000000e+00
      394000000   -6,448956579e-02   -5,162438005e-02    7,230185866e-01   -2,133870274e-01    0,000000000e+00    0,000000000e+00    0,000000000e+00    0,000000000e+00
      408000000   -6,614373624e-02   -2,818839252e-02    4,904220402e-01   -5,695205331e-01    0,000000000e+00    0,000000000e+00    0,000000000e+00    0,000000000e+00
      422000000   -5,284849927e-02   -1,733259298e-02    1,064848676e-01   -7,391874790e-01    0,000000000e+00    0,000000000e+00    0,000000000e+00    0,000000000e+00
      436000000   -4,741693661e-02   -2,097344212e-02   -3,062964380e-01   -6,777660251e-01    0,000000000e+00    0,000000000e+00    0,000000000e+00    0,000000000e+00
      450000000   -5,397609621e-02   -1,571845822e-02   -6,189965010e-01   -4,002562463e-01    0,000000000e+00    0,000000000e+00    0,000000000e+00    0,000000000e+00
      464000000   -5,250594020e-02    5,319936201e-03   -7,299729586e-01    3,092748346e-03    0,000000000e+00    0,000000000e+00    0,000000000e+00    0,000000000e+00
      478000000   -2,286042646e-02    2,749402449e-02   -5,998951197e-01    3,974844217e-01    0,000000000e+00    0,000000000e+00    0,000000000e+00    0,000000000e+00
      492000000    2,709011920e-02    1,669728570e-02   -2,803729773e-01    6,452295780e-01    0,000000000e+00    0,000000000e+00    0,000000000e+00    0,000000000e+00
      506000000    5,864863843e-02   -3,456388786e-02    1,052614301e-01    6,809018254e-01    0,000000000e+00    0,000000000e+00    0,000000000e+00    0,000000000e+00
      520000000    4,524029046e-02   -9,979310632e-02    4,479877353e-01    5,195288062e-01    0,000000000e+00    0,000000000e+00    0,000000000e+00    0,000000000e+00
      534000000   -9,423946030e-03   -1,418707222e-01    6,510004401e-01    2,067642361e-01    0,000000000e+00    0,000000000e+00    0,000000000e+00    0,000000000e+00
      548000000   -7,717996091e-02   -1,395837516e-01    6,626912951e-01   -1,763211340e-01    0,000000000e+00    0,000000000e+00    0,000000000e+00    0,000000000e+00
      562000000   -1,254794896e-01   -1,020459384e-01    4,562281072e-01   -5,111691952e-01    0,000000000e+00    0,000000000e+00    0,000000000e+00    0,000000000e+00
      576000000   -1,481480300e-01   -5,028231069e-02    8,534785360e-02   -6,703410149e-01    0,000000000e+00    0,000000000e+00    0,000000000e+00    0,000000000e+00
      590000000   -1,468594819e-01    1,563140191e-02   -3,099592328e-01   -5,835636854e-01    0,000000000e+00    0,000000000e+00    0,000000000e+00    0,000000000e+00
      604000000   -7,256360352e-02    9,751196951e-02   -5,337821841e-01   -2,453734279e-01    0,000000000e+00    0,000000000e+00    0,000000000e+00    0,000000000e+00
      618000000    9,987710416e-02    6,439031567e-03   -4,251909852e-01    3,301916178e-03    0,000000000e+00    0,000000000e+00    0,000000000e+00    0,000000000e+00
      632000000   -4,991384968e-02   -1,498256177e-01   -5,179391503e-01    1,121018901e-01    0,000000000e+00    0,000000000e+00    0,000000000e+00    0,000000000e+00
      646000000   -1,296990812e-01   -3,902223334e-02   -4,139082432e-01    4,722733200e-01    0,000000000e+00    0,000000000e+00    0,000000000e+00    0,000000000e+00
      660000000   -7,826614380e-02    2,342281491e-02   -6,189023331e-02    6,421286464e-01    0,000000000e+00    0,000000000e+00    0,000000000e+00    0,000000000e+00
      674000000   -2,762752213e-02    1,514792722e-02    3,026940525e-01    5,655664802e-01    0,000000000e+00    0,000000000e+00    0,000000000e+00    0,000000000e+00
      688000000   -9,038060904e-03   -1,482690033e-02    5,560973883e-01    3,066882193e-01    0,000000000e+00    0,000000000e+00    0,000000000e+00    0,000000000e+00
      702000000   -8,550182916e-03   -3,637731820e-02    6,310086846e-01   -4,520495236e-02    0,000000000e+00    0,000000000e+00    0,000000000e+00    0,000000000e+00
      716000000   -7,505522575e-03   -5,197983608e-02    4,966978133e-01   -3,749386668e-01    0,000000000e+00    0,000000000e+00    0,000000000e+00    0,000000000e+00
      730000000   -7,244090084e-03   -7,881502807e-02    2,124755085e-01   -5,758464336e-01    0,000000000e+00    0,000000000e+00    0,000000000e+00    0,000000000e+00
      744000000   -2,913854644e-02   -1,142698526e-01   -1,291403770e-01   -5,957685113e-01    0,000000000e+00    0,000000000e+00    0,000000000e+00    0,000000000e+00
      758000000   -7,992227376e-02   -1,325473040e-01   -4,288966358e-01   -4,347124994e-01    0,000000000e+00    0,000000000e+00    0,000000000e+00    0,000000000e+00
      772000000   -1,396654397e-01   -1,124236658e-01   -6,026161313e-01   -1,361663491e-01    0,000000000e+00    0,000000000e+00    0,000000000e+00    0,000000000e+00
      786000000   -1,725737900e-01   -5,321929976e-02   -5,863416791e-01    2,190302312e-01    0,000000000e+00    0,000000000e+00    0,000000000e+00    0,000000000e+00
      800000000   -1,548333615e-01    1,146433596e-02   -3,699499667e-01    5,076469779e-01    0,000000000e+00    0,000000000e+00    0,000000000e+00    0,000000000e+00
      814000000   -1,076769009e-01    4,362723604e-02   -3,624423221e-02    6,227471828e-01    0,000000000e+00    0,000000000e+00    0,000000000e+00    0,000000000e+00
      828000000   -6,306336820e-02    3,950557113e-02    2,963750064e-01    5,397679806e-01    0,000000000e+00    0,000000000e+00    0,000000000e+00    0,000000000e+00
      842000000   -3,752265498e-02    2,134893462e-02    5,305189490e-01    3,000363111e-01    0,000000000e+00    0,000000000e+00    0,000000000e+00    0,000000000e+00
      856000000   -2,177467942e-02    5,931170192e-03    6,001873612e-01   -2,446650714e-02    0,000000000e+00    0,000000000e+00    0,000000000e+00    0,000000000e+00
      870000000   -5,014080554e-03   -1,424988359e-02    4,853472114e-01   -3,296809793e-01    0,000000000e+00    0,000000000e+00    0,000000000e+00    0,000000000e+00
      884000000    6,042153109e-03   -4,989551008e-02    2,323074937e-01   -5,230409503e-01    0,000000000e+00    0,000000000e+00    0,000000000e+00    0,000000000e+00
      898000000   -8,689869195e-03   -9,662780166e-02   -7,424385101e-02   -5,573825836e-01    0,000000000e+00    0,000000000e+00    0,000000000e+00    0,000000000e+00
      912000000   -6,332898885e-02   -1,243642047e-01   -3,974571526e-01   -4,113940597e-01    0,000000000e+00    0,000000000e+00    0,000000000e+00    0,000000000e+00
      926000000   -1,232802942e-01   -1,149992123e-01   -5,758031607e-01   -1,320317835e-01    0,000000000e+00    0,000000000e+00    0,000000000e+00    0,000000000e+00
      940000000   -1,570665836e-01   -6,356637180e-02   -5,635851622e-01    2,114164829e-01    0,000000000e+00    0,000000000e+00    0,000000000e+00    0,000000000e+00
      954000000   -1,448792666e-01   -1,341059571e-03   -3,589589894e-01    4,965146482e-01    0,000000000e+00    0,000000000e+00    0,000000000e+00    0,000000000e+00
      968000000   -9,980219603e-02    2,021304145e-02   -3,139423206e-02    6,192288995e-01    0,000000000e+00    0,000000000e+00    0,000000000e+00    0,000000000e+00
      982000000   -5,714521557e-02    2,582392888e-03    3,041773438e-01    5,372479558e-01    0,000000000e+00    0,000000000e+00    0,000000000e+00    0,000000000e+00
      996000000   -4,071690515e-02   -3,090409189e-02    5,355457067e-01    2,985463440e-01    0,000000000e+00    0,000000000e+00    0,000000000e+00    0,000000000e+00
     1010000000   -5,633636191e-02   -6,391651928e-02    5,915686488e-01   -1,534140110e-02    0,000000000e+00    0,000000000e+00    0,000000000e+00    0,000000000e+00
     1024000000   -8,810137212e-02   -8,372166008e-02    4,779900014e-01   -2,885370553e-01    0,000000000e+00    0,000000000e+00    0,000000000e+00    0,000000000e+00
     1038000000   -1,391545236e-01   -7,622690499e-02    2,793242931e-01   -4,514991343e-01    0,000000000e+00    0,000000000e+00    0,000000000e+00    0,000000000e+00
     1052000000   -1,667594016e-01   -1,691978611e-02    3,802235425e-02   -5,147765875e-01    0,000000000e+00    0,000000000e+00    0,000000000e+00    0,000000000e+00
     1066000000   -1,395680755e-01    3,882315010e-02   -2,249502987e-01   -4,645690918e-01    0,000000000e+00    0,000000000e+00    0,000000000e+00    0,000000000e+00
     1080000000   -8,231493831e-02    4,949603230e-02   -4,240000248e-01   -2,700791955e-01    0,000000000e+00    0,000000000e+00    0,000000000e+00    0,000000000e+00
     1094000000   -3,056722507e-02    2,937226556e-02   -4,886163175e-01    1,085236669e-02    0,000000000e+00    0,000000000e+00    0,000000000e+00    0,000000000e+00
     1108000000    3,887090599e-03   -9,333556518e-03   -3,874952495e-01    2,774406672e-01    0,000000000e+00    0,000000000e+00    0,000000000e+00    0,000000000e+00
     1122000000    1,142975059e-03   -6,577346474e-02   -1,662231684e-01    4,454888999e-01    0,000000000e+00    0,000000000e+00    0,000000000e+00    0,000000000e+00
     1136000000   -2,574224956e-02   -1,146544144e-01    1,234537289e-01    4,758233726e-01    0,000000000e+00    0,000000000e+00    0,000000000e+00    0,000000000e+00
     1150000000   -7,942879200e-02   -1,514859498e-01    4,105915129e-01    3,395851254e-01    0,000000000e+00    0,000000000e+00    0,000000000e+00    0,000000000e+00
     1164000000   -1,483459026e-01   -1,440145224e-01    5,801514387e-01    3,925054893e-02    0,000000000e+00    0,000000000e+00    0,000000000e+00    0,000000000e+00
     1178000000   -2,016460449e-01   -1,005707532e-01    5,375559926e-01   -3,404764831e-01    0,000000000e+00    0,000000000e+00    0,000000000e+00    0,000000000e+00
     1192000000   -2,079069167e-01   -4,876991361e-02    2,627739310e-01   -6,192399263e-01    0,000000000e+00    0,000000000e+00    0,000000000e+00    0,000000000e+00
     1206000000   -2,020939440e-01   -2,219272405e-02   -1,210207269e-01   -6,727473736e-01    0,000000000e+00    0,000000000e+00    0,000000000e+00    0,000000000e+00
     1220000000   -2,260808200e-01   -2,690234454e-03   -4,287530482e-01   -4,999399483e-01    0,000000000e+00    0,000000000e+00    0,000000000e+00    0,000000000e+00
     1234000000   -2,333752960e-01    1,077906340e-01   -5,661718845e-01   -2,352652550e-01    0,000000000e+00    0,000000000e+00    0,000000000e+00    0,000000000e+00
     1248000000   -1,203375459e-01    1,718578041e-01   -5,866044760e-01    2,420222014e-02    0,000000000e+00    0,000000000e+00    0,000000000e+00    0,000000000e+00
     1262000000    1,237930730e-03    1,366456896e-01   -4,913772345e-01    2,878119051e-01    0,000000000e+00    0,000000000e+00    0,000000000e+00    0,000000000e+00
     1276000000    6,433009356e-02    4,172138497e-02   -2,765316963e-01    4,719026089e-01    0,000000000e+00    0,000000000e+00    0,000000000e+00    0,000000000e+00
     1290000000    7,397913188e-02   -6,616625935e-02    4,257349763e-03    5,407066941e-01    0,000000000e+00    0,000000000e+00    0,000000000e+00    0,000000000e+00
     1304000000    2,177206054e-02   -1,819642037e-01    2,901117206e-01    4,732963145e-01    0,000000000e+00    0,000000000e+00    0,000000000e+00    0,000000000e+00
     1318000000   -8,713120222e-02   -2,630278468e-01    5,234086514e-01    2,690322697e-01    0,000000000e+00    0,000000000e+00    0,000000000e+00    0,000000000e+00
     1332000000   -2,403687090e-01   -2,557884157e-01    6,349925399e-01   -4,763274267e-02    0,000000000e+00    0,000000000e+00    0,000000000e+00    0,000000000e+00
     1346000000   -3,684464991e-01   -1,494174600e-01    5,483125448e-01   -4,057496786e-01    0,000000000e+00    0,000000000e+00    0,000000000e+00    0,000000000e+00
     1360000000   -3,927210271e-01   -7,105354453e-04    2,525565326e-01   -6,239219308e-01    0,000000000e+00    0,000000000e+00    0,000000000e+00    0,000000000e+00
     1374000000   -3,303434551e-01    1,198910251e-01   -9,468562901e-02   -6,220891476e-01    0,000000000e+00    0,000000000e+00    0,000000000e+00    0,000000000e+00
     1388000000   -2,408536077e-01    1,734575182e-01   -3,608966768e-01   -4,189397097e-01    0,000000000e+00    0,000000000e+00    0,000000000e+00    0,000000000e+00
     1402000000   -1,517396867e-01    1,830460727e-01   -4,575418532e-01   -1,032683402e-01    0,000000000e+00    0,000000000e+00    0,000000000e+00    0,000000000e+00
     1416000000   -8,478442580e-02    1,479670852e-01   -3,836191297e-01    1,984224617e-01    0,000000000e+00    0,000000000e+00    0,000000000e+00    0,000000000e+00
     1430000000   -2,650775202e-02    9,608610719e-02   -1,827276945e-01    4,361816049e-01    0,000000000e+00    0,000000000e+00    0,000000000e+00    0,000000000e+00
     1444000000   -4,447282758e-03    1,055955049e-02    1,201311350e-01    5,188807845e-01    0,000000000e+00    0,000000000e+00    0,000000000e+00    0,000000000e+00
     1458000000   -3,379716724e-02   -8,386376500e-02    4,217279255e-01    4,766674340e-01    0,000000000e+00    0,000000000e+00    0,000000000e+00    0,000000000e+00
     1472000000   -1,135801747e-01   -1,420640945e-01    7,121167779e-01    3,196927905e-01    0,000000000e+00    0,000000000e+00    0,000000000e+00    0,000000000e+00
     1486000000   -2,129161060e-01   -1,489155740e-01    8,962680101e-01   -1,338326186e-02    0,000000000e+00    0,000000000e+00    0,000000000e+00    0,000000000e+00
     1500000000   -2,984470427e-01   -8,220335841e-02    8,269614577e-01   -4,169594646e-01    0,000000000e+00    0,000000000e+00    0,000000000e+00    0,000000000e+00
