! NanoVNA-App
! Date: 2025-09-25 14:56:31
! Start: 100MHz Stop: 1,5GHz Points: 101
! S-Parameter data: F S11 S21 S12 S22
# Hz S RI R 50
!     Frequency           S11_Real           S11_Imag           S21_Real           S21_Imag           S12_Real           S12_Imag           S22_Real           S22_Imag
      100000000    3,559675813e-02    2,698745206e-02    4,407189786e-01   -6,696149707e-01    0,000000000e+00    0,000000000e+00    0,000000000e+00    0,000000000e+00
      114000000    6,051984429e-02    1,775373239e-03    1,275015529e-02   -7,954134345e-01    0,000000000e+00    0,000000000e+00    0,000000000e+00    0,000000000e+00
      128000000    6,793358922e-02   -4,255783930e-02   -4,084968269e-01   -6,782807112e-01    0,000000000e+00    0,000000000e+00    0,000000000e+00    0,000000000e+00
      142000000    4,280665517e-02   -8,886398375e-02   -7,055153251e-01   -3,608823419e-01    0,000000000e+00    0,000000000e+00    0,000000000e+00    0,000000000e+00
      156000000   -9,603895247e-03   -1,101883948e-01   -7,938881516e-01    6,866241992e-02    0,000000000e+00    0,000000000e+00    0,000000000e+00    0,000000000e+00
      170000000   -6,323528290e-02   -9,097047150e-02   -6,368783116e-01    4,866698980e-01    0,000000000e+00    0,000000000e+00    0,000000000e+00    0,000000000e+00
      184000000   -8,861248195e-02   -4,662279785e-02   -2,731094658e-01    7,562302351e-01    0,000000000e+00    0,000000000e+00    0,000000000e+00    0,000000000e+00
      198000000   -8,218738437e-02   -5,446569994e-03    1,797803640e-01    7,820531726e-01    0,000000000e+00    0,000000000e+00    0,000000000e+00    0,000000000e+00
      212000000   -6,165742874e-02    1,860781386e-02    5,708080530e-01    5,581312776e-01    0,000000000e+00    0,000000000e+00    0,000000000e+00    0,000000000e+00
      226000000   -4,011801630e-02    3,169790655e-02    7,767928839e-01    1,616498977e-01    0,000000000e+00    0,000000000e+00    0,000000000e+00    0,000000000e+00
      240000000   -1,379658189e-02    4,044872895e-02    7,359963655e-01   -2,787573934e-01    0,000000000e+00    0,000000000e+00    0,000000000e+00    0,000000000e+00
      254000000    2,187761851e-02    3,494473547e-02    4,678844213e-01   -6,224414110e-01    0,000000000e+00    0,000000000e+00    0,000000000e+00    0,000000000e+00
      268000000    5,302194506e-02    3,198414110e-03    6,637196243e-02   -7,675940990e-01    0,000000000e+00    0,000000000e+00    0,000000000e+00    0,000000000e+00
      282000000    5,632211640e-02   -4,613446072e-02   -3,457202911e-01   -6,831753254e-01    0,000000000e+00    0,000000000e+00    0,000000000e+00    0,000000000e+00
      296000000    2,438569628e-02   -8,523053676e-02   -6,554435492e-01   -3,978194594e-01    0,000000000e+00    0,000000000e+00    0,000000000e+00    0,000000000e+00
      310000000   -2,079917863e-02   -8,898462355e-02   -7,735964060e-01    1,194004249e-02    0,000000000e+00    0,000000000e+00    0,000000000e+00    0,000000000e+00
      324000000   -4,811350256e-02   -6,222661585e-02   -6,473986506e-01    4,294621348e-01    0,000000000e+00    0,000000000e+00    0,000000000e+00    0,000000000e+00
      338000000   -4,145789519e-02   -3,599009663e-02   -3,083781004e-01    7,095662355e-01    0,000000000e+00    0,000000000e+00    0,000000000e+00    0,000000000e+00
      352000000   -2,263795026e-02   -3,593010083e-02    1,207049340e-01    7,582411170e-01    0,000000000e+00    0,000000000e+00    0,000000000e+00    0,000000000e+00
      366000000   -2,122717723e-02   -5,482525006e-02    5,041394830e-01    5,719305873e-01    0,000000000e+00    0,000000000e+00    0,000000000e+00    0,000000000e+00
      380000000   -4,292597249e-02   -6,495698541e-02    7,256862521e-01    2,112943679e-01    0,000000000e+00    0,000000000e+00    0,000000000e+00    0,000000000e+00
      394000000   -6,492949277e-02   -5,150191486e-02    7,228592634e-01   -2,133697420e-01    0,000000000e+00    0,000000000e+00    0,000000000e+00    0,000000000e+00
      408000000   -6,637841463e-02   -2,756094001e-02    4,894789457e-01   -5,680387020e-01    0,000000000e+00    0,000000000e+00    0,000000000e+00    0,000000000e+00
      422000000   -5,296390131e-02   -1,699330099e-02    1,051812768e-01   -7,383559942e-01    0,000000000e+00    0,000000000e+00    0,000000000e+00    0,000000000e+00
      436000000   -4,691008851e-02   -2,073044889e-02   -3,061034083e-01   -6,769862175e-01    0,000000000e+00    0,000000000e+00    0,000000000e+00    0,000000000e+00
      450000000   -5,340234190e-02   -1,605124399e-02   -6,189982891e-01   -3,997577727e-01    0,000000000e+00    0,000000000e+00    0,000000000e+00    0,000000000e+00
      464000000   -5,244621262e-02    5,391970742e-03   -7,304252982e-01    3,329635831e-03    0,000000000e+00    0,000000000e+00    0,000000000e+00    0,000000000e+00
      478000000   -2,233637497e-02    2,728908695e-02   -5,995879173e-01    3,972785771e-01    0,000000000e+00    0,000000000e+00    0,000000000e+00    0,000000000e+00
      492000000    2,676447108e-02    1,657969318e-02   -2,814643681e-01    6,449018717e-01    0,000000000e+00    0,000000000e+00    0,000000000e+00    0,000000000e+00
      506000000    5,831376463e-02   -3,461167589e-02    1,041755825e-01    6,817642450e-01    0,000000000e+00    0,000000000e+00    0,000000000e+00    0,000000000e+00
      520000000    4,496039078e-02   -1,006907448e-01    4,469655752e-01    5,167680383e-01    0,000000000e+00    0,000000000e+00    0,000000000e+00    0,000000000e+00
      534000000   -1,020527445e-02   -1,414634287e-01    6,510222554e-01    2,073253691e-01    0,000000000e+00    0,000000000e+00    0,000000000e+00    0,000000000e+00
      548000000   -7,726644725e-02   -1,393802762e-01    6,625554562e-01   -1,750800014e-01    0,000000000e+00    0,000000000e+00    0,000000000e+00    0,000000000e+00
      562000000   -1,257399768e-01   -1,020805687e-01    4,560219347e-01   -5,101327896e-01    0,000000000e+00    0,000000000e+00    0,000000000e+00    0,000000000e+00
      576000000   -1,475586891e-01   -4,941347986e-02    8,656521142e-02   -6,704518199e-01    0,000000000e+00    0,000000000e+00    0,000000000e+00    0,000000000e+00
      590000000   -1,446795166e-01    1,511900593e-02   -3,088428676e-01   -5,817164183e-01    0,000000000e+00    0,000000000e+00    0,000000000e+00    0,000000000e+00
      604000000   -7,330150157e-02    9,183540195e-02   -5,331552029e-01   -2,525420189e-01    0,000000000e+00    0,000000000e+00    0,000000000e+00    0,000000000e+00
      618000000    8,671098948e-02    1,423583925e-02   -4,423392713e-01    9,851350449e-03    0,000000000e+00    0,000000000e+00    0,000000000e+00    0,000000000e+00
      632000000   -3,589610383e-02   -1,441826820e-01   -5,020695925e-01    1,207160652e-01    0,000000000e+00    0,000000000e+00    0,000000000e+00    0,000000000e+00
      646000000   -1,260446459e-01   -4,530715570e-02   -4,094443619e-01    4,647875130e-01    0,000000000e+00    0,000000000e+00    0,000000000e+00    0,000000000e+00
      660000000   -8,218555152e-02    1,975889318e-02   -6,476581842e-02    6,373990178e-01    0,000000000e+00    0,000000000e+00    0,000000000e+00    0,000000000e+00
      674000000   -3,048120812e-02    1,457064226e-02    2,991619408e-01    5,654897690e-01    0,000000000e+00    0,000000000e+00    0,000000000e+00    0,000000000e+00
      688000000   -1,012375765e-02   -1,247532852e-02    5,542782545e-01    3,083654642e-01    0,000000000e+00    0,000000000e+00    0,000000000e+00    0,000000000e+00
      702000000   -8,924217895e-03   -3,459357843e-02    6,254706979e-01   -4,102415219e-02    0,000000000e+00    0,000000000e+00    0,000000000e+00    0,000000000e+00
      716000000   -7,183962502e-03   -5,102929845e-02    4,972000122e-01   -3,731674254e-01    0,000000000e+00    0,000000000e+00    0,000000000e+00    0,000000000e+00
      730000000   -6,041615270e-03   -7,768203318e-02    2,127412409e-01   -5,736769438e-01    0,000000000e+00    0,000000000e+00    0,000000000e+00    0,000000000e+00
      744000000   -2,684801817e-02   -1,132481322e-01   -1,262010783e-01   -5,938118696e-01    0,000000000e+00    0,000000000e+00    0,000000000e+00    0,000000000e+00
      758000000   -7,792589068e-02   -1,335543543e-01   -4,260730147e-01   -4,367606342e-01    0,000000000e+00    0,000000000e+00    0,000000000e+00    0,000000000e+00
      772000000   -1,396020204e-01   -1,142082438e-01   -6,021118164e-01   -1,389687806e-01    0,000000000e+00    0,000000000e+00    0,000000000e+00    0,000000000e+00
      786000000   -1,742302477e-01   -5,443539843e-02   -5,872752070e-01    2,164878845e-01    0,000000000e+00    0,000000000e+00    0,000000000e+00    0,000000000e+00
      800000000   -1,577214003e-01    1,204783656e-02   -3,737290800e-01    5,054935217e-01    0,000000000e+00    0,000000000e+00    0,000000000e+00    0,000000000e+00
      814000000   -1,096524075e-01    4,416089505e-02   -4,019762948e-02    6,225814819e-01    0,000000000e+00    0,000000000e+00    0,000000000e+00    0,000000000e+00
      828000000   -6,324120611e-02    4,205347970e-02    2,950811088e-01    5,429778695e-01    0,000000000e+00    0,000000000e+00    0,000000000e+00    0,000000000e+00
      842000000   -3,615104407e-02    2,454981022e-02    5,309149623e-01    3,025436699e-01    0,000000000e+00    0,000000000e+00    0,000000000e+00    0,000000000e+00
      856000000   -1,937534288e-02    6,864908151e-03    6,020278335e-01   -2,234092355e-02    0,000000000e+00    0,000000000e+00    0,000000000e+00    0,000000000e+00
      870000000   -1,605931902e-03   -1,360804215e-02    4,880937338e-01   -3,285134435e-01    0,000000000e+00    0,000000000e+00    0,000000000e+00    0,000000000e+00
      884000000    9,013839997e-03   -5,203177035e-02    2,358080447e-01   -5,242709517e-01    0,000000000e+00    0,000000000e+00    0,000000000e+00    0,000000000e+00
      898000000   -7,771312259e-03   -1,007218510e-01   -7,277929783e-02   -5,613014102e-01    0,000000000e+00    0,000000000e+00    0,000000000e+00    0,000000000e+00
      912000000   -6,563860178e-02   -1,303718537e-01   -3,979781866e-01   -4,132638276e-01    0,000000000e+00    0,000000000e+00    0,000000000e+00    0,000000000e+00
      926000000   -1,307745278e-01   -1,160774603e-01   -5,829459429e-01   -1,327619702e-01    0,000000000e+00    0,000000000e+00    0,000000000e+00    0,000000000e+00
      940000000   -1,639592648e-01   -6,034265086e-02   -5,693458319e-01    2,174467295e-01    0,000000000e+00    0,000000000e+00    0,000000000e+00    0,000000000e+00
      954000000   -1,438331902e-01    4,877691623e-03   -3,538348079e-01    5,037801862e-01    0,000000000e+00    0,000000000e+00    0,000000000e+00    0,000000000e+00
      968000000   -9,303178638e-02    2,824272960e-02   -2,133030631e-02    6,198688745e-01    0,000000000e+00    0,000000000e+00    0,000000000e+00    0,000000000e+00
      982000000   -4,209386185e-02    8,909677155e-03    3,104475737e-01    5,311626792e-01    0,000000000e+00    0,000000000e+00    0,000000000e+00    0,000000000e+00
      996000000   -2,508383058e-02   -3,677483276e-02    5,288539529e-01    2,874901891e-01    0,000000000e+00    0,000000000e+00    0,000000000e+00    0,000000000e+00
     1010000000   -5,078992620e-02   -8,717624843e-02    5,775462389e-01   -1,913154870e-02    0,000000000e+00    0,000000000e+00    0,000000000e+00    0,000000000e+00
     1024000000   -1,112075895e-01   -1,041517332e-01    4,668406248e-01   -2,722176015e-01    0,000000000e+00    0,000000000e+00    0,000000000e+00    0,000000000e+00
     1038000000   -1,746789813e-01   -6,518227607e-02    2,873206437e-01   -4,307480752e-01    0,000000000e+00    0,000000000e+00    0,000000000e+00    0,000000000e+00
     1052000000   -1,735364646e-01    1,447368134e-02    5,807328969e-02   -5,161745548e-01    0,000000000e+00    0,000000000e+00    0,000000000e+00    0,000000000e+00
     1066000000   -1,123273075e-01    5,782366917e-02   -2,122012824e-01   -4,756470621e-01    0,000000000e+00    0,000000000e+00    0,000000000e+00    0,000000000e+00
     1080000000   -5,186251178e-02    4,463498294e-02   -4,250229597e-01   -2,859084904e-01    0,000000000e+00    0,000000000e+00    0,000000000e+00    0,000000000e+00
     1094000000   -2,319439128e-02    1,005531661e-02   -5,023519397e-01   -4,513171501e-03    0,000000000e+00    0,000000000e+00    0,000000000e+00    0,000000000e+00
     1108000000   -6,934206001e-03   -2,502875775e-02   -4,093967378e-01    2,786825895e-01    0,000000000e+00    0,000000000e+00    0,000000000e+00    0,000000000e+00
     1122000000   -1,609409228e-02   -7,089695334e-02   -1,762583107e-01    4,671188295e-01    0,000000000e+00    0,000000000e+00    0,000000000e+00    0,000000000e+00
     1136000000   -3,639603406e-02   -1,099110544e-01    1,346257776e-01    4,949087203e-01    0,000000000e+00    0,000000000e+00    0,000000000e+00    0,000000000e+00
     1150000000   -8,758330345e-02   -1,408117563e-01    4,325698912e-01    3,412952721e-01    0,000000000e+00    0,000000000e+00    0,000000000e+00    0,000000000e+00
     1164000000   -1,484381258e-01   -1,318608820e-01    5,959629416e-01    2,174421400e-02    0,000000000e+00    0,000000000e+00    0,000000000e+00    0,000000000e+00
     1178000000   -1,902138293e-01   -8,843941987e-02    5,351098776e-01   -3,558185101e-01    0,000000000e+00    0,000000000e+00    0,000000000e+00    0,000000000e+00
     1192000000   -1,945963651e-01   -5,448922887e-02    2,458847314e-01   -6,280619502e-01    0,000000000e+00    0,000000000e+00    0,000000000e+00    0,000000000e+00
     1206000000   -2,002951801e-01   -4,663638398e-02   -1,318398714e-01   -6,618822217e-01    0,000000000e+00    0,000000000e+00    0,000000000e+00    0,000000000e+00
     1220000000   -2,483634949e-01   -7,164260838e-03   -4,208357632e-01   -4,883013368e-01    0,000000000e+00    0,000000000e+00    0,000000000e+00    0,000000000e+00
     1234000000   -2,412512302e-01    1,179209501e-01   -5,576565266e-01   -2,464341670e-01    0,000000000e+00    0,000000000e+00    0,000000000e+00    0,000000000e+00
     1248000000   -1,177182123e-01    1,767768413e-01   -5,950813890e-01    1,497085392e-02    0,000000000e+00    0,000000000e+00    0,000000000e+00    0,000000000e+00
     1262000000    1,735834870e-03    1,380810440e-01   -4,975798130e-01    2,929141223e-01    0,000000000e+00    0,000000000e+00    0,000000000e+00    0,000000000e+00
     1276000000    6,383489072e-02    3,587269038e-02   -2,736246586e-01    4,789120853e-01    0,000000000e+00    0,000000000e+00    0,000000000e+00    0,000000000e+00
     1290000000    7,536999136e-02   -7,425241172e-02    8,143790066e-03    5,426039696e-01    0,000000000e+00    0,000000000e+00    0,000000000e+00    0,000000000e+00
     1304000000    2,116972581e-02   -1,788920611e-01    2,875688374e-01    4,737995863e-01    0,000000000e+00    0,000000000e+00    0,000000000e+00    0,000000000e+00
     1318000000   -9,090862423e-02   -2,558534443e-01    5,317020416e-01    2,736484706e-01    0,000000000e+00    0,000000000e+00    0,000000000e+00    0,000000000e+00
     1332000000   -2,421365529e-01   -2,453418225e-01    6,467638016e-01   -4,318256304e-02    0,000000000e+00    0,000000000e+00    0,000000000e+00    0,000000000e+00
     1346000000   -3,649570048e-01   -1,470994800e-01    5,441380739e-01   -3,940649927e-01    0,000000000e+00    0,000000000e+00    0,000000000e+00    0,000000000e+00
     1360000000   -3,941171169e-01    3,149350407e-03    2,569778562e-01   -6,263079047e-01    0,000000000e+00    0,000000000e+00    0,000000000e+00    0,000000000e+00
     1374000000   -3,285916448e-01    1,217090115e-01   -9,648373723e-02   -6,174815297e-01    0,000000000e+00    0,000000000e+00    0,000000000e+00    0,000000000e+00
     1388000000   -2,440970093e-01    1,722279936e-01   -3,736451864e-01   -4,171717465e-01    0,000000000e+00    0,000000000e+00    0,000000000e+00    0,000000000e+00
     1402000000   -1,597693861e-01    1,739972234e-01   -4,733901322e-01   -1,018306538e-01    0,000000000e+00    0,000000000e+00    0,000000000e+00    0,000000000e+00
     1416000000   -8,360626549e-02    1,488170028e-01   -3,877798319e-01    1,962969452e-01    0,000000000e+00    0,000000000e+00    0,000000000e+00    0,000000000e+00
     1430000000   -3,648680821e-02    9,818752110e-02   -1,538123935e-01    4,325669706e-01    0,000000000e+00    0,000000000e+00    0,000000000e+00    0,000000000e+00
     1444000000   -9,221459739e-03    1,037664246e-02    1,307550371e-01    5,123245120e-01    0,000000000e+00    0,000000000e+00    0,000000000e+00    0,000000000e+00
     1458000000   -3,523263335e-02   -8,004401624e-02    4,303131700e-01    4,750356376e-01    0,000000000e+00    0,000000000e+00    0,000000000e+00    0,000000000e+00
     1472000000   -1,171515435e-01   -1,506927162e-01    7,224306464e-01    2,941854596e-01    0,000000000e+00    0,000000000e+00    0,000000000e+00    0,000000000e+00
     1486000000   -2,240506262e-01   -1,402805299e-01    8,777961135e-01   -2,779257111e-02    0,000000000e+00    0,000000000e+00    0,000000000e+00    0,000000000e+00
     1500000000   -2,952891588e-01   -7,364014536e-02    8,309891820e-01   -4,111243784e-01    0,000000000e+00    0,000000000e+00    0,000000000e+00    0,000000000e+00
