! NanoVNA-App
! Date: 2025-09-25 15:03:04
! Start: 100MHz Stop: 1,5GHz Points: 101
! S-Parameter data: F S11 S21 S12 S22
# Hz S RI R 50
!     Frequency           S11_Real           S11_Imag           S21_Real           S21_Imag           S12_Real           S12_Imag           S22_Real           S22_Imag
      100000000    3,560294211e-02    2,736812457e-02    4,407334626e-01   -6,694794893e-01    0,000000000e+00    0,000000000e+00    0,000000000e+00    0,000000000e+00
      114000000    6,077415869e-02    2,185753314e-03    1,275817864e-02   -7,953833342e-01    0,000000000e+00    0,000000000e+00    0,000000000e+00    0,000000000e+00
      128000000    6,844578683e-02   -4,225471988e-02   -4,081570804e-01   -6,781079769e-01    0,000000000e+00    0,000000000e+00    0,000000000e+00    0,000000000e+00
      142000000    4,352512211e-02   -8,877796680e-02   -7,051343322e-01   -3,608359993e-01    0,000000000e+00    0,000000000e+00    0,000000000e+00    0,000000000e+00
      156000000   -9,617781267e-03   -1,097198576e-01   -7,924845815e-01    6,762529910e-02    0,000000000e+00    0,000000000e+00    0,000000000e+00    0,000000000e+00
      170000000   -6,258421391e-02   -9,174365550e-02   -6,369882822e-01    4,865899086e-01    0,000000000e+00    0,000000000e+00    0,000000000e+00    0,000000000e+00
      184000000   -8,853081614e-02   -4,769660160e-02   -2,732217312e-01    7,561352849e-01    0,000000000e+00    0,000000000e+00    0,000000000e+00    0,000000000e+00
      198000000   -8,269260079e-02   -6,441283505e-03    1,796412766e-01    7,823303342e-01    0,000000000e+00    0,000000000e+00    0,000000000e+00    0,000000000e+00
      212000000   -6,270110607e-02    1,806120947e-02    5,706979036e-01    5,584971905e-01    0,000000000e+00    0,000000000e+00    0,000000000e+00    0,000000000e+00
      226000000   -4,148094356e-02    3,182097524e-02    7,767783999e-01    1,619451940e-01    0,000000000e+00    0,000000000e+00    0,000000000e+00    0,000000000e+00
      240000000   -1,485291962e-02    4,127280787e-02    7,360059619e-01   -2,787259817e-01    0,000000000e+00    0,000000000e+00    0,000000000e+00    0,000000000e+00
      254000000    2,145543694e-02    3,631224483e-02    4,676196277e-01   -6,218797565e-01    0,000000000e+00    0,000000000e+00    0,000000000e+00    0,000000000e+00
      268000000    5,331379175e-02    4,726818763e-03    6,659056991e-02   -7,673357129e-01    0,000000000e+00    0,000000000e+00    0,000000000e+00    0,000000000e+00
      282000000    5,751852319e-02   -4,487509280e-02   -3,455798030e-01   -6,824007630e-01    0,000000000e+00    0,000000000e+00    0,000000000e+00    0,000000000e+00
      296000000    2,616314963e-02   -8,479863405e-02   -6,549752951e-01   -3,975028694e-01    0,000000000e+00    0,000000000e+00    0,000000000e+00    0,000000000e+00
      310000000   -1,900596730e-02   -8,942497522e-02   -7,745327353e-01    9,622667916e-03    0,000000000e+00    0,000000000e+00    0,000000000e+00    0,000000000e+00
      324000000   -4,641604051e-02   -6,347874552e-02   -6,479831338e-01    4,292797148e-01    0,000000000e+00    0,000000000e+00    0,000000000e+00    0,000000000e+00
      338000000   -4,120514914e-02   -3,788710386e-02   -3,120335340e-01    7,106540203e-01    0,000000000e+00    0,000000000e+00    0,000000000e+00    0,000000000e+00
      352000000   -2,357946709e-02   -3,781362250e-02    1,194537282e-01    7,586589456e-01    0,000000000e+00    0,000000000e+00    0,000000000e+00    0,000000000e+00
      366000000   -2,290400490e-02   -5,625505745e-02    5,029940605e-01    5,722221732e-01    0,000000000e+00    0,000000000e+00    0,000000000e+00    0,000000000e+00
      380000000   -4,470010474e-02   -6,551180035e-02    7,259348631e-01    2,115957439e-01    0,000000000e+00    0,000000000e+00    0,000000000e+00    0,000000000e+00
      394000000   -6,617897749e-02   -5,048293620e-02    7,231870294e-01   -2,133020610e-01    0,000000000e+00    0,000000000e+00    0,000000000e+00    0,000000000e+00
      408000000   -6,761181355e-02   -2,612034418e-02    4,897231460e-01   -5,679308176e-01    0,000000000e+00    0,000000000e+00    0,000000000e+00    0,000000000e+00
      422000000   -5,347917601e-02   -1,512065344e-02    1,055360660e-01   -7,386021018e-01    0,000000000e+00    0,000000000e+00    0,000000000e+00    0,000000000e+00
      436000000   -4,645504057e-02   -1,871888340e-02   -3,061164618e-01   -6,755158305e-01    0,000000000e+00    0,000000000e+00    0,000000000e+00    0,000000000e+00
      450000000   -5,176976323e-02   -1,497184485e-02   -6,188042760e-01   -3,997285962e-01    0,000000000e+00    0,000000000e+00    0,000000000e+00    0,000000000e+00
      464000000   -5,048324540e-02    6,018193904e-03   -7,301359177e-01    3,297963180e-03    0,000000000e+00    0,000000000e+00    0,000000000e+00    0,000000000e+00
      478000000   -2,030918933e-02    2,613774687e-02   -5,986452699e-01    3,978292346e-01    0,000000000e+00    0,000000000e+00    0,000000000e+00    0,000000000e+00
      492000000    2,848197706e-02    1,435171906e-02   -2,800771892e-01    6,442936659e-01    0,000000000e+00    0,000000000e+00    0,000000000e+00    0,000000000e+00
      506000000    5,919215828e-02   -3,718038648e-02    1,048359722e-01    6,803091764e-01    0,000000000e+00    0,000000000e+00    0,000000000e+00    0,000000000e+00
      520000000    4,357814789e-02   -1,035906971e-01    4,470115900e-01    5,165823698e-01    0,000000000e+00    0,000000000e+00    0,000000000e+00    0,000000000e+00
      534000000   -1,284541376e-02   -1,436888725e-01    6,493557692e-01    2,060449570e-01    0,000000000e+00    0,000000000e+00    0,000000000e+00    0,000000000e+00
      548000000   -8,164581656e-02   -1,395661682e-01    6,594094634e-01   -1,760486215e-01    0,000000000e+00    0,000000000e+00    0,000000000e+00    0,000000000e+00
      562000000   -1,308686882e-01   -9,831377119e-02    4,508168399e-01   -5,082133412e-01    0,000000000e+00    0,000000000e+00    0,000000000e+00    0,000000000e+00
      576000000   -1,487281770e-01   -3,930854052e-02    8,273148537e-02   -6,606615782e-01    0,000000000e+00    0,000000000e+00    0,000000000e+00    0,000000000e+00
      590000000   -1,304129362e-01    2,676428296e-02   -2,970276773e-01   -5,649303794e-01    0,000000000e+00    0,000000000e+00    0,000000000e+00    0,000000000e+00
      604000000   -4,365434870e-02    6,871905178e-02   -4,945092499e-01   -2,712053955e-01    0,000000000e+00    0,000000000e+00    0,000000000e+00    0,000000000e+00
      618000000    3,609929234e-02   -2,325121872e-02   -4,934603572e-01   -4,155968502e-02    0,000000000e+00    0,000000000e+00    0,000000000e+00    0,000000000e+00
      632000000   -4,689196497e-02   -9,448058158e-02   -5,185048580e-01    1,761464775e-01    0,000000000e+00    0,000000000e+00    0,000000000e+00    0,000000000e+00
      646000000   -9,973821789e-02   -3,809640929e-02   -3,792868257e-01    4,730502367e-01    0,000000000e+00    0,000000000e+00    0,000000000e+00    0,000000000e+00
      660000000   -7,083867490e-02    8,684852161e-03   -5,212299153e-02    6,237213016e-01    0,000000000e+00    0,000000000e+00    0,000000000e+00    0,000000000e+00
      674000000   -3,197560087e-02    6,377424579e-03    2,963059843e-01    5,537911654e-01    0,000000000e+00    0,000000000e+00    0,000000000e+00    0,000000000e+00
      688000000   -1,579798386e-02   -1,597145014e-02    5,464228392e-01    3,039142489e-01    0,000000000e+00    0,000000000e+00    0,000000000e+00    0,000000000e+00
      702000000   -1,438583713e-02   -3,348792344e-02    6,222052574e-01   -3,907321393e-02    0,000000000e+00    0,000000000e+00    0,000000000e+00    0,000000000e+00
      716000000   -9,650954977e-03   -4,825142026e-02    4,932326376e-01   -3,675293624e-01    0,000000000e+00    0,000000000e+00    0,000000000e+00    0,000000000e+00
      730000000   -6,772753783e-03   -7,566320896e-02    2,122940272e-01   -5,673720241e-01    0,000000000e+00    0,000000000e+00    0,000000000e+00    0,000000000e+00
      744000000   -2,573164739e-02   -1,119522676e-01   -1,229603663e-01   -5,891821384e-01    0,000000000e+00    0,000000000e+00    0,000000000e+00    0,000000000e+00
      758000000   -7,516373694e-02   -1,330477744e-01   -4,197815657e-01   -4,335408509e-01    0,000000000e+00    0,000000000e+00    0,000000000e+00    0,000000000e+00
      772000000   -1,352855265e-01   -1,159722209e-01   -5,940405726e-01   -1,408913285e-01    0,000000000e+00    0,000000000e+00    0,000000000e+00    0,000000000e+00
      786000000   -1,727980077e-01   -5,853931233e-02   -5,820831656e-01    2,096974850e-01    0,000000000e+00    0,000000000e+00    0,000000000e+00    0,000000000e+00
      800000000   -1,600527167e-01    7,965356112e-03   -3,745696545e-01    4,969250858e-01    0,000000000e+00    0,000000000e+00    0,000000000e+00    0,000000000e+00
      814000000   -1,137365475e-01    4,322584346e-02   -4,587535933e-02    6,162500978e-01    0,000000000e+00    0,000000000e+00    0,000000000e+00    0,000000000e+00
      828000000   -6,839726120e-02    4,361089692e-02    2,864595950e-01    5,409082770e-01    0,000000000e+00    0,000000000e+00    0,000000000e+00    0,000000000e+00
      842000000   -3,868006542e-02    2,908779122e-02    5,219473839e-01    3,056282997e-01    0,000000000e+00    0,000000000e+00    0,000000000e+00    0,000000000e+00
      856000000   -1,776433364e-02    1,144602802e-02    5,951325893e-01   -1,403951366e-02    0,000000000e+00    0,000000000e+00    0,000000000e+00    0,000000000e+00
      870000000    1,249004737e-03   -1,191481389e-02    4,863785207e-01   -3,181384206e-01    0,000000000e+00    0,000000000e+00    0,000000000e+00    0,000000000e+00
      884000000    1,241842937e-02   -5,094362795e-02    2,420229167e-01   -5,120688677e-01    0,000000000e+00    0,000000000e+00    0,000000000e+00    0,000000000e+00
      898000000   -4,300313536e-03   -1,016182303e-01   -5,936090276e-02   -5,569406748e-01    0,000000000e+00    0,000000000e+00    0,000000000e+00    0,000000000e+00
      912000000   -6,218673289e-02   -1,320917904e-01   -3,983150423e-01   -4,221860468e-01    0,000000000e+00    0,000000000e+00    0,000000000e+00    0,000000000e+00
      926000000   -1,256308705e-01   -1,200359687e-01   -5,658221841e-01   -1,485710144e-01    0,000000000e+00    0,000000000e+00    0,000000000e+00    0,000000000e+00
      940000000   -1,609630287e-01   -6,397025287e-02   -5,670195818e-01    1,938189715e-01    0,000000000e+00    0,000000000e+00    0,000000000e+00    0,000000000e+00
      954000000   -1,496282518e-01   -2,750543936e-04   -3,727316558e-01    4,848575294e-01    0,000000000e+00    0,000000000e+00    0,000000000e+00    0,000000000e+00
      968000000   -9,643580019e-02    2,571663819e-02   -5,148717761e-02    6,162958145e-01    0,000000000e+00    0,000000000e+00    0,000000000e+00    0,000000000e+00
      982000000   -5,395382270e-02    2,805101685e-03    2,801891863e-01    5,517678261e-01    0,000000000e+00    0,000000000e+00    0,000000000e+00    0,000000000e+00
      996000000   -4,249073192e-02   -3,343402594e-02    5,253449082e-01    3,271810412e-01    0,000000000e+00    0,000000000e+00    0,000000000e+00    0,000000000e+00
     1010000000   -6,077570096e-02   -6,413893402e-02    6,066203713e-01    1,611378416e-02    0,000000000e+00    0,000000000e+00    0,000000000e+00    0,000000000e+00
     1024000000   -1,045415401e-01   -7,447662950e-02    5,144553185e-01   -2,812673748e-01    0,000000000e+00    0,000000000e+00    0,000000000e+00    0,000000000e+00
     1038000000   -1,395605057e-01   -5,559086055e-02    2,971096039e-01   -4,724058807e-01    0,000000000e+00    0,000000000e+00    0,000000000e+00    0,000000000e+00
     1052000000   -1,503124237e-01   -3,371452447e-03    3,619733080e-02   -5,279225707e-01    0,000000000e+00    0,000000000e+00    0,000000000e+00    0,000000000e+00
     1066000000   -1,038019881e-01    3,822490200e-02   -2,140564322e-01   -4,669354856e-01    0,000000000e+00    0,000000000e+00    0,000000000e+00    0,000000000e+00
     1080000000   -5,024972558e-02    2,819299325e-02   -4,206621051e-01   -2,972365022e-01    0,000000000e+00    0,000000000e+00    0,000000000e+00    0,000000000e+00
     1094000000   -3,236708790e-02   -4,193787463e-03   -5,200873613e-01   -2,465376444e-02    0,000000000e+00    0,000000000e+00    0,000000000e+00    0,000000000e+00
     1108000000   -3,089401312e-02   -3,399788216e-02   -4,431151748e-01    2,848467529e-01    0,000000000e+00    0,000000000e+00    0,000000000e+00    0,000000000e+00
     1122000000   -3,281591088e-02   -5,604787916e-02   -1,866207421e-01    4,955309331e-01    0,000000000e+00    0,000000000e+00    0,000000000e+00    0,000000000e+00
     1136000000   -4,229186848e-02   -9,233195335e-02    1,527242213e-01    5,197991729e-01    0,000000000e+00    0,000000000e+00    0,000000000e+00    0,000000000e+00
     1150000000   -8,542320877e-02   -1,227986515e-01    4,522281289e-01    3,425859213e-01    0,000000000e+00    0,000000000e+00    0,000000000e+00    0,000000000e+00
     1164000000   -1,360785663e-01   -1,224348247e-01    6,117760539e-01    1,303143427e-02    0,000000000e+00    0,000000000e+00    0,000000000e+00    0,000000000e+00
     1178000000   -1,758477688e-01   -9,027674049e-02    5,381795764e-01   -3,730852902e-01    0,000000000e+00    0,000000000e+00    0,000000000e+00    0,000000000e+00
     1192000000   -1,765249670e-01   -5,646253750e-02    2,413462102e-01   -6,357523203e-01    0,000000000e+00    0,000000000e+00    0,000000000e+00    0,000000000e+00
     1206000000   -1,949633658e-01   -5,656128749e-02   -1,371487081e-01   -6,615453362e-01    0,000000000e+00    0,000000000e+00    0,000000000e+00    0,000000000e+00
     1220000000   -2,522972524e-01   -1,775474660e-02   -4,161908627e-01   -4,861566126e-01    0,000000000e+00    0,000000000e+00    0,000000000e+00    0,000000000e+00
     1234000000   -2,380173504e-01    1,108000800e-01   -5,581834316e-01   -2,569451928e-01    0,000000000e+00    0,000000000e+00    0,000000000e+00    0,000000000e+00
     1248000000   -1,138743684e-01    1,709814072e-01   -6,067075729e-01    1,902031712e-02    0,000000000e+00    0,000000000e+00    0,000000000e+00    0,000000000e+00
     1262000000   -3,262472455e-04    1,289465874e-01   -5,033478141e-01    2,975720465e-01    0,000000000e+00    0,000000000e+00    0,000000000e+00    0,000000000e+00
     1276000000    6,145487726e-02    4,494864121e-02   -2,771901190e-01    4,892245829e-01    0,000000000e+00    0,000000000e+00    0,000000000e+00    0,000000000e+00
     1290000000    7,161714137e-02   -6,696799397e-02    8,211900480e-03    5,500068665e-01    0,000000000e+00    0,000000000e+00    0,000000000e+00    0,000000000e+00
     1304000000    1,843803190e-02   -1,795633286e-01    2,929323614e-01    4,723307192e-01    0,000000000e+00    0,000000000e+00    0,000000000e+00    0,000000000e+00
     1318000000   -9,606633335e-02   -2,540281117e-01    5,312715769e-01    2,723304331e-01    0,000000000e+00    0,000000000e+00    0,000000000e+00    0,000000000e+00
     1332000000   -2,443000078e-01   -2,431420088e-01    6,517630816e-01   -4,746261984e-02    0,000000000e+00    0,000000000e+00    0,000000000e+00    0,000000000e+00
     1346000000   -3,618993163e-01   -1,397213489e-01    5,448928475e-01   -4,033446312e-01    0,000000000e+00    0,000000000e+00    0,000000000e+00    0,000000000e+00
     1360000000   -3,816617429e-01    9,009337053e-03    2,568383813e-01   -6,374231577e-01    0,000000000e+00    0,000000000e+00    0,000000000e+00    0,000000000e+00
     1374000000   -3,289162517e-01    1,193923280e-01   -1,070195138e-01   -6,317480803e-01    0,000000000e+00    0,000000000e+00    0,000000000e+00    0,000000000e+00
     1388000000   -2,357484400e-01    1,664337069e-01   -3,780531287e-01   -4,089676440e-01    0,000000000e+00    0,000000000e+00    0,000000000e+00    0,000000000e+00
     1402000000   -1,552507132e-01    1,725424081e-01   -4,821119905e-01   -1,080389023e-01    0,000000000e+00    0,000000000e+00    0,000000000e+00    0,000000000e+00
     1416000000   -8,724560589e-02    1,464491636e-01   -3,934168816e-01    2,106747627e-01    0,000000000e+00    0,000000000e+00    0,000000000e+00    0,000000000e+00
     1430000000   -3,663503379e-02    8,690331131e-02   -1,706751287e-01    4,591213465e-01    0,000000000e+00    0,000000000e+00    0,000000000e+00    0,000000000e+00
     1444000000   -1,500442158e-02    6,746079307e-03    1,128565371e-01    5,209442377e-01    0,000000000e+00    0,000000000e+00    0,000000000e+00    0,000000000e+00
     1458000000   -3,710836172e-02   -7,920591533e-02    4,413544536e-01    4,930658638e-01    0,000000000e+00    0,000000000e+00    0,000000000e+00    0,000000000e+00
     1472000000   -1,206420735e-01   -1,468189061e-01    7,222467065e-01    3,097908199e-01    0,000000000e+00    0,000000000e+00    0,000000000e+00    0,000000000e+00
     1486000000   -2,385518104e-01   -1,396058053e-01    8,934826851e-01   -1,779267937e-02    0,000000000e+00    0,000000000e+00    0,000000000e+00    0,000000000e+00
     1500000000   -3,118372858e-01   -6,650531292e-02    8,361359835e-01   -4,210464656e-01    0,000000000e+00    0,000000000e+00    0,000000000e+00    0,000000000e+00
