! NanoVNA-App
! Date: 2025-09-25 14:56:48
! Start: 100MHz Stop: 1,5GHz Points: 101
! S-Parameter data: F S11 S21 S12 S22
# Hz S RI R 50
!     Frequency           S11_Real           S11_Imag           S21_Real           S21_Imag           S12_Real           S12_Imag           S22_Real           S22_Imag
      100000000    3,562415764e-02    2,732476778e-02    4,406145513e-01   -6,694591641e-01    0,000000000e+00    0,000000000e+00    0,000000000e+00    0,000000000e+00
      114000000    6,074646488e-02    2,163908212e-03    1,271315198e-02   -7,953097820e-01    0,000000000e+00    0,000000000e+00    0,000000000e+00    0,000000000e+00
      128000000    6,834637374e-02   -4,221000522e-02   -4,081732929e-01   -6,779550314e-01    0,000000000e+00    0,000000000e+00    0,000000000e+00    0,000000000e+00
      142000000    4,348630831e-02   -8,878308535e-02   -7,052093744e-01   -3,607407510e-01    0,000000000e+00    0,000000000e+00    0,000000000e+00    0,000000000e+00
      156000000   -9,156426415e-03   -1,095928326e-01   -7,933736444e-01    6,728626788e-02    0,000000000e+00    0,000000000e+00    0,000000000e+00    0,000000000e+00
      170000000   -6,255934387e-02   -9,174314141e-02   -6,366528273e-01    4,864253998e-01    0,000000000e+00    0,000000000e+00    0,000000000e+00    0,000000000e+00
      184000000   -8,850041032e-02   -4,764994979e-02   -2,730106115e-01    7,558569312e-01    0,000000000e+00    0,000000000e+00    0,000000000e+00    0,000000000e+00
      198000000   -8,266545087e-02   -6,391451228e-03    1,795783788e-01    7,821342349e-01    0,000000000e+00    0,000000000e+00    0,000000000e+00    0,000000000e+00
      212000000   -6,263305247e-02    1,807577908e-02    5,706385970e-01    5,581466556e-01    0,000000000e+00    0,000000000e+00    0,000000000e+00    0,000000000e+00
      226000000   -4,126396775e-02    3,189604729e-02    7,765087485e-01    1,618671715e-01    0,000000000e+00    0,000000000e+00    0,000000000e+00    0,000000000e+00
      240000000   -1,469994150e-02    4,128038883e-02    7,358664274e-01   -2,786589861e-01    0,000000000e+00    0,000000000e+00    0,000000000e+00    0,000000000e+00
      254000000    2,152949758e-02    3,618276119e-02    4,678320289e-01   -6,219664812e-01    0,000000000e+00    0,000000000e+00    0,000000000e+00    0,000000000e+00
      268000000    5,336890742e-02    4,499872215e-03    6,670033932e-02   -7,673509717e-01    0,000000000e+00    0,000000000e+00    0,000000000e+00    0,000000000e+00
      282000000    5,744226649e-02   -4,513250291e-02   -3,455374241e-01   -6,822331548e-01    0,000000000e+00    0,000000000e+00    0,000000000e+00    0,000000000e+00
      296000000    2,595652081e-02   -8,474797755e-02   -6,549031734e-01   -3,976766765e-01    0,000000000e+00    0,000000000e+00    0,000000000e+00    0,000000000e+00
      310000000   -1,884024404e-02   -8,929085732e-02   -7,734255791e-01    1,152508054e-02    0,000000000e+00    0,000000000e+00    0,000000000e+00    0,000000000e+00
      324000000   -4,662593082e-02   -6,335368007e-02   -6,472840309e-01    4,294992685e-01    0,000000000e+00    0,000000000e+00    0,000000000e+00    0,000000000e+00
      338000000   -4,118410870e-02   -3,761365637e-02   -3,099623322e-01    7,082256675e-01    0,000000000e+00    0,000000000e+00    0,000000000e+00    0,000000000e+00
      352000000   -2,334023267e-02   -3,765916079e-02    1,195570081e-01    7,591980696e-01    0,000000000e+00    0,000000000e+00    0,000000000e+00    0,000000000e+00
      366000000   -2,273643948e-02   -5,583921447e-02    5,032767653e-01    5,728619099e-01    0,000000000e+00    0,000000000e+00    0,000000000e+00    0,000000000e+00
      380000000   -4,464026168e-02   -6,530318409e-02    7,262741327e-01    2,112444043e-01    0,000000000e+00    0,000000000e+00    0,000000000e+00    0,000000000e+00
      394000000   -6,619975716e-02   -5,057956651e-02    7,226157784e-01   -2,130895704e-01    0,000000000e+00    0,000000000e+00    0,000000000e+00    0,000000000e+00
      408000000   -6,681829691e-02   -2,666587010e-02    4,902381003e-01   -5,680485368e-01    0,000000000e+00    0,000000000e+00    0,000000000e+00    0,000000000e+00
      422000000   -5,288485065e-02   -1,541562472e-02    1,065163165e-01   -7,381212711e-01    0,000000000e+00    0,000000000e+00    0,000000000e+00    0,000000000e+00
      436000000   -4,577196017e-02   -1,890949160e-02   -3,056492209e-01   -6,750119328e-01    0,000000000e+00    0,000000000e+00    0,000000000e+00    0,000000000e+00
      450000000   -5,220325664e-02   -1,570066065e-02   -6,186622381e-01   -3,998380899e-01    0,000000000e+00    0,000000000e+00    0,000000000e+00    0,000000000e+00
      464000000   -5,053936318e-02    5,160612054e-03   -7,296984792e-01    2,440946409e-03    0,000000000e+00    0,000000000e+00    0,000000000e+00    0,000000000e+00
      478000000   -2,118598856e-02    2,622433566e-02   -5,984318852e-01    3,966115713e-01    0,000000000e+00    0,000000000e+00    0,000000000e+00    0,000000000e+00
      492000000    2,778488956e-02    1,459948346e-02   -2,809186876e-01    6,437146664e-01    0,000000000e+00    0,000000000e+00    0,000000000e+00    0,000000000e+00
      506000000    5,831038952e-02   -3,710732609e-02    1,042428613e-01    6,794332266e-01    0,000000000e+00    0,000000000e+00    0,000000000e+00    0,000000000e+00
      520000000    4,345857352e-02   -1,016889364e-01    4,458652735e-01    5,179106593e-01    0,000000000e+00    0,000000000e+00    0,000000000e+00    0,000000000e+00
      534000000   -1,186345425e-02   -1,421127319e-01    6,493699551e-01    2,071429491e-01    0,000000000e+00    0,000000000e+00    0,000000000e+00    0,000000000e+00
      548000000   -7,858276367e-02   -1,382417530e-01    6,609972715e-01   -1,739625931e-01    0,000000000e+00    0,000000000e+00    0,000000000e+00    0,000000000e+00
      562000000   -1,263438016e-01   -9,852884710e-02    4,553975463e-01   -5,073163509e-01    0,000000000e+00    0,000000000e+00    0,000000000e+00    0,000000000e+00
      576000000   -1,441592723e-01   -4,512425512e-02    8,909486979e-02   -6,649457216e-01    0,000000000e+00    0,000000000e+00    0,000000000e+00    0,000000000e+00
      590000000   -1,335484087e-01    1,325855777e-02   -2,930820286e-01   -5,805281997e-01    0,000000000e+00    0,000000000e+00    0,000000000e+00    0,000000000e+00
      604000000   -7,069550455e-02    6,573475897e-02   -5,234906673e-01   -2,816738784e-01    0,000000000e+00    0,000000000e+00    0,000000000e+00    0,000000000e+00
      618000000    3,516286984e-02    1,931139082e-02   -5,031622648e-01    7,079416886e-03    0,000000000e+00    0,000000000e+00    0,000000000e+00    0,000000000e+00
      632000000   -7,542014588e-03   -1,006248817e-01   -4,728183150e-01    1,751025170e-01    0,000000000e+00    0,000000000e+00    0,000000000e+00    0,000000000e+00
      646000000   -1,016026661e-01   -6,313607842e-02   -3,786121309e-01    4,446530640e-01    0,000000000e+00    0,000000000e+00    0,000000000e+00    0,000000000e+00
      660000000   -8,584902436e-02    2,975662006e-03   -6,833736598e-02    6,159058213e-01    0,000000000e+00    0,000000000e+00    0,000000000e+00    0,000000000e+00
      674000000   -3,993659839e-02    1,117609441e-02    2,883466780e-01    5,581826568e-01    0,000000000e+00    0,000000000e+00    0,000000000e+00    0,000000000e+00
      688000000   -1,716642827e-02   -9,930761531e-03    5,437492132e-01    3,105111122e-01    0,000000000e+00    0,000000000e+00    0,000000000e+00    0,000000000e+00
      702000000   -1,018665452e-02   -2,951716445e-02    6,201040149e-01   -3,750770539e-02    0,000000000e+00    0,000000000e+00    0,000000000e+00    0,000000000e+00
      716000000   -4,854391795e-03   -4,684454948e-02    4,956768453e-01   -3,651964366e-01    0,000000000e+00    0,000000000e+00    0,000000000e+00    0,000000000e+00
      730000000   -3,530139104e-03   -7,613167912e-02    2,154339403e-01   -5,671731830e-01    0,000000000e+00    0,000000000e+00    0,000000000e+00    0,000000000e+00
      744000000   -2,411326393e-02   -1,144273952e-01   -1,211512387e-01   -5,902304649e-01    0,000000000e+00    0,000000000e+00    0,000000000e+00    0,000000000e+00
      758000000   -7,674137503e-02   -1,358047426e-01   -4,192743301e-01   -4,369503260e-01    0,000000000e+00    0,000000000e+00    0,000000000e+00    0,000000000e+00
      772000000   -1,379205137e-01   -1,165398285e-01   -5,970190167e-01   -1,428489834e-01    0,000000000e+00    0,000000000e+00    0,000000000e+00    0,000000000e+00
      786000000   -1,743942350e-01   -5,763325468e-02   -5,849604011e-01    2,100647986e-01    0,000000000e+00    0,000000000e+00    0,000000000e+00    0,000000000e+00
      800000000   -1,597607583e-01    9,703152813e-03   -3,755054474e-01    4,983053803e-01    0,000000000e+00    0,000000000e+00    0,000000000e+00    0,000000000e+00
      814000000   -1,130015627e-01    4,536566511e-02   -4,531359673e-02    6,175718307e-01    0,000000000e+00    0,000000000e+00    0,000000000e+00    0,000000000e+00
      828000000   -6,512039155e-02    4,352951795e-02    2,877191901e-01    5,413553715e-01    0,000000000e+00    0,000000000e+00    0,000000000e+00    0,000000000e+00
      842000000   -3,597653285e-02    2,611958422e-02    5,220991373e-01    3,053521812e-01    0,000000000e+00    0,000000000e+00    0,000000000e+00    0,000000000e+00
      856000000   -1,786318235e-02    8,353743702e-03    5,962486863e-01   -1,497088652e-02    0,000000000e+00    0,000000000e+00    0,000000000e+00    0,000000000e+00
      870000000   -6,408881745e-04   -1,382318791e-02    4,872356355e-01   -3,195275962e-01    0,000000000e+00    0,000000000e+00    0,000000000e+00    0,000000000e+00
      884000000    9,127700701e-03   -5,086907744e-02    2,417665869e-01   -5,146367550e-01    0,000000000e+00    0,000000000e+00    0,000000000e+00    0,000000000e+00
      898000000   -6,885400508e-03   -9,847219288e-02   -6,090737879e-02   -5,551725030e-01    0,000000000e+00    0,000000000e+00    0,000000000e+00    0,000000000e+00
      912000000   -6,245493144e-02   -1,282167435e-01   -3,862707317e-01   -4,120645523e-01    0,000000000e+00    0,000000000e+00    0,000000000e+00    0,000000000e+00
      926000000   -1,228916273e-01   -1,176261902e-01   -5,675825477e-01   -1,478904933e-01    0,000000000e+00    0,000000000e+00    0,000000000e+00    0,000000000e+00
      940000000   -1,588632166e-01   -6,288888305e-02   -5,668838620e-01    1,947895736e-01    0,000000000e+00    0,000000000e+00    0,000000000e+00    0,000000000e+00
      954000000   -1,472025812e-01   -4,423235077e-03   -3,733761907e-01    4,821409583e-01    0,000000000e+00    0,000000000e+00    0,000000000e+00    0,000000000e+00
      968000000   -9,767622501e-02    2,001242153e-02   -5,346660316e-02    6,126974821e-01    0,000000000e+00    0,000000000e+00    0,000000000e+00    0,000000000e+00
      982000000   -5,904523283e-02    5,706812721e-03    2,819574773e-01    5,527419448e-01    0,000000000e+00    0,000000000e+00    0,000000000e+00    0,000000000e+00
      996000000   -4,731075838e-02   -3,271209076e-02    5,234632492e-01    3,298202157e-01    0,000000000e+00    0,000000000e+00    0,000000000e+00    0,000000000e+00
     1010000000   -6,112458929e-02   -5,849108100e-02    6,109545827e-01    1,354929339e-02    0,000000000e+00    0,000000000e+00    0,000000000e+00    0,000000000e+00
     1024000000   -9,561645985e-02   -7,250672579e-02    5,200239420e-01   -2,846085131e-01    0,000000000e+00    0,000000000e+00    0,000000000e+00    0,000000000e+00
     1038000000   -1,325432658e-01   -5,530729145e-02    2,960669994e-01   -4,783092141e-01    0,000000000e+00    0,000000000e+00    0,000000000e+00    0,000000000e+00
     1052000000   -1,474537253e-01   -1,279503759e-02    2,666766755e-02   -5,310847759e-01    0,000000000e+00    0,000000000e+00    0,000000000e+00    0,000000000e+00
     1066000000   -1,136756167e-01    3,049040027e-02   -2,242498696e-01   -4,607699215e-01    0,000000000e+00    0,000000000e+00    0,000000000e+00    0,000000000e+00
     1080000000   -6,612262875e-02    2,992632054e-02   -4,186058640e-01   -2,838881910e-01    0,000000000e+00    0,000000000e+00    0,000000000e+00    0,000000000e+00
     1094000000   -3,869772330e-02    5,217896774e-03   -5,090234280e-01   -1,406271383e-02    0,000000000e+00    0,000000000e+00    0,000000000e+00    0,000000000e+00
     1108000000   -2,600614540e-02   -2,769799717e-02   -4,304181933e-01    2,813131213e-01    0,000000000e+00    0,000000000e+00    0,000000000e+00    0,000000000e+00
     1122000000   -2,592385188e-02   -5,760914832e-02   -1,850734502e-01    4,832598567e-01    0,000000000e+00    0,000000000e+00    0,000000000e+00    0,000000000e+00
     1136000000   -3,668248281e-02   -9,727843106e-02    1,468251199e-01    5,148760080e-01    0,000000000e+00    0,000000000e+00    0,000000000e+00    0,000000000e+00
     1150000000   -8,342452347e-02   -1,254731268e-01    4,440498650e-01    3,415001929e-01    0,000000000e+00    0,000000000e+00    0,000000000e+00    0,000000000e+00
     1164000000   -1,462390125e-01   -1,274217963e-01    6,050609946e-01    1,607490331e-02    0,000000000e+00    0,000000000e+00    0,000000000e+00    0,000000000e+00
     1178000000   -1,830097437e-01   -8,983193338e-02    5,378372073e-01   -3,657445908e-01    0,000000000e+00    0,000000000e+00    0,000000000e+00    0,000000000e+00
     1192000000   -1,856829375e-01   -5,695144087e-02    2,468316704e-01   -6,330727935e-01    0,000000000e+00    0,000000000e+00    0,000000000e+00    0,000000000e+00
     1206000000   -1,877297759e-01   -5,196979269e-02   -1,288787127e-01   -6,658730507e-01    0,000000000e+00    0,000000000e+00    0,000000000e+00    0,000000000e+00
     1220000000   -2,431522161e-01   -1,259286515e-02   -4,204333425e-01   -4,877609313e-01    0,000000000e+00    0,000000000e+00    0,000000000e+00    0,000000000e+00
     1234000000   -2,411470860e-01    1,138103679e-01   -5,619987249e-01   -2,480591983e-01    0,000000000e+00    0,000000000e+00    0,000000000e+00    0,000000000e+00
     1248000000   -1,153528616e-01    1,691794395e-01   -6,027672291e-01    2,456160262e-02    0,000000000e+00    0,000000000e+00    0,000000000e+00    0,000000000e+00
     1262000000   -5,581871141e-03    1,302603036e-01   -5,074036121e-01    2,947850227e-01    0,000000000e+00    0,000000000e+00    0,000000000e+00    0,000000000e+00
     1276000000    6,610504538e-02    4,264773801e-02   -2,782571018e-01    4,862960279e-01    0,000000000e+00    0,000000000e+00    0,000000000e+00    0,000000000e+00
     1290000000    6,898231059e-02   -7,099704444e-02    6,049110554e-03    5,431336761e-01    0,000000000e+00    0,000000000e+00    0,000000000e+00    0,000000000e+00
     1304000000    1,956108585e-02   -1,852651089e-01    2,979852259e-01    4,750466943e-01    0,000000000e+00    0,000000000e+00    0,000000000e+00    0,000000000e+00
     1318000000   -9,178134054e-02   -2,584627271e-01    5,358477831e-01    2,700961530e-01    0,000000000e+00    0,000000000e+00    0,000000000e+00    0,000000000e+00
     1332000000   -2,380823046e-01   -2,488903403e-01    6,489728093e-01   -5,668948963e-02    0,000000000e+00    0,000000000e+00    0,000000000e+00    0,000000000e+00
     1346000000   -3,640922606e-01   -1,440342367e-01    5,528201461e-01   -4,010535181e-01    0,000000000e+00    0,000000000e+00    0,000000000e+00    0,000000000e+00
     1360000000   -3,896998167e-01    1,131671946e-02    2,494532764e-01   -6,371700764e-01    0,000000000e+00    0,000000000e+00    0,000000000e+00    0,000000000e+00
     1374000000   -3,304363787e-01    1,240179837e-01   -1,136186346e-01   -6,219319701e-01    0,000000000e+00    0,000000000e+00    0,000000000e+00    0,000000000e+00
     1388000000   -2,424980402e-01    1,727020591e-01   -3,772022426e-01   -4,120315015e-01    0,000000000e+00    0,000000000e+00    0,000000000e+00    0,000000000e+00
     1402000000   -1,552974135e-01    1,753205657e-01   -4,783471227e-01   -1,072088182e-01    0,000000000e+00    0,000000000e+00    0,000000000e+00    0,000000000e+00
     1416000000   -8,108548075e-02    1,466286629e-01   -3,920849264e-01    2,046898603e-01    0,000000000e+00    0,000000000e+00    0,000000000e+00    0,000000000e+00
     1430000000   -3,151758760e-02    8,773284405e-02   -1,668789238e-01    4,473535717e-01    0,000000000e+00    0,000000000e+00    0,000000000e+00    0,000000000e+00
     1444000000   -1,172913238e-02    3,995720297e-03    1,276507378e-01    5,268355012e-01    0,000000000e+00    0,000000000e+00    0,000000000e+00    0,000000000e+00
     1458000000   -3,835828602e-02   -8,822657168e-02    4,374550283e-01    4,817427695e-01    0,000000000e+00    0,000000000e+00    0,000000000e+00    0,000000000e+00
     1472000000   -1,303534955e-01   -1,469877958e-01    7,274838686e-01    3,137995303e-01    0,000000000e+00    0,000000000e+00    0,000000000e+00    0,000000000e+00
     1486000000   -2,370256931e-01   -1,459779590e-01    8,998299241e-01   -3,815327585e-02    0,000000000e+00    0,000000000e+00    0,000000000e+00    0,000000000e+00
     1500000000   -3,088753223e-01   -6,164069846e-02    8,443925977e-01   -4,191515744e-01    0,000000000e+00    0,000000000e+00    0,000000000e+00    0,000000000e+00
