! NanoVNA-App
! Date: 2025-09-25 15:01:11
! Start: 100MHz Stop: 1,5GHz Points: 101
! S-Parameter data: F S11 S21 S12 S22
# Hz S RI R 50
!     Frequency           S11_Real           S11_Imag           S21_Real           S21_Imag           S12_Real           S12_Imag           S22_Real           S22_Imag
      100000000    3,557558730e-02    2,735615708e-02    4,407758117e-01   -6,695458293e-01    0,000000000e+00    0,000000000e+00    0,000000000e+00    0,000000000e+00
      114000000    6,069533527e-02    2,184787299e-03    1,283556223e-02   -7,954044938e-01    0,000000000e+00    0,000000000e+00    0,000000000e+00    0,000000000e+00
      128000000    6,835754961e-02   -4,229518026e-02   -4,083027840e-01   -6,781487465e-01    0,000000000e+00    0,000000000e+00    0,000000000e+00    0,000000000e+00
      142000000    4,350776598e-02   -8,883938938e-02   -7,052778006e-01   -3,608456254e-01    0,000000000e+00    0,000000000e+00    0,000000000e+00    0,000000000e+00
      156000000   -9,560584091e-03   -1,093972102e-01   -7,928705215e-01    6,688120961e-02    0,000000000e+00    0,000000000e+00    0,000000000e+00    0,000000000e+00
      170000000   -6,273403764e-02   -9,182136506e-02   -6,370955706e-01    4,865492582e-01    0,000000000e+00    0,000000000e+00    0,000000000e+00    0,000000000e+00
      184000000   -8,856786788e-02   -4,769452661e-02   -2,733708024e-01    7,561666369e-01    0,000000000e+00    0,000000000e+00    0,000000000e+00    0,000000000e+00
      198000000   -8,275364339e-02   -6,425378844e-03    1,796203703e-01    7,822610140e-01    0,000000000e+00    0,000000000e+00    0,000000000e+00    0,000000000e+00
      212000000   -6,273887306e-02    1,800418645e-02    5,708145499e-01    5,583139062e-01    0,000000000e+00    0,000000000e+00    0,000000000e+00    0,000000000e+00
      226000000   -4,148213938e-02    3,188080713e-02    7,767767906e-01    1,618874818e-01    0,000000000e+00    0,000000000e+00    0,000000000e+00    0,000000000e+00
      240000000   -1,491187792e-02    4,129707441e-02    7,360161543e-01   -2,785871625e-01    0,000000000e+00    0,000000000e+00    0,000000000e+00    0,000000000e+00
      254000000    2,137269825e-02    3,630340472e-02    4,676963687e-01   -6,218558550e-01    0,000000000e+00    0,000000000e+00    0,000000000e+00    0,000000000e+00
      268000000    5,331179500e-02    4,728455096e-03    6,667228788e-02   -7,668481469e-01    0,000000000e+00    0,000000000e+00    0,000000000e+00    0,000000000e+00
      282000000    5,751745030e-02   -4,491998255e-02   -3,452009559e-01   -6,822436452e-01    0,000000000e+00    0,000000000e+00    0,000000000e+00    0,000000000e+00
      296000000    2,627481520e-02   -8,471843600e-02   -6,552379131e-01   -3,981147110e-01    0,000000000e+00    0,000000000e+00    0,000000000e+00    0,000000000e+00
      310000000   -1,891988888e-02   -8,949454874e-02   -7,735319138e-01    9,668457322e-03    0,000000000e+00    0,000000000e+00    0,000000000e+00    0,000000000e+00
      324000000   -4,659151658e-02   -6,359042972e-02   -6,481982470e-01    4,300388098e-01    0,000000000e+00    0,000000000e+00    0,000000000e+00    0,000000000e+00
      338000000   -4,106469825e-02   -3,795004264e-02   -3,107164502e-01    7,108228803e-01    0,000000000e+00    0,000000000e+00    0,000000000e+00    0,000000000e+00
      352000000   -2,354965545e-02   -3,758181259e-02    1,184849218e-01    7,581256628e-01    0,000000000e+00    0,000000000e+00    0,000000000e+00    0,000000000e+00
      366000000   -2,290884405e-02   -5,601179600e-02    5,025644898e-01    5,707548261e-01    0,000000000e+00    0,000000000e+00    0,000000000e+00    0,000000000e+00
      380000000   -4,479800165e-02   -6,512377411e-02    7,262987494e-01    2,115553021e-01    0,000000000e+00    0,000000000e+00    0,000000000e+00    0,000000000e+00
      394000000   -6,638900191e-02   -5,042646453e-02    7,228913903e-01   -2,132618874e-01    0,000000000e+00    0,000000000e+00    0,000000000e+00    0,000000000e+00
      408000000   -6,730461121e-02   -2,631371655e-02    4,900413454e-01   -5,690534711e-01    0,000000000e+00    0,000000000e+00    0,000000000e+00    0,000000000e+00
      422000000   -5,330123007e-02   -1,515404414e-02    1,054880768e-01   -7,382345200e-01    0,000000000e+00    0,000000000e+00    0,000000000e+00    0,000000000e+00
      436000000   -4,638642445e-02   -1,878808253e-02   -3,060283661e-01   -6,762464643e-01    0,000000000e+00    0,000000000e+00    0,000000000e+00    0,000000000e+00
      450000000   -5,182643980e-02   -1,525052451e-02   -6,188333035e-01   -4,000497162e-01    0,000000000e+00    0,000000000e+00    0,000000000e+00    0,000000000e+00
      464000000   -5,044937506e-02    5,729567725e-03   -7,302644253e-01    3,407825949e-03    0,000000000e+00    0,000000000e+00    0,000000000e+00    0,000000000e+00
      478000000   -2,033862099e-02    2,659277059e-02   -5,985831022e-01    3,972635567e-01    0,000000000e+00    0,000000000e+00    0,000000000e+00    0,000000000e+00
      492000000    2,833721787e-02    1,444194186e-02   -2,800942361e-01    6,444500685e-01    0,000000000e+00    0,000000000e+00    0,000000000e+00    0,000000000e+00
      506000000    5,901060253e-02   -3,702466562e-02    1,053174585e-01    6,793190241e-01    0,000000000e+00    0,000000000e+00    0,000000000e+00    0,000000000e+00
      520000000    4,383523762e-02   -1,027879268e-01    4,423966110e-01    5,178804994e-01    0,000000000e+00    0,000000000e+00    0,000000000e+00    0,000000000e+00
      534000000   -1,260334719e-02   -1,437864900e-01    6,495917439e-01    2,060071677e-01    0,000000000e+00    0,000000000e+00    0,000000000e+00    0,000000000e+00
      548000000   -8,122295886e-02   -1,391056180e-01    6,599965692e-01   -1,752216667e-01    0,000000000e+00    0,000000000e+00    0,000000000e+00    0,000000000e+00
      562000000   -1,293805242e-01   -9,793636203e-02    4,523587525e-01   -5,082791448e-01    0,000000000e+00    0,000000000e+00    0,000000000e+00    0,000000000e+00
      576000000   -1,479214430e-01   -4,076417908e-02    8,467049897e-02   -6,624000669e-01    0,000000000e+00    0,000000000e+00    0,000000000e+00    0,000000000e+00
      590000000   -1,315935403e-01    2,375075035e-02   -2,956263423e-01   -5,689404011e-01    0,000000000e+00    0,000000000e+00    0,000000000e+00    0,000000000e+00
      604000000   -5,024993047e-02    6,953115016e-02   -5,022711158e-01   -2,726550698e-01    0,000000000e+00    0,000000000e+00    0,000000000e+00    0,000000000e+00
      618000000    3,883937001e-02   -1,297383662e-02   -4,925556183e-01   -2,876679413e-02    0,000000000e+00    0,000000000e+00    0,000000000e+00    0,000000000e+00
      632000000   -3,840522468e-02   -9,832540154e-02   -5,083612204e-01    1,730460972e-01    0,000000000e+00    0,000000000e+00    0,000000000e+00    0,000000000e+00
      646000000   -1,012823656e-01   -4,356143996e-02   -3,796627522e-01    4,655822814e-01    0,000000000e+00    0,000000000e+00    0,000000000e+00    0,000000000e+00
      660000000   -7,463465631e-02    8,184240200e-03   -5,689608306e-02    6,235266924e-01    0,000000000e+00    0,000000000e+00    0,000000000e+00    0,000000000e+00
      674000000   -3,319236636e-02    6,970888469e-03    2,946236134e-01    5,544621944e-01    0,000000000e+00    0,000000000e+00    0,000000000e+00    0,000000000e+00
      688000000   -1,620146818e-02   -1,506662648e-02    5,461005569e-01    3,062002063e-01    0,000000000e+00    0,000000000e+00    0,000000000e+00    0,000000000e+00
      702000000   -1,212680154e-02   -3,229955956e-02    6,194785833e-01   -3,528603911e-02    0,000000000e+00    0,000000000e+00    0,000000000e+00    0,000000000e+00
      716000000   -8,063329384e-03   -4,860513657e-02    4,935507178e-01   -3,671441376e-01    0,000000000e+00    0,000000000e+00    0,000000000e+00    0,000000000e+00
      730000000   -5,405931734e-03   -7,614849508e-02    2,135247290e-01   -5,679824352e-01    0,000000000e+00    0,000000000e+00    0,000000000e+00    0,000000000e+00
      744000000   -2,491204254e-02   -1,122149751e-01   -1,230869070e-01   -5,885359049e-01    0,000000000e+00    0,000000000e+00    0,000000000e+00    0,000000000e+00
      758000000   -7,531035691e-02   -1,348520219e-01   -4,195220470e-01   -4,347131252e-01    0,000000000e+00    0,000000000e+00    0,000000000e+00    0,000000000e+00
      772000000   -1,371775270e-01   -1,159004569e-01   -5,948524475e-01   -1,413245201e-01    0,000000000e+00    0,000000000e+00    0,000000000e+00    0,000000000e+00
      786000000   -1,726297736e-01   -5,764557049e-02   -5,836744905e-01    2,091247439e-01    0,000000000e+00    0,000000000e+00    0,000000000e+00    0,000000000e+00
      800000000   -1,599550396e-01    8,629961871e-03   -3,739069104e-01    4,965963066e-01    0,000000000e+00    0,000000000e+00    0,000000000e+00    0,000000000e+00
      814000000   -1,133615673e-01    4,378720000e-02   -4,696778581e-02    6,159834862e-01    0,000000000e+00    0,000000000e+00    0,000000000e+00    0,000000000e+00
      828000000   -6,683867425e-02    4,381529987e-02    2,854058743e-01    5,409317017e-01    0,000000000e+00    0,000000000e+00    0,000000000e+00    0,000000000e+00
      842000000   -3,807888925e-02    2,756742202e-02    5,223927498e-01    3,066493273e-01    0,000000000e+00    0,000000000e+00    0,000000000e+00    0,000000000e+00
      856000000   -1,890631579e-02    1,094010472e-02    5,959324241e-01   -1,380351186e-02    0,000000000e+00    0,000000000e+00    0,000000000e+00    0,000000000e+00
      870000000    8,121965802e-04   -1,208043750e-02    4,872047603e-01   -3,180556893e-01    0,000000000e+00    0,000000000e+00    0,000000000e+00    0,000000000e+00
      884000000    1,237690914e-02   -5,114886165e-02    2,433615327e-01   -5,142440200e-01    0,000000000e+00    0,000000000e+00    0,000000000e+00    0,000000000e+00
      898000000   -4,691191949e-03   -9,965655208e-02   -6,045831367e-02   -5,557265282e-01    0,000000000e+00    0,000000000e+00    0,000000000e+00    0,000000000e+00
      912000000   -6,161175668e-02   -1,315635443e-01   -3,818782866e-01   -4,167804718e-01    0,000000000e+00    0,000000000e+00    0,000000000e+00    0,000000000e+00
      926000000   -1,252702028e-01   -1,203422472e-01   -5,664239526e-01   -1,491739303e-01    0,000000000e+00    0,000000000e+00    0,000000000e+00    0,000000000e+00
      940000000   -1,592249870e-01   -6,378921866e-02   -5,667647719e-01    1,943502575e-01    0,000000000e+00    0,000000000e+00    0,000000000e+00    0,000000000e+00
      954000000   -1,460279822e-01   -2,148396568e-03   -3,721503317e-01    4,844765961e-01    0,000000000e+00    0,000000000e+00    0,000000000e+00    0,000000000e+00
      968000000   -9,924657643e-02    2,122864686e-02   -4,805047438e-02    6,160039902e-01    0,000000000e+00    0,000000000e+00    0,000000000e+00    0,000000000e+00
      982000000   -5,776204541e-02    7,920352742e-03    2,836838961e-01    5,525772572e-01    0,000000000e+00    0,000000000e+00    0,000000000e+00    0,000000000e+00
      996000000   -4,119246453e-02   -3,114708699e-02    5,241585970e-01    3,265062869e-01    0,000000000e+00    0,000000000e+00    0,000000000e+00    0,000000000e+00
     1010000000   -6,246458367e-02   -6,774147600e-02    6,086441875e-01    1,431536581e-02    0,000000000e+00    0,000000000e+00    0,000000000e+00    0,000000000e+00
     1024000000   -1,014703736e-01   -7,519575953e-02    5,136479735e-01   -2,829425931e-01    0,000000000e+00    0,000000000e+00    0,000000000e+00    0,000000000e+00
     1038000000   -1,446879506e-01   -5,738211796e-02    2,936095595e-01   -4,704043865e-01    0,000000000e+00    0,000000000e+00    0,000000000e+00    0,000000000e+00
     1052000000   -1,497224867e-01    1,095642918e-03    3,664322942e-02   -5,245230794e-01    0,000000000e+00    0,000000000e+00    0,000000000e+00    0,000000000e+00
     1066000000   -1,055779234e-01    3,589023650e-02   -2,102050930e-01   -4,673928618e-01    0,000000000e+00    0,000000000e+00    0,000000000e+00    0,000000000e+00
     1080000000   -5,090237781e-02    2,550438419e-02   -4,196234941e-01   -2,985972464e-01    0,000000000e+00    0,000000000e+00    0,000000000e+00    0,000000000e+00
     1094000000   -3,706068546e-02   -8,459036238e-03   -5,198870897e-01   -2,089904621e-02    0,000000000e+00    0,000000000e+00    0,000000000e+00    0,000000000e+00
     1108000000   -3,206885979e-02   -3,546714783e-02   -4,401522577e-01    2,829290628e-01    0,000000000e+00    0,000000000e+00    0,000000000e+00    0,000000000e+00
     1122000000   -2,853851207e-02   -5,838168412e-02   -1,856941730e-01    4,974849224e-01    0,000000000e+00    0,000000000e+00    0,000000000e+00    0,000000000e+00
     1136000000   -4,076324031e-02   -9,145206213e-02    1,518178135e-01    5,208092928e-01    0,000000000e+00    0,000000000e+00    0,000000000e+00    0,000000000e+00
     1150000000   -8,178281039e-02   -1,216141954e-01    4,525272846e-01    3,422681689e-01    0,000000000e+00    0,000000000e+00    0,000000000e+00    0,000000000e+00
     1164000000   -1,401332766e-01   -1,194185838e-01    6,107904315e-01    8,069800213e-03    0,000000000e+00    0,000000000e+00    0,000000000e+00    0,000000000e+00
     1178000000   -1,790293753e-01   -8,539402485e-02    5,380044580e-01   -3,662307560e-01    0,000000000e+00    0,000000000e+00    0,000000000e+00    0,000000000e+00
     1192000000   -1,814963967e-01   -5,804758519e-02    2,403649539e-01   -6,337172389e-01    0,000000000e+00    0,000000000e+00    0,000000000e+00    0,000000000e+00
     1206000000   -1,931581050e-01   -5,190794542e-02   -1,353967935e-01   -6,597722173e-01    0,000000000e+00    0,000000000e+00    0,000000000e+00    0,000000000e+00
     1220000000   -2,515206039e-01   -1,281166542e-02   -4,147621095e-01   -4,852045476e-01    0,000000000e+00    0,000000000e+00    0,000000000e+00    0,000000000e+00
     1234000000   -2,451637834e-01    1,217099950e-01   -5,616546869e-01   -2,479067892e-01    0,000000000e+00    0,000000000e+00    0,000000000e+00    0,000000000e+00
     1248000000   -1,171343625e-01    1,735896766e-01   -6,089253426e-01    1,367936376e-02    0,000000000e+00    0,000000000e+00    0,000000000e+00    0,000000000e+00
     1262000000   -3,779911902e-03    1,345162541e-01   -5,053598285e-01    2,981089950e-01    0,000000000e+00    0,000000000e+00    0,000000000e+00    0,000000000e+00
     1276000000    6,220092624e-02    4,158680514e-02   -2,827937007e-01    4,914621413e-01    0,000000000e+00    0,000000000e+00    0,000000000e+00    0,000000000e+00
     1290000000    7,323112339e-02   -6,871664524e-02    8,408628404e-03    5,473704338e-01    0,000000000e+00    0,000000000e+00    0,000000000e+00    0,000000000e+00
     1304000000    2,107382752e-02   -1,832765639e-01    2,954584956e-01    4,751529396e-01    0,000000000e+00    0,000000000e+00    0,000000000e+00    0,000000000e+00
     1318000000   -9,208806604e-02   -2,538072765e-01    5,368352532e-01    2,759999037e-01    0,000000000e+00    0,000000000e+00    0,000000000e+00    0,000000000e+00
     1332000000   -2,475171238e-01   -2,462560534e-01    6,453384161e-01   -5,573601276e-02    0,000000000e+00    0,000000000e+00    0,000000000e+00    0,000000000e+00
     1346000000   -3,599623442e-01   -1,412626803e-01    5,562725663e-01   -4,121445715e-01    0,000000000e+00    0,000000000e+00    0,000000000e+00    0,000000000e+00
     1360000000   -3,838668168e-01    7,530404255e-03    2,676988542e-01   -6,329085231e-01    0,000000000e+00    0,000000000e+00    0,000000000e+00    0,000000000e+00
     1374000000   -3,256911337e-01    1,166780367e-01   -1,041947454e-01   -6,377749443e-01    0,000000000e+00    0,000000000e+00    0,000000000e+00    0,000000000e+00
     1388000000   -2,325665355e-01    1,728314012e-01   -3,670757413e-01   -4,203381240e-01    0,000000000e+00    0,000000000e+00    0,000000000e+00    0,000000000e+00
     1402000000   -1,560784876e-01    1,691799611e-01   -4,796821475e-01   -1,151267514e-01    0,000000000e+00    0,000000000e+00    0,000000000e+00    0,000000000e+00
     1416000000   -8,486826718e-02    1,422778666e-01   -3,915590644e-01    2,091882378e-01    0,000000000e+00    0,000000000e+00    0,000000000e+00    0,000000000e+00
     1430000000   -3,455709293e-02    8,624085784e-02   -1,856691688e-01    4,156614244e-01    0,000000000e+00    0,000000000e+00    0,000000000e+00    0,000000000e+00
     1444000000   -8,335850202e-03    3,052515676e-03    1,227918118e-01    5,219926238e-01    0,000000000e+00    0,000000000e+00    0,000000000e+00    0,000000000e+00
     1458000000   -3,950476274e-02   -8,306707442e-02    4,401726127e-01    5,003780127e-01    0,000000000e+00    0,000000000e+00    0,000000000e+00    0,000000000e+00
     1472000000   -1,213262901e-01   -1,531651616e-01    7,420279980e-01    3,027842939e-01    0,000000000e+00    0,000000000e+00    0,000000000e+00    0,000000000e+00
     1486000000   -2,299151719e-01   -1,433762610e-01    8,976130486e-01   -4,737414420e-02    0,000000000e+00    0,000000000e+00    0,000000000e+00    0,000000000e+00
     1500000000   -3,096635640e-01   -6,812495738e-02    8,283798695e-01   -4,295793176e-01    0,000000000e+00    0,000000000e+00    0,000000000e+00    0,000000000e+00
