! NanoVNA-App
! Date: 2025-09-25 14:57:37
! Start: 100MHz Stop: 1,5GHz Points: 101
! S-Parameter data: F S11 S21 S12 S22
# Hz S RI R 50
!     Frequency           S11_Real           S11_Imag           S21_Real           S21_Imag           S12_Real           S12_Imag           S22_Real           S22_Imag
      100000000    3,559722379e-02    2,734557167e-02    4,406553805e-01   -6,694733500e-01    0,000000000e+00    0,000000000e+00    0,000000000e+00    0,000000000e+00
      114000000    6,073044986e-02    2,192741958e-03    1,287846453e-02   -7,953380942e-01    0,000000000e+00    0,000000000e+00    0,000000000e+00    0,000000000e+00
      128000000    6,837046146e-02   -4,221251979e-02   -4,082864523e-01   -6,782006025e-01    0,000000000e+00    0,000000000e+00    0,000000000e+00    0,000000000e+00
      142000000    4,348813370e-02   -8,876273036e-02   -7,050898671e-01   -3,609522879e-01    0,000000000e+00    0,000000000e+00    0,000000000e+00    0,000000000e+00
      156000000   -8,960840292e-03   -1,104640588e-01   -7,934938073e-01    6,852409989e-02    0,000000000e+00    0,000000000e+00    0,000000000e+00    0,000000000e+00
      170000000   -6,259164959e-02   -9,173178673e-02   -6,367687583e-01    4,862781465e-01    0,000000000e+00    0,000000000e+00    0,000000000e+00    0,000000000e+00
      184000000   -8,858046681e-02   -4,765273631e-02   -2,730654180e-01    7,562868595e-01    0,000000000e+00    0,000000000e+00    0,000000000e+00    0,000000000e+00
      198000000   -8,273876458e-02   -6,393085234e-03    1,793652475e-01    7,818111181e-01    0,000000000e+00    0,000000000e+00    0,000000000e+00    0,000000000e+00
      212000000   -6,270361692e-02    1,804375276e-02    5,708463192e-01    5,585960150e-01    0,000000000e+00    0,000000000e+00    0,000000000e+00    0,000000000e+00
      226000000   -4,146661982e-02    3,192358091e-02    7,765545249e-01    1,618742645e-01    0,000000000e+00    0,000000000e+00    0,000000000e+00    0,000000000e+00
      240000000   -1,484496985e-02    4,133572802e-02    7,360095382e-01   -2,786631584e-01    0,000000000e+00    0,000000000e+00    0,000000000e+00    0,000000000e+00
      254000000    2,149633691e-02    3,627739847e-02    4,679126441e-01   -6,219584942e-01    0,000000000e+00    0,000000000e+00    0,000000000e+00    0,000000000e+00
      268000000    5,340556428e-02    4,660679959e-03    6,711038202e-02   -7,672046423e-01    0,000000000e+00    0,000000000e+00    0,000000000e+00    0,000000000e+00
      282000000    5,743987113e-02   -4,498709738e-02   -3,456066549e-01   -6,827703714e-01    0,000000000e+00    0,000000000e+00    0,000000000e+00    0,000000000e+00
      296000000    2,607189864e-02   -8,473405987e-02   -6,552320719e-01   -3,978375494e-01    0,000000000e+00    0,000000000e+00    0,000000000e+00    0,000000000e+00
      310000000   -1,892012171e-02   -8,962061256e-02   -7,743171453e-01    1,171360444e-02    0,000000000e+00    0,000000000e+00    0,000000000e+00    0,000000000e+00
      324000000   -4,661178216e-02   -6,361899525e-02   -6,477979422e-01    4,293284118e-01    0,000000000e+00    0,000000000e+00    0,000000000e+00    0,000000000e+00
      338000000   -4,123306274e-02   -3,779177368e-02   -3,128609359e-01    7,087846994e-01    0,000000000e+00    0,000000000e+00    0,000000000e+00    0,000000000e+00
      352000000   -2,342070453e-02   -3,802129626e-02    1,193811968e-01    7,578362823e-01    0,000000000e+00    0,000000000e+00    0,000000000e+00    0,000000000e+00
      366000000   -2,304181084e-02   -5,610354990e-02    5,020534396e-01    5,711332560e-01    0,000000000e+00    0,000000000e+00    0,000000000e+00    0,000000000e+00
      380000000   -4,450623319e-02   -6,490083784e-02    7,264453173e-01    2,117650211e-01    0,000000000e+00    0,000000000e+00    0,000000000e+00    0,000000000e+00
      394000000   -6,612777710e-02   -5,030147731e-02    7,232447863e-01   -2,131137252e-01    0,000000000e+00    0,000000000e+00    0,000000000e+00    0,000000000e+00
      408000000   -6,722067297e-02   -2,598066069e-02    4,904418886e-01   -5,673095584e-01    0,000000000e+00    0,000000000e+00    0,000000000e+00    0,000000000e+00
      422000000   -5,287865922e-02   -1,527146623e-02    1,054488346e-01   -7,382415533e-01    0,000000000e+00    0,000000000e+00    0,000000000e+00    0,000000000e+00
      436000000   -4,595049098e-02   -1,872853749e-02   -3,054611385e-01   -6,759349108e-01    0,000000000e+00    0,000000000e+00    0,000000000e+00    0,000000000e+00
      450000000   -5,214435235e-02   -1,586950570e-02   -6,184231639e-01   -4,008566737e-01    0,000000000e+00    0,000000000e+00    0,000000000e+00    0,000000000e+00
      464000000   -5,037852749e-02    5,418649409e-03   -7,297676206e-01    3,221824998e-03    0,000000000e+00    0,000000000e+00    0,000000000e+00    0,000000000e+00
      478000000   -2,130593359e-02    2,587099001e-02   -5,993200541e-01    3,961642683e-01    0,000000000e+00    0,000000000e+00    0,000000000e+00    0,000000000e+00
      492000000    2,750215679e-02    1,485459786e-02   -2,808723748e-01    6,438180804e-01    0,000000000e+00    0,000000000e+00    0,000000000e+00    0,000000000e+00
      506000000    5,800047889e-02   -3,649392724e-02    1,038408577e-01    6,806915998e-01    0,000000000e+00    0,000000000e+00    0,000000000e+00    0,000000000e+00
      520000000    4,364296421e-02   -1,011180952e-01    4,405795932e-01    5,178582668e-01    0,000000000e+00    0,000000000e+00    0,000000000e+00    0,000000000e+00
      534000000   -1,189761143e-02   -1,421119720e-01    6,498984694e-01    2,073392719e-01    0,000000000e+00    0,000000000e+00    0,000000000e+00    0,000000000e+00
      548000000   -7,945794612e-02   -1,379012764e-01    6,611956954e-01   -1,740137488e-01    0,000000000e+00    0,000000000e+00    0,000000000e+00    0,000000000e+00
      562000000   -1,258224994e-01   -9,897281229e-02    4,555454254e-01   -5,069318414e-01    0,000000000e+00    0,000000000e+00    0,000000000e+00    0,000000000e+00
      576000000   -1,435027421e-01   -4,618168622e-02    8,973924816e-02   -6,656548977e-01    0,000000000e+00    0,000000000e+00    0,000000000e+00    0,000000000e+00
      590000000   -1,348812431e-01    1,209319849e-02   -2,938263416e-01   -5,847407579e-01    0,000000000e+00    0,000000000e+00    0,000000000e+00    0,000000000e+00
      604000000   -7,374695688e-02    6,730037183e-02   -5,275792480e-01   -2,805740535e-01    0,000000000e+00    0,000000000e+00    0,000000000e+00    0,000000000e+00
      618000000    3,729524463e-02    2,609638497e-02   -5,021619201e-01    1,556773763e-02    0,000000000e+00    0,000000000e+00    0,000000000e+00    0,000000000e+00
      632000000   -1,161465072e-03   -1,043901742e-01   -4,644457996e-01    1,716423929e-01    0,000000000e+00    0,000000000e+00    0,000000000e+00    0,000000000e+00
      646000000   -1,034503952e-01   -6,838683784e-02   -3,802090287e-01    4,386831522e-01    0,000000000e+00    0,000000000e+00    0,000000000e+00    0,000000000e+00
      660000000   -8,886487782e-02    3,545153420e-03   -7,115019858e-02    6,161731482e-01    0,000000000e+00    0,000000000e+00    0,000000000e+00    0,000000000e+00
      674000000   -4,053358361e-02    1,227461547e-02    2,864339054e-01    5,584778786e-01    0,000000000e+00    0,000000000e+00    0,000000000e+00    0,000000000e+00
      688000000   -1,595041715e-02   -8,802938275e-03    5,431909561e-01    3,115489781e-01    0,000000000e+00    0,000000000e+00    0,000000000e+00    0,000000000e+00
      702000000   -1,069238689e-02   -2,922378667e-02    6,247639656e-01   -3,553818539e-02    0,000000000e+00    0,000000000e+00    0,000000000e+00    0,000000000e+00
      716000000   -4,550779704e-03   -4,803464934e-02    4,963286221e-01   -3,653959036e-01    0,000000000e+00    0,000000000e+00    0,000000000e+00    0,000000000e+00
      730000000   -2,541090827e-03   -7,716537267e-02    2,171242982e-01   -5,686057210e-01    0,000000000e+00    0,000000000e+00    0,000000000e+00    0,000000000e+00
      744000000   -2,375540510e-02   -1,149748340e-01   -1,209127158e-01   -5,910851955e-01    0,000000000e+00    0,000000000e+00    0,000000000e+00    0,000000000e+00
      758000000   -7,649430633e-02   -1,369566470e-01   -4,190393686e-01   -4,382499456e-01    0,000000000e+00    0,000000000e+00    0,000000000e+00    0,000000000e+00
      772000000   -1,390101612e-01   -1,178282574e-01   -5,973318815e-01   -1,438143700e-01    0,000000000e+00    0,000000000e+00    0,000000000e+00    0,000000000e+00
      786000000   -1,756727546e-01   -5,626659468e-02   -5,857408047e-01    2,097142488e-01    0,000000000e+00    0,000000000e+00    0,000000000e+00    0,000000000e+00
      800000000   -1,600937843e-01    1,027035899e-02   -3,764746487e-01    4,983555079e-01    0,000000000e+00    0,000000000e+00    0,000000000e+00    0,000000000e+00
      814000000   -1,126489118e-01    4,566096887e-02   -4,535410181e-02    6,172500849e-01    0,000000000e+00    0,000000000e+00    0,000000000e+00    0,000000000e+00
      828000000   -6,461434811e-02    4,490587860e-02    2,857964635e-01    5,434522629e-01    0,000000000e+00    0,000000000e+00    0,000000000e+00    0,000000000e+00
      842000000   -3,639350832e-02    2,675732598e-02    5,231003761e-01    3,059285283e-01    0,000000000e+00    0,000000000e+00    0,000000000e+00    0,000000000e+00
      856000000   -1,796121337e-02    7,995550521e-03    5,969066024e-01   -1,431281120e-02    0,000000000e+00    0,000000000e+00    0,000000000e+00    0,000000000e+00
      870000000   -1,326540718e-03   -1,438026037e-02    4,885453582e-01   -3,188579082e-01    0,000000000e+00    0,000000000e+00    0,000000000e+00    0,000000000e+00
      884000000    9,109094739e-03   -5,167338625e-02    2,427290529e-01   -5,162512064e-01    0,000000000e+00    0,000000000e+00    0,000000000e+00    0,000000000e+00
      898000000   -6,781955715e-03   -9,802524000e-02   -6,004409119e-02   -5,544112325e-01    0,000000000e+00    0,000000000e+00    0,000000000e+00    0,000000000e+00
      912000000   -6,210464612e-02   -1,289732307e-01   -3,896577060e-01   -4,274336100e-01    0,000000000e+00    0,000000000e+00    0,000000000e+00    0,000000000e+00
      926000000   -1,244884059e-01   -1,159299761e-01   -5,694310069e-01   -1,467463374e-01    0,000000000e+00    0,000000000e+00    0,000000000e+00    0,000000000e+00
      940000000   -1,606516093e-01   -6,504052132e-02   -5,694216490e-01    1,925828159e-01    0,000000000e+00    0,000000000e+00    0,000000000e+00    0,000000000e+00
      954000000   -1,439792514e-01   -4,054522607e-03   -3,720498085e-01    4,850467145e-01    0,000000000e+00    0,000000000e+00    0,000000000e+00    0,000000000e+00
      968000000   -9,934825450e-02    1,688108407e-02   -4,979263619e-02    6,135497093e-01    0,000000000e+00    0,000000000e+00    0,000000000e+00    0,000000000e+00
      982000000   -5,814846605e-02    1,696425374e-03    2,819677591e-01    5,515328050e-01    0,000000000e+00    0,000000000e+00    0,000000000e+00    0,000000000e+00
      996000000   -5,021025240e-02   -3,046766855e-02    5,274732709e-01    3,287735879e-01    0,000000000e+00    0,000000000e+00    0,000000000e+00    0,000000000e+00
     1010000000   -6,177326664e-02   -5,863524601e-02    6,090868115e-01    1,550200768e-02    0,000000000e+00    0,000000000e+00    0,000000000e+00    0,000000000e+00
     1024000000   -9,623640031e-02   -6,863204390e-02    5,157909393e-01   -2,821344435e-01    0,000000000e+00    0,000000000e+00    0,000000000e+00    0,000000000e+00
     1038000000   -1,337829232e-01   -5,423158780e-02    2,947643697e-01   -4,750885367e-01    0,000000000e+00    0,000000000e+00    0,000000000e+00    0,000000000e+00
     1052000000   -1,466082335e-01   -7,352872752e-03    3,094148822e-02   -5,288621783e-01    0,000000000e+00    0,000000000e+00    0,000000000e+00    0,000000000e+00
     1066000000   -1,166564748e-01    3,239642084e-02   -2,190658897e-01   -4,674543738e-01    0,000000000e+00    0,000000000e+00    0,000000000e+00    0,000000000e+00
     1080000000   -6,604406238e-02    2,768642828e-02   -4,215177298e-01   -2,890650034e-01    0,000000000e+00    0,000000000e+00    0,000000000e+00    0,000000000e+00
     1094000000   -3,684171662e-02   -6,303042028e-05   -5,129767060e-01   -1,619692519e-02    0,000000000e+00    0,000000000e+00    0,000000000e+00    0,000000000e+00
     1108000000   -2,606674656e-02   -2,250855789e-02   -4,322927892e-01    2,827108204e-01    0,000000000e+00    0,000000000e+00    0,000000000e+00    0,000000000e+00
     1122000000   -2,148711123e-02   -5,717206374e-02   -1,821212471e-01    4,867064655e-01    0,000000000e+00    0,000000000e+00    0,000000000e+00    0,000000000e+00
     1136000000   -4,316364601e-02   -9,827430546e-02    1,477698684e-01    5,137059093e-01    0,000000000e+00    0,000000000e+00    0,000000000e+00    0,000000000e+00
     1150000000   -8,250582963e-02   -1,250534207e-01    4,460720718e-01    3,420055211e-01    0,000000000e+00    0,000000000e+00    0,000000000e+00    0,000000000e+00
     1164000000   -1,375157386e-01   -1,263931394e-01    6,056528687e-01    1,488115545e-02    0,000000000e+00    0,000000000e+00    0,000000000e+00    0,000000000e+00
     1178000000   -1,820969880e-01   -8,981212229e-02    5,363695621e-01   -3,636824489e-01    0,000000000e+00    0,000000000e+00    0,000000000e+00    0,000000000e+00
     1192000000   -1,831909567e-01   -4,871603847e-02    2,437643707e-01   -6,343578696e-01    0,000000000e+00    0,000000000e+00    0,000000000e+00    0,000000000e+00
     1206000000   -1,926485449e-01   -5,101030692e-02   -1,379016787e-01   -6,588941216e-01    0,000000000e+00    0,000000000e+00    0,000000000e+00    0,000000000e+00
     1220000000   -2,478689253e-01   -1,106286608e-02   -4,198397696e-01   -4,887206554e-01    0,000000000e+00    0,000000000e+00    0,000000000e+00    0,000000000e+00
     1234000000   -2,430769354e-01    1,096200496e-01   -5,605332851e-01   -2,533149421e-01    0,000000000e+00    0,000000000e+00    0,000000000e+00    0,000000000e+00
     1248000000   -1,149844080e-01    1,728119552e-01   -6,002353430e-01    2,237141691e-02    0,000000000e+00    0,000000000e+00    0,000000000e+00    0,000000000e+00
     1262000000   -3,283336293e-03    1,341335624e-01   -5,077692866e-01    2,975683510e-01    0,000000000e+00    0,000000000e+00    0,000000000e+00    0,000000000e+00
     1276000000    5,897000805e-02    4,261856526e-02   -2,799066901e-01    4,842359722e-01    0,000000000e+00    0,000000000e+00    0,000000000e+00    0,000000000e+00
     1290000000    7,448155433e-02   -6,798455864e-02    1,157309208e-02    5,521160364e-01    0,000000000e+00    0,000000000e+00    0,000000000e+00    0,000000000e+00
     1304000000    2,351771295e-02   -1,792752892e-01    3,014785647e-01    4,788307846e-01    0,000000000e+00    0,000000000e+00    0,000000000e+00    0,000000000e+00
     1318000000   -9,188020229e-02   -2,531104088e-01    5,409090519e-01    2,704696357e-01    0,000000000e+00    0,000000000e+00    0,000000000e+00    0,000000000e+00
     1332000000   -2,409672737e-01   -2,405043393e-01    6,520320177e-01   -4,912787676e-02    0,000000000e+00    0,000000000e+00    0,000000000e+00    0,000000000e+00
     1346000000   -3,614300489e-01   -1,404251307e-01    5,556426644e-01   -4,086474180e-01    0,000000000e+00    0,000000000e+00    0,000000000e+00    0,000000000e+00
     1360000000   -3,874310255e-01    5,092060659e-03    2,604444325e-01   -6,286132336e-01    0,000000000e+00    0,000000000e+00    0,000000000e+00    0,000000000e+00
     1374000000   -3,252965808e-01    1,202534884e-01   -1,044611037e-01   -6,151522994e-01    0,000000000e+00    0,000000000e+00    0,000000000e+00    0,000000000e+00
     1388000000   -2,351422310e-01    1,697125286e-01   -3,771494329e-01   -4,158129990e-01    0,000000000e+00    0,000000000e+00    0,000000000e+00    0,000000000e+00
     1402000000   -1,524392962e-01    1,711978316e-01   -4,674153626e-01   -1,009930000e-01    0,000000000e+00    0,000000000e+00    0,000000000e+00    0,000000000e+00
     1416000000   -8,582383394e-02    1,460755467e-01   -3,957855105e-01    2,031341642e-01    0,000000000e+00    0,000000000e+00    0,000000000e+00    0,000000000e+00
     1430000000   -3,005091660e-02    8,870182931e-02   -1,841822267e-01    4,163095057e-01    0,000000000e+00    0,000000000e+00    0,000000000e+00    0,000000000e+00
     1444000000   -1,591432281e-02    8,681116626e-03    1,104180813e-01    5,411909223e-01    0,000000000e+00    0,000000000e+00    0,000000000e+00    0,000000000e+00
     1458000000   -4,002802074e-02   -8,651091903e-02    4,295920730e-01    4,809331596e-01    0,000000000e+00    0,000000000e+00    0,000000000e+00    0,000000000e+00
     1472000000   -1,254673749e-01   -1,541381031e-01    7,246492505e-01    2,919751704e-01    0,000000000e+00    0,000000000e+00    0,000000000e+00    0,000000000e+00
     1486000000   -2,302321494e-01   -1,439922750e-01    9,137364626e-01   -3,097139671e-02    0,000000000e+00    0,000000000e+00    0,000000000e+00    0,000000000e+00
     1500000000   -3,010785580e-01   -5,979564786e-02    8,642736673e-01   -4,127212167e-01    0,000000000e+00    0,000000000e+00    0,000000000e+00    0,000000000e+00
