! NanoVNA-App
! Date: 2025-09-25 14:59:23
! Start: 100MHz Stop: 1,5GHz Points: 101
! S-Parameter data: F S11 S21 S12 S22
# Hz S RI R 50
!     Frequency           S11_Real           S11_Imag           S21_Real           S21_Imag           S12_Real           S12_Imag           S22_Real           S22_Imag
      100000000    3,556980938e-02    2,736040577e-02    4,407900274e-01   -6,695301533e-01    0,000000000e+00    0,000000000e+00    0,000000000e+00    0,000000000e+00
      114000000    6,073459238e-02    2,183850855e-03    1,292803325e-02   -7,955245972e-01    0,000000000e+00    0,000000000e+00    0,000000000e+00    0,000000000e+00
      128000000    6,840095669e-02   -4,224887118e-02   -4,081940353e-01   -6,783102751e-01    0,000000000e+00    0,000000000e+00    0,000000000e+00    0,000000000e+00
      142000000    4,348770529e-02   -8,880675584e-02   -7,050992846e-01   -3,607520163e-01    0,000000000e+00    0,000000000e+00    0,000000000e+00    0,000000000e+00
      156000000   -9,079311043e-03   -1,103768572e-01   -7,936013341e-01    6,839477271e-02    0,000000000e+00    0,000000000e+00    0,000000000e+00    0,000000000e+00
      170000000   -6,270641834e-02   -9,186387062e-02   -6,368460655e-01    4,864681065e-01    0,000000000e+00    0,000000000e+00    0,000000000e+00    0,000000000e+00
      184000000   -8,857426047e-02   -4,768198356e-02   -2,732156217e-01    7,559524775e-01    0,000000000e+00    0,000000000e+00    0,000000000e+00    0,000000000e+00
      198000000   -8,278945833e-02   -6,438278593e-03    1,795030683e-01    7,824037075e-01    0,000000000e+00    0,000000000e+00    0,000000000e+00    0,000000000e+00
      212000000   -6,272944808e-02    1,799874753e-02    5,707158446e-01    5,584635139e-01    0,000000000e+00    0,000000000e+00    0,000000000e+00    0,000000000e+00
      226000000   -4,143289477e-02    3,184429556e-02    7,767983675e-01    1,618643999e-01    0,000000000e+00    0,000000000e+00    0,000000000e+00    0,000000000e+00
      240000000   -1,488022599e-02    4,130244255e-02    7,360338569e-01   -2,787849307e-01    0,000000000e+00    0,000000000e+00    0,000000000e+00    0,000000000e+00
      254000000    2,138659172e-02    3,631667420e-02    4,679521322e-01   -6,223104596e-01    0,000000000e+00    0,000000000e+00    0,000000000e+00    0,000000000e+00
      268000000    5,327430740e-02    4,759455100e-03    6,664330512e-02   -7,673059106e-01    0,000000000e+00    0,000000000e+00    0,000000000e+00    0,000000000e+00
      282000000    5,745822936e-02   -4,488817975e-02   -3,456464112e-01   -6,821166277e-01    0,000000000e+00    0,000000000e+00    0,000000000e+00    0,000000000e+00
      296000000    2,616247535e-02   -8,462782204e-02   -6,553491950e-01   -3,975518644e-01    0,000000000e+00    0,000000000e+00    0,000000000e+00    0,000000000e+00
      310000000   -1,898246258e-02   -8,956056088e-02   -7,730284333e-01    1,103264652e-02    0,000000000e+00    0,000000000e+00    0,000000000e+00    0,000000000e+00
      324000000   -4,662094638e-02   -6,362405419e-02   -6,477255225e-01    4,291371405e-01    0,000000000e+00    0,000000000e+00    0,000000000e+00    0,000000000e+00
      338000000   -4,110099748e-02   -3,776074946e-02   -3,082190752e-01    7,087778449e-01    0,000000000e+00    0,000000000e+00    0,000000000e+00    0,000000000e+00
      352000000   -2,342807874e-02   -3,781587631e-02    1,197708547e-01    7,569304109e-01    0,000000000e+00    0,000000000e+00    0,000000000e+00    0,000000000e+00
      366000000   -2,316458151e-02   -5,634621531e-02    5,030103326e-01    5,709071755e-01    0,000000000e+00    0,000000000e+00    0,000000000e+00    0,000000000e+00
      380000000   -4,457869008e-02   -6,502336264e-02    7,263113856e-01    2,119466364e-01    0,000000000e+00    0,000000000e+00    0,000000000e+00    0,000000000e+00
      394000000   -6,638655812e-02   -5,084478483e-02    7,231945992e-01   -2,131352425e-01    0,000000000e+00    0,000000000e+00    0,000000000e+00    0,000000000e+00
      408000000   -6,757733226e-02   -2,619300038e-02    4,903053343e-01   -5,682611465e-01    0,000000000e+00    0,000000000e+00    0,000000000e+00    0,000000000e+00
      422000000   -5,333876982e-02   -1,537085790e-02    1,053968892e-01   -7,388335466e-01    0,000000000e+00    0,000000000e+00    0,000000000e+00    0,000000000e+00
      436000000   -4,667522386e-02   -1,866646297e-02   -3,056116402e-01   -6,769316792e-01    0,000000000e+00    0,000000000e+00    0,000000000e+00    0,000000000e+00
      450000000   -5,212207884e-02   -1,509729773e-02   -6,191617250e-01   -3,999933004e-01    0,000000000e+00    0,000000000e+00    0,000000000e+00    0,000000000e+00
      464000000   -5,042716488e-02    5,932551809e-03   -7,296362519e-01    3,883146681e-03    0,000000000e+00    0,000000000e+00    0,000000000e+00    0,000000000e+00
      478000000   -2,033007890e-02    2,630174533e-02   -5,982313156e-01    3,974901438e-01    0,000000000e+00    0,000000000e+00    0,000000000e+00    0,000000000e+00
      492000000    2,819140814e-02    1,474772301e-02   -2,797557414e-01    6,445496082e-01    0,000000000e+00    0,000000000e+00    0,000000000e+00    0,000000000e+00
      506000000    5,875273794e-02   -3,725917265e-02    1,044555828e-01    6,802425981e-01    0,000000000e+00    0,000000000e+00    0,000000000e+00    0,000000000e+00
      520000000    4,403308406e-02   -1,036814302e-01    4,442074597e-01    5,177973509e-01    0,000000000e+00    0,000000000e+00    0,000000000e+00    0,000000000e+00
      534000000   -1,271239948e-02   -1,436311901e-01    6,498745680e-01    2,058264911e-01    0,000000000e+00    0,000000000e+00    0,000000000e+00    0,000000000e+00
      548000000   -8,170846850e-02   -1,402128339e-01    6,597541571e-01   -1,770176142e-01    0,000000000e+00    0,000000000e+00    0,000000000e+00    0,000000000e+00
      562000000   -1,315191388e-01   -9,780489653e-02    4,503096938e-01   -5,088176131e-01    0,000000000e+00    0,000000000e+00    0,000000000e+00    0,000000000e+00
      576000000   -1,499746144e-01   -3,864502534e-02    8,114818484e-02   -6,608619690e-01    0,000000000e+00    0,000000000e+00    0,000000000e+00    0,000000000e+00
      590000000   -1,298705786e-01    2,972201630e-02   -2,974637747e-01   -5,621606112e-01    0,000000000e+00    0,000000000e+00    0,000000000e+00    0,000000000e+00
      604000000   -3,779523075e-02    6,845071912e-02   -4,878542423e-01   -2,699034214e-01    0,000000000e+00    0,000000000e+00    0,000000000e+00    0,000000000e+00
      618000000    3,466489166e-02   -3,066193126e-02   -4,933853149e-01   -5,118064955e-02    0,000000000e+00    0,000000000e+00    0,000000000e+00    0,000000000e+00
      632000000   -5,266920850e-02   -9,275484085e-02   -5,260010362e-01    1,775872260e-01    0,000000000e+00    0,000000000e+00    0,000000000e+00    0,000000000e+00
      646000000   -1,004699022e-01   -3,366013989e-02   -3,794757724e-01    4,773894846e-01    0,000000000e+00    0,000000000e+00    0,000000000e+00    0,000000000e+00
      660000000   -6,878017634e-02    1,038428489e-02   -5,143215507e-02    6,255704761e-01    0,000000000e+00    0,000000000e+00    0,000000000e+00    0,000000000e+00
      674000000   -3,047725372e-02    5,179347470e-03    2,979542017e-01    5,529267788e-01    0,000000000e+00    0,000000000e+00    0,000000000e+00    0,000000000e+00
      688000000   -1,470114570e-02   -1,820595190e-02    5,473664999e-01    3,034347296e-01    0,000000000e+00    0,000000000e+00    0,000000000e+00    0,000000000e+00
      702000000   -1,373670343e-02   -3,374146298e-02    6,220103502e-01   -3,996266425e-02    0,000000000e+00    0,000000000e+00    0,000000000e+00    0,000000000e+00
      716000000   -9,787940420e-03   -4,900946468e-02    4,910705388e-01   -3,687677383e-01    0,000000000e+00    0,000000000e+00    0,000000000e+00    0,000000000e+00
      730000000   -7,874514908e-03   -7,461599261e-02    2,115862817e-01   -5,667713881e-01    0,000000000e+00    0,000000000e+00    0,000000000e+00    0,000000000e+00
      744000000   -2,626721561e-02   -1,112626344e-01   -1,237779409e-01   -5,879777074e-01    0,000000000e+00    0,000000000e+00    0,000000000e+00    0,000000000e+00
      758000000   -7,503507286e-02   -1,321456134e-01   -4,197821021e-01   -4,324555099e-01    0,000000000e+00    0,000000000e+00    0,000000000e+00    0,000000000e+00
      772000000   -1,357633322e-01   -1,161062792e-01   -5,935811400e-01   -1,400165409e-01    0,000000000e+00    0,000000000e+00    0,000000000e+00    0,000000000e+00
      786000000   -1,713181883e-01   -5,806277692e-02   -5,812548399e-01    2,094523162e-01    0,000000000e+00    0,000000000e+00    0,000000000e+00    0,000000000e+00
      800000000   -1,592429429e-01    6,093097851e-03   -3,726048470e-01    4,954855442e-01    0,000000000e+00    0,000000000e+00    0,000000000e+00    0,000000000e+00
      814000000   -1,150490120e-01    4,231814668e-02   -4,530701041e-02    6,147379875e-01    0,000000000e+00    0,000000000e+00    0,000000000e+00    0,000000000e+00
      828000000   -6,888512522e-02    4,378622770e-02    2,853043079e-01    5,406210423e-01    0,000000000e+00    0,000000000e+00    0,000000000e+00    0,000000000e+00
      842000000   -3,959521651e-02    2,945978381e-02    5,208063126e-01    3,056859076e-01    0,000000000e+00    0,000000000e+00    0,000000000e+00    0,000000000e+00
      856000000   -1,791807264e-02    1,275187265e-02    5,943739414e-01   -1,360675413e-02    0,000000000e+00    0,000000000e+00    0,000000000e+00    0,000000000e+00
      870000000    2,113502473e-03   -1,136603951e-02    4,863408506e-01   -3,170936704e-01    0,000000000e+00    0,000000000e+00    0,000000000e+00    0,000000000e+00
      884000000    1,309205033e-02   -5,109707266e-02    2,433009297e-01   -5,118129253e-01    0,000000000e+00    0,000000000e+00    0,000000000e+00    0,000000000e+00
      898000000   -3,564060433e-03   -1,018101275e-01   -5,800551921e-02   -5,529433489e-01    0,000000000e+00    0,000000000e+00    0,000000000e+00    0,000000000e+00
      912000000   -6,295493990e-02   -1,325015277e-01   -3,915185034e-01   -4,264229834e-01    0,000000000e+00    0,000000000e+00    0,000000000e+00    0,000000000e+00
      926000000   -1,285256594e-01   -1,187635213e-01   -5,683362484e-01   -1,494817883e-01    0,000000000e+00    0,000000000e+00    0,000000000e+00    0,000000000e+00
      940000000   -1,624830663e-01   -6,055231765e-02   -5,679824948e-01    1,929337978e-01    0,000000000e+00    0,000000000e+00    0,000000000e+00    0,000000000e+00
      954000000   -1,485289335e-01    7,246927125e-04   -3,759427071e-01    4,824576676e-01    0,000000000e+00    0,000000000e+00    0,000000000e+00    0,000000000e+00
      968000000   -9,570327401e-02    2,459274605e-02   -5,375343561e-02    6,170148849e-01    0,000000000e+00    0,000000000e+00    0,000000000e+00    0,000000000e+00
      982000000   -5,516408011e-02    3,490773030e-03    2,803874314e-01    5,513351560e-01    0,000000000e+00    0,000000000e+00    0,000000000e+00    0,000000000e+00
      996000000   -4,411066324e-02   -3,551665694e-02    5,259244442e-01    3,280596435e-01    0,000000000e+00    0,000000000e+00    0,000000000e+00    0,000000000e+00
     1010000000   -6,451339275e-02   -6,633023918e-02    6,075540185e-01    1,579416543e-02    0,000000000e+00    0,000000000e+00    0,000000000e+00    0,000000000e+00
     1024000000   -9,926059097e-02   -8,017602563e-02    5,132828951e-01   -2,804142833e-01    0,000000000e+00    0,000000000e+00    0,000000000e+00    0,000000000e+00
     1038000000   -1,440256983e-01   -5,730440468e-02    2,910493612e-01   -4,712275267e-01    0,000000000e+00    0,000000000e+00    0,000000000e+00    0,000000000e+00
     1052000000   -1,539317220e-01   -2,883299720e-03    3,357096016e-02   -5,232961178e-01    0,000000000e+00    0,000000000e+00    0,000000000e+00    0,000000000e+00
     1066000000   -1,029655784e-01    3,813674673e-02   -2,060579956e-01   -4,663715661e-01    0,000000000e+00    0,000000000e+00    0,000000000e+00    0,000000000e+00
     1080000000   -5,566010997e-02    2,478942275e-02   -4,180446267e-01   -2,987042964e-01    0,000000000e+00    0,000000000e+00    0,000000000e+00    0,000000000e+00
     1094000000   -3,139170632e-02   -9,932649322e-03   -5,207175612e-01   -2,339474671e-02    0,000000000e+00    0,000000000e+00    0,000000000e+00    0,000000000e+00
     1108000000   -3,026371822e-02   -3,212270141e-02   -4,441502988e-01    2,852630615e-01    0,000000000e+00    0,000000000e+00    0,000000000e+00    0,000000000e+00
     1122000000   -2,898735180e-02   -5,581559613e-02   -1,869710088e-01    4,958814085e-01    0,000000000e+00    0,000000000e+00    0,000000000e+00    0,000000000e+00
     1136000000   -4,308854416e-02   -9,571694583e-02    1,501545608e-01    5,175618529e-01    0,000000000e+00    0,000000000e+00    0,000000000e+00    0,000000000e+00
     1150000000   -8,184450120e-02   -1,276297271e-01    4,538034797e-01    3,450471163e-01    0,000000000e+00    0,000000000e+00    0,000000000e+00    0,000000000e+00
     1164000000   -1,359222978e-01   -1,246087104e-01    6,110578775e-01    1,212216727e-02    0,000000000e+00    0,000000000e+00    0,000000000e+00    0,000000000e+00
     1178000000   -1,722770929e-01   -8,767608553e-02    5,388455391e-01   -3,718507290e-01    0,000000000e+00    0,000000000e+00    0,000000000e+00    0,000000000e+00
     1192000000   -1,796106100e-01   -5,716531351e-02    2,433423549e-01   -6,341481209e-01    0,000000000e+00    0,000000000e+00    0,000000000e+00    0,000000000e+00
     1206000000   -1,874904931e-01   -5,562628806e-02   -1,387016326e-01   -6,617283821e-01    0,000000000e+00    0,000000000e+00    0,000000000e+00    0,000000000e+00
     1220000000   -2,570674121e-01   -1,712004840e-02   -4,215641916e-01   -4,837472737e-01    0,000000000e+00    0,000000000e+00    0,000000000e+00    0,000000000e+00
     1234000000   -2,447834164e-01    1,128391400e-01   -5,620344877e-01   -2,504850924e-01    0,000000000e+00    0,000000000e+00    0,000000000e+00    0,000000000e+00
     1248000000   -1,181056127e-01    1,759454757e-01   -6,018325686e-01    2,216723934e-02    0,000000000e+00    0,000000000e+00    0,000000000e+00    0,000000000e+00
     1262000000   -6,175103132e-03    1,335444897e-01   -5,099087358e-01    3,004425168e-01    0,000000000e+00    0,000000000e+00    0,000000000e+00    0,000000000e+00
     1276000000    6,149296463e-02    4,380949587e-02   -2,757337391e-01    4,885196090e-01    0,000000000e+00    0,000000000e+00    0,000000000e+00    0,000000000e+00
     1290000000    7,142262161e-02   -6,646955758e-02    9,667654522e-03    5,556721687e-01    0,000000000e+00    0,000000000e+00    0,000000000e+00    0,000000000e+00
     1304000000    1,975121908e-02   -1,820832789e-01    3,000779450e-01    4,745802581e-01    0,000000000e+00    0,000000000e+00    0,000000000e+00    0,000000000e+00
     1318000000   -9,789374471e-02   -2,528177500e-01    5,307133198e-01    2,771722078e-01    0,000000000e+00    0,000000000e+00    0,000000000e+00    0,000000000e+00
     1332000000   -2,402436137e-01   -2,366715223e-01    6,550192833e-01   -5,435563251e-02    0,000000000e+00    0,000000000e+00    0,000000000e+00    0,000000000e+00
     1346000000   -3,629263937e-01   -1,406561434e-01    5,460644364e-01   -4,038924575e-01    0,000000000e+00    0,000000000e+00    0,000000000e+00    0,000000000e+00
     1360000000   -3,892226517e-01    1,039396413e-02    2,594586611e-01   -6,381012201e-01    0,000000000e+00    0,000000000e+00    0,000000000e+00    0,000000000e+00
     1374000000   -3,249768615e-01    1,259382069e-01   -1,076797023e-01   -6,208181381e-01    0,000000000e+00    0,000000000e+00    0,000000000e+00    0,000000000e+00
     1388000000   -2,349612713e-01    1,686659753e-01   -3,696206808e-01   -4,162515700e-01    0,000000000e+00    0,000000000e+00    0,000000000e+00    0,000000000e+00
     1402000000   -1,548617780e-01    1,683145314e-01   -4,834490120e-01   -1,049455777e-01    0,000000000e+00    0,000000000e+00    0,000000000e+00    0,000000000e+00
     1416000000   -8,706061542e-02    1,403678805e-01   -3,963821530e-01    1,960952282e-01    0,000000000e+00    0,000000000e+00    0,000000000e+00    0,000000000e+00
     1430000000   -2,774080075e-02    8,332204819e-02   -1,621784866e-01    4,152135551e-01    0,000000000e+00    0,000000000e+00    0,000000000e+00    0,000000000e+00
     1444000000   -9,522277862e-03    4,292056430e-03    1,315154731e-01    5,289945006e-01    0,000000000e+00    0,000000000e+00    0,000000000e+00    0,000000000e+00
     1458000000   -3,692226112e-02   -8,032383025e-02    4,426540136e-01    5,028278232e-01    0,000000000e+00    0,000000000e+00    0,000000000e+00    0,000000000e+00
     1472000000   -1,276138127e-01   -1,459657848e-01    7,348138094e-01    3,235405385e-01    0,000000000e+00    0,000000000e+00    0,000000000e+00    0,000000000e+00
     1486000000   -2,402064651e-01   -1,377862394e-01    8,966183662e-01   -3,008789755e-02    0,000000000e+00    0,000000000e+00    0,000000000e+00    0,000000000e+00
     1500000000   -3,070695996e-01   -6,231190264e-02    8,406259418e-01   -4,294537604e-01    0,000000000e+00    0,000000000e+00    0,000000000e+00    0,000000000e+00
