! NanoVNA-App
! Date: 2025-09-25 14:57:30
! Start: 100MHz Stop: 1,5GHz Points: 101
! S-Parameter data: F S11 S21 S12 S22
# Hz S RI R 50
!     Frequency           S11_Real           S11_Imag           S21_Real           S21_Imag           S12_Real           S12_Imag           S22_Real           S22_Imag
      100000000    3,558896855e-02    2,733892761e-02    4,407274425e-01   -6,695464253e-01    0,000000000e+00    0,000000000e+00    0,000000000e+00    0,000000000e+00
      114000000    6,070867181e-02    2,177172340e-03    1,292487979e-02   -7,953575253e-01    0,000000000e+00    0,000000000e+00    0,000000000e+00    0,000000000e+00
      128000000    6,838835031e-02   -4,225330055e-02   -4,079834819e-01   -6,780229807e-01    0,000000000e+00    0,000000000e+00    0,000000000e+00    0,000000000e+00
      142000000    4,349179938e-02   -8,880498260e-02   -7,052618861e-01   -3,608705401e-01    0,000000000e+00    0,000000000e+00    0,000000000e+00    0,000000000e+00
      156000000   -8,926160634e-03   -1,104662940e-01   -7,935427427e-01    6,855753064e-02    0,000000000e+00    0,000000000e+00    0,000000000e+00    0,000000000e+00
      170000000   -6,260599941e-02   -9,176618606e-02   -6,371850371e-01    4,865362942e-01    0,000000000e+00    0,000000000e+00    0,000000000e+00    0,000000000e+00
      184000000   -8,859837055e-02   -4,768397287e-02   -2,732323110e-01    7,559847832e-01    0,000000000e+00    0,000000000e+00    0,000000000e+00    0,000000000e+00
      198000000   -8,272220194e-02   -6,394666620e-03    1,794715226e-01    7,819441557e-01    0,000000000e+00    0,000000000e+00    0,000000000e+00    0,000000000e+00
      212000000   -6,268985569e-02    1,805052720e-02    5,707377791e-01    5,583134890e-01    0,000000000e+00    0,000000000e+00    0,000000000e+00    0,000000000e+00
      226000000   -4,145292938e-02    3,191704676e-02    7,766392827e-01    1,619149745e-01    0,000000000e+00    0,000000000e+00    0,000000000e+00    0,000000000e+00
      240000000   -1,483989693e-02    4,134258255e-02    7,359033823e-01   -2,786616385e-01    0,000000000e+00    0,000000000e+00    0,000000000e+00    0,000000000e+00
      254000000    2,149417438e-02    3,624382243e-02    4,680532217e-01   -6,221757531e-01    0,000000000e+00    0,000000000e+00    0,000000000e+00    0,000000000e+00
      268000000    5,331575871e-02    4,630845971e-03    6,697839499e-02   -7,671601176e-01    0,000000000e+00    0,000000000e+00    0,000000000e+00    0,000000000e+00
      282000000    5,744831264e-02   -4,495426640e-02   -3,457650840e-01   -6,824156046e-01    0,000000000e+00    0,000000000e+00    0,000000000e+00    0,000000000e+00
      296000000    2,607920580e-02   -8,472704887e-02   -6,547013521e-01   -3,976671696e-01    0,000000000e+00    0,000000000e+00    0,000000000e+00    0,000000000e+00
      310000000   -1,901838928e-02   -8,923012763e-02   -7,741501331e-01    1,149589196e-02    0,000000000e+00    0,000000000e+00    0,000000000e+00    0,000000000e+00
      324000000   -4,652273655e-02   -6,345992535e-02   -6,476572156e-01    4,291655719e-01    0,000000000e+00    0,000000000e+00    0,000000000e+00    0,000000000e+00
      338000000   -4,130393639e-02   -3,773380071e-02   -3,115969002e-01    7,079096437e-01    0,000000000e+00    0,000000000e+00    0,000000000e+00    0,000000000e+00
      352000000   -2,352708951e-02   -3,739636391e-02    1,195865050e-01    7,585800886e-01    0,000000000e+00    0,000000000e+00    0,000000000e+00    0,000000000e+00
      366000000   -2,284770459e-02   -5,606839433e-02    5,022174120e-01    5,718898773e-01    0,000000000e+00    0,000000000e+00    0,000000000e+00    0,000000000e+00
      380000000   -4,476979747e-02   -6,502012908e-02    7,264449000e-01    2,117355615e-01    0,000000000e+00    0,000000000e+00    0,000000000e+00    0,000000000e+00
      394000000   -6,648030877e-02   -5,036258325e-02    7,223315239e-01   -2,124757022e-01    0,000000000e+00    0,000000000e+00    0,000000000e+00    0,000000000e+00
      408000000   -6,726860255e-02   -2,622056194e-02    4,896301627e-01   -5,681809187e-01    0,000000000e+00    0,000000000e+00    0,000000000e+00    0,000000000e+00
      422000000   -5,335084349e-02   -1,517673582e-02    1,059538797e-01   -7,380925417e-01    0,000000000e+00    0,000000000e+00    0,000000000e+00    0,000000000e+00
      436000000   -4,581810907e-02   -1,888615452e-02   -3,045712113e-01   -6,756304502e-01    0,000000000e+00    0,000000000e+00    0,000000000e+00    0,000000000e+00
      450000000   -5,203934759e-02   -1,523386035e-02   -6,182090640e-01   -3,996472657e-01    0,000000000e+00    0,000000000e+00    0,000000000e+00    0,000000000e+00
      464000000   -5,064019933e-02    5,178149790e-03   -7,293647528e-01    2,971948124e-03    0,000000000e+00    0,000000000e+00    0,000000000e+00    0,000000000e+00
      478000000   -2,106025442e-02    2,580689453e-02   -5,992163420e-01    3,963377178e-01    0,000000000e+00    0,000000000e+00    0,000000000e+00    0,000000000e+00
      492000000    2,724420466e-02    1,477184985e-02   -2,814164758e-01    6,447507739e-01    0,000000000e+00    0,000000000e+00    0,000000000e+00    0,000000000e+00
      506000000    5,824404210e-02   -3,648119047e-02    1,036748663e-01    6,807482243e-01    0,000000000e+00    0,000000000e+00    0,000000000e+00    0,000000000e+00
      520000000    4,358817637e-02   -1,013726816e-01    4,457748234e-01    5,175265670e-01    0,000000000e+00    0,000000000e+00    0,000000000e+00    0,000000000e+00
      534000000   -1,204730012e-02   -1,415194273e-01    6,494417787e-01    2,080891281e-01    0,000000000e+00    0,000000000e+00    0,000000000e+00    0,000000000e+00
      548000000   -7,909486443e-02   -1,377285272e-01    6,611007452e-01   -1,737769097e-01    0,000000000e+00    0,000000000e+00    0,000000000e+00    0,000000000e+00
      562000000   -1,265832633e-01   -9,852919728e-02    4,550168514e-01   -5,072651505e-01    0,000000000e+00    0,000000000e+00    0,000000000e+00    0,000000000e+00
      576000000   -1,435663104e-01   -4,553535953e-02    8,989604563e-02   -6,652222276e-01    0,000000000e+00    0,000000000e+00    0,000000000e+00    0,000000000e+00
      590000000   -1,346312314e-01    1,227349602e-02   -2,941197455e-01   -5,843218565e-01    0,000000000e+00    0,000000000e+00    0,000000000e+00    0,000000000e+00
      604000000   -7,393492013e-02    6,724102050e-02   -5,280994177e-01   -2,810536027e-01    0,000000000e+00    0,000000000e+00    0,000000000e+00    0,000000000e+00
      618000000    3,692937270e-02    2,504876070e-02   -5,025130510e-01    1,478667371e-02    0,000000000e+00    0,000000000e+00    0,000000000e+00    0,000000000e+00
      632000000   -1,117414678e-03   -1,046096310e-01   -4,649442136e-01    1,715673059e-01    0,000000000e+00    0,000000000e+00    0,000000000e+00    0,000000000e+00
      646000000   -1,031044126e-01   -6,790369004e-02   -3,798291981e-01    4,389625192e-01    0,000000000e+00    0,000000000e+00    0,000000000e+00    0,000000000e+00
      660000000   -8,872039616e-02    2,998871496e-03   -7,132808119e-02    6,154294610e-01    0,000000000e+00    0,000000000e+00    0,000000000e+00    0,000000000e+00
      674000000   -4,113120586e-02    1,188484952e-02    2,867958844e-01    5,586954951e-01    0,000000000e+00    0,000000000e+00    0,000000000e+00    0,000000000e+00
      688000000   -1,666305028e-02   -8,467644453e-03    5,442356467e-01    3,110381067e-01    0,000000000e+00    0,000000000e+00    0,000000000e+00    0,000000000e+00
      702000000   -9,755852632e-03   -2,953314595e-02    6,234688759e-01   -3,482671827e-02    0,000000000e+00    0,000000000e+00    0,000000000e+00    0,000000000e+00
      716000000   -5,000547506e-03   -4,783586785e-02    4,960896671e-01   -3,642153740e-01    0,000000000e+00    0,000000000e+00    0,000000000e+00    0,000000000e+00
      730000000   -2,811651444e-03   -7,733938098e-02    2,158180326e-01   -5,681415200e-01    0,000000000e+00    0,000000000e+00    0,000000000e+00    0,000000000e+00
      744000000   -2,387753129e-02   -1,147699207e-01   -1,208478287e-01   -5,910633802e-01    0,000000000e+00    0,000000000e+00    0,000000000e+00    0,000000000e+00
      758000000   -7,585856318e-02   -1,357038468e-01   -4,187329412e-01   -4,372417331e-01    0,000000000e+00    0,000000000e+00    0,000000000e+00    0,000000000e+00
      772000000   -1,391231716e-01   -1,167757511e-01   -5,966101289e-01   -1,437463015e-01    0,000000000e+00    0,000000000e+00    0,000000000e+00    0,000000000e+00
      786000000   -1,757955998e-01   -5,653760582e-02   -5,856640339e-01    2,095814347e-01    0,000000000e+00    0,000000000e+00    0,000000000e+00    0,000000000e+00
      800000000   -1,602747142e-01    1,110594533e-02   -3,760569096e-01    4,986009598e-01    0,000000000e+00    0,000000000e+00    0,000000000e+00    0,000000000e+00
      814000000   -1,126884669e-01    4,633391276e-02   -4,495455325e-02    6,183465123e-01    0,000000000e+00    0,000000000e+00    0,000000000e+00    0,000000000e+00
      828000000   -6,424815953e-02    4,435785115e-02    2,875846326e-01    5,420652032e-01    0,000000000e+00    0,000000000e+00    0,000000000e+00    0,000000000e+00
      842000000   -3,567022085e-02    2,684659697e-02    5,231187940e-01    3,063262999e-01    0,000000000e+00    0,000000000e+00    0,000000000e+00    0,000000000e+00
      856000000   -1,856348291e-02    8,581627160e-03    5,966432691e-01   -1,451059058e-02    0,000000000e+00    0,000000000e+00    0,000000000e+00    0,000000000e+00
      870000000   -1,403976232e-03   -1,434832159e-02    4,884603322e-01   -3,198252916e-01    0,000000000e+00    0,000000000e+00    0,000000000e+00    0,000000000e+00
      884000000    8,585715666e-03   -5,117078871e-02    2,420310825e-01   -5,139597058e-01    0,000000000e+00    0,000000000e+00    0,000000000e+00    0,000000000e+00
      898000000   -6,917983294e-03   -9,811145812e-02   -6,111932546e-02   -5,558784604e-01    0,000000000e+00    0,000000000e+00    0,000000000e+00    0,000000000e+00
      912000000   -6,108824909e-02   -1,286551058e-01   -3,879534304e-01   -4,229608774e-01    0,000000000e+00    0,000000000e+00    0,000000000e+00    0,000000000e+00
      926000000   -1,241751760e-01   -1,153492704e-01   -5,707380176e-01   -1,445067525e-01    0,000000000e+00    0,000000000e+00    0,000000000e+00    0,000000000e+00
      940000000   -1,564072818e-01   -6,251055747e-02   -5,682957768e-01    1,948900074e-01    0,000000000e+00    0,000000000e+00    0,000000000e+00    0,000000000e+00
      954000000   -1,449864805e-01   -8,013929240e-03   -3,737232387e-01    4,834558368e-01    0,000000000e+00    0,000000000e+00    0,000000000e+00    0,000000000e+00
      968000000   -9,793375432e-02    1,733236015e-02   -5,028260872e-02    6,165297031e-01    0,000000000e+00    0,000000000e+00    0,000000000e+00    0,000000000e+00
      982000000   -5,717693642e-02    2,756836591e-03    2,820063829e-01    5,521724224e-01    0,000000000e+00    0,000000000e+00    0,000000000e+00    0,000000000e+00
      996000000   -4,613909870e-02   -2,937884256e-02    5,265169144e-01    3,287535608e-01    0,000000000e+00    0,000000000e+00    0,000000000e+00    0,000000000e+00
     1010000000   -6,456191838e-02   -6,265857071e-02    6,113660336e-01    1,258387975e-02    0,000000000e+00    0,000000000e+00    0,000000000e+00    0,000000000e+00
     1024000000   -9,466190636e-02   -7,148566842e-02    5,164755583e-01   -2,832178175e-01    0,000000000e+00    0,000000000e+00    0,000000000e+00    0,000000000e+00
     1038000000   -1,344063580e-01   -5,691716447e-02    2,950104177e-01   -4,770465791e-01    0,000000000e+00    0,000000000e+00    0,000000000e+00    0,000000000e+00
     1052000000   -1,462969333e-01   -8,390052244e-03    3,222205117e-02   -5,321903229e-01    0,000000000e+00    0,000000000e+00    0,000000000e+00    0,000000000e+00
     1066000000   -1,126575619e-01    2,650569379e-02   -2,183723301e-01   -4,632827044e-01    0,000000000e+00    0,000000000e+00    0,000000000e+00    0,000000000e+00
     1080000000   -6,748887151e-02    3,003234230e-02   -4,223224819e-01   -2,892598212e-01    0,000000000e+00    0,000000000e+00    0,000000000e+00    0,000000000e+00
     1094000000   -3,295670077e-02    6,933435332e-03   -5,115227103e-01   -1,582639106e-02    0,000000000e+00    0,000000000e+00    0,000000000e+00    0,000000000e+00
     1108000000   -2,628821507e-02   -2,980995923e-02   -4,309085310e-01    2,850452960e-01    0,000000000e+00    0,000000000e+00    0,000000000e+00    0,000000000e+00
     1122000000   -2,268784493e-02   -5,852957442e-02   -1,845812500e-01    4,875276089e-01    0,000000000e+00    0,000000000e+00    0,000000000e+00    0,000000000e+00
     1136000000   -4,286274686e-02   -9,940693527e-02    1,477687955e-01    5,114015937e-01    0,000000000e+00    0,000000000e+00    0,000000000e+00    0,000000000e+00
     1150000000   -8,306609094e-02   -1,297017485e-01    4,467134178e-01    3,410818279e-01    0,000000000e+00    0,000000000e+00    0,000000000e+00    0,000000000e+00
     1164000000   -1,387985200e-01   -1,250235438e-01    6,036868095e-01    1,493277960e-02    0,000000000e+00    0,000000000e+00    0,000000000e+00    0,000000000e+00
     1178000000   -1,803040802e-01   -8,986449242e-02    5,403516293e-01   -3,684300482e-01    0,000000000e+00    0,000000000e+00    0,000000000e+00    0,000000000e+00
     1192000000   -1,797599941e-01   -5,482476950e-02    2,413146943e-01   -6,312184930e-01    0,000000000e+00    0,000000000e+00    0,000000000e+00    0,000000000e+00
     1206000000   -1,891963482e-01   -5,116254091e-02   -1,310630739e-01   -6,630443931e-01    0,000000000e+00    0,000000000e+00    0,000000000e+00    0,000000000e+00
     1220000000   -2,504831254e-01   -1,985313557e-02   -4,164239466e-01   -4,873501360e-01    0,000000000e+00    0,000000000e+00    0,000000000e+00    0,000000000e+00
     1234000000   -2,381070554e-01    1,114082858e-01   -5,570883155e-01   -2,511377931e-01    0,000000000e+00    0,000000000e+00    0,000000000e+00    0,000000000e+00
     1248000000   -1,131846458e-01    1,775877476e-01   -6,010467410e-01    1,837899722e-02    0,000000000e+00    0,000000000e+00    0,000000000e+00    0,000000000e+00
     1262000000   -3,153584665e-03    1,364134550e-01   -5,049530864e-01    2,986100018e-01    0,000000000e+00    0,000000000e+00    0,000000000e+00    0,000000000e+00
     1276000000    5,977259204e-02    4,315749928e-02   -2,799698412e-01    4,921749532e-01    0,000000000e+00    0,000000000e+00    0,000000000e+00    0,000000000e+00
     1290000000    6,898044050e-02   -6,965211779e-02    4,072661046e-03    5,479953885e-01    0,000000000e+00    0,000000000e+00    0,000000000e+00    0,000000000e+00
     1304000000    2,099459991e-02   -1,831158251e-01    2,995509803e-01    4,735950828e-01    0,000000000e+00    0,000000000e+00    0,000000000e+00    0,000000000e+00
     1318000000   -9,073106200e-02   -2,501735985e-01    5,384302735e-01    2,694790959e-01    0,000000000e+00    0,000000000e+00    0,000000000e+00    0,000000000e+00
     1332000000   -2,447670996e-01   -2,413875610e-01    6,553573012e-01   -5,415011197e-02    0,000000000e+00    0,000000000e+00    0,000000000e+00    0,000000000e+00
     1346000000   -3,590658307e-01   -1,382609159e-01    5,519585609e-01   -4,046760798e-01    0,000000000e+00    0,000000000e+00    0,000000000e+00    0,000000000e+00
     1360000000   -3,886950910e-01    8,524853736e-03    2,539057136e-01   -6,325012445e-01    0,000000000e+00    0,000000000e+00    0,000000000e+00    0,000000000e+00
     1374000000   -3,243124485e-01    1,196199879e-01   -1,015790850e-01   -6,268483996e-01    0,000000000e+00    0,000000000e+00    0,000000000e+00    0,000000000e+00
     1388000000   -2,379661947e-01    1,739046872e-01   -3,660018146e-01   -4,157052338e-01    0,000000000e+00    0,000000000e+00    0,000000000e+00    0,000000000e+00
     1402000000   -1,514050514e-01    1,730477214e-01   -4,721645415e-01   -1,164362878e-01    0,000000000e+00    0,000000000e+00    0,000000000e+00    0,000000000e+00
     1416000000   -8,719670773e-02    1,381731778e-01   -3,941616118e-01    2,095661908e-01    0,000000000e+00    0,000000000e+00    0,000000000e+00    0,000000000e+00
     1430000000   -3,017064743e-02    8,642301708e-02   -1,900913715e-01    4,317447543e-01    0,000000000e+00    0,000000000e+00    0,000000000e+00    0,000000000e+00
     1444000000   -1,178219076e-02    2,420789562e-03    1,282221228e-01    5,194778442e-01    0,000000000e+00    0,000000000e+00    0,000000000e+00    0,000000000e+00
     1458000000   -3,238454834e-02   -8,622640371e-02    4,409558773e-01    4,966001213e-01    0,000000000e+00    0,000000000e+00    0,000000000e+00    0,000000000e+00
     1472000000   -1,244372949e-01   -1,480179429e-01    7,348926663e-01    3,144952953e-01    0,000000000e+00    0,000000000e+00    0,000000000e+00    0,000000000e+00
     1486000000   -2,304617018e-01   -1,463697851e-01    9,020279646e-01   -4,511675984e-02    0,000000000e+00    0,000000000e+00    0,000000000e+00    0,000000000e+00
     1500000000   -3,016107082e-01   -5,941927433e-02    8,576543927e-01   -4,161853194e-01    0,000000000e+00    0,000000000e+00    0,000000000e+00    0,000000000e+00
