! NanoVNA-App
! Date: 2025-09-25 14:58:18
! Start: 100MHz Stop: 1,5GHz Points: 101
! S-Parameter data: F S11 S21 S12 S22
# Hz S RI R 50
!     Frequency           S11_Real           S11_Imag           S21_Real           S21_Imag           S12_Real           S12_Imag           S22_Real           S22_Imag
      100000000    3,558346629e-02    2,733153291e-02    4,407331944e-01   -6,695291996e-01    0,000000000e+00    0,000000000e+00    0,000000000e+00    0,000000000e+00
      114000000    6,072773784e-02    2,163788071e-03    1,279156469e-02   -7,955448031e-01    0,000000000e+00    0,000000000e+00    0,000000000e+00    0,000000000e+00
      128000000    6,839267164e-02   -4,228644073e-02   -4,083494544e-01   -6,781429648e-01    0,000000000e+00    0,000000000e+00    0,000000000e+00    0,000000000e+00
      142000000    4,350089654e-02   -8,875480294e-02   -7,054605484e-01   -3,610092700e-01    0,000000000e+00    0,000000000e+00    0,000000000e+00    0,000000000e+00
      156000000   -8,945412934e-03   -1,103896946e-01   -7,934975028e-01    6,837533414e-02    0,000000000e+00    0,000000000e+00    0,000000000e+00    0,000000000e+00
      170000000   -6,261523813e-02   -9,177857637e-02   -6,367736459e-01    4,863290191e-01    0,000000000e+00    0,000000000e+00    0,000000000e+00    0,000000000e+00
      184000000   -8,857382834e-02   -4,764062539e-02   -2,731060088e-01    7,559430003e-01    0,000000000e+00    0,000000000e+00    0,000000000e+00    0,000000000e+00
      198000000   -8,272798359e-02   -6,438478362e-03    1,795015037e-01    7,817473412e-01    0,000000000e+00    0,000000000e+00    0,000000000e+00    0,000000000e+00
      212000000   -6,271088868e-02    1,799350418e-02    5,706095695e-01    5,582795739e-01    0,000000000e+00    0,000000000e+00    0,000000000e+00    0,000000000e+00
      226000000   -4,142414406e-02    3,181656078e-02    7,767729759e-01    1,618983001e-01    0,000000000e+00    0,000000000e+00    0,000000000e+00    0,000000000e+00
      240000000   -1,486211270e-02    4,130635411e-02    7,360298634e-01   -2,788679004e-01    0,000000000e+00    0,000000000e+00    0,000000000e+00    0,000000000e+00
      254000000    2,139891684e-02    3,632159159e-02    4,678856432e-01   -6,223718524e-01    0,000000000e+00    0,000000000e+00    0,000000000e+00    0,000000000e+00
      268000000    5,329179019e-02    4,746869206e-03    6,696190685e-02   -7,671423554e-01    0,000000000e+00    0,000000000e+00    0,000000000e+00    0,000000000e+00
      282000000    5,740061030e-02   -4,485268891e-02   -3,458115458e-01   -6,831553578e-01    0,000000000e+00    0,000000000e+00    0,000000000e+00    0,000000000e+00
      296000000    2,613469586e-02   -8,471243083e-02   -6,550292373e-01   -3,978391290e-01    0,000000000e+00    0,000000000e+00    0,000000000e+00    0,000000000e+00
      310000000   -1,919928752e-02   -8,953009546e-02   -7,730197310e-01    1,053329930e-02    0,000000000e+00    0,000000000e+00    0,000000000e+00    0,000000000e+00
      324000000   -4,651847854e-02   -6,354338676e-02   -6,478875279e-01    4,302648306e-01    0,000000000e+00    0,000000000e+00    0,000000000e+00    0,000000000e+00
      338000000   -4,101179540e-02   -3,777265921e-02   -3,122849464e-01    7,075221539e-01    0,000000000e+00    0,000000000e+00    0,000000000e+00    0,000000000e+00
      352000000   -2,352547832e-02   -3,800417855e-02    1,184329540e-01    7,583551407e-01    0,000000000e+00    0,000000000e+00    0,000000000e+00    0,000000000e+00
      366000000   -2,316531539e-02   -5,636045709e-02    5,031402111e-01    5,707873702e-01    0,000000000e+00    0,000000000e+00    0,000000000e+00    0,000000000e+00
      380000000   -4,475984350e-02   -6,547232717e-02    7,262002230e-01    2,112103105e-01    0,000000000e+00    0,000000000e+00    0,000000000e+00    0,000000000e+00
      394000000   -6,619729102e-02   -5,071676895e-02    7,236602306e-01   -2,133538425e-01    0,000000000e+00    0,000000000e+00    0,000000000e+00    0,000000000e+00
      408000000   -6,766820699e-02   -2,612387389e-02    4,891141355e-01   -5,688147545e-01    0,000000000e+00    0,000000000e+00    0,000000000e+00    0,000000000e+00
      422000000   -5,358755216e-02   -1,519235782e-02    1,053098291e-01   -7,381534576e-01    0,000000000e+00    0,000000000e+00    0,000000000e+00    0,000000000e+00
      436000000   -4,635411128e-02   -1,866426319e-02   -3,055640161e-01   -6,765556335e-01    0,000000000e+00    0,000000000e+00    0,000000000e+00    0,000000000e+00
      450000000   -5,208745226e-02   -1,478619780e-02   -6,189069152e-01   -3,994710147e-01    0,000000000e+00    0,000000000e+00    0,000000000e+00    0,000000000e+00
      464000000   -5,030732229e-02    5,998217501e-03   -7,298282385e-01    3,600788303e-03    0,000000000e+00    0,000000000e+00    0,000000000e+00    0,000000000e+00
      478000000   -2,063730545e-02    2,698519081e-02   -5,980889797e-01    3,974387944e-01    0,000000000e+00    0,000000000e+00    0,000000000e+00    0,000000000e+00
      492000000    2,860840037e-02    1,460987702e-02   -2,808162570e-01    6,442804933e-01    0,000000000e+00    0,000000000e+00    0,000000000e+00    0,000000000e+00
      506000000    5,895587802e-02   -3,775494173e-02    1,054864526e-01    6,794853806e-01    0,000000000e+00    0,000000000e+00    0,000000000e+00    0,000000000e+00
      520000000    4,352379590e-02   -1,030546427e-01    4,406941533e-01    5,131490827e-01    0,000000000e+00    0,000000000e+00    0,000000000e+00    0,000000000e+00
      534000000   -1,249569282e-02   -1,440829188e-01    6,496789455e-01    2,054845840e-01    0,000000000e+00    0,000000000e+00    0,000000000e+00    0,000000000e+00
      548000000   -8,135990798e-02   -1,398651004e-01    6,600371599e-01   -1,764000356e-01    0,000000000e+00    0,000000000e+00    0,000000000e+00    0,000000000e+00
      562000000   -1,313696355e-01   -9,801926464e-02    4,502553046e-01   -5,085439086e-01    0,000000000e+00    0,000000000e+00    0,000000000e+00    0,000000000e+00
      576000000   -1,500610411e-01   -3,824031726e-02    8,098360896e-02   -6,604233384e-01    0,000000000e+00    0,000000000e+00    0,000000000e+00    0,000000000e+00
      590000000   -1,293711215e-01    3,001493961e-02   -2,934599817e-01   -5,626310110e-01    0,000000000e+00    0,000000000e+00    0,000000000e+00    0,000000000e+00
      604000000   -3,662841767e-02    6,784594804e-02   -4,866493642e-01   -2,705719769e-01    0,000000000e+00    0,000000000e+00    0,000000000e+00    0,000000000e+00
      618000000    3,409645334e-02   -3,263041750e-02   -4,941727221e-01   -5,355974659e-02    0,000000000e+00    0,000000000e+00    0,000000000e+00    0,000000000e+00
      632000000   -5,456155911e-02   -9,169265628e-02   -5,272864103e-01    1,781594306e-01    0,000000000e+00    0,000000000e+00    0,000000000e+00    0,000000000e+00
      646000000   -9,906987101e-02   -3,312781453e-02   -3,788110912e-01    4,779553115e-01    0,000000000e+00    0,000000000e+00    0,000000000e+00    0,000000000e+00
      660000000   -6,901655346e-02    9,676650167e-03   -5,047925189e-02    6,263050437e-01    0,000000000e+00    0,000000000e+00    0,000000000e+00    0,000000000e+00
      674000000   -2,955218777e-02    5,245333072e-03    2,984361649e-01    5,526523590e-01    0,000000000e+00    0,000000000e+00    0,000000000e+00    0,000000000e+00
      688000000   -1,552578434e-02   -1,759769581e-02    5,476130843e-01    3,025576174e-01    0,000000000e+00    0,000000000e+00    0,000000000e+00    0,000000000e+00
      702000000   -1,491690334e-02   -3,428190574e-02    6,226829886e-01   -4,033510759e-02    0,000000000e+00    0,000000000e+00    0,000000000e+00    0,000000000e+00
      716000000   -9,486700408e-03   -4,863327742e-02    4,920314848e-01   -3,682188988e-01    0,000000000e+00    0,000000000e+00    0,000000000e+00    0,000000000e+00
      730000000   -6,759314332e-03   -7,461965084e-02    2,122887373e-01   -5,677001476e-01    0,000000000e+00    0,000000000e+00    0,000000000e+00    0,000000000e+00
      744000000   -2,651518583e-02   -1,109056771e-01   -1,240820289e-01   -5,874735713e-01    0,000000000e+00    0,000000000e+00    0,000000000e+00    0,000000000e+00
      758000000   -7,407799363e-02   -1,334531307e-01   -4,192636311e-01   -4,330811799e-01    0,000000000e+00    0,000000000e+00    0,000000000e+00    0,000000000e+00
      772000000   -1,351834834e-01   -1,153233945e-01   -5,931859612e-01   -1,398840100e-01    0,000000000e+00    0,000000000e+00    0,000000000e+00    0,000000000e+00
      786000000   -1,720868349e-01   -5,802441761e-02   -5,812489986e-01    2,097457200e-01    0,000000000e+00    0,000000000e+00    0,000000000e+00    0,000000000e+00
      800000000   -1,590602398e-01    6,401970983e-03   -3,729566336e-01    4,950532615e-01    0,000000000e+00    0,000000000e+00    0,000000000e+00    0,000000000e+00
      814000000   -1,142617390e-01    4,276109859e-02   -4,571733996e-02    6,142358184e-01    0,000000000e+00    0,000000000e+00    0,000000000e+00    0,000000000e+00
      828000000   -6,899116933e-02    4,441184551e-02    2,855229080e-01    5,399261713e-01    0,000000000e+00    0,000000000e+00    0,000000000e+00    0,000000000e+00
      842000000   -3,938652948e-02    2,953683026e-02    5,209077597e-01    3,053524792e-01    0,000000000e+00    0,000000000e+00    0,000000000e+00    0,000000000e+00
      856000000   -1,859260723e-02    1,230345760e-02    5,939638615e-01   -1,413173042e-02    0,000000000e+00    0,000000000e+00    0,000000000e+00    0,000000000e+00
      870000000    2,056011930e-03   -1,141537074e-02    4,859354496e-01   -3,163932562e-01    0,000000000e+00    0,000000000e+00    0,000000000e+00    0,000000000e+00
      884000000    1,363709848e-02   -5,170018598e-02    2,438331544e-01   -5,110148787e-01    0,000000000e+00    0,000000000e+00    0,000000000e+00    0,000000000e+00
      898000000   -3,679271089e-03   -1,014449447e-01   -5,751787126e-02   -5,553014874e-01    0,000000000e+00    0,000000000e+00    0,000000000e+00    0,000000000e+00
      912000000   -6,232189760e-02   -1,323620975e-01   -3,870167136e-01   -4,252788126e-01    0,000000000e+00    0,000000000e+00    0,000000000e+00    0,000000000e+00
      926000000   -1,250512004e-01   -1,183469296e-01   -5,634485483e-01   -1,490885466e-01    0,000000000e+00    0,000000000e+00    0,000000000e+00    0,000000000e+00
      940000000   -1,655053794e-01   -6,348238140e-02   -5,689857602e-01    1,894839555e-01    0,000000000e+00    0,000000000e+00    0,000000000e+00    0,000000000e+00
      954000000   -1,441546679e-01    3,034680558e-04   -3,721527159e-01    4,833590984e-01    0,000000000e+00    0,000000000e+00    0,000000000e+00    0,000000000e+00
      968000000   -9,698671848e-02    2,572670020e-02   -5,162810162e-02    6,149149537e-01    0,000000000e+00    0,000000000e+00    0,000000000e+00    0,000000000e+00
      982000000   -5,326563865e-02    3,712592879e-03    2,816605568e-01    5,520823598e-01    0,000000000e+00    0,000000000e+00    0,000000000e+00    0,000000000e+00
      996000000   -4,566407576e-02   -3,137291968e-02    5,234550834e-01    3,266886771e-01    0,000000000e+00    0,000000000e+00    0,000000000e+00    0,000000000e+00
     1010000000   -6,484987587e-02   -6,479601562e-02    6,102550626e-01    1,578093693e-02    0,000000000e+00    0,000000000e+00    0,000000000e+00    0,000000000e+00
     1024000000   -9,676397592e-02   -7,655669749e-02    5,142475963e-01   -2,798200548e-01    0,000000000e+00    0,000000000e+00    0,000000000e+00    0,000000000e+00
     1038000000   -1,403395683e-01   -5,405816063e-02    2,948194444e-01   -4,704732895e-01    0,000000000e+00    0,000000000e+00    0,000000000e+00    0,000000000e+00
     1052000000   -1,510344446e-01    2,474827226e-03    3,403072059e-02   -5,241341591e-01    0,000000000e+00    0,000000000e+00    0,000000000e+00    0,000000000e+00
     1066000000   -1,033049598e-01    3,903722763e-02   -2,107606381e-01   -4,631584287e-01    0,000000000e+00    0,000000000e+00    0,000000000e+00    0,000000000e+00
     1080000000   -4,912720621e-02    2,778323926e-02   -4,164617658e-01   -2,983756065e-01    0,000000000e+00    0,000000000e+00    0,000000000e+00    0,000000000e+00
     1094000000   -3,054057062e-02   -5,679566879e-03   -5,210509300e-01   -2,311974764e-02    0,000000000e+00    0,000000000e+00    0,000000000e+00    0,000000000e+00
     1108000000   -3,572520614e-02   -3,384237364e-02   -4,421131909e-01    2,862554789e-01    0,000000000e+00    0,000000000e+00    0,000000000e+00    0,000000000e+00
     1122000000   -2,897331677e-02   -6,065393612e-02   -1,860443503e-01    4,965876341e-01    0,000000000e+00    0,000000000e+00    0,000000000e+00    0,000000000e+00
     1136000000   -4,487924650e-02   -9,094428271e-02    1,498076320e-01    5,186798573e-01    0,000000000e+00    0,000000000e+00    0,000000000e+00    0,000000000e+00
     1150000000   -8,466500044e-02   -1,252263635e-01    4,534285367e-01    3,451838195e-01    0,000000000e+00    0,000000000e+00    0,000000000e+00    0,000000000e+00
     1164000000   -1,390139461e-01   -1,195930913e-01    6,087899804e-01    1,114804205e-02    0,000000000e+00    0,000000000e+00    0,000000000e+00    0,000000000e+00
     1178000000   -1,768259704e-01   -8,821702749e-02    5,395171046e-01   -3,710857630e-01    0,000000000e+00    0,000000000e+00    0,000000000e+00    0,000000000e+00
     1192000000   -1,832487881e-01   -5,313856900e-02    2,417116165e-01   -6,367951035e-01    0,000000000e+00    0,000000000e+00    0,000000000e+00    0,000000000e+00
     1206000000   -1,873942018e-01   -5,332426727e-02   -1,336926222e-01   -6,593450904e-01    0,000000000e+00    0,000000000e+00    0,000000000e+00    0,000000000e+00
     1220000000   -2,513678670e-01   -1,557856053e-02   -4,167206883e-01   -4,800655842e-01    0,000000000e+00    0,000000000e+00    0,000000000e+00    0,000000000e+00
     1234000000   -2,378572375e-01    1,105541587e-01   -5,573414564e-01   -2,534575760e-01    0,000000000e+00    0,000000000e+00    0,000000000e+00    0,000000000e+00
     1248000000   -1,101730838e-01    1,735915691e-01   -6,065924764e-01    2,005632967e-02    0,000000000e+00    0,000000000e+00    0,000000000e+00    0,000000000e+00
     1262000000   -3,666390665e-03    1,343150735e-01   -5,078337193e-01    2,945133448e-01    0,000000000e+00    0,000000000e+00    0,000000000e+00    0,000000000e+00
     1276000000    6,285617501e-02    4,002513364e-02   -2,795116305e-01    4,886326492e-01    0,000000000e+00    0,000000000e+00    0,000000000e+00    0,000000000e+00
     1290000000    6,878181547e-02   -7,047518343e-02    6,776332390e-03    5,473872423e-01    0,000000000e+00    0,000000000e+00    0,000000000e+00    0,000000000e+00
     1304000000    1,776058786e-02   -1,777884662e-01    2,992449999e-01    4,761213064e-01    0,000000000e+00    0,000000000e+00    0,000000000e+00    0,000000000e+00
     1318000000   -9,273274243e-02   -2,493863702e-01    5,342620611e-01    2,761716843e-01    0,000000000e+00    0,000000000e+00    0,000000000e+00    0,000000000e+00
     1332000000   -2,385746241e-01   -2,445947677e-01    6,538317204e-01   -5,215152726e-02    0,000000000e+00    0,000000000e+00    0,000000000e+00    0,000000000e+00
     1346000000   -3,573293686e-01   -1,386865824e-01    5,478774309e-01   -3,999543786e-01    0,000000000e+00    0,000000000e+00    0,000000000e+00    0,000000000e+00
     1360000000   -3,845111132e-01    1,126371324e-02    2,525959015e-01   -6,288514733e-01    0,000000000e+00    0,000000000e+00    0,000000000e+00    0,000000000e+00
     1374000000   -3,288594484e-01    1,177865267e-01   -1,081930995e-01   -6,263565421e-01    0,000000000e+00    0,000000000e+00    0,000000000e+00    0,000000000e+00
     1388000000   -2,405078262e-01    1,704845726e-01   -3,754781485e-01   -4,129287302e-01    0,000000000e+00    0,000000000e+00    0,000000000e+00    0,000000000e+00
     1402000000   -1,509977281e-01    1,716731340e-01   -4,799202085e-01   -1,144340113e-01    0,000000000e+00    0,000000000e+00    0,000000000e+00    0,000000000e+00
     1416000000   -8,624207228e-02    1,399228573e-01   -3,857745528e-01    2,003193200e-01    0,000000000e+00    0,000000000e+00    0,000000000e+00    0,000000000e+00
     1430000000   -3,226432577e-02    8,503548056e-02   -1,988691241e-01    4,210261106e-01    0,000000000e+00    0,000000000e+00    0,000000000e+00    0,000000000e+00
     1444000000   -1,632650755e-02    9,238000028e-03    1,158676222e-01    5,380060673e-01    0,000000000e+00    0,000000000e+00    0,000000000e+00    0,000000000e+00
     1458000000   -4,593823478e-02   -7,891818136e-02    4,331313372e-01    4,986884594e-01    0,000000000e+00    0,000000000e+00    0,000000000e+00    0,000000000e+00
     1472000000   -1,149865389e-01   -1,424152702e-01    7,341046333e-01    3,230279088e-01    0,000000000e+00    0,000000000e+00    0,000000000e+00    0,000000000e+00
     1486000000   -2,312721759e-01   -1,347494125e-01    8,967092037e-01   -2,452705614e-02    0,000000000e+00    0,000000000e+00    0,000000000e+00    0,000000000e+00
     1500000000   -3,027896881e-01   -5,813509598e-02    8,356642723e-01   -4,060683846e-01    0,000000000e+00    0,000000000e+00    0,000000000e+00    0,000000000e+00
