! NanoVNA-App
! Date: 2025-09-25 15:02:02
! Start: 100MHz Stop: 1,5GHz Points: 101
! S-Parameter data: F S11 S21 S12 S22
# Hz S RI R 50
!     Frequency           S11_Real           S11_Imag           S21_Real           S21_Imag           S12_Real           S12_Imag           S22_Real           S22_Imag
      100000000    3,557609394e-02    2,736635320e-02    4,407308996e-01   -6,694943309e-01    0,000000000e+00    0,000000000e+00    0,000000000e+00    0,000000000e+00
      114000000    6,072016805e-02    2,177744405e-03    1,276776008e-02   -7,953287363e-01    0,000000000e+00    0,000000000e+00    0,000000000e+00    0,000000000e+00
      128000000    6,836606562e-02   -4,228616506e-02   -4,083512127e-01   -6,783077717e-01    0,000000000e+00    0,000000000e+00    0,000000000e+00    0,000000000e+00
      142000000    4,347115010e-02   -8,880311996e-02   -7,052935958e-01   -3,609854579e-01    0,000000000e+00    0,000000000e+00    0,000000000e+00    0,000000000e+00
      156000000   -8,734025061e-03   -1,103741303e-01   -7,942512631e-01    6,827802211e-02    0,000000000e+00    0,000000000e+00    0,000000000e+00    0,000000000e+00
      170000000   -6,268119812e-02   -9,184283018e-02   -6,367987394e-01    4,863239527e-01    0,000000000e+00    0,000000000e+00    0,000000000e+00    0,000000000e+00
      184000000   -8,861054480e-02   -4,767270014e-02   -2,732031345e-01    7,560706735e-01    0,000000000e+00    0,000000000e+00    0,000000000e+00    0,000000000e+00
      198000000   -8,275896311e-02   -6,411815993e-03    1,796353161e-01    7,823332548e-01    0,000000000e+00    0,000000000e+00    0,000000000e+00    0,000000000e+00
      212000000   -6,273458153e-02    1,802070066e-02    5,705852509e-01    5,585340261e-01    0,000000000e+00    0,000000000e+00    0,000000000e+00    0,000000000e+00
      226000000   -4,147717357e-02    3,178721666e-02    7,768228650e-01    1,618453115e-01    0,000000000e+00    0,000000000e+00    0,000000000e+00    0,000000000e+00
      240000000   -1,485930383e-02    4,133931175e-02    7,359857559e-01   -2,786964774e-01    0,000000000e+00    0,000000000e+00    0,000000000e+00    0,000000000e+00
      254000000    2,139699645e-02    3,637660295e-02    4,678553343e-01   -6,222463846e-01    0,000000000e+00    0,000000000e+00    0,000000000e+00    0,000000000e+00
      268000000    5,329382047e-02    4,689966794e-03    6,680363417e-02   -7,676355839e-01    0,000000000e+00    0,000000000e+00    0,000000000e+00    0,000000000e+00
      282000000    5,740389228e-02   -4,486454278e-02   -3,452583551e-01   -6,828083396e-01    0,000000000e+00    0,000000000e+00    0,000000000e+00    0,000000000e+00
      296000000    2,609582432e-02   -8,472160250e-02   -6,547923684e-01   -3,980947435e-01    0,000000000e+00    0,000000000e+00    0,000000000e+00    0,000000000e+00
      310000000   -1,901726425e-02   -8,936402947e-02   -7,739823461e-01    9,627542458e-03    0,000000000e+00    0,000000000e+00    0,000000000e+00    0,000000000e+00
      324000000   -4,656602815e-02   -6,353175640e-02   -6,481570005e-01    4,292980731e-01    0,000000000e+00    0,000000000e+00    0,000000000e+00    0,000000000e+00
      338000000   -4,115169868e-02   -3,776812926e-02   -3,121317029e-01    7,082887888e-01    0,000000000e+00    0,000000000e+00    0,000000000e+00    0,000000000e+00
      352000000   -2,348096296e-02   -3,784715384e-02    1,199320182e-01    7,594781518e-01    0,000000000e+00    0,000000000e+00    0,000000000e+00    0,000000000e+00
      366000000   -2,315577865e-02   -5,611096695e-02    5,027686357e-01    5,715576410e-01    0,000000000e+00    0,000000000e+00    0,000000000e+00    0,000000000e+00
      380000000   -4,477234557e-02   -6,532277912e-02    7,257720828e-01    2,113139778e-01    0,000000000e+00    0,000000000e+00    0,000000000e+00    0,000000000e+00
      394000000   -6,647337228e-02   -5,036988109e-02    7,228142023e-01   -2,123892158e-01    0,000000000e+00    0,000000000e+00    0,000000000e+00    0,000000000e+00
      408000000   -6,754465401e-02   -2,624073252e-02    4,891288877e-01   -5,686213374e-01    0,000000000e+00    0,000000000e+00    0,000000000e+00    0,000000000e+00
      422000000   -5,302047729e-02   -1,511442009e-02    1,060897708e-01   -7,379555702e-01    0,000000000e+00    0,000000000e+00    0,000000000e+00    0,000000000e+00
      436000000   -4,629302770e-02   -1,848898828e-02   -3,057087064e-01   -6,757320762e-01    0,000000000e+00    0,000000000e+00    0,000000000e+00    0,000000000e+00
      450000000   -5,199248716e-02   -1,493181381e-02   -6,187849045e-01   -3,994235098e-01    0,000000000e+00    0,000000000e+00    0,000000000e+00    0,000000000e+00
      464000000   -5,063585937e-02    5,957464688e-03   -7,299407125e-01    3,744888585e-03    0,000000000e+00    0,000000000e+00    0,000000000e+00    0,000000000e+00
      478000000   -2,023478597e-02    2,644653432e-02   -5,982910395e-01    3,967662454e-01    0,000000000e+00    0,000000000e+00    0,000000000e+00    0,000000000e+00
      492000000    2,823980153e-02    1,477645617e-02   -2,794118822e-01    6,444714069e-01    0,000000000e+00    0,000000000e+00    0,000000000e+00    0,000000000e+00
      506000000    5,866381526e-02   -3,755458817e-02    1,039487496e-01    6,803565025e-01    0,000000000e+00    0,000000000e+00    0,000000000e+00    0,000000000e+00
      520000000    4,416717589e-02   -1,024088562e-01    4,440065622e-01    5,152315497e-01    0,000000000e+00    0,000000000e+00    0,000000000e+00    0,000000000e+00
      534000000   -1,302551106e-02   -1,436025053e-01    6,494693160e-01    2,063207477e-01    0,000000000e+00    0,000000000e+00    0,000000000e+00    0,000000000e+00
      548000000   -8,105581999e-02   -1,390269846e-01    6,600232124e-01   -1,751308441e-01    0,000000000e+00    0,000000000e+00    0,000000000e+00    0,000000000e+00
      562000000   -1,292440444e-01   -9,814305604e-02    4,531690478e-01   -5,076370239e-01    0,000000000e+00    0,000000000e+00    0,000000000e+00    0,000000000e+00
      576000000   -1,472235024e-01   -4,084760323e-02    8,503383398e-02   -6,624178886e-01    0,000000000e+00    0,000000000e+00    0,000000000e+00    0,000000000e+00
      590000000   -1,319123358e-01    2,325546183e-02   -2,977915108e-01   -5,700964332e-01    0,000000000e+00    0,000000000e+00    0,000000000e+00    0,000000000e+00
      604000000   -5,104936287e-02    6,973434240e-02   -5,034968853e-01   -2,719490826e-01    0,000000000e+00    0,000000000e+00    0,000000000e+00    0,000000000e+00
      618000000    3,982271627e-02   -1,163002569e-02   -4,917294979e-01   -2,723613195e-02    0,000000000e+00    0,000000000e+00    0,000000000e+00    0,000000000e+00
      632000000   -3,677871823e-02   -9,936840087e-02   -5,065743923e-01    1,719204634e-01    0,000000000e+00    0,000000000e+00    0,000000000e+00    0,000000000e+00
      646000000   -1,016082540e-01   -4,391454160e-02   -3,797931671e-01    4,650861919e-01    0,000000000e+00    0,000000000e+00    0,000000000e+00    0,000000000e+00
      660000000   -7,533513010e-02    7,249857765e-03   -5,701881275e-02    6,225448847e-01    0,000000000e+00    0,000000000e+00    0,000000000e+00    0,000000000e+00
      674000000   -3,436294571e-02    7,540457416e-03    2,938683927e-01    5,553417206e-01    0,000000000e+00    0,000000000e+00    0,000000000e+00    0,000000000e+00
      688000000   -1,543798018e-02   -1,402863860e-02    5,460490584e-01    3,065140545e-01    0,000000000e+00    0,000000000e+00    0,000000000e+00    0,000000000e+00
      702000000   -1,338977832e-02   -3,204318136e-02    6,188702583e-01   -3,763593361e-02    0,000000000e+00    0,000000000e+00    0,000000000e+00    0,000000000e+00
      716000000   -7,108271588e-03   -4,828627408e-02    4,935527742e-01   -3,662280440e-01    0,000000000e+00    0,000000000e+00    0,000000000e+00    0,000000000e+00
      730000000   -6,182502024e-03   -7,597695291e-02    2,144039273e-01   -5,673308969e-01    0,000000000e+00    0,000000000e+00    0,000000000e+00    0,000000000e+00
      744000000   -2,523300238e-02   -1,131219044e-01   -1,224697754e-01   -5,892304182e-01    0,000000000e+00    0,000000000e+00    0,000000000e+00    0,000000000e+00
      758000000   -7,490850240e-02   -1,348280609e-01   -4,191584587e-01   -4,346215725e-01    0,000000000e+00    0,000000000e+00    0,000000000e+00    0,000000000e+00
      772000000   -1,373001486e-01   -1,167544127e-01   -5,945777893e-01   -1,416496485e-01    0,000000000e+00    0,000000000e+00    0,000000000e+00    0,000000000e+00
      786000000   -1,737502664e-01   -5,720480904e-02   -5,829983950e-01    2,092224211e-01    0,000000000e+00    0,000000000e+00    0,000000000e+00    0,000000000e+00
      800000000   -1,609618515e-01    8,062447421e-03   -3,735045493e-01    4,964334071e-01    0,000000000e+00    0,000000000e+00    0,000000000e+00    0,000000000e+00
      814000000   -1,132341102e-01    4,436352849e-02   -4,635635391e-02    6,158849001e-01    0,000000000e+00    0,000000000e+00    0,000000000e+00    0,000000000e+00
      828000000   -6,742849946e-02    4,416895658e-02    2,859458923e-01    5,409470797e-01    0,000000000e+00    0,000000000e+00    0,000000000e+00    0,000000000e+00
      842000000   -3,816489130e-02    2,777235769e-02    5,222524405e-01    3,067339361e-01    0,000000000e+00    0,000000000e+00    0,000000000e+00    0,000000000e+00
      856000000   -1,864214055e-02    1,095584128e-02    5,963193178e-01   -1,410695445e-02    0,000000000e+00    0,000000000e+00    0,000000000e+00    0,000000000e+00
      870000000    5,860642341e-05   -1,223328523e-02    4,874789715e-01   -3,184228539e-01    0,000000000e+00    0,000000000e+00    0,000000000e+00    0,000000000e+00
      884000000    1,180530526e-02   -5,132976547e-02    2,431841642e-01   -5,130400062e-01    0,000000000e+00    0,000000000e+00    0,000000000e+00    0,000000000e+00
      898000000   -4,410631489e-03   -1,006528884e-01   -5,990874395e-02   -5,555139184e-01    0,000000000e+00    0,000000000e+00    0,000000000e+00    0,000000000e+00
      912000000   -6,190494448e-02   -1,304122359e-01   -3,883385360e-01   -4,274906814e-01    0,000000000e+00    0,000000000e+00    0,000000000e+00    0,000000000e+00
      926000000   -1,265675277e-01   -1,190757006e-01   -5,688734055e-01   -1,473117918e-01    0,000000000e+00    0,000000000e+00    0,000000000e+00    0,000000000e+00
      940000000   -1,603638679e-01   -6,223034114e-02   -5,680831671e-01    1,935487390e-01    0,000000000e+00    0,000000000e+00    0,000000000e+00    0,000000000e+00
      954000000   -1,496997625e-01   -4,329595715e-03   -3,761911094e-01    4,864156544e-01    0,000000000e+00    0,000000000e+00    0,000000000e+00    0,000000000e+00
      968000000   -9,844469279e-02    2,144555561e-02   -5,206732824e-02    6,139376760e-01    0,000000000e+00    0,000000000e+00    0,000000000e+00    0,000000000e+00
      982000000   -5,384821817e-02    4,725432023e-03    2,804367244e-01    5,526654720e-01    0,000000000e+00    0,000000000e+00    0,000000000e+00    0,000000000e+00
      996000000   -4,557714611e-02   -3,389564157e-02    5,225436687e-01    3,271024227e-01    0,000000000e+00    0,000000000e+00    0,000000000e+00    0,000000000e+00
     1010000000   -6,251185387e-02   -6,796403974e-02    6,077029109e-01    1,430323627e-02    0,000000000e+00    0,000000000e+00    0,000000000e+00    0,000000000e+00
     1024000000   -9,585402161e-02   -7,857464254e-02    5,127620101e-01   -2,828775048e-01    0,000000000e+00    0,000000000e+00    0,000000000e+00    0,000000000e+00
     1038000000   -1,429203004e-01   -5,931227282e-02    2,946256399e-01   -4,697402716e-01    0,000000000e+00    0,000000000e+00    0,000000000e+00    0,000000000e+00
     1052000000   -1,477978528e-01   -2,686725697e-03    3,673950210e-02   -5,246930122e-01    0,000000000e+00    0,000000000e+00    0,000000000e+00    0,000000000e+00
     1066000000   -1,032519415e-01    3,976378962e-02   -2,151342630e-01   -4,689459205e-01    0,000000000e+00    0,000000000e+00    0,000000000e+00    0,000000000e+00
     1080000000   -5,505912378e-02    2,528094873e-02   -4,203441143e-01   -2,977785766e-01    0,000000000e+00    0,000000000e+00    0,000000000e+00    0,000000000e+00
     1094000000   -3,142745793e-02   -5,122314207e-03   -5,196534991e-01   -2,155259997e-02    0,000000000e+00    0,000000000e+00    0,000000000e+00    0,000000000e+00
     1108000000   -3,064922616e-02   -2,893419191e-02   -4,419418871e-01    2,846495211e-01    0,000000000e+00    0,000000000e+00    0,000000000e+00    0,000000000e+00
     1122000000   -2,897498384e-02   -6,022746116e-02   -1,882238388e-01    4,989728928e-01    0,000000000e+00    0,000000000e+00    0,000000000e+00    0,000000000e+00
     1136000000   -4,101055115e-02   -9,578399360e-02    1,491368711e-01    5,202792883e-01    0,000000000e+00    0,000000000e+00    0,000000000e+00    0,000000000e+00
     1150000000   -7,996287942e-02   -1,240408868e-01    4,557023942e-01    3,438588381e-01    0,000000000e+00    0,000000000e+00    0,000000000e+00    0,000000000e+00
     1164000000   -1,405548155e-01   -1,258811802e-01    6,117206812e-01    1,440894231e-02    0,000000000e+00    0,000000000e+00    0,000000000e+00    0,000000000e+00
     1178000000   -1,749259382e-01   -8,269943297e-02    5,378220081e-01   -3,717492521e-01    0,000000000e+00    0,000000000e+00    0,000000000e+00    0,000000000e+00
     1192000000   -1,818108410e-01   -5,157011002e-02    2,436613292e-01   -6,340828538e-01    0,000000000e+00    0,000000000e+00    0,000000000e+00    0,000000000e+00
     1206000000   -1,879497319e-01   -5,644678324e-02   -1,376424879e-01   -6,592653394e-01    0,000000000e+00    0,000000000e+00    0,000000000e+00    0,000000000e+00
     1220000000   -2,546589971e-01   -1,379761007e-02   -4,196699858e-01   -4,796825945e-01    0,000000000e+00    0,000000000e+00    0,000000000e+00    0,000000000e+00
     1234000000   -2,462763786e-01    1,182497591e-01   -5,605673790e-01   -2,499240041e-01    0,000000000e+00    0,000000000e+00    0,000000000e+00    0,000000000e+00
     1248000000   -1,178700775e-01    1,737239510e-01   -6,073246598e-01    1,565162651e-02    0,000000000e+00    0,000000000e+00    0,000000000e+00    0,000000000e+00
     1262000000   -3,920533229e-03    1,279792339e-01   -5,021589994e-01    2,961372435e-01    0,000000000e+00    0,000000000e+00    0,000000000e+00    0,000000000e+00
     1276000000    6,124896556e-02    4,353249446e-02   -2,791325450e-01    4,893367887e-01    0,000000000e+00    0,000000000e+00    0,000000000e+00    0,000000000e+00
     1290000000    6,927252561e-02   -6,929803640e-02    1,179055776e-03    5,518075824e-01    0,000000000e+00    0,000000000e+00    0,000000000e+00    0,000000000e+00
     1304000000    2,347712032e-02   -1,794211119e-01    3,052034080e-01    4,800013602e-01    0,000000000e+00    0,000000000e+00    0,000000000e+00    0,000000000e+00
     1318000000   -9,422376752e-02   -2,494603246e-01    5,382773280e-01    2,732933462e-01    0,000000000e+00    0,000000000e+00    0,000000000e+00    0,000000000e+00
     1332000000   -2,400306314e-01   -2,444931120e-01    6,527220011e-01   -5,254201591e-02    0,000000000e+00    0,000000000e+00    0,000000000e+00    0,000000000e+00
     1346000000   -3,598939180e-01   -1,432289928e-01    5,520993471e-01   -4,144340158e-01    0,000000000e+00    0,000000000e+00    0,000000000e+00    0,000000000e+00
     1360000000   -3,828524649e-01    4,565907177e-03    2,563752234e-01   -6,334472299e-01    0,000000000e+00    0,000000000e+00    0,000000000e+00    0,000000000e+00
     1374000000   -3,269290626e-01    1,180395931e-01   -1,107082218e-01   -6,322603822e-01    0,000000000e+00    0,000000000e+00    0,000000000e+00    0,000000000e+00
     1388000000   -2,357686907e-01    1,659380198e-01   -3,696303666e-01   -4,167427421e-01    0,000000000e+00    0,000000000e+00    0,000000000e+00    0,000000000e+00
     1402000000   -1,555009037e-01    1,685103625e-01   -4,750485420e-01   -1,026773974e-01    0,000000000e+00    0,000000000e+00    0,000000000e+00    0,000000000e+00
     1416000000   -8,536000550e-02    1,423318982e-01   -3,985937536e-01    1,953361928e-01    0,000000000e+00    0,000000000e+00    0,000000000e+00    0,000000000e+00
     1430000000   -2,807703614e-02    8,502882719e-02   -1,740995944e-01    4,534111023e-01    0,000000000e+00    0,000000000e+00    0,000000000e+00    0,000000000e+00
     1444000000   -1,395788882e-02    5,998408888e-03    1,275395751e-01    5,335968733e-01    0,000000000e+00    0,000000000e+00    0,000000000e+00    0,000000000e+00
     1458000000   -4,172463715e-02   -8,230333775e-02    4,376999736e-01    5,005271435e-01    0,000000000e+00    0,000000000e+00    0,000000000e+00    0,000000000e+00
     1472000000   -1,252503097e-01   -1,476968825e-01    7,201083899e-01    3,082067370e-01    0,000000000e+00    0,000000000e+00    0,000000000e+00    0,000000000e+00
     1486000000   -2,302626967e-01   -1,367101967e-01    9,028314352e-01   -2,710946091e-02    0,000000000e+00    0,000000000e+00    0,000000000e+00    0,000000000e+00
     1500000000   -3,051152527e-01   -6,700980663e-02    8,401446939e-01   -4,331133068e-01    0,000000000e+00    0,000000000e+00    0,000000000e+00    0,000000000e+00
