! NanoVNA-App
! Date: 2025-09-25 15:01:22
! Start: 100MHz Stop: 1,5GHz Points: 101
! S-Parameter data: F S11 S21 S12 S22
# Hz S RI R 50
!     Frequency           S11_Real           S11_Imag           S21_Real           S21_Imag           S12_Real           S12_Imag           S22_Real           S22_Imag
      100000000    3,557008505e-02    2,736480720e-02    4,407454431e-01   -6,695125103e-01    0,000000000e+00    0,000000000e+00    0,000000000e+00    0,000000000e+00
      114000000    6,071076915e-02    2,192349872e-03    1,272744965e-02   -7,953354120e-01    0,000000000e+00    0,000000000e+00    0,000000000e+00    0,000000000e+00
      128000000    6,839805841e-02   -4,223467782e-02   -4,082597792e-01   -6,780019403e-01    0,000000000e+00    0,000000000e+00    0,000000000e+00    0,000000000e+00
      142000000    4,348133132e-02   -8,878365904e-02   -7,053502202e-01   -3,609216809e-01    0,000000000e+00    0,000000000e+00    0,000000000e+00    0,000000000e+00
      156000000   -9,856129996e-03   -1,095692441e-01   -7,923952341e-01    6,732733548e-02    0,000000000e+00    0,000000000e+00    0,000000000e+00    0,000000000e+00
      170000000   -6,272801012e-02   -9,182174504e-02   -6,369794011e-01    4,866357148e-01    0,000000000e+00    0,000000000e+00    0,000000000e+00    0,000000000e+00
      184000000   -8,862288296e-02   -4,770419747e-02   -2,732928693e-01    7,562640309e-01    0,000000000e+00    0,000000000e+00    0,000000000e+00    0,000000000e+00
      198000000   -8,274588734e-02   -6,432674360e-03    1,794293523e-01    7,822308540e-01    0,000000000e+00    0,000000000e+00    0,000000000e+00    0,000000000e+00
      212000000   -6,271068007e-02    1,806770451e-02    5,708830357e-01    5,583794713e-01    0,000000000e+00    0,000000000e+00    0,000000000e+00    0,000000000e+00
      226000000   -4,151048884e-02    3,181832656e-02    7,768263221e-01    1,620956808e-01    0,000000000e+00    0,000000000e+00    0,000000000e+00    0,000000000e+00
      240000000   -1,495706383e-02    4,133092239e-02    7,360777259e-01   -2,786253393e-01    0,000000000e+00    0,000000000e+00    0,000000000e+00    0,000000000e+00
      254000000    2,140167356e-02    3,629284725e-02    4,679544568e-01   -6,220872402e-01    0,000000000e+00    0,000000000e+00    0,000000000e+00    0,000000000e+00
      268000000    5,330489203e-02    4,781960510e-03    6,678764522e-02   -7,674057484e-01    0,000000000e+00    0,000000000e+00    0,000000000e+00    0,000000000e+00
      282000000    5,738953874e-02   -4,493590817e-02   -3,454889953e-01   -6,825001240e-01    0,000000000e+00    0,000000000e+00    0,000000000e+00    0,000000000e+00
      296000000    2,612035535e-02   -8,465671539e-02   -6,547473073e-01   -3,979366720e-01    0,000000000e+00    0,000000000e+00    0,000000000e+00    0,000000000e+00
      310000000   -1,877561957e-02   -8,955492079e-02   -7,737315297e-01    9,670625441e-03    0,000000000e+00    0,000000000e+00    0,000000000e+00    0,000000000e+00
      324000000   -4,682350159e-02   -6,345173717e-02   -6,489856243e-01    4,298140705e-01    0,000000000e+00    0,000000000e+00    0,000000000e+00    0,000000000e+00
      338000000   -4,113634303e-02   -3,791431710e-02   -3,124648631e-01    7,113404870e-01    0,000000000e+00    0,000000000e+00    0,000000000e+00    0,000000000e+00
      352000000   -2,342427708e-02   -3,781722486e-02    1,192948371e-01    7,578390837e-01    0,000000000e+00    0,000000000e+00    0,000000000e+00    0,000000000e+00
      366000000   -2,309128456e-02   -5,607617646e-02    5,031903386e-01    5,711271763e-01    0,000000000e+00    0,000000000e+00    0,000000000e+00    0,000000000e+00
      380000000   -4,486742988e-02   -6,500817090e-02    7,264302969e-01    2,116046548e-01    0,000000000e+00    0,000000000e+00    0,000000000e+00    0,000000000e+00
      394000000   -6,669877470e-02   -5,035244301e-02    7,229252458e-01   -2,126784921e-01    0,000000000e+00    0,000000000e+00    0,000000000e+00    0,000000000e+00
      408000000   -6,778858602e-02   -2,620881982e-02    4,898864627e-01   -5,685862303e-01    0,000000000e+00    0,000000000e+00    0,000000000e+00    0,000000000e+00
      422000000   -5,310823768e-02   -1,524727512e-02    1,051059514e-01   -7,384786010e-01    0,000000000e+00    0,000000000e+00    0,000000000e+00    0,000000000e+00
      436000000   -4,641903937e-02   -1,860683598e-02   -3,063291013e-01   -6,750028133e-01    0,000000000e+00    0,000000000e+00    0,000000000e+00    0,000000000e+00
      450000000   -5,209352821e-02   -1,488988474e-02   -6,189801097e-01   -3,998989463e-01    0,000000000e+00    0,000000000e+00    0,000000000e+00    0,000000000e+00
      464000000   -5,014850572e-02    5,635578185e-03   -7,298192978e-01    3,327607177e-03    0,000000000e+00    0,000000000e+00    0,000000000e+00    0,000000000e+00
      478000000   -2,068958618e-02    2,631757408e-02   -5,990921855e-01    3,973511159e-01    0,000000000e+00    0,000000000e+00    0,000000000e+00    0,000000000e+00
      492000000    2,825111896e-02    1,429947652e-02   -2,799448371e-01    6,444301009e-01    0,000000000e+00    0,000000000e+00    0,000000000e+00    0,000000000e+00
      506000000    5,897497758e-02   -3,769215196e-02    1,043395549e-01    6,803808808e-01    0,000000000e+00    0,000000000e+00    0,000000000e+00    0,000000000e+00
      520000000    4,402429610e-02   -1,022282317e-01    4,456465244e-01    5,156930089e-01    0,000000000e+00    0,000000000e+00    0,000000000e+00    0,000000000e+00
      534000000   -1,256854739e-02   -1,430614293e-01    6,499247551e-01    2,064235955e-01    0,000000000e+00    0,000000000e+00    0,000000000e+00    0,000000000e+00
      548000000   -8,096493036e-02   -1,396728009e-01    6,607147455e-01   -1,756215394e-01    0,000000000e+00    0,000000000e+00    0,000000000e+00    0,000000000e+00
      562000000   -1,294631064e-01   -9,834787250e-02    4,525548220e-01   -5,085457563e-01    0,000000000e+00    0,000000000e+00    0,000000000e+00    0,000000000e+00
      576000000   -1,474957764e-01   -4,036841542e-02    8,431475610e-02   -6,621072292e-01    0,000000000e+00    0,000000000e+00    0,000000000e+00    0,000000000e+00
      590000000   -1,315796971e-01    2,363361046e-02   -2,942621410e-01   -5,698499084e-01    0,000000000e+00    0,000000000e+00    0,000000000e+00    0,000000000e+00
      604000000   -5,035755783e-02    6,961534172e-02   -5,025798082e-01   -2,717781365e-01    0,000000000e+00    0,000000000e+00    0,000000000e+00    0,000000000e+00
      618000000    3,950420022e-02   -1,282965764e-02   -4,921389818e-01   -2,922438458e-02    0,000000000e+00    0,000000000e+00    0,000000000e+00    0,000000000e+00
      632000000   -3,812002763e-02   -9,850810468e-02   -5,081730485e-01    1,730837822e-01    0,000000000e+00    0,000000000e+00    0,000000000e+00    0,000000000e+00
      646000000   -1,014370993e-01   -4,331909120e-02   -3,796170354e-01    4,658144414e-01    0,000000000e+00    0,000000000e+00    0,000000000e+00    0,000000000e+00
      660000000   -7,515600324e-02    8,462928236e-03   -5,715308711e-02    6,222828031e-01    0,000000000e+00    0,000000000e+00    0,000000000e+00    0,000000000e+00
      674000000   -3,411213309e-02    7,342409808e-03    2,946176827e-01    5,550860167e-01    0,000000000e+00    0,000000000e+00    0,000000000e+00    0,000000000e+00
      688000000   -1,634799503e-02   -1,487416774e-02    5,458763242e-01    3,055709898e-01    0,000000000e+00    0,000000000e+00    0,000000000e+00    0,000000000e+00
      702000000   -1,249898411e-02   -3,294605017e-02    6,232209206e-01   -4,011625424e-02    0,000000000e+00    0,000000000e+00    0,000000000e+00    0,000000000e+00
      716000000   -8,312931284e-03   -4,762562737e-02    4,935323596e-01   -3,665837944e-01    0,000000000e+00    0,000000000e+00    0,000000000e+00    0,000000000e+00
      730000000   -5,173404701e-03   -7,534416765e-02    2,135250121e-01   -5,683308244e-01    0,000000000e+00    0,000000000e+00    0,000000000e+00    0,000000000e+00
      744000000   -2,560498379e-02   -1,129693910e-01   -1,227641404e-01   -5,895481110e-01    0,000000000e+00    0,000000000e+00    0,000000000e+00    0,000000000e+00
      758000000   -7,590533793e-02   -1,336630136e-01   -4,191866517e-01   -4,342314601e-01    0,000000000e+00    0,000000000e+00    0,000000000e+00    0,000000000e+00
      772000000   -1,375680566e-01   -1,164097786e-01   -5,947869420e-01   -1,413485408e-01    0,000000000e+00    0,000000000e+00    0,000000000e+00    0,000000000e+00
      786000000   -1,732925475e-01   -5,721645802e-02   -5,835065842e-01    2,093722075e-01    0,000000000e+00    0,000000000e+00    0,000000000e+00    0,000000000e+00
      800000000   -1,598326266e-01    7,727845572e-03   -3,740332723e-01    4,967651665e-01    0,000000000e+00    0,000000000e+00    0,000000000e+00    0,000000000e+00
      814000000   -1,130902544e-01    4,398479313e-02   -4,563004524e-02    6,153345108e-01    0,000000000e+00    0,000000000e+00    0,000000000e+00    0,000000000e+00
      828000000   -6,724023074e-02    4,368450865e-02    2,865935266e-01    5,411711335e-01    0,000000000e+00    0,000000000e+00    0,000000000e+00    0,000000000e+00
      842000000   -3,750698641e-02    2,786629461e-02    5,218939781e-01    3,067902327e-01    0,000000000e+00    0,000000000e+00    0,000000000e+00    0,000000000e+00
      856000000   -1,801008545e-02    1,102391817e-02    5,958746672e-01   -1,398858801e-02    0,000000000e+00    0,000000000e+00    0,000000000e+00    0,000000000e+00
      870000000    6,239283830e-04   -1,139591821e-02    4,870820045e-01   -3,177124858e-01    0,000000000e+00    0,000000000e+00    0,000000000e+00    0,000000000e+00
      884000000    1,144447364e-02   -5,142615363e-02    2,423044443e-01   -5,139963627e-01    0,000000000e+00    0,000000000e+00    0,000000000e+00    0,000000000e+00
      898000000   -4,289310891e-03   -9,992103279e-02   -5,939757079e-02   -5,561004281e-01    0,000000000e+00    0,000000000e+00    0,000000000e+00    0,000000000e+00
      912000000   -6,113562360e-02   -1,304895580e-01   -3,839940429e-01   -4,174203575e-01    0,000000000e+00    0,000000000e+00    0,000000000e+00    0,000000000e+00
      926000000   -1,251597106e-01   -1,174966469e-01   -5,678696036e-01   -1,462446600e-01    0,000000000e+00    0,000000000e+00    0,000000000e+00    0,000000000e+00
      940000000   -1,637078822e-01   -6,400629878e-02   -5,699879527e-01    1,947826445e-01    0,000000000e+00    0,000000000e+00    0,000000000e+00    0,000000000e+00
      954000000   -1,502509564e-01   -4,013924394e-03   -3,750125766e-01    4,836492538e-01    0,000000000e+00    0,000000000e+00    0,000000000e+00    0,000000000e+00
      968000000   -9,906210750e-02    2,586878836e-02   -5,057707429e-02    6,155212522e-01    0,000000000e+00    0,000000000e+00    0,000000000e+00    0,000000000e+00
      982000000   -5,354391783e-02    5,535218399e-03    2,803663015e-01    5,520278215e-01    0,000000000e+00    0,000000000e+00    0,000000000e+00    0,000000000e+00
      996000000   -4,095644876e-02   -3,169123828e-02    5,218545794e-01    3,283900321e-01    0,000000000e+00    0,000000000e+00    0,000000000e+00    0,000000000e+00
     1010000000   -6,280973554e-02   -6,810777634e-02    6,080336571e-01    1,256110519e-02    0,000000000e+00    0,000000000e+00    0,000000000e+00    0,000000000e+00
     1024000000   -1,025186256e-01   -7,739751786e-02    5,116379857e-01   -2,815178335e-01    0,000000000e+00    0,000000000e+00    0,000000000e+00    0,000000000e+00
     1038000000   -1,394260526e-01   -5,419300124e-02    2,937823534e-01   -4,704810381e-01    0,000000000e+00    0,000000000e+00    0,000000000e+00    0,000000000e+00
     1052000000   -1,502631009e-01   -4,359161016e-03    3,574186191e-02   -5,266756415e-01    0,000000000e+00    0,000000000e+00    0,000000000e+00    0,000000000e+00
     1066000000   -1,030396447e-01    3,871539608e-02   -2,127971351e-01   -4,655832946e-01    0,000000000e+00    0,000000000e+00    0,000000000e+00    0,000000000e+00
     1080000000   -5,633860826e-02    2,437088080e-02   -4,187817574e-01   -2,978108227e-01    0,000000000e+00    0,000000000e+00    0,000000000e+00    0,000000000e+00
     1094000000   -3,432462364e-02   -9,959066287e-03   -5,209290981e-01   -2,171388455e-02    0,000000000e+00    0,000000000e+00    0,000000000e+00    0,000000000e+00
     1108000000   -2,859799005e-02   -3,368707746e-02   -4,415674508e-01    2,866772413e-01    0,000000000e+00    0,000000000e+00    0,000000000e+00    0,000000000e+00
     1122000000   -3,329022229e-02   -5,940454453e-02   -1,878755391e-01    4,953384697e-01    0,000000000e+00    0,000000000e+00    0,000000000e+00    0,000000000e+00
     1136000000   -4,226684198e-02   -9,790392965e-02    1,497161835e-01    5,196174383e-01    0,000000000e+00    0,000000000e+00    0,000000000e+00    0,000000000e+00
     1150000000   -8,039250225e-02   -1,235452369e-01    4,534805417e-01    3,452749252e-01    0,000000000e+00    0,000000000e+00    0,000000000e+00    0,000000000e+00
     1164000000   -1,417697221e-01   -1,225683540e-01    6,119790673e-01    1,242733747e-02    0,000000000e+00    0,000000000e+00    0,000000000e+00    0,000000000e+00
     1178000000   -1,740609109e-01   -8,440675586e-02    5,356082916e-01   -3,752780557e-01    0,000000000e+00    0,000000000e+00    0,000000000e+00    0,000000000e+00
     1192000000   -1,768330485e-01   -5,066339672e-02    2,372660935e-01   -6,377507448e-01    0,000000000e+00    0,000000000e+00    0,000000000e+00    0,000000000e+00
     1206000000   -1,909502596e-01   -5,132339522e-02   -1,374943852e-01   -6,596955657e-01    0,000000000e+00    0,000000000e+00    0,000000000e+00    0,000000000e+00
     1220000000   -2,576229274e-01   -1,567787305e-02   -4,253880680e-01   -4,843544066e-01    0,000000000e+00    0,000000000e+00    0,000000000e+00    0,000000000e+00
     1234000000   -2,435280234e-01    1,148263142e-01   -5,613244176e-01   -2,505806983e-01    0,000000000e+00    0,000000000e+00    0,000000000e+00    0,000000000e+00
     1248000000   -1,170535088e-01    1,804967821e-01   -6,034394503e-01    1,814219914e-02    0,000000000e+00    0,000000000e+00    0,000000000e+00    0,000000000e+00
     1262000000   -6,168375257e-03    1,328450143e-01   -5,113337636e-01    2,967421114e-01    0,000000000e+00    0,000000000e+00    0,000000000e+00    0,000000000e+00
     1276000000    6,098984554e-02    4,088389501e-02   -2,788664103e-01    4,839602709e-01    0,000000000e+00    0,000000000e+00    0,000000000e+00    0,000000000e+00
     1290000000    7,326395810e-02   -6,913150847e-02    1,012590900e-02    5,474113822e-01    0,000000000e+00    0,000000000e+00    0,000000000e+00    0,000000000e+00
     1304000000    2,078525722e-02   -1,777080595e-01    3,008157909e-01    4,761078358e-01    0,000000000e+00    0,000000000e+00    0,000000000e+00    0,000000000e+00
     1318000000   -9,315612912e-02   -2,537095249e-01    5,382556319e-01    2,714076638e-01    0,000000000e+00    0,000000000e+00    0,000000000e+00    0,000000000e+00
     1332000000   -2,384644598e-01   -2,426070273e-01    6,577408314e-01   -4,661403224e-02    0,000000000e+00    0,000000000e+00    0,000000000e+00    0,000000000e+00
     1346000000   -3,609087765e-01   -1,404718310e-01    5,502768159e-01   -4,083260596e-01    0,000000000e+00    0,000000000e+00    0,000000000e+00    0,000000000e+00
     1360000000   -3,859058619e-01    9,404335171e-03    2,675120234e-01   -6,259190440e-01    0,000000000e+00    0,000000000e+00    0,000000000e+00    0,000000000e+00
     1374000000   -3,227978945e-01    1,244931296e-01   -1,059567630e-01   -6,235002279e-01    0,000000000e+00    0,000000000e+00    0,000000000e+00    0,000000000e+00
     1388000000   -2,429376543e-01    1,676181555e-01   -3,739480078e-01   -4,220104814e-01    0,000000000e+00    0,000000000e+00    0,000000000e+00    0,000000000e+00
     1402000000   -1,544951051e-01    1,685250551e-01   -4,728229046e-01   -1,143281087e-01    0,000000000e+00    0,000000000e+00    0,000000000e+00    0,000000000e+00
     1416000000   -8,763330430e-02    1,433338225e-01   -4,012134969e-01    2,054640353e-01    0,000000000e+00    0,000000000e+00    0,000000000e+00    0,000000000e+00
     1430000000   -3,066710569e-02    8,576069027e-02   -1,611106694e-01    4,448874593e-01    0,000000000e+00    0,000000000e+00    0,000000000e+00    0,000000000e+00
     1444000000   -1,436232030e-02    9,536089376e-03    1,299879104e-01    5,283727050e-01    0,000000000e+00    0,000000000e+00    0,000000000e+00    0,000000000e+00
     1458000000   -4,375412315e-02   -8,092118800e-02    4,323162735e-01    4,981672168e-01    0,000000000e+00    0,000000000e+00    0,000000000e+00    0,000000000e+00
     1472000000   -1,226154044e-01   -1,404793561e-01    7,434014678e-01    3,107064664e-01    0,000000000e+00    0,000000000e+00    0,000000000e+00    0,000000000e+00
     1486000000   -2,289364636e-01   -1,461094022e-01    9,095808268e-01   -4,765864089e-02    0,000000000e+00    0,000000000e+00    0,000000000e+00    0,000000000e+00
     1500000000   -2,981438339e-01   -6,057021022e-02    8,466101885e-01   -4,088791609e-01    0,000000000e+00    0,000000000e+00    0,000000000e+00    0,000000000e+00
