! NanoVNA-App
! Date: 2025-09-25 14:56:10
! Start: 100MHz Stop: 1,5GHz Points: 101
! S-Parameter data: F S11 S21 S12 S22
# Hz S RI R 50
!     Frequency           S11_Real           S11_Imag           S21_Real           S21_Imag           S12_Real           S12_Imag           S22_Real           S22_Imag
      100000000    3,559296206e-02    2,697500587e-02    4,407319725e-01   -6,696506143e-01    0,000000000e+00    0,000000000e+00    0,000000000e+00    0,000000000e+00
      114000000    6,052299589e-02    1,737879007e-03    1,271011122e-02   -7,956987023e-01    0,000000000e+00    0,000000000e+00    0,000000000e+00    0,000000000e+00
      128000000    6,792856753e-02   -4,259331897e-02   -4,084233940e-01   -6,782966256e-01    0,000000000e+00    0,000000000e+00    0,000000000e+00    0,000000000e+00
      142000000    4,275737703e-02   -8,887018263e-02   -7,056779861e-01   -3,611114919e-01    0,000000000e+00    0,000000000e+00    0,000000000e+00    0,000000000e+00
      156000000   -9,716298431e-03   -1,102145612e-01   -7,938305736e-01    6,874292344e-02    0,000000000e+00    0,000000000e+00    0,000000000e+00    0,000000000e+00
      170000000   -6,322228909e-02   -9,104719013e-02   -6,369593143e-01    4,869042635e-01    0,000000000e+00    0,000000000e+00    0,000000000e+00    0,000000000e+00
      184000000   -8,868565410e-02   -4,655055702e-02   -2,728785276e-01    7,566581964e-01    0,000000000e+00    0,000000000e+00    0,000000000e+00    0,000000000e+00
      198000000   -8,212403208e-02   -5,385016091e-03    1,798560023e-01    7,823149562e-01    0,000000000e+00    0,000000000e+00    0,000000000e+00    0,000000000e+00
      212000000   -6,156504154e-02    1,864377037e-02    5,707703233e-01    5,581699610e-01    0,000000000e+00    0,000000000e+00    0,000000000e+00    0,000000000e+00
      226000000   -4,013708606e-02    3,169462085e-02    7,766865492e-01    1,616239101e-01    0,000000000e+00    0,000000000e+00    0,000000000e+00    0,000000000e+00
      240000000   -1,373360213e-02    4,036660492e-02    7,359453440e-01   -2,788215578e-01    0,000000000e+00    0,000000000e+00    0,000000000e+00    0,000000000e+00
      254000000    2,192185633e-02    3,482041508e-02    4,679955244e-01   -6,222772598e-01    0,000000000e+00    0,000000000e+00    0,000000000e+00    0,000000000e+00
      268000000    5,294676870e-02    3,130263649e-03    6,639476120e-02   -7,675309777e-01    0,000000000e+00    0,000000000e+00    0,000000000e+00    0,000000000e+00
      282000000    5,619753897e-02   -4,615415633e-02   -3,459009826e-01   -6,826784611e-01    0,000000000e+00    0,000000000e+00    0,000000000e+00    0,000000000e+00
      296000000    2,426950634e-02   -8,515023440e-02   -6,557177901e-01   -3,980358541e-01    0,000000000e+00    0,000000000e+00    0,000000000e+00    0,000000000e+00
      310000000   -2,093249373e-02   -8,888500929e-02   -7,750497460e-01    1,142398082e-02    0,000000000e+00    0,000000000e+00    0,000000000e+00    0,000000000e+00
      324000000   -4,795564339e-02   -6,182413548e-02   -6,481141448e-01    4,307805896e-01    0,000000000e+00    0,000000000e+00    0,000000000e+00    0,000000000e+00
      338000000   -4,104613513e-02   -3,607733548e-02   -3,090723753e-01    7,111314535e-01    0,000000000e+00    0,000000000e+00    0,000000000e+00    0,000000000e+00
      352000000   -2,281560004e-02   -3,578911722e-02    1,191543415e-01    7,576537132e-01    0,000000000e+00    0,000000000e+00    0,000000000e+00    0,000000000e+00
      366000000   -2,123647183e-02   -5,475986004e-02    5,037452579e-01    5,714131594e-01    0,000000000e+00    0,000000000e+00    0,000000000e+00    0,000000000e+00
      380000000   -4,284848273e-02   -6,502576172e-02    7,261439562e-01    2,110868543e-01    0,000000000e+00    0,000000000e+00    0,000000000e+00    0,000000000e+00
      394000000   -6,454180926e-02   -5,137869716e-02    7,230244875e-01   -2,134257555e-01    0,000000000e+00    0,000000000e+00    0,000000000e+00    0,000000000e+00
      408000000   -6,626887619e-02   -2,824611962e-02    4,886876047e-01   -5,685043931e-01    0,000000000e+00    0,000000000e+00    0,000000000e+00    0,000000000e+00
      422000000   -5,314216763e-02   -1,708668657e-02    1,058105379e-01   -7,386771441e-01    0,000000000e+00    0,000000000e+00    0,000000000e+00    0,000000000e+00
      436000000   -4,704847187e-02   -2,077306993e-02   -3,062426448e-01   -6,756042838e-01    0,000000000e+00    0,000000000e+00    0,000000000e+00    0,000000000e+00
      450000000   -5,389320105e-02   -1,604164578e-02   -6,192921996e-01   -4,001488090e-01    0,000000000e+00    0,000000000e+00    0,000000000e+00    0,000000000e+00
      464000000   -5,262158811e-02    5,563725717e-03   -7,301586866e-01    3,660528688e-03    0,000000000e+00    0,000000000e+00    0,000000000e+00    0,000000000e+00
      478000000   -2,244518325e-02    2,715772577e-02   -5,992690921e-01    3,972880840e-01    0,000000000e+00    0,000000000e+00    0,000000000e+00    0,000000000e+00
      492000000    2,707695216e-02    1,686387323e-02   -2,810046077e-01    6,458036304e-01    0,000000000e+00    0,000000000e+00    0,000000000e+00    0,000000000e+00
      506000000    5,815100297e-02   -3,492420167e-02    1,050935239e-01    6,815569401e-01    0,000000000e+00    0,000000000e+00    0,000000000e+00    0,000000000e+00
      520000000    4,549740627e-02   -9,986741841e-02    4,419395924e-01    5,210792422e-01    0,000000000e+00    0,000000000e+00    0,000000000e+00    0,000000000e+00
      534000000   -1,003786549e-02   -1,415555030e-01    6,511276364e-01    2,073311359e-01    0,000000000e+00    0,000000000e+00    0,000000000e+00    0,000000000e+00
      548000000   -7,676383108e-02   -1,397131085e-01    6,630604863e-01   -1,762495041e-01    0,000000000e+00    0,000000000e+00    0,000000000e+00    0,000000000e+00
      562000000   -1,255239546e-01   -1,027771905e-01    4,560478628e-01   -5,112067461e-01    0,000000000e+00    0,000000000e+00    0,000000000e+00    0,000000000e+00
      576000000   -1,481536627e-01   -5,033983290e-02    8,639116585e-02   -6,706899405e-01    0,000000000e+00    0,000000000e+00    0,000000000e+00    0,000000000e+00
      590000000   -1,467439234e-01    1,537614036e-02   -3,086358011e-01   -5,846298933e-01    0,000000000e+00    0,000000000e+00    0,000000000e+00    0,000000000e+00
      604000000   -7,432735711e-02    9,691073000e-02   -5,361837745e-01   -2,463551611e-01    0,000000000e+00    0,000000000e+00    0,000000000e+00    0,000000000e+00
      618000000    9,976327419e-02    1,105684694e-02   -4,266099930e-01    8,440889418e-03    0,000000000e+00    0,000000000e+00    0,000000000e+00    0,000000000e+00
      632000000   -4,543354362e-02   -1,504989117e-01   -5,123069882e-01    1,106209755e-01    0,000000000e+00    0,000000000e+00    0,000000000e+00    0,000000000e+00
      646000000   -1,298043728e-01   -4,095009714e-02   -4,136089087e-01    4,687978029e-01    0,000000000e+00    0,000000000e+00    0,000000000e+00    0,000000000e+00
      660000000   -8,029209077e-02    2,343982272e-02   -6,295558810e-02    6,427744627e-01    0,000000000e+00    0,000000000e+00    0,000000000e+00    0,000000000e+00
      674000000   -2,799492516e-02    1,455585659e-02    3,026512265e-01    5,647900701e-01    0,000000000e+00    0,000000000e+00    0,000000000e+00    0,000000000e+00
      688000000   -8,751275949e-03   -1,464966964e-02    5,560047626e-01    3,072565198e-01    0,000000000e+00    0,000000000e+00    0,000000000e+00    0,000000000e+00
      702000000   -8,768972941e-03   -3,625653312e-02    6,265168190e-01   -4,226881266e-02    0,000000000e+00    0,000000000e+00    0,000000000e+00    0,000000000e+00
      716000000   -7,840082981e-03   -5,228963867e-02    4,972599447e-01   -3,741754889e-01    0,000000000e+00    0,000000000e+00    0,000000000e+00    0,000000000e+00
      730000000   -7,395579014e-03   -7,801070809e-02    2,124961466e-01   -5,753764510e-01    0,000000000e+00    0,000000000e+00    0,000000000e+00    0,000000000e+00
      744000000   -2,900094539e-02   -1,129944846e-01   -1,285038739e-01   -5,949370861e-01    0,000000000e+00    0,000000000e+00    0,000000000e+00    0,000000000e+00
      758000000   -7,914344221e-02   -1,328328401e-01   -4,279407859e-01   -4,350005388e-01    0,000000000e+00    0,000000000e+00    0,000000000e+00    0,000000000e+00
      772000000   -1,380519271e-01   -1,127484515e-01   -6,022844315e-01   -1,370153278e-01    0,000000000e+00    0,000000000e+00    0,000000000e+00    0,000000000e+00
      786000000   -1,722892672e-01   -5,378870666e-02   -5,862298608e-01    2,182556838e-01    0,000000000e+00    0,000000000e+00    0,000000000e+00    0,000000000e+00
      800000000   -1,563113481e-01    1,075325906e-02   -3,711441755e-01    5,068926215e-01    0,000000000e+00    0,000000000e+00    0,000000000e+00    0,000000000e+00
      814000000   -1,085152179e-01    4,385207221e-02   -3,778045997e-02    6,211001277e-01    0,000000000e+00    0,000000000e+00    0,000000000e+00    0,000000000e+00
      828000000   -6,316274405e-02    4,019702226e-02    2,958874106e-01    5,415290594e-01    0,000000000e+00    0,000000000e+00    0,000000000e+00    0,000000000e+00
      842000000   -3,718864918e-02    2,319472656e-02    5,306415558e-01    3,015636504e-01    0,000000000e+00    0,000000000e+00    0,000000000e+00    0,000000000e+00
      856000000   -2,151301503e-02    6,221142132e-03    6,005015969e-01   -2,289175801e-02    0,000000000e+00    0,000000000e+00    0,000000000e+00    0,000000000e+00
      870000000   -3,208183916e-03   -1,353941578e-02    4,868003130e-01   -3,290714920e-01    0,000000000e+00    0,000000000e+00    0,000000000e+00    0,000000000e+00
      884000000    7,557005621e-03   -5,048787966e-02    2,350177765e-01   -5,234009624e-01    0,000000000e+00    0,000000000e+00    0,000000000e+00    0,000000000e+00
      898000000   -7,419519592e-03   -9,737473726e-02   -7,393602282e-02   -5,598554611e-01    0,000000000e+00    0,000000000e+00    0,000000000e+00    0,000000000e+00
      912000000   -6,369069964e-02   -1,294973344e-01   -4,020223618e-01   -4,057311714e-01    0,000000000e+00    0,000000000e+00    0,000000000e+00    0,000000000e+00
      926000000   -1,245961487e-01   -1,166761741e-01   -5,765422583e-01   -1,328666508e-01    0,000000000e+00    0,000000000e+00    0,000000000e+00    0,000000000e+00
      940000000   -1,662696451e-01   -6,145435944e-02   -5,697858930e-01    2,153282762e-01    0,000000000e+00    0,000000000e+00    0,000000000e+00    0,000000000e+00
      954000000   -1,463539451e-01    5,129782017e-03   -3,575644791e-01    5,043032765e-01    0,000000000e+00    0,000000000e+00    0,000000000e+00    0,000000000e+00
      968000000   -9,509816766e-02    3,205566853e-02   -2,358418331e-02    6,220062375e-01    0,000000000e+00    0,000000000e+00    0,000000000e+00    0,000000000e+00
      982000000   -4,740351811e-02    7,688251790e-03    3,094508946e-01    5,335174203e-01    0,000000000e+00    0,000000000e+00    0,000000000e+00    0,000000000e+00
      996000000   -3,248119727e-02   -3,171877190e-02    5,336788297e-01    2,892881334e-01    0,000000000e+00    0,000000000e+00    0,000000000e+00    0,000000000e+00
     1010000000   -4,919313639e-02   -7,877729833e-02    5,817850232e-01   -2,365620062e-02    0,000000000e+00    0,000000000e+00    0,000000000e+00    0,000000000e+00
     1024000000   -9,769753367e-02   -1,026580483e-01    4,678065181e-01   -2,794120908e-01    0,000000000e+00    0,000000000e+00    0,000000000e+00    0,000000000e+00
     1038000000   -1,661195606e-01   -7,578016073e-02    2,773175836e-01   -4,326864183e-01    0,000000000e+00    0,000000000e+00    0,000000000e+00    0,000000000e+00
     1052000000   -1,783153713e-01    6,232505199e-03    5,338138342e-02   -5,107634664e-01    0,000000000e+00    0,000000000e+00    0,000000000e+00    0,000000000e+00
     1066000000   -1,182854548e-01    5,415328965e-02   -2,050374150e-01   -4,673531055e-01    0,000000000e+00    0,000000000e+00    0,000000000e+00    0,000000000e+00
     1080000000   -5,709228665e-02    5,523555353e-02   -4,208564460e-01   -2,803706229e-01    0,000000000e+00    0,000000000e+00    0,000000000e+00    0,000000000e+00
     1094000000   -1,923589781e-02    2,264932357e-02   -4,966124594e-01   -4,290385637e-03    0,000000000e+00    0,000000000e+00    0,000000000e+00    0,000000000e+00
     1108000000   -1,727317111e-03   -2,670546621e-02   -4,078702331e-01    2,757427096e-01    0,000000000e+00    0,000000000e+00    0,000000000e+00    0,000000000e+00
     1122000000   -5,621326156e-03   -7,023655623e-02   -1,768094748e-01    4,610173106e-01    0,000000000e+00    0,000000000e+00    0,000000000e+00    0,000000000e+00
     1136000000   -3,614060581e-02   -1,173609346e-01    1,290196031e-01    4,943435192e-01    0,000000000e+00    0,000000000e+00    0,000000000e+00    0,000000000e+00
     1150000000   -8,905263990e-02   -1,430139393e-01    4,238399565e-01    3,402190208e-01    0,000000000e+00    0,000000000e+00    0,000000000e+00    0,000000000e+00
     1164000000   -1,482651085e-01   -1,322353780e-01    5,909594893e-01    2,556567080e-02    0,000000000e+00    0,000000000e+00    0,000000000e+00    0,000000000e+00
     1178000000   -1,928963512e-01   -9,588515013e-02    5,383197069e-01   -3,525238335e-01    0,000000000e+00    0,000000000e+00    0,000000000e+00    0,000000000e+00
     1192000000   -1,962972283e-01   -5,337127298e-02    2,534925342e-01   -6,266438365e-01    0,000000000e+00    0,000000000e+00    0,000000000e+00    0,000000000e+00
     1206000000   -2,018214911e-01   -3,472662345e-02   -1,329406649e-01   -6,698035002e-01    0,000000000e+00    0,000000000e+00    0,000000000e+00    0,000000000e+00
     1220000000   -2,404580414e-01   -3,942601616e-04   -4,249958694e-01   -4,932935238e-01    0,000000000e+00    0,000000000e+00    0,000000000e+00    0,000000000e+00
     1234000000   -2,352075428e-01    1,100922152e-01   -5,651820302e-01   -2,424938530e-01    0,000000000e+00    0,000000000e+00    0,000000000e+00    0,000000000e+00
     1248000000   -1,145383716e-01    1,744327992e-01   -5,917840600e-01    2,107162960e-02    0,000000000e+00    0,000000000e+00    0,000000000e+00    0,000000000e+00
     1262000000    2,444451442e-03    1,322453469e-01   -4,967603087e-01    2,927125692e-01    0,000000000e+00    0,000000000e+00    0,000000000e+00    0,000000000e+00
     1276000000    6,828724593e-02    4,107639939e-02   -2,732991278e-01    4,816397130e-01    0,000000000e+00    0,000000000e+00    0,000000000e+00    0,000000000e+00
     1290000000    7,900836319e-02   -6,772285700e-02    7,876252756e-03    5,422299504e-01    0,000000000e+00    0,000000000e+00    0,000000000e+00    0,000000000e+00
     1304000000    2,713010460e-02   -1,808260083e-01    2,961477935e-01    4,724055529e-01    0,000000000e+00    0,000000000e+00    0,000000000e+00    0,000000000e+00
     1318000000   -9,396341443e-02   -2,533043921e-01    5,234875083e-01    2,732021213e-01    0,000000000e+00    0,000000000e+00    0,000000000e+00    0,000000000e+00
     1332000000   -2,456101626e-01   -2,489249110e-01    6,438468695e-01   -4,800101370e-02    0,000000000e+00    0,000000000e+00    0,000000000e+00    0,000000000e+00
     1346000000   -3,616569638e-01   -1,431445628e-01    5,437288880e-01   -4,040103853e-01    0,000000000e+00    0,000000000e+00    0,000000000e+00    0,000000000e+00
     1360000000   -3,929971159e-01    1,091056620e-03    2,529971600e-01   -6,356362104e-01    0,000000000e+00    0,000000000e+00    0,000000000e+00    0,000000000e+00
     1374000000   -3,357599080e-01    1,195687950e-01   -1,084543392e-01   -6,161527038e-01    0,000000000e+00    0,000000000e+00    0,000000000e+00    0,000000000e+00
     1388000000   -2,437657267e-01    1,724706590e-01   -3,631880879e-01   -4,135555029e-01    0,000000000e+00    0,000000000e+00    0,000000000e+00    0,000000000e+00
     1402000000   -1,621076316e-01    1,780472547e-01   -4,720218480e-01   -1,119065955e-01    0,000000000e+00    0,000000000e+00    0,000000000e+00    0,000000000e+00
     1416000000   -8,527497202e-02    1,487276703e-01   -3,769664466e-01    1,950993538e-01    0,000000000e+00    0,000000000e+00    0,000000000e+00    0,000000000e+00
     1430000000   -3,110337071e-02    9,572140872e-02   -1,576691568e-01    4,055859745e-01    0,000000000e+00    0,000000000e+00    0,000000000e+00    0,000000000e+00
     1444000000   -5,303491838e-03    1,084610354e-02    1,174822226e-01    5,151865482e-01    0,000000000e+00    0,000000000e+00    0,000000000e+00    0,000000000e+00
     1458000000   -3,230284154e-02   -8,134652674e-02    4,287993312e-01    4,784672260e-01    0,000000000e+00    0,000000000e+00    0,000000000e+00    0,000000000e+00
     1472000000   -1,104954630e-01   -1,502774209e-01    7,311035395e-01    2,832832634e-01    0,000000000e+00    0,000000000e+00    0,000000000e+00    0,000000000e+00
     1486000000   -2,268595994e-01   -1,453950852e-01    8,786377311e-01   -3,141215071e-02    0,000000000e+00    0,000000000e+00    0,000000000e+00    0,000000000e+00
     1500000000   -3,011014760e-01   -8,310408890e-02    8,406366706e-01   -4,318614900e-01    0,000000000e+00    0,000000000e+00    0,000000000e+00    0,000000000e+00
