! NanoVNA-App
! Date: 2025-09-25 14:55:33
! Start: 100MHz Stop: 1,5GHz Points: 101
! S-Parameter data: F S11 S21 S12 S22
# Hz S RI R 50
!     Frequency           S11_Real           S11_Imag           S21_Real           S21_Imag           S12_Real           S12_Imag           S22_Real           S22_Imag
      100000000    3,557770327e-02    2,691206709e-02    4,406679273e-01   -6,696391702e-01    0,000000000e+00    0,000000000e+00    0,000000000e+00    0,000000000e+00
      114000000    6,046189368e-02    1,702822978e-03    1,291308738e-02   -7,954114079e-01    0,000000000e+00    0,000000000e+00    0,000000000e+00    0,000000000e+00
      128000000    6,784768403e-02   -4,262066260e-02   -4,084157646e-01   -6,779530644e-01    0,000000000e+00    0,000000000e+00    0,000000000e+00    0,000000000e+00
      142000000    4,270474613e-02   -8,883532137e-02   -7,054733038e-01   -3,608630598e-01    0,000000000e+00    0,000000000e+00    0,000000000e+00    0,000000000e+00
      156000000   -1,056948211e-02   -1,094167754e-01   -7,926800251e-01    6,802139431e-02    0,000000000e+00    0,000000000e+00    0,000000000e+00    0,000000000e+00
      170000000   -6,322953850e-02   -9,093486518e-02   -6,370801330e-01    4,870509207e-01    0,000000000e+00    0,000000000e+00    0,000000000e+00    0,000000000e+00
      184000000   -8,858703077e-02   -4,646889865e-02   -2,729784548e-01    7,565212250e-01    0,000000000e+00    0,000000000e+00    0,000000000e+00    0,000000000e+00
      198000000   -8,201259375e-02   -5,308690481e-03    1,799649149e-01    7,823764682e-01    0,000000000e+00    0,000000000e+00    0,000000000e+00    0,000000000e+00
      212000000   -6,142487749e-02    1,862727664e-02    5,708833337e-01    5,580138564e-01    0,000000000e+00    0,000000000e+00    0,000000000e+00    0,000000000e+00
      226000000   -3,991146386e-02    3,166520223e-02    7,767137885e-01    1,615729183e-01    0,000000000e+00    0,000000000e+00    0,000000000e+00    0,000000000e+00
      240000000   -1,363726892e-02    4,023184627e-02    7,360428572e-01   -2,788511217e-01    0,000000000e+00    0,000000000e+00    0,000000000e+00    0,000000000e+00
      254000000    2,196557075e-02    3,467927501e-02    4,675683379e-01   -6,223521233e-01    0,000000000e+00    0,000000000e+00    0,000000000e+00    0,000000000e+00
      268000000    5,282721668e-02    2,890112344e-03    6,632062048e-02   -7,677639127e-01    0,000000000e+00    0,000000000e+00    0,000000000e+00    0,000000000e+00
      282000000    5,608195066e-02   -4,623266309e-02   -3,461872339e-01   -6,832408905e-01    0,000000000e+00    0,000000000e+00    0,000000000e+00    0,000000000e+00
      296000000    2,413287386e-02   -8,536895365e-02   -6,557344198e-01   -3,978838623e-01    0,000000000e+00    0,000000000e+00    0,000000000e+00    0,000000000e+00
      310000000   -2,113106474e-02   -8,857830614e-02   -7,735999823e-01    1,158081647e-02    0,000000000e+00    0,000000000e+00    0,000000000e+00    0,000000000e+00
      324000000   -4,803455994e-02   -6,202646345e-02   -6,472392082e-01    4,301670194e-01    0,000000000e+00    0,000000000e+00    0,000000000e+00    0,000000000e+00
      338000000   -4,163482040e-02   -3,551526740e-02   -3,081237674e-01    7,094728351e-01    0,000000000e+00    0,000000000e+00    0,000000000e+00    0,000000000e+00
      352000000   -2,242074534e-02   -3,566352278e-02    1,198640689e-01    7,581889033e-01    0,000000000e+00    0,000000000e+00    0,000000000e+00    0,000000000e+00
      366000000   -2,122623660e-02   -5,484880880e-02    5,035440922e-01    5,710510015e-01    0,000000000e+00    0,000000000e+00    0,000000000e+00    0,000000000e+00
      380000000   -4,257154837e-02   -6,501556933e-02    7,259027362e-01    2,103893459e-01    0,000000000e+00    0,000000000e+00    0,000000000e+00    0,000000000e+00
      394000000   -6,446008384e-02   -5,166601017e-02    7,229750752e-01   -2,139057070e-01    0,000000000e+00    0,000000000e+00    0,000000000e+00    0,000000000e+00
      408000000   -6,615233421e-02   -2,841701545e-02    4,890203476e-01   -5,685408115e-01    0,000000000e+00    0,000000000e+00    0,000000000e+00    0,000000000e+00
      422000000   -5,286759511e-02   -1,753192768e-02    1,061948985e-01   -7,386682034e-01    0,000000000e+00    0,000000000e+00    0,000000000e+00    0,000000000e+00
      436000000   -4,741227627e-02   -2,070283890e-02   -3,063895404e-01   -6,763954163e-01    0,000000000e+00    0,000000000e+00    0,000000000e+00    0,000000000e+00
      450000000   -5,404745042e-02   -1,577449404e-02   -6,198695898e-01   -3,992683291e-01    0,000000000e+00    0,000000000e+00    0,000000000e+00    0,000000000e+00
      464000000   -5,296992883e-02    5,486602895e-03   -7,307976484e-01    3,901398508e-03    0,000000000e+00    0,000000000e+00    0,000000000e+00    0,000000000e+00
      478000000   -2,302800491e-02    2,725999430e-02   -5,994327068e-01    3,975460827e-01    0,000000000e+00    0,000000000e+00    0,000000000e+00    0,000000000e+00
      492000000    2,662778273e-02    1,679294370e-02   -2,803877294e-01    6,462606788e-01    0,000000000e+00    0,000000000e+00    0,000000000e+00    0,000000000e+00
      506000000    5,814462528e-02   -3,445982561e-02    1,056053489e-01    6,816915870e-01    0,000000000e+00    0,000000000e+00    0,000000000e+00    0,000000000e+00
      520000000    4,568783566e-02   -9,928116202e-02    4,411855638e-01    5,199535489e-01    0,000000000e+00    0,000000000e+00    0,000000000e+00    0,000000000e+00
      534000000   -9,474587627e-03   -1,413287669e-01    6,514144540e-01    2,075006664e-01    0,000000000e+00    0,000000000e+00    0,000000000e+00    0,000000000e+00
      548000000   -7,652710378e-02   -1,399595886e-01    6,632779241e-01   -1,764565557e-01    0,000000000e+00    0,000000000e+00    0,000000000e+00    0,000000000e+00
      562000000   -1,256801188e-01   -1,023414358e-01    4,554029405e-01   -5,114197731e-01    0,000000000e+00    0,000000000e+00    0,000000000e+00    0,000000000e+00
      576000000   -1,480455399e-01   -4,985216632e-02    8,587397635e-02   -6,714041829e-01    0,000000000e+00    0,000000000e+00    0,000000000e+00    0,000000000e+00
      590000000   -1,468227804e-01    1,566048525e-02   -3,084455431e-01   -5,834839344e-01    0,000000000e+00    0,000000000e+00    0,000000000e+00    0,000000000e+00
      604000000   -7,292672992e-02    9,723509103e-02   -5,337525010e-01   -2,454321980e-01    0,000000000e+00    0,000000000e+00    0,000000000e+00    0,000000000e+00
      618000000    1,003260091e-01    7,756262086e-03   -4,252553284e-01    5,299572833e-03    0,000000000e+00    0,000000000e+00    0,000000000e+00    0,000000000e+00
      632000000   -4,900891334e-02   -1,514276415e-01   -5,162659287e-01    1,110536754e-01    0,000000000e+00    0,000000000e+00    0,000000000e+00    0,000000000e+00
      646000000   -1,300482005e-01   -3,851011768e-02   -4,146668911e-01    4,718103111e-01    0,000000000e+00    0,000000000e+00    0,000000000e+00    0,000000000e+00
      660000000   -7,916861773e-02    2,334222570e-02   -6,142440438e-02    6,420901418e-01    0,000000000e+00    0,000000000e+00    0,000000000e+00    0,000000000e+00
      674000000   -2,694149129e-02    1,507913508e-02    3,043271601e-01    5,643526316e-01    0,000000000e+00    0,000000000e+00    0,000000000e+00    0,000000000e+00
      688000000   -8,985612541e-03   -1,380294096e-02    5,571401715e-01    3,068469763e-01    0,000000000e+00    0,000000000e+00    0,000000000e+00    0,000000000e+00
      702000000   -7,576862350e-03   -3,590011224e-02    6,275396943e-01   -4,638987407e-02    0,000000000e+00    0,000000000e+00    0,000000000e+00    0,000000000e+00
      716000000   -7,222393528e-03   -5,322837085e-02    4,973515272e-01   -3,748974204e-01    0,000000000e+00    0,000000000e+00    0,000000000e+00    0,000000000e+00
      730000000   -7,372749504e-03   -7,943059504e-02    2,117098421e-01   -5,768174529e-01    0,000000000e+00    0,000000000e+00    0,000000000e+00    0,000000000e+00
      744000000   -2,974796668e-02   -1,142720357e-01   -1,295120418e-01   -5,944226384e-01    0,000000000e+00    0,000000000e+00    0,000000000e+00    0,000000000e+00
      758000000   -7,905965298e-02   -1,335093230e-01   -4,303353429e-01   -4,342113137e-01    0,000000000e+00    0,000000000e+00    0,000000000e+00    0,000000000e+00
      772000000   -1,400257349e-01   -1,119924039e-01   -6,033906937e-01   -1,355375051e-01    0,000000000e+00    0,000000000e+00    0,000000000e+00    0,000000000e+00
      786000000   -1,727520823e-01   -5,294954032e-02   -5,868345499e-01    2,198232561e-01    0,000000000e+00    0,000000000e+00    0,000000000e+00    0,000000000e+00
      800000000   -1,549459100e-01    1,176812686e-02   -3,699228466e-01    5,077648759e-01    0,000000000e+00    0,000000000e+00    0,000000000e+00    0,000000000e+00
      814000000   -1,074783131e-01    4,300852492e-02   -3,567373380e-02    6,228891611e-01    0,000000000e+00    0,000000000e+00    0,000000000e+00    0,000000000e+00
      828000000   -6,238469854e-02    3,878589720e-02    2,977393270e-01    5,409265161e-01    0,000000000e+00    0,000000000e+00    0,000000000e+00    0,000000000e+00
      842000000   -3,712406754e-02    2,156521939e-02    5,308035612e-01    2,991472185e-01    0,000000000e+00    0,000000000e+00    0,000000000e+00    0,000000000e+00
      856000000   -2,183983475e-02    4,486149177e-03    5,996215940e-01   -2,529675886e-02    0,000000000e+00    0,000000000e+00    0,000000000e+00    0,000000000e+00
      870000000   -5,202960223e-03   -1,482979581e-02    4,840864241e-01   -3,313756883e-01    0,000000000e+00    0,000000000e+00    0,000000000e+00    0,000000000e+00
      884000000    4,900652450e-03   -5,018243566e-02    2,309146523e-01   -5,224615335e-01    0,000000000e+00    0,000000000e+00    0,000000000e+00    0,000000000e+00
      898000000   -9,464056231e-03   -9,610915929e-02   -7,638421655e-02   -5,565798283e-01    0,000000000e+00    0,000000000e+00    0,000000000e+00    0,000000000e+00
      912000000   -6,386214495e-02   -1,257927120e-01   -4,131550789e-01   -4,113269448e-01    0,000000000e+00    0,000000000e+00    0,000000000e+00    0,000000000e+00
      926000000   -1,218870357e-01   -1,106035709e-01   -5,746070743e-01   -1,277024597e-01    0,000000000e+00    0,000000000e+00    0,000000000e+00    0,000000000e+00
      940000000   -1,567997783e-01   -6,236111745e-02   -5,617660880e-01    2,103482187e-01    0,000000000e+00    0,000000000e+00    0,000000000e+00    0,000000000e+00
      954000000   -1,399196684e-01   -4,820066504e-03   -3,583068550e-01    4,982554018e-01    0,000000000e+00    0,000000000e+00    0,000000000e+00    0,000000000e+00
      968000000   -9,594341367e-02    2,178617753e-02   -3,157660365e-02    6,179838181e-01    0,000000000e+00    0,000000000e+00    0,000000000e+00    0,000000000e+00
      982000000   -5,986493453e-02    6,580215413e-03    3,022705019e-01    5,393988490e-01    0,000000000e+00    0,000000000e+00    0,000000000e+00    0,000000000e+00
      996000000   -4,051834345e-02   -2,825038135e-02    5,357557535e-01    2,992448211e-01    0,000000000e+00    0,000000000e+00    0,000000000e+00    0,000000000e+00
     1010000000   -5,361184105e-02   -6,035290658e-02    5,949665904e-01   -1,547219977e-02    0,000000000e+00    0,000000000e+00    0,000000000e+00    0,000000000e+00
     1024000000   -8,780230582e-02   -8,550671488e-02    4,816174805e-01   -2,898489237e-01    0,000000000e+00    0,000000000e+00    0,000000000e+00    0,000000000e+00
     1038000000   -1,391672790e-01   -7,623545825e-02    2,770769894e-01   -4,516547322e-01    0,000000000e+00    0,000000000e+00    0,000000000e+00    0,000000000e+00
     1052000000   -1,659166068e-01   -1,994296163e-02    3,591669723e-02   -5,121144652e-01    0,000000000e+00    0,000000000e+00    0,000000000e+00    0,000000000e+00
     1066000000   -1,402180046e-01    3,549472243e-02   -2,248650342e-01   -4,589361250e-01    0,000000000e+00    0,000000000e+00    0,000000000e+00    0,000000000e+00
     1080000000   -8,120687306e-02    5,762352794e-02   -4,254078865e-01   -2,635069489e-01    0,000000000e+00    0,000000000e+00    0,000000000e+00    0,000000000e+00
     1094000000   -3,261451051e-02    3,444242477e-02   -4,852349162e-01    1,375191938e-02    0,000000000e+00    0,000000000e+00    0,000000000e+00    0,000000000e+00
     1108000000    2,722230740e-03   -6,904228125e-03   -3,844756186e-01    2,749226093e-01    0,000000000e+00    0,000000000e+00    0,000000000e+00    0,000000000e+00
     1122000000    1,017296314e-02   -6,375353783e-02   -1,626100689e-01    4,419160187e-01    0,000000000e+00    0,000000000e+00    0,000000000e+00    0,000000000e+00
     1136000000   -2,314480953e-02   -1,209403947e-01    1,227814555e-01    4,732314646e-01    0,000000000e+00    0,000000000e+00    0,000000000e+00    0,000000000e+00
     1150000000   -8,276189864e-02   -1,517640948e-01    4,041013122e-01    3,327519000e-01    0,000000000e+00    0,000000000e+00    0,000000000e+00    0,000000000e+00
     1164000000   -1,553317904e-01   -1,454654932e-01    5,781638622e-01    4,065594077e-02    0,000000000e+00    0,000000000e+00    0,000000000e+00    0,000000000e+00
     1178000000   -2,071866393e-01   -9,834671021e-02    5,405154824e-01   -3,322012722e-01    0,000000000e+00    0,000000000e+00    0,000000000e+00    0,000000000e+00
     1192000000   -2,090578079e-01   -4,119231552e-02    2,689115107e-01   -6,195569038e-01    0,000000000e+00    0,000000000e+00    0,000000000e+00    0,000000000e+00
     1206000000   -2,015607953e-01   -2,016097493e-02   -1,164846644e-01   -6,732621193e-01    0,000000000e+00    0,000000000e+00    0,000000000e+00    0,000000000e+00
     1220000000   -2,303040773e-01    5,057744682e-03   -4,329658747e-01   -5,013354421e-01    0,000000000e+00    0,000000000e+00    0,000000000e+00    0,000000000e+00
     1234000000   -2,304309160e-01    1,012957692e-01   -5,680286288e-01   -2,295725048e-01    0,000000000e+00    0,000000000e+00    0,000000000e+00    0,000000000e+00
     1248000000   -1,176849157e-01    1,774875969e-01   -5,815960169e-01    2,801205777e-02    0,000000000e+00    0,000000000e+00    0,000000000e+00    0,000000000e+00
     1262000000   -4,184688441e-03    1,412077397e-01   -4,938954413e-01    2,866677344e-01    0,000000000e+00    0,000000000e+00    0,000000000e+00    0,000000000e+00
     1276000000    6,788823009e-02    4,491043836e-02   -2,717163861e-01    4,748150706e-01    0,000000000e+00    0,000000000e+00    0,000000000e+00    0,000000000e+00
     1290000000    7,817829400e-02   -6,785264611e-02    3,258144483e-03    5,370505452e-01    0,000000000e+00    0,000000000e+00    0,000000000e+00    0,000000000e+00
     1304000000    2,326616831e-02   -1,827997416e-01    2,809745371e-01    4,704505205e-01    0,000000000e+00    0,000000000e+00    0,000000000e+00    0,000000000e+00
     1318000000   -9,063906968e-02   -2,561719418e-01    5,240689516e-01    2,781564593e-01    0,000000000e+00    0,000000000e+00    0,000000000e+00    0,000000000e+00
     1332000000   -2,427718341e-01   -2,553612292e-01    6,367725134e-01   -4,593525827e-02    0,000000000e+00    0,000000000e+00    0,000000000e+00    0,000000000e+00
     1346000000   -3,658381701e-01   -1,485874653e-01    5,506083369e-01   -4,054784775e-01    0,000000000e+00    0,000000000e+00    0,000000000e+00    0,000000000e+00
     1360000000   -3,955228925e-01   -1,924411743e-03    2,556828558e-01   -6,242818832e-01    0,000000000e+00    0,000000000e+00    0,000000000e+00    0,000000000e+00
     1374000000   -3,393168747e-01    1,210733578e-01   -8,597894013e-02   -6,222594380e-01    0,000000000e+00    0,000000000e+00    0,000000000e+00    0,000000000e+00
     1388000000   -2,448428571e-01    1,778613180e-01   -3,581134081e-01   -4,178132117e-01    0,000000000e+00    0,000000000e+00    0,000000000e+00    0,000000000e+00
     1402000000   -1,552031934e-01    1,794033498e-01   -4,637699425e-01   -1,209554076e-01    0,000000000e+00    0,000000000e+00    0,000000000e+00    0,000000000e+00
     1416000000   -7,754867524e-02    1,565283537e-01   -3,817493320e-01    1,957208812e-01    0,000000000e+00    0,000000000e+00    0,000000000e+00    0,000000000e+00
     1430000000   -2,367866039e-02    9,568443894e-02   -1,448653638e-01    4,235789180e-01    0,000000000e+00    0,000000000e+00    0,000000000e+00    0,000000000e+00
     1444000000   -4,806313664e-03    6,562526338e-03    1,230496168e-01    5,030452013e-01    0,000000000e+00    0,000000000e+00    0,000000000e+00    0,000000000e+00
     1458000000   -2,621122822e-02   -8,042655140e-02    4,251239598e-01    4,831535220e-01    0,000000000e+00    0,000000000e+00    0,000000000e+00    0,000000000e+00
     1472000000   -1,119668111e-01   -1,442443132e-01    7,006062269e-01    3,209734857e-01    0,000000000e+00    0,000000000e+00    0,000000000e+00    0,000000000e+00
     1486000000   -2,168247551e-01   -1,517355293e-01    8,933885098e-01   -1,858964749e-02    0,000000000e+00    0,000000000e+00    0,000000000e+00    0,000000000e+00
     1500000000   -3,122959733e-01   -7,803138345e-02    8,399123549e-01   -4,183230996e-01    0,000000000e+00    0,000000000e+00    0,000000000e+00    0,000000000e+00
