! NanoVNA-App
! Date: 2025-09-25 14:59:11
! Start: 100MHz Stop: 1,5GHz Points: 101
! S-Parameter data: F S11 S21 S12 S22
# Hz S RI R 50
!     Frequency           S11_Real           S11_Imag           S21_Real           S21_Imag           S12_Real           S12_Imag           S22_Real           S22_Imag
      100000000    3,557809815e-02    2,735803090e-02    4,407951534e-01   -6,695795059e-01    0,000000000e+00    0,000000000e+00    0,000000000e+00    0,000000000e+00
      114000000    6,070891395e-02    2,152061323e-03    1,276686043e-02   -7,953377962e-01    0,000000000e+00    0,000000000e+00    0,000000000e+00    0,000000000e+00
      128000000    6,837944686e-02   -4,230280221e-02   -4,082334340e-01   -6,779528260e-01    0,000000000e+00    0,000000000e+00    0,000000000e+00    0,000000000e+00
      142000000    4,347519204e-02   -8,877516538e-02   -7,051051259e-01   -3,607189059e-01    0,000000000e+00    0,000000000e+00    0,000000000e+00    0,000000000e+00
      156000000   -8,875844069e-03   -1,104508489e-01   -7,938076854e-01    6,850361824e-02    0,000000000e+00    0,000000000e+00    0,000000000e+00    0,000000000e+00
      170000000   -6,260498613e-02   -9,175834805e-02   -6,373590231e-01    4,866130054e-01    0,000000000e+00    0,000000000e+00    0,000000000e+00    0,000000000e+00
      184000000   -8,861214668e-02   -4,768223315e-02   -2,731313705e-01    7,559562922e-01    0,000000000e+00    0,000000000e+00    0,000000000e+00    0,000000000e+00
      198000000   -8,272164315e-02   -6,440599915e-03    1,794967353e-01    7,823065519e-01    0,000000000e+00    0,000000000e+00    0,000000000e+00    0,000000000e+00
      212000000   -6,274849176e-02    1,798465289e-02    5,705857873e-01    5,582202077e-01    0,000000000e+00    0,000000000e+00    0,000000000e+00    0,000000000e+00
      226000000   -4,149362445e-02    3,179973736e-02    7,767482400e-01    1,619251817e-01    0,000000000e+00    0,000000000e+00    0,000000000e+00    0,000000000e+00
      240000000   -1,491431054e-02    4,128903896e-02    7,361797690e-01   -2,786439061e-01    0,000000000e+00    0,000000000e+00    0,000000000e+00    0,000000000e+00
      254000000    2,139399387e-02    3,633057326e-02    4,681233764e-01   -6,223534942e-01    0,000000000e+00    0,000000000e+00    0,000000000e+00    0,000000000e+00
      268000000    5,331088230e-02    4,704264458e-03    6,677415967e-02   -7,672152519e-01    0,000000000e+00    0,000000000e+00    0,000000000e+00    0,000000000e+00
      282000000    5,746345222e-02   -4,497266561e-02   -3,455449939e-01   -6,825746298e-01    0,000000000e+00    0,000000000e+00    0,000000000e+00    0,000000000e+00
      296000000    2,608127333e-02   -8,467147499e-02   -6,546874046e-01   -3,979747593e-01    0,000000000e+00    0,000000000e+00    0,000000000e+00    0,000000000e+00
      310000000   -1,883566566e-02   -8,940499276e-02   -7,731039524e-01    1,000497676e-02    0,000000000e+00    0,000000000e+00    0,000000000e+00    0,000000000e+00
      324000000   -4,637760669e-02   -6,359517574e-02   -6,477782726e-01    4,292795360e-01    0,000000000e+00    0,000000000e+00    0,000000000e+00    0,000000000e+00
      338000000   -4,103970900e-02   -3,794935718e-02   -3,089069426e-01    7,125062943e-01    0,000000000e+00    0,000000000e+00    0,000000000e+00    0,000000000e+00
      352000000   -2,334504016e-02   -3,791984916e-02    1,195985004e-01    7,576888204e-01    0,000000000e+00    0,000000000e+00    0,000000000e+00    0,000000000e+00
      366000000   -2,309593931e-02   -5,615018308e-02    5,021049380e-01    5,710904598e-01    0,000000000e+00    0,000000000e+00    0,000000000e+00    0,000000000e+00
      380000000   -4,469143599e-02   -6,513760984e-02    7,268650532e-01    2,118877321e-01    0,000000000e+00    0,000000000e+00    0,000000000e+00    0,000000000e+00
      394000000   -6,653989851e-02   -5,050456524e-02    7,233243585e-01   -2,137058675e-01    0,000000000e+00    0,000000000e+00    0,000000000e+00    0,000000000e+00
      408000000   -6,737219542e-02   -2,615249716e-02    4,897401631e-01   -5,681411028e-01    0,000000000e+00    0,000000000e+00    0,000000000e+00    0,000000000e+00
      422000000   -5,350972712e-02   -1,517897286e-02    1,056002676e-01   -7,392467856e-01    0,000000000e+00    0,000000000e+00    0,000000000e+00    0,000000000e+00
      436000000   -4,651765898e-02   -1,819546707e-02   -3,066770434e-01   -6,755657196e-01    0,000000000e+00    0,000000000e+00    0,000000000e+00    0,000000000e+00
      450000000   -5,225082487e-02   -1,488356106e-02   -6,188905835e-01   -3,995686471e-01    0,000000000e+00    0,000000000e+00    0,000000000e+00    0,000000000e+00
      464000000   -5,045446381e-02    5,821208935e-03   -7,304949760e-01    2,927543595e-03    0,000000000e+00    0,000000000e+00    0,000000000e+00    0,000000000e+00
      478000000   -2,058969997e-02    2,619208395e-02   -5,989173055e-01    3,974958062e-01    0,000000000e+00    0,000000000e+00    0,000000000e+00    0,000000000e+00
      492000000    2,853539027e-02    1,453467645e-02   -2,792083621e-01    6,443968415e-01    0,000000000e+00    0,000000000e+00    0,000000000e+00    0,000000000e+00
      506000000    5,948398635e-02   -3,774304688e-02    1,060720310e-01    6,800058484e-01    0,000000000e+00    0,000000000e+00    0,000000000e+00    0,000000000e+00
      520000000    4,444063082e-02   -1,028798297e-01    4,441221058e-01    5,161370635e-01    0,000000000e+00    0,000000000e+00    0,000000000e+00    0,000000000e+00
      534000000   -1,309903525e-02   -1,441411227e-01    6,489792466e-01    2,057226598e-01    0,000000000e+00    0,000000000e+00    0,000000000e+00    0,000000000e+00
      548000000   -8,228118718e-02   -1,400598735e-01    6,593295932e-01   -1,765521020e-01    0,000000000e+00    0,000000000e+00    0,000000000e+00    0,000000000e+00
      562000000   -1,313937455e-01   -9,791377187e-02    4,506177008e-01   -5,084840655e-01    0,000000000e+00    0,000000000e+00    0,000000000e+00    0,000000000e+00
      576000000   -1,497989148e-01   -3,797949851e-02    8,166524768e-02   -6,598097086e-01    0,000000000e+00    0,000000000e+00    0,000000000e+00    0,000000000e+00
      590000000   -1,298016161e-01    2,971762978e-02   -2,955380678e-01   -5,617243648e-01    0,000000000e+00    0,000000000e+00    0,000000000e+00    0,000000000e+00
      604000000   -3,736682236e-02    6,819006801e-02   -4,871576428e-01   -2,705495059e-01    0,000000000e+00    0,000000000e+00    0,000000000e+00    0,000000000e+00
      618000000    3,465117514e-02   -3,131432459e-02   -4,938734770e-01   -5,180787668e-02    0,000000000e+00    0,000000000e+00    0,000000000e+00    0,000000000e+00
      632000000   -5,283099413e-02   -9,262666851e-02   -5,258528590e-01    1,773518920e-01    0,000000000e+00    0,000000000e+00    0,000000000e+00    0,000000000e+00
      646000000   -1,004622206e-01   -3,371619433e-02   -3,797034025e-01    4,771075249e-01    0,000000000e+00    0,000000000e+00    0,000000000e+00    0,000000000e+00
      660000000   -6,918370724e-02    9,349286556e-03   -5,051354691e-02    6,253678799e-01    0,000000000e+00    0,000000000e+00    0,000000000e+00    0,000000000e+00
      674000000   -3,042403609e-02    5,331592634e-03    2,986128032e-01    5,530483127e-01    0,000000000e+00    0,000000000e+00    0,000000000e+00    0,000000000e+00
      688000000   -1,481936593e-02   -1,812607050e-02    5,470461249e-01    3,031729758e-01    0,000000000e+00    0,000000000e+00    0,000000000e+00    0,000000000e+00
      702000000   -1,409603097e-02   -3,471044824e-02    6,223883033e-01   -4,221744835e-02    0,000000000e+00    0,000000000e+00    0,000000000e+00    0,000000000e+00
      716000000   -1,000118442e-02   -4,901390895e-02    4,915739298e-01   -3,680955172e-01    0,000000000e+00    0,000000000e+00    0,000000000e+00    0,000000000e+00
      730000000   -6,851411425e-03   -7,486065477e-02    2,113733143e-01   -5,677964091e-01    0,000000000e+00    0,000000000e+00    0,000000000e+00    0,000000000e+00
      744000000   -2,646859922e-02   -1,107424572e-01   -1,236463934e-01   -5,882667899e-01    0,000000000e+00    0,000000000e+00    0,000000000e+00    0,000000000e+00
      758000000   -7,418558002e-02   -1,320760846e-01   -4,191452861e-01   -4,321430922e-01    0,000000000e+00    0,000000000e+00    0,000000000e+00    0,000000000e+00
      772000000   -1,356299967e-01   -1,150694415e-01   -5,935170054e-01   -1,397606432e-01    0,000000000e+00    0,000000000e+00    0,000000000e+00    0,000000000e+00
      786000000   -1,722955704e-01   -5,855727196e-02   -5,813807845e-01    2,096433640e-01    0,000000000e+00    0,000000000e+00    0,000000000e+00    0,000000000e+00
      800000000   -1,594540030e-01    7,126197685e-03   -3,730791211e-01    4,952579439e-01    0,000000000e+00    0,000000000e+00    0,000000000e+00    0,000000000e+00
      814000000   -1,145045832e-01    4,174619913e-02   -4,603173956e-02    6,153636575e-01    0,000000000e+00    0,000000000e+00    0,000000000e+00    0,000000000e+00
      828000000   -6,922126561e-02    4,443964362e-02    2,860853970e-01    5,401313305e-01    0,000000000e+00    0,000000000e+00    0,000000000e+00    0,000000000e+00
      842000000   -3,841703013e-02    2,919562533e-02    5,212982893e-01    3,059611320e-01    0,000000000e+00    0,000000000e+00    0,000000000e+00    0,000000000e+00
      856000000   -1,785862446e-02    1,266533602e-02    5,945274234e-01   -1,404577587e-02    0,000000000e+00    0,000000000e+00    0,000000000e+00    0,000000000e+00
      870000000    1,851732377e-03   -1,056614239e-02    4,861118495e-01   -3,171229661e-01    0,000000000e+00    0,000000000e+00    0,000000000e+00    0,000000000e+00
      884000000    1,316570304e-02   -5,119791999e-02    2,429292500e-01   -5,116593838e-01    0,000000000e+00    0,000000000e+00    0,000000000e+00    0,000000000e+00
      898000000   -4,181607626e-03   -1,019238234e-01   -5,742129683e-02   -5,542816520e-01    0,000000000e+00    0,000000000e+00    0,000000000e+00    0,000000000e+00
      912000000   -6,324787438e-02   -1,326700896e-01   -3,934243321e-01   -4,113168716e-01    0,000000000e+00    0,000000000e+00    0,000000000e+00    0,000000000e+00
      926000000   -1,290025562e-01   -1,182745621e-01   -5,687651634e-01   -1,482450515e-01    0,000000000e+00    0,000000000e+00    0,000000000e+00    0,000000000e+00
      940000000   -1,623760313e-01   -6,179587170e-02   -5,674297214e-01    1,930349767e-01    0,000000000e+00    0,000000000e+00    0,000000000e+00    0,000000000e+00
      954000000   -1,448282748e-01   -6,073358818e-04   -3,736408353e-01    4,846427441e-01    0,000000000e+00    0,000000000e+00    0,000000000e+00    0,000000000e+00
      968000000   -9,874570370e-02    2,157614008e-02   -5,208700150e-02    6,148765087e-01    0,000000000e+00    0,000000000e+00    0,000000000e+00    0,000000000e+00
      982000000   -5,661628395e-02    8,047195151e-03    2,796199918e-01    5,530040264e-01    0,000000000e+00    0,000000000e+00    0,000000000e+00    0,000000000e+00
      996000000   -4,437260702e-02   -3,033964336e-02    5,247124434e-01    3,289969862e-01    0,000000000e+00    0,000000000e+00    0,000000000e+00    0,000000000e+00
     1010000000   -6,020016223e-02   -6,660204381e-02    6,097834110e-01    1,524455845e-02    0,000000000e+00    0,000000000e+00    0,000000000e+00    0,000000000e+00
     1024000000   -1,014057174e-01   -8,021200448e-02    5,160531998e-01   -2,820023000e-01    0,000000000e+00    0,000000000e+00    0,000000000e+00    0,000000000e+00
     1038000000   -1,425748616e-01   -5,859764293e-02    2,989332676e-01   -4,729999304e-01    0,000000000e+00    0,000000000e+00    0,000000000e+00    0,000000000e+00
     1052000000   -1,513224989e-01    2,921537729e-03    3,463014588e-02   -5,246430039e-01    0,000000000e+00    0,000000000e+00    0,000000000e+00    0,000000000e+00
     1066000000   -1,012342051e-01    4,027708620e-02   -2,026444674e-01   -4,652629495e-01    0,000000000e+00    0,000000000e+00    0,000000000e+00    0,000000000e+00
     1080000000   -5,719107017e-02    2,676820755e-02   -4,167482853e-01   -2,983590364e-01    0,000000000e+00    0,000000000e+00    0,000000000e+00    0,000000000e+00
     1094000000   -3,625145555e-02   -8,014202118e-03   -5,205812454e-01   -2,416059561e-02    0,000000000e+00    0,000000000e+00    0,000000000e+00    0,000000000e+00
     1108000000   -3,005517833e-02   -2,931894548e-02   -4,435270131e-01    2,846252620e-01    0,000000000e+00    0,000000000e+00    0,000000000e+00    0,000000000e+00
     1122000000   -3,186711669e-02   -5,502754822e-02   -1,875677556e-01    4,979127347e-01    0,000000000e+00    0,000000000e+00    0,000000000e+00    0,000000000e+00
     1136000000   -4,584952071e-02   -9,305001050e-02    1,503432393e-01    5,184718966e-01    0,000000000e+00    0,000000000e+00    0,000000000e+00    0,000000000e+00
     1150000000   -8,458683640e-02   -1,257264763e-01    4,539600313e-01    3,449783325e-01    0,000000000e+00    0,000000000e+00    0,000000000e+00    0,000000000e+00
     1164000000   -1,361328512e-01   -1,259614974e-01    6,100617647e-01    1,026541460e-02    0,000000000e+00    0,000000000e+00    0,000000000e+00    0,000000000e+00
     1178000000   -1,778814197e-01   -8,520357311e-02    5,397609472e-01   -3,709429502e-01    0,000000000e+00    0,000000000e+00    0,000000000e+00    0,000000000e+00
     1192000000   -1,752354205e-01   -5,480863154e-02    2,461632639e-01   -6,405011415e-01    0,000000000e+00    0,000000000e+00    0,000000000e+00    0,000000000e+00
     1206000000   -1,885964870e-01   -5,217340961e-02   -1,375599504e-01   -6,623551846e-01    0,000000000e+00    0,000000000e+00    0,000000000e+00    0,000000000e+00
     1220000000   -2,503751516e-01   -1,587431692e-02   -4,196384251e-01   -4,795107245e-01    0,000000000e+00    0,000000000e+00    0,000000000e+00    0,000000000e+00
     1234000000   -2,435033172e-01    1,129397899e-01   -5,603836775e-01   -2,490626127e-01    0,000000000e+00    0,000000000e+00    0,000000000e+00    0,000000000e+00
     1248000000   -1,169373915e-01    1,686064303e-01   -6,056807637e-01    1,564797387e-02    0,000000000e+00    0,000000000e+00    0,000000000e+00    0,000000000e+00
     1262000000   -5,054815207e-03    1,324147135e-01   -5,079831481e-01    2,948702574e-01    0,000000000e+00    0,000000000e+00    0,000000000e+00    0,000000000e+00
     1276000000    5,863576010e-02    4,318581149e-02   -2,816194296e-01    4,894255400e-01    0,000000000e+00    0,000000000e+00    0,000000000e+00    0,000000000e+00
     1290000000    7,661969215e-02   -7,143148035e-02    7,948040962e-03    5,508477092e-01    0,000000000e+00    0,000000000e+00    0,000000000e+00    0,000000000e+00
     1304000000    1,619882323e-02   -1,848092079e-01    2,985631824e-01    4,721526504e-01    0,000000000e+00    0,000000000e+00    0,000000000e+00    0,000000000e+00
     1318000000   -9,494231641e-02   -2,521422505e-01    5,328480005e-01    2,745212317e-01    0,000000000e+00    0,000000000e+00    0,000000000e+00    0,000000000e+00
     1332000000   -2,428571135e-01   -2,450596690e-01    6,458665729e-01   -4,860299826e-02    0,000000000e+00    0,000000000e+00    0,000000000e+00    0,000000000e+00
     1346000000   -3,563690484e-01   -1,377922297e-01    5,602768660e-01   -4,109057486e-01    0,000000000e+00    0,000000000e+00    0,000000000e+00    0,000000000e+00
     1360000000   -3,862169385e-01    1,071741246e-02    2,575764358e-01   -6,330326796e-01    0,000000000e+00    0,000000000e+00    0,000000000e+00    0,000000000e+00
     1374000000   -3,260399699e-01    1,137022674e-01   -9,958314151e-02   -6,386109591e-01    0,000000000e+00    0,000000000e+00    0,000000000e+00    0,000000000e+00
     1388000000   -2,352168262e-01    1,693727076e-01   -3,689014316e-01   -4,213600755e-01    0,000000000e+00    0,000000000e+00    0,000000000e+00    0,000000000e+00
     1402000000   -1,530955136e-01    1,713855863e-01   -4,768621922e-01   -1,115468070e-01    0,000000000e+00    0,000000000e+00    0,000000000e+00    0,000000000e+00
     1416000000   -8,595992625e-02    1,404512674e-01   -3,892612159e-01    1,905917376e-01    0,000000000e+00    0,000000000e+00    0,000000000e+00    0,000000000e+00
     1430000000   -3,620415553e-02    8,551391214e-02   -1,973255426e-01    4,201875329e-01    0,000000000e+00    0,000000000e+00    0,000000000e+00    0,000000000e+00
     1444000000   -1,548076235e-02    4,331049975e-03    1,135438830e-01    5,156886578e-01    0,000000000e+00    0,000000000e+00    0,000000000e+00    0,000000000e+00
     1458000000   -4,242924228e-02   -8,370587230e-02    4,400283396e-01    4,922643304e-01    0,000000000e+00    0,000000000e+00    0,000000000e+00    0,000000000e+00
     1472000000   -1,271270812e-01   -1,461567134e-01    7,229207754e-01    3,081615865e-01    0,000000000e+00    0,000000000e+00    0,000000000e+00    0,000000000e+00
     1486000000   -2,348781675e-01   -1,444354504e-01    9,003173709e-01   -5,649374053e-02    0,000000000e+00    0,000000000e+00    0,000000000e+00    0,000000000e+00
     1500000000   -3,105504215e-01   -6,026387587e-02    8,306495547e-01   -4,179277122e-01    0,000000000e+00    0,000000000e+00    0,000000000e+00    0,000000000e+00
