! NanoVNA-App
! Date: 2025-09-25 15:03:00
! Start: 100MHz Stop: 1,5GHz Points: 101
! S-Parameter data: F S11 S21 S12 S22
# Hz S RI R 50
!     Frequency           S11_Real           S11_Imag           S21_Real           S21_Imag           S12_Real           S12_Imag           S22_Real           S22_Imag
      100000000    3,561742976e-02    2,735638060e-02    4,407171607e-01   -6,694872379e-01    0,000000000e+00    0,000000000e+00    0,000000000e+00    0,000000000e+00
      114000000    6,075193360e-02    2,190347994e-03    1,278943196e-02   -7,953781486e-01    0,000000000e+00    0,000000000e+00    0,000000000e+00    0,000000000e+00
      128000000    6,845333427e-02   -4,228644818e-02   -4,081343114e-01   -6,780847907e-01    0,000000000e+00    0,000000000e+00    0,000000000e+00    0,000000000e+00
      142000000    4,350570217e-02   -8,877185732e-02   -7,052181363e-01   -3,609301746e-01    0,000000000e+00    0,000000000e+00    0,000000000e+00    0,000000000e+00
      156000000   -9,718278423e-03   -1,095154807e-01   -7,923820615e-01    6,728409976e-02    0,000000000e+00    0,000000000e+00    0,000000000e+00    0,000000000e+00
      170000000   -6,262619048e-02   -9,169521928e-02   -6,370180845e-01    4,864442348e-01    0,000000000e+00    0,000000000e+00    0,000000000e+00    0,000000000e+00
      184000000   -8,854049444e-02   -4,761337489e-02   -2,732295394e-01    7,560697198e-01    0,000000000e+00    0,000000000e+00    0,000000000e+00    0,000000000e+00
      198000000   -8,271246403e-02   -6,414041389e-03    1,796373129e-01    7,820075154e-01    0,000000000e+00    0,000000000e+00    0,000000000e+00    0,000000000e+00
      212000000   -6,266450882e-02    1,800319366e-02    5,705543160e-01    5,585030317e-01    0,000000000e+00    0,000000000e+00    0,000000000e+00    0,000000000e+00
      226000000   -4,145859927e-02    3,181146085e-02    7,767397761e-01    1,618539393e-01    0,000000000e+00    0,000000000e+00    0,000000000e+00    0,000000000e+00
      240000000   -1,483087707e-02    4,131355509e-02    7,359719276e-01   -2,787764370e-01    0,000000000e+00    0,000000000e+00    0,000000000e+00    0,000000000e+00
      254000000    2,142767608e-02    3,625543043e-02    4,680284262e-01   -6,222209930e-01    0,000000000e+00    0,000000000e+00    0,000000000e+00    0,000000000e+00
      268000000    5,331262201e-02    4,701615311e-03    6,657659262e-02   -7,672037482e-01    0,000000000e+00    0,000000000e+00    0,000000000e+00    0,000000000e+00
      282000000    5,751296505e-02   -4,490729421e-02   -3,456614017e-01   -6,823604107e-01    0,000000000e+00    0,000000000e+00    0,000000000e+00    0,000000000e+00
      296000000    2,622636594e-02   -8,477939665e-02   -6,546670198e-01   -3,972348273e-01    0,000000000e+00    0,000000000e+00    0,000000000e+00    0,000000000e+00
      310000000   -1,901569776e-02   -8,929041028e-02   -7,741702795e-01    1,137229521e-02    0,000000000e+00    0,000000000e+00    0,000000000e+00    0,000000000e+00
      324000000   -4,655272514e-02   -6,353060901e-02   -6,481218934e-01    4,296371937e-01    0,000000000e+00    0,000000000e+00    0,000000000e+00    0,000000000e+00
      338000000   -4,114205018e-02   -3,772229329e-02   -3,096877038e-01    7,078707814e-01    0,000000000e+00    0,000000000e+00    0,000000000e+00    0,000000000e+00
      352000000   -2,347765677e-02   -3,771920130e-02    1,188039482e-01    7,587313056e-01    0,000000000e+00    0,000000000e+00    0,000000000e+00    0,000000000e+00
      366000000   -2,278276160e-02   -5,618405715e-02    5,037155747e-01    5,709736943e-01    0,000000000e+00    0,000000000e+00    0,000000000e+00    0,000000000e+00
      380000000   -4,469722137e-02   -6,527704746e-02    7,263989449e-01    2,112738043e-01    0,000000000e+00    0,000000000e+00    0,000000000e+00    0,000000000e+00
      394000000   -6,671829522e-02   -5,053225160e-02    7,226276398e-01   -2,135445923e-01    0,000000000e+00    0,000000000e+00    0,000000000e+00    0,000000000e+00
      408000000   -6,753972173e-02   -2,649690211e-02    4,898718894e-01   -5,679197311e-01    0,000000000e+00    0,000000000e+00    0,000000000e+00    0,000000000e+00
      422000000   -5,307381228e-02   -1,504669059e-02    1,058938131e-01   -7,372900248e-01    0,000000000e+00    0,000000000e+00    0,000000000e+00    0,000000000e+00
      436000000   -4,657607898e-02   -1,861763932e-02   -3,065415025e-01   -6,755107045e-01    0,000000000e+00    0,000000000e+00    0,000000000e+00    0,000000000e+00
      450000000   -5,237768590e-02   -1,500760019e-02   -6,192122698e-01   -3,991973400e-01    0,000000000e+00    0,000000000e+00    0,000000000e+00    0,000000000e+00
      464000000   -5,058468506e-02    5,549863447e-03   -7,300501466e-01    3,324739868e-03    0,000000000e+00    0,000000000e+00    0,000000000e+00    0,000000000e+00
      478000000   -2,083650231e-02    2,626862936e-02   -5,984178185e-01    3,973623812e-01    0,000000000e+00    0,000000000e+00    0,000000000e+00    0,000000000e+00
      492000000    2,839384414e-02    1,469453052e-02   -2,802247703e-01    6,439177990e-01    0,000000000e+00    0,000000000e+00    0,000000000e+00    0,000000000e+00
      506000000    5,928511545e-02   -3,755518049e-02    1,044923738e-01    6,797801256e-01    0,000000000e+00    0,000000000e+00    0,000000000e+00    0,000000000e+00
      520000000    4,438312724e-02   -1,023682058e-01    4,407995343e-01    5,188475847e-01    0,000000000e+00    0,000000000e+00    0,000000000e+00    0,000000000e+00
      534000000   -1,272635628e-02   -1,435867548e-01    6,490326524e-01    2,054446936e-01    0,000000000e+00    0,000000000e+00    0,000000000e+00    0,000000000e+00
      548000000   -8,140900731e-02   -1,396595091e-01    6,600284576e-01   -1,756923646e-01    0,000000000e+00    0,000000000e+00    0,000000000e+00    0,000000000e+00
      562000000   -1,308911145e-01   -9,791751951e-02    4,512414932e-01   -5,081494451e-01    0,000000000e+00    0,000000000e+00    0,000000000e+00    0,000000000e+00
      576000000   -1,494853050e-01   -3,872423247e-02    8,171670139e-02   -6,597531438e-01    0,000000000e+00    0,000000000e+00    0,000000000e+00    0,000000000e+00
      590000000   -1,299745888e-01    2,830860205e-02   -2,956682146e-01   -5,658354163e-01    0,000000000e+00    0,000000000e+00    0,000000000e+00    0,000000000e+00
      604000000   -4,025895521e-02    6,873890758e-02   -4,904769361e-01   -2,702002227e-01    0,000000000e+00    0,000000000e+00    0,000000000e+00    0,000000000e+00
      618000000    3,535660729e-02   -2,650751360e-02   -4,931895137e-01   -4,634267837e-02    0,000000000e+00    0,000000000e+00    0,000000000e+00    0,000000000e+00
      632000000   -4,907312617e-02   -9,396574646e-02   -5,218982697e-01    1,762667745e-01    0,000000000e+00    0,000000000e+00    0,000000000e+00    0,000000000e+00
      646000000   -1,000088602e-01   -3,575844690e-02   -3,791124523e-01    4,742691517e-01    0,000000000e+00    0,000000000e+00    0,000000000e+00    0,000000000e+00
      660000000   -7,032795250e-02    8,441687562e-03   -5,256002769e-02    6,244204044e-01    0,000000000e+00    0,000000000e+00    0,000000000e+00    0,000000000e+00
      674000000   -3,179883584e-02    5,658882204e-03    2,980125546e-01    5,531690717e-01    0,000000000e+00    0,000000000e+00    0,000000000e+00    0,000000000e+00
      688000000   -1,588672400e-02   -1,768722944e-02    5,465412140e-01    3,040101230e-01    0,000000000e+00    0,000000000e+00    0,000000000e+00    0,000000000e+00
      702000000   -1,357894670e-02   -3,497383371e-02    6,184124947e-01   -4,238042235e-02    0,000000000e+00    0,000000000e+00    0,000000000e+00    0,000000000e+00
      716000000   -9,870084934e-03   -4,795714095e-02    4,929901063e-01   -3,683638275e-01    0,000000000e+00    0,000000000e+00    0,000000000e+00    0,000000000e+00
      730000000   -6,212074775e-03   -7,468824089e-02    2,119369954e-01   -5,679206252e-01    0,000000000e+00    0,000000000e+00    0,000000000e+00    0,000000000e+00
      744000000   -2,530423738e-02   -1,111468524e-01   -1,231030896e-01   -5,883693695e-01    0,000000000e+00    0,000000000e+00    0,000000000e+00    0,000000000e+00
      758000000   -7,434930652e-02   -1,342076212e-01   -4,193991125e-01   -4,340185225e-01    0,000000000e+00    0,000000000e+00    0,000000000e+00    0,000000000e+00
      772000000   -1,350457668e-01   -1,163222864e-01   -5,941829085e-01   -1,407766640e-01    0,000000000e+00    0,000000000e+00    0,000000000e+00    0,000000000e+00
      786000000   -1,716587692e-01   -5,823413655e-02   -5,828375220e-01    2,100342810e-01    0,000000000e+00    0,000000000e+00    0,000000000e+00    0,000000000e+00
      800000000   -1,601067036e-01    7,547540125e-03   -3,727003932e-01    4,960151911e-01    0,000000000e+00    0,000000000e+00    0,000000000e+00    0,000000000e+00
      814000000   -1,138604581e-01    4,303365573e-02   -4,493734241e-02    6,157295108e-01    0,000000000e+00    0,000000000e+00    0,000000000e+00    0,000000000e+00
      828000000   -6,773854047e-02    4,437839612e-02    2,864348590e-01    5,409987569e-01    0,000000000e+00    0,000000000e+00    0,000000000e+00    0,000000000e+00
      842000000   -3,868733346e-02    2,916591056e-02    5,216186047e-01    3,061113656e-01    0,000000000e+00    0,000000000e+00    0,000000000e+00    0,000000000e+00
      856000000   -1,832900010e-02    1,177500654e-02    5,946342945e-01   -1,395065244e-02    0,000000000e+00    0,000000000e+00    0,000000000e+00    0,000000000e+00
      870000000    2,079880796e-03   -1,199180353e-02    4,869356453e-01   -3,175087869e-01    0,000000000e+00    0,000000000e+00    0,000000000e+00    0,000000000e+00
      884000000    1,325118076e-02   -5,172972754e-02    2,417350113e-01   -5,131992698e-01    0,000000000e+00    0,000000000e+00    0,000000000e+00    0,000000000e+00
      898000000   -3,811871866e-03   -1,012986973e-01   -6,084948406e-02   -5,541982651e-01    0,000000000e+00    0,000000000e+00    0,000000000e+00    0,000000000e+00
      912000000   -6,257328391e-02   -1,318062246e-01   -3,995988667e-01   -4,161800444e-01    0,000000000e+00    0,000000000e+00    0,000000000e+00    0,000000000e+00
      926000000   -1,252352148e-01   -1,182090119e-01   -5,640178323e-01   -1,462410241e-01    0,000000000e+00    0,000000000e+00    0,000000000e+00    0,000000000e+00
      940000000   -1,642561406e-01   -6,429867446e-02   -5,682421327e-01    1,925159991e-01    0,000000000e+00    0,000000000e+00    0,000000000e+00    0,000000000e+00
      954000000   -1,471348554e-01    1,936039422e-03   -3,722726703e-01    4,847202599e-01    0,000000000e+00    0,000000000e+00    0,000000000e+00    0,000000000e+00
      968000000   -9,897932410e-02    2,602867596e-02   -5,144911259e-02    6,152653694e-01    0,000000000e+00    0,000000000e+00    0,000000000e+00    0,000000000e+00
      982000000   -5,636688694e-02    3,481013700e-03    2,793931365e-01    5,516865849e-01    0,000000000e+00    0,000000000e+00    0,000000000e+00    0,000000000e+00
      996000000   -4,262793437e-02   -3,712089732e-02    5,235794187e-01    3,272963762e-01    0,000000000e+00    0,000000000e+00    0,000000000e+00    0,000000000e+00
     1010000000   -6,543625891e-02   -6,741938740e-02    6,055694818e-01    1,256097760e-02    0,000000000e+00    0,000000000e+00    0,000000000e+00    0,000000000e+00
     1024000000   -1,033378690e-01   -7,924683392e-02    5,144009590e-01   -2,797527611e-01    0,000000000e+00    0,000000000e+00    0,000000000e+00    0,000000000e+00
     1038000000   -1,414076239e-01   -5,811808258e-02    2,958329618e-01   -4,720853567e-01    0,000000000e+00    0,000000000e+00    0,000000000e+00    0,000000000e+00
     1052000000   -1,468803138e-01    3,439437132e-04    3,647440672e-02   -5,244109631e-01    0,000000000e+00    0,000000000e+00    0,000000000e+00    0,000000000e+00
     1066000000   -1,039547026e-01    4,166410491e-02   -2,108788043e-01   -4,697022736e-01    0,000000000e+00    0,000000000e+00    0,000000000e+00    0,000000000e+00
     1080000000   -5,264450610e-02    2,441310696e-02   -4,195556939e-01   -2,983986139e-01    0,000000000e+00    0,000000000e+00    0,000000000e+00    0,000000000e+00
     1094000000   -3,658275679e-02   -3,869798500e-03   -5,222073197e-01   -2,495337278e-02    0,000000000e+00    0,000000000e+00    0,000000000e+00    0,000000000e+00
     1108000000   -2,920937724e-02   -3,113070503e-02   -4,426055253e-01    2,837814093e-01    0,000000000e+00    0,000000000e+00    0,000000000e+00    0,000000000e+00
     1122000000   -3,367174789e-02   -6,104324386e-02   -1,875732988e-01    4,944497347e-01    0,000000000e+00    0,000000000e+00    0,000000000e+00    0,000000000e+00
     1136000000   -4,213533178e-02   -9,210993350e-02    1,509843320e-01    5,196586847e-01    0,000000000e+00    0,000000000e+00    0,000000000e+00    0,000000000e+00
     1150000000   -8,017455786e-02   -1,240098625e-01    4,509769082e-01    3,422921598e-01    0,000000000e+00    0,000000000e+00    0,000000000e+00    0,000000000e+00
     1164000000   -1,412248164e-01   -1,247548088e-01    6,113386750e-01    1,066149119e-02    0,000000000e+00    0,000000000e+00    0,000000000e+00    0,000000000e+00
     1178000000   -1,768731177e-01   -8,963935822e-02    5,389583707e-01   -3,732343912e-01    0,000000000e+00    0,000000000e+00    0,000000000e+00    0,000000000e+00
     1192000000   -1,777433157e-01   -5,794522911e-02    2,438228428e-01   -6,347631812e-01    0,000000000e+00    0,000000000e+00    0,000000000e+00    0,000000000e+00
     1206000000   -1,936833709e-01   -5,383763835e-02   -1,360706985e-01   -6,629676223e-01    0,000000000e+00    0,000000000e+00    0,000000000e+00    0,000000000e+00
     1220000000   -2,516050041e-01   -1,686307974e-02   -4,195575118e-01   -4,873614907e-01    0,000000000e+00    0,000000000e+00    0,000000000e+00    0,000000000e+00
     1234000000   -2,457542717e-01    1,168230250e-01   -5,621482730e-01   -2,485789955e-01    0,000000000e+00    0,000000000e+00    0,000000000e+00    0,000000000e+00
     1248000000   -1,107369214e-01    1,759188026e-01   -6,017572284e-01    1,942512393e-02    0,000000000e+00    0,000000000e+00    0,000000000e+00    0,000000000e+00
     1262000000   -2,005721908e-03    1,289258897e-01   -5,061635971e-01    2,947015464e-01    0,000000000e+00    0,000000000e+00    0,000000000e+00    0,000000000e+00
     1276000000    6,222098321e-02    3,536960483e-02   -2,777031064e-01    4,868973196e-01    0,000000000e+00    0,000000000e+00    0,000000000e+00    0,000000000e+00
     1290000000    7,332041860e-02   -7,049358636e-02    1,458679885e-02    5,466768146e-01    0,000000000e+00    0,000000000e+00    0,000000000e+00    0,000000000e+00
     1304000000    2,205308713e-02   -1,757074445e-01    2,996187210e-01    4,844667614e-01    0,000000000e+00    0,000000000e+00    0,000000000e+00    0,000000000e+00
     1318000000   -8,927918971e-02   -2,483725697e-01    5,426920056e-01    2,672240138e-01    0,000000000e+00    0,000000000e+00    0,000000000e+00    0,000000000e+00
     1332000000   -2,420194149e-01   -2,422939837e-01    6,516005993e-01   -5,127559230e-02    0,000000000e+00    0,000000000e+00    0,000000000e+00    0,000000000e+00
     1346000000   -3,624809086e-01   -1,410370916e-01    5,545286536e-01   -4,062888622e-01    0,000000000e+00    0,000000000e+00    0,000000000e+00    0,000000000e+00
     1360000000   -3,873701692e-01    9,263303131e-03    2,592271566e-01   -6,311433315e-01    0,000000000e+00    0,000000000e+00    0,000000000e+00    0,000000000e+00
     1374000000   -3,245091140e-01    1,170093268e-01   -9,744428098e-02   -6,246214509e-01    0,000000000e+00    0,000000000e+00    0,000000000e+00    0,000000000e+00
     1388000000   -2,385091633e-01    1,670212597e-01   -3,759514689e-01   -4,144078791e-01    0,000000000e+00    0,000000000e+00    0,000000000e+00    0,000000000e+00
     1402000000   -1,546030045e-01    1,670360416e-01   -4,729672372e-01   -1,015802026e-01    0,000000000e+00    0,000000000e+00    0,000000000e+00    0,000000000e+00
     1416000000   -8,667165786e-02    1,388473958e-01   -3,951596022e-01    1,978123784e-01    0,000000000e+00    0,000000000e+00    0,000000000e+00    0,000000000e+00
     1430000000   -3,672642633e-02    8,127483726e-02   -1,880732030e-01    4,464853704e-01    0,000000000e+00    0,000000000e+00    0,000000000e+00    0,000000000e+00
     1444000000   -1,796008646e-02    1,109765284e-02    1,139160469e-01    5,301690102e-01    0,000000000e+00    0,000000000e+00    0,000000000e+00    0,000000000e+00
     1458000000   -3,982966766e-02   -8,283418417e-02    4,310457110e-01    4,838195741e-01    0,000000000e+00    0,000000000e+00    0,000000000e+00    0,000000000e+00
     1472000000   -1,235759631e-01   -1,482948065e-01    7,181124687e-01    3,114029169e-01    0,000000000e+00    0,000000000e+00    0,000000000e+00    0,000000000e+00
     1486000000   -2,354174107e-01   -1,503990740e-01    8,968384266e-01   -3,900812194e-02    0,000000000e+00    0,000000000e+00    0,000000000e+00    0,000000000e+00
     1500000000   -3,090600371e-01   -6,916570663e-02    8,440649509e-01   -4,261130095e-01    0,000000000e+00    0,000000000e+00    0,000000000e+00    0,000000000e+00
