! NanoVNA-App
! Date: 2025-09-25 14:56:15
! Start: 100MHz Stop: 1,5GHz Points: 101
! S-Parameter data: F S11 S21 S12 S22
# Hz S RI R 50
!     Frequency           S11_Real           S11_Imag           S21_Real           S21_Imag           S12_Real           S12_Imag           S22_Real           S22_Imag
      100000000    3,561256453e-02    2,699320577e-02    4,407153726e-01   -6,695892811e-01    0,000000000e+00    0,000000000e+00    0,000000000e+00    0,000000000e+00
      114000000    6,052370742e-02    1,754297526e-03    1,288319752e-02   -7,953444123e-01    0,000000000e+00    0,000000000e+00    0,000000000e+00    0,000000000e+00
      128000000    6,793822348e-02   -4,256964847e-02   -4,083302319e-01   -6,779526472e-01    0,000000000e+00    0,000000000e+00    0,000000000e+00    0,000000000e+00
      142000000    4,280965775e-02   -8,889845759e-02   -7,054523230e-01   -3,608903587e-01    0,000000000e+00    0,000000000e+00    0,000000000e+00    0,000000000e+00
      156000000   -1,029044483e-02   -1,092390642e-01   -7,931100726e-01    6,720171124e-02    0,000000000e+00    0,000000000e+00    0,000000000e+00    0,000000000e+00
      170000000   -6,323078275e-02   -9,112031013e-02   -6,367629766e-01    4,867232442e-01    0,000000000e+00    0,000000000e+00    0,000000000e+00    0,000000000e+00
      184000000   -8,867933601e-02   -4,661255330e-02   -2,729265094e-01    7,563101053e-01    0,000000000e+00    0,000000000e+00    0,000000000e+00    0,000000000e+00
      198000000   -8,217233419e-02   -5,425674841e-03    1,800110936e-01    7,820194960e-01    0,000000000e+00    0,000000000e+00    0,000000000e+00    0,000000000e+00
      212000000   -6,160538644e-02    1,857437380e-02    5,704597235e-01    5,576516986e-01    0,000000000e+00    0,000000000e+00    0,000000000e+00    0,000000000e+00
      226000000   -4,013626650e-02    3,166284040e-02    7,766901255e-01    1,617280692e-01    0,000000000e+00    0,000000000e+00    0,000000000e+00    0,000000000e+00
      240000000   -1,381326746e-02    4,041948915e-02    7,360463738e-01   -2,788176239e-01    0,000000000e+00    0,000000000e+00    0,000000000e+00    0,000000000e+00
      254000000    2,189724892e-02    3,490635380e-02    4,679409564e-01   -6,222561002e-01    0,000000000e+00    0,000000000e+00    0,000000000e+00    0,000000000e+00
      268000000    5,298066512e-02    3,164205933e-03    6,644258648e-02   -7,673425674e-01    0,000000000e+00    0,000000000e+00    0,000000000e+00    0,000000000e+00
      282000000    5,623203516e-02   -4,622526094e-02   -3,458676934e-01   -6,831594706e-01    0,000000000e+00    0,000000000e+00    0,000000000e+00    0,000000000e+00
      296000000    2,433926612e-02   -8,506673574e-02   -6,553784013e-01   -3,976126313e-01    0,000000000e+00    0,000000000e+00    0,000000000e+00    0,000000000e+00
      310000000   -2,068904787e-02   -8,893091232e-02   -7,747075558e-01    1,149403304e-02    0,000000000e+00    0,000000000e+00    0,000000000e+00    0,000000000e+00
      324000000   -4,781098291e-02   -6,216711178e-02   -6,473891139e-01    4,300774336e-01    0,000000000e+00    0,000000000e+00    0,000000000e+00    0,000000000e+00
      338000000   -4,168675095e-02   -3,571475670e-02   -3,105770946e-01    7,080590725e-01    0,000000000e+00    0,000000000e+00    0,000000000e+00    0,000000000e+00
      352000000   -2,282266319e-02   -3,574813902e-02    1,199527085e-01    7,582831979e-01    0,000000000e+00    0,000000000e+00    0,000000000e+00    0,000000000e+00
      366000000   -2,136800997e-02   -5,504211411e-02    5,034924150e-01    5,708546042e-01    0,000000000e+00    0,000000000e+00    0,000000000e+00    0,000000000e+00
      380000000   -4,261443019e-02   -6,517064571e-02    7,263285518e-01    2,112107873e-01    0,000000000e+00    0,000000000e+00    0,000000000e+00    0,000000000e+00
      394000000   -6,488510221e-02   -5,157004297e-02    7,227461338e-01   -2,132550925e-01    0,000000000e+00    0,000000000e+00    0,000000000e+00    0,000000000e+00
      408000000   -6,617736816e-02   -2,770758234e-02    4,903358221e-01   -5,682620406e-01    0,000000000e+00    0,000000000e+00    0,000000000e+00    0,000000000e+00
      422000000   -5,273070931e-02   -1,695611700e-02    1,060759053e-01   -7,378667593e-01    0,000000000e+00    0,000000000e+00    0,000000000e+00    0,000000000e+00
      436000000   -4,714941233e-02   -2,056893334e-02   -3,054687381e-01   -6,761398911e-01    0,000000000e+00    0,000000000e+00    0,000000000e+00    0,000000000e+00
      450000000   -5,357553065e-02   -1,633935980e-02   -6,192229986e-01   -3,998617530e-01    0,000000000e+00    0,000000000e+00    0,000000000e+00    0,000000000e+00
      464000000   -5,197717994e-02    5,061555188e-03   -7,301394939e-01    3,261522856e-03    0,000000000e+00    0,000000000e+00    0,000000000e+00    0,000000000e+00
      478000000   -2,265549451e-02    2,716256678e-02   -5,997357965e-01    3,969682455e-01    0,000000000e+00    0,000000000e+00    0,000000000e+00    0,000000000e+00
      492000000    2,657894790e-02    1,676469110e-02   -2,806216776e-01    6,452234387e-01    0,000000000e+00    0,000000000e+00    0,000000000e+00    0,000000000e+00
      506000000    5,861033127e-02   -3,497728705e-02    1,043867767e-01    6,811578274e-01    0,000000000e+00    0,000000000e+00    0,000000000e+00    0,000000000e+00
      520000000    4,517149925e-02   -9,982229769e-02    4,463903308e-01    5,186828971e-01    0,000000000e+00    0,000000000e+00    0,000000000e+00    0,000000000e+00
      534000000   -9,875685908e-03   -1,413543522e-01    6,510378122e-01    2,070851177e-01    0,000000000e+00    0,000000000e+00    0,000000000e+00    0,000000000e+00
      548000000   -7,671235502e-02   -1,395362616e-01    6,628777385e-01   -1,755710244e-01    0,000000000e+00    0,000000000e+00    0,000000000e+00    0,000000000e+00
      562000000   -1,259485632e-01   -1,019176692e-01    4,561366141e-01   -5,103645921e-01    0,000000000e+00    0,000000000e+00    0,000000000e+00    0,000000000e+00
      576000000   -1,475896686e-01   -4,979422688e-02    8,750575036e-02   -6,705105901e-01    0,000000000e+00    0,000000000e+00    0,000000000e+00    0,000000000e+00
      590000000   -1,446661055e-01    1,538653579e-02   -3,061391413e-01   -5,798991919e-01    0,000000000e+00    0,000000000e+00    0,000000000e+00    0,000000000e+00
      604000000   -7,268108428e-02    9,157638997e-02   -5,325810909e-01   -2,523314357e-01    0,000000000e+00    0,000000000e+00    0,000000000e+00    0,000000000e+00
      618000000    8,672338724e-02    1,240838412e-02   -4,422728717e-01    7,987868041e-03    0,000000000e+00    0,000000000e+00    0,000000000e+00    0,000000000e+00
      632000000   -3,683754802e-02   -1,429975629e-01   -5,036545992e-01    1,208546832e-01    0,000000000e+00    0,000000000e+00    0,000000000e+00    0,000000000e+00
      646000000   -1,263664961e-01   -4,439292848e-02   -4,090418816e-01    4,644288123e-01    0,000000000e+00    0,000000000e+00    0,000000000e+00    0,000000000e+00
      660000000   -8,075065166e-02    2,000343800e-02   -6,383228302e-02    6,368282437e-01    0,000000000e+00    0,000000000e+00    0,000000000e+00    0,000000000e+00
      674000000   -3,064950369e-02    1,488554943e-02    3,003673255e-01    5,647062063e-01    0,000000000e+00    0,000000000e+00    0,000000000e+00    0,000000000e+00
      688000000   -1,010296214e-02   -1,298204251e-02    5,544447303e-01    3,080296218e-01    0,000000000e+00    0,000000000e+00    0,000000000e+00    0,000000000e+00
      702000000   -9,209359065e-03   -3,480966762e-02    6,288170815e-01   -4,181918874e-02    0,000000000e+00    0,000000000e+00    0,000000000e+00    0,000000000e+00
      716000000   -7,271655370e-03   -5,096119270e-02    4,968650639e-01   -3,727411032e-01    0,000000000e+00    0,000000000e+00    0,000000000e+00    0,000000000e+00
      730000000   -6,741124671e-03   -7,874589413e-02    2,139568478e-01   -5,738372207e-01    0,000000000e+00    0,000000000e+00    0,000000000e+00    0,000000000e+00
      744000000   -2,746336721e-02   -1,130464226e-01   -1,267929971e-01   -5,952448845e-01    0,000000000e+00    0,000000000e+00    0,000000000e+00    0,000000000e+00
      758000000   -7,742499560e-02   -1,343754083e-01   -4,265943766e-01   -4,369473457e-01    0,000000000e+00    0,000000000e+00    0,000000000e+00    0,000000000e+00
      772000000   -1,391081065e-01   -1,137390733e-01   -6,020455956e-01   -1,389710754e-01    0,000000000e+00    0,000000000e+00    0,000000000e+00    0,000000000e+00
      786000000   -1,731200963e-01   -5,492546782e-02   -5,877786875e-01    2,168483585e-01    0,000000000e+00    0,000000000e+00    0,000000000e+00    0,000000000e+00
      800000000   -1,574340016e-01    1,108664367e-02   -3,736509681e-01    5,067484379e-01    0,000000000e+00    0,000000000e+00    0,000000000e+00    0,000000000e+00
      814000000   -1,101470068e-01    4,450278357e-02   -3,970194981e-02    6,224340796e-01    0,000000000e+00    0,000000000e+00    0,000000000e+00    0,000000000e+00
      828000000   -6,414719671e-02    4,187148437e-02    2,946588099e-01    5,438148975e-01    0,000000000e+00    0,000000000e+00    0,000000000e+00    0,000000000e+00
      842000000   -3,666937351e-02    2,395491302e-02    5,306491256e-01    3,022755682e-01    0,000000000e+00    0,000000000e+00    0,000000000e+00    0,000000000e+00
      856000000   -1,892065629e-02    7,050432265e-03    6,018536091e-01   -2,256482467e-02    0,000000000e+00    0,000000000e+00    0,000000000e+00    0,000000000e+00
      870000000   -9,036337142e-04   -1,392410230e-02    4,878863692e-01   -3,303330839e-01    0,000000000e+00    0,000000000e+00    0,000000000e+00    0,000000000e+00
      884000000    9,208386764e-03   -5,217698961e-02    2,361407280e-01   -5,241063237e-01    0,000000000e+00    0,000000000e+00    0,000000000e+00    0,000000000e+00
      898000000   -7,758056279e-03   -1,009156555e-01   -7,364597917e-02   -5,618936419e-01    0,000000000e+00    0,000000000e+00    0,000000000e+00    0,000000000e+00
      912000000   -6,568654627e-02   -1,296752691e-01   -4,155824184e-01   -4,167461991e-01    0,000000000e+00    0,000000000e+00    0,000000000e+00    0,000000000e+00
      926000000   -1,276369989e-01   -1,149209514e-01   -5,800158381e-01   -1,312003136e-01    0,000000000e+00    0,000000000e+00    0,000000000e+00    0,000000000e+00
      940000000   -1,641554236e-01   -5,594991893e-02   -5,700135231e-01    2,172275335e-01    0,000000000e+00    0,000000000e+00    0,000000000e+00    0,000000000e+00
      954000000   -1,476275176e-01    7,300236262e-03   -3,577852547e-01    5,055750012e-01    0,000000000e+00    0,000000000e+00    0,000000000e+00    0,000000000e+00
      968000000   -9,461779147e-02    3,065512888e-02   -2,320059575e-02    6,201071143e-01    0,000000000e+00    0,000000000e+00    0,000000000e+00    0,000000000e+00
      982000000   -4,573142156e-02    7,675239816e-03    3,076999485e-01    5,304842591e-01    0,000000000e+00    0,000000000e+00    0,000000000e+00    0,000000000e+00
      996000000   -2,897678502e-02   -3,366367146e-02    5,282956362e-01    2,865243554e-01    0,000000000e+00    0,000000000e+00    0,000000000e+00    0,000000000e+00
     1010000000   -5,162812397e-02   -8,549320698e-02    5,744506121e-01   -1,814280450e-02    0,000000000e+00    0,000000000e+00    0,000000000e+00    0,000000000e+00
     1024000000   -1,110568047e-01   -1,071836278e-01    4,705058336e-01   -2,719341218e-01    0,000000000e+00    0,000000000e+00    0,000000000e+00    0,000000000e+00
     1038000000   -1,741980165e-01   -6,361602247e-02    2,873658240e-01   -4,309853911e-01    0,000000000e+00    0,000000000e+00    0,000000000e+00    0,000000000e+00
     1052000000   -1,706219763e-01    1,104424149e-02    5,563905090e-02   -5,151580572e-01    0,000000000e+00    0,000000000e+00    0,000000000e+00    0,000000000e+00
     1066000000   -1,124578416e-01    5,067853257e-02   -2,087425441e-01   -4,703548551e-01    0,000000000e+00    0,000000000e+00    0,000000000e+00    0,000000000e+00
     1080000000   -5,144376308e-02    4,570166022e-02   -4,266374409e-01   -2,840808332e-01    0,000000000e+00    0,000000000e+00    0,000000000e+00    0,000000000e+00
     1094000000   -2,366475016e-02    1,107124984e-02   -5,022228956e-01   -5,568295717e-03    0,000000000e+00    0,000000000e+00    0,000000000e+00    0,000000000e+00
     1108000000   -5,949652754e-03   -2,976748161e-02   -4,121991992e-01    2,793974876e-01    0,000000000e+00    0,000000000e+00    0,000000000e+00    0,000000000e+00
     1122000000   -1,176695246e-02   -7,341353595e-02   -1,739528328e-01    4,688333869e-01    0,000000000e+00    0,000000000e+00    0,000000000e+00    0,000000000e+00
     1136000000   -4,034182429e-02   -1,132615432e-01    1,371459067e-01    5,024104714e-01    0,000000000e+00    0,000000000e+00    0,000000000e+00    0,000000000e+00
     1150000000   -8,600649238e-02   -1,374642551e-01    4,288663566e-01    3,378102779e-01    0,000000000e+00    0,000000000e+00    0,000000000e+00    0,000000000e+00
     1164000000   -1,498244256e-01   -1,340795308e-01    5,935087204e-01    2,225946262e-02    0,000000000e+00    0,000000000e+00    0,000000000e+00    0,000000000e+00
     1178000000   -1,877850294e-01   -9,262118489e-02    5,361018777e-01   -3,545238674e-01    0,000000000e+00    0,000000000e+00    0,000000000e+00    0,000000000e+00
     1192000000   -1,929113567e-01   -4,952625558e-02    2,451726198e-01   -6,224639416e-01    0,000000000e+00    0,000000000e+00    0,000000000e+00    0,000000000e+00
     1206000000   -2,026540339e-01   -4,539650679e-02   -1,256277263e-01   -6,610425115e-01    0,000000000e+00    0,000000000e+00    0,000000000e+00    0,000000000e+00
     1220000000   -2,491656542e-01   -1,408810494e-03   -4,191715717e-01   -4,814057350e-01    0,000000000e+00    0,000000000e+00    0,000000000e+00    0,000000000e+00
     1234000000   -2,414244413e-01    1,189027131e-01   -5,599634647e-01   -2,442186624e-01    0,000000000e+00    0,000000000e+00    0,000000000e+00    0,000000000e+00
     1248000000   -1,074384153e-01    1,757034510e-01   -5,973700285e-01    1,975317672e-02    0,000000000e+00    0,000000000e+00    0,000000000e+00    0,000000000e+00
     1262000000    1,421964960e-03    1,302951276e-01   -5,016986728e-01    2,903078198e-01    0,000000000e+00    0,000000000e+00    0,000000000e+00    0,000000000e+00
     1276000000    6,136086956e-02    4,297023639e-02   -2,761852145e-01    4,792022705e-01    0,000000000e+00    0,000000000e+00    0,000000000e+00    0,000000000e+00
     1290000000    7,859379798e-02   -7,416249812e-02    9,666174650e-03    5,374940634e-01    0,000000000e+00    0,000000000e+00    0,000000000e+00    0,000000000e+00
     1304000000    2,160132863e-02   -1,827379614e-01    2,930586934e-01    4,711000025e-01    0,000000000e+00    0,000000000e+00    0,000000000e+00    0,000000000e+00
     1318000000   -8,978877962e-02   -2,604313195e-01    5,313870907e-01    2,656418979e-01    0,000000000e+00    0,000000000e+00    0,000000000e+00    0,000000000e+00
     1332000000   -2,369405180e-01   -2,492861897e-01    6,460467577e-01   -5,530049279e-02    0,000000000e+00    0,000000000e+00    0,000000000e+00    0,000000000e+00
     1346000000   -3,643248379e-01   -1,509810537e-01    5,542736053e-01   -3,967240453e-01    0,000000000e+00    0,000000000e+00    0,000000000e+00    0,000000000e+00
     1360000000   -3,910641074e-01    4,010687699e-04    2,511914372e-01   -6,331393123e-01    0,000000000e+00    0,000000000e+00    0,000000000e+00    0,000000000e+00
     1374000000   -3,316050470e-01    1,140735298e-01   -1,015059128e-01   -6,221585274e-01    0,000000000e+00    0,000000000e+00    0,000000000e+00    0,000000000e+00
     1388000000   -2,468777150e-01    1,772193462e-01   -3,744913340e-01   -4,088237286e-01    0,000000000e+00    0,000000000e+00    0,000000000e+00    0,000000000e+00
     1402000000   -1,560575366e-01    1,776181906e-01   -4,661574662e-01   -1,008228809e-01    0,000000000e+00    0,000000000e+00    0,000000000e+00    0,000000000e+00
     1416000000   -8,110801131e-02    1,534362286e-01   -3,776675165e-01    2,091072351e-01    0,000000000e+00    0,000000000e+00    0,000000000e+00    0,000000000e+00
     1430000000   -3,400919959e-02    9,225851297e-02   -1,588259935e-01    4,362044334e-01    0,000000000e+00    0,000000000e+00    0,000000000e+00    0,000000000e+00
     1444000000   -7,502394728e-03    1,045118552e-02    1,234452501e-01    5,040977001e-01    0,000000000e+00    0,000000000e+00    0,000000000e+00    0,000000000e+00
     1458000000   -3,432460874e-02   -7,208425552e-02    4,306908846e-01    4,862342477e-01    0,000000000e+00    0,000000000e+00    0,000000000e+00    0,000000000e+00
     1472000000   -1,178193018e-01   -1,476801485e-01    7,053526044e-01    2,986195683e-01    0,000000000e+00    0,000000000e+00    0,000000000e+00    0,000000000e+00
     1486000000   -2,129443437e-01   -1,378793567e-01    8,910280466e-01   -2,640230954e-02    0,000000000e+00    0,000000000e+00    0,000000000e+00    0,000000000e+00
     1500000000   -2,928283215e-01   -8,356400579e-02    8,356656432e-01   -4,201892614e-01    0,000000000e+00    0,000000000e+00    0,000000000e+00    0,000000000e+00
