! NanoVNA-App
! Date: 2025-09-25 14:57:22
! Start: 100MHz Stop: 1,5GHz Points: 101
! S-Parameter data: F S11 S21 S12 S22
# Hz S RI R 50
!     Frequency           S11_Real           S11_Imag           S21_Real           S21_Imag           S12_Real           S12_Imag           S22_Real           S22_Imag
      100000000    3,559745103e-02    2,732433937e-02    4,406828582e-01   -6,694875956e-01    0,000000000e+00    0,000000000e+00    0,000000000e+00    0,000000000e+00
      114000000    6,072771922e-02    2,145891311e-03    1,273007039e-02   -7,954009771e-01    0,000000000e+00    0,000000000e+00    0,000000000e+00    0,000000000e+00
      128000000    6,839673966e-02   -4,225477576e-02   -4,081226587e-01   -6,780493855e-01    0,000000000e+00    0,000000000e+00    0,000000000e+00    0,000000000e+00
      142000000    4,348151758e-02   -8,877802640e-02   -7,051432729e-01   -3,607735336e-01    0,000000000e+00    0,000000000e+00    0,000000000e+00    0,000000000e+00
      156000000   -9,721171111e-03   -1,097799391e-01   -7,924624681e-01    6,766958535e-02    0,000000000e+00    0,000000000e+00    0,000000000e+00    0,000000000e+00
      170000000   -6,262647361e-02   -9,175746888e-02   -6,369492412e-01    4,863143861e-01    0,000000000e+00    0,000000000e+00    0,000000000e+00    0,000000000e+00
      184000000   -8,860462904e-02   -4,770177603e-02   -2,730015814e-01    7,558912635e-01    0,000000000e+00    0,000000000e+00    0,000000000e+00    0,000000000e+00
      198000000   -8,272477984e-02   -6,402479950e-03    1,796619445e-01    7,821102738e-01    0,000000000e+00    0,000000000e+00    0,000000000e+00    0,000000000e+00
      212000000   -6,270096451e-02    1,814765483e-02    5,708323717e-01    5,584411621e-01    0,000000000e+00    0,000000000e+00    0,000000000e+00    0,000000000e+00
      226000000   -4,141406715e-02    3,184620291e-02    7,766942382e-01    1,619408280e-01    0,000000000e+00    0,000000000e+00    0,000000000e+00    0,000000000e+00
      240000000   -1,479667053e-02    4,128184915e-02    7,359840870e-01   -2,785944045e-01    0,000000000e+00    0,000000000e+00    0,000000000e+00    0,000000000e+00
      254000000    2,148808911e-02    3,620968014e-02    4,677462876e-01   -6,219520569e-01    0,000000000e+00    0,000000000e+00    0,000000000e+00    0,000000000e+00
      268000000    5,335690454e-02    4,608596209e-03    6,677797437e-02   -7,676709890e-01    0,000000000e+00    0,000000000e+00    0,000000000e+00    0,000000000e+00
      282000000    5,740925670e-02   -4,495484009e-02   -3,451444805e-01   -6,827745438e-01    0,000000000e+00    0,000000000e+00    0,000000000e+00    0,000000000e+00
      296000000    2,605142817e-02   -8,479207754e-02   -6,547829509e-01   -3,976167738e-01    0,000000000e+00    0,000000000e+00    0,000000000e+00    0,000000000e+00
      310000000   -1,918213442e-02   -8,948578686e-02   -7,745654583e-01    9,709572420e-03    0,000000000e+00    0,000000000e+00    0,000000000e+00    0,000000000e+00
      324000000   -4,650773481e-02   -6,327638775e-02   -6,485455036e-01    4,298035204e-01    0,000000000e+00    0,000000000e+00    0,000000000e+00    0,000000000e+00
      338000000   -4,102819040e-02   -3,786478192e-02   -3,115796149e-01    7,111787796e-01    0,000000000e+00    0,000000000e+00    0,000000000e+00    0,000000000e+00
      352000000   -2,366184816e-02   -3,761407360e-02    1,192367151e-01    7,586296201e-01    0,000000000e+00    0,000000000e+00    0,000000000e+00    0,000000000e+00
      366000000   -2,278329059e-02   -5,601680279e-02    5,031775832e-01    5,717334747e-01    0,000000000e+00    0,000000000e+00    0,000000000e+00    0,000000000e+00
      380000000   -4,459819943e-02   -6,515079737e-02    7,267493606e-01    2,112824619e-01    0,000000000e+00    0,000000000e+00    0,000000000e+00    0,000000000e+00
      394000000   -6,637985259e-02   -5,024209991e-02    7,225090265e-01   -2,124847919e-01    0,000000000e+00    0,000000000e+00    0,000000000e+00    0,000000000e+00
      408000000   -6,698438525e-02   -2,659578063e-02    4,894616604e-01   -5,681746602e-01    0,000000000e+00    0,000000000e+00    0,000000000e+00    0,000000000e+00
      422000000   -5,319408327e-02   -1,526995003e-02    1,060248315e-01   -7,379897237e-01    0,000000000e+00    0,000000000e+00    0,000000000e+00    0,000000000e+00
      436000000   -4,619398713e-02   -1,881548949e-02   -3,055927455e-01   -6,754923463e-01    0,000000000e+00    0,000000000e+00    0,000000000e+00    0,000000000e+00
      450000000   -5,260931328e-02   -1,541004609e-02   -6,187534928e-01   -4,005710185e-01    0,000000000e+00    0,000000000e+00    0,000000000e+00    0,000000000e+00
      464000000   -5,026030540e-02    5,444177892e-03   -7,293813229e-01    2,786490601e-03    0,000000000e+00    0,000000000e+00    0,000000000e+00    0,000000000e+00
      478000000   -2,105059102e-02    2,589886636e-02   -5,986539721e-01    3,964494467e-01    0,000000000e+00    0,000000000e+00    0,000000000e+00    0,000000000e+00
      492000000    2,752778679e-02    1,494918298e-02   -2,812834978e-01    6,432239413e-01    0,000000000e+00    0,000000000e+00    0,000000000e+00    0,000000000e+00
      506000000    5,814410001e-02   -3,638245165e-02    1,037379131e-01    6,810341477e-01    0,000000000e+00    0,000000000e+00    0,000000000e+00    0,000000000e+00
      520000000    4,384283349e-02   -1,010981575e-01    4,423232973e-01    5,202646255e-01    0,000000000e+00    0,000000000e+00    0,000000000e+00    0,000000000e+00
      534000000   -1,194428559e-02   -1,415576041e-01    6,491989493e-01    2,077375501e-01    0,000000000e+00    0,000000000e+00    0,000000000e+00    0,000000000e+00
      548000000   -7,852514833e-02   -1,381749362e-01    6,623706222e-01   -1,736914217e-01    0,000000000e+00    0,000000000e+00    0,000000000e+00    0,000000000e+00
      562000000   -1,260508895e-01   -9,847537428e-02    4,549654424e-01   -5,071210265e-01    0,000000000e+00    0,000000000e+00    0,000000000e+00    0,000000000e+00
      576000000   -1,439821124e-01   -4,571229219e-02    9,017348289e-02   -6,657871604e-01    0,000000000e+00    0,000000000e+00    0,000000000e+00    0,000000000e+00
      590000000   -1,346546561e-01    1,223732624e-02   -2,937530875e-01   -5,837985873e-01    0,000000000e+00    0,000000000e+00    0,000000000e+00    0,000000000e+00
      604000000   -7,396110892e-02    6,756906956e-02   -5,280278325e-01   -2,809639275e-01    0,000000000e+00    0,000000000e+00    0,000000000e+00    0,000000000e+00
      618000000    3,705631196e-02    2,552681416e-02   -5,021808147e-01    1,477311738e-02    0,000000000e+00    0,000000000e+00    0,000000000e+00    0,000000000e+00
      632000000   -1,661200775e-03   -1,040959656e-01   -4,653756022e-01    1,721087843e-01    0,000000000e+00    0,000000000e+00    0,000000000e+00    0,000000000e+00
      646000000   -1,036733687e-01   -6,699284166e-02   -3,797800243e-01    4,398280978e-01    0,000000000e+00    0,000000000e+00    0,000000000e+00    0,000000000e+00
      660000000   -8,766948432e-02    2,976797055e-03   -7,066502422e-02    6,149981022e-01    0,000000000e+00    0,000000000e+00    0,000000000e+00    0,000000000e+00
      674000000   -4,142682627e-02    1,210337598e-02    2,870104313e-01    5,588576198e-01    0,000000000e+00    0,000000000e+00    0,000000000e+00    0,000000000e+00
      688000000   -1,613029651e-02   -8,487237617e-03    5,439149737e-01    3,113619387e-01    0,000000000e+00    0,000000000e+00    0,000000000e+00    0,000000000e+00
      702000000   -1,008460764e-02   -2,834727615e-02    6,237179637e-01   -3,342292085e-02    0,000000000e+00    0,000000000e+00    0,000000000e+00    0,000000000e+00
      716000000   -5,025959574e-03   -4,673906043e-02    4,967267513e-01   -3,654872775e-01    0,000000000e+00    0,000000000e+00    0,000000000e+00    0,000000000e+00
      730000000   -2,876406768e-03   -7,658191025e-02    2,177189887e-01   -5,670362115e-01    0,000000000e+00    0,000000000e+00    0,000000000e+00    0,000000000e+00
      744000000   -2,473054454e-02   -1,153728440e-01   -1,204613671e-01   -5,915209055e-01    0,000000000e+00    0,000000000e+00    0,000000000e+00    0,000000000e+00
      758000000   -7,700864971e-02   -1,357567608e-01   -4,195499122e-01   -4,380866587e-01    0,000000000e+00    0,000000000e+00    0,000000000e+00    0,000000000e+00
      772000000   -1,383256167e-01   -1,165850312e-01   -5,964788795e-01   -1,438953876e-01    0,000000000e+00    0,000000000e+00    0,000000000e+00    0,000000000e+00
      786000000   -1,751757860e-01   -5,716160312e-02   -5,853446722e-01    2,091638893e-01    0,000000000e+00    0,000000000e+00    0,000000000e+00    0,000000000e+00
      800000000   -1,610360593e-01    1,088645961e-02   -3,755778670e-01    4,983932972e-01    0,000000000e+00    0,000000000e+00    0,000000000e+00    0,000000000e+00
      814000000   -1,116625965e-01    4,539178684e-02   -4,596335441e-02    6,182643175e-01    0,000000000e+00    0,000000000e+00    0,000000000e+00    0,000000000e+00
      828000000   -6,458305568e-02    4,436686262e-02    2,872458696e-01    5,431017876e-01    0,000000000e+00    0,000000000e+00    0,000000000e+00    0,000000000e+00
      842000000   -3,618991002e-02    2,585888095e-02    5,232266784e-01    3,066228628e-01    0,000000000e+00    0,000000000e+00    0,000000000e+00    0,000000000e+00
      856000000   -1,853121258e-02    8,413249627e-03    5,972976685e-01   -1,445910614e-02    0,000000000e+00    0,000000000e+00    0,000000000e+00    0,000000000e+00
      870000000   -8,938104147e-04   -1,418426447e-02    4,882516265e-01   -3,194040060e-01    0,000000000e+00    0,000000000e+00    0,000000000e+00    0,000000000e+00
      884000000    8,986737579e-03   -5,135607347e-02    2,436567396e-01   -5,158351660e-01    0,000000000e+00    0,000000000e+00    0,000000000e+00    0,000000000e+00
      898000000   -6,586979609e-03   -9,805122018e-02   -6,039383635e-02   -5,559312701e-01    0,000000000e+00    0,000000000e+00    0,000000000e+00    0,000000000e+00
      912000000   -6,166524813e-02   -1,278263927e-01   -3,901165426e-01   -4,084347785e-01    0,000000000e+00    0,000000000e+00    0,000000000e+00    0,000000000e+00
      926000000   -1,222845018e-01   -1,177618280e-01   -5,665210485e-01   -1,479807645e-01    0,000000000e+00    0,000000000e+00    0,000000000e+00    0,000000000e+00
      940000000   -1,602663994e-01   -6,335216761e-02   -5,694962144e-01    1,942947805e-01    0,000000000e+00    0,000000000e+00    0,000000000e+00    0,000000000e+00
      954000000   -1,442509592e-01   -2,891779644e-03   -3,718491197e-01    4,829892814e-01    0,000000000e+00    0,000000000e+00    0,000000000e+00    0,000000000e+00
      968000000   -9,900890291e-02    1,667057537e-02   -5,307402089e-02    6,156867743e-01    0,000000000e+00    0,000000000e+00    0,000000000e+00    0,000000000e+00
      982000000   -5,824158341e-02    3,391742241e-03    2,825704217e-01    5,516473651e-01    0,000000000e+00    0,000000000e+00    0,000000000e+00    0,000000000e+00
      996000000   -5,013849214e-02   -3,195754066e-02    5,250199437e-01    3,269895315e-01    0,000000000e+00    0,000000000e+00    0,000000000e+00    0,000000000e+00
     1010000000   -6,524062157e-02   -5,878170207e-02    6,082938313e-01    1,373656001e-02    0,000000000e+00    0,000000000e+00    0,000000000e+00    0,000000000e+00
     1024000000   -9,463271499e-02   -6,821397692e-02    5,176547766e-01   -2,850503325e-01    0,000000000e+00    0,000000000e+00    0,000000000e+00    0,000000000e+00
     1038000000   -1,308760494e-01   -5,332788080e-02    2,951633036e-01   -4,767864347e-01    0,000000000e+00    0,000000000e+00    0,000000000e+00    0,000000000e+00
     1052000000   -1,449088305e-01   -7,450350560e-03    2,920582704e-02   -5,304639935e-01    0,000000000e+00    0,000000000e+00    0,000000000e+00    0,000000000e+00
     1066000000   -1,119534299e-01    2,793882228e-02   -2,146629691e-01   -4,654565156e-01    0,000000000e+00    0,000000000e+00    0,000000000e+00    0,000000000e+00
     1080000000   -6,794370711e-02    2,743203938e-02   -4,209573567e-01   -2,880859971e-01    0,000000000e+00    0,000000000e+00    0,000000000e+00    0,000000000e+00
     1094000000   -3,764542937e-02    3,053888795e-04   -5,139108300e-01   -1,295399107e-02    0,000000000e+00    0,000000000e+00    0,000000000e+00    0,000000000e+00
     1108000000   -2,536974661e-02   -2,221116610e-02   -4,333463013e-01    2,824033201e-01    0,000000000e+00    0,000000000e+00    0,000000000e+00    0,000000000e+00
     1122000000   -2,411913686e-02   -5,778595060e-02   -1,812054962e-01    4,878489673e-01    0,000000000e+00    0,000000000e+00    0,000000000e+00    0,000000000e+00
     1136000000   -4,045808315e-02   -1,002335921e-01    1,465834081e-01    5,117921233e-01    0,000000000e+00    0,000000000e+00    0,000000000e+00    0,000000000e+00
     1150000000   -8,128453046e-02   -1,309726238e-01    4,447381794e-01    3,407024741e-01    0,000000000e+00    0,000000000e+00    0,000000000e+00    0,000000000e+00
     1164000000   -1,448594630e-01   -1,257057190e-01    6,034888625e-01    1,455763448e-02    0,000000000e+00    0,000000000e+00    0,000000000e+00    0,000000000e+00
     1178000000   -1,789161265e-01   -8,533382416e-02    5,379428864e-01   -3,649725914e-01    0,000000000e+00    0,000000000e+00    0,000000000e+00    0,000000000e+00
     1192000000   -1,847683042e-01   -4,998435825e-02    2,430864722e-01   -6,314931512e-01    0,000000000e+00    0,000000000e+00    0,000000000e+00    0,000000000e+00
     1206000000   -1,900725216e-01   -5,287110806e-02   -1,329394728e-01   -6,630342603e-01    0,000000000e+00    0,000000000e+00    0,000000000e+00    0,000000000e+00
     1220000000   -2,496360838e-01   -1,256193407e-02   -4,145112038e-01   -4,864173532e-01    0,000000000e+00    0,000000000e+00    0,000000000e+00    0,000000000e+00
     1234000000   -2,416731566e-01    1,088429838e-01   -5,629810691e-01   -2,556476891e-01    0,000000000e+00    0,000000000e+00    0,000000000e+00    0,000000000e+00
     1248000000   -1,190159097e-01    1,708362103e-01   -6,036776900e-01    1,943755522e-02    0,000000000e+00    0,000000000e+00    0,000000000e+00    0,000000000e+00
     1262000000   -2,928358270e-03    1,343975216e-01   -5,077335238e-01    3,000967801e-01    0,000000000e+00    0,000000000e+00    0,000000000e+00    0,000000000e+00
     1276000000    6,056454405e-02    4,165569693e-02   -2,811697423e-01    4,822405875e-01    0,000000000e+00    0,000000000e+00    0,000000000e+00    0,000000000e+00
     1290000000    7,301411033e-02   -6,732402742e-02    1,346832700e-02    5,492605567e-01    0,000000000e+00    0,000000000e+00    0,000000000e+00    0,000000000e+00
     1304000000    1,865802146e-02   -1,844715625e-01    3,015480340e-01    4,750849009e-01    0,000000000e+00    0,000000000e+00    0,000000000e+00    0,000000000e+00
     1318000000   -8,706019819e-02   -2,543725073e-01    5,431754589e-01    2,767468989e-01    0,000000000e+00    0,000000000e+00    0,000000000e+00    0,000000000e+00
     1332000000   -2,416440547e-01   -2,431729138e-01    6,543242335e-01   -4,865906760e-02    0,000000000e+00    0,000000000e+00    0,000000000e+00    0,000000000e+00
     1346000000   -3,690130115e-01   -1,446626931e-01    5,522537231e-01   -4,046258032e-01    0,000000000e+00    0,000000000e+00    0,000000000e+00    0,000000000e+00
     1360000000   -3,915426135e-01    6,751103327e-03    2,506123781e-01   -6,373876929e-01    0,000000000e+00    0,000000000e+00    0,000000000e+00    0,000000000e+00
     1374000000   -3,310329318e-01    1,216678843e-01   -1,113779619e-01   -6,243748665e-01    0,000000000e+00    0,000000000e+00    0,000000000e+00    0,000000000e+00
     1388000000   -2,364583910e-01    1,705608964e-01   -3,749604523e-01   -4,146014750e-01    0,000000000e+00    0,000000000e+00    0,000000000e+00    0,000000000e+00
     1402000000   -1,527104378e-01    1,729093939e-01   -4,685597718e-01   -1,100400835e-01    0,000000000e+00    0,000000000e+00    0,000000000e+00    0,000000000e+00
     1416000000   -8,516161889e-02    1,461202204e-01   -3,931615651e-01    2,064859122e-01    0,000000000e+00    0,000000000e+00    0,000000000e+00    0,000000000e+00
     1430000000   -2,823680826e-02    8,668579161e-02   -1,886772364e-01    4,402429163e-01    0,000000000e+00    0,000000000e+00    0,000000000e+00    0,000000000e+00
     1444000000   -1,223075856e-02    4,991531838e-03    1,188399345e-01    5,275698900e-01    0,000000000e+00    0,000000000e+00    0,000000000e+00    0,000000000e+00
     1458000000   -4,178107157e-02   -8,406822383e-02    4,194979966e-01    4,852025509e-01    0,000000000e+00    0,000000000e+00    0,000000000e+00    0,000000000e+00
     1472000000   -1,207351312e-01   -1,555151194e-01    7,340555787e-01    2,960207164e-01    0,000000000e+00    0,000000000e+00    0,000000000e+00    0,000000000e+00
     1486000000   -2,249728590e-01   -1,451300681e-01    9,179149270e-01   -1,850974374e-02    0,000000000e+00    0,000000000e+00    0,000000000e+00    0,000000000e+00
     1500000000   -3,064080477e-01   -6,320474297e-02    8,556695580e-01   -4,139882028e-01    0,000000000e+00    0,000000000e+00    0,000000000e+00    0,000000000e+00
