! NanoVNA-App
! Date: 2025-09-25 15:01:10
! Start: 100MHz Stop: 1,5GHz Points: 101
! S-Parameter data: F S11 S21 S12 S22
# Hz S RI R 50
!     Frequency           S11_Real           S11_Imag           S21_Real           S21_Imag           S12_Real           S12_Imag           S22_Real           S22_Imag
      100000000    3,556956723e-02    2,735491283e-02    4,407741427e-01   -6,695273519e-01    0,000000000e+00    0,000000000e+00    0,000000000e+00    0,000000000e+00
      114000000    6,069944054e-02    2,204152755e-03    1,283097733e-02   -7,954695821e-01    0,000000000e+00    0,000000000e+00    0,000000000e+00    0,000000000e+00
      128000000    6,832923740e-02   -4,226330295e-02   -4,081653953e-01   -6,780964136e-01    0,000000000e+00    0,000000000e+00    0,000000000e+00    0,000000000e+00
      142000000    4,344958067e-02   -8,877913654e-02   -7,049390078e-01   -3,609400392e-01    0,000000000e+00    0,000000000e+00    0,000000000e+00    0,000000000e+00
      156000000   -9,547777474e-03   -1,099844202e-01   -7,928690910e-01    6,785499305e-02    0,000000000e+00    0,000000000e+00    0,000000000e+00    0,000000000e+00
      170000000   -6,269969791e-02   -9,179057926e-02   -6,368515491e-01    4,864580035e-01    0,000000000e+00    0,000000000e+00    0,000000000e+00    0,000000000e+00
      184000000   -8,862519264e-02   -4,765681550e-02   -2,730255127e-01    7,560122013e-01    0,000000000e+00    0,000000000e+00    0,000000000e+00    0,000000000e+00
      198000000   -8,275537938e-02   -6,412028801e-03    1,794686913e-01    7,823481560e-01    0,000000000e+00    0,000000000e+00    0,000000000e+00    0,000000000e+00
      212000000   -6,274357438e-02    1,806911826e-02    5,707448125e-01    5,583811402e-01    0,000000000e+00    0,000000000e+00    0,000000000e+00    0,000000000e+00
      226000000   -4,150645807e-02    3,180639818e-02    7,766360044e-01    1,619675308e-01    0,000000000e+00    0,000000000e+00    0,000000000e+00    0,000000000e+00
      240000000   -1,486112643e-02    4,129023105e-02    7,360361814e-01   -2,786563039e-01    0,000000000e+00    0,000000000e+00    0,000000000e+00    0,000000000e+00
      254000000    2,142202482e-02    3,633292392e-02    4,675543308e-01   -6,220769882e-01    0,000000000e+00    0,000000000e+00    0,000000000e+00    0,000000000e+00
      268000000    5,327053368e-02    4,737849347e-03    6,662219763e-02   -7,679282427e-01    0,000000000e+00    0,000000000e+00    0,000000000e+00    0,000000000e+00
      282000000    5,741420016e-02   -4,496935755e-02   -3,459268808e-01   -6,830692291e-01    0,000000000e+00    0,000000000e+00    0,000000000e+00    0,000000000e+00
      296000000    2,610779367e-02   -8,468857408e-02   -6,547788382e-01   -3,981544673e-01    0,000000000e+00    0,000000000e+00    0,000000000e+00    0,000000000e+00
      310000000   -1,897466369e-02   -8,930292726e-02   -7,746301889e-01    9,884030558e-03    0,000000000e+00    0,000000000e+00    0,000000000e+00    0,000000000e+00
      324000000   -4,669829831e-02   -6,351473182e-02   -6,476779580e-01    4,299703538e-01    0,000000000e+00    0,000000000e+00    0,000000000e+00    0,000000000e+00
      338000000   -4,119705409e-02   -3,775540367e-02   -3,090742230e-01    7,080826759e-01    0,000000000e+00    0,000000000e+00    0,000000000e+00    0,000000000e+00
      352000000   -2,355186827e-02   -3,798767179e-02    1,195608899e-01    7,586848140e-01    0,000000000e+00    0,000000000e+00    0,000000000e+00    0,000000000e+00
      366000000   -2,305332199e-02   -5,592899770e-02    5,027217269e-01    5,717282295e-01    0,000000000e+00    0,000000000e+00    0,000000000e+00    0,000000000e+00
      380000000   -4,457550123e-02   -6,516600400e-02    7,269825339e-01    2,115549445e-01    0,000000000e+00    0,000000000e+00    0,000000000e+00    0,000000000e+00
      394000000   -6,655777991e-02   -5,068332329e-02    7,229163051e-01   -2,130705416e-01    0,000000000e+00    0,000000000e+00    0,000000000e+00    0,000000000e+00
      408000000   -6,730722636e-02   -2,634467743e-02    4,905244112e-01   -5,685053468e-01    0,000000000e+00    0,000000000e+00    0,000000000e+00    0,000000000e+00
      422000000   -5,339894444e-02   -1,524591446e-02    1,051062047e-01   -7,391752005e-01    0,000000000e+00    0,000000000e+00    0,000000000e+00    0,000000000e+00
      436000000   -4,638174549e-02   -1,848577522e-02   -3,059271872e-01   -6,755967140e-01    0,000000000e+00    0,000000000e+00    0,000000000e+00    0,000000000e+00
      450000000   -5,203550681e-02   -1,486732811e-02   -6,191524863e-01   -3,994972408e-01    0,000000000e+00    0,000000000e+00    0,000000000e+00    0,000000000e+00
      464000000   -5,042481422e-02    5,720322952e-03   -7,298362851e-01    3,756349673e-03    0,000000000e+00    0,000000000e+00    0,000000000e+00    0,000000000e+00
      478000000   -2,053342387e-02    2,645158023e-02   -5,985106826e-01    3,973878324e-01    0,000000000e+00    0,000000000e+00    0,000000000e+00    0,000000000e+00
      492000000    2,835553139e-02    1,451781392e-02   -2,806112468e-01    6,433588266e-01    0,000000000e+00    0,000000000e+00    0,000000000e+00    0,000000000e+00
      506000000    5,867201835e-02   -3,710480407e-02    1,049161330e-01    6,799420714e-01    0,000000000e+00    0,000000000e+00    0,000000000e+00    0,000000000e+00
      520000000    4,399963096e-02   -1,026343107e-01    4,409717321e-01    5,203710198e-01    0,000000000e+00    0,000000000e+00    0,000000000e+00    0,000000000e+00
      534000000   -1,262381393e-02   -1,433606893e-01    6,495559812e-01    2,058071792e-01    0,000000000e+00    0,000000000e+00    0,000000000e+00    0,000000000e+00
      548000000   -8,061946929e-02   -1,395601183e-01    6,603206992e-01   -1,758922040e-01    0,000000000e+00    0,000000000e+00    0,000000000e+00    0,000000000e+00
      562000000   -1,298456192e-01   -9,827722609e-02    4,526892304e-01   -5,081521273e-01    0,000000000e+00    0,000000000e+00    0,000000000e+00    0,000000000e+00
      576000000   -1,473326087e-01   -4,098562896e-02    8,539368212e-02   -6,622746587e-01    0,000000000e+00    0,000000000e+00    0,000000000e+00    0,000000000e+00
      590000000   -1,317409724e-01    2,366380394e-02   -2,955346406e-01   -5,720615387e-01    0,000000000e+00    0,000000000e+00    0,000000000e+00    0,000000000e+00
      604000000   -5,051782727e-02    6,972957402e-02   -5,028498173e-01   -2,717139721e-01    0,000000000e+00    0,000000000e+00    0,000000000e+00    0,000000000e+00
      618000000    3,880511224e-02   -1,253774483e-02   -4,919721186e-01   -2,858347446e-02    0,000000000e+00    0,000000000e+00    0,000000000e+00    0,000000000e+00
      632000000   -3,890135512e-02   -9,857989848e-02   -5,082728863e-01    1,728016734e-01    0,000000000e+00    0,000000000e+00    0,000000000e+00    0,000000000e+00
      646000000   -1,021536812e-01   -4,437083006e-02   -3,798751533e-01    4,657925069e-01    0,000000000e+00    0,000000000e+00    0,000000000e+00    0,000000000e+00
      660000000   -7,525517046e-02    8,284141310e-03   -5,640047044e-02    6,232258677e-01    0,000000000e+00    0,000000000e+00    0,000000000e+00    0,000000000e+00
      674000000   -3,420364112e-02    7,712201215e-03    2,950067222e-01    5,545039773e-01    0,000000000e+00    0,000000000e+00    0,000000000e+00    0,000000000e+00
      688000000   -1,534211077e-02   -1,463688351e-02    5,454491973e-01    3,052179217e-01    0,000000000e+00    0,000000000e+00    0,000000000e+00    0,000000000e+00
      702000000   -1,264115144e-02   -3,298863769e-02    6,199233532e-01   -3,932961076e-02    0,000000000e+00    0,000000000e+00    0,000000000e+00    0,000000000e+00
      716000000   -7,339632604e-03   -4,828299209e-02    4,940309823e-01   -3,669331074e-01    0,000000000e+00    0,000000000e+00    0,000000000e+00    0,000000000e+00
      730000000   -5,295753479e-03   -7,504864037e-02    2,142347693e-01   -5,681114793e-01    0,000000000e+00    0,000000000e+00    0,000000000e+00    0,000000000e+00
      744000000   -2,565423772e-02   -1,116394922e-01   -1,225751936e-01   -5,898845196e-01    0,000000000e+00    0,000000000e+00    0,000000000e+00    0,000000000e+00
      758000000   -7,590994984e-02   -1,344055533e-01   -4,196325541e-01   -4,347022474e-01    0,000000000e+00    0,000000000e+00    0,000000000e+00    0,000000000e+00
      772000000   -1,371829510e-01   -1,171664968e-01   -5,947283506e-01   -1,411604434e-01    0,000000000e+00    0,000000000e+00    0,000000000e+00    0,000000000e+00
      786000000   -1,728687435e-01   -5,845001340e-02   -5,832161307e-01    2,097850889e-01    0,000000000e+00    0,000000000e+00    0,000000000e+00    0,000000000e+00
      800000000   -1,607923210e-01    8,233028464e-03   -3,728788197e-01    4,975437522e-01    0,000000000e+00    0,000000000e+00    0,000000000e+00    0,000000000e+00
      814000000   -1,133836284e-01    4,413389042e-02   -4,602555186e-02    6,154614091e-01    0,000000000e+00    0,000000000e+00    0,000000000e+00    0,000000000e+00
      828000000   -6,754739583e-02    4,432985559e-02    2,856122553e-01    5,408445597e-01    0,000000000e+00    0,000000000e+00    0,000000000e+00    0,000000000e+00
      842000000   -3,770517185e-02    2,833288163e-02    5,223045945e-01    3,062164187e-01    0,000000000e+00    0,000000000e+00    0,000000000e+00    0,000000000e+00
      856000000   -1,851241849e-02    1,034845877e-02    5,959888697e-01   -1,367059350e-02    0,000000000e+00    0,000000000e+00    0,000000000e+00    0,000000000e+00
      870000000    1,974563202e-04   -1,177786849e-02    4,871952832e-01   -3,180354834e-01    0,000000000e+00    0,000000000e+00    0,000000000e+00    0,000000000e+00
      884000000    1,181922108e-02   -5,046832934e-02    2,428215593e-01   -5,147009492e-01    0,000000000e+00    0,000000000e+00    0,000000000e+00    0,000000000e+00
      898000000   -3,916750196e-03   -1,008184105e-01   -5,843672529e-02   -5,558958054e-01    0,000000000e+00    0,000000000e+00    0,000000000e+00    0,000000000e+00
      912000000   -6,209841743e-02   -1,318071187e-01   -3,989444673e-01   -4,146690667e-01    0,000000000e+00    0,000000000e+00    0,000000000e+00    0,000000000e+00
      926000000   -1,231711581e-01   -1,188448966e-01   -5,666336417e-01   -1,472703516e-01    0,000000000e+00    0,000000000e+00    0,000000000e+00    0,000000000e+00
      940000000   -1,643522829e-01   -6,449457258e-02   -5,700276494e-01    1,942283362e-01    0,000000000e+00    0,000000000e+00    0,000000000e+00    0,000000000e+00
      954000000   -1,490703672e-01   -5,617763381e-03   -3,720445037e-01    4,847964048e-01    0,000000000e+00    0,000000000e+00    0,000000000e+00    0,000000000e+00
      968000000   -1,011093929e-01    2,468075790e-02   -5,085280165e-02    6,149705648e-01    0,000000000e+00    0,000000000e+00    0,000000000e+00    0,000000000e+00
      982000000   -5,333365873e-02    4,360947758e-03    2,840860486e-01    5,510393977e-01    0,000000000e+00    0,000000000e+00    0,000000000e+00    0,000000000e+00
      996000000   -4,423367977e-02   -3,437355533e-02    5,237333775e-01    3,252884448e-01    0,000000000e+00    0,000000000e+00    0,000000000e+00    0,000000000e+00
     1010000000   -6,451679766e-02   -6,406880915e-02    6,069235802e-01    1,445343532e-02    0,000000000e+00    0,000000000e+00    0,000000000e+00    0,000000000e+00
     1024000000   -9,809374809e-02   -7,707563043e-02    5,119802356e-01   -2,812467515e-01    0,000000000e+00    0,000000000e+00    0,000000000e+00    0,000000000e+00
     1038000000   -1,414015591e-01   -5,391598865e-02    2,936895192e-01   -4,720699489e-01    0,000000000e+00    0,000000000e+00    0,000000000e+00    0,000000000e+00
     1052000000   -1,476668119e-01   -1,906861726e-04    3,562968969e-02   -5,261719823e-01    0,000000000e+00    0,000000000e+00    0,000000000e+00    0,000000000e+00
     1066000000   -1,050779372e-01    4,142546281e-02   -2,123578042e-01   -4,662668407e-01    0,000000000e+00    0,000000000e+00    0,000000000e+00    0,000000000e+00
     1080000000   -5,747125670e-02    2,840634435e-02   -4,175808430e-01   -2,965084612e-01    0,000000000e+00    0,000000000e+00    0,000000000e+00    0,000000000e+00
     1094000000   -3,544850275e-02   -7,999046706e-03   -5,198445916e-01   -2,519176900e-02    0,000000000e+00    0,000000000e+00    0,000000000e+00    0,000000000e+00
     1108000000   -3,349228948e-02   -3,463944048e-02   -4,441684186e-01    2,870028317e-01    0,000000000e+00    0,000000000e+00    0,000000000e+00    0,000000000e+00
     1122000000   -3,324238956e-02   -5,533948168e-02   -1,863085032e-01    4,955962300e-01    0,000000000e+00    0,000000000e+00    0,000000000e+00    0,000000000e+00
     1136000000   -4,559523985e-02   -9,200152755e-02    1,520063132e-01    5,194088817e-01    0,000000000e+00    0,000000000e+00    0,000000000e+00    0,000000000e+00
     1150000000   -8,679692447e-02   -1,238279939e-01    4,532110095e-01    3,446671069e-01    0,000000000e+00    0,000000000e+00    0,000000000e+00    0,000000000e+00
     1164000000   -1,356953382e-01   -1,203874126e-01    6,116811633e-01    1,285622455e-02    0,000000000e+00    0,000000000e+00    0,000000000e+00    0,000000000e+00
     1178000000   -1,756663769e-01   -8,422212303e-02    5,344176888e-01   -3,706298470e-01    0,000000000e+00    0,000000000e+00    0,000000000e+00    0,000000000e+00
     1192000000   -1,837151945e-01   -5,370274559e-02    2,398102880e-01   -6,343891621e-01    0,000000000e+00    0,000000000e+00    0,000000000e+00    0,000000000e+00
     1206000000   -1,943524182e-01   -5,666027963e-02   -1,413507611e-01   -6,619777679e-01    0,000000000e+00    0,000000000e+00    0,000000000e+00    0,000000000e+00
     1220000000   -2,542273700e-01   -1,832676306e-02   -4,203795195e-01   -4,848159552e-01    0,000000000e+00    0,000000000e+00    0,000000000e+00    0,000000000e+00
     1234000000   -2,393357307e-01    1,133448631e-01   -5,613116622e-01   -2,550253868e-01    0,000000000e+00    0,000000000e+00    0,000000000e+00    0,000000000e+00
     1248000000   -1,166742593e-01    1,762540638e-01   -6,026051044e-01    1,842064597e-02    0,000000000e+00    0,000000000e+00    0,000000000e+00    0,000000000e+00
     1262000000    7,923714584e-04    1,354378164e-01   -5,028070211e-01    2,955987453e-01    0,000000000e+00    0,000000000e+00    0,000000000e+00    0,000000000e+00
     1276000000    5,942244083e-02    3,920508549e-02   -2,794219553e-01    4,838119447e-01    0,000000000e+00    0,000000000e+00    0,000000000e+00    0,000000000e+00
     1290000000    7,179306448e-02   -7,279395312e-02    1,020007860e-02    5,500897169e-01    0,000000000e+00    0,000000000e+00    0,000000000e+00    0,000000000e+00
     1304000000    1,950485259e-02   -1,795547158e-01    3,010778129e-01    4,783003926e-01    0,000000000e+00    0,000000000e+00    0,000000000e+00    0,000000000e+00
     1318000000   -8,710074425e-02   -2,550469339e-01    5,393058062e-01    2,705517411e-01    0,000000000e+00    0,000000000e+00    0,000000000e+00    0,000000000e+00
     1332000000   -2,460585088e-01   -2,439918816e-01    6,533287764e-01   -5,256542563e-02    0,000000000e+00    0,000000000e+00    0,000000000e+00    0,000000000e+00
     1346000000   -3,642211556e-01   -1,404540837e-01    5,564778447e-01   -4,107910097e-01    0,000000000e+00    0,000000000e+00    0,000000000e+00    0,000000000e+00
     1360000000   -3,847668171e-01    2,887145383e-03    2,555203140e-01   -6,353964806e-01    0,000000000e+00    0,000000000e+00    0,000000000e+00    0,000000000e+00
     1374000000   -3,299278319e-01    1,221136600e-01   -1,065145731e-01   -6,218054295e-01    0,000000000e+00    0,000000000e+00    0,000000000e+00    0,000000000e+00
     1388000000   -2,360423505e-01    1,701030880e-01   -3,713904619e-01   -4,140763879e-01    0,000000000e+00    0,000000000e+00    0,000000000e+00    0,000000000e+00
     1402000000   -1,507198066e-01    1,722490489e-01   -4,764372110e-01   -9,987527877e-02    0,000000000e+00    0,000000000e+00    0,000000000e+00    0,000000000e+00
     1416000000   -8,436762542e-02    1,435628086e-01   -3,856492937e-01    2,034330219e-01    0,000000000e+00    0,000000000e+00    0,000000000e+00    0,000000000e+00
     1430000000   -3,644689918e-02    8,906356990e-02   -1,852732301e-01    4,237323701e-01    0,000000000e+00    0,000000000e+00    0,000000000e+00    0,000000000e+00
     1444000000   -1,295794174e-02    8,040258661e-03    1,126735881e-01    5,354877114e-01    0,000000000e+00    0,000000000e+00    0,000000000e+00    0,000000000e+00
     1458000000   -3,555928543e-02   -9,212207794e-02    4,388227463e-01    4,907564223e-01    0,000000000e+00    0,000000000e+00    0,000000000e+00    0,000000000e+00
     1472000000   -1,219440028e-01   -1,463965029e-01    7,391766906e-01    3,162316680e-01    0,000000000e+00    0,000000000e+00    0,000000000e+00    0,000000000e+00
     1486000000   -2,324104160e-01   -1,456103772e-01    9,108658433e-01   -3,924736381e-02    0,000000000e+00    0,000000000e+00    0,000000000e+00    0,000000000e+00
     1500000000   -3,013597727e-01   -6,670304388e-02    8,458567262e-01   -4,303484857e-01    0,000000000e+00    0,000000000e+00    0,000000000e+00    0,000000000e+00
