! NanoVNA-App
! Date: 2025-09-25 15:00:03
! Start: 100MHz Stop: 1,5GHz Points: 101
! S-Parameter data: F S11 S21 S12 S22
# Hz S RI R 50
!     Frequency           S11_Real           S11_Imag           S21_Real           S21_Imag           S12_Real           S12_Imag           S22_Real           S22_Imag
      100000000    3,557968140e-02    2,736232802e-02    4,407673478e-01   -6,695376635e-01    0,000000000e+00    0,000000000e+00    0,000000000e+00    0,000000000e+00
      114000000    6,070972234e-02    2,196128014e-03    1,300570928e-02   -7,953789234e-01    0,000000000e+00    0,000000000e+00    0,000000000e+00    0,000000000e+00
      128000000    6,838361174e-02   -4,227298126e-02   -4,083648920e-01   -6,783617139e-01    0,000000000e+00    0,000000000e+00    0,000000000e+00    0,000000000e+00
      142000000    4,346681759e-02   -8,878799528e-02   -7,053628564e-01   -3,609600961e-01    0,000000000e+00    0,000000000e+00    0,000000000e+00    0,000000000e+00
      156000000   -9,218773805e-03   -1,103904620e-01   -7,933416367e-01    6,809872389e-02    0,000000000e+00    0,000000000e+00    0,000000000e+00    0,000000000e+00
      170000000   -6,267424673e-02   -9,173639864e-02   -6,368161440e-01    4,863163829e-01    0,000000000e+00    0,000000000e+00    0,000000000e+00    0,000000000e+00
      184000000   -8,860609680e-02   -4,766868800e-02   -2,731254101e-01    7,564201951e-01    0,000000000e+00    0,000000000e+00    0,000000000e+00    0,000000000e+00
      198000000   -8,276718855e-02   -6,426458713e-03    1,796546131e-01    7,823134065e-01    0,000000000e+00    0,000000000e+00    0,000000000e+00    0,000000000e+00
      212000000   -6,272675097e-02    1,800819486e-02    5,706206560e-01    5,585598946e-01    0,000000000e+00    0,000000000e+00    0,000000000e+00    0,000000000e+00
      226000000   -4,150597751e-02    3,188299015e-02    7,768570185e-01    1,619113833e-01    0,000000000e+00    0,000000000e+00    0,000000000e+00    0,000000000e+00
      240000000   -1,490123570e-02    4,130191728e-02    7,360539436e-01   -2,787254155e-01    0,000000000e+00    0,000000000e+00    0,000000000e+00    0,000000000e+00
      254000000    2,137512900e-02    3,630322590e-02    4,681670964e-01   -6,223111153e-01    0,000000000e+00    0,000000000e+00    0,000000000e+00    0,000000000e+00
      268000000    5,332967639e-02    4,776530433e-03    6,712967902e-02   -7,673979402e-01    0,000000000e+00    0,000000000e+00    0,000000000e+00    0,000000000e+00
      282000000    5,744201317e-02   -4,488725588e-02   -3,455891907e-01   -6,827059388e-01    0,000000000e+00    0,000000000e+00    0,000000000e+00    0,000000000e+00
      296000000    2,608475275e-02   -8,458445966e-02   -6,550730467e-01   -3,977616429e-01    0,000000000e+00    0,000000000e+00    0,000000000e+00    0,000000000e+00
      310000000   -1,898768172e-02   -8,945975453e-02   -7,747984529e-01    1,120136864e-02    0,000000000e+00    0,000000000e+00    0,000000000e+00    0,000000000e+00
      324000000   -4,624625295e-02   -6,344486773e-02   -6,477845311e-01    4,298176169e-01    0,000000000e+00    0,000000000e+00    0,000000000e+00    0,000000000e+00
      338000000   -4,119822010e-02   -3,761693835e-02   -3,088585734e-01    7,087078094e-01    0,000000000e+00    0,000000000e+00    0,000000000e+00    0,000000000e+00
      352000000   -2,361746505e-02   -3,751034290e-02    1,200138330e-01    7,594107985e-01    0,000000000e+00    0,000000000e+00    0,000000000e+00    0,000000000e+00
      366000000   -2,287433296e-02   -5,610452220e-02    5,028578043e-01    5,718755722e-01    0,000000000e+00    0,000000000e+00    0,000000000e+00    0,000000000e+00
      380000000   -4,464890808e-02   -6,520110369e-02    7,269003987e-01    2,115153372e-01    0,000000000e+00    0,000000000e+00    0,000000000e+00    0,000000000e+00
      394000000   -6,647950411e-02   -5,065399408e-02    7,233003378e-01   -2,132555395e-01    0,000000000e+00    0,000000000e+00    0,000000000e+00    0,000000000e+00
      408000000   -6,739147753e-02   -2,618350275e-02    4,902821183e-01   -5,688291788e-01    0,000000000e+00    0,000000000e+00    0,000000000e+00    0,000000000e+00
      422000000   -5,341301486e-02   -1,536847092e-02    1,059157252e-01   -7,389856577e-01    0,000000000e+00    0,000000000e+00    0,000000000e+00    0,000000000e+00
      436000000   -4,655589536e-02   -1,859704778e-02   -3,066236377e-01   -6,760113835e-01    0,000000000e+00    0,000000000e+00    0,000000000e+00    0,000000000e+00
      450000000   -5,169188231e-02   -1,489605010e-02   -6,186038256e-01   -3,995619118e-01    0,000000000e+00    0,000000000e+00    0,000000000e+00    0,000000000e+00
      464000000   -5,002781376e-02    5,958960857e-03   -7,299513817e-01    3,310958622e-03    0,000000000e+00    0,000000000e+00    0,000000000e+00    0,000000000e+00
      478000000   -2,050697990e-02    2,685679309e-02   -5,986021161e-01    3,970807195e-01    0,000000000e+00    0,000000000e+00    0,000000000e+00    0,000000000e+00
      492000000    2,861562930e-02    1,429198962e-02   -2,804403305e-01    6,435445547e-01    0,000000000e+00    0,000000000e+00    0,000000000e+00    0,000000000e+00
      506000000    5,888139084e-02   -3,761281073e-02    1,046868190e-01    6,802315116e-01    0,000000000e+00    0,000000000e+00    0,000000000e+00    0,000000000e+00
      520000000    4,532777891e-02   -1,030285284e-01    4,430623055e-01    5,198645592e-01    0,000000000e+00    0,000000000e+00    0,000000000e+00    0,000000000e+00
      534000000   -1,279182546e-02   -1,442764401e-01    6,494124532e-01    2,054134309e-01    0,000000000e+00    0,000000000e+00    0,000000000e+00    0,000000000e+00
      548000000   -8,158797026e-02   -1,401707232e-01    6,600283384e-01   -1,764039844e-01    0,000000000e+00    0,000000000e+00    0,000000000e+00    0,000000000e+00
      562000000   -1,312599629e-01   -9,802947193e-02    4,510480165e-01   -5,081259012e-01    0,000000000e+00    0,000000000e+00    0,000000000e+00    0,000000000e+00
      576000000   -1,496795267e-01   -3,907580301e-02    8,212982863e-02   -6,605373621e-01    0,000000000e+00    0,000000000e+00    0,000000000e+00    0,000000000e+00
      590000000   -1,300975680e-01    2,874463424e-02   -2,977138162e-01   -5,637149215e-01    0,000000000e+00    0,000000000e+00    0,000000000e+00    0,000000000e+00
      604000000   -3,932158649e-02    6,872326136e-02   -4,893749356e-01   -2,699344456e-01    0,000000000e+00    0,000000000e+00    0,000000000e+00    0,000000000e+00
      618000000    3,501468897e-02   -2,811579034e-02   -4,939245284e-01   -4,819399491e-02    0,000000000e+00    0,000000000e+00    0,000000000e+00    0,000000000e+00
      632000000   -5,165219307e-02   -9,309799969e-02   -5,239725709e-01    1,773697734e-01    0,000000000e+00    0,000000000e+00    0,000000000e+00    0,000000000e+00
      646000000   -9,952946752e-02   -3,459644690e-02   -3,802395761e-01    4,765629768e-01    0,000000000e+00    0,000000000e+00    0,000000000e+00    0,000000000e+00
      660000000   -6,967254728e-02    9,795191698e-03   -5,139606446e-02    6,239300966e-01    0,000000000e+00    0,000000000e+00    0,000000000e+00    0,000000000e+00
      674000000   -3,000913933e-02    5,103442352e-03    2,971186638e-01    5,536926389e-01    0,000000000e+00    0,000000000e+00    0,000000000e+00    0,000000000e+00
      688000000   -1,496034861e-02   -1,727836952e-02    5,474708676e-01    3,036435843e-01    0,000000000e+00    0,000000000e+00    0,000000000e+00    0,000000000e+00
      702000000   -1,437273994e-02   -3,352984414e-02    6,207845807e-01   -4,435980320e-02    0,000000000e+00    0,000000000e+00    0,000000000e+00    0,000000000e+00
      716000000   -1,013257634e-02   -4,811008647e-02    4,921877384e-01   -3,680584431e-01    0,000000000e+00    0,000000000e+00    0,000000000e+00    0,000000000e+00
      730000000   -6,846439559e-03   -7,418137044e-02    2,122758180e-01   -5,677661300e-01    0,000000000e+00    0,000000000e+00    0,000000000e+00    0,000000000e+00
      744000000   -2,572303079e-02   -1,114352793e-01   -1,224159822e-01   -5,874412060e-01    0,000000000e+00    0,000000000e+00    0,000000000e+00    0,000000000e+00
      758000000   -7,521937042e-02   -1,329915076e-01   -4,191997945e-01   -4,332584739e-01    0,000000000e+00    0,000000000e+00    0,000000000e+00    0,000000000e+00
      772000000   -1,351435483e-01   -1,151828915e-01   -5,937603116e-01   -1,399253011e-01    0,000000000e+00    0,000000000e+00    0,000000000e+00    0,000000000e+00
      786000000   -1,714639068e-01   -5,894454569e-02   -5,819408894e-01    2,096758485e-01    0,000000000e+00    0,000000000e+00    0,000000000e+00    0,000000000e+00
      800000000   -1,603521705e-01    6,752729416e-03   -3,728314936e-01    4,953432679e-01    0,000000000e+00    0,000000000e+00    0,000000000e+00    0,000000000e+00
      814000000   -1,145430058e-01    4,216165468e-02   -4,495669529e-02    6,143186092e-01    0,000000000e+00    0,000000000e+00    0,000000000e+00    0,000000000e+00
      828000000   -6,915453821e-02    4,425861686e-02    2,859928012e-01    5,407472849e-01    0,000000000e+00    0,000000000e+00    0,000000000e+00    0,000000000e+00
      842000000   -3,854465112e-02    2,936103567e-02    5,211225152e-01    3,053226769e-01    0,000000000e+00    0,000000000e+00    0,000000000e+00    0,000000000e+00
      856000000   -1,832573861e-02    1,199385244e-02    5,946710110e-01   -1,401491184e-02    0,000000000e+00    0,000000000e+00    0,000000000e+00    0,000000000e+00
      870000000    1,303018187e-03   -1,097077783e-02    4,868420064e-01   -3,165580928e-01    0,000000000e+00    0,000000000e+00    0,000000000e+00    0,000000000e+00
      884000000    1,342519093e-02   -5,089075118e-02    2,426008731e-01   -5,124035478e-01    0,000000000e+00    0,000000000e+00    0,000000000e+00    0,000000000e+00
      898000000   -3,903317964e-03   -1,012772843e-01   -5,819094926e-02   -5,537838340e-01    0,000000000e+00    0,000000000e+00    0,000000000e+00    0,000000000e+00
      912000000   -6,327543408e-02   -1,325955093e-01   -3,815485239e-01   -4,195764661e-01    0,000000000e+00    0,000000000e+00    0,000000000e+00    0,000000000e+00
      926000000   -1,274566948e-01   -1,201683432e-01   -5,672618151e-01   -1,508598030e-01    0,000000000e+00    0,000000000e+00    0,000000000e+00    0,000000000e+00
      940000000   -1,632518470e-01   -6,088894606e-02   -5,695614219e-01    1,931497902e-01    0,000000000e+00    0,000000000e+00    0,000000000e+00    0,000000000e+00
      954000000   -1,450712830e-01   -3,330398118e-03   -3,739505112e-01    4,849653244e-01    0,000000000e+00    0,000000000e+00    0,000000000e+00    0,000000000e+00
      968000000   -1,004448086e-01    2,221035399e-02   -5,471906066e-02    6,131317019e-01    0,000000000e+00    0,000000000e+00    0,000000000e+00    0,000000000e+00
      982000000   -5,484651774e-02    4,080771934e-03    2,821286023e-01    5,534409881e-01    0,000000000e+00    0,000000000e+00    0,000000000e+00    0,000000000e+00
      996000000   -4,523709789e-02   -3,094131686e-02    5,221812129e-01    3,270918131e-01    0,000000000e+00    0,000000000e+00    0,000000000e+00    0,000000000e+00
     1010000000   -6,022663414e-02   -6,503259391e-02    6,084241867e-01    1,386437565e-02    0,000000000e+00    0,000000000e+00    0,000000000e+00    0,000000000e+00
     1024000000   -9,978364408e-02   -8,039154857e-02    5,154646039e-01   -2,819912434e-01    0,000000000e+00    0,000000000e+00    0,000000000e+00    0,000000000e+00
     1038000000   -1,385869980e-01   -5,703285336e-02    2,975527942e-01   -4,704172909e-01    0,000000000e+00    0,000000000e+00    0,000000000e+00    0,000000000e+00
     1052000000   -1,481541842e-01    1,038475311e-03    3,715551645e-02   -5,254645348e-01    0,000000000e+00    0,000000000e+00    0,000000000e+00    0,000000000e+00
     1066000000   -1,053550467e-01    3,675241396e-02   -2,074329108e-01   -4,657197595e-01    0,000000000e+00    0,000000000e+00    0,000000000e+00    0,000000000e+00
     1080000000   -5,571476743e-02    2,735545114e-02   -4,183366299e-01   -2,989583313e-01    0,000000000e+00    0,000000000e+00    0,000000000e+00    0,000000000e+00
     1094000000   -3,663082793e-02   -8,731788956e-03   -5,187433362e-01   -2,298189513e-02    0,000000000e+00    0,000000000e+00    0,000000000e+00    0,000000000e+00
     1108000000   -2,955758572e-02   -3,384327516e-02   -4,432815015e-01    2,853968441e-01    0,000000000e+00    0,000000000e+00    0,000000000e+00    0,000000000e+00
     1122000000   -3,517119214e-02   -5,876047537e-02   -1,862352639e-01    4,965558350e-01    0,000000000e+00    0,000000000e+00    0,000000000e+00    0,000000000e+00
     1136000000   -4,470907524e-02   -9,759165347e-02    1,515927464e-01    5,226348639e-01    0,000000000e+00    0,000000000e+00    0,000000000e+00    0,000000000e+00
     1150000000   -8,387343585e-02   -1,217050776e-01    4,553578198e-01    3,447770774e-01    0,000000000e+00    0,000000000e+00    0,000000000e+00    0,000000000e+00
     1164000000   -1,353998333e-01   -1,219116151e-01    6,098444462e-01    1,099668723e-02    0,000000000e+00    0,000000000e+00    0,000000000e+00    0,000000000e+00
     1178000000   -1,727917939e-01   -8,373554051e-02    5,351781845e-01   -3,730645478e-01    0,000000000e+00    0,000000000e+00    0,000000000e+00    0,000000000e+00
     1192000000   -1,792446524e-01   -5,040067807e-02    2,378024310e-01   -6,367651224e-01    0,000000000e+00    0,000000000e+00    0,000000000e+00    0,000000000e+00
     1206000000   -1,937808990e-01   -5,386829376e-02   -1,418109834e-01   -6,613332629e-01    0,000000000e+00    0,000000000e+00    0,000000000e+00    0,000000000e+00
     1220000000   -2,562579215e-01   -1,826474816e-02   -4,208001196e-01   -4,870212376e-01    0,000000000e+00    0,000000000e+00    0,000000000e+00    0,000000000e+00
     1234000000   -2,405972481e-01    1,169881225e-01   -5,606224537e-01   -2,453500777e-01    0,000000000e+00    0,000000000e+00    0,000000000e+00    0,000000000e+00
     1248000000   -1,140920147e-01    1,714525670e-01   -6,014967561e-01    1,949994452e-02    0,000000000e+00    0,000000000e+00    0,000000000e+00    0,000000000e+00
     1262000000    1,887572143e-04    1,318523586e-01   -5,035585761e-01    3,000343442e-01    0,000000000e+00    0,000000000e+00    0,000000000e+00    0,000000000e+00
     1276000000    5,967692658e-02    3,950013965e-02   -2,789288759e-01    4,885593355e-01    0,000000000e+00    0,000000000e+00    0,000000000e+00    0,000000000e+00
     1290000000    7,134406269e-02   -6,819406897e-02    1,240383647e-02    5,473279357e-01    0,000000000e+00    0,000000000e+00    0,000000000e+00    0,000000000e+00
     1304000000    2,048531175e-02   -1,770926267e-01    2,976495028e-01    4,793734848e-01    0,000000000e+00    0,000000000e+00    0,000000000e+00    0,000000000e+00
     1318000000   -9,832638502e-02   -2,549606264e-01    5,347751975e-01    2,688460946e-01    0,000000000e+00    0,000000000e+00    0,000000000e+00    0,000000000e+00
     1332000000   -2,423217595e-01   -2,428758889e-01    6,554257274e-01   -4,458013177e-02    0,000000000e+00    0,000000000e+00    0,000000000e+00    0,000000000e+00
     1346000000   -3,577293158e-01   -1,453080326e-01    5,637964606e-01   -4,122576714e-01    0,000000000e+00    0,000000000e+00    0,000000000e+00    0,000000000e+00
     1360000000   -3,851150572e-01    6,012522150e-03    2,594768703e-01   -6,392236352e-01    0,000000000e+00    0,000000000e+00    0,000000000e+00    0,000000000e+00
     1374000000   -3,249081075e-01    1,249735057e-01   -1,008036584e-01   -6,200336218e-01    0,000000000e+00    0,000000000e+00    0,000000000e+00    0,000000000e+00
     1388000000   -2,355704606e-01    1,714282632e-01   -3,791076839e-01   -4,142921865e-01    0,000000000e+00    0,000000000e+00    0,000000000e+00    0,000000000e+00
     1402000000   -1,569682956e-01    1,698635817e-01   -4,797205329e-01   -1,141049489e-01    0,000000000e+00    0,000000000e+00    0,000000000e+00    0,000000000e+00
     1416000000   -8,405503631e-02    1,448405087e-01   -4,008710682e-01    2,039673477e-01    0,000000000e+00    0,000000000e+00    0,000000000e+00    0,000000000e+00
     1430000000   -3,792665526e-02    8,756569028e-02   -1,903224438e-01    4,275614023e-01    0,000000000e+00    0,000000000e+00    0,000000000e+00    0,000000000e+00
     1444000000   -1,360604540e-02    9,748898447e-03    1,187153012e-01    5,415992737e-01    0,000000000e+00    0,000000000e+00    0,000000000e+00    0,000000000e+00
     1458000000   -4,259749874e-02   -7,815789431e-02    4,318009615e-01    4,970491529e-01    0,000000000e+00    0,000000000e+00    0,000000000e+00    0,000000000e+00
     1472000000   -1,192539632e-01   -1,530934721e-01    7,306926250e-01    2,873401940e-01    0,000000000e+00    0,000000000e+00    0,000000000e+00    0,000000000e+00
     1486000000   -2,352286279e-01   -1,427811980e-01    8,945201039e-01   -3,014221974e-02    0,000000000e+00    0,000000000e+00    0,000000000e+00    0,000000000e+00
     1500000000   -3,082115948e-01   -7,200985402e-02    8,377252817e-01   -4,391183555e-01    0,000000000e+00    0,000000000e+00    0,000000000e+00    0,000000000e+00
