! NanoVNA-App
! Date: 2025-09-25 14:59:58
! Start: 100MHz Stop: 1,5GHz Points: 101
! S-Parameter data: F S11 S21 S12 S22
# Hz S RI R 50
!     Frequency           S11_Real           S11_Imag           S21_Real           S21_Imag           S12_Real           S12_Imag           S22_Real           S22_Imag
      100000000    3,558379039e-02    2,736161649e-02    4,407578111e-01   -6,695598364e-01    0,000000000e+00    0,000000000e+00    0,000000000e+00    0,000000000e+00
      114000000    6,073400751e-02    2,161408775e-03    1,277592685e-02   -7,955315709e-01    0,000000000e+00    0,000000000e+00    0,000000000e+00    0,000000000e+00
      128000000    6,837781519e-02   -4,223003238e-02   -4,082711339e-01   -6,782427430e-01    0,000000000e+00    0,000000000e+00    0,000000000e+00    0,000000000e+00
      142000000    4,351698607e-02   -8,878705651e-02   -7,052235603e-01   -3,608963788e-01    0,000000000e+00    0,000000000e+00    0,000000000e+00    0,000000000e+00
      156000000   -9,503548034e-03   -1,100719050e-01   -7,929292917e-01    6,788683683e-02    0,000000000e+00    0,000000000e+00    0,000000000e+00    0,000000000e+00
      170000000   -6,265014410e-02   -9,182602167e-02   -6,368778944e-01    4,863928258e-01    0,000000000e+00    0,000000000e+00    0,000000000e+00    0,000000000e+00
      184000000   -8,859297633e-02   -4,767435789e-02   -2,729383111e-01    7,560871840e-01    0,000000000e+00    0,000000000e+00    0,000000000e+00    0,000000000e+00
      198000000   -8,274283260e-02   -6,434606388e-03    1,794305891e-01    7,823899388e-01    0,000000000e+00    0,000000000e+00    0,000000000e+00    0,000000000e+00
      212000000   -6,273736060e-02    1,798944175e-02    5,707341433e-01    5,583171844e-01    0,000000000e+00    0,000000000e+00    0,000000000e+00    0,000000000e+00
      226000000   -4,149748385e-02    3,179236874e-02    7,767242193e-01    1,618777215e-01    0,000000000e+00    0,000000000e+00    0,000000000e+00    0,000000000e+00
      240000000   -1,493064035e-02    4,125591367e-02    7,360662222e-01   -2,787219584e-01    0,000000000e+00    0,000000000e+00    0,000000000e+00    0,000000000e+00
      254000000    2,137837559e-02    3,633533791e-02    4,679496586e-01   -6,222102642e-01    0,000000000e+00    0,000000000e+00    0,000000000e+00    0,000000000e+00
      268000000    5,328261480e-02    4,743856844e-03    6,653643399e-02   -7,671547532e-01    0,000000000e+00    0,000000000e+00    0,000000000e+00    0,000000000e+00
      282000000    5,749936402e-02   -4,488286749e-02   -3,458763063e-01   -6,826992631e-01    0,000000000e+00    0,000000000e+00    0,000000000e+00    0,000000000e+00
      296000000    2,616049163e-02   -8,460463583e-02   -6,548048258e-01   -3,978376985e-01    0,000000000e+00    0,000000000e+00    0,000000000e+00    0,000000000e+00
      310000000   -1,886437461e-02   -8,934345841e-02   -7,731556892e-01    1,021991298e-02    0,000000000e+00    0,000000000e+00    0,000000000e+00    0,000000000e+00
      324000000   -4,639480636e-02   -6,379123777e-02   -6,475685239e-01    4,298621714e-01    0,000000000e+00    0,000000000e+00    0,000000000e+00    0,000000000e+00
      338000000   -4,140136763e-02   -3,771163151e-02   -3,118240237e-01    7,101494074e-01    0,000000000e+00    0,000000000e+00    0,000000000e+00    0,000000000e+00
      352000000   -2,333167568e-02   -3,769257665e-02    1,190281585e-01    7,579668164e-01    0,000000000e+00    0,000000000e+00    0,000000000e+00    0,000000000e+00
      366000000   -2,303595282e-02   -5,618226901e-02    5,030297041e-01    5,716990232e-01    0,000000000e+00    0,000000000e+00    0,000000000e+00    0,000000000e+00
      380000000   -4,490507022e-02   -6,522735953e-02    7,258754373e-01    2,117226273e-01    0,000000000e+00    0,000000000e+00    0,000000000e+00    0,000000000e+00
      394000000   -6,634578854e-02   -5,065229535e-02    7,233173847e-01   -2,131900638e-01    0,000000000e+00    0,000000000e+00    0,000000000e+00    0,000000000e+00
      408000000   -6,751856953e-02   -2,643393539e-02    4,898126721e-01   -5,681177974e-01    0,000000000e+00    0,000000000e+00    0,000000000e+00    0,000000000e+00
      422000000   -5,335770547e-02   -1,551474817e-02    1,059023738e-01   -7,387441397e-01    0,000000000e+00    0,000000000e+00    0,000000000e+00    0,000000000e+00
      436000000   -4,647485539e-02   -1,853995770e-02   -3,056879044e-01   -6,757568717e-01    0,000000000e+00    0,000000000e+00    0,000000000e+00    0,000000000e+00
      450000000   -5,242499709e-02   -1,524184272e-02   -6,191537976e-01   -3,993543983e-01    0,000000000e+00    0,000000000e+00    0,000000000e+00    0,000000000e+00
      464000000   -5,029316247e-02    6,155857351e-03   -7,296607494e-01    3,619220341e-03    0,000000000e+00    0,000000000e+00    0,000000000e+00    0,000000000e+00
      478000000   -2,048832364e-02    2,686245926e-02   -5,988652706e-01    3,973892033e-01    0,000000000e+00    0,000000000e+00    0,000000000e+00    0,000000000e+00
      492000000    2,855728753e-02    1,451543160e-02   -2,800202966e-01    6,447476745e-01    0,000000000e+00    0,000000000e+00    0,000000000e+00    0,000000000e+00
      506000000    5,869337171e-02   -3,728671744e-02    1,048170552e-01    6,798583269e-01    0,000000000e+00    0,000000000e+00    0,000000000e+00    0,000000000e+00
      520000000    4,350884259e-02   -1,031048670e-01    4,410848618e-01    5,136802197e-01    0,000000000e+00    0,000000000e+00    0,000000000e+00    0,000000000e+00
      534000000   -1,276630722e-02   -1,443054378e-01    6,493252516e-01    2,056393623e-01    0,000000000e+00    0,000000000e+00    0,000000000e+00    0,000000000e+00
      548000000   -8,165238798e-02   -1,393058598e-01    6,597114205e-01   -1,761088371e-01    0,000000000e+00    0,000000000e+00    0,000000000e+00    0,000000000e+00
      562000000   -1,306905001e-01   -9,778045863e-02    4,513686597e-01   -5,079979897e-01    0,000000000e+00    0,000000000e+00    0,000000000e+00    0,000000000e+00
      576000000   -1,494236588e-01   -3,894910961e-02    8,178448677e-02   -6,613917351e-01    0,000000000e+00    0,000000000e+00    0,000000000e+00    0,000000000e+00
      590000000   -1,300106794e-01    2,882559039e-02   -2,964958847e-01   -5,649560690e-01    0,000000000e+00    0,000000000e+00    0,000000000e+00    0,000000000e+00
      604000000   -3,939405829e-02    6,827013940e-02   -4,895798266e-01   -2,704361081e-01    0,000000000e+00    0,000000000e+00    0,000000000e+00    0,000000000e+00
      618000000    3,495364264e-02   -2,918495610e-02   -4,936020076e-01   -4,855136946e-02    0,000000000e+00    0,000000000e+00    0,000000000e+00    0,000000000e+00
      632000000   -5,167659372e-02   -9,307565540e-02   -5,238475800e-01    1,774464995e-01    0,000000000e+00    0,000000000e+00    0,000000000e+00    0,000000000e+00
      646000000   -9,958563745e-02   -3,461444005e-02   -3,794226348e-01    4,757409394e-01    0,000000000e+00    0,000000000e+00    0,000000000e+00    0,000000000e+00
      660000000   -6,962921470e-02    8,797501214e-03   -5,177121237e-02    6,254014969e-01    0,000000000e+00    0,000000000e+00    0,000000000e+00    0,000000000e+00
      674000000   -3,109285608e-02    5,243828055e-03    2,978397012e-01    5,532167554e-01    0,000000000e+00    0,000000000e+00    0,000000000e+00    0,000000000e+00
      688000000   -1,587983407e-02   -1,803560182e-02    5,474055409e-01    3,042335808e-01    0,000000000e+00    0,000000000e+00    0,000000000e+00    0,000000000e+00
      702000000   -1,419596188e-02   -3,333172575e-02    6,191114783e-01   -4,181733727e-02    0,000000000e+00    0,000000000e+00    0,000000000e+00    0,000000000e+00
      716000000   -1,029482856e-02   -4,784828052e-02    4,918756783e-01   -3,680146933e-01    0,000000000e+00    0,000000000e+00    0,000000000e+00    0,000000000e+00
      730000000   -7,718444802e-03   -7,457655668e-02    2,123738527e-01   -5,685266256e-01    0,000000000e+00    0,000000000e+00    0,000000000e+00    0,000000000e+00
      744000000   -2,516874857e-02   -1,104562581e-01   -1,241412237e-01   -5,867617130e-01    0,000000000e+00    0,000000000e+00    0,000000000e+00    0,000000000e+00
      758000000   -7,514865696e-02   -1,336328834e-01   -4,197784066e-01   -4,324265122e-01    0,000000000e+00    0,000000000e+00    0,000000000e+00    0,000000000e+00
      772000000   -1,349295229e-01   -1,152234301e-01   -5,939742923e-01   -1,407698095e-01    0,000000000e+00    0,000000000e+00    0,000000000e+00    0,000000000e+00
      786000000   -1,715438962e-01   -5,788662657e-02   -5,819420218e-01    2,098980248e-01    0,000000000e+00    0,000000000e+00    0,000000000e+00    0,000000000e+00
      800000000   -1,595311314e-01    5,983024836e-03   -3,734637201e-01    4,956943989e-01    0,000000000e+00    0,000000000e+00    0,000000000e+00    0,000000000e+00
      814000000   -1,140435115e-01    4,292937368e-02   -4,571074247e-02    6,143566966e-01    0,000000000e+00    0,000000000e+00    0,000000000e+00    0,000000000e+00
      828000000   -6,890622526e-02    4,326974228e-02    2,858914137e-01    5,407602191e-01    0,000000000e+00    0,000000000e+00    0,000000000e+00    0,000000000e+00
      842000000   -3,854545951e-02    2,910737507e-02    5,206646919e-01    3,054351211e-01    0,000000000e+00    0,000000000e+00    0,000000000e+00    0,000000000e+00
      856000000   -1,862993091e-02    1,189657673e-02    5,948255062e-01   -1,417807397e-02    0,000000000e+00    0,000000000e+00    0,000000000e+00    0,000000000e+00
      870000000    1,657614834e-03   -1,062824577e-02    4,867810011e-01   -3,169737458e-01    0,000000000e+00    0,000000000e+00    0,000000000e+00    0,000000000e+00
      884000000    1,348191034e-02   -5,159026012e-02    2,434083074e-01   -5,127783418e-01    0,000000000e+00    0,000000000e+00    0,000000000e+00    0,000000000e+00
      898000000   -3,487030976e-03   -1,015056968e-01   -5,783914775e-02   -5,548171997e-01    0,000000000e+00    0,000000000e+00    0,000000000e+00    0,000000000e+00
      912000000   -6,269273162e-02   -1,324011832e-01   -3,881383836e-01   -4,092147648e-01    0,000000000e+00    0,000000000e+00    0,000000000e+00    0,000000000e+00
      926000000   -1,247395799e-01   -1,195439249e-01   -5,654137135e-01   -1,486417949e-01    0,000000000e+00    0,000000000e+00    0,000000000e+00    0,000000000e+00
      940000000   -1,604709774e-01   -6,423433125e-02   -5,692893267e-01    1,923842728e-01    0,000000000e+00    0,000000000e+00    0,000000000e+00    0,000000000e+00
      954000000   -1,492022276e-01   -2,199838171e-03   -3,726121783e-01    4,814420640e-01    0,000000000e+00    0,000000000e+00    0,000000000e+00    0,000000000e+00
      968000000   -9,619517624e-02    2,640184388e-02   -5,176021159e-02    6,160387397e-01    0,000000000e+00    0,000000000e+00    0,000000000e+00    0,000000000e+00
      982000000   -5,394817889e-02    3,432443831e-03    2,799175680e-01    5,536130667e-01    0,000000000e+00    0,000000000e+00    0,000000000e+00    0,000000000e+00
      996000000   -4,601749405e-02   -3,350515664e-02    5,246303678e-01    3,265576959e-01    0,000000000e+00    0,000000000e+00    0,000000000e+00    0,000000000e+00
     1010000000   -6,344341487e-02   -6,704979390e-02    6,081260443e-01    1,444246154e-02    0,000000000e+00    0,000000000e+00    0,000000000e+00    0,000000000e+00
     1024000000   -9,966681153e-02   -7,342091203e-02    5,150758028e-01   -2,809153497e-01    0,000000000e+00    0,000000000e+00    0,000000000e+00    0,000000000e+00
     1038000000   -1,393856257e-01   -5,676119402e-02    2,959388793e-01   -4,721615613e-01    0,000000000e+00    0,000000000e+00    0,000000000e+00    0,000000000e+00
     1052000000   -1,480010450e-01   -2,029177413e-04    3,526958078e-02   -5,253541470e-01    0,000000000e+00    0,000000000e+00    0,000000000e+00    0,000000000e+00
     1066000000   -1,058823094e-01    3,774571046e-02   -2,161174715e-01   -4,658022821e-01    0,000000000e+00    0,000000000e+00    0,000000000e+00    0,000000000e+00
     1080000000   -5,477625877e-02    3,131103143e-02   -4,170013070e-01   -2,987268865e-01    0,000000000e+00    0,000000000e+00    0,000000000e+00    0,000000000e+00
     1094000000   -3,106203862e-02   -7,525749039e-03   -5,196866393e-01   -2,372213826e-02    0,000000000e+00    0,000000000e+00    0,000000000e+00    0,000000000e+00
     1108000000   -3,468879312e-02   -3,558966145e-02   -4,430617094e-01    2,872092128e-01    0,000000000e+00    0,000000000e+00    0,000000000e+00    0,000000000e+00
     1122000000   -3,152199090e-02   -6,098602712e-02   -1,854576617e-01    4,954988360e-01    0,000000000e+00    0,000000000e+00    0,000000000e+00    0,000000000e+00
     1136000000   -4,509330168e-02   -9,423948824e-02    1,519922912e-01    5,217710137e-01    0,000000000e+00    0,000000000e+00    0,000000000e+00    0,000000000e+00
     1150000000   -8,337225765e-02   -1,280062199e-01    4,542180002e-01    3,453508615e-01    0,000000000e+00    0,000000000e+00    0,000000000e+00    0,000000000e+00
     1164000000   -1,431219280e-01   -1,217078418e-01    6,105065942e-01    9,571291506e-03    0,000000000e+00    0,000000000e+00    0,000000000e+00    0,000000000e+00
     1178000000   -1,803187430e-01   -8,903238177e-02    5,386676192e-01   -3,718630075e-01    0,000000000e+00    0,000000000e+00    0,000000000e+00    0,000000000e+00
     1192000000   -1,795298457e-01   -5,267019197e-02    2,378348857e-01   -6,348335743e-01    0,000000000e+00    0,000000000e+00    0,000000000e+00    0,000000000e+00
     1206000000   -1,931391954e-01   -5,707329884e-02   -1,408687532e-01   -6,628433466e-01    0,000000000e+00    0,000000000e+00    0,000000000e+00    0,000000000e+00
     1220000000   -2,569349110e-01   -1,567326859e-02   -4,256544411e-01   -4,809816480e-01    0,000000000e+00    0,000000000e+00    0,000000000e+00    0,000000000e+00
     1234000000   -2,360210270e-01    1,164736748e-01   -5,587044954e-01   -2,461618930e-01    0,000000000e+00    0,000000000e+00    0,000000000e+00    0,000000000e+00
     1248000000   -1,123739854e-01    1,749804914e-01   -6,004248857e-01    2,269211411e-02    0,000000000e+00    0,000000000e+00    0,000000000e+00    0,000000000e+00
     1262000000   -3,362919670e-03    1,285336316e-01   -5,078169107e-01    2,979941368e-01    0,000000000e+00    0,000000000e+00    0,000000000e+00    0,000000000e+00
     1276000000    6,055212021e-02    3,987693042e-02   -2,847935259e-01    4,918741882e-01    0,000000000e+00    0,000000000e+00    0,000000000e+00    0,000000000e+00
     1290000000    6,920628250e-02   -7,153885067e-02    6,976797245e-03    5,458059311e-01    0,000000000e+00    0,000000000e+00    0,000000000e+00    0,000000000e+00
     1304000000    2,139021270e-02   -1,816430837e-01    3,027616441e-01    4,784485102e-01    0,000000000e+00    0,000000000e+00    0,000000000e+00    0,000000000e+00
     1318000000   -8,797743171e-02   -2,508371770e-01    5,407850742e-01    2,746053338e-01    0,000000000e+00    0,000000000e+00    0,000000000e+00    0,000000000e+00
     1332000000   -2,408974022e-01   -2,403033823e-01    6,499212384e-01   -3,902476653e-02    0,000000000e+00    0,000000000e+00    0,000000000e+00    0,000000000e+00
     1346000000   -3,596336544e-01   -1,434222162e-01    5,556426644e-01   -4,100062251e-01    0,000000000e+00    0,000000000e+00    0,000000000e+00    0,000000000e+00
     1360000000   -3,831031621e-01    2,097886521e-03    2,691383362e-01   -6,362143159e-01    0,000000000e+00    0,000000000e+00    0,000000000e+00    0,000000000e+00
     1374000000   -3,289455473e-01    1,202078536e-01   -1,019640639e-01   -6,369420886e-01    0,000000000e+00    0,000000000e+00    0,000000000e+00    0,000000000e+00
     1388000000   -2,343720198e-01    1,713978648e-01   -3,770718873e-01   -4,196108580e-01    0,000000000e+00    0,000000000e+00    0,000000000e+00    0,000000000e+00
     1402000000   -1,575176418e-01    1,713461727e-01   -4,791867137e-01   -1,023145542e-01    0,000000000e+00    0,000000000e+00    0,000000000e+00    0,000000000e+00
     1416000000   -8,417670429e-02    1,410638541e-01   -4,009587765e-01    2,048540413e-01    0,000000000e+00    0,000000000e+00    0,000000000e+00    0,000000000e+00
     1430000000   -3,818394244e-02    8,566938341e-02   -1,980548501e-01    4,252481163e-01    0,000000000e+00    0,000000000e+00    0,000000000e+00    0,000000000e+00
     1444000000   -1,717953011e-02    7,815669291e-03    1,158349514e-01    5,359499454e-01    0,000000000e+00    0,000000000e+00    0,000000000e+00    0,000000000e+00
     1458000000   -4,144350439e-02   -8,104494214e-02    4,415622652e-01    5,023985505e-01    0,000000000e+00    0,000000000e+00    0,000000000e+00    0,000000000e+00
     1472000000   -1,189230829e-01   -1,433801055e-01    7,312811017e-01    3,051383197e-01    0,000000000e+00    0,000000000e+00    0,000000000e+00    0,000000000e+00
     1486000000   -2,261877358e-01   -1,476933658e-01    9,105359316e-01   -4,234817997e-02    0,000000000e+00    0,000000000e+00    0,000000000e+00    0,000000000e+00
     1500000000   -2,935396433e-01   -5,649827048e-02    8,610787988e-01   -4,130618572e-01    0,000000000e+00    0,000000000e+00    0,000000000e+00    0,000000000e+00
