! NanoVNA-App
! Date: 2025-09-25 14:59:41
! Start: 100MHz Stop: 1,5GHz Points: 101
! S-Parameter data: F S11 S21 S12 S22
# Hz S RI R 50
!     Frequency           S11_Real           S11_Imag           S21_Real           S21_Imag           S12_Real           S12_Imag           S22_Real           S22_Imag
      100000000    3,558807448e-02    2,734974772e-02    4,407201111e-01   -6,695082188e-01    0,000000000e+00    0,000000000e+00    0,000000000e+00    0,000000000e+00
      114000000    6,069651619e-02    2,155238530e-03    1,278325636e-02   -7,954140902e-01    0,000000000e+00    0,000000000e+00    0,000000000e+00    0,000000000e+00
      128000000    6,838297844e-02   -4,221183434e-02   -4,083686173e-01   -6,783326864e-01    0,000000000e+00    0,000000000e+00    0,000000000e+00    0,000000000e+00
      142000000    4,347921163e-02   -8,884470165e-02   -7,052974701e-01   -3,612156510e-01    0,000000000e+00    0,000000000e+00    0,000000000e+00    0,000000000e+00
      156000000   -9,483329952e-03   -1,094534621e-01   -7,929360867e-01    6,688456982e-02    0,000000000e+00    0,000000000e+00    0,000000000e+00    0,000000000e+00
      170000000   -6,267984211e-02   -9,178867191e-02   -6,371905804e-01    4,865929484e-01    0,000000000e+00    0,000000000e+00    0,000000000e+00    0,000000000e+00
      184000000   -8,853709698e-02   -4,769554734e-02   -2,732323110e-01    7,560981512e-01    0,000000000e+00    0,000000000e+00    0,000000000e+00    0,000000000e+00
      198000000   -8,273254335e-02   -6,449948531e-03    1,796003580e-01    7,822666168e-01    0,000000000e+00    0,000000000e+00    0,000000000e+00    0,000000000e+00
      212000000   -6,276054680e-02    1,801966503e-02    5,707552433e-01    5,585041046e-01    0,000000000e+00    0,000000000e+00    0,000000000e+00    0,000000000e+00
      226000000   -4,142394289e-02    3,180703148e-02    7,767632008e-01    1,619102657e-01    0,000000000e+00    0,000000000e+00    0,000000000e+00    0,000000000e+00
      240000000   -1,494273823e-02    4,127458110e-02    7,362237573e-01   -2,786157727e-01    0,000000000e+00    0,000000000e+00    0,000000000e+00    0,000000000e+00
      254000000    2,137620002e-02    3,627495840e-02    4,679157734e-01   -6,217643023e-01    0,000000000e+00    0,000000000e+00    0,000000000e+00    0,000000000e+00
      268000000    5,331282318e-02    4,755674396e-03    6,685217470e-02   -7,672693729e-01    0,000000000e+00    0,000000000e+00    0,000000000e+00    0,000000000e+00
      282000000    5,741273984e-02   -4,491062462e-02   -3,460382223e-01   -6,828724742e-01    0,000000000e+00    0,000000000e+00    0,000000000e+00    0,000000000e+00
      296000000    2,604103461e-02   -8,464045078e-02   -6,548334956e-01   -3,979038000e-01    0,000000000e+00    0,000000000e+00    0,000000000e+00    0,000000000e+00
      310000000   -1,892000623e-02   -8,942577988e-02   -7,746958137e-01    9,868056513e-03    0,000000000e+00    0,000000000e+00    0,000000000e+00    0,000000000e+00
      324000000   -4,640389606e-02   -6,364984065e-02   -6,479536891e-01    4,290120006e-01    0,000000000e+00    0,000000000e+00    0,000000000e+00    0,000000000e+00
      338000000   -4,084995389e-02   -3,753843158e-02   -3,108892441e-01    7,082635164e-01    0,000000000e+00    0,000000000e+00    0,000000000e+00    0,000000000e+00
      352000000   -2,315805480e-02   -3,771817684e-02    1,196033657e-01    7,589321136e-01    0,000000000e+00    0,000000000e+00    0,000000000e+00    0,000000000e+00
      366000000   -2,288866416e-02   -5,603031442e-02    5,031224489e-01    5,716357827e-01    0,000000000e+00    0,000000000e+00    0,000000000e+00    0,000000000e+00
      380000000   -4,471899197e-02   -6,543630362e-02    7,264664769e-01    2,114536017e-01    0,000000000e+00    0,000000000e+00    0,000000000e+00    0,000000000e+00
      394000000   -6,660345942e-02   -5,059761554e-02    7,228544354e-01   -2,131815106e-01    0,000000000e+00    0,000000000e+00    0,000000000e+00    0,000000000e+00
      408000000   -6,730610132e-02   -2,635334991e-02    4,904458821e-01   -5,686407089e-01    0,000000000e+00    0,000000000e+00    0,000000000e+00    0,000000000e+00
      422000000   -5,333855748e-02   -1,543365605e-02    1,048481464e-01   -7,386128306e-01    0,000000000e+00    0,000000000e+00    0,000000000e+00    0,000000000e+00
      436000000   -4,646472260e-02   -1,832706109e-02   -3,066938221e-01   -6,756700873e-01    0,000000000e+00    0,000000000e+00    0,000000000e+00    0,000000000e+00
      450000000   -5,222894251e-02   -1,491615642e-02   -6,198233962e-01   -3,996704519e-01    0,000000000e+00    0,000000000e+00    0,000000000e+00    0,000000000e+00
      464000000   -5,061560124e-02    5,662936717e-03   -7,300435305e-01    2,949906746e-03    0,000000000e+00    0,000000000e+00    0,000000000e+00    0,000000000e+00
      478000000   -2,021277510e-02    2,700859867e-02   -5,989487767e-01    3,973524272e-01    0,000000000e+00    0,000000000e+00    0,000000000e+00    0,000000000e+00
      492000000    2,865872718e-02    1,442927029e-02   -2,793862522e-01    6,440597177e-01    0,000000000e+00    0,000000000e+00    0,000000000e+00    0,000000000e+00
      506000000    5,866106600e-02   -3,736035153e-02    1,048146859e-01    6,796165705e-01    0,000000000e+00    0,000000000e+00    0,000000000e+00    0,000000000e+00
      520000000    4,424276948e-02   -1,028491110e-01    4,422062635e-01    5,212206841e-01    0,000000000e+00    0,000000000e+00    0,000000000e+00    0,000000000e+00
      534000000   -1,308997162e-02   -1,437758505e-01    6,492658257e-01    2,057683468e-01    0,000000000e+00    0,000000000e+00    0,000000000e+00    0,000000000e+00
      548000000   -8,167386055e-02   -1,402720958e-01    6,593670249e-01   -1,766320020e-01    0,000000000e+00    0,000000000e+00    0,000000000e+00    0,000000000e+00
      562000000   -1,314435899e-01   -9,845669568e-02    4,507666826e-01   -5,092812777e-01    0,000000000e+00    0,000000000e+00    0,000000000e+00    0,000000000e+00
      576000000   -1,496819407e-01   -3,811565414e-02    8,164981753e-02   -6,607162952e-01    0,000000000e+00    0,000000000e+00    0,000000000e+00    0,000000000e+00
      590000000   -1,299461573e-01    2,942202240e-02   -2,963012755e-01   -5,611733794e-01    0,000000000e+00    0,000000000e+00    0,000000000e+00    0,000000000e+00
      604000000   -3,832078353e-02    6,843174994e-02   -4,875503182e-01   -2,702147067e-01    0,000000000e+00    0,000000000e+00    0,000000000e+00    0,000000000e+00
      618000000    3,446513787e-02   -3,056978248e-02   -4,939479232e-01   -5,093614385e-02    0,000000000e+00    0,000000000e+00    0,000000000e+00    0,000000000e+00
      632000000   -5,230721459e-02   -9,303925931e-02   -5,250462890e-01    1,771304011e-01    0,000000000e+00    0,000000000e+00    0,000000000e+00    0,000000000e+00
      646000000   -9,933703393e-02   -3,415534645e-02   -3,796133697e-01    4,766850471e-01    0,000000000e+00    0,000000000e+00    0,000000000e+00    0,000000000e+00
      660000000   -6,848742813e-02    1,004934218e-02   -5,141816288e-02    6,232638359e-01    0,000000000e+00    0,000000000e+00    0,000000000e+00    0,000000000e+00
      674000000   -3,042593598e-02    5,222515669e-03    2,980377674e-01    5,535051227e-01    0,000000000e+00    0,000000000e+00    0,000000000e+00    0,000000000e+00
      688000000   -1,550231967e-02   -1,732926629e-02    5,471215248e-01    3,034320474e-01    0,000000000e+00    0,000000000e+00    0,000000000e+00    0,000000000e+00
      702000000   -1,379969809e-02   -3,440247104e-02    6,184054613e-01   -4,056621343e-02    0,000000000e+00    0,000000000e+00    0,000000000e+00    0,000000000e+00
      716000000   -9,481769055e-03   -4,792060331e-02    4,919873178e-01   -3,679647744e-01    0,000000000e+00    0,000000000e+00    0,000000000e+00    0,000000000e+00
      730000000   -7,589851506e-03   -7,410368323e-02    2,109188586e-01   -5,678880811e-01    0,000000000e+00    0,000000000e+00    0,000000000e+00    0,000000000e+00
      744000000   -2,660551108e-02   -1,107329503e-01   -1,241053566e-01   -5,873493552e-01    0,000000000e+00    0,000000000e+00    0,000000000e+00    0,000000000e+00
      758000000   -7,425158471e-02   -1,337293386e-01   -4,196671247e-01   -4,323177636e-01    0,000000000e+00    0,000000000e+00    0,000000000e+00    0,000000000e+00
      772000000   -1,357930899e-01   -1,160247177e-01   -5,931473374e-01   -1,398473382e-01    0,000000000e+00    0,000000000e+00    0,000000000e+00    0,000000000e+00
      786000000   -1,717395782e-01   -5,803775042e-02   -5,817261934e-01    2,094872147e-01    0,000000000e+00    0,000000000e+00    0,000000000e+00    0,000000000e+00
      800000000   -1,601748466e-01    7,112652063e-03   -3,722763062e-01    4,964286089e-01    0,000000000e+00    0,000000000e+00    0,000000000e+00    0,000000000e+00
      814000000   -1,151671931e-01    4,254683107e-02   -4,576564208e-02    6,156201959e-01    0,000000000e+00    0,000000000e+00    0,000000000e+00    0,000000000e+00
      828000000   -6,884257495e-02    4,336106777e-02    2,865080237e-01    5,401319265e-01    0,000000000e+00    0,000000000e+00    0,000000000e+00    0,000000000e+00
      842000000   -3,878968209e-02    2,889894880e-02    5,207939148e-01    3,056345582e-01    0,000000000e+00    0,000000000e+00    0,000000000e+00    0,000000000e+00
      856000000   -1,871174388e-02    1,220058650e-02    5,941178799e-01   -1,357606612e-02    0,000000000e+00    0,000000000e+00    0,000000000e+00    0,000000000e+00
      870000000    2,441550605e-03   -1,148498338e-02    4,864761531e-01   -3,165130913e-01    0,000000000e+00    0,000000000e+00    0,000000000e+00    0,000000000e+00
      884000000    1,373026147e-02   -5,133678764e-02    2,427101433e-01   -5,116791725e-01    0,000000000e+00    0,000000000e+00    0,000000000e+00    0,000000000e+00
      898000000   -3,601587843e-03   -1,016704962e-01   -5,836240575e-02   -5,542554855e-01    0,000000000e+00    0,000000000e+00    0,000000000e+00    0,000000000e+00
      912000000   -6,201746687e-02   -1,326424778e-01   -3,824552894e-01   -4,185240567e-01    0,000000000e+00    0,000000000e+00    0,000000000e+00    0,000000000e+00
      926000000   -1,246896759e-01   -1,180385053e-01   -5,643420219e-01   -1,484581977e-01    0,000000000e+00    0,000000000e+00    0,000000000e+00    0,000000000e+00
      940000000   -1,639933884e-01   -6,054458395e-02   -5,697622895e-01    1,931623369e-01    0,000000000e+00    0,000000000e+00    0,000000000e+00    0,000000000e+00
      954000000   -1,499801725e-01   -2,050377894e-03   -3,734755814e-01    4,823606014e-01    0,000000000e+00    0,000000000e+00    0,000000000e+00    0,000000000e+00
      968000000   -9,606076777e-02    2,531580813e-02   -5,064642802e-02    6,145731807e-01    0,000000000e+00    0,000000000e+00    0,000000000e+00    0,000000000e+00
      982000000   -5,585817620e-02    7,523031440e-03    2,812910974e-01    5,513298512e-01    0,000000000e+00    0,000000000e+00    0,000000000e+00    0,000000000e+00
      996000000   -4,643503577e-02   -3,341380879e-02    5,241131783e-01    3,267773986e-01    0,000000000e+00    0,000000000e+00    0,000000000e+00    0,000000000e+00
     1010000000   -6,189829484e-02   -6,841343641e-02    6,078596115e-01    1,589636691e-02    0,000000000e+00    0,000000000e+00    0,000000000e+00    0,000000000e+00
     1024000000   -9,906768054e-02   -8,073028177e-02    5,155023336e-01   -2,805386186e-01    0,000000000e+00    0,000000000e+00    0,000000000e+00    0,000000000e+00
     1038000000   -1,440046579e-01   -5,668095127e-02    2,951411009e-01   -4,715139270e-01    0,000000000e+00    0,000000000e+00    0,000000000e+00    0,000000000e+00
     1052000000   -1,529834867e-01   -2,979821526e-03    3,482387215e-02   -5,246987939e-01    0,000000000e+00    0,000000000e+00    0,000000000e+00    0,000000000e+00
     1066000000   -1,011682823e-01    3,798304871e-02   -2,128868550e-01   -4,649544954e-01    0,000000000e+00    0,000000000e+00    0,000000000e+00    0,000000000e+00
     1080000000   -5,167060345e-02    2,919876389e-02   -4,190451801e-01   -3,001253009e-01    0,000000000e+00    0,000000000e+00    0,000000000e+00    0,000000000e+00
     1094000000   -3,489773721e-02   -1,085901354e-02   -5,211644173e-01   -2,278831042e-02    0,000000000e+00    0,000000000e+00    0,000000000e+00    0,000000000e+00
     1108000000   -3,071909025e-02   -3,315651789e-02   -4,448772967e-01    2,863168418e-01    0,000000000e+00    0,000000000e+00    0,000000000e+00    0,000000000e+00
     1122000000   -2,794911340e-02   -5,877646431e-02   -1,888934225e-01    4,969370961e-01    0,000000000e+00    0,000000000e+00    0,000000000e+00    0,000000000e+00
     1136000000   -4,477264360e-02   -9,632039815e-02    1,515966803e-01    5,203242898e-01    0,000000000e+00    0,000000000e+00    0,000000000e+00    0,000000000e+00
     1150000000   -8,458309621e-02   -1,223088652e-01    4,540354908e-01    3,434430063e-01    0,000000000e+00    0,000000000e+00    0,000000000e+00    0,000000000e+00
     1164000000   -1,417615116e-01   -1,238742322e-01    6,087602377e-01    1,118160877e-02    0,000000000e+00    0,000000000e+00    0,000000000e+00    0,000000000e+00
     1178000000   -1,786850840e-01   -8,986444771e-02    5,391820073e-01   -3,706794679e-01    0,000000000e+00    0,000000000e+00    0,000000000e+00    0,000000000e+00
     1192000000   -1,800957620e-01   -5,144591257e-02    2,396957725e-01   -6,388728619e-01    0,000000000e+00    0,000000000e+00    0,000000000e+00    0,000000000e+00
     1206000000   -1,903487891e-01   -5,608763918e-02   -1,375627220e-01   -6,622352600e-01    0,000000000e+00    0,000000000e+00    0,000000000e+00    0,000000000e+00
     1220000000   -2,525606155e-01   -1,574230939e-02   -4,206775427e-01   -4,853012860e-01    0,000000000e+00    0,000000000e+00    0,000000000e+00    0,000000000e+00
     1234000000   -2,380268872e-01    1,173449084e-01   -5,547679067e-01   -2,461214215e-01    0,000000000e+00    0,000000000e+00    0,000000000e+00    0,000000000e+00
     1248000000   -1,138286367e-01    1,728022993e-01   -5,991894007e-01    1,442732848e-02    0,000000000e+00    0,000000000e+00    0,000000000e+00    0,000000000e+00
     1262000000    6,483729812e-04    1,309032440e-01   -5,058978200e-01    2,975433469e-01    0,000000000e+00    0,000000000e+00    0,000000000e+00    0,000000000e+00
     1276000000    6,218137592e-02    3,996473551e-02   -2,762420475e-01    4,858139753e-01    0,000000000e+00    0,000000000e+00    0,000000000e+00    0,000000000e+00
     1290000000    6,963425130e-02   -7,329460233e-02    1,494764257e-02    5,418879390e-01    0,000000000e+00    0,000000000e+00    0,000000000e+00    0,000000000e+00
     1304000000    2,247423492e-02   -1,846585423e-01    2,985382080e-01    4,748745859e-01    0,000000000e+00    0,000000000e+00    0,000000000e+00    0,000000000e+00
     1318000000   -9,241239727e-02   -2,537922561e-01    5,369871259e-01    2,782417834e-01    0,000000000e+00    0,000000000e+00    0,000000000e+00    0,000000000e+00
     1332000000   -2,455650717e-01   -2,489897758e-01    6,517434120e-01   -5,429668725e-02    0,000000000e+00    0,000000000e+00    0,000000000e+00    0,000000000e+00
     1346000000   -3,650008738e-01   -1,398150027e-01    5,593450665e-01   -4,026530981e-01    0,000000000e+00    0,000000000e+00    0,000000000e+00    0,000000000e+00
     1360000000   -3,876145184e-01    9,438632987e-03    2,483986467e-01   -6,423197389e-01    0,000000000e+00    0,000000000e+00    0,000000000e+00    0,000000000e+00
     1374000000   -3,272064030e-01    1,229569986e-01   -1,067096889e-01   -6,141957045e-01    0,000000000e+00    0,000000000e+00    0,000000000e+00    0,000000000e+00
     1388000000   -2,351351678e-01    1,718588769e-01   -3,642725050e-01   -4,112496376e-01    0,000000000e+00    0,000000000e+00    0,000000000e+00    0,000000000e+00
     1402000000   -1,549753547e-01    1,745900214e-01   -4,751368165e-01   -1,158529222e-01    0,000000000e+00    0,000000000e+00    0,000000000e+00    0,000000000e+00
     1416000000   -8,463439345e-02    1,414174139e-01   -3,991601169e-01    2,099060863e-01    0,000000000e+00    0,000000000e+00    0,000000000e+00    0,000000000e+00
     1430000000   -3,561335430e-02    9,044833481e-02   -1,992646009e-01    4,223384559e-01    0,000000000e+00    0,000000000e+00    0,000000000e+00    0,000000000e+00
     1444000000   -1,212362759e-02    4,492505919e-03    1,178737059e-01    5,287283659e-01    0,000000000e+00    0,000000000e+00    0,000000000e+00    0,000000000e+00
     1458000000   -3,921089321e-02   -7,874934375e-02    4,345388710e-01    4,989148080e-01    0,000000000e+00    0,000000000e+00    0,000000000e+00    0,000000000e+00
     1472000000   -1,211050898e-01   -1,396025121e-01    7,412236929e-01    3,200391233e-01    0,000000000e+00    0,000000000e+00    0,000000000e+00    0,000000000e+00
     1486000000   -2,304284275e-01   -1,457532048e-01    9,021209478e-01   -3,734108806e-02    0,000000000e+00    0,000000000e+00    0,000000000e+00    0,000000000e+00
     1500000000   -3,053228557e-01   -6,640565395e-02    8,375250697e-01   -4,259136915e-01    0,000000000e+00    0,000000000e+00    0,000000000e+00    0,000000000e+00
