! NanoVNA-App
! Date: 2025-09-25 15:01:09
! Start: 100MHz Stop: 1,5GHz Points: 101
! S-Parameter data: F S11 S21 S12 S22
# Hz S RI R 50
!     Frequency           S11_Real           S11_Imag           S21_Real           S21_Imag           S12_Real           S12_Imag           S22_Real           S22_Imag
      100000000    3,558466583e-02    2,736267820e-02    4,407237470e-01   -6,695039868e-01    0,000000000e+00    0,000000000e+00    0,000000000e+00    0,000000000e+00
      114000000    6,072928756e-02    2,194912871e-03    1,299254037e-02   -7,954478860e-01    0,000000000e+00    0,000000000e+00    0,000000000e+00    0,000000000e+00
      128000000    6,839764863e-02   -4,228685051e-02   -4,084306657e-01   -6,782748699e-01    0,000000000e+00    0,000000000e+00    0,000000000e+00    0,000000000e+00
      142000000    4,349111393e-02   -8,880905807e-02   -7,051920891e-01   -3,609487712e-01    0,000000000e+00    0,000000000e+00    0,000000000e+00    0,000000000e+00
      156000000   -8,887653239e-03   -1,102588028e-01   -7,941590548e-01    6,795231998e-02    0,000000000e+00    0,000000000e+00    0,000000000e+00    0,000000000e+00
      170000000   -6,264387071e-02   -9,178522229e-02   -6,371405125e-01    4,865798950e-01    0,000000000e+00    0,000000000e+00    0,000000000e+00    0,000000000e+00
      184000000   -8,858819306e-02   -4,768914729e-02   -2,731769383e-01    7,560259700e-01    0,000000000e+00    0,000000000e+00    0,000000000e+00    0,000000000e+00
      198000000   -8,277270943e-02   -6,455398165e-03    1,797270328e-01    7,822667956e-01    0,000000000e+00    0,000000000e+00    0,000000000e+00    0,000000000e+00
      212000000   -6,273434311e-02    1,800585911e-02    5,707152486e-01    5,586360097e-01    0,000000000e+00    0,000000000e+00    0,000000000e+00    0,000000000e+00
      226000000   -4,154539481e-02    3,183872253e-02    7,767739892e-01    1,619557738e-01    0,000000000e+00    0,000000000e+00    0,000000000e+00    0,000000000e+00
      240000000   -1,494738087e-02    4,132054374e-02    7,361600995e-01   -2,786937654e-01    0,000000000e+00    0,000000000e+00    0,000000000e+00    0,000000000e+00
      254000000    2,137070149e-02    3,632963449e-02    4,677802026e-01   -6,217151880e-01    0,000000000e+00    0,000000000e+00    0,000000000e+00    0,000000000e+00
      268000000    5,333951488e-02    4,761759192e-03    6,676153094e-02   -7,673719525e-01    0,000000000e+00    0,000000000e+00    0,000000000e+00    0,000000000e+00
      282000000    5,738339946e-02   -4,491636530e-02   -3,456362784e-01   -6,824502349e-01    0,000000000e+00    0,000000000e+00    0,000000000e+00    0,000000000e+00
      296000000    2,619343437e-02   -8,463870734e-02   -6,549313664e-01   -3,978681862e-01    0,000000000e+00    0,000000000e+00    0,000000000e+00    0,000000000e+00
      310000000   -1,902877167e-02   -8,936189115e-02   -7,731989026e-01    1,003625337e-02    0,000000000e+00    0,000000000e+00    0,000000000e+00    0,000000000e+00
      324000000   -4,637493566e-02   -6,364729255e-02   -6,481472850e-01    4,298890233e-01    0,000000000e+00    0,000000000e+00    0,000000000e+00    0,000000000e+00
      338000000   -4,109714180e-02   -3,802139312e-02   -3,117457628e-01    7,117283344e-01    0,000000000e+00    0,000000000e+00    0,000000000e+00    0,000000000e+00
      352000000   -2,332813293e-02   -3,775446489e-02    1,195330247e-01    7,588308454e-01    0,000000000e+00    0,000000000e+00    0,000000000e+00    0,000000000e+00
      366000000   -2,292181365e-02   -5,599622428e-02    5,023155212e-01    5,715630651e-01    0,000000000e+00    0,000000000e+00    0,000000000e+00    0,000000000e+00
      380000000   -4,493532702e-02   -6,515664607e-02    7,266017199e-01    2,112970799e-01    0,000000000e+00    0,000000000e+00    0,000000000e+00    0,000000000e+00
      394000000   -6,637420505e-02   -5,091998726e-02    7,227182984e-01   -2,132212371e-01    0,000000000e+00    0,000000000e+00    0,000000000e+00    0,000000000e+00
      408000000   -6,750015169e-02   -2,640059963e-02    4,902428985e-01   -5,687615871e-01    0,000000000e+00    0,000000000e+00    0,000000000e+00    0,000000000e+00
      422000000   -5,315381661e-02   -1,522698905e-02    1,067012474e-01   -7,382649779e-01    0,000000000e+00    0,000000000e+00    0,000000000e+00    0,000000000e+00
      436000000   -4,637029395e-02   -1,881766878e-02   -3,063390255e-01   -6,766084433e-01    0,000000000e+00    0,000000000e+00    0,000000000e+00    0,000000000e+00
      450000000   -5,216119066e-02   -1,527226437e-02   -6,184315085e-01   -3,999173939e-01    0,000000000e+00    0,000000000e+00    0,000000000e+00    0,000000000e+00
      464000000   -5,040459707e-02    5,972909275e-03   -7,297549248e-01    3,439986613e-03    0,000000000e+00    0,000000000e+00    0,000000000e+00    0,000000000e+00
      478000000   -2,069032378e-02    2,622557618e-02   -5,987886786e-01    3,970651627e-01    0,000000000e+00    0,000000000e+00    0,000000000e+00    0,000000000e+00
      492000000    2,828226238e-02    1,484524738e-02   -2,804226577e-01    6,440799236e-01    0,000000000e+00    0,000000000e+00    0,000000000e+00    0,000000000e+00
      506000000    5,846876279e-02   -3,699038178e-02    1,049256772e-01    6,805234551e-01    0,000000000e+00    0,000000000e+00    0,000000000e+00    0,000000000e+00
      520000000    4,399449751e-02   -1,021193340e-01    4,429741204e-01    5,141399503e-01    0,000000000e+00    0,000000000e+00    0,000000000e+00    0,000000000e+00
      534000000   -1,231922768e-02   -1,434498131e-01    6,495504379e-01    2,067481577e-01    0,000000000e+00    0,000000000e+00    0,000000000e+00    0,000000000e+00
      548000000   -8,103250712e-02   -1,393098980e-01    6,599964499e-01   -1,748925745e-01    0,000000000e+00    0,000000000e+00    0,000000000e+00    0,000000000e+00
      562000000   -1,297818571e-01   -9,784299880e-02    4,515720308e-01   -5,086085796e-01    0,000000000e+00    0,000000000e+00    0,000000000e+00    0,000000000e+00
      576000000   -1,478201747e-01   -4,075322300e-02    8,461660147e-02   -6,621878147e-01    0,000000000e+00    0,000000000e+00    0,000000000e+00    0,000000000e+00
      590000000   -1,317278892e-01    2,354360931e-02   -2,960317135e-01   -5,717586875e-01    0,000000000e+00    0,000000000e+00    0,000000000e+00    0,000000000e+00
      604000000   -5,048424751e-02    6,965647638e-02   -5,024671555e-01   -2,716417015e-01    0,000000000e+00    0,000000000e+00    0,000000000e+00    0,000000000e+00
      618000000    3,895476833e-02   -1,276466344e-02   -4,922648072e-01   -2,873251215e-02    0,000000000e+00    0,000000000e+00    0,000000000e+00    0,000000000e+00
      632000000   -3,838578984e-02   -9,783525765e-02   -5,081914067e-01    1,730345786e-01    0,000000000e+00    0,000000000e+00    0,000000000e+00    0,000000000e+00
      646000000   -1,017348170e-01   -4,416393861e-02   -3,805109262e-01    4,665139019e-01    0,000000000e+00    0,000000000e+00    0,000000000e+00    0,000000000e+00
      660000000   -7,454688847e-02    7,481878158e-03   -5,633714423e-02    6,234492660e-01    0,000000000e+00    0,000000000e+00    0,000000000e+00    0,000000000e+00
      674000000   -3,316378593e-02    7,499258500e-03    2,944445610e-01    5,545942187e-01    0,000000000e+00    0,000000000e+00    0,000000000e+00    0,000000000e+00
      688000000   -1,586662047e-02   -1,434638724e-02    5,462906957e-01    3,057331443e-01    0,000000000e+00    0,000000000e+00    0,000000000e+00    0,000000000e+00
      702000000   -1,309814770e-02   -3,311622515e-02    6,182665825e-01   -3,881922737e-02    0,000000000e+00    0,000000000e+00    0,000000000e+00    0,000000000e+00
      716000000   -8,563657291e-03   -4,821248353e-02    4,935275018e-01   -3,669291735e-01    0,000000000e+00    0,000000000e+00    0,000000000e+00    0,000000000e+00
      730000000   -5,812002812e-03   -7,494025677e-02    2,134098858e-01   -5,676149130e-01    0,000000000e+00    0,000000000e+00    0,000000000e+00    0,000000000e+00
      744000000   -2,558940463e-02   -1,117993519e-01   -1,232696548e-01   -5,887948275e-01    0,000000000e+00    0,000000000e+00    0,000000000e+00    0,000000000e+00
      758000000   -7,590854913e-02   -1,339515448e-01   -4,191876948e-01   -4,345058799e-01    0,000000000e+00    0,000000000e+00    0,000000000e+00    0,000000000e+00
      772000000   -1,370728761e-01   -1,158564910e-01   -5,945917964e-01   -1,419111639e-01    0,000000000e+00    0,000000000e+00    0,000000000e+00    0,000000000e+00
      786000000   -1,723698229e-01   -5,727531388e-02   -5,830449462e-01    2,090218216e-01    0,000000000e+00    0,000000000e+00    0,000000000e+00    0,000000000e+00
      800000000   -1,601520926e-01    8,932033554e-03   -3,741195500e-01    4,972491860e-01    0,000000000e+00    0,000000000e+00    0,000000000e+00    0,000000000e+00
      814000000   -1,130390465e-01    4,385956749e-02   -4,690506682e-02    6,163396239e-01    0,000000000e+00    0,000000000e+00    0,000000000e+00    0,000000000e+00
      828000000   -6,716460735e-02    4,432272539e-02    2,854046822e-01    5,408051014e-01    0,000000000e+00    0,000000000e+00    0,000000000e+00    0,000000000e+00
      842000000   -3,780190647e-02    2,844429575e-02    5,219961405e-01    3,062727153e-01    0,000000000e+00    0,000000000e+00    0,000000000e+00    0,000000000e+00
      856000000   -1,882143691e-02    1,121274009e-02    5,959771276e-01   -1,392467692e-02    0,000000000e+00    0,000000000e+00    0,000000000e+00    0,000000000e+00
      870000000    1,073334250e-03   -1,171622239e-02    4,873234630e-01   -3,181231320e-01    0,000000000e+00    0,000000000e+00    0,000000000e+00    0,000000000e+00
      884000000    1,242928859e-02   -5,062452704e-02    2,435112149e-01   -5,134456754e-01    0,000000000e+00    0,000000000e+00    0,000000000e+00    0,000000000e+00
      898000000   -3,895418486e-03   -9,979745001e-02   -5,848861858e-02   -5,565025210e-01    0,000000000e+00    0,000000000e+00    0,000000000e+00    0,000000000e+00
      912000000   -6,207380444e-02   -1,313387305e-01   -3,847209811e-01   -4,140202999e-01    0,000000000e+00    0,000000000e+00    0,000000000e+00    0,000000000e+00
      926000000   -1,255149543e-01   -1,165738851e-01   -5,677142739e-01   -1,444855034e-01    0,000000000e+00    0,000000000e+00    0,000000000e+00    0,000000000e+00
      940000000   -1,644279510e-01   -6,244146824e-02   -5,692294240e-01    1,950125098e-01    0,000000000e+00    0,000000000e+00    0,000000000e+00    0,000000000e+00
      954000000   -1,507315934e-01   -2,636011457e-03   -3,742620349e-01    4,863147736e-01    0,000000000e+00    0,000000000e+00    0,000000000e+00    0,000000000e+00
      968000000   -9,723028541e-02    2,502445504e-02   -4,996950924e-02    6,160066724e-01    0,000000000e+00    0,000000000e+00    0,000000000e+00    0,000000000e+00
      982000000   -5,802453682e-02    7,516931277e-03    2,829761207e-01    5,513064861e-01    0,000000000e+00    0,000000000e+00    0,000000000e+00    0,000000000e+00
      996000000   -4,548047110e-02   -3,390013054e-02    5,236335993e-01    3,255850077e-01    0,000000000e+00    0,000000000e+00    0,000000000e+00    0,000000000e+00
     1010000000   -6,092398986e-02   -6,285311282e-02    6,087286472e-01    1,350217499e-02    0,000000000e+00    0,000000000e+00    0,000000000e+00    0,000000000e+00
     1024000000   -1,022545174e-01   -7,639157027e-02    5,139105916e-01   -2,810403109e-01    0,000000000e+00    0,000000000e+00    0,000000000e+00    0,000000000e+00
     1038000000   -1,385653019e-01   -5,536563322e-02    2,945403457e-01   -4,685698450e-01    0,000000000e+00    0,000000000e+00    0,000000000e+00    0,000000000e+00
     1052000000   -1,505305022e-01   -4,238699563e-03    3,556534648e-02   -5,260489583e-01    0,000000000e+00    0,000000000e+00    0,000000000e+00    0,000000000e+00
     1066000000   -1,067981496e-01    4,111333564e-02   -2,075301856e-01   -4,673330486e-01    0,000000000e+00    0,000000000e+00    0,000000000e+00    0,000000000e+00
     1080000000   -5,640790984e-02    2,395908721e-02   -4,179120660e-01   -3,001716137e-01    0,000000000e+00    0,000000000e+00    0,000000000e+00    0,000000000e+00
     1094000000   -3,332770988e-02   -3,431262681e-03   -5,207203627e-01   -2,388074994e-02    0,000000000e+00    0,000000000e+00    0,000000000e+00    0,000000000e+00
     1108000000   -2,944553085e-02   -3,507170826e-02   -4,392484725e-01    2,860241234e-01    0,000000000e+00    0,000000000e+00    0,000000000e+00    0,000000000e+00
     1122000000   -3,396405652e-02   -5,949139968e-02   -1,869634688e-01    4,966494441e-01    0,000000000e+00    0,000000000e+00    0,000000000e+00    0,000000000e+00
     1136000000   -4,330964759e-02   -9,650465846e-02    1,535342932e-01    5,172286034e-01    0,000000000e+00    0,000000000e+00    0,000000000e+00    0,000000000e+00
     1150000000   -8,000976592e-02   -1,226936281e-01    4,517686069e-01    3,449990749e-01    0,000000000e+00    0,000000000e+00    0,000000000e+00    0,000000000e+00
     1164000000   -1,359980851e-01   -1,212461740e-01    6,099318266e-01    1,157902740e-02    0,000000000e+00    0,000000000e+00    0,000000000e+00    0,000000000e+00
     1178000000   -1,755548418e-01   -8,418533206e-02    5,375682712e-01   -3,727385402e-01    0,000000000e+00    0,000000000e+00    0,000000000e+00    0,000000000e+00
     1192000000   -1,821985990e-01   -5,265501887e-02    2,374262810e-01   -6,383751631e-01    0,000000000e+00    0,000000000e+00    0,000000000e+00    0,000000000e+00
     1206000000   -1,891488135e-01   -5,248156935e-02   -1,396619827e-01   -6,597767472e-01    0,000000000e+00    0,000000000e+00    0,000000000e+00    0,000000000e+00
     1220000000   -2,541849911e-01   -1,303993445e-02   -4,196884036e-01   -4,840739965e-01    0,000000000e+00    0,000000000e+00    0,000000000e+00    0,000000000e+00
     1234000000   -2,398506254e-01    1,133477315e-01   -5,521219373e-01   -2,533093989e-01    0,000000000e+00    0,000000000e+00    0,000000000e+00    0,000000000e+00
     1248000000   -1,163811982e-01    1,708429754e-01   -6,074286699e-01    1,784297451e-02    0,000000000e+00    0,000000000e+00    0,000000000e+00    0,000000000e+00
     1262000000   -1,800596248e-03    1,314153820e-01   -5,056476593e-01    2,975966334e-01    0,000000000e+00    0,000000000e+00    0,000000000e+00    0,000000000e+00
     1276000000    6,374011189e-02    4,350930825e-02   -2,769679725e-01    4,889942706e-01    0,000000000e+00    0,000000000e+00    0,000000000e+00    0,000000000e+00
     1290000000    7,124255598e-02   -7,299786806e-02    1,279950142e-02    5,418444872e-01    0,000000000e+00    0,000000000e+00    0,000000000e+00    0,000000000e+00
     1304000000    2,092777379e-02   -1,816651076e-01    2,996204197e-01    4,779149294e-01    0,000000000e+00    0,000000000e+00    0,000000000e+00    0,000000000e+00
     1318000000   -9,230286628e-02   -2,521476150e-01    5,385202765e-01    2,766631246e-01    0,000000000e+00    0,000000000e+00    0,000000000e+00    0,000000000e+00
     1332000000   -2,456689775e-01   -2,523153722e-01    6,504700780e-01   -5,904065445e-02    0,000000000e+00    0,000000000e+00    0,000000000e+00    0,000000000e+00
     1346000000   -3,647604883e-01   -1,382665038e-01    5,530511737e-01   -4,071352780e-01    0,000000000e+00    0,000000000e+00    0,000000000e+00    0,000000000e+00
     1360000000   -3,886853158e-01    8,785675280e-03    2,499714196e-01   -6,333345771e-01    0,000000000e+00    0,000000000e+00    0,000000000e+00    0,000000000e+00
     1374000000   -3,223386705e-01    1,182508692e-01   -1,036855578e-01   -6,192356348e-01    0,000000000e+00    0,000000000e+00    0,000000000e+00    0,000000000e+00
     1388000000   -2,375577986e-01    1,642664522e-01   -3,754045069e-01   -4,268022776e-01    0,000000000e+00    0,000000000e+00    0,000000000e+00    0,000000000e+00
     1402000000   -1,541469693e-01    1,671293974e-01   -4,686594307e-01   -1,114311591e-01    0,000000000e+00    0,000000000e+00    0,000000000e+00    0,000000000e+00
     1416000000   -9,265530109e-02    1,426828802e-01   -3,972834349e-01    2,042296678e-01    0,000000000e+00    0,000000000e+00    0,000000000e+00    0,000000000e+00
     1430000000   -3,443170339e-02    8,921451867e-02   -1,664929986e-01    4,508644342e-01    0,000000000e+00    0,000000000e+00    0,000000000e+00    0,000000000e+00
     1444000000   -1,406747103e-02    7,398634683e-03    1,301802993e-01    5,296933651e-01    0,000000000e+00    0,000000000e+00    0,000000000e+00    0,000000000e+00
     1458000000   -3,820190951e-02   -8,111804724e-02    4,456163645e-01    4,891577363e-01    0,000000000e+00    0,000000000e+00    0,000000000e+00    0,000000000e+00
     1472000000   -1,223911420e-01   -1,475105584e-01    7,353771925e-01    3,049451709e-01    0,000000000e+00    0,000000000e+00    0,000000000e+00    0,000000000e+00
     1486000000   -2,294095904e-01   -1,464403868e-01    8,993032575e-01   -4,679546133e-02    0,000000000e+00    0,000000000e+00    0,000000000e+00    0,000000000e+00
     1500000000   -3,086864948e-01   -6,983330846e-02    8,352172971e-01   -4,374167621e-01    0,000000000e+00    0,000000000e+00    0,000000000e+00    0,000000000e+00
