! NanoVNA-App
! Date: 2025-09-25 14:57:30
! Start: 100MHz Stop: 1,5GHz Points: 101
! S-Parameter data: F S11 S21 S12 S22
# Hz S RI R 50
!     Frequency           S11_Real           S11_Imag           S21_Real           S21_Imag           S12_Real           S12_Imag           S22_Real           S22_Imag
      100000000    3,557663411e-02    2,734544501e-02    4,407354295e-01   -6,694783568e-01    0,000000000e+00    0,000000000e+00    0,000000000e+00    0,000000000e+00
      114000000    6,070168316e-02    2,182068070e-03    1,295676082e-02   -7,953849435e-01    0,000000000e+00    0,000000000e+00    0,000000000e+00    0,000000000e+00
      128000000    6,838677078e-02   -4,223384336e-02   -4,082233608e-01   -6,780358553e-01    0,000000000e+00    0,000000000e+00    0,000000000e+00    0,000000000e+00
      142000000    4,349572957e-02   -8,879519999e-02   -7,053127289e-01   -3,609066308e-01    0,000000000e+00    0,000000000e+00    0,000000000e+00    0,000000000e+00
      156000000   -8,841020055e-03   -1,104868203e-01   -7,936370373e-01    6,859302521e-02    0,000000000e+00    0,000000000e+00    0,000000000e+00    0,000000000e+00
      170000000   -6,259373575e-02   -9,180929512e-02   -6,366696358e-01    4,862532020e-01    0,000000000e+00    0,000000000e+00    0,000000000e+00    0,000000000e+00
      184000000   -8,857169747e-02   -4,767066985e-02   -2,733074427e-01    7,561430335e-01    0,000000000e+00    0,000000000e+00    0,000000000e+00    0,000000000e+00
      198000000   -8,276451379e-02   -6,408049725e-03    1,794992089e-01    7,820080519e-01    0,000000000e+00    0,000000000e+00    0,000000000e+00    0,000000000e+00
      212000000   -6,264498085e-02    1,808844134e-02    5,708829165e-01    5,584196448e-01    0,000000000e+00    0,000000000e+00    0,000000000e+00    0,000000000e+00
      226000000   -4,142050818e-02    3,185557574e-02    7,766678333e-01    1,618755311e-01    0,000000000e+00    0,000000000e+00    0,000000000e+00    0,000000000e+00
      240000000   -1,476699021e-02    4,135162756e-02    7,360134721e-01   -2,787121832e-01    0,000000000e+00    0,000000000e+00    0,000000000e+00    0,000000000e+00
      254000000    2,148251049e-02    3,626737744e-02    4,679303169e-01   -6,218895316e-01    0,000000000e+00    0,000000000e+00    0,000000000e+00    0,000000000e+00
      268000000    5,332527682e-02    4,662617110e-03    6,679879874e-02   -7,668823600e-01    0,000000000e+00    0,000000000e+00    0,000000000e+00    0,000000000e+00
      282000000    5,750164762e-02   -4,502432048e-02   -3,456333280e-01   -6,828437448e-01    0,000000000e+00    0,000000000e+00    0,000000000e+00    0,000000000e+00
      296000000    2,613742650e-02   -8,474217355e-02   -6,546514034e-01   -3,974315822e-01    0,000000000e+00    0,000000000e+00    0,000000000e+00    0,000000000e+00
      310000000   -1,904794015e-02   -8,937348425e-02   -7,739244103e-01    1,112751756e-02    0,000000000e+00    0,000000000e+00    0,000000000e+00    0,000000000e+00
      324000000   -4,668901116e-02   -6,366070360e-02   -6,481427550e-01    4,299384058e-01    0,000000000e+00    0,000000000e+00    0,000000000e+00    0,000000000e+00
      338000000   -4,142413288e-02   -3,781342879e-02   -3,100948632e-01    7,119461298e-01    0,000000000e+00    0,000000000e+00    0,000000000e+00    0,000000000e+00
      352000000   -2,346784994e-02   -3,756324947e-02    1,194423810e-01    7,586681843e-01    0,000000000e+00    0,000000000e+00    0,000000000e+00    0,000000000e+00
      366000000   -2,282074839e-02   -5,588984862e-02    5,030865669e-01    5,721406937e-01    0,000000000e+00    0,000000000e+00    0,000000000e+00    0,000000000e+00
      380000000   -4,467797279e-02   -6,514318287e-02    7,267611623e-01    2,112964243e-01    0,000000000e+00    0,000000000e+00    0,000000000e+00    0,000000000e+00
      394000000   -6,639192998e-02   -5,063026771e-02    7,226032615e-01   -2,135714293e-01    0,000000000e+00    0,000000000e+00    0,000000000e+00    0,000000000e+00
      408000000   -6,715682149e-02   -2,617746405e-02    4,890833199e-01   -5,680001378e-01    0,000000000e+00    0,000000000e+00    0,000000000e+00    0,000000000e+00
      422000000   -5,319345742e-02   -1,539354026e-02    1,057217494e-01   -7,376189232e-01    0,000000000e+00    0,000000000e+00    0,000000000e+00    0,000000000e+00
      436000000   -4,571101069e-02   -1,888593473e-02   -3,049040437e-01   -6,763924956e-01    0,000000000e+00    0,000000000e+00    0,000000000e+00    0,000000000e+00
      450000000   -5,236131325e-02   -1,571625471e-02   -6,193026900e-01   -4,008229673e-01    0,000000000e+00    0,000000000e+00    0,000000000e+00    0,000000000e+00
      464000000   -5,050204694e-02    5,304480437e-03   -7,294971347e-01    3,386738710e-03    0,000000000e+00    0,000000000e+00    0,000000000e+00    0,000000000e+00
      478000000   -2,109810524e-02    2,620356716e-02   -5,989469290e-01    3,967283666e-01    0,000000000e+00    0,000000000e+00    0,000000000e+00    0,000000000e+00
      492000000    2,750080079e-02    1,494028140e-02   -2,808752358e-01    6,438273191e-01    0,000000000e+00    0,000000000e+00    0,000000000e+00    0,000000000e+00
      506000000    5,808380246e-02   -3,646342829e-02    1,029560566e-01    6,807221770e-01    0,000000000e+00    0,000000000e+00    0,000000000e+00    0,000000000e+00
      520000000    4,393209890e-02   -1,010697559e-01    4,431176782e-01    5,207835436e-01    0,000000000e+00    0,000000000e+00    0,000000000e+00    0,000000000e+00
      534000000   -1,184356213e-02   -1,416449249e-01    6,489636302e-01    2,078038603e-01    0,000000000e+00    0,000000000e+00    0,000000000e+00    0,000000000e+00
      548000000   -7,907665521e-02   -1,377362460e-01    6,616496444e-01   -1,735187918e-01    0,000000000e+00    0,000000000e+00    0,000000000e+00    0,000000000e+00
      562000000   -1,263023466e-01   -9,857950360e-02    4,554274082e-01   -5,073379278e-01    0,000000000e+00    0,000000000e+00    0,000000000e+00    0,000000000e+00
      576000000   -1,434074491e-01   -4,558518156e-02    9,017515928e-02   -6,653684974e-01    0,000000000e+00    0,000000000e+00    0,000000000e+00    0,000000000e+00
      590000000   -1,347118914e-01    1,206574775e-02   -2,940934598e-01   -5,811212063e-01    0,000000000e+00    0,000000000e+00    0,000000000e+00    0,000000000e+00
      604000000   -7,367928326e-02    6,714889407e-02   -5,276456475e-01   -2,810842395e-01    0,000000000e+00    0,000000000e+00    0,000000000e+00    0,000000000e+00
      618000000    3,738536686e-02    2,553971298e-02   -5,023250580e-01    1,511155814e-02    0,000000000e+00    0,000000000e+00    0,000000000e+00    0,000000000e+00
      632000000   -1,165344147e-03   -1,040260419e-01   -4,649442136e-01    1,713973433e-01    0,000000000e+00    0,000000000e+00    0,000000000e+00    0,000000000e+00
      646000000   -1,032926515e-01   -6,827370822e-02   -3,797779381e-01    4,390639365e-01    0,000000000e+00    0,000000000e+00    0,000000000e+00    0,000000000e+00
      660000000   -8,771309257e-02    2,684949199e-03   -7,168229669e-02    6,159299612e-01    0,000000000e+00    0,000000000e+00    0,000000000e+00    0,000000000e+00
      674000000   -4,040362313e-02    1,185884047e-02    2,860703170e-01    5,590640903e-01    0,000000000e+00    0,000000000e+00    0,000000000e+00    0,000000000e+00
      688000000   -1,699505374e-02   -8,868265897e-03    5,440745354e-01    3,113775253e-01    0,000000000e+00    0,000000000e+00    0,000000000e+00    0,000000000e+00
      702000000   -9,846126661e-03   -2,923727222e-02    6,245018840e-01   -3,600115702e-02    0,000000000e+00    0,000000000e+00    0,000000000e+00    0,000000000e+00
      716000000   -4,934773315e-03   -4,692287371e-02    4,961516857e-01   -3,645398915e-01    0,000000000e+00    0,000000000e+00    0,000000000e+00    0,000000000e+00
      730000000   -3,904954763e-03   -7,668020576e-02    2,173095942e-01   -5,673953891e-01    0,000000000e+00    0,000000000e+00    0,000000000e+00    0,000000000e+00
      744000000   -2,517673746e-02   -1,150003746e-01   -1,208639517e-01   -5,902559161e-01    0,000000000e+00    0,000000000e+00    0,000000000e+00    0,000000000e+00
      758000000   -7,601446658e-02   -1,357129067e-01   -4,190795124e-01   -4,383232892e-01    0,000000000e+00    0,000000000e+00    0,000000000e+00    0,000000000e+00
      772000000   -1,392505020e-01   -1,164721698e-01   -5,967120528e-01   -1,434584409e-01    0,000000000e+00    0,000000000e+00    0,000000000e+00    0,000000000e+00
      786000000   -1,756410152e-01   -5,639991909e-02   -5,854011774e-01    2,096050084e-01    0,000000000e+00    0,000000000e+00    0,000000000e+00    0,000000000e+00
      800000000   -1,602700949e-01    1,086583454e-02   -3,750586212e-01    4,982719123e-01    0,000000000e+00    0,000000000e+00    0,000000000e+00    0,000000000e+00
      814000000   -1,119512841e-01    4,644177482e-02   -4,582060128e-02    6,168851852e-01    0,000000000e+00    0,000000000e+00    0,000000000e+00    0,000000000e+00
      828000000   -6,522235274e-02    4,432684183e-02    2,864700258e-01    5,423639417e-01    0,000000000e+00    0,000000000e+00    0,000000000e+00    0,000000000e+00
      842000000   -3,654081374e-02    2,641944587e-02    5,230960250e-01    3,063613772e-01    0,000000000e+00    0,000000000e+00    0,000000000e+00    0,000000000e+00
      856000000   -1,843181811e-02    7,820145227e-03    5,967636704e-01   -1,464409102e-02    0,000000000e+00    0,000000000e+00    0,000000000e+00    0,000000000e+00
      870000000   -1,384643372e-03   -1,361174509e-02    4,877449870e-01   -3,191572726e-01    0,000000000e+00    0,000000000e+00    0,000000000e+00    0,000000000e+00
      884000000    9,361883625e-03   -5,118590593e-02    2,425426543e-01   -5,150482655e-01    0,000000000e+00    0,000000000e+00    0,000000000e+00    0,000000000e+00
      898000000   -6,722121965e-03   -9,780367464e-02   -6,093442068e-02   -5,566028357e-01    0,000000000e+00    0,000000000e+00    0,000000000e+00    0,000000000e+00
      912000000   -6,102445722e-02   -1,281054020e-01   -3,931302428e-01   -4,084913135e-01    0,000000000e+00    0,000000000e+00    0,000000000e+00    0,000000000e+00
      926000000   -1,235935241e-01   -1,158216745e-01   -5,678839684e-01   -1,443648636e-01    0,000000000e+00    0,000000000e+00    0,000000000e+00    0,000000000e+00
      940000000   -1,570858210e-01   -6,572313607e-02   -5,660774112e-01    1,943816841e-01    0,000000000e+00    0,000000000e+00    0,000000000e+00    0,000000000e+00
      954000000   -1,483766884e-01   -4,804359749e-03   -3,754393458e-01    4,834603667e-01    0,000000000e+00    0,000000000e+00    0,000000000e+00    0,000000000e+00
      968000000   -1,000099480e-01    1,709677279e-02   -5,174001679e-02    6,164582372e-01    0,000000000e+00    0,000000000e+00    0,000000000e+00    0,000000000e+00
      982000000   -5,962897837e-02    6,432759576e-03    2,815695107e-01    5,530347824e-01    0,000000000e+00    0,000000000e+00    0,000000000e+00    0,000000000e+00
      996000000   -4,965598509e-02   -2,839539759e-02    5,248479843e-01    3,284514844e-01    0,000000000e+00    0,000000000e+00    0,000000000e+00    0,000000000e+00
     1010000000   -6,663727015e-02   -6,132763997e-02    6,105417609e-01    1,372730732e-02    0,000000000e+00    0,000000000e+00    0,000000000e+00    0,000000000e+00
     1024000000   -9,918522090e-02   -7,314632088e-02    5,162181854e-01   -2,833273113e-01    0,000000000e+00    0,000000000e+00    0,000000000e+00    0,000000000e+00
     1038000000   -1,328579783e-01   -5,385454744e-02    2,942565084e-01   -4,736373425e-01    0,000000000e+00    0,000000000e+00    0,000000000e+00    0,000000000e+00
     1052000000   -1,434655488e-01   -1,366338506e-02    3,163670376e-02   -5,287649632e-01    0,000000000e+00    0,000000000e+00    0,000000000e+00    0,000000000e+00
     1066000000   -1,102504209e-01    2,725004032e-02   -2,167412788e-01   -4,653488696e-01    0,000000000e+00    0,000000000e+00    0,000000000e+00    0,000000000e+00
     1080000000   -6,721954793e-02    2,664373815e-02   -4,217947423e-01   -2,865682840e-01    0,000000000e+00    0,000000000e+00    0,000000000e+00    0,000000000e+00
     1094000000   -3,599487990e-02   -5,058154347e-04   -5,131684542e-01   -1,473937090e-02    0,000000000e+00    0,000000000e+00    0,000000000e+00    0,000000000e+00
     1108000000   -2,488697506e-02   -2,835166454e-02   -4,340665042e-01    2,819547355e-01    0,000000000e+00    0,000000000e+00    0,000000000e+00    0,000000000e+00
     1122000000   -2,197177522e-02   -5,848854408e-02   -1,805007905e-01    4,851823449e-01    0,000000000e+00    0,000000000e+00    0,000000000e+00    0,000000000e+00
     1136000000   -3,839391097e-02   -9,382509440e-02    1,469594538e-01    5,137373805e-01    0,000000000e+00    0,000000000e+00    0,000000000e+00    0,000000000e+00
     1150000000   -8,435437828e-02   -1,259725839e-01    4,464299977e-01    3,408088684e-01    0,000000000e+00    0,000000000e+00    0,000000000e+00    0,000000000e+00
     1164000000   -1,386366338e-01   -1,226850748e-01    6,050900221e-01    1,174230874e-02    0,000000000e+00    0,000000000e+00    0,000000000e+00    0,000000000e+00
     1178000000   -1,785408854e-01   -8,370369673e-02    5,378813148e-01   -3,678900599e-01    0,000000000e+00    0,000000000e+00    0,000000000e+00    0,000000000e+00
     1192000000   -1,800325811e-01   -5,605448410e-02    2,472684383e-01   -6,350130439e-01    0,000000000e+00    0,000000000e+00    0,000000000e+00    0,000000000e+00
     1206000000   -1,957710832e-01   -4,933631420e-02   -1,317562014e-01   -6,567729115e-01    0,000000000e+00    0,000000000e+00    0,000000000e+00    0,000000000e+00
     1220000000   -2,541421354e-01   -1,476962771e-02   -4,235144258e-01   -4,828777611e-01    0,000000000e+00    0,000000000e+00    0,000000000e+00    0,000000000e+00
     1234000000   -2,416193336e-01    1,099748313e-01   -5,615823865e-01   -2,490621358e-01    0,000000000e+00    0,000000000e+00    0,000000000e+00    0,000000000e+00
     1248000000   -1,187480539e-01    1,786631048e-01   -6,023363471e-01    1,869966835e-02    0,000000000e+00    0,000000000e+00    0,000000000e+00    0,000000000e+00
     1262000000   -4,977805540e-03    1,315238476e-01   -5,071148276e-01    2,938091457e-01    0,000000000e+00    0,000000000e+00    0,000000000e+00    0,000000000e+00
     1276000000    5,925253406e-02    4,515714571e-02   -2,786982059e-01    4,879878163e-01    0,000000000e+00    0,000000000e+00    0,000000000e+00    0,000000000e+00
     1290000000    6,913632900e-02   -6,766880304e-02    8,767437190e-03    5,488627553e-01    0,000000000e+00    0,000000000e+00    0,000000000e+00    0,000000000e+00
     1304000000    1,989919692e-02   -1,767729372e-01    2,994724214e-01    4,826226830e-01    0,000000000e+00    0,000000000e+00    0,000000000e+00    0,000000000e+00
     1318000000   -9,513754398e-02   -2,488699406e-01    5,362524986e-01    2,751643062e-01    0,000000000e+00    0,000000000e+00    0,000000000e+00    0,000000000e+00
     1332000000   -2,455905378e-01   -2,468065917e-01    6,534814239e-01   -5,633454397e-02    0,000000000e+00    0,000000000e+00    0,000000000e+00    0,000000000e+00
     1346000000   -3,629080355e-01   -1,410546750e-01    5,539005399e-01   -4,026889503e-01    0,000000000e+00    0,000000000e+00    0,000000000e+00    0,000000000e+00
     1360000000   -3,876677454e-01    4,444967955e-03    2,564629614e-01   -6,394779682e-01    0,000000000e+00    0,000000000e+00    0,000000000e+00    0,000000000e+00
     1374000000   -3,281703293e-01    1,185365841e-01   -1,111432686e-01   -6,312925220e-01    0,000000000e+00    0,000000000e+00    0,000000000e+00    0,000000000e+00
     1388000000   -2,413156331e-01    1,719895750e-01   -3,761672378e-01   -4,276612103e-01    0,000000000e+00    0,000000000e+00    0,000000000e+00    0,000000000e+00
     1402000000   -1,521148086e-01    1,746498644e-01   -4,692786038e-01   -1,039945111e-01    0,000000000e+00    0,000000000e+00    0,000000000e+00    0,000000000e+00
     1416000000   -8,443791419e-02    1,432605535e-01   -3,951307535e-01    1,988116801e-01    0,000000000e+00    0,000000000e+00    0,000000000e+00    0,000000000e+00
     1430000000   -2,649189718e-02    8,810824901e-02   -1,441576481e-01    4,251455963e-01    0,000000000e+00    0,000000000e+00    0,000000000e+00    0,000000000e+00
     1444000000   -1,027696952e-02    3,091368824e-03    1,216807887e-01    5,295034647e-01    0,000000000e+00    0,000000000e+00    0,000000000e+00    0,000000000e+00
     1458000000   -4,088052735e-02   -7,826866210e-02    4,446968734e-01    4,957187474e-01    0,000000000e+00    0,000000000e+00    0,000000000e+00    0,000000000e+00
     1472000000   -1,231394559e-01   -1,561597735e-01    7,265045047e-01    2,951187491e-01    0,000000000e+00    0,000000000e+00    0,000000000e+00    0,000000000e+00
     1486000000   -2,342728376e-01   -1,445744336e-01    9,149714708e-01   -3,442834318e-02    0,000000000e+00    0,000000000e+00    0,000000000e+00    0,000000000e+00
     1500000000   -3,046054542e-01   -6,194287911e-02    8,529174924e-01   -4,119395018e-01    0,000000000e+00    0,000000000e+00    0,000000000e+00    0,000000000e+00
