! NanoVNA-App
! Date: 2025-09-25 14:56:25
! Start: 100MHz Stop: 1,5GHz Points: 101
! S-Parameter data: F S11 S21 S12 S22
# Hz S RI R 50
!     Frequency           S11_Real           S11_Imag           S21_Real           S21_Imag           S12_Real           S12_Imag           S22_Real           S22_Imag
      100000000    3,560947254e-02    2,699687704e-02    4,407387376e-01   -6,696229577e-01    0,000000000e+00    0,000000000e+00    0,000000000e+00    0,000000000e+00
      114000000    6,051050499e-02    1,759345992e-03    1,270105783e-02   -7,954382896e-01    0,000000000e+00    0,000000000e+00    0,000000000e+00    0,000000000e+00
      128000000    6,796346605e-02   -4,255864769e-02   -4,083055258e-01   -6,779896021e-01    0,000000000e+00    0,000000000e+00    0,000000000e+00    0,000000000e+00
      142000000    4,278257489e-02   -8,887705952e-02   -7,055299878e-01   -3,609994650e-01    0,000000000e+00    0,000000000e+00    0,000000000e+00    0,000000000e+00
      156000000   -1,031184103e-02   -1,098054051e-01   -7,930068374e-01    6,824807078e-02    0,000000000e+00    0,000000000e+00    0,000000000e+00    0,000000000e+00
      170000000   -6,325473636e-02   -9,109248221e-02   -6,369629502e-01    4,867252707e-01    0,000000000e+00    0,000000000e+00    0,000000000e+00    0,000000000e+00
      184000000   -8,865079284e-02   -4,660227150e-02   -2,728833258e-01    7,561086416e-01    0,000000000e+00    0,000000000e+00    0,000000000e+00    0,000000000e+00
      198000000   -8,218857646e-02   -5,444117822e-03    1,798961163e-01    7,824078202e-01    0,000000000e+00    0,000000000e+00    0,000000000e+00    0,000000000e+00
      212000000   -6,163521111e-02    1,865567639e-02    5,706676841e-01    5,582426786e-01    0,000000000e+00    0,000000000e+00    0,000000000e+00    0,000000000e+00
      226000000   -4,011866823e-02    3,170680627e-02    7,766008973e-01    1,616596878e-01    0,000000000e+00    0,000000000e+00    0,000000000e+00    0,000000000e+00
      240000000   -1,382026821e-02    4,040454701e-02    7,361472249e-01   -2,788005769e-01    0,000000000e+00    0,000000000e+00    0,000000000e+00    0,000000000e+00
      254000000    2,192853391e-02    3,491743654e-02    4,679443836e-01   -6,220043898e-01    0,000000000e+00    0,000000000e+00    0,000000000e+00    0,000000000e+00
      268000000    5,293335766e-02    3,174680052e-03    6,646051258e-02   -7,677607536e-01    0,000000000e+00    0,000000000e+00    0,000000000e+00    0,000000000e+00
      282000000    5,631385371e-02   -4,623895511e-02   -3,459936976e-01   -6,830518842e-01    0,000000000e+00    0,000000000e+00    0,000000000e+00    0,000000000e+00
      296000000    2,432405204e-02   -8,521048725e-02   -6,556150317e-01   -3,978054821e-01    0,000000000e+00    0,000000000e+00    0,000000000e+00    0,000000000e+00
      310000000   -2,074554749e-02   -8,886864781e-02   -7,742175460e-01    1,207315736e-02    0,000000000e+00    0,000000000e+00    0,000000000e+00    0,000000000e+00
      324000000   -4,779924825e-02   -6,224612147e-02   -6,478986740e-01    4,297551811e-01    0,000000000e+00    0,000000000e+00    0,000000000e+00    0,000000000e+00
      338000000   -4,146749154e-02   -3,602403402e-02   -3,122226596e-01    7,109797001e-01    0,000000000e+00    0,000000000e+00    0,000000000e+00    0,000000000e+00
      352000000   -2,241637558e-02   -3,618821502e-02    1,196645871e-01    7,575890422e-01    0,000000000e+00    0,000000000e+00    0,000000000e+00    0,000000000e+00
      366000000   -2,126338147e-02   -5,503978580e-02    5,037739873e-01    5,709507465e-01    0,000000000e+00    0,000000000e+00    0,000000000e+00    0,000000000e+00
      380000000   -4,293546453e-02   -6,504846364e-02    7,261300087e-01    2,111640722e-01    0,000000000e+00    0,000000000e+00    0,000000000e+00    0,000000000e+00
      394000000   -6,470057368e-02   -5,159746855e-02    7,220965028e-01   -2,135774493e-01    0,000000000e+00    0,000000000e+00    0,000000000e+00    0,000000000e+00
      408000000   -6,648735702e-02   -2,800220810e-02    4,898276329e-01   -5,679047704e-01    0,000000000e+00    0,000000000e+00    0,000000000e+00    0,000000000e+00
      422000000   -5,296017230e-02   -1,723372377e-02    1,059163362e-01   -7,391346693e-01    0,000000000e+00    0,000000000e+00    0,000000000e+00    0,000000000e+00
      436000000   -4,705550522e-02   -2,073281258e-02   -3,057578802e-01   -6,771649122e-01    0,000000000e+00    0,000000000e+00    0,000000000e+00    0,000000000e+00
      450000000   -5,368333682e-02   -1,626260579e-02   -6,193122864e-01   -4,001058340e-01    0,000000000e+00    0,000000000e+00    0,000000000e+00    0,000000000e+00
      464000000   -5,222497880e-02    5,420594011e-03   -7,302097678e-01    3,243592102e-03    0,000000000e+00    0,000000000e+00    0,000000000e+00    0,000000000e+00
      478000000   -2,272835933e-02    2,711701579e-02   -5,995132923e-01    3,975775838e-01    0,000000000e+00    0,000000000e+00    0,000000000e+00    0,000000000e+00
      492000000    2,646031603e-02    1,653105393e-02   -2,810372114e-01    6,443883777e-01    0,000000000e+00    0,000000000e+00    0,000000000e+00    0,000000000e+00
      506000000    5,861690268e-02   -3,490838408e-02    1,052768603e-01    6,820076704e-01    0,000000000e+00    0,000000000e+00    0,000000000e+00    0,000000000e+00
      520000000    4,537799582e-02   -1,000111699e-01    4,427428544e-01    5,196511745e-01    0,000000000e+00    0,000000000e+00    0,000000000e+00    0,000000000e+00
      534000000   -9,637010284e-03   -1,418133229e-01    6,512050629e-01    2,069171518e-01    0,000000000e+00    0,000000000e+00    0,000000000e+00    0,000000000e+00
      548000000   -7,730688900e-02   -1,395204365e-01    6,628565192e-01   -1,751179546e-01    0,000000000e+00    0,000000000e+00    0,000000000e+00    0,000000000e+00
      562000000   -1,253442317e-01   -1,015762761e-01    4,562516212e-01   -5,101947188e-01    0,000000000e+00    0,000000000e+00    0,000000000e+00    0,000000000e+00
      576000000   -1,474742591e-01   -4,969453812e-02    8,613114059e-02   -6,700657606e-01    0,000000000e+00    0,000000000e+00    0,000000000e+00    0,000000000e+00
      590000000   -1,448514163e-01    1,526841149e-02   -3,086251915e-01   -5,815844536e-01    0,000000000e+00    0,000000000e+00    0,000000000e+00    0,000000000e+00
      604000000   -7,292453200e-02    9,163865447e-02   -5,325499177e-01   -2,526413798e-01    0,000000000e+00    0,000000000e+00    0,000000000e+00    0,000000000e+00
      618000000    8,671843261e-02    1,366454083e-02   -4,422762096e-01    9,394903667e-03    0,000000000e+00    0,000000000e+00    0,000000000e+00    0,000000000e+00
      632000000   -3,624450788e-02   -1,441556811e-01   -5,027797222e-01    1,203087121e-01    0,000000000e+00    0,000000000e+00    0,000000000e+00    0,000000000e+00
      646000000   -1,271789819e-01   -4,563744366e-02   -4,099635780e-01    4,646482766e-01    0,000000000e+00    0,000000000e+00    0,000000000e+00    0,000000000e+00
      660000000   -8,146362007e-02    2,064734697e-02   -6,407027692e-02    6,386306286e-01    0,000000000e+00    0,000000000e+00    0,000000000e+00    0,000000000e+00
      674000000   -2,971760929e-02    1,454821881e-02    2,987653911e-01    5,654454827e-01    0,000000000e+00    0,000000000e+00    0,000000000e+00    0,000000000e+00
      688000000   -9,722564369e-03   -1,276611630e-02    5,542662740e-01    3,085359335e-01    0,000000000e+00    0,000000000e+00    0,000000000e+00    0,000000000e+00
      702000000   -9,097671136e-03   -3,347275779e-02    6,290409565e-01   -4,211409017e-02    0,000000000e+00    0,000000000e+00    0,000000000e+00    0,000000000e+00
      716000000   -6,227142643e-03   -5,150883645e-02    4,972110093e-01   -3,728284240e-01    0,000000000e+00    0,000000000e+00    0,000000000e+00    0,000000000e+00
      730000000   -5,847396795e-03   -7,859512419e-02    2,123398185e-01   -5,741333365e-01    0,000000000e+00    0,000000000e+00    0,000000000e+00    0,000000000e+00
      744000000   -2,777867392e-02   -1,143084690e-01   -1,264345944e-01   -5,930958390e-01    0,000000000e+00    0,000000000e+00    0,000000000e+00    0,000000000e+00
      758000000   -7,796245068e-02   -1,350115538e-01   -4,264787138e-01   -4,360834658e-01    0,000000000e+00    0,000000000e+00    0,000000000e+00    0,000000000e+00
      772000000   -1,385564357e-01   -1,149729490e-01   -6,014081836e-01   -1,390322894e-01    0,000000000e+00    0,000000000e+00    0,000000000e+00    0,000000000e+00
      786000000   -1,729376912e-01   -5,499299988e-02   -5,876600146e-01    2,161561102e-01    0,000000000e+00    0,000000000e+00    0,000000000e+00    0,000000000e+00
      800000000   -1,585389972e-01    1,109926775e-02   -3,726512790e-01    5,055906177e-01    0,000000000e+00    0,000000000e+00    0,000000000e+00    0,000000000e+00
      814000000   -1,092704087e-01    4,544881731e-02   -3,906870633e-02    6,227515936e-01    0,000000000e+00    0,000000000e+00    0,000000000e+00    0,000000000e+00
      828000000   -6,380187720e-02    4,153284803e-02    2,954437137e-01    5,435715914e-01    0,000000000e+00    0,000000000e+00    0,000000000e+00    0,000000000e+00
      842000000   -3,624301404e-02    2,413589694e-02    5,310566425e-01    3,027914464e-01    0,000000000e+00    0,000000000e+00    0,000000000e+00    0,000000000e+00
      856000000   -1,967927255e-02    7,794674486e-03    6,016885638e-01   -2,205490507e-02    0,000000000e+00    0,000000000e+00    0,000000000e+00    0,000000000e+00
      870000000   -1,094577601e-03   -1,401035488e-02    4,877512157e-01   -3,294819891e-01    0,000000000e+00    0,000000000e+00    0,000000000e+00    0,000000000e+00
      884000000    8,974033408e-03   -5,157900602e-02    2,357512861e-01   -5,246137977e-01    0,000000000e+00    0,000000000e+00    0,000000000e+00    0,000000000e+00
      898000000   -6,340640597e-03   -1,012511104e-01   -7,092198730e-02   -5,620470643e-01    0,000000000e+00    0,000000000e+00    0,000000000e+00    0,000000000e+00
      912000000   -6,612969190e-02   -1,306932420e-01   -4,145458937e-01   -4,115531743e-01    0,000000000e+00    0,000000000e+00    0,000000000e+00    0,000000000e+00
      926000000   -1,300915778e-01   -1,149623320e-01   -5,822600722e-01   -1,343187094e-01    0,000000000e+00    0,000000000e+00    0,000000000e+00    0,000000000e+00
      940000000   -1,646889746e-01   -6,012838706e-02   -5,700745583e-01    2,150588334e-01    0,000000000e+00    0,000000000e+00    0,000000000e+00    0,000000000e+00
      954000000   -1,441799253e-01    3,543418832e-03   -3,549094200e-01    5,036520362e-01    0,000000000e+00    0,000000000e+00    0,000000000e+00    0,000000000e+00
      968000000   -9,541081637e-02    2,940026857e-02   -1,869320869e-02    6,200355291e-01    0,000000000e+00    0,000000000e+00    0,000000000e+00    0,000000000e+00
      982000000   -4,239254817e-02    1,100766566e-02    3,127670288e-01    5,299536586e-01    0,000000000e+00    0,000000000e+00    0,000000000e+00    0,000000000e+00
      996000000   -2,802306786e-02   -3,908145428e-02    5,311364532e-01    2,854027748e-01    0,000000000e+00    0,000000000e+00    0,000000000e+00    0,000000000e+00
     1010000000   -5,109053478e-02   -8,283768594e-02    5,758457780e-01   -1,848200709e-02    0,000000000e+00    0,000000000e+00    0,000000000e+00    0,000000000e+00
     1024000000   -1,105698273e-01   -1,084999293e-01    4,678739011e-01   -2,709965706e-01    0,000000000e+00    0,000000000e+00    0,000000000e+00    0,000000000e+00
     1038000000   -1,711376458e-01   -6,750360876e-02    2,891079485e-01   -4,299301207e-01    0,000000000e+00    0,000000000e+00    0,000000000e+00    0,000000000e+00
     1052000000   -1,726064235e-01    1,296945475e-02    5,991003290e-02   -5,152382255e-01    0,000000000e+00    0,000000000e+00    0,000000000e+00    0,000000000e+00
     1066000000   -1,088105738e-01    5,709041655e-02   -2,146016806e-01   -4,728442430e-01    0,000000000e+00    0,000000000e+00    0,000000000e+00    0,000000000e+00
     1080000000   -5,204437673e-02    5,033770576e-02   -4,239063263e-01   -2,863440812e-01    0,000000000e+00    0,000000000e+00    0,000000000e+00    0,000000000e+00
     1094000000   -2,130758576e-02    1,626011543e-02   -5,032421947e-01   -1,654080115e-03    0,000000000e+00    0,000000000e+00    0,000000000e+00    0,000000000e+00
     1108000000   -9,540129453e-03   -2,652768418e-02   -4,142504632e-01    2,770928144e-01    0,000000000e+00    0,000000000e+00    0,000000000e+00    0,000000000e+00
     1122000000   -1,025148109e-02   -6,808405370e-02   -1,761792898e-01    4,668944776e-01    0,000000000e+00    0,000000000e+00    0,000000000e+00    0,000000000e+00
     1136000000   -3,688690439e-02   -1,153226122e-01    1,369933784e-01    4,994743168e-01    0,000000000e+00    0,000000000e+00    0,000000000e+00    0,000000000e+00
     1150000000   -8,650137484e-02   -1,384193748e-01    4,332377911e-01    3,408556879e-01    0,000000000e+00    0,000000000e+00    0,000000000e+00    0,000000000e+00
     1164000000   -1,444692016e-01   -1,294911504e-01    5,955302715e-01    1,884672977e-02    0,000000000e+00    0,000000000e+00    0,000000000e+00    0,000000000e+00
     1178000000   -1,887529194e-01   -8,709751070e-02    5,349028707e-01   -3,572570980e-01    0,000000000e+00    0,000000000e+00    0,000000000e+00    0,000000000e+00
     1192000000   -1,944944561e-01   -5,083693564e-02    2,459573597e-01   -6,226348281e-01    0,000000000e+00    0,000000000e+00    0,000000000e+00    0,000000000e+00
     1206000000   -1,968260258e-01   -4,248093441e-02   -1,308551282e-01   -6,595145464e-01    0,000000000e+00    0,000000000e+00    0,000000000e+00    0,000000000e+00
     1220000000   -2,496943921e-01   -3,632348264e-03   -4,232071936e-01   -4,852057993e-01    0,000000000e+00    0,000000000e+00    0,000000000e+00    0,000000000e+00
     1234000000   -2,376993746e-01    1,157795936e-01   -5,569462776e-01   -2,499999255e-01    0,000000000e+00    0,000000000e+00    0,000000000e+00    0,000000000e+00
     1248000000   -1,161974519e-01    1,766009033e-01   -5,971550345e-01    2,245957404e-02    0,000000000e+00    0,000000000e+00    0,000000000e+00    0,000000000e+00
     1262000000   -6,370703341e-04    1,333732754e-01   -5,030284524e-01    2,938694060e-01    0,000000000e+00    0,000000000e+00    0,000000000e+00    0,000000000e+00
     1276000000    6,679548323e-02    4,669149593e-02   -2,752771378e-01    4,846926928e-01    0,000000000e+00    0,000000000e+00    0,000000000e+00    0,000000000e+00
     1290000000    7,287508994e-02   -7,030494511e-02    3,507045330e-03    5,403017402e-01    0,000000000e+00    0,000000000e+00    0,000000000e+00    0,000000000e+00
     1304000000    2,510046214e-02   -1,822478324e-01    3,005138338e-01    4,687107205e-01    0,000000000e+00    0,000000000e+00    0,000000000e+00    0,000000000e+00
     1318000000   -9,322092682e-02   -2,546250820e-01    5,340124369e-01    2,690356970e-01    0,000000000e+00    0,000000000e+00    0,000000000e+00    0,000000000e+00
     1332000000   -2,407955527e-01   -2,565338016e-01    6,490231156e-01   -5,711238459e-02    0,000000000e+00    0,000000000e+00    0,000000000e+00    0,000000000e+00
     1346000000   -3,612451255e-01   -1,433201283e-01    5,463081598e-01   -4,034267962e-01    0,000000000e+00    0,000000000e+00    0,000000000e+00    0,000000000e+00
     1360000000   -3,922016919e-01    2,637155121e-03    2,443053275e-01   -6,326673031e-01    0,000000000e+00    0,000000000e+00    0,000000000e+00    0,000000000e+00
     1374000000   -3,344350159e-01    1,222935393e-01   -9,974750131e-02   -6,159226298e-01    0,000000000e+00    0,000000000e+00    0,000000000e+00    0,000000000e+00
     1388000000   -2,423285693e-01    1,760698110e-01   -3,703091741e-01   -4,057749510e-01    0,000000000e+00    0,000000000e+00    0,000000000e+00    0,000000000e+00
     1402000000   -1,574804187e-01    1,769006997e-01   -4,672952294e-01   -1,053922772e-01    0,000000000e+00    0,000000000e+00    0,000000000e+00    0,000000000e+00
     1416000000   -8,483370394e-02    1,481816322e-01   -3,708832264e-01    1,982033402e-01    0,000000000e+00    0,000000000e+00    0,000000000e+00    0,000000000e+00
     1430000000   -3,012795933e-02    9,689968079e-02   -1,612568200e-01    4,221487939e-01    0,000000000e+00    0,000000000e+00    0,000000000e+00    0,000000000e+00
     1444000000   -8,237495087e-03    1,247173268e-02    1,201111823e-01    5,037798882e-01    0,000000000e+00    0,000000000e+00    0,000000000e+00    0,000000000e+00
     1458000000   -3,664496168e-02   -7,961566001e-02    4,343218803e-01    4,893897474e-01    0,000000000e+00    0,000000000e+00    0,000000000e+00    0,000000000e+00
     1472000000   -1,122028828e-01   -1,512941420e-01    7,099422216e-01    3,021141291e-01    0,000000000e+00    0,000000000e+00    0,000000000e+00    0,000000000e+00
     1486000000   -2,214753032e-01   -1,431551129e-01    8,825228810e-01   -1,858667843e-02    0,000000000e+00    0,000000000e+00    0,000000000e+00    0,000000000e+00
     1500000000   -3,010457158e-01   -7,988196611e-02    8,149535060e-01   -4,117216766e-01    0,000000000e+00    0,000000000e+00    0,000000000e+00    0,000000000e+00
