! NanoVNA-App
! Date: 2025-09-25 14:56:08
! Start: 100MHz Stop: 1,5GHz Points: 101
! S-Parameter data: F S11 S21 S12 S22
# Hz S RI R 50
!     Frequency           S11_Real           S11_Imag           S21_Real           S21_Imag           S12_Real           S12_Imag           S22_Real           S22_Imag
      100000000    3,560758382e-02    2,696964704e-02    4,407049417e-01   -6,696323156e-01    0,000000000e+00    0,000000000e+00    0,000000000e+00    0,000000000e+00
      114000000    6,049770117e-02    1,752571552e-03    1,276080497e-02   -7,954933047e-01    0,000000000e+00    0,000000000e+00    0,000000000e+00    0,000000000e+00
      128000000    6,792718917e-02   -4,266446829e-02   -4,084183574e-01   -6,782916784e-01    0,000000000e+00    0,000000000e+00    0,000000000e+00    0,000000000e+00
      142000000    4,280066118e-02   -8,889388293e-02   -7,055039406e-01   -3,607836664e-01    0,000000000e+00    0,000000000e+00    0,000000000e+00    0,000000000e+00
      156000000   -9,582521394e-03   -1,101236716e-01   -7,939831018e-01    6,873906404e-02    0,000000000e+00    0,000000000e+00    0,000000000e+00    0,000000000e+00
      170000000   -6,320982426e-02   -9,093713015e-02   -6,368961930e-01    4,866422415e-01    0,000000000e+00    0,000000000e+00    0,000000000e+00    0,000000000e+00
      184000000   -8,860130608e-02   -4,657387361e-02   -2,728177905e-01    7,568103075e-01    0,000000000e+00    0,000000000e+00    0,000000000e+00    0,000000000e+00
      198000000   -8,213505894e-02   -5,329417996e-03    1,799809188e-01    7,817377448e-01    0,000000000e+00    0,000000000e+00    0,000000000e+00    0,000000000e+00
      212000000   -6,154112518e-02    1,867525280e-02    5,707898736e-01    5,577794313e-01    0,000000000e+00    0,000000000e+00    0,000000000e+00    0,000000000e+00
      226000000   -4,012320936e-02    3,170162439e-02    7,767913938e-01    1,615992785e-01    0,000000000e+00    0,000000000e+00    0,000000000e+00    0,000000000e+00
      240000000   -1,366904378e-02    4,035796225e-02    7,359577417e-01   -2,788385749e-01    0,000000000e+00    0,000000000e+00    0,000000000e+00    0,000000000e+00
      254000000    2,193134464e-02    3,482051566e-02    4,680504501e-01   -6,221126318e-01    0,000000000e+00    0,000000000e+00    0,000000000e+00    0,000000000e+00
      268000000    5,296333134e-02    3,121533198e-03    6,656958163e-02   -7,676727772e-01    0,000000000e+00    0,000000000e+00    0,000000000e+00    0,000000000e+00
      282000000    5,621615052e-02   -4,618599638e-02   -3,457683921e-01   -6,830674410e-01    0,000000000e+00    0,000000000e+00    0,000000000e+00    0,000000000e+00
      296000000    2,429907583e-02   -8,508348465e-02   -6,555349827e-01   -3,975014985e-01    0,000000000e+00    0,000000000e+00    0,000000000e+00    0,000000000e+00
      310000000   -2,098129131e-02   -8,886367083e-02   -7,737078071e-01    1,184914075e-02    0,000000000e+00    0,000000000e+00    0,000000000e+00    0,000000000e+00
      324000000   -4,796558991e-02   -6,195221469e-02   -6,481294632e-01    4,303024709e-01    0,000000000e+00    0,000000000e+00    0,000000000e+00    0,000000000e+00
      338000000   -4,144651070e-02   -3,576253727e-02   -3,111956716e-01    7,103267908e-01    0,000000000e+00    0,000000000e+00    0,000000000e+00    0,000000000e+00
      352000000   -2,252536453e-02   -3,593308106e-02    1,197831556e-01    7,582529783e-01    0,000000000e+00    0,000000000e+00    0,000000000e+00    0,000000000e+00
      366000000   -2,151723579e-02   -5,497876555e-02    5,031458735e-01    5,707172751e-01    0,000000000e+00    0,000000000e+00    0,000000000e+00    0,000000000e+00
      380000000   -4,245913401e-02   -6,467235088e-02    7,263026834e-01    2,116952240e-01    0,000000000e+00    0,000000000e+00    0,000000000e+00    0,000000000e+00
      394000000   -6,459023803e-02   -5,161651596e-02    7,235235572e-01   -2,134310156e-01    0,000000000e+00    0,000000000e+00    0,000000000e+00    0,000000000e+00
      408000000   -6,608499587e-02   -2,818814851e-02    4,895527363e-01   -5,680428147e-01    0,000000000e+00    0,000000000e+00    0,000000000e+00    0,000000000e+00
      422000000   -5,329627171e-02   -1,706080511e-02    1,055268049e-01   -7,385981083e-01    0,000000000e+00    0,000000000e+00    0,000000000e+00    0,000000000e+00
      436000000   -4,728948325e-02   -2,095754631e-02   -3,056939542e-01   -6,776543260e-01    0,000000000e+00    0,000000000e+00    0,000000000e+00    0,000000000e+00
      450000000   -5,375025049e-02   -1,580952667e-02   -6,196814179e-01   -3,992485702e-01    0,000000000e+00    0,000000000e+00    0,000000000e+00    0,000000000e+00
      464000000   -5,249031261e-02    5,636800081e-03   -7,303170562e-01    3,448391333e-03    0,000000000e+00    0,000000000e+00    0,000000000e+00    0,000000000e+00
      478000000   -2,266681194e-02    2,782134898e-02   -5,997009873e-01    3,982352614e-01    0,000000000e+00    0,000000000e+00    0,000000000e+00    0,000000000e+00
      492000000    2,688127942e-02    1,645716280e-02   -2,809570730e-01    6,446091533e-01    0,000000000e+00    0,000000000e+00    0,000000000e+00    0,000000000e+00
      506000000    5,814911053e-02   -3,494102135e-02    1,043937206e-01    6,813014150e-01    0,000000000e+00    0,000000000e+00    0,000000000e+00    0,000000000e+00
      520000000    4,505137354e-02   -1,002885774e-01    4,426743388e-01    5,212706327e-01    0,000000000e+00    0,000000000e+00    0,000000000e+00    0,000000000e+00
      534000000   -9,647803381e-03   -1,417576522e-01    6,511609554e-01    2,068442255e-01    0,000000000e+00    0,000000000e+00    0,000000000e+00    0,000000000e+00
      548000000   -7,692777365e-02   -1,394603699e-01    6,627672315e-01   -1,754134893e-01    0,000000000e+00    0,000000000e+00    0,000000000e+00    0,000000000e+00
      562000000   -1,259218007e-01   -1,023757160e-01    4,558498263e-01   -5,115426183e-01    0,000000000e+00    0,000000000e+00    0,000000000e+00    0,000000000e+00
      576000000   -1,480451524e-01   -4,990485683e-02    8,594042063e-02   -6,709029078e-01    0,000000000e+00    0,000000000e+00    0,000000000e+00    0,000000000e+00
      590000000   -1,470344216e-01    1,554110460e-02   -3,111988008e-01   -5,814982653e-01    0,000000000e+00    0,000000000e+00    0,000000000e+00    0,000000000e+00
      604000000   -7,382910699e-02    9,725215286e-02   -5,349075198e-01   -2,462936640e-01    0,000000000e+00    0,000000000e+00    0,000000000e+00    0,000000000e+00
      618000000    9,976236522e-02    9,960379452e-03   -4,260478616e-01    6,688683294e-03    0,000000000e+00    0,000000000e+00    0,000000000e+00    0,000000000e+00
      632000000   -4,719608650e-02   -1,497707665e-01   -5,140083432e-01    1,115249321e-01    0,000000000e+00    0,000000000e+00    0,000000000e+00    0,000000000e+00
      646000000   -1,297814995e-01   -4,037955403e-02   -4,136278331e-01    4,703006148e-01    0,000000000e+00    0,000000000e+00    0,000000000e+00    0,000000000e+00
      660000000   -7,897244394e-02    2,303789556e-02   -6,325150281e-02    6,423076391e-01    0,000000000e+00    0,000000000e+00    0,000000000e+00    0,000000000e+00
      674000000   -2,800889313e-02    1,470986288e-02    3,020545840e-01    5,646688938e-01    0,000000000e+00    0,000000000e+00    0,000000000e+00    0,000000000e+00
      688000000   -9,085019119e-03   -1,374402363e-02    5,560761690e-01    3,079642951e-01    0,000000000e+00    0,000000000e+00    0,000000000e+00    0,000000000e+00
      702000000   -9,210989811e-03   -3,531458229e-02    6,301620603e-01   -4,255139828e-02    0,000000000e+00    0,000000000e+00    0,000000000e+00    0,000000000e+00
      716000000   -6,480291951e-03   -5,225399137e-02    4,970728755e-01   -3,747409880e-01    0,000000000e+00    0,000000000e+00    0,000000000e+00    0,000000000e+00
      730000000   -6,963440217e-03   -7,856073976e-02    2,118286341e-01   -5,754047036e-01    0,000000000e+00    0,000000000e+00    0,000000000e+00    0,000000000e+00
      744000000   -2,895050496e-02   -1,140096337e-01   -1,281777769e-01   -5,943264365e-01    0,000000000e+00    0,000000000e+00    0,000000000e+00    0,000000000e+00
      758000000   -7,878952473e-02   -1,335958540e-01   -4,280004501e-01   -4,348687232e-01    0,000000000e+00    0,000000000e+00    0,000000000e+00    0,000000000e+00
      772000000   -1,396179348e-01   -1,122992858e-01   -6,022940278e-01   -1,367298812e-01    0,000000000e+00    0,000000000e+00    0,000000000e+00    0,000000000e+00
      786000000   -1,729732752e-01   -5,323500931e-02   -5,864742994e-01    2,188234627e-01    0,000000000e+00    0,000000000e+00    0,000000000e+00    0,000000000e+00
      800000000   -1,558089852e-01    1,143639348e-02   -3,713432252e-01    5,060340166e-01    0,000000000e+00    0,000000000e+00    0,000000000e+00    0,000000000e+00
      814000000   -1,085020527e-01    4,322192445e-02   -3,802929074e-02    6,211389303e-01    0,000000000e+00    0,000000000e+00    0,000000000e+00    0,000000000e+00
      828000000   -6,353636086e-02    4,036355764e-02    2,958556712e-01    5,416681170e-01    0,000000000e+00    0,000000000e+00    0,000000000e+00    0,000000000e+00
      842000000   -3,752616048e-02    2,224039100e-02    5,302932262e-01    3,019604981e-01    0,000000000e+00    0,000000000e+00    0,000000000e+00    0,000000000e+00
      856000000   -2,180261537e-02    6,589130498e-03    6,007753015e-01   -2,354172803e-02    0,000000000e+00    0,000000000e+00    0,000000000e+00    0,000000000e+00
      870000000   -3,580496646e-03   -1,342902798e-02    4,867602587e-01   -3,289909959e-01    0,000000000e+00    0,000000000e+00    0,000000000e+00    0,000000000e+00
      884000000    7,528208662e-03   -4,961390421e-02    2,357442528e-01   -5,231663585e-01    0,000000000e+00    0,000000000e+00    0,000000000e+00    0,000000000e+00
      898000000   -6,770266220e-03   -9,778469056e-02   -7,100337744e-02   -5,600171685e-01    0,000000000e+00    0,000000000e+00    0,000000000e+00    0,000000000e+00
      912000000   -6,248853728e-02   -1,278907359e-01   -4,091578424e-01   -4,200300276e-01    0,000000000e+00    0,000000000e+00    0,000000000e+00    0,000000000e+00
      926000000   -1,245914102e-01   -1,169327497e-01   -5,744676590e-01   -1,346474737e-01    0,000000000e+00    0,000000000e+00    0,000000000e+00    0,000000000e+00
      940000000   -1,616097689e-01   -6,016186625e-02   -5,687404275e-01    2,140026540e-01    0,000000000e+00    0,000000000e+00    0,000000000e+00    0,000000000e+00
      954000000   -1,422766298e-01   -2,893194614e-04   -3,572064638e-01    5,014349222e-01    0,000000000e+00    0,000000000e+00    0,000000000e+00    0,000000000e+00
      968000000   -9,895955026e-02    2,225901186e-02   -2,530589141e-02    6,203876138e-01    0,000000000e+00    0,000000000e+00    0,000000000e+00    0,000000000e+00
      982000000   -5,308363214e-02    1,042671222e-02    3,077758551e-01    5,381928682e-01    0,000000000e+00    0,000000000e+00    0,000000000e+00    0,000000000e+00
      996000000   -3,827249631e-02   -2,776997536e-02    5,359985232e-01    2,935616374e-01    0,000000000e+00    0,000000000e+00    0,000000000e+00    0,000000000e+00
     1010000000   -4,833802581e-02   -6,858047098e-02    5,867660046e-01   -2,137656137e-02    0,000000000e+00    0,000000000e+00    0,000000000e+00    0,000000000e+00
     1024000000   -9,467678517e-02   -9,718057513e-02    4,702580571e-01   -2,849727273e-01    0,000000000e+00    0,000000000e+00    0,000000000e+00    0,000000000e+00
     1038000000   -1,516024768e-01   -7,743869722e-02    2,776225805e-01   -4,395827651e-01    0,000000000e+00    0,000000000e+00    0,000000000e+00    0,000000000e+00
     1052000000   -1,698626876e-01   -7,795021869e-03    4,665339366e-02   -5,075277686e-01    0,000000000e+00    0,000000000e+00    0,000000000e+00    0,000000000e+00
     1066000000   -1,304993629e-01    4,466599599e-02   -2,127602100e-01   -4,687960744e-01    0,000000000e+00    0,000000000e+00    0,000000000e+00    0,000000000e+00
     1080000000   -6,803281605e-02    4,606601223e-02   -4,275741875e-01   -2,774357200e-01    0,000000000e+00    0,000000000e+00    0,000000000e+00    0,000000000e+00
     1094000000   -2,226596884e-02    2,387198992e-02   -4,975960255e-01    6,105760112e-03    0,000000000e+00    0,000000000e+00    0,000000000e+00    0,000000000e+00
     1108000000   -2,000469685e-04   -1,451153960e-02   -4,000202715e-01    2,772836983e-01    0,000000000e+00    0,000000000e+00    0,000000000e+00    0,000000000e+00
     1122000000   -3,680739552e-03   -7,013819367e-02   -1,698254645e-01    4,519090950e-01    0,000000000e+00    0,000000000e+00    0,000000000e+00    0,000000000e+00
     1136000000   -2,968213335e-02   -1,158917472e-01    1,296323389e-01    4,845928848e-01    0,000000000e+00    0,000000000e+00    0,000000000e+00    0,000000000e+00
     1150000000   -8,776810765e-02   -1,481658965e-01    4,184037745e-01    3,403671682e-01    0,000000000e+00    0,000000000e+00    0,000000000e+00    0,000000000e+00
     1164000000   -1,503920704e-01   -1,413271278e-01    5,848731399e-01    3,466545418e-02    0,000000000e+00    0,000000000e+00    0,000000000e+00    0,000000000e+00
     1178000000   -1,959008574e-01   -9,097417444e-02    5,399720073e-01   -3,471001685e-01    0,000000000e+00    0,000000000e+00    0,000000000e+00    0,000000000e+00
     1192000000   -2,017153502e-01   -5,023098737e-02    2,614051104e-01   -6,247700453e-01    0,000000000e+00    0,000000000e+00    0,000000000e+00    0,000000000e+00
     1206000000   -2,030086219e-01   -3,415951505e-02   -1,237518340e-01   -6,678519249e-01    0,000000000e+00    0,000000000e+00    0,000000000e+00    0,000000000e+00
     1220000000   -2,349443138e-01    1,973357983e-03   -4,296687543e-01   -4,926823974e-01    0,000000000e+00    0,000000000e+00    0,000000000e+00    0,000000000e+00
     1234000000   -2,355414182e-01    1,039840132e-01   -5,623596311e-01   -2,391948700e-01    0,000000000e+00    0,000000000e+00    0,000000000e+00    0,000000000e+00
     1248000000   -1,152886748e-01    1,768691689e-01   -5,875875354e-01    1,949768327e-02    0,000000000e+00    0,000000000e+00    0,000000000e+00    0,000000000e+00
     1262000000    5,554137286e-03    1,331143826e-01   -4,912488461e-01    2,896480560e-01    0,000000000e+00    0,000000000e+00    0,000000000e+00    0,000000000e+00
     1276000000    6,894558668e-02    4,554984719e-02   -2,786093950e-01    4,800651968e-01    0,000000000e+00    0,000000000e+00    0,000000000e+00    0,000000000e+00
     1290000000    7,761709392e-02   -7,061094791e-02    2,408769215e-03    5,424008965e-01    0,000000000e+00    0,000000000e+00    0,000000000e+00    0,000000000e+00
     1304000000    2,281504311e-02   -1,809745878e-01    2,912730277e-01    4,709271789e-01    0,000000000e+00    0,000000000e+00    0,000000000e+00    0,000000000e+00
     1318000000   -9,132222086e-02   -2,597888708e-01    5,200178027e-01    2,737076283e-01    0,000000000e+00    0,000000000e+00    0,000000000e+00    0,000000000e+00
     1332000000   -2,405175716e-01   -2,514741719e-01    6,525475979e-01   -4,483091831e-02    0,000000000e+00    0,000000000e+00    0,000000000e+00    0,000000000e+00
     1346000000   -3,673214912e-01   -1,524928063e-01    5,478033423e-01   -4,063625634e-01    0,000000000e+00    0,000000000e+00    0,000000000e+00    0,000000000e+00
     1360000000   -3,945999146e-01    3,467644332e-03    2,502154410e-01   -6,207357645e-01    0,000000000e+00    0,000000000e+00    0,000000000e+00    0,000000000e+00
     1374000000   -3,382097483e-01    1,219520867e-01   -1,055664271e-01   -6,207476258e-01    0,000000000e+00    0,000000000e+00    0,000000000e+00    0,000000000e+00
     1388000000   -2,418609113e-01    1,777722389e-01   -3,588721454e-01   -4,092268050e-01    0,000000000e+00    0,000000000e+00    0,000000000e+00    0,000000000e+00
     1402000000   -1,547712833e-01    1,810552478e-01   -4,647193551e-01   -1,101762429e-01    0,000000000e+00    0,000000000e+00    0,000000000e+00    0,000000000e+00
     1416000000   -8,224826306e-02    1,512586027e-01   -3,863629699e-01    1,984650493e-01    0,000000000e+00    0,000000000e+00    0,000000000e+00    0,000000000e+00
     1430000000   -2,736077830e-02    9,024592489e-02   -1,838904023e-01    4,226924181e-01    0,000000000e+00    0,000000000e+00    0,000000000e+00    0,000000000e+00
     1444000000   -8,193475194e-03    9,083218873e-03    1,203726009e-01    5,158756971e-01    0,000000000e+00    0,000000000e+00    0,000000000e+00    0,000000000e+00
     1458000000   -2,961473353e-02   -7,864534110e-02    4,367836118e-01    4,871972203e-01    0,000000000e+00    0,000000000e+00    0,000000000e+00    0,000000000e+00
     1472000000   -1,158404201e-01   -1,496339738e-01    7,144803405e-01    3,130135238e-01    0,000000000e+00    0,000000000e+00    0,000000000e+00    0,000000000e+00
     1486000000   -2,214261889e-01   -1,430488676e-01    8,923931122e-01   -1,495460793e-02    0,000000000e+00    0,000000000e+00    0,000000000e+00    0,000000000e+00
     1500000000   -2,963719666e-01   -8,158885688e-02    8,517175913e-01   -4,124886990e-01    0,000000000e+00    0,000000000e+00    0,000000000e+00    0,000000000e+00
