! NanoVNA-App
! Date: 2025-09-25 14:57:41
! Start: 100MHz Stop: 1,5GHz Points: 101
! S-Parameter data: F S11 S21 S12 S22
# Hz S RI R 50
!     Frequency           S11_Real           S11_Imag           S21_Real           S21_Imag           S12_Real           S12_Imag           S22_Real           S22_Imag
      100000000    3,557710722e-02    2,733652294e-02    4,406731129e-01   -6,694805622e-01    0,000000000e+00    0,000000000e+00    0,000000000e+00    0,000000000e+00
      114000000    6,071997434e-02    2,157161478e-03    1,278122421e-02   -7,954947352e-01    0,000000000e+00    0,000000000e+00    0,000000000e+00    0,000000000e+00
      128000000    6,832459569e-02   -4,224897549e-02   -4,080925584e-01   -6,779252887e-01    0,000000000e+00    0,000000000e+00    0,000000000e+00    0,000000000e+00
      142000000    4,348851368e-02   -8,873304725e-02   -7,051447630e-01   -3,607982993e-01    0,000000000e+00    0,000000000e+00    0,000000000e+00    0,000000000e+00
      156000000   -9,576348588e-03   -1,096582040e-01   -7,925568819e-01    6,774517149e-02    0,000000000e+00    0,000000000e+00    0,000000000e+00    0,000000000e+00
      170000000   -6,259647757e-02   -9,178886563e-02   -6,367599368e-01    4,863205850e-01    0,000000000e+00    0,000000000e+00    0,000000000e+00    0,000000000e+00
      184000000   -8,859359473e-02   -4,769631103e-02   -2,732410431e-01    7,560421228e-01    0,000000000e+00    0,000000000e+00    0,000000000e+00    0,000000000e+00
      198000000   -8,276537061e-02   -6,429411471e-03    1,794867963e-01    7,821080685e-01    0,000000000e+00    0,000000000e+00    0,000000000e+00    0,000000000e+00
      212000000   -6,264308840e-02    1,809812710e-02    5,708168149e-01    5,584790111e-01    0,000000000e+00    0,000000000e+00    0,000000000e+00    0,000000000e+00
      226000000   -4,142843932e-02    3,182881325e-02    7,765079141e-01    1,618590802e-01    0,000000000e+00    0,000000000e+00    0,000000000e+00    0,000000000e+00
      240000000   -1,484748628e-02    4,129852355e-02    7,358644605e-01   -2,785842717e-01    0,000000000e+00    0,000000000e+00    0,000000000e+00    0,000000000e+00
      254000000    2,144506387e-02    3,622227535e-02    4,678222537e-01   -6,220075488e-01    0,000000000e+00    0,000000000e+00    0,000000000e+00    0,000000000e+00
      268000000    5,336693302e-02    4,656766541e-03    6,702795625e-02   -7,672511339e-01    0,000000000e+00    0,000000000e+00    0,000000000e+00    0,000000000e+00
      282000000    5,739058182e-02   -4,497703910e-02   -3,454004824e-01   -6,822639108e-01    0,000000000e+00    0,000000000e+00    0,000000000e+00    0,000000000e+00
      296000000    2,600988932e-02   -8,484943956e-02   -6,547479033e-01   -3,977167904e-01    0,000000000e+00    0,000000000e+00    0,000000000e+00    0,000000000e+00
      310000000   -1,884908974e-02   -8,953721821e-02   -7,729482055e-01    9,955713525e-03    0,000000000e+00    0,000000000e+00    0,000000000e+00    0,000000000e+00
      324000000   -4,683466628e-02   -6,368398666e-02   -6,477936506e-01    4,292883575e-01    0,000000000e+00    0,000000000e+00    0,000000000e+00    0,000000000e+00
      338000000   -4,090832174e-02   -3,782832995e-02   -3,107237518e-01    7,105885744e-01    0,000000000e+00    0,000000000e+00    0,000000000e+00    0,000000000e+00
      352000000   -2,338283136e-02   -3,760798275e-02    1,196815372e-01    7,588572502e-01    0,000000000e+00    0,000000000e+00    0,000000000e+00    0,000000000e+00
      366000000   -2,304497361e-02   -5,617382005e-02    5,031895638e-01    5,712904930e-01    0,000000000e+00    0,000000000e+00    0,000000000e+00    0,000000000e+00
      380000000   -4,441298917e-02   -6,515593827e-02    7,270115018e-01    2,114349753e-01    0,000000000e+00    0,000000000e+00    0,000000000e+00    0,000000000e+00
      394000000   -6,629978120e-02   -5,055252835e-02    7,221230268e-01   -2,127296180e-01    0,000000000e+00    0,000000000e+00    0,000000000e+00    0,000000000e+00
      408000000   -6,735026091e-02   -2,649701014e-02    4,898357987e-01   -5,670688748e-01    0,000000000e+00    0,000000000e+00    0,000000000e+00    0,000000000e+00
      422000000   -5,289473385e-02   -1,561408862e-02    1,053505540e-01   -7,389697433e-01    0,000000000e+00    0,000000000e+00    0,000000000e+00    0,000000000e+00
      436000000   -4,578731954e-02   -1,884556748e-02   -3,055027723e-01   -6,756531596e-01    0,000000000e+00    0,000000000e+00    0,000000000e+00    0,000000000e+00
      450000000   -5,200162157e-02   -1,517247129e-02   -6,185232401e-01   -4,001340866e-01    0,000000000e+00    0,000000000e+00    0,000000000e+00    0,000000000e+00
      464000000   -5,043594912e-02    5,063779186e-03   -7,297185659e-01    3,179736668e-03    0,000000000e+00    0,000000000e+00    0,000000000e+00    0,000000000e+00
      478000000   -2,105749398e-02    2,608238161e-02   -5,991362333e-01    3,970425427e-01    0,000000000e+00    0,000000000e+00    0,000000000e+00    0,000000000e+00
      492000000    2,735274658e-02    1,482212916e-02   -2,816416025e-01    6,440844536e-01    0,000000000e+00    0,000000000e+00    0,000000000e+00    0,000000000e+00
      506000000    5,817919970e-02   -3,695649281e-02    1,037281156e-01    6,808953881e-01    0,000000000e+00    0,000000000e+00    0,000000000e+00    0,000000000e+00
      520000000    4,412779212e-02   -1,016065106e-01    4,446783960e-01    5,210810304e-01    0,000000000e+00    0,000000000e+00    0,000000000e+00    0,000000000e+00
      534000000   -1,191657782e-02   -1,418749541e-01    6,489508748e-01    2,073955834e-01    0,000000000e+00    0,000000000e+00    0,000000000e+00    0,000000000e+00
      548000000   -7,874749601e-02   -1,377764940e-01    6,621540189e-01   -1,738446504e-01    0,000000000e+00    0,000000000e+00    0,000000000e+00    0,000000000e+00
      562000000   -1,258862168e-01   -9,851159900e-02    4,555751383e-01   -5,070949793e-01    0,000000000e+00    0,000000000e+00    0,000000000e+00    0,000000000e+00
      576000000   -1,435714662e-01   -4,570062459e-02    9,027750790e-02   -6,654418111e-01    0,000000000e+00    0,000000000e+00    0,000000000e+00    0,000000000e+00
      590000000   -1,347586811e-01    1,213842072e-02   -2,953540981e-01   -5,844770670e-01    0,000000000e+00    0,000000000e+00    0,000000000e+00    0,000000000e+00
      604000000   -7,424885035e-02    6,733148545e-02   -5,285160542e-01   -2,798161805e-01    0,000000000e+00    0,000000000e+00    0,000000000e+00    0,000000000e+00
      618000000    3,682168573e-02    2,630392089e-02   -5,024535060e-01    1,603599824e-02    0,000000000e+00    0,000000000e+00    0,000000000e+00    0,000000000e+00
      632000000   -2,141772275e-04   -1,038324237e-01   -4,635298848e-01    1,716237962e-01    0,000000000e+00    0,000000000e+00    0,000000000e+00    0,000000000e+00
      646000000   -1,034018546e-01   -6,765703857e-02   -3,801486790e-01    4,383492172e-01    0,000000000e+00    0,000000000e+00    0,000000000e+00    0,000000000e+00
      660000000   -8,895482868e-02    3,521167906e-03   -7,139265537e-02    6,152806282e-01    0,000000000e+00    0,000000000e+00    0,000000000e+00    0,000000000e+00
      674000000   -4,169578478e-02    1,254344732e-02    2,867755294e-01    5,583720803e-01    0,000000000e+00    0,000000000e+00    0,000000000e+00    0,000000000e+00
      688000000   -1,611621864e-02   -8,499938995e-03    5,435511470e-01    3,115815520e-01    0,000000000e+00    0,000000000e+00    0,000000000e+00    0,000000000e+00
      702000000   -9,381403215e-03   -2,903663926e-02    6,193512678e-01   -3,426855803e-02    0,000000000e+00    0,000000000e+00    0,000000000e+00    0,000000000e+00
      716000000   -4,452097695e-03   -4,681471363e-02    4,972890913e-01   -3,643502295e-01    0,000000000e+00    0,000000000e+00    0,000000000e+00    0,000000000e+00
      730000000   -2,786483150e-03   -7,734441012e-02    2,169655561e-01   -5,682062507e-01    0,000000000e+00    0,000000000e+00    0,000000000e+00    0,000000000e+00
      744000000   -2,366941422e-02   -1,151604578e-01   -1,201199442e-01   -5,916925073e-01    0,000000000e+00    0,000000000e+00    0,000000000e+00    0,000000000e+00
      758000000   -7,670165598e-02   -1,368935853e-01   -4,191078544e-01   -4,371682703e-01    0,000000000e+00    0,000000000e+00    0,000000000e+00    0,000000000e+00
      772000000   -1,385223120e-01   -1,168273687e-01   -5,965692401e-01   -1,437818408e-01    0,000000000e+00    0,000000000e+00    0,000000000e+00    0,000000000e+00
      786000000   -1,748595834e-01   -5,754790455e-02   -5,856400132e-01    2,091282606e-01    0,000000000e+00    0,000000000e+00    0,000000000e+00    0,000000000e+00
      800000000   -1,612112075e-01    1,042465586e-02   -3,757640719e-01    4,982792139e-01    0,000000000e+00    0,000000000e+00    0,000000000e+00    0,000000000e+00
      814000000   -1,117706969e-01    4,563976824e-02   -4,679960012e-02    6,181957722e-01    0,000000000e+00    0,000000000e+00    0,000000000e+00    0,000000000e+00
      828000000   -6,458506733e-02    4,442656040e-02    2,871534228e-01    5,412941575e-01    0,000000000e+00    0,000000000e+00    0,000000000e+00    0,000000000e+00
      842000000   -3,579506278e-02    2,698441781e-02    5,226459503e-01    3,068740666e-01    0,000000000e+00    0,000000000e+00    0,000000000e+00    0,000000000e+00
      856000000   -1,833090559e-02    8,075253107e-03    5,970944762e-01   -1,398029365e-02    0,000000000e+00    0,000000000e+00    0,000000000e+00    0,000000000e+00
      870000000   -1,405641437e-03   -1,360114198e-02    4,878188968e-01   -3,190742135e-01    0,000000000e+00    0,000000000e+00    0,000000000e+00    0,000000000e+00
      884000000    9,703442454e-03   -5,078652129e-02    2,434081286e-01   -5,152907968e-01    0,000000000e+00    0,000000000e+00    0,000000000e+00    0,000000000e+00
      898000000   -6,484349258e-03   -9,879188985e-02   -6,233096123e-02   -5,570184588e-01    0,000000000e+00    0,000000000e+00    0,000000000e+00    0,000000000e+00
      912000000   -6,223392859e-02   -1,278037429e-01   -3,835929334e-01   -4,183073640e-01    0,000000000e+00    0,000000000e+00    0,000000000e+00    0,000000000e+00
      926000000   -1,217907518e-01   -1,148152351e-01   -5,653475523e-01   -1,461267322e-01    0,000000000e+00    0,000000000e+00    0,000000000e+00    0,000000000e+00
      940000000   -1,589589864e-01   -6,189855933e-02   -5,688908696e-01    1,963216513e-01    0,000000000e+00    0,000000000e+00    0,000000000e+00    0,000000000e+00
      954000000   -1,440590024e-01   -8,788186125e-03   -3,741073608e-01    4,845521152e-01    0,000000000e+00    0,000000000e+00    0,000000000e+00    0,000000000e+00
      968000000   -9,757550806e-02    1,945020631e-02   -5,021783710e-02    6,140688062e-01    0,000000000e+00    0,000000000e+00    0,000000000e+00    0,000000000e+00
      982000000   -6,184211373e-02    4,217119422e-03    2,815510035e-01    5,533832312e-01    0,000000000e+00    0,000000000e+00    0,000000000e+00    0,000000000e+00
      996000000   -4,739082605e-02   -3,251511604e-02    5,277673602e-01    3,276524544e-01    0,000000000e+00    0,000000000e+00    0,000000000e+00    0,000000000e+00
     1010000000   -6,493986398e-02   -6,025214866e-02    6,082858443e-01    1,437492669e-02    0,000000000e+00    0,000000000e+00    0,000000000e+00    0,000000000e+00
     1024000000   -9,870997071e-02   -7,441677153e-02    5,133581161e-01   -2,828481495e-01    0,000000000e+00    0,000000000e+00    0,000000000e+00    0,000000000e+00
     1038000000   -1,352987736e-01   -5,358875170e-02    2,932205796e-01   -4,723290205e-01    0,000000000e+00    0,000000000e+00    0,000000000e+00    0,000000000e+00
     1052000000   -1,492640227e-01   -8,794741705e-03    3,312835842e-02   -5,260375738e-01    0,000000000e+00    0,000000000e+00    0,000000000e+00    0,000000000e+00
     1066000000   -1,149148792e-01    2,940631285e-02   -2,184004039e-01   -4,619971216e-01    0,000000000e+00    0,000000000e+00    0,000000000e+00    0,000000000e+00
     1080000000   -6,268345565e-02    2,641347051e-02   -4,192779660e-01   -2,902237475e-01    0,000000000e+00    0,000000000e+00    0,000000000e+00    0,000000000e+00
     1094000000   -3,828481212e-02    2,312053461e-03   -5,143697858e-01   -1,667583920e-02    0,000000000e+00    0,000000000e+00    0,000000000e+00    0,000000000e+00
     1108000000   -2,928179316e-02   -2,814733982e-02   -4,334910214e-01    2,842676342e-01    0,000000000e+00    0,000000000e+00    0,000000000e+00    0,000000000e+00
     1122000000   -2,491376176e-02   -5,491216481e-02   -1,834129989e-01    4,922162890e-01    0,000000000e+00    0,000000000e+00    0,000000000e+00    0,000000000e+00
     1136000000   -3,848790750e-02   -9,782739729e-02    1,509074122e-01    5,120807290e-01    0,000000000e+00    0,000000000e+00    0,000000000e+00    0,000000000e+00
     1150000000   -8,420978487e-02   -1,274949908e-01    4,461350441e-01    3,433274329e-01    0,000000000e+00    0,000000000e+00    0,000000000e+00    0,000000000e+00
     1164000000   -1,411653161e-01   -1,280131638e-01    6,057569385e-01    1,344196778e-02    0,000000000e+00    0,000000000e+00    0,000000000e+00    0,000000000e+00
     1178000000   -1,779128462e-01   -8,439511806e-02    5,347416401e-01   -3,673409820e-01    0,000000000e+00    0,000000000e+00    0,000000000e+00    0,000000000e+00
     1192000000   -1,839325130e-01   -5,306826532e-02    2,455779761e-01   -6,297357082e-01    0,000000000e+00    0,000000000e+00    0,000000000e+00    0,000000000e+00
     1206000000   -1,926949471e-01   -5,473525077e-02   -1,352551579e-01   -6,647702456e-01    0,000000000e+00    0,000000000e+00    0,000000000e+00    0,000000000e+00
     1220000000   -2,513681948e-01   -1,788247563e-02   -4,152356982e-01   -4,877351820e-01    0,000000000e+00    0,000000000e+00    0,000000000e+00    0,000000000e+00
     1234000000   -2,446828038e-01    1,143988445e-01   -5,575925708e-01   -2,518496513e-01    0,000000000e+00    0,000000000e+00    0,000000000e+00    0,000000000e+00
     1248000000   -1,139199808e-01    1,751182824e-01   -5,988242030e-01    1,812249050e-02    0,000000000e+00    0,000000000e+00    0,000000000e+00    0,000000000e+00
     1262000000    1,015263260e-03    1,300586760e-01   -5,037653446e-01    2,907913327e-01    0,000000000e+00    0,000000000e+00    0,000000000e+00    0,000000000e+00
     1276000000    6,215403229e-02    4,141684994e-02   -2,773956358e-01    4,858532548e-01    0,000000000e+00    0,000000000e+00    0,000000000e+00    0,000000000e+00
     1290000000    7,144273072e-02   -7,104907185e-02    5,149540491e-03    5,464993119e-01    0,000000000e+00    0,000000000e+00    0,000000000e+00    0,000000000e+00
     1304000000    2,033220045e-02   -1,769635677e-01    2,980416119e-01    4,836962819e-01    0,000000000e+00    0,000000000e+00    0,000000000e+00    0,000000000e+00
     1318000000   -8,955002576e-02   -2,520295680e-01    5,409886837e-01    2,673441470e-01    0,000000000e+00    0,000000000e+00    0,000000000e+00    0,000000000e+00
     1332000000   -2,452462763e-01   -2,463320494e-01    6,446709037e-01   -4,315180331e-02    0,000000000e+00    0,000000000e+00    0,000000000e+00    0,000000000e+00
     1346000000   -3,577508032e-01   -1,397511810e-01    5,544630885e-01   -4,075942039e-01    0,000000000e+00    0,000000000e+00    0,000000000e+00    0,000000000e+00
     1360000000   -3,877031207e-01    9,592915885e-03    2,534536719e-01   -6,278063655e-01    0,000000000e+00    0,000000000e+00    0,000000000e+00    0,000000000e+00
     1374000000   -3,275804520e-01    1,202374175e-01   -1,064640433e-01   -6,188391447e-01    0,000000000e+00    0,000000000e+00    0,000000000e+00    0,000000000e+00
     1388000000   -2,373242080e-01    1,695638001e-01   -3,740974367e-01   -4,240119159e-01    0,000000000e+00    0,000000000e+00    0,000000000e+00    0,000000000e+00
     1402000000   -1,519417316e-01    1,704381555e-01   -4,658427238e-01   -1,086781919e-01    0,000000000e+00    0,000000000e+00    0,000000000e+00    0,000000000e+00
     1416000000   -8,722516149e-02    1,426005363e-01   -3,957665563e-01    2,015549392e-01    0,000000000e+00    0,000000000e+00    0,000000000e+00    0,000000000e+00
     1430000000   -2,859887853e-02    9,128574282e-02   -1,645760685e-01    4,256969690e-01    0,000000000e+00    0,000000000e+00    0,000000000e+00    0,000000000e+00
     1444000000   -9,165303782e-03    6,969384849e-03    1,181452051e-01    5,295123458e-01    0,000000000e+00    0,000000000e+00    0,000000000e+00    0,000000000e+00
     1458000000   -3,826433793e-02   -8,566970378e-02    4,344290197e-01    4,831930101e-01    0,000000000e+00    0,000000000e+00    0,000000000e+00    0,000000000e+00
     1472000000   -1,278654337e-01   -1,539087147e-01    7,264741063e-01    2,978956997e-01    0,000000000e+00    0,000000000e+00    0,000000000e+00    0,000000000e+00
     1486000000   -2,376174629e-01   -1,410000175e-01    8,968849182e-01   -2,741541155e-02    0,000000000e+00    0,000000000e+00    0,000000000e+00    0,000000000e+00
     1500000000   -3,133028150e-01   -7,328121364e-02    8,393976688e-01   -4,325509071e-01    0,000000000e+00    0,000000000e+00    0,000000000e+00    0,000000000e+00
