! NanoVNA-App
! Date: 2025-09-25 15:01:32
! Start: 100MHz Stop: 1,5GHz Points: 101
! S-Parameter data: F S11 S21 S12 S22
# Hz S RI R 50
!     Frequency           S11_Real           S11_Imag           S21_Real           S21_Imag           S12_Real           S12_Imag           S22_Real           S22_Imag
      100000000    3,557027504e-02    2,736543678e-02    4,407722354e-01   -6,695110202e-01    0,000000000e+00    0,000000000e+00    0,000000000e+00    0,000000000e+00
      114000000    6,068428233e-02    2,145395149e-03    1,279550325e-02   -7,952902913e-01    0,000000000e+00    0,000000000e+00    0,000000000e+00    0,000000000e+00
      128000000    6,834129989e-02   -4,222247750e-02   -4,080500901e-01   -6,781442761e-01    0,000000000e+00    0,000000000e+00    0,000000000e+00    0,000000000e+00
      142000000    4,348928854e-02   -8,881263435e-02   -7,053251863e-01   -3,608246446e-01    0,000000000e+00    0,000000000e+00    0,000000000e+00    0,000000000e+00
      156000000   -8,807372302e-03   -1,102608815e-01   -7,942906618e-01    6,798531115e-02    0,000000000e+00    0,000000000e+00    0,000000000e+00    0,000000000e+00
      170000000   -6,270130724e-02   -9,181938320e-02   -6,370086670e-01    4,866182208e-01    0,000000000e+00    0,000000000e+00    0,000000000e+00    0,000000000e+00
      184000000   -8,861652017e-02   -4,772485420e-02   -2,733334005e-01    7,564046979e-01    0,000000000e+00    0,000000000e+00    0,000000000e+00    0,000000000e+00
      198000000   -8,276510239e-02   -6,439491641e-03    1,797463149e-01    7,824905515e-01    0,000000000e+00    0,000000000e+00    0,000000000e+00    0,000000000e+00
      212000000   -6,276380271e-02    1,807892881e-02    5,707815289e-01    5,583221912e-01    0,000000000e+00    0,000000000e+00    0,000000000e+00    0,000000000e+00
      226000000   -4,148482531e-02    3,178183734e-02    7,766702771e-01    1,619570702e-01    0,000000000e+00    0,000000000e+00    0,000000000e+00    0,000000000e+00
      240000000   -1,487530489e-02    4,131091759e-02    7,357916236e-01   -2,786077559e-01    0,000000000e+00    0,000000000e+00    0,000000000e+00    0,000000000e+00
      254000000    2,141028270e-02    3,634407371e-02    4,678543508e-01   -6,220780015e-01    0,000000000e+00    0,000000000e+00    0,000000000e+00    0,000000000e+00
      268000000    5,333578214e-02    4,794153851e-03    6,673078239e-02   -7,668670416e-01    0,000000000e+00    0,000000000e+00    0,000000000e+00    0,000000000e+00
      282000000    5,743386224e-02   -4,495331645e-02   -3,456610441e-01   -6,824041009e-01    0,000000000e+00    0,000000000e+00    0,000000000e+00    0,000000000e+00
      296000000    2,608129196e-02   -8,471714705e-02   -6,546939015e-01   -3,978939056e-01    0,000000000e+00    0,000000000e+00    0,000000000e+00    0,000000000e+00
      310000000   -1,884293929e-02   -8,941741288e-02   -7,745672464e-01    1,035316102e-02    0,000000000e+00    0,000000000e+00    0,000000000e+00    0,000000000e+00
      324000000   -4,647735134e-02   -6,350945681e-02   -6,482305527e-01    4,295593798e-01    0,000000000e+00    0,000000000e+00    0,000000000e+00    0,000000000e+00
      338000000   -4,102907330e-02   -3,764015064e-02   -3,098011613e-01    7,097042799e-01    0,000000000e+00    0,000000000e+00    0,000000000e+00    0,000000000e+00
      352000000   -2,359848283e-02   -3,795669973e-02    1,192298308e-01    7,591680884e-01    0,000000000e+00    0,000000000e+00    0,000000000e+00    0,000000000e+00
      366000000   -2,322818898e-02   -5,615666136e-02    5,031191707e-01    5,714887977e-01    0,000000000e+00    0,000000000e+00    0,000000000e+00    0,000000000e+00
      380000000   -4,473287240e-02   -6,532036513e-02    7,261517644e-01    2,114659697e-01    0,000000000e+00    0,000000000e+00    0,000000000e+00    0,000000000e+00
      394000000   -6,637413800e-02   -5,066839233e-02    7,228440642e-01   -2,127413154e-01    0,000000000e+00    0,000000000e+00    0,000000000e+00    0,000000000e+00
      408000000   -6,757447869e-02   -2,627061680e-02    4,890516400e-01   -5,672687888e-01    0,000000000e+00    0,000000000e+00    0,000000000e+00    0,000000000e+00
      422000000   -5,319217220e-02   -1,550562587e-02    1,061085463e-01   -7,381500006e-01    0,000000000e+00    0,000000000e+00    0,000000000e+00    0,000000000e+00
      436000000   -4,641222209e-02   -1,862259023e-02   -3,059151769e-01   -6,758667231e-01    0,000000000e+00    0,000000000e+00    0,000000000e+00    0,000000000e+00
      450000000   -5,180775747e-02   -1,487097051e-02   -6,188452840e-01   -3,990096152e-01    0,000000000e+00    0,000000000e+00    0,000000000e+00    0,000000000e+00
      464000000   -5,053047836e-02    6,099031772e-03   -7,295699120e-01    3,865369363e-03    0,000000000e+00    0,000000000e+00    0,000000000e+00    0,000000000e+00
      478000000   -2,090005018e-02    2,634691820e-02   -5,990923047e-01    3,970200121e-01    0,000000000e+00    0,000000000e+00    0,000000000e+00    0,000000000e+00
      492000000    2,806149423e-02    1,436135266e-02   -2,798358500e-01    6,439481974e-01    0,000000000e+00    0,000000000e+00    0,000000000e+00    0,000000000e+00
      506000000    5,879193917e-02   -3,725324571e-02    1,058980972e-01    6,806789041e-01    0,000000000e+00    0,000000000e+00    0,000000000e+00    0,000000000e+00
      520000000    4,475384206e-02   -1,030274555e-01    4,470285475e-01    5,205829144e-01    0,000000000e+00    0,000000000e+00    0,000000000e+00    0,000000000e+00
      534000000   -1,287985500e-02   -1,433285177e-01    6,488880515e-01    2,060545087e-01    0,000000000e+00    0,000000000e+00    0,000000000e+00    0,000000000e+00
      548000000   -8,118113875e-02   -1,393946111e-01    6,598131061e-01   -1,760047823e-01    0,000000000e+00    0,000000000e+00    0,000000000e+00    0,000000000e+00
      562000000   -1,296802908e-01   -9,841384739e-02    4,526678026e-01   -5,085201263e-01    0,000000000e+00    0,000000000e+00    0,000000000e+00    0,000000000e+00
      576000000   -1,471108049e-01   -4,081013054e-02    8,454270661e-02   -6,633035541e-01    0,000000000e+00    0,000000000e+00    0,000000000e+00    0,000000000e+00
      590000000   -1,317771375e-01    2,368519828e-02   -2,960104942e-01   -5,722413659e-01    0,000000000e+00    0,000000000e+00    0,000000000e+00    0,000000000e+00
      604000000   -5,059682950e-02    6,967338175e-02   -5,025129914e-01   -2,716515660e-01    0,000000000e+00    0,000000000e+00    0,000000000e+00    0,000000000e+00
      618000000    3,985035047e-02   -1,255617756e-02   -4,920513332e-01   -2,904868498e-02    0,000000000e+00    0,000000000e+00    0,000000000e+00    0,000000000e+00
      632000000   -3,859231248e-02   -9,907164425e-02   -5,080617070e-01    1,729362607e-01    0,000000000e+00    0,000000000e+00    0,000000000e+00    0,000000000e+00
      646000000   -1,019199342e-01   -4,321096092e-02   -3,796132803e-01    4,662947059e-01    0,000000000e+00    0,000000000e+00    0,000000000e+00    0,000000000e+00
      660000000   -7,551027089e-02    8,344092406e-03   -5,691953748e-02    6,231101155e-01    0,000000000e+00    0,000000000e+00    0,000000000e+00    0,000000000e+00
      674000000   -3,413950279e-02    7,235206198e-03    2,946180999e-01    5,543693304e-01    0,000000000e+00    0,000000000e+00    0,000000000e+00    0,000000000e+00
      688000000   -1,570602134e-02   -1,535940357e-02    5,459256768e-01    3,061707318e-01    0,000000000e+00    0,000000000e+00    0,000000000e+00    0,000000000e+00
      702000000   -1,324328035e-02   -3,236434981e-02    6,229317188e-01   -3,827045858e-02    0,000000000e+00    0,000000000e+00    0,000000000e+00    0,000000000e+00
      716000000   -8,513783105e-03   -4,808324575e-02    4,942232966e-01   -3,669764400e-01    0,000000000e+00    0,000000000e+00    0,000000000e+00    0,000000000e+00
      730000000   -6,338179577e-03   -7,607977837e-02    2,133989334e-01   -5,683845878e-01    0,000000000e+00    0,000000000e+00    0,000000000e+00    0,000000000e+00
      744000000   -2,557886392e-02   -1,114629582e-01   -1,219322607e-01   -5,895730853e-01    0,000000000e+00    0,000000000e+00    0,000000000e+00    0,000000000e+00
      758000000   -7,482513785e-02   -1,345147043e-01   -4,192394912e-01   -4,345985949e-01    0,000000000e+00    0,000000000e+00    0,000000000e+00    0,000000000e+00
      772000000   -1,361348629e-01   -1,160100102e-01   -5,948711634e-01   -1,421433389e-01    0,000000000e+00    0,000000000e+00    0,000000000e+00    0,000000000e+00
      786000000   -1,729641259e-01   -5,712945387e-02   -5,833308697e-01    2,095408142e-01    0,000000000e+00    0,000000000e+00    0,000000000e+00    0,000000000e+00
      800000000   -1,602420509e-01    7,797436323e-03   -3,738682568e-01    4,963187575e-01    0,000000000e+00    0,000000000e+00    0,000000000e+00    0,000000000e+00
      814000000   -1,135366559e-01    4,353459179e-02   -4,605171457e-02    6,159842014e-01    0,000000000e+00    0,000000000e+00    0,000000000e+00    0,000000000e+00
      828000000   -6,677778810e-02    4,413172603e-02    2,862807512e-01    5,418479443e-01    0,000000000e+00    0,000000000e+00    0,000000000e+00    0,000000000e+00
      842000000   -3,839733824e-02    2,770453319e-02    5,220564008e-01    3,064677417e-01    0,000000000e+00    0,000000000e+00    0,000000000e+00    0,000000000e+00
      856000000   -1,811962947e-02    1,054402813e-02    5,957470536e-01   -1,370223612e-02    0,000000000e+00    0,000000000e+00    0,000000000e+00    0,000000000e+00
      870000000    1,139188535e-04   -1,203515101e-02    4,880360961e-01   -3,180656731e-01    0,000000000e+00    0,000000000e+00    0,000000000e+00    0,000000000e+00
      884000000    1,161700115e-02   -5,131156743e-02    2,430244833e-01   -5,122524500e-01    0,000000000e+00    0,000000000e+00    0,000000000e+00    0,000000000e+00
      898000000   -4,188389517e-03   -9,984397143e-02   -5,962840468e-02   -5,555341840e-01    0,000000000e+00    0,000000000e+00    0,000000000e+00    0,000000000e+00
      912000000   -6,142536178e-02   -1,311315894e-01   -3,914761543e-01   -4,265752733e-01    0,000000000e+00    0,000000000e+00    0,000000000e+00    0,000000000e+00
      926000000   -1,236085445e-01   -1,196199805e-01   -5,667251348e-01   -1,471427083e-01    0,000000000e+00    0,000000000e+00    0,000000000e+00    0,000000000e+00
      940000000   -1,635196954e-01   -6,484824419e-02   -5,699931383e-01    1,923206598e-01    0,000000000e+00    0,000000000e+00    0,000000000e+00    0,000000000e+00
      954000000   -1,487389356e-01    6,231387379e-04   -3,743401468e-01    4,858284891e-01    0,000000000e+00    0,000000000e+00    0,000000000e+00    0,000000000e+00
      968000000   -9,682588279e-02    2,158052661e-02   -5,054380000e-02    6,162498593e-01    0,000000000e+00    0,000000000e+00    0,000000000e+00    0,000000000e+00
      982000000   -5,799017102e-02    4,427756183e-03    2,827309370e-01    5,515444875e-01    0,000000000e+00    0,000000000e+00    0,000000000e+00    0,000000000e+00
      996000000   -4,265646264e-02   -2,986151911e-02    5,238941312e-01    3,260285258e-01    0,000000000e+00    0,000000000e+00    0,000000000e+00    0,000000000e+00
     1010000000   -6,323424727e-02   -6,325842440e-02    6,066292524e-01    1,407636609e-02    0,000000000e+00    0,000000000e+00    0,000000000e+00    0,000000000e+00
     1024000000   -1,029373035e-01   -7,717976719e-02    5,138331056e-01   -2,793110311e-01    0,000000000e+00    0,000000000e+00    0,000000000e+00    0,000000000e+00
     1038000000   -1,401422471e-01   -5,288591981e-02    2,938747108e-01   -4,710658789e-01    0,000000000e+00    0,000000000e+00    0,000000000e+00    0,000000000e+00
     1052000000   -1,481350064e-01   -2,246834338e-03    3,526173532e-02   -5,251959562e-01    0,000000000e+00    0,000000000e+00    0,000000000e+00    0,000000000e+00
     1066000000   -1,008682251e-01    4,012167454e-02   -2,076048553e-01   -4,640381634e-01    0,000000000e+00    0,000000000e+00    0,000000000e+00    0,000000000e+00
     1080000000   -5,284115300e-02    2,862532251e-02   -4,186545610e-01   -2,982713580e-01    0,000000000e+00    0,000000000e+00    0,000000000e+00    0,000000000e+00
     1094000000   -3,571447358e-02   -4,164119251e-03   -5,208447576e-01   -2,285644226e-02    0,000000000e+00    0,000000000e+00    0,000000000e+00    0,000000000e+00
     1108000000   -3,029206768e-02   -3,340872005e-02   -4,420715570e-01    2,886355817e-01    0,000000000e+00    0,000000000e+00    0,000000000e+00    0,000000000e+00
     1122000000   -3,296360001e-02   -6,094446033e-02   -1,878363341e-01    4,957259297e-01    0,000000000e+00    0,000000000e+00    0,000000000e+00    0,000000000e+00
     1136000000   -4,338054359e-02   -9,107001126e-02    1,507160515e-01    5,204299688e-01    0,000000000e+00    0,000000000e+00    0,000000000e+00    0,000000000e+00
     1150000000   -8,070556819e-02   -1,262451261e-01    4,522210360e-01    3,417073190e-01    0,000000000e+00    0,000000000e+00    0,000000000e+00    0,000000000e+00
     1164000000   -1,362600327e-01   -1,228091940e-01    6,138841510e-01    1,236856915e-02    0,000000000e+00    0,000000000e+00    0,000000000e+00    0,000000000e+00
     1178000000   -1,741220057e-01   -8,383590728e-02    5,409523249e-01   -3,713639081e-01    0,000000000e+00    0,000000000e+00    0,000000000e+00    0,000000000e+00
     1192000000   -1,762039363e-01   -5,610237271e-02    2,419009209e-01   -6,407030821e-01    0,000000000e+00    0,000000000e+00    0,000000000e+00    0,000000000e+00
     1206000000   -1,943694353e-01   -5,770734325e-02   -1,380928904e-01   -6,626501679e-01    0,000000000e+00    0,000000000e+00    0,000000000e+00    0,000000000e+00
     1220000000   -2,513304651e-01   -1,307676826e-02   -4,208660722e-01   -4,794825315e-01    0,000000000e+00    0,000000000e+00    0,000000000e+00    0,000000000e+00
     1234000000   -2,419590801e-01    1,110662371e-01   -5,597847104e-01   -2,513947487e-01    0,000000000e+00    0,000000000e+00    0,000000000e+00    0,000000000e+00
     1248000000   -1,123143733e-01    1,712734252e-01   -6,034461260e-01    1,809588633e-02    0,000000000e+00    0,000000000e+00    0,000000000e+00    0,000000000e+00
     1262000000   -1,032326036e-04    1,361073703e-01   -5,059953928e-01    3,005437851e-01    0,000000000e+00    0,000000000e+00    0,000000000e+00    0,000000000e+00
     1276000000    6,065825000e-02    4,451648891e-02   -2,769096196e-01    4,889296293e-01    0,000000000e+00    0,000000000e+00    0,000000000e+00    0,000000000e+00
     1290000000    7,676295191e-02   -7,079824805e-02    1,142982487e-02    5,500196218e-01    0,000000000e+00    0,000000000e+00    0,000000000e+00    0,000000000e+00
     1304000000    1,888180338e-02   -1,798862815e-01    2,940849960e-01    4,804634750e-01    0,000000000e+00    0,000000000e+00    0,000000000e+00    0,000000000e+00
     1318000000   -9,512207657e-02   -2,537265718e-01    5,406606793e-01    2,616021931e-01    0,000000000e+00    0,000000000e+00    0,000000000e+00    0,000000000e+00
     1332000000   -2,395610362e-01   -2,459806502e-01    6,526944637e-01   -5,670047924e-02    0,000000000e+00    0,000000000e+00    0,000000000e+00    0,000000000e+00
     1346000000   -3,631012738e-01   -1,426134109e-01    5,596852899e-01   -4,126838744e-01    0,000000000e+00    0,000000000e+00    0,000000000e+00    0,000000000e+00
     1360000000   -3,810182810e-01    1,247231569e-02    2,631081045e-01   -6,250435114e-01    0,000000000e+00    0,000000000e+00    0,000000000e+00    0,000000000e+00
     1374000000   -3,241472840e-01    1,157089472e-01   -1,031708941e-01   -6,282190681e-01    0,000000000e+00    0,000000000e+00    0,000000000e+00    0,000000000e+00
     1388000000   -2,400791347e-01    1,693107635e-01   -3,771566749e-01   -4,147011042e-01    0,000000000e+00    0,000000000e+00    0,000000000e+00    0,000000000e+00
     1402000000   -1,576276124e-01    1,724257469e-01   -4,804243445e-01   -1,083002910e-01    0,000000000e+00    0,000000000e+00    0,000000000e+00    0,000000000e+00
     1416000000   -8,419600874e-02    1,382565051e-01   -3,912669718e-01    1,941963881e-01    0,000000000e+00    0,000000000e+00    0,000000000e+00    0,000000000e+00
     1430000000   -3,060093336e-02    8,761727065e-02   -1,706008315e-01    4,148342013e-01    0,000000000e+00    0,000000000e+00    0,000000000e+00    0,000000000e+00
     1444000000   -1,191801392e-02    8,316079155e-03    1,214358509e-01    5,235926509e-01    0,000000000e+00    0,000000000e+00    0,000000000e+00    0,000000000e+00
     1458000000   -3,884730116e-02   -8,431284130e-02    4,460774660e-01    4,959705770e-01    0,000000000e+00    0,000000000e+00    0,000000000e+00    0,000000000e+00
     1472000000   -1,144237891e-01   -1,509858817e-01    7,378233075e-01    2,984319031e-01    0,000000000e+00    0,000000000e+00    0,000000000e+00    0,000000000e+00
     1486000000   -2,233619392e-01   -1,402016580e-01    9,092572927e-01   -2,017801069e-02    0,000000000e+00    0,000000000e+00    0,000000000e+00    0,000000000e+00
     1500000000   -3,036814630e-01   -5,683238432e-02    8,477200866e-01   -4,115041792e-01    0,000000000e+00    0,000000000e+00    0,000000000e+00    0,000000000e+00
