! NanoVNA-App
! Date: 2025-09-25 15:00:32
! Start: 100MHz Stop: 1,5GHz Points: 101
! S-Parameter data: F S11 S21 S12 S22
# Hz S RI R 50
!     Frequency           S11_Real           S11_Imag           S21_Real           S21_Imag           S12_Real           S12_Imag           S22_Real           S22_Imag
      100000000    3,557879105e-02    2,735751495e-02    4,407655001e-01   -6,695379019e-01    0,000000000e+00    0,000000000e+00    0,000000000e+00    0,000000000e+00
      114000000    6,070404500e-02    2,185017802e-03    1,299561653e-02   -7,952776551e-01    0,000000000e+00    0,000000000e+00    0,000000000e+00    0,000000000e+00
      128000000    6,834886223e-02   -4,227587581e-02   -4,083466530e-01   -6,781452894e-01    0,000000000e+00    0,000000000e+00    0,000000000e+00    0,000000000e+00
      142000000    4,347287863e-02   -8,877451718e-02   -7,053887248e-01   -3,611020148e-01    0,000000000e+00    0,000000000e+00    0,000000000e+00    0,000000000e+00
      156000000   -9,473304264e-03   -1,094438285e-01   -7,929822803e-01    6,691244245e-02    0,000000000e+00    0,000000000e+00    0,000000000e+00    0,000000000e+00
      170000000   -6,272133440e-02   -9,176340699e-02   -6,370718479e-01    4,865127802e-01    0,000000000e+00    0,000000000e+00    0,000000000e+00    0,000000000e+00
      184000000   -8,857283741e-02   -4,764368758e-02   -2,730938792e-01    7,558351159e-01    0,000000000e+00    0,000000000e+00    0,000000000e+00    0,000000000e+00
      198000000   -8,276630193e-02   -6,459872704e-03    1,797413081e-01    7,824928164e-01    0,000000000e+00    0,000000000e+00    0,000000000e+00    0,000000000e+00
      212000000   -6,274647266e-02    1,800024323e-02    5,704429746e-01    5,582712889e-01    0,000000000e+00    0,000000000e+00    0,000000000e+00    0,000000000e+00
      226000000   -4,143949971e-02    3,185848147e-02    7,768169641e-01    1,618761420e-01    0,000000000e+00    0,000000000e+00    0,000000000e+00    0,000000000e+00
      240000000   -1,490556821e-02    4,133229330e-02    7,360398769e-01   -2,787488699e-01    0,000000000e+00    0,000000000e+00    0,000000000e+00    0,000000000e+00
      254000000    2,137159370e-02    3,634980321e-02    4,681450129e-01   -6,223106980e-01    0,000000000e+00    0,000000000e+00    0,000000000e+00    0,000000000e+00
      268000000    5,325156078e-02    4,735060502e-03    6,690178812e-02   -7,670274973e-01    0,000000000e+00    0,000000000e+00    0,000000000e+00    0,000000000e+00
      282000000    5,740615353e-02   -4,482248798e-02   -3,457283080e-01   -6,827890277e-01    0,000000000e+00    0,000000000e+00    0,000000000e+00    0,000000000e+00
      296000000    2,607355081e-02   -8,461850882e-02   -6,553069353e-01   -3,977809250e-01    0,000000000e+00    0,000000000e+00    0,000000000e+00    0,000000000e+00
      310000000   -1,892683282e-02   -8,947498351e-02   -7,733494043e-01    1,000885293e-02    0,000000000e+00    0,000000000e+00    0,000000000e+00    0,000000000e+00
      324000000   -4,646461830e-02   -6,351492554e-02   -6,479991078e-01    4,299401343e-01    0,000000000e+00    0,000000000e+00    0,000000000e+00    0,000000000e+00
      338000000   -4,116456211e-02   -3,787637129e-02   -3,099864721e-01    7,110670209e-01    0,000000000e+00    0,000000000e+00    0,000000000e+00    0,000000000e+00
      352000000   -2,352717705e-02   -3,809032962e-02    1,187164336e-01    7,588795424e-01    0,000000000e+00    0,000000000e+00    0,000000000e+00    0,000000000e+00
      366000000   -2,300301008e-02   -5,613006279e-02    5,028850436e-01    5,705320835e-01    0,000000000e+00    0,000000000e+00    0,000000000e+00    0,000000000e+00
      380000000   -4,456722736e-02   -6,529473513e-02    7,268685699e-01    2,115495801e-01    0,000000000e+00    0,000000000e+00    0,000000000e+00    0,000000000e+00
      394000000   -6,656803191e-02   -5,071292445e-02    7,227836251e-01   -2,134133577e-01    0,000000000e+00    0,000000000e+00    0,000000000e+00    0,000000000e+00
      408000000   -6,753588468e-02   -2,640169486e-02    4,908827245e-01   -5,690366626e-01    0,000000000e+00    0,000000000e+00    0,000000000e+00    0,000000000e+00
      422000000   -5,315185338e-02   -1,536581200e-02    1,064880937e-01   -7,381861210e-01    0,000000000e+00    0,000000000e+00    0,000000000e+00    0,000000000e+00
      436000000   -4,640364274e-02   -1,863439754e-02   -3,062250316e-01   -6,754481196e-01    0,000000000e+00    0,000000000e+00    0,000000000e+00    0,000000000e+00
      450000000   -5,207150057e-02   -1,497199759e-02   -6,191788912e-01   -4,000290930e-01    0,000000000e+00    0,000000000e+00    0,000000000e+00    0,000000000e+00
      464000000   -5,006445199e-02    5,990328733e-03   -7,297707796e-01    3,419717541e-03    0,000000000e+00    0,000000000e+00    0,000000000e+00    0,000000000e+00
      478000000   -2,015276998e-02    2,637091279e-02   -5,983544588e-01    3,970282376e-01    0,000000000e+00    0,000000000e+00    0,000000000e+00    0,000000000e+00
      492000000    2,805610746e-02    1,463040430e-02   -2,801251411e-01    6,441661716e-01    0,000000000e+00    0,000000000e+00    0,000000000e+00    0,000000000e+00
      506000000    5,910699815e-02   -3,722209111e-02    1,050637215e-01    6,802399755e-01    0,000000000e+00    0,000000000e+00    0,000000000e+00    0,000000000e+00
      520000000    4,438366741e-02   -1,023891866e-01    4,404310882e-01    5,179957151e-01    0,000000000e+00    0,000000000e+00    0,000000000e+00    0,000000000e+00
      534000000   -1,306838077e-02   -1,438473612e-01    6,495504975e-01    2,055480927e-01    0,000000000e+00    0,000000000e+00    0,000000000e+00    0,000000000e+00
      548000000   -8,178619295e-02   -1,396909952e-01    6,596343517e-01   -1,760188043e-01    0,000000000e+00    0,000000000e+00    0,000000000e+00    0,000000000e+00
      562000000   -1,311200857e-01   -9,795776755e-02    4,509086311e-01   -5,080638528e-01    0,000000000e+00    0,000000000e+00    0,000000000e+00    0,000000000e+00
      576000000   -1,494639963e-01   -3,888617083e-02    8,190658689e-02   -6,608885527e-01    0,000000000e+00    0,000000000e+00    0,000000000e+00    0,000000000e+00
      590000000   -1,300076544e-01    2,829683386e-02   -2,939705849e-01   -5,661762953e-01    0,000000000e+00    0,000000000e+00    0,000000000e+00    0,000000000e+00
      604000000   -4,043530673e-02    6,857708097e-02   -4,912797511e-01   -2,706332207e-01    0,000000000e+00    0,000000000e+00    0,000000000e+00    0,000000000e+00
      618000000    3,498053178e-02   -2,733969130e-02   -4,940893650e-01   -4,686705023e-02    0,000000000e+00    0,000000000e+00    0,000000000e+00    0,000000000e+00
      632000000   -5,035138875e-02   -9,411845356e-02   -5,228310227e-01    1,765975505e-01    0,000000000e+00    0,000000000e+00    0,000000000e+00    0,000000000e+00
      646000000   -1,002724320e-01   -3,521056473e-02   -3,797109425e-01    4,752589762e-01    0,000000000e+00    0,000000000e+00    0,000000000e+00    0,000000000e+00
      660000000   -7,063692063e-02    9,156321175e-03   -5,224459991e-02    6,250710487e-01    0,000000000e+00    0,000000000e+00    0,000000000e+00    0,000000000e+00
      674000000   -3,042838722e-02    5,601170007e-03    2,981047928e-01    5,531890988e-01    0,000000000e+00    0,000000000e+00    0,000000000e+00    0,000000000e+00
      688000000   -1,578086615e-02   -1,809150353e-02    5,467165112e-01    3,033174872e-01    0,000000000e+00    0,000000000e+00    0,000000000e+00    0,000000000e+00
      702000000   -1,409959048e-02   -3,346874565e-02    6,228458881e-01   -4,174524546e-02    0,000000000e+00    0,000000000e+00    0,000000000e+00    0,000000000e+00
      716000000   -9,615680203e-03   -4,784792662e-02    4,922102690e-01   -3,675520420e-01    0,000000000e+00    0,000000000e+00    0,000000000e+00    0,000000000e+00
      730000000   -6,358510815e-03   -7,479225099e-02    2,118197829e-01   -5,670247674e-01    0,000000000e+00    0,000000000e+00    0,000000000e+00    0,000000000e+00
      744000000   -2,544718236e-02   -1,105013266e-01   -1,239936948e-01   -5,883067846e-01    0,000000000e+00    0,000000000e+00    0,000000000e+00    0,000000000e+00
      758000000   -7,471504807e-02   -1,327916682e-01   -4,197577536e-01   -4,327629507e-01    0,000000000e+00    0,000000000e+00    0,000000000e+00    0,000000000e+00
      772000000   -1,356413513e-01   -1,165222004e-01   -5,944194198e-01   -1,404228210e-01    0,000000000e+00    0,000000000e+00    0,000000000e+00    0,000000000e+00
      786000000   -1,714157462e-01   -5,879366770e-02   -5,825364590e-01    2,098051906e-01    0,000000000e+00    0,000000000e+00    0,000000000e+00    0,000000000e+00
      800000000   -1,592104286e-01    7,124174386e-03   -3,736447990e-01    4,956130087e-01    0,000000000e+00    0,000000000e+00    0,000000000e+00    0,000000000e+00
      814000000   -1,144008711e-01    4,235890135e-02   -4,603201151e-02    6,143189073e-01    0,000000000e+00    0,000000000e+00    0,000000000e+00    0,000000000e+00
      828000000   -6,800722331e-02    4,397910833e-02    2,863146067e-01    5,392379165e-01    0,000000000e+00    0,000000000e+00    0,000000000e+00    0,000000000e+00
      842000000   -3,839980811e-02    2,936265245e-02    5,213510990e-01    3,049265742e-01    0,000000000e+00    0,000000000e+00    0,000000000e+00    0,000000000e+00
      856000000   -1,849418692e-02    1,187477168e-02    5,946976542e-01   -1,387176383e-02    0,000000000e+00    0,000000000e+00    0,000000000e+00    0,000000000e+00
      870000000    1,651113504e-03   -1,073518395e-02    4,865310192e-01   -3,160449266e-01    0,000000000e+00    0,000000000e+00    0,000000000e+00    0,000000000e+00
      884000000    1,263496466e-02   -5,105072632e-02    2,427431941e-01   -5,118346214e-01    0,000000000e+00    0,000000000e+00    0,000000000e+00    0,000000000e+00
      898000000   -4,136663862e-03   -1,015236005e-01   -5,838073418e-02   -5,544032454e-01    0,000000000e+00    0,000000000e+00    0,000000000e+00    0,000000000e+00
      912000000   -6,242869049e-02   -1,319112182e-01   -3,835792542e-01   -4,256332517e-01    0,000000000e+00    0,000000000e+00    0,000000000e+00    0,000000000e+00
      926000000   -1,247542799e-01   -1,189813763e-01   -5,636140108e-01   -1,504659355e-01    0,000000000e+00    0,000000000e+00    0,000000000e+00    0,000000000e+00
      940000000   -1,647667438e-01   -6,405933946e-02   -5,685032606e-01    1,923962086e-01    0,000000000e+00    0,000000000e+00    0,000000000e+00    0,000000000e+00
      954000000   -1,462835819e-01    6,928287330e-04   -3,731522560e-01    4,859642088e-01    0,000000000e+00    0,000000000e+00    0,000000000e+00    0,000000000e+00
      968000000   -1,000363454e-01    2,098687552e-02   -5,032459274e-02    6,138962507e-01    0,000000000e+00    0,000000000e+00    0,000000000e+00    0,000000000e+00
      982000000   -5,753396824e-02    7,507719100e-03    2,812616229e-01    5,530422926e-01    0,000000000e+00    0,000000000e+00    0,000000000e+00    0,000000000e+00
      996000000   -4,217309505e-02   -3,354223445e-02    5,232149959e-01    3,263500333e-01    0,000000000e+00    0,000000000e+00    0,000000000e+00    0,000000000e+00
     1010000000   -6,468366832e-02   -6,690455973e-02    6,076924801e-01    1,458701491e-02    0,000000000e+00    0,000000000e+00    0,000000000e+00    0,000000000e+00
     1024000000   -1,014419571e-01   -8,022747934e-02    5,141239762e-01   -2,797314525e-01    0,000000000e+00    0,000000000e+00    0,000000000e+00    0,000000000e+00
     1038000000   -1,407632530e-01   -5,926286429e-02    2,971100211e-01   -4,725407660e-01    0,000000000e+00    0,000000000e+00    0,000000000e+00    0,000000000e+00
     1052000000   -1,537566632e-01    7,408938836e-04    3,765943274e-02   -5,229703784e-01    0,000000000e+00    0,000000000e+00    0,000000000e+00    0,000000000e+00
     1066000000   -1,019042060e-01    4,162365943e-02   -2,063380331e-01   -4,673792124e-01    0,000000000e+00    0,000000000e+00    0,000000000e+00    0,000000000e+00
     1080000000   -5,631407350e-02    2,512687258e-02   -4,165782034e-01   -2,980792224e-01    0,000000000e+00    0,000000000e+00    0,000000000e+00    0,000000000e+00
     1094000000   -3,155832738e-02   -3,455103142e-03   -5,206201673e-01   -2,180217206e-02    0,000000000e+00    0,000000000e+00    0,000000000e+00    0,000000000e+00
     1108000000   -3,182278201e-02   -3,501007706e-02   -4,430223703e-01    2,860338688e-01    0,000000000e+00    0,000000000e+00    0,000000000e+00    0,000000000e+00
     1122000000   -3,584797308e-02   -5,604624003e-02   -1,858216673e-01    4,960390925e-01    0,000000000e+00    0,000000000e+00    0,000000000e+00    0,000000000e+00
     1136000000   -4,568508267e-02   -9,490874410e-02    1,537797302e-01    5,214625001e-01    0,000000000e+00    0,000000000e+00    0,000000000e+00    0,000000000e+00
     1150000000   -8,298160881e-02   -1,290418804e-01    4,532319605e-01    3,449407518e-01    0,000000000e+00    0,000000000e+00    0,000000000e+00    0,000000000e+00
     1164000000   -1,414930969e-01   -1,223821267e-01    6,109021306e-01    1,077842433e-02    0,000000000e+00    0,000000000e+00    0,000000000e+00    0,000000000e+00
     1178000000   -1,765911430e-01   -9,146936238e-02    5,382919908e-01   -3,721022904e-01    0,000000000e+00    0,000000000e+00    0,000000000e+00    0,000000000e+00
     1192000000   -1,822413057e-01   -5,268689618e-02    2,392411530e-01   -6,379653811e-01    0,000000000e+00    0,000000000e+00    0,000000000e+00    0,000000000e+00
     1206000000   -1,951518208e-01   -5,643878877e-02   -1,390449405e-01   -6,633911133e-01    0,000000000e+00    0,000000000e+00    0,000000000e+00    0,000000000e+00
     1220000000   -2,536678016e-01   -2,021904290e-02   -4,178844988e-01   -4,868960083e-01    0,000000000e+00    0,000000000e+00    0,000000000e+00    0,000000000e+00
     1234000000   -2,388188243e-01    1,122073904e-01   -5,564290285e-01   -2,482061535e-01    0,000000000e+00    0,000000000e+00    0,000000000e+00    0,000000000e+00
     1248000000   -1,109836996e-01    1,753865927e-01   -6,044323444e-01    1,972479746e-02    0,000000000e+00    0,000000000e+00    0,000000000e+00    0,000000000e+00
     1262000000   -4,688221030e-03    1,312442422e-01   -5,073322058e-01    2,941761613e-01    0,000000000e+00    0,000000000e+00    0,000000000e+00    0,000000000e+00
     1276000000    5,757143721e-02    3,875185549e-02   -2,824135423e-01    4,852880239e-01    0,000000000e+00    0,000000000e+00    0,000000000e+00    0,000000000e+00
     1290000000    6,738878042e-02   -6,943260133e-02    4,234827589e-03    5,500430465e-01    0,000000000e+00    0,000000000e+00    0,000000000e+00    0,000000000e+00
     1304000000    1,573486812e-02   -1,782175750e-01    2,921409905e-01    4,748648703e-01    0,000000000e+00    0,000000000e+00    0,000000000e+00    0,000000000e+00
     1318000000   -9,716769308e-02   -2,552110255e-01    5,347377658e-01    2,712947726e-01    0,000000000e+00    0,000000000e+00    0,000000000e+00    0,000000000e+00
     1332000000   -2,447145879e-01   -2,426747829e-01    6,484108567e-01   -5,169873685e-02    0,000000000e+00    0,000000000e+00    0,000000000e+00    0,000000000e+00
     1346000000   -3,570361733e-01   -1,394563019e-01    5,615963936e-01   -4,085814655e-01    0,000000000e+00    0,000000000e+00    0,000000000e+00    0,000000000e+00
     1360000000   -3,858988583e-01    4,519935232e-03    2,524471283e-01   -6,405733228e-01    0,000000000e+00    0,000000000e+00    0,000000000e+00    0,000000000e+00
     1374000000   -3,257106543e-01    1,230005324e-01   -1,085871384e-01   -6,207298636e-01    0,000000000e+00    0,000000000e+00    0,000000000e+00    0,000000000e+00
     1388000000   -2,370683998e-01    1,690257192e-01   -3,812380731e-01   -4,170719981e-01    0,000000000e+00    0,000000000e+00    0,000000000e+00    0,000000000e+00
     1402000000   -1,567758471e-01    1,761092842e-01   -4,806678295e-01   -1,128818840e-01    0,000000000e+00    0,000000000e+00    0,000000000e+00    0,000000000e+00
     1416000000   -8,475680649e-02    1,414233744e-01   -3,952671885e-01    2,085429728e-01    0,000000000e+00    0,000000000e+00    0,000000000e+00    0,000000000e+00
     1430000000   -3,184260428e-02    8,335387707e-02   -2,006885260e-01    4,224717915e-01    0,000000000e+00    0,000000000e+00    0,000000000e+00    0,000000000e+00
     1444000000   -1,186029986e-02    1,034666877e-02    1,313806474e-01    5,260080695e-01    0,000000000e+00    0,000000000e+00    0,000000000e+00    0,000000000e+00
     1458000000   -4,151884094e-02   -8,326137811e-02    4,312039912e-01    5,150890946e-01    0,000000000e+00    0,000000000e+00    0,000000000e+00    0,000000000e+00
     1472000000   -1,231776252e-01   -1,497092992e-01    7,280820012e-01    2,981067598e-01    0,000000000e+00    0,000000000e+00    0,000000000e+00    0,000000000e+00
     1486000000   -2,256209403e-01   -1,377434880e-01    8,976946473e-01   -2,915941738e-02    0,000000000e+00    0,000000000e+00    0,000000000e+00    0,000000000e+00
     1500000000   -2,993284464e-01   -6,395307183e-02    8,526169062e-01   -4,241055250e-01    0,000000000e+00    0,000000000e+00    0,000000000e+00    0,000000000e+00
