! NanoVNA-App
! Date: 2025-09-25 14:56:21
! Start: 100MHz Stop: 1,5GHz Points: 101
! S-Parameter data: F S11 S21 S12 S22
# Hz S RI R 50
!     Frequency           S11_Real           S11_Imag           S21_Real           S21_Imag           S12_Real           S12_Imag           S22_Real           S22_Imag
      100000000    3,561359271e-02    2,700134739e-02    4,406805038e-01   -6,696375608e-01    0,000000000e+00    0,000000000e+00    0,000000000e+00    0,000000000e+00
      114000000    6,052468345e-02    1,772844931e-03    1,281196252e-02   -7,956308722e-01    0,000000000e+00    0,000000000e+00    0,000000000e+00    0,000000000e+00
      128000000    6,791814417e-02   -4,257607833e-02   -4,082522690e-01   -6,781082153e-01    0,000000000e+00    0,000000000e+00    0,000000000e+00    0,000000000e+00
      142000000    4,281245545e-02   -8,890531212e-02   -7,052777410e-01   -3,607736826e-01    0,000000000e+00    0,000000000e+00    0,000000000e+00    0,000000000e+00
      156000000   -9,350798093e-03   -1,101194248e-01   -7,943599820e-01    6,858926266e-02    0,000000000e+00    0,000000000e+00    0,000000000e+00    0,000000000e+00
      170000000   -6,328035146e-02   -9,098489583e-02   -6,368383765e-01    4,868334830e-01    0,000000000e+00    0,000000000e+00    0,000000000e+00    0,000000000e+00
      184000000   -8,870858699e-02   -4,657989368e-02   -2,727174759e-01    7,565970421e-01    0,000000000e+00    0,000000000e+00    0,000000000e+00    0,000000000e+00
      198000000   -8,218780160e-02   -5,421513226e-03    1,799272001e-01    7,824637294e-01    0,000000000e+00    0,000000000e+00    0,000000000e+00    0,000000000e+00
      212000000   -6,158188358e-02    1,857520081e-02    5,708258152e-01    5,580909252e-01    0,000000000e+00    0,000000000e+00    0,000000000e+00    0,000000000e+00
      226000000   -4,010646790e-02    3,168325126e-02    7,766161561e-01    1,616115570e-01    0,000000000e+00    0,000000000e+00    0,000000000e+00    0,000000000e+00
      240000000   -1,374493446e-02    4,044365883e-02    7,359862328e-01   -2,789175510e-01    0,000000000e+00    0,000000000e+00    0,000000000e+00    0,000000000e+00
      254000000    2,190176211e-02    3,490014374e-02    4,678817689e-01   -6,222849488e-01    0,000000000e+00    0,000000000e+00    0,000000000e+00    0,000000000e+00
      268000000    5,298561230e-02    3,171184333e-03    6,695219129e-02   -7,672773004e-01    0,000000000e+00    0,000000000e+00    0,000000000e+00    0,000000000e+00
      282000000    5,622447655e-02   -4,610580578e-02   -3,455764949e-01   -6,822794080e-01    0,000000000e+00    0,000000000e+00    0,000000000e+00    0,000000000e+00
      296000000    2,428217605e-02   -8,520156890e-02   -6,553709507e-01   -3,975481689e-01    0,000000000e+00    0,000000000e+00    0,000000000e+00    0,000000000e+00
      310000000   -2,068988048e-02   -8,895466477e-02   -7,751163244e-01    1,069676224e-02    0,000000000e+00    0,000000000e+00    0,000000000e+00    0,000000000e+00
      324000000   -4,791735485e-02   -6,202085316e-02   -6,477081776e-01    4,301328659e-01    0,000000000e+00    0,000000000e+00    0,000000000e+00    0,000000000e+00
      338000000   -4,144857451e-02   -3,585375473e-02   -3,116940260e-01    7,089102268e-01    0,000000000e+00    0,000000000e+00    0,000000000e+00    0,000000000e+00
      352000000   -2,241306938e-02   -3,579152748e-02    1,202272698e-01    7,602111697e-01    0,000000000e+00    0,000000000e+00    0,000000000e+00    0,000000000e+00
      366000000   -2,162406780e-02   -5,477876961e-02    5,027015805e-01    5,713768005e-01    0,000000000e+00    0,000000000e+00    0,000000000e+00    0,000000000e+00
      380000000   -4,246705398e-02   -6,515289098e-02    7,261910439e-01    2,108980417e-01    0,000000000e+00    0,000000000e+00    0,000000000e+00    0,000000000e+00
      394000000   -6,439597160e-02   -5,145209283e-02    7,227775455e-01   -2,135618478e-01    0,000000000e+00    0,000000000e+00    0,000000000e+00    0,000000000e+00
      408000000   -6,673184782e-02   -2,788817324e-02    4,891142249e-01   -5,695689321e-01    0,000000000e+00    0,000000000e+00    0,000000000e+00    0,000000000e+00
      422000000   -5,308804289e-02   -1,673617586e-02    1,049300358e-01   -7,386696339e-01    0,000000000e+00    0,000000000e+00    0,000000000e+00    0,000000000e+00
      436000000   -4,738211632e-02   -2,053323761e-02   -3,065365851e-01   -6,763876081e-01    0,000000000e+00    0,000000000e+00    0,000000000e+00    0,000000000e+00
      450000000   -5,351173878e-02   -1,603189111e-02   -6,194664836e-01   -3,991431594e-01    0,000000000e+00    0,000000000e+00    0,000000000e+00    0,000000000e+00
      464000000   -5,240844563e-02    5,458634347e-03   -7,298485041e-01    3,092952073e-03    0,000000000e+00    0,000000000e+00    0,000000000e+00    0,000000000e+00
      478000000   -2,274830826e-02    2,735745907e-02   -5,995252728e-01    3,972761929e-01    0,000000000e+00    0,000000000e+00    0,000000000e+00    0,000000000e+00
      492000000    2,674459480e-02    1,660453714e-02   -2,809431553e-01    6,445942521e-01    0,000000000e+00    0,000000000e+00    0,000000000e+00    0,000000000e+00
      506000000    5,810813606e-02   -3,498066589e-02    1,051242501e-01    6,814962029e-01    0,000000000e+00    0,000000000e+00    0,000000000e+00    0,000000000e+00
      520000000    4,487955198e-02   -1,002015397e-01    4,462416172e-01    5,211837292e-01    0,000000000e+00    0,000000000e+00    0,000000000e+00    0,000000000e+00
      534000000   -1,025496330e-02   -1,418088078e-01    6,508343220e-01    2,069147527e-01    0,000000000e+00    0,000000000e+00    0,000000000e+00    0,000000000e+00
      548000000   -7,715135068e-02   -1,390843987e-01    6,627498865e-01   -1,753143519e-01    0,000000000e+00    0,000000000e+00    0,000000000e+00    0,000000000e+00
      562000000   -1,255673021e-01   -1,019660458e-01    4,560852945e-01   -5,109094977e-01    0,000000000e+00    0,000000000e+00    0,000000000e+00    0,000000000e+00
      576000000   -1,474632025e-01   -4,917170480e-02    8,691050112e-02   -6,694863439e-01    0,000000000e+00    0,000000000e+00    0,000000000e+00    0,000000000e+00
      590000000   -1,447693259e-01    1,514793467e-02   -3,077028394e-01   -5,834890008e-01    0,000000000e+00    0,000000000e+00    0,000000000e+00    0,000000000e+00
      604000000   -7,264188677e-02    9,143034369e-02   -5,322524309e-01   -2,526105046e-01    0,000000000e+00    0,000000000e+00    0,000000000e+00    0,000000000e+00
      618000000    8,631374687e-02    1,316831913e-02   -4,424183071e-01    8,465661667e-03    0,000000000e+00    0,000000000e+00    0,000000000e+00    0,000000000e+00
      632000000   -3,687228635e-02   -1,438212246e-01   -5,033814907e-01    1,207897067e-01    0,000000000e+00    0,000000000e+00    0,000000000e+00    0,000000000e+00
      646000000   -1,267249435e-01   -4,483704269e-02   -4,089558721e-01    4,649463892e-01    0,000000000e+00    0,000000000e+00    0,000000000e+00    0,000000000e+00
      660000000   -8,187303692e-02    2,007681318e-02   -6,481244415e-02    6,378495097e-01    0,000000000e+00    0,000000000e+00    0,000000000e+00    0,000000000e+00
      674000000   -3,065244853e-02    1,462389994e-02    3,007225394e-01    5,648681521e-01    0,000000000e+00    0,000000000e+00    0,000000000e+00    0,000000000e+00
      688000000   -9,988185018e-03   -1,268307492e-02    5,540650487e-01    3,085476160e-01    0,000000000e+00    0,000000000e+00    0,000000000e+00    0,000000000e+00
      702000000   -8,903378621e-03   -3,382429853e-02    6,267538071e-01   -4,442081973e-02    0,000000000e+00    0,000000000e+00    0,000000000e+00    0,000000000e+00
      716000000   -5,892839283e-03   -5,057398975e-02    4,968586266e-01   -3,729276955e-01    0,000000000e+00    0,000000000e+00    0,000000000e+00    0,000000000e+00
      730000000   -6,698166020e-03   -7,744994015e-02    2,122765779e-01   -5,746203065e-01    0,000000000e+00    0,000000000e+00    0,000000000e+00    0,000000000e+00
      744000000   -2,679876797e-02   -1,141731814e-01   -1,258383840e-01   -5,943789482e-01    0,000000000e+00    0,000000000e+00    0,000000000e+00    0,000000000e+00
      758000000   -7,867338508e-02   -1,343446672e-01   -4,265827537e-01   -4,363374710e-01    0,000000000e+00    0,000000000e+00    0,000000000e+00    0,000000000e+00
      772000000   -1,386475414e-01   -1,140101179e-01   -6,023117900e-01   -1,386327744e-01    0,000000000e+00    0,000000000e+00    0,000000000e+00    0,000000000e+00
      786000000   -1,738141179e-01   -5,531842634e-02   -5,870541930e-01    2,163596004e-01    0,000000000e+00    0,000000000e+00    0,000000000e+00    0,000000000e+00
      800000000   -1,578607857e-01    1,094807126e-02   -3,733582199e-01    5,052859783e-01    0,000000000e+00    0,000000000e+00    0,000000000e+00    0,000000000e+00
      814000000   -1,092104241e-01    4,461171478e-02   -4,007737711e-02    6,222558618e-01    0,000000000e+00    0,000000000e+00    0,000000000e+00    0,000000000e+00
      828000000   -6,408558786e-02    4,190140218e-02    2,951583564e-01    5,433354974e-01    0,000000000e+00    0,000000000e+00    0,000000000e+00    0,000000000e+00
      842000000   -3,638542444e-02    2,398402803e-02    5,302592516e-01    3,030821979e-01    0,000000000e+00    0,000000000e+00    0,000000000e+00    0,000000000e+00
      856000000   -1,963228174e-02    7,577501703e-03    6,020781994e-01   -2,231600508e-02    0,000000000e+00    0,000000000e+00    0,000000000e+00    0,000000000e+00
      870000000   -1,083276235e-03   -1,414879598e-02    4,879828990e-01   -3,294888437e-01    0,000000000e+00    0,000000000e+00    0,000000000e+00    0,000000000e+00
      884000000    9,007368237e-03   -5,170569941e-02    2,353298217e-01   -5,243053436e-01    0,000000000e+00    0,000000000e+00    0,000000000e+00    0,000000000e+00
      898000000   -6,793888286e-03   -1,005076766e-01   -7,212882489e-02   -5,622815490e-01    0,000000000e+00    0,000000000e+00    0,000000000e+00    0,000000000e+00
      912000000   -6,528298557e-02   -1,308497787e-01   -4,014862180e-01   -4,229775369e-01    0,000000000e+00    0,000000000e+00    0,000000000e+00    0,000000000e+00
      926000000   -1,276202947e-01   -1,151186973e-01   -5,776813030e-01   -1,322253048e-01    0,000000000e+00    0,000000000e+00    0,000000000e+00    0,000000000e+00
      940000000   -1,666693836e-01   -5,954794213e-02   -5,712797642e-01    2,162592709e-01    0,000000000e+00    0,000000000e+00    0,000000000e+00    0,000000000e+00
      954000000   -1,469067782e-01    3,926625475e-03   -3,569941819e-01    5,049732924e-01    0,000000000e+00    0,000000000e+00    0,000000000e+00    0,000000000e+00
      968000000   -9,378523380e-02    3,223719820e-02   -2,197193541e-02    6,206263900e-01    0,000000000e+00    0,000000000e+00    0,000000000e+00    0,000000000e+00
      982000000   -4,204360768e-02    8,807692677e-03    3,115928173e-01    5,315500498e-01    0,000000000e+00    0,000000000e+00    0,000000000e+00    0,000000000e+00
      996000000   -2,947976440e-02   -3,877048194e-02    5,305662751e-01    2,865864038e-01    0,000000000e+00    0,000000000e+00    0,000000000e+00    0,000000000e+00
     1010000000   -4,933454096e-02   -8,127392828e-02    5,745424032e-01   -1,934613101e-02    0,000000000e+00    0,000000000e+00    0,000000000e+00    0,000000000e+00
     1024000000   -1,065530851e-01   -1,069224253e-01    4,671290815e-01   -2,711177766e-01    0,000000000e+00    0,000000000e+00    0,000000000e+00    0,000000000e+00
     1038000000   -1,736937761e-01   -6,571662426e-02    2,887584865e-01   -4,318426549e-01    0,000000000e+00    0,000000000e+00    0,000000000e+00    0,000000000e+00
     1052000000   -1,684943289e-01    1,656065136e-02    5,692945048e-02   -5,174535513e-01    0,000000000e+00    0,000000000e+00    0,000000000e+00    0,000000000e+00
     1066000000   -1,132179201e-01    5,833091587e-02   -2,066599727e-01   -4,749707580e-01    0,000000000e+00    0,000000000e+00    0,000000000e+00    0,000000000e+00
     1080000000   -5,846086517e-02    4,729163274e-02   -4,247497022e-01   -2,861438096e-01    0,000000000e+00    0,000000000e+00    0,000000000e+00    0,000000000e+00
     1094000000   -2,114122547e-02    1,157532353e-02   -5,018496513e-01   -3,661766183e-03    0,000000000e+00    0,000000000e+00    0,000000000e+00    0,000000000e+00
     1108000000   -8,138726465e-03   -2,599824779e-02   -4,126185179e-01    2,742723525e-01    0,000000000e+00    0,000000000e+00    0,000000000e+00    0,000000000e+00
     1122000000   -8,999666199e-03   -7,191422582e-02   -1,776037514e-01    4,663236737e-01    0,000000000e+00    0,000000000e+00    0,000000000e+00    0,000000000e+00
     1136000000   -3,695334494e-02   -1,099959388e-01    1,356150806e-01    4,999926388e-01    0,000000000e+00    0,000000000e+00    0,000000000e+00    0,000000000e+00
     1150000000   -8,490156382e-02   -1,392107755e-01    4,317961931e-01    3,396988213e-01    0,000000000e+00    0,000000000e+00    0,000000000e+00    0,000000000e+00
     1164000000   -1,452957392e-01   -1,283115596e-01    5,950113535e-01    2,148212492e-02    0,000000000e+00    0,000000000e+00    0,000000000e+00    0,000000000e+00
     1178000000   -1,874291152e-01   -9,389150888e-02    5,317852497e-01   -3,592242002e-01    0,000000000e+00    0,000000000e+00    0,000000000e+00    0,000000000e+00
     1192000000   -1,944645196e-01   -5,178904533e-02    2,462857068e-01   -6,290251613e-01    0,000000000e+00    0,000000000e+00    0,000000000e+00    0,000000000e+00
     1206000000   -1,995608658e-01   -4,776010290e-02   -1,313287616e-01   -6,637370586e-01    0,000000000e+00    0,000000000e+00    0,000000000e+00    0,000000000e+00
     1220000000   -2,471043020e-01   -8,993429132e-03   -4,213067293e-01   -4,852424860e-01    0,000000000e+00    0,000000000e+00    0,000000000e+00    0,000000000e+00
     1234000000   -2,316219807e-01    1,173988879e-01   -5,545548797e-01   -2,444653213e-01    0,000000000e+00    0,000000000e+00    0,000000000e+00    0,000000000e+00
     1248000000   -1,114004776e-01    1,792363822e-01   -5,940510631e-01    2,249298617e-02    0,000000000e+00    0,000000000e+00    0,000000000e+00    0,000000000e+00
     1262000000    2,677563578e-03    1,344433427e-01   -4,985687137e-01    2,907814980e-01    0,000000000e+00    0,000000000e+00    0,000000000e+00    0,000000000e+00
     1276000000    6,622093916e-02    3,927725554e-02   -2,756158412e-01    4,807626307e-01    0,000000000e+00    0,000000000e+00    0,000000000e+00    0,000000000e+00
     1290000000    7,877241075e-02   -7,217110693e-02    9,541871026e-03    5,357049704e-01    0,000000000e+00    0,000000000e+00    0,000000000e+00    0,000000000e+00
     1304000000    2,551279590e-02   -1,842826605e-01    2,949805558e-01    4,705474079e-01    0,000000000e+00    0,000000000e+00    0,000000000e+00    0,000000000e+00
     1318000000   -9,337813407e-02   -2,594428062e-01    5,287086964e-01    2,619120181e-01    0,000000000e+00    0,000000000e+00    0,000000000e+00    0,000000000e+00
     1332000000   -2,448113263e-01   -2,512042522e-01    6,420912743e-01   -5,261355639e-02    0,000000000e+00    0,000000000e+00    0,000000000e+00    0,000000000e+00
     1346000000   -3,691431880e-01   -1,399488300e-01    5,462252498e-01   -4,025083780e-01    0,000000000e+00    0,000000000e+00    0,000000000e+00    0,000000000e+00
     1360000000   -3,895609081e-01    2,535874024e-03    2,581110299e-01   -6,303886175e-01    0,000000000e+00    0,000000000e+00    0,000000000e+00    0,000000000e+00
     1374000000   -3,338056505e-01    1,189140677e-01   -1,031291783e-01   -6,157665253e-01    0,000000000e+00    0,000000000e+00    0,000000000e+00    0,000000000e+00
     1388000000   -2,428680956e-01    1,722033024e-01   -3,699902594e-01   -4,138299227e-01    0,000000000e+00    0,000000000e+00    0,000000000e+00    0,000000000e+00
     1402000000   -1,589537710e-01    1,773662418e-01   -4,719530344e-01   -1,050831154e-01    0,000000000e+00    0,000000000e+00    0,000000000e+00    0,000000000e+00
     1416000000   -8,360906690e-02    1,521159559e-01   -3,860062063e-01    2,108795643e-01    0,000000000e+00    0,000000000e+00    0,000000000e+00    0,000000000e+00
     1430000000   -2,392780595e-02    9,326775372e-02   -1,540857553e-01    4,069440067e-01    0,000000000e+00    0,000000000e+00    0,000000000e+00    0,000000000e+00
     1444000000   -8,682635613e-03    7,300271187e-03    1,142141595e-01    5,076178312e-01    0,000000000e+00    0,000000000e+00    0,000000000e+00    0,000000000e+00
     1458000000   -3,313319385e-02   -8,712943643e-02    4,363510013e-01    4,785257578e-01    0,000000000e+00    0,000000000e+00    0,000000000e+00    0,000000000e+00
     1472000000   -1,059547886e-01   -1,495334506e-01    7,265045643e-01    2,969938517e-01    0,000000000e+00    0,000000000e+00    0,000000000e+00    0,000000000e+00
     1486000000   -2,210342884e-01   -1,423622370e-01    8,721258044e-01   -4,110193625e-02    0,000000000e+00    0,000000000e+00    0,000000000e+00    0,000000000e+00
     1500000000   -2,953144908e-01   -7,354765385e-02    8,326745629e-01   -4,041472077e-01    0,000000000e+00    0,000000000e+00    0,000000000e+00    0,000000000e+00
