! NanoVNA-App
! Date: 2025-09-25 15:01:27
! Start: 100MHz Stop: 1,5GHz Points: 101
! S-Parameter data: F S11 S21 S12 S22
# Hz S RI R 50
!     Frequency           S11_Real           S11_Imag           S21_Real           S21_Imag           S12_Real           S12_Imag           S22_Real           S22_Imag
      100000000    3,557172790e-02    2,736865915e-02    4,407452643e-01   -6,695374846e-01    0,000000000e+00    0,000000000e+00    0,000000000e+00    0,000000000e+00
      114000000    6,071652099e-02    2,153997775e-03    1,276681852e-02   -7,954452634e-01    0,000000000e+00    0,000000000e+00    0,000000000e+00    0,000000000e+00
      128000000    6,841915846e-02   -4,228300601e-02   -4,083454609e-01   -6,782645583e-01    0,000000000e+00    0,000000000e+00    0,000000000e+00    0,000000000e+00
      142000000    4,347166419e-02   -8,877612650e-02   -7,050350904e-01   -3,609592021e-01    0,000000000e+00    0,000000000e+00    0,000000000e+00    0,000000000e+00
      156000000   -9,317680262e-03   -1,097103581e-01   -7,934859991e-01    6,712660193e-02    0,000000000e+00    0,000000000e+00    0,000000000e+00    0,000000000e+00
      170000000   -6,263001263e-02   -9,174175560e-02   -6,370301247e-01    4,864446223e-01    0,000000000e+00    0,000000000e+00    0,000000000e+00    0,000000000e+00
      184000000   -8,855782449e-02   -4,766089842e-02   -2,731088400e-01    7,562663555e-01    0,000000000e+00    0,000000000e+00    0,000000000e+00    0,000000000e+00
      198000000   -8,276015520e-02   -6,405368913e-03    1,795817167e-01    7,824088335e-01    0,000000000e+00    0,000000000e+00    0,000000000e+00    0,000000000e+00
      212000000   -6,272602826e-02    1,799922436e-02    5,708357692e-01    5,586423278e-01    0,000000000e+00    0,000000000e+00    0,000000000e+00    0,000000000e+00
      226000000   -4,149132594e-02    3,177873045e-02    7,767782211e-01    1,618849933e-01    0,000000000e+00    0,000000000e+00    0,000000000e+00    0,000000000e+00
      240000000   -1,489465032e-02    4,129540920e-02    7,360512614e-01   -2,786616683e-01    0,000000000e+00    0,000000000e+00    0,000000000e+00    0,000000000e+00
      254000000    2,141890861e-02    3,632096201e-02    4,676700532e-01   -6,219730973e-01    0,000000000e+00    0,000000000e+00    0,000000000e+00    0,000000000e+00
      268000000    5,336519703e-02    4,764686804e-03    6,660146266e-02   -7,674016356e-01    0,000000000e+00    0,000000000e+00    0,000000000e+00    0,000000000e+00
      282000000    5,743134394e-02   -4,486888275e-02   -3,453445137e-01   -6,827107072e-01    0,000000000e+00    0,000000000e+00    0,000000000e+00    0,000000000e+00
      296000000    2,605737559e-02   -8,461143821e-02   -6,554668546e-01   -3,976448476e-01    0,000000000e+00    0,000000000e+00    0,000000000e+00    0,000000000e+00
      310000000   -1,874427684e-02   -8,929252625e-02   -7,744266987e-01    1,125186123e-02    0,000000000e+00    0,000000000e+00    0,000000000e+00    0,000000000e+00
      324000000   -4,653350636e-02   -6,345887482e-02   -6,478685737e-01    4,292812049e-01    0,000000000e+00    0,000000000e+00    0,000000000e+00    0,000000000e+00
      338000000   -4,107230529e-02   -3,779243305e-02   -3,091813028e-01    7,107416391e-01    0,000000000e+00    0,000000000e+00    0,000000000e+00    0,000000000e+00
      352000000   -2,343788370e-02   -3,783977032e-02    1,190984696e-01    7,584592104e-01    0,000000000e+00    0,000000000e+00    0,000000000e+00    0,000000000e+00
      366000000   -2,274569869e-02   -5,603549629e-02    5,038709044e-01    5,718958378e-01    0,000000000e+00    0,000000000e+00    0,000000000e+00    0,000000000e+00
      380000000   -4,469387233e-02   -6,514967233e-02    7,263993621e-01    2,117142975e-01    0,000000000e+00    0,000000000e+00    0,000000000e+00    0,000000000e+00
      394000000   -6,664649397e-02   -5,079436302e-02    7,226495147e-01   -2,136252671e-01    0,000000000e+00    0,000000000e+00    0,000000000e+00    0,000000000e+00
      408000000   -6,750911474e-02   -2,613536827e-02    4,894305170e-01   -5,693451166e-01    0,000000000e+00    0,000000000e+00    0,000000000e+00    0,000000000e+00
      422000000   -5,324668065e-02   -1,520837378e-02    1,059930176e-01   -7,388311028e-01    0,000000000e+00    0,000000000e+00    0,000000000e+00    0,000000000e+00
      436000000   -4,611063004e-02   -1,880009845e-02   -3,066391647e-01   -6,762340665e-01    0,000000000e+00    0,000000000e+00    0,000000000e+00    0,000000000e+00
      450000000   -5,193794891e-02   -1,531881373e-02   -6,190547943e-01   -3,997513950e-01    0,000000000e+00    0,000000000e+00    0,000000000e+00    0,000000000e+00
      464000000   -5,026679859e-02    5,726103205e-03   -7,300730944e-01    2,983702580e-03    0,000000000e+00    0,000000000e+00    0,000000000e+00    0,000000000e+00
      478000000   -2,051041462e-02    2,629693411e-02   -5,984646678e-01    3,974147737e-01    0,000000000e+00    0,000000000e+00    0,000000000e+00    0,000000000e+00
      492000000    2,801051177e-02    1,494637597e-02   -2,800779641e-01    6,441201568e-01    0,000000000e+00    0,000000000e+00    0,000000000e+00    0,000000000e+00
      506000000    5,874365196e-02   -3,743604571e-02    1,048259959e-01    6,799512506e-01    0,000000000e+00    0,000000000e+00    0,000000000e+00    0,000000000e+00
      520000000    4,336478189e-02   -1,024452448e-01    4,414406121e-01    5,146049857e-01    0,000000000e+00    0,000000000e+00    0,000000000e+00    0,000000000e+00
      534000000   -1,260151435e-02   -1,433386505e-01    6,494336128e-01    2,068443745e-01    0,000000000e+00    0,000000000e+00    0,000000000e+00    0,000000000e+00
      548000000   -8,125217259e-02   -1,392446309e-01    6,602103710e-01   -1,750112027e-01    0,000000000e+00    0,000000000e+00    0,000000000e+00    0,000000000e+00
      562000000   -1,300495118e-01   -9,819915146e-02    4,523608983e-01   -5,082034469e-01    0,000000000e+00    0,000000000e+00    0,000000000e+00    0,000000000e+00
      576000000   -1,478348672e-01   -4,085751995e-02    8,430497348e-02   -6,619767547e-01    0,000000000e+00    0,000000000e+00    0,000000000e+00    0,000000000e+00
      590000000   -1,314992011e-01    2,360631153e-02   -2,961387634e-01   -5,687567592e-01    0,000000000e+00    0,000000000e+00    0,000000000e+00    0,000000000e+00
      604000000   -5,066089332e-02    6,960765272e-02   -5,033828020e-01   -2,720400095e-01    0,000000000e+00    0,000000000e+00    0,000000000e+00    0,000000000e+00
      618000000    3,979768604e-02   -1,242757495e-02   -4,922068715e-01   -2,888644673e-02    0,000000000e+00    0,000000000e+00    0,000000000e+00    0,000000000e+00
      632000000   -3,824821115e-02   -9,814380109e-02   -5,084853172e-01    1,734551638e-01    0,000000000e+00    0,000000000e+00    0,000000000e+00    0,000000000e+00
      646000000   -1,014186516e-01   -4,409947246e-02   -3,802913725e-01    4,658684433e-01    0,000000000e+00    0,000000000e+00    0,000000000e+00    0,000000000e+00
      660000000   -7,544615865e-02    7,856768556e-03   -5,828414112e-02    6,232323050e-01    0,000000000e+00    0,000000000e+00    0,000000000e+00    0,000000000e+00
      674000000   -3,415862843e-02    7,066342980e-03    2,947236300e-01    5,547979474e-01    0,000000000e+00    0,000000000e+00    0,000000000e+00    0,000000000e+00
      688000000   -1,563779637e-02   -1,534685865e-02    5,458817482e-01    3,065703213e-01    0,000000000e+00    0,000000000e+00    0,000000000e+00    0,000000000e+00
      702000000   -1,178842038e-02   -3,291918337e-02    6,185817719e-01   -4,008216783e-02    0,000000000e+00    0,000000000e+00    0,000000000e+00    0,000000000e+00
      716000000   -8,515128866e-03   -4,841536656e-02    4,937974215e-01   -3,662908971e-01    0,000000000e+00    0,000000000e+00    0,000000000e+00    0,000000000e+00
      730000000   -5,544275511e-03   -7,486839592e-02    2,132145464e-01   -5,674246550e-01    0,000000000e+00    0,000000000e+00    0,000000000e+00    0,000000000e+00
      744000000   -2,516274154e-02   -1,128271744e-01   -1,224362478e-01   -5,892776251e-01    0,000000000e+00    0,000000000e+00    0,000000000e+00    0,000000000e+00
      758000000   -7,500913739e-02   -1,345927417e-01   -4,188837111e-01   -4,345707595e-01    0,000000000e+00    0,000000000e+00    0,000000000e+00    0,000000000e+00
      772000000   -1,360881478e-01   -1,163954958e-01   -5,948113799e-01   -1,414227039e-01    0,000000000e+00    0,000000000e+00    0,000000000e+00    0,000000000e+00
      786000000   -1,727395654e-01   -5,737631768e-02   -5,835201740e-01    2,091591954e-01    0,000000000e+00    0,000000000e+00    0,000000000e+00    0,000000000e+00
      800000000   -1,600836664e-01    8,692185394e-03   -3,736464679e-01    4,970787466e-01    0,000000000e+00    0,000000000e+00    0,000000000e+00    0,000000000e+00
      814000000   -1,131939739e-01    4,399861395e-02   -4,563175887e-02    6,165991426e-01    0,000000000e+00    0,000000000e+00    0,000000000e+00    0,000000000e+00
      828000000   -6,707988679e-02    4,419802129e-02    2,872017324e-01    5,416274667e-01    0,000000000e+00    0,000000000e+00    0,000000000e+00    0,000000000e+00
      842000000   -3,775899857e-02    2,845774405e-02    5,221501589e-01    3,066085875e-01    0,000000000e+00    0,000000000e+00    0,000000000e+00    0,000000000e+00
      856000000   -1,836365089e-02    1,114613842e-02    5,962085128e-01   -1,384678204e-02    0,000000000e+00    0,000000000e+00    0,000000000e+00    0,000000000e+00
      870000000    4,219543771e-04   -1,176944096e-02    4,878982008e-01   -3,178026378e-01    0,000000000e+00    0,000000000e+00    0,000000000e+00    0,000000000e+00
      884000000    1,167945564e-02   -5,043458566e-02    2,427365184e-01   -5,135974884e-01    0,000000000e+00    0,000000000e+00    0,000000000e+00    0,000000000e+00
      898000000   -3,619826166e-03   -1,001935750e-01   -5,950111523e-02   -5,563527942e-01    0,000000000e+00    0,000000000e+00    0,000000000e+00    0,000000000e+00
      912000000   -6,169135123e-02   -1,308609247e-01   -3,982323110e-01   -4,155484438e-01    0,000000000e+00    0,000000000e+00    0,000000000e+00    0,000000000e+00
      926000000   -1,257861406e-01   -1,190317124e-01   -5,697243214e-01   -1,481468081e-01    0,000000000e+00    0,000000000e+00    0,000000000e+00    0,000000000e+00
      940000000   -1,645332426e-01   -6,490780413e-02   -5,698453784e-01    1,922888905e-01    0,000000000e+00    0,000000000e+00    0,000000000e+00    0,000000000e+00
      954000000   -1,480849534e-01   -5,191970617e-03   -3,743360639e-01    4,830684066e-01    0,000000000e+00    0,000000000e+00    0,000000000e+00    0,000000000e+00
      968000000   -1,010660157e-01    2,364501730e-02   -4,997673631e-02    6,155656576e-01    0,000000000e+00    0,000000000e+00    0,000000000e+00    0,000000000e+00
      982000000   -5,365040898e-02    6,620326079e-03    2,822091877e-01    5,510112047e-01    0,000000000e+00    0,000000000e+00    0,000000000e+00    0,000000000e+00
      996000000   -4,456631467e-02   -3,433278576e-02    5,247094631e-01    3,265926540e-01    0,000000000e+00    0,000000000e+00    0,000000000e+00    0,000000000e+00
     1010000000   -6,046466529e-02   -6,717496365e-02    6,069500446e-01    1,401439495e-02    0,000000000e+00    0,000000000e+00    0,000000000e+00    0,000000000e+00
     1024000000   -1,024674252e-01   -7,749940455e-02    5,121835470e-01   -2,833389640e-01    0,000000000e+00    0,000000000e+00    0,000000000e+00    0,000000000e+00
     1038000000   -1,414845735e-01   -5,393898115e-02    2,928535938e-01   -4,711367190e-01    0,000000000e+00    0,000000000e+00    0,000000000e+00    0,000000000e+00
     1052000000   -1,503877938e-01   -4,797213711e-03    3,596737236e-02   -5,265140533e-01    0,000000000e+00    0,000000000e+00    0,000000000e+00    0,000000000e+00
     1066000000   -1,073886305e-01    4,073173925e-02   -2,066822797e-01   -4,665241241e-01    0,000000000e+00    0,000000000e+00    0,000000000e+00    0,000000000e+00
     1080000000   -5,658238009e-02    2,735392377e-02   -4,140499234e-01   -2,989244759e-01    0,000000000e+00    0,000000000e+00    0,000000000e+00    0,000000000e+00
     1094000000   -3,338176012e-02   -2,577440115e-03   -5,213335156e-01   -2,397276461e-02    0,000000000e+00    0,000000000e+00    0,000000000e+00    0,000000000e+00
     1108000000   -2,891575173e-02   -3,427096084e-02   -4,405212998e-01    2,864816189e-01    0,000000000e+00    0,000000000e+00    0,000000000e+00    0,000000000e+00
     1122000000   -3,139533475e-02   -5,477742478e-02   -1,871361136e-01    4,958918393e-01    0,000000000e+00    0,000000000e+00    0,000000000e+00    0,000000000e+00
     1136000000   -4,209402949e-02   -9,577561170e-02    1,518969834e-01    5,193217993e-01    0,000000000e+00    0,000000000e+00    0,000000000e+00    0,000000000e+00
     1150000000   -8,604813367e-02   -1,228613034e-01    4,508462250e-01    3,423866630e-01    0,000000000e+00    0,000000000e+00    0,000000000e+00    0,000000000e+00
     1164000000   -1,425551027e-01   -1,259945482e-01    6,096841693e-01    1,250240486e-02    0,000000000e+00    0,000000000e+00    0,000000000e+00    0,000000000e+00
     1178000000   -1,780366749e-01   -8,305601776e-02    5,385366678e-01   -3,738942742e-01    0,000000000e+00    0,000000000e+00    0,000000000e+00    0,000000000e+00
     1192000000   -1,829919815e-01   -5,662243813e-02    2,399133295e-01   -6,377936006e-01    0,000000000e+00    0,000000000e+00    0,000000000e+00    0,000000000e+00
     1206000000   -1,876535714e-01   -5,137320980e-02   -1,382813454e-01   -6,614713669e-01    0,000000000e+00    0,000000000e+00    0,000000000e+00    0,000000000e+00
     1220000000   -2,560143173e-01   -1,415333431e-02   -4,233002365e-01   -4,834046960e-01    0,000000000e+00    0,000000000e+00    0,000000000e+00    0,000000000e+00
     1234000000   -2,445426434e-01    1,108286306e-01   -5,621425509e-01   -2,511458397e-01    0,000000000e+00    0,000000000e+00    0,000000000e+00    0,000000000e+00
     1248000000   -1,178651080e-01    1,694550514e-01   -6,027921438e-01    1,638145931e-02    0,000000000e+00    0,000000000e+00    0,000000000e+00    0,000000000e+00
     1262000000   -4,177023191e-03    1,340136081e-01   -5,082116723e-01    2,986067832e-01    0,000000000e+00    0,000000000e+00    0,000000000e+00    0,000000000e+00
     1276000000    6,375256181e-02    4,354955629e-02   -2,745001316e-01    4,863100946e-01    0,000000000e+00    0,000000000e+00    0,000000000e+00    0,000000000e+00
     1290000000    7,517981529e-02   -6,796232611e-02    1,096403040e-02    5,477173328e-01    0,000000000e+00    0,000000000e+00    0,000000000e+00    0,000000000e+00
     1304000000    2,109363489e-02   -1,753996760e-01    2,990149260e-01    4,806163013e-01    0,000000000e+00    0,000000000e+00    0,000000000e+00    0,000000000e+00
     1318000000   -9,143134207e-02   -2,497111112e-01    5,445042849e-01    2,740754783e-01    0,000000000e+00    0,000000000e+00    0,000000000e+00    0,000000000e+00
     1332000000   -2,424028814e-01   -2,428724170e-01    6,558525562e-01   -5,098016933e-02    0,000000000e+00    0,000000000e+00    0,000000000e+00    0,000000000e+00
     1346000000   -3,598259389e-01   -1,436354667e-01    5,611428022e-01   -4,145443439e-01    0,000000000e+00    0,000000000e+00    0,000000000e+00    0,000000000e+00
     1360000000   -3,825646043e-01    6,780550350e-03    2,540647686e-01   -6,397014260e-01    0,000000000e+00    0,000000000e+00    0,000000000e+00    0,000000000e+00
     1374000000   -3,284830749e-01    1,200768128e-01   -1,061466783e-01   -6,203693151e-01    0,000000000e+00    0,000000000e+00    0,000000000e+00    0,000000000e+00
     1388000000   -2,377245426e-01    1,717333496e-01   -3,755464554e-01   -4,173256457e-01    0,000000000e+00    0,000000000e+00    0,000000000e+00    0,000000000e+00
     1402000000   -1,508493721e-01    1,661948264e-01   -4,856022000e-01   -1,087606177e-01    0,000000000e+00    0,000000000e+00    0,000000000e+00    0,000000000e+00
     1416000000   -8,516771346e-02    1,391583085e-01   -3,880948722e-01    1,968665421e-01    0,000000000e+00    0,000000000e+00    0,000000000e+00    0,000000000e+00
     1430000000   -3,249176964e-02    9,002713859e-02   -1,616171300e-01    4,261314869e-01    0,000000000e+00    0,000000000e+00    0,000000000e+00    0,000000000e+00
     1444000000   -1,172444504e-02    2,497734735e-03    1,137156188e-01    5,201130509e-01    0,000000000e+00    0,000000000e+00    0,000000000e+00    0,000000000e+00
     1458000000   -3,688476980e-02   -9,058757126e-02    4,390242100e-01    4,834456742e-01    0,000000000e+00    0,000000000e+00    0,000000000e+00    0,000000000e+00
     1472000000   -1,199811101e-01   -1,503929645e-01    7,396363616e-01    2,990366220e-01    0,000000000e+00    0,000000000e+00    0,000000000e+00    0,000000000e+00
     1486000000   -2,271206230e-01   -1,349641085e-01    9,017582536e-01   -1,491216198e-02    0,000000000e+00    0,000000000e+00    0,000000000e+00    0,000000000e+00
     1500000000   -3,058341146e-01   -6,512077898e-02    8,439791203e-01   -4,340450168e-01    0,000000000e+00    0,000000000e+00    0,000000000e+00    0,000000000e+00
