! NanoVNA-App
! Date: 2025-09-25 14:56:17
! Start: 100MHz Stop: 1,5GHz Points: 101
! S-Parameter data: F S11 S21 S12 S22
# Hz S RI R 50
!     Frequency           S11_Real           S11_Imag           S21_Real           S21_Imag           S12_Real           S12_Imag           S22_Real           S22_Imag
      100000000    3,560927510e-02    2,700044960e-02    4,406973720e-01   -6,696283221e-01    0,000000000e+00    0,000000000e+00    0,000000000e+00    0,000000000e+00
      114000000    6,052039191e-02    1,771199517e-03    1,278297510e-02   -7,954574227e-01    0,000000000e+00    0,000000000e+00    0,000000000e+00    0,000000000e+00
      128000000    6,789957732e-02   -4,255391285e-02   -4,083946049e-01   -6,782460809e-01    0,000000000e+00    0,000000000e+00    0,000000000e+00    0,000000000e+00
      142000000    4,279312491e-02   -8,892034739e-02   -7,053923011e-01   -3,610848784e-01    0,000000000e+00    0,000000000e+00    0,000000000e+00    0,000000000e+00
      156000000   -9,944793768e-03   -1,093661338e-01   -7,936426401e-01    6,737428159e-02    0,000000000e+00    0,000000000e+00    0,000000000e+00    0,000000000e+00
      170000000   -6,321167201e-02   -9,105433524e-02   -6,368405819e-01    4,866976738e-01    0,000000000e+00    0,000000000e+00    0,000000000e+00    0,000000000e+00
      184000000   -8,865234256e-02   -4,662403837e-02   -2,729740441e-01    7,565630674e-01    0,000000000e+00    0,000000000e+00    0,000000000e+00    0,000000000e+00
      198000000   -8,217044920e-02   -5,440774374e-03    1,800088137e-01    7,820346951e-01    0,000000000e+00    0,000000000e+00    0,000000000e+00    0,000000000e+00
      212000000   -6,159986183e-02    1,858517900e-02    5,707169175e-01    5,579355955e-01    0,000000000e+00    0,000000000e+00    0,000000000e+00    0,000000000e+00
      226000000   -4,017467797e-02    3,173932061e-02    7,766578197e-01    1,616940200e-01    0,000000000e+00    0,000000000e+00    0,000000000e+00    0,000000000e+00
      240000000   -1,382311340e-02    4,043945298e-02    7,359164953e-01   -2,789419293e-01    0,000000000e+00    0,000000000e+00    0,000000000e+00    0,000000000e+00
      254000000    2,192572691e-02    3,491565213e-02    4,681645632e-01   -6,222972870e-01    0,000000000e+00    0,000000000e+00    0,000000000e+00    0,000000000e+00
      268000000    5,298755690e-02    3,184441011e-03    6,662885100e-02   -7,673040032e-01    0,000000000e+00    0,000000000e+00    0,000000000e+00    0,000000000e+00
      282000000    5,621580407e-02   -4,618115723e-02   -3,462858498e-01   -6,827982664e-01    0,000000000e+00    0,000000000e+00    0,000000000e+00    0,000000000e+00
      296000000    2,439933829e-02   -8,528055996e-02   -6,557371020e-01   -3,976069987e-01    0,000000000e+00    0,000000000e+00    0,000000000e+00    0,000000000e+00
      310000000   -2,061540261e-02   -8,889352530e-02   -7,734681964e-01    1,030231919e-02    0,000000000e+00    0,000000000e+00    0,000000000e+00    0,000000000e+00
      324000000   -4,778652638e-02   -6,203759834e-02   -6,486246586e-01    4,309282899e-01    0,000000000e+00    0,000000000e+00    0,000000000e+00    0,000000000e+00
      338000000   -4,141911119e-02   -3,586753458e-02   -3,111225069e-01    7,105821371e-01    0,000000000e+00    0,000000000e+00    0,000000000e+00    0,000000000e+00
      352000000   -2,269322611e-02   -3,571126238e-02    1,192169785e-01    7,576660514e-01    0,000000000e+00    0,000000000e+00    0,000000000e+00    0,000000000e+00
      366000000   -2,135527134e-02   -5,503604189e-02    5,040903687e-01    5,708361268e-01    0,000000000e+00    0,000000000e+00    0,000000000e+00    0,000000000e+00
      380000000   -4,270529374e-02   -6,483646482e-02    7,262371778e-01    2,114681005e-01    0,000000000e+00    0,000000000e+00    0,000000000e+00    0,000000000e+00
      394000000   -6,453356147e-02   -5,156783015e-02    7,233107090e-01   -2,136392593e-01    0,000000000e+00    0,000000000e+00    0,000000000e+00    0,000000000e+00
      408000000   -6,637326628e-02   -2,806301974e-02    4,898022413e-01   -5,692651272e-01    0,000000000e+00    0,000000000e+00    0,000000000e+00    0,000000000e+00
      422000000   -5,316189677e-02   -1,695939712e-02    1,059722006e-01   -7,387419343e-01    0,000000000e+00    0,000000000e+00    0,000000000e+00    0,000000000e+00
      436000000   -4,698050022e-02   -2,050425112e-02   -3,057058156e-01   -6,768668294e-01    0,000000000e+00    0,000000000e+00    0,000000000e+00    0,000000000e+00
      450000000   -5,413564667e-02   -1,614263281e-02   -6,198241711e-01   -3,992679715e-01    0,000000000e+00    0,000000000e+00    0,000000000e+00    0,000000000e+00
      464000000   -5,208805948e-02    5,896838382e-03   -7,301901579e-01    3,378603607e-03    0,000000000e+00    0,000000000e+00    0,000000000e+00    0,000000000e+00
      478000000   -2,237447165e-02    2,749917097e-02   -5,993040204e-01    3,975223601e-01    0,000000000e+00    0,000000000e+00    0,000000000e+00    0,000000000e+00
      492000000    2,687576972e-02    1,621987857e-02   -2,802607715e-01    6,447048783e-01    0,000000000e+00    0,000000000e+00    0,000000000e+00    0,000000000e+00
      506000000    5,849348754e-02   -3,489574790e-02    1,053092033e-01    6,816228628e-01    0,000000000e+00    0,000000000e+00    0,000000000e+00    0,000000000e+00
      520000000    4,452632368e-02   -9,992638975e-02    4,430002868e-01    5,144764781e-01    0,000000000e+00    0,000000000e+00    0,000000000e+00    0,000000000e+00
      534000000   -1,004538778e-02   -1,413608044e-01    6,508722305e-01    2,074895501e-01    0,000000000e+00    0,000000000e+00    0,000000000e+00    0,000000000e+00
      548000000   -7,661597431e-02   -1,392118335e-01    6,632255316e-01   -1,756247282e-01    0,000000000e+00    0,000000000e+00    0,000000000e+00    0,000000000e+00
      562000000   -1,256275624e-01   -1,022818983e-01    4,564856291e-01   -5,102914572e-01    0,000000000e+00    0,000000000e+00    0,000000000e+00    0,000000000e+00
      576000000   -1,473661661e-01   -4,900246859e-02    8,660987020e-02   -6,706493497e-01    0,000000000e+00    0,000000000e+00    0,000000000e+00    0,000000000e+00
      590000000   -1,445889175e-01    1,543570217e-02   -3,060382009e-01   -5,800603628e-01    0,000000000e+00    0,000000000e+00    0,000000000e+00    0,000000000e+00
      604000000   -7,258988172e-02    9,163942188e-02   -5,322435498e-01   -2,523265779e-01    0,000000000e+00    0,000000000e+00    0,000000000e+00    0,000000000e+00
      618000000    8,666408807e-02    1,239084639e-02   -4,420121908e-01    7,556336466e-03    0,000000000e+00    0,000000000e+00    0,000000000e+00    0,000000000e+00
      632000000   -3,781707957e-02   -1,433304101e-01   -5,043117404e-01    1,210841388e-01    0,000000000e+00    0,000000000e+00    0,000000000e+00    0,000000000e+00
      646000000   -1,258768439e-01   -4,464750364e-02   -4,083640873e-01    4,650883973e-01    0,000000000e+00    0,000000000e+00    0,000000000e+00    0,000000000e+00
      660000000   -8,118785173e-02    1,948581077e-02   -6,370911002e-02    6,376710534e-01    0,000000000e+00    0,000000000e+00    0,000000000e+00    0,000000000e+00
      674000000   -3,067686036e-02    1,517008711e-02    3,001171947e-01    5,652840137e-01    0,000000000e+00    0,000000000e+00    0,000000000e+00    0,000000000e+00
      688000000   -9,839395992e-03   -1,288879197e-02    5,544512272e-01    3,085730374e-01    0,000000000e+00    0,000000000e+00    0,000000000e+00    0,000000000e+00
      702000000   -8,993839845e-03   -3,527673706e-02    6,252593398e-01   -4,003535956e-02    0,000000000e+00    0,000000000e+00    0,000000000e+00    0,000000000e+00
      716000000   -6,243497133e-03   -5,124527588e-02    4,970762432e-01   -3,726944327e-01    0,000000000e+00    0,000000000e+00    0,000000000e+00    0,000000000e+00
      730000000   -6,937724072e-03   -7,851381600e-02    2,131525427e-01   -5,739125013e-01    0,000000000e+00    0,000000000e+00    0,000000000e+00    0,000000000e+00
      744000000   -2,781780623e-02   -1,142933890e-01   -1,272374839e-01   -5,951251388e-01    0,000000000e+00    0,000000000e+00    0,000000000e+00    0,000000000e+00
      758000000   -7,870943099e-02   -1,335266978e-01   -4,267539382e-01   -4,367748201e-01    0,000000000e+00    0,000000000e+00    0,000000000e+00    0,000000000e+00
      772000000   -1,384326965e-01   -1,137806401e-01   -6,026337147e-01   -1,383657455e-01    0,000000000e+00    0,000000000e+00    0,000000000e+00    0,000000000e+00
      786000000   -1,736939251e-01   -5,506417155e-02   -5,875108242e-01    2,164002061e-01    0,000000000e+00    0,000000000e+00    0,000000000e+00    0,000000000e+00
      800000000   -1,577060819e-01    1,128329430e-02   -3,730524182e-01    5,057742596e-01    0,000000000e+00    0,000000000e+00    0,000000000e+00    0,000000000e+00
      814000000   -1,089134589e-01    4,473830387e-02   -3,923829272e-02    6,231849194e-01    0,000000000e+00    0,000000000e+00    0,000000000e+00    0,000000000e+00
      828000000   -6,329730898e-02    4,235099256e-02    2,949064374e-01    5,427188277e-01    0,000000000e+00    0,000000000e+00    0,000000000e+00    0,000000000e+00
      842000000   -3,658605367e-02    2,440065518e-02    5,311341286e-01    3,032068014e-01    0,000000000e+00    0,000000000e+00    0,000000000e+00    0,000000000e+00
      856000000   -1,935048588e-02    7,764987648e-03    6,019888520e-01   -2,228997089e-02    0,000000000e+00    0,000000000e+00    0,000000000e+00    0,000000000e+00
      870000000   -1,189922565e-03   -1,411700901e-02    4,882270396e-01   -3,295648098e-01    0,000000000e+00    0,000000000e+00    0,000000000e+00    0,000000000e+00
      884000000    9,037420154e-03   -5,242278054e-02    2,350773364e-01   -5,242892504e-01    0,000000000e+00    0,000000000e+00    0,000000000e+00    0,000000000e+00
      898000000   -7,011290640e-03   -1,010801122e-01   -7,252763212e-02   -5,611872077e-01    0,000000000e+00    0,000000000e+00    0,000000000e+00    0,000000000e+00
      912000000   -6,515765935e-02   -1,299569756e-01   -4,150897563e-01   -4,103736281e-01    0,000000000e+00    0,000000000e+00    0,000000000e+00    0,000000000e+00
      926000000   -1,281648278e-01   -1,144154966e-01   -5,778478384e-01   -1,311107278e-01    0,000000000e+00    0,000000000e+00    0,000000000e+00    0,000000000e+00
      940000000   -1,661830544e-01   -5,898664892e-02   -5,717344284e-01    2,162514627e-01    0,000000000e+00    0,000000000e+00    0,000000000e+00    0,000000000e+00
      954000000   -1,475483626e-01    7,853613235e-03   -3,573436141e-01    5,062329769e-01    0,000000000e+00    0,000000000e+00    0,000000000e+00    0,000000000e+00
      968000000   -9,010935575e-02    3,011735156e-02   -2,040444314e-02    6,175457835e-01    0,000000000e+00    0,000000000e+00    0,000000000e+00    0,000000000e+00
      982000000   -4,172109440e-02    9,160441346e-03    3,107540905e-01    5,325377584e-01    0,000000000e+00    0,000000000e+00    0,000000000e+00    0,000000000e+00
      996000000   -2,847147174e-02   -3,894399852e-02    5,288515091e-01    2,864760160e-01    0,000000000e+00    0,000000000e+00    0,000000000e+00    0,000000000e+00
     1010000000   -4,907765985e-02   -8,193654567e-02    5,761938095e-01   -1,730301976e-02    0,000000000e+00    0,000000000e+00    0,000000000e+00    0,000000000e+00
     1024000000   -1,072244719e-01   -1,084906161e-01    4,682235420e-01   -2,707934082e-01    0,000000000e+00    0,000000000e+00    0,000000000e+00    0,000000000e+00
     1038000000   -1,744991541e-01   -6,622458994e-02    2,902251482e-01   -4,328447282e-01    0,000000000e+00    0,000000000e+00    0,000000000e+00    0,000000000e+00
     1052000000   -1,664568335e-01    1,469405554e-02    5,799641088e-02   -5,165963769e-01    0,000000000e+00    0,000000000e+00    0,000000000e+00    0,000000000e+00
     1066000000   -1,116237789e-01    5,831511319e-02   -2,081306875e-01   -4,710099101e-01    0,000000000e+00    0,000000000e+00    0,000000000e+00    0,000000000e+00
     1080000000   -5,254030600e-02    4,579066113e-02   -4,252386391e-01   -2,845881879e-01    0,000000000e+00    0,000000000e+00    0,000000000e+00    0,000000000e+00
     1094000000   -2,301432937e-02    1,202743687e-02   -5,041766167e-01   -6,117079407e-03    0,000000000e+00    0,000000000e+00    0,000000000e+00    0,000000000e+00
     1108000000   -7,830267772e-03   -2,987773716e-02   -4,122772515e-01    2,774435282e-01    0,000000000e+00    0,000000000e+00    0,000000000e+00    0,000000000e+00
     1122000000   -1,241339650e-02   -6,836771220e-02   -1,765368283e-01    4,666198790e-01    0,000000000e+00    0,000000000e+00    0,000000000e+00    0,000000000e+00
     1136000000   -3,686913848e-02   -1,115197539e-01    1,350372583e-01    4,965374172e-01    0,000000000e+00    0,000000000e+00    0,000000000e+00    0,000000000e+00
     1150000000   -8,585484326e-02   -1,374385059e-01    4,290403426e-01    3,398689330e-01    0,000000000e+00    0,000000000e+00    0,000000000e+00    0,000000000e+00
     1164000000   -1,518470645e-01   -1,276177913e-01    5,960016251e-01    1,946034282e-02    0,000000000e+00    0,000000000e+00    0,000000000e+00    0,000000000e+00
     1178000000   -1,867240667e-01   -8,916737139e-02    5,296877027e-01   -3,579346240e-01    0,000000000e+00    0,000000000e+00    0,000000000e+00    0,000000000e+00
     1192000000   -1,919821799e-01   -4,781449959e-02    2,433142513e-01   -6,261048913e-01    0,000000000e+00    0,000000000e+00    0,000000000e+00    0,000000000e+00
     1206000000   -1,969829798e-01   -4,565856978e-02   -1,294861585e-01   -6,640555263e-01    0,000000000e+00    0,000000000e+00    0,000000000e+00    0,000000000e+00
     1220000000   -2,516659796e-01   -6,099921186e-03   -4,206919968e-01   -4,828360677e-01    0,000000000e+00    0,000000000e+00    0,000000000e+00    0,000000000e+00
     1234000000   -2,403314710e-01    1,164182052e-01   -5,599029064e-01   -2,471730262e-01    0,000000000e+00    0,000000000e+00    0,000000000e+00    0,000000000e+00
     1248000000   -1,150185913e-01    1,703116298e-01   -5,973193645e-01    1,995339245e-02    0,000000000e+00    0,000000000e+00    0,000000000e+00    0,000000000e+00
     1262000000    1,279275049e-03    1,297565401e-01   -5,011058450e-01    2,888334394e-01    0,000000000e+00    0,000000000e+00    0,000000000e+00    0,000000000e+00
     1276000000    6,668473780e-02    4,246249422e-02   -2,735802829e-01    4,827047884e-01    0,000000000e+00    0,000000000e+00    0,000000000e+00    0,000000000e+00
     1290000000    7,393641025e-02   -6,921392679e-02    8,865338750e-03    5,435268283e-01    0,000000000e+00    0,000000000e+00    0,000000000e+00    0,000000000e+00
     1304000000    2,096209489e-02   -1,795917451e-01    2,914900482e-01    4,696252048e-01    0,000000000e+00    0,000000000e+00    0,000000000e+00    0,000000000e+00
     1318000000   -9,156969190e-02   -2,577360272e-01    5,308167934e-01    2,715878487e-01    0,000000000e+00    0,000000000e+00    0,000000000e+00    0,000000000e+00
     1332000000   -2,418202013e-01   -2,491087317e-01    6,429376006e-01   -4,917331785e-02    0,000000000e+00    0,000000000e+00    0,000000000e+00    0,000000000e+00
     1346000000   -3,694676161e-01   -1,442686468e-01    5,473919511e-01   -4,004094899e-01    0,000000000e+00    0,000000000e+00    0,000000000e+00    0,000000000e+00
     1360000000   -3,907736242e-01    1,161725260e-03    2,498489916e-01   -6,291962862e-01    0,000000000e+00    0,000000000e+00    0,000000000e+00    0,000000000e+00
     1374000000   -3,310706019e-01    1,189800426e-01   -1,022186875e-01   -6,232145429e-01    0,000000000e+00    0,000000000e+00    0,000000000e+00    0,000000000e+00
     1388000000   -2,457431704e-01    1,731297076e-01   -3,760001659e-01   -4,089041352e-01    0,000000000e+00    0,000000000e+00    0,000000000e+00    0,000000000e+00
     1402000000   -1,576392949e-01    1,788061559e-01   -4,636042416e-01   -9,967056662e-02    0,000000000e+00    0,000000000e+00    0,000000000e+00    0,000000000e+00
     1416000000   -8,582802862e-02    1,510656029e-01   -3,780050874e-01    2,061359584e-01    0,000000000e+00    0,000000000e+00    0,000000000e+00    0,000000000e+00
     1430000000   -3,320115805e-02    8,822557330e-02   -1,617955267e-01    4,092219174e-01    0,000000000e+00    0,000000000e+00    0,000000000e+00    0,000000000e+00
     1444000000   -7,642419077e-03    1,649839617e-02    1,291068494e-01    5,191918612e-01    0,000000000e+00    0,000000000e+00    0,000000000e+00    0,000000000e+00
     1458000000   -3,340950236e-02   -8,205105364e-02    4,346964657e-01    4,812590480e-01    0,000000000e+00    0,000000000e+00    0,000000000e+00    0,000000000e+00
     1472000000   -1,145682260e-01   -1,478707939e-01    7,175408602e-01    3,036821783e-01    0,000000000e+00    0,000000000e+00    0,000000000e+00    0,000000000e+00
     1486000000   -2,186273783e-01   -1,507063061e-01    8,839967847e-01   -4,650020972e-02    0,000000000e+00    0,000000000e+00    0,000000000e+00    0,000000000e+00
     1500000000   -2,919275165e-01   -6,634917110e-02    8,299037814e-01   -4,111646712e-01    0,000000000e+00    0,000000000e+00    0,000000000e+00    0,000000000e+00
