! NanoVNA-App
! Date: 2025-09-25 14:57:48
! Start: 100MHz Stop: 1,5GHz Points: 101
! S-Parameter data: F S11 S21 S12 S22
# Hz S RI R 50
!     Frequency           S11_Real           S11_Imag           S21_Real           S21_Imag           S12_Real           S12_Imag           S22_Real           S22_Imag
      100000000    3,557235375e-02    2,734399214e-02    4,407351911e-01   -6,695142984e-01    0,000000000e+00    0,000000000e+00    0,000000000e+00    0,000000000e+00
      114000000    6,072042137e-02    2,187641803e-03    1,300893724e-02   -7,954347730e-01    0,000000000e+00    0,000000000e+00    0,000000000e+00    0,000000000e+00
      128000000    6,836732477e-02   -4,223546758e-02   -4,081387818e-01   -6,781992316e-01    0,000000000e+00    0,000000000e+00    0,000000000e+00    0,000000000e+00
      142000000    4,348399118e-02   -8,876211196e-02   -7,053276300e-01   -3,607973456e-01    0,000000000e+00    0,000000000e+00    0,000000000e+00    0,000000000e+00
      156000000   -9,601207450e-03   -1,097784638e-01   -7,924220562e-01    6,764733791e-02    0,000000000e+00    0,000000000e+00    0,000000000e+00    0,000000000e+00
      170000000   -6,263913959e-02   -9,182636440e-02   -6,368582249e-01    4,863208234e-01    0,000000000e+00    0,000000000e+00    0,000000000e+00    0,000000000e+00
      184000000   -8,858411014e-02   -4,768253490e-02   -2,731123567e-01    7,560468316e-01    0,000000000e+00    0,000000000e+00    0,000000000e+00    0,000000000e+00
      198000000   -8,272948116e-02   -6,452417001e-03    1,793061793e-01    7,818466425e-01    0,000000000e+00    0,000000000e+00    0,000000000e+00    0,000000000e+00
      212000000   -6,273417175e-02    1,804193296e-02    5,709031224e-01    5,584443808e-01    0,000000000e+00    0,000000000e+00    0,000000000e+00    0,000000000e+00
      226000000   -4,146206379e-02    3,183066100e-02    7,767202854e-01    1,618908048e-01    0,000000000e+00    0,000000000e+00    0,000000000e+00    0,000000000e+00
      240000000   -1,479182020e-02    4,136153683e-02    7,359801531e-01   -2,786892951e-01    0,000000000e+00    0,000000000e+00    0,000000000e+00    0,000000000e+00
      254000000    2,148726955e-02    3,630031645e-02    4,679115415e-01   -6,217121482e-01    0,000000000e+00    0,000000000e+00    0,000000000e+00    0,000000000e+00
      268000000    5,331819877e-02    4,634941462e-03    6,665280461e-02   -7,673351169e-01    0,000000000e+00    0,000000000e+00    0,000000000e+00    0,000000000e+00
      282000000    5,748690665e-02   -4,500553757e-02   -3,456782103e-01   -6,826362610e-01    0,000000000e+00    0,000000000e+00    0,000000000e+00    0,000000000e+00
      296000000    2,604935504e-02   -8,475314826e-02   -6,547181010e-01   -3,975395858e-01    0,000000000e+00    0,000000000e+00    0,000000000e+00    0,000000000e+00
      310000000   -1,872805692e-02   -8,935714513e-02   -7,735663056e-01    1,160669886e-02    0,000000000e+00    0,000000000e+00    0,000000000e+00    0,000000000e+00
      324000000   -4,662165046e-02   -6,353100389e-02   -6,479467154e-01    4,292266965e-01    0,000000000e+00    0,000000000e+00    0,000000000e+00    0,000000000e+00
      338000000   -4,113281146e-02   -3,801951557e-02   -3,123409748e-01    7,111108303e-01    0,000000000e+00    0,000000000e+00    0,000000000e+00    0,000000000e+00
      352000000   -2,344911359e-02   -3,779451177e-02    1,194247305e-01    7,590354085e-01    0,000000000e+00    0,000000000e+00    0,000000000e+00    0,000000000e+00
      366000000   -2,294070274e-02   -5,584958941e-02    5,031840205e-01    5,720342398e-01    0,000000000e+00    0,000000000e+00    0,000000000e+00    0,000000000e+00
      380000000   -4,454217479e-02   -6,493463367e-02    7,266808748e-01    2,115679681e-01    0,000000000e+00    0,000000000e+00    0,000000000e+00    0,000000000e+00
      394000000   -6,640762836e-02   -5,031057820e-02    7,228769660e-01   -2,130524665e-01    0,000000000e+00    0,000000000e+00    0,000000000e+00    0,000000000e+00
      408000000   -6,734173745e-02   -2,621065639e-02    4,887118638e-01   -5,678090453e-01    0,000000000e+00    0,000000000e+00    0,000000000e+00    0,000000000e+00
      422000000   -5,316779390e-02   -1,570806652e-02    1,054970026e-01   -7,390923500e-01    0,000000000e+00    0,000000000e+00    0,000000000e+00    0,000000000e+00
      436000000   -4,582830891e-02   -1,866704039e-02   -3,055598736e-01   -6,759625077e-01    0,000000000e+00    0,000000000e+00    0,000000000e+00    0,000000000e+00
      450000000   -5,201645941e-02   -1,556073222e-02   -6,183579564e-01   -3,998707831e-01    0,000000000e+00    0,000000000e+00    0,000000000e+00    0,000000000e+00
      464000000   -5,081232637e-02    5,312727299e-03   -7,296903133e-01    3,073584288e-03    0,000000000e+00    0,000000000e+00    0,000000000e+00    0,000000000e+00
      478000000   -2,093452774e-02    2,621183917e-02   -5,986957550e-01    3,967543244e-01    0,000000000e+00    0,000000000e+00    0,000000000e+00    0,000000000e+00
      492000000    2,779861167e-02    1,447727997e-02   -2,812144756e-01    6,441691518e-01    0,000000000e+00    0,000000000e+00    0,000000000e+00    0,000000000e+00
      506000000    5,787300318e-02   -3,672845289e-02    1,034843773e-01    6,801838875e-01    0,000000000e+00    0,000000000e+00    0,000000000e+00    0,000000000e+00
      520000000    4,296875000e-02   -1,014817283e-01    4,440463781e-01    5,148557425e-01    0,000000000e+00    0,000000000e+00    0,000000000e+00    0,000000000e+00
      534000000   -1,177090965e-02   -1,421611011e-01    6,499491930e-01    2,074902356e-01    0,000000000e+00    0,000000000e+00    0,000000000e+00    0,000000000e+00
      548000000   -7,907768339e-02   -1,382906586e-01    6,615620255e-01   -1,739937216e-01    0,000000000e+00    0,000000000e+00    0,000000000e+00    0,000000000e+00
      562000000   -1,256308109e-01   -9,829200804e-02    4,555453360e-01   -5,070163608e-01    0,000000000e+00    0,000000000e+00    0,000000000e+00    0,000000000e+00
      576000000   -1,438995898e-01   -4,559560120e-02    8,908442408e-02   -6,660040617e-01    0,000000000e+00    0,000000000e+00    0,000000000e+00    0,000000000e+00
      590000000   -1,350010186e-01    1,192197017e-02   -2,970704138e-01   -5,835361481e-01    0,000000000e+00    0,000000000e+00    0,000000000e+00    0,000000000e+00
      604000000   -7,419767976e-02    6,759616733e-02   -5,288961530e-01   -2,810471356e-01    0,000000000e+00    0,000000000e+00    0,000000000e+00    0,000000000e+00
      618000000    3,689085320e-02    2,654089220e-02   -5,027650595e-01    1,659086160e-02    0,000000000e+00    0,000000000e+00    0,000000000e+00    0,000000000e+00
      632000000   -9,824269364e-05   -1,037561521e-01   -4,626623392e-01    1,722268164e-01    0,000000000e+00    0,000000000e+00    0,000000000e+00    0,000000000e+00
      646000000   -1,037849113e-01   -6,912089139e-02   -3,788192570e-01    4,371190965e-01    0,000000000e+00    0,000000000e+00    0,000000000e+00    0,000000000e+00
      660000000   -8,881648630e-02    3,295843024e-03   -7,006225735e-02    6,159604788e-01    0,000000000e+00    0,000000000e+00    0,000000000e+00    0,000000000e+00
      674000000   -4,184304550e-02    1,279553026e-02    2,863297462e-01    5,594934821e-01    0,000000000e+00    0,000000000e+00    0,000000000e+00    0,000000000e+00
      688000000   -1,723288186e-02   -8,745170198e-03    5,437988639e-01    3,117603958e-01    0,000000000e+00    0,000000000e+00    0,000000000e+00    0,000000000e+00
      702000000   -9,347751737e-03   -2,879330702e-02    6,207289696e-01   -3,474803641e-02    0,000000000e+00    0,000000000e+00    0,000000000e+00    0,000000000e+00
      716000000   -4,516840447e-03   -4,783805460e-02    4,958294332e-01   -3,644120097e-01    0,000000000e+00    0,000000000e+00    0,000000000e+00    0,000000000e+00
      730000000   -2,484843368e-03   -7,693064958e-02    2,176084816e-01   -5,675489902e-01    0,000000000e+00    0,000000000e+00    0,000000000e+00    0,000000000e+00
      744000000   -2,434617095e-02   -1,140724644e-01   -1,200784668e-01   -5,918306112e-01    0,000000000e+00    0,000000000e+00    0,000000000e+00    0,000000000e+00
      758000000   -7,642817497e-02   -1,360208988e-01   -4,186218977e-01   -4,380052090e-01    0,000000000e+00    0,000000000e+00    0,000000000e+00    0,000000000e+00
      772000000   -1,395171732e-01   -1,171788052e-01   -5,960920453e-01   -1,437589675e-01    0,000000000e+00    0,000000000e+00    0,000000000e+00    0,000000000e+00
      786000000   -1,753573269e-01   -5,766265094e-02   -5,852816105e-01    2,088227570e-01    0,000000000e+00    0,000000000e+00    0,000000000e+00    0,000000000e+00
      800000000   -1,610789895e-01    9,463159367e-03   -3,761779070e-01    4,983873069e-01    0,000000000e+00    0,000000000e+00    0,000000000e+00    0,000000000e+00
      814000000   -1,121288612e-01    4,553319886e-02   -4,617111012e-02    6,182130575e-01    0,000000000e+00    0,000000000e+00    0,000000000e+00    0,000000000e+00
      828000000   -6,501329690e-02    4,447361082e-02    2,864371240e-01    5,425665975e-01    0,000000000e+00    0,000000000e+00    0,000000000e+00    0,000000000e+00
      842000000   -3,616219014e-02    2,730171569e-02    5,224259496e-01    3,067233562e-01    0,000000000e+00    0,000000000e+00    0,000000000e+00    0,000000000e+00
      856000000   -1,834523864e-02    8,191052824e-03    5,969807506e-01   -1,325801294e-02    0,000000000e+00    0,000000000e+00    0,000000000e+00    0,000000000e+00
      870000000   -4,955775803e-04   -1,330682822e-02    4,890526235e-01   -3,191312850e-01    0,000000000e+00    0,000000000e+00    0,000000000e+00    0,000000000e+00
      884000000    1,045198832e-02   -5,053303018e-02    2,435265779e-01   -5,149513483e-01    0,000000000e+00    0,000000000e+00    0,000000000e+00    0,000000000e+00
      898000000   -5,340763368e-03   -9,852954745e-02   -6,006982177e-02   -5,553730726e-01    0,000000000e+00    0,000000000e+00    0,000000000e+00    0,000000000e+00
      912000000   -6,169404462e-02   -1,292295754e-01   -3,826238513e-01   -4,186805785e-01    0,000000000e+00    0,000000000e+00    0,000000000e+00    0,000000000e+00
      926000000   -1,233764589e-01   -1,199845001e-01   -5,696217418e-01   -1,496677548e-01    0,000000000e+00    0,000000000e+00    0,000000000e+00    0,000000000e+00
      940000000   -1,597478688e-01   -6,324259937e-02   -5,691229701e-01    1,948940009e-01    0,000000000e+00    0,000000000e+00    0,000000000e+00    0,000000000e+00
      954000000   -1,489421874e-01   -2,906829584e-03   -3,771925271e-01    4,852280617e-01    0,000000000e+00    0,000000000e+00    0,000000000e+00    0,000000000e+00
      968000000   -9,816011786e-02    2,129858360e-02   -5,170790851e-02    6,159492135e-01    0,000000000e+00    0,000000000e+00    0,000000000e+00    0,000000000e+00
      982000000   -5,654039234e-02    8,252321742e-03    2,858612239e-01    5,548652411e-01    0,000000000e+00    0,000000000e+00    0,000000000e+00    0,000000000e+00
      996000000   -4,381698743e-02   -3,268218786e-02    5,284548402e-01    3,233737648e-01    0,000000000e+00    0,000000000e+00    0,000000000e+00    0,000000000e+00
     1010000000   -6,214990839e-02   -5,976018682e-02    6,093695164e-01    8,619668894e-03    0,000000000e+00    0,000000000e+00    0,000000000e+00    0,000000000e+00
     1024000000   -9,777470678e-02   -7,890341431e-02    5,098145604e-01   -2,871673405e-01    0,000000000e+00    0,000000000e+00    0,000000000e+00    0,000000000e+00
     1038000000   -1,368333399e-01   -6,369162351e-02    2,870757580e-01   -4,699515104e-01    0,000000000e+00    0,000000000e+00    0,000000000e+00    0,000000000e+00
     1052000000   -1,571852565e-01   -7,036776748e-03    3,404655680e-02   -5,215585828e-01    0,000000000e+00    0,000000000e+00    0,000000000e+00    0,000000000e+00
     1066000000   -1,091226861e-01    4,143909737e-02   -2,131958455e-01   -4,660924673e-01    0,000000000e+00    0,000000000e+00    0,000000000e+00    0,000000000e+00
     1080000000   -5,706999078e-02    2,757262252e-02   -4,153622985e-01   -2,986747026e-01    0,000000000e+00    0,000000000e+00    0,000000000e+00    0,000000000e+00
     1094000000   -3,131334111e-02   -3,415338462e-03   -5,184890032e-01   -2,187943459e-02    0,000000000e+00    0,000000000e+00    0,000000000e+00    0,000000000e+00
     1108000000   -2,392806672e-02   -3,011714667e-02   -4,393879473e-01    2,843758762e-01    0,000000000e+00    0,000000000e+00    0,000000000e+00    0,000000000e+00
     1122000000   -3,020616248e-02   -6,158949807e-02   -1,854486167e-01    4,905986786e-01    0,000000000e+00    0,000000000e+00    0,000000000e+00    0,000000000e+00
     1136000000   -4,069976881e-02   -9,489475191e-02    1,460564286e-01    5,160698295e-01    0,000000000e+00    0,000000000e+00    0,000000000e+00    0,000000000e+00
     1150000000   -8,622143418e-02   -1,240560412e-01    4,527141452e-01    3,454381526e-01    0,000000000e+00    0,000000000e+00    0,000000000e+00    0,000000000e+00
     1164000000   -1,392197460e-01   -1,233412027e-01    6,097647548e-01    1,615118422e-02    0,000000000e+00    0,000000000e+00    0,000000000e+00    0,000000000e+00
     1178000000   -1,772291958e-01   -8,926083148e-02    5,380376577e-01   -3,701220453e-01    0,000000000e+00    0,000000000e+00    0,000000000e+00    0,000000000e+00
     1192000000   -1,799834520e-01   -4,889894277e-02    2,423496246e-01   -6,319462657e-01    0,000000000e+00    0,000000000e+00    0,000000000e+00    0,000000000e+00
     1206000000   -1,862151027e-01   -5,476076528e-02   -1,322882324e-01   -6,615660787e-01    0,000000000e+00    0,000000000e+00    0,000000000e+00    0,000000000e+00
     1220000000   -2,545316815e-01   -1,619188115e-02   -4,202211499e-01   -4,859203100e-01    0,000000000e+00    0,000000000e+00    0,000000000e+00    0,000000000e+00
     1234000000   -2,407169491e-01    1,177422926e-01   -5,565319061e-01   -2,498433888e-01    0,000000000e+00    0,000000000e+00    0,000000000e+00    0,000000000e+00
     1248000000   -1,188049614e-01    1,780216098e-01   -6,060029268e-01    2,059906535e-02    0,000000000e+00    0,000000000e+00    0,000000000e+00    0,000000000e+00
     1262000000   -5,890603177e-03    1,328895837e-01   -5,112403631e-01    2,936992049e-01    0,000000000e+00    0,000000000e+00    0,000000000e+00    0,000000000e+00
     1276000000    6,647736579e-02    4,412490875e-02   -2,727813721e-01    4,878337085e-01    0,000000000e+00    0,000000000e+00    0,000000000e+00    0,000000000e+00
     1290000000    7,045979053e-02   -7,436770201e-02    6,703684572e-03    5,406056643e-01    0,000000000e+00    0,000000000e+00    0,000000000e+00    0,000000000e+00
     1304000000    2,329233289e-02   -1,807302088e-01    3,008101881e-01    4,780723453e-01    0,000000000e+00    0,000000000e+00    0,000000000e+00    0,000000000e+00
     1318000000   -9,334367514e-02   -2,545661926e-01    5,426121950e-01    2,823522985e-01    0,000000000e+00    0,000000000e+00    0,000000000e+00    0,000000000e+00
     1332000000   -2,451505214e-01   -2,439757586e-01    6,539794803e-01   -5,517276749e-02    0,000000000e+00    0,000000000e+00    0,000000000e+00    0,000000000e+00
     1346000000   -3,538813591e-01   -1,415255368e-01    5,619677901e-01   -4,046349525e-01    0,000000000e+00    0,000000000e+00    0,000000000e+00    0,000000000e+00
     1360000000   -3,826985657e-01    9,582700208e-03    2,561178505e-01   -6,249266267e-01    0,000000000e+00    0,000000000e+00    0,000000000e+00    0,000000000e+00
     1374000000   -3,278283179e-01    1,211844087e-01   -1,073147207e-01   -6,228374839e-01    0,000000000e+00    0,000000000e+00    0,000000000e+00    0,000000000e+00
     1388000000   -2,394840121e-01    1,723472327e-01   -3,750159740e-01   -4,149715006e-01    0,000000000e+00    0,000000000e+00    0,000000000e+00    0,000000000e+00
     1402000000   -1,526891887e-01    1,705225706e-01   -4,715066254e-01   -1,033068299e-01    0,000000000e+00    0,000000000e+00    0,000000000e+00    0,000000000e+00
     1416000000   -8,163865656e-02    1,435060799e-01   -3,937873840e-01    2,090423703e-01    0,000000000e+00    0,000000000e+00    0,000000000e+00    0,000000000e+00
     1430000000   -2,739218064e-02    8,820080757e-02   -1,739897877e-01    4,457062185e-01    0,000000000e+00    0,000000000e+00    0,000000000e+00    0,000000000e+00
     1444000000   -1,245366689e-02    6,215475500e-03    1,218318269e-01    5,315836072e-01    0,000000000e+00    0,000000000e+00    0,000000000e+00    0,000000000e+00
     1458000000   -3,936374933e-02   -8,733948320e-02    4,401453435e-01    4,836344719e-01    0,000000000e+00    0,000000000e+00    0,000000000e+00    0,000000000e+00
     1472000000   -1,208488047e-01   -1,497646421e-01    7,355402112e-01    3,093861043e-01    0,000000000e+00    0,000000000e+00    0,000000000e+00    0,000000000e+00
     1486000000   -2,362382114e-01   -1,512802839e-01    8,958382607e-01   -4,334046692e-02    0,000000000e+00    0,000000000e+00    0,000000000e+00    0,000000000e+00
     1500000000   -3,069785237e-01   -6,840725988e-02    8,532242179e-01   -4,340783656e-01    0,000000000e+00    0,000000000e+00    0,000000000e+00    0,000000000e+00
