! NanoVNA-App
! Date: 2025-09-25 15:00:05
! Start: 100MHz Stop: 1,5GHz Points: 101
! S-Parameter data: F S11 S21 S12 S22
# Hz S RI R 50
!     Frequency           S11_Real           S11_Imag           S21_Real           S21_Imag           S12_Real           S12_Imag           S22_Real           S22_Imag
      100000000    3,558312729e-02    2,736162581e-02    4,407632649e-01   -6,695696115e-01    0,000000000e+00    0,000000000e+00    0,000000000e+00    0,000000000e+00
      114000000    6,068110093e-02    2,153291134e-03    1,285606436e-02   -7,952982187e-01    0,000000000e+00    0,000000000e+00    0,000000000e+00    0,000000000e+00
      128000000    6,834691018e-02   -4,230025038e-02   -4,081207514e-01   -6,779658198e-01    0,000000000e+00    0,000000000e+00    0,000000000e+00    0,000000000e+00
      142000000    4,346602410e-02   -8,878064901e-02   -7,053258419e-01   -3,609596193e-01    0,000000000e+00    0,000000000e+00    0,000000000e+00    0,000000000e+00
      156000000   -9,722400457e-03   -1,097254232e-01   -7,925310731e-01    6,752723455e-02    0,000000000e+00    0,000000000e+00    0,000000000e+00    0,000000000e+00
      170000000   -6,265073270e-02   -9,188491106e-02   -6,372497678e-01    4,863874912e-01    0,000000000e+00    0,000000000e+00    0,000000000e+00    0,000000000e+00
      184000000   -8,858954906e-02   -4,765177518e-02   -2,731972933e-01    7,564716935e-01    0,000000000e+00    0,000000000e+00    0,000000000e+00    0,000000000e+00
      198000000   -8,278671652e-02   -6,433584727e-03    1,795274615e-01    7,824088335e-01    0,000000000e+00    0,000000000e+00    0,000000000e+00    0,000000000e+00
      212000000   -6,275045872e-02    1,801880822e-02    5,707269907e-01    5,585944653e-01    0,000000000e+00    0,000000000e+00    0,000000000e+00    0,000000000e+00
      226000000   -4,152706265e-02    3,181270510e-02    7,767795920e-01    1,618248373e-01    0,000000000e+00    0,000000000e+00    0,000000000e+00    0,000000000e+00
      240000000   -1,488696411e-02    4,128518701e-02    7,361082435e-01   -2,787856460e-01    0,000000000e+00    0,000000000e+00    0,000000000e+00    0,000000000e+00
      254000000    2,140328288e-02    3,631472215e-02    4,679097831e-01   -6,223413348e-01    0,000000000e+00    0,000000000e+00    0,000000000e+00    0,000000000e+00
      268000000    5,327511579e-02    4,709581379e-03    6,657072902e-02   -7,670808434e-01    0,000000000e+00    0,000000000e+00    0,000000000e+00    0,000000000e+00
      282000000    5,741460249e-02   -4,487164691e-02   -3,449988663e-01   -6,825659275e-01    0,000000000e+00    0,000000000e+00    0,000000000e+00    0,000000000e+00
      296000000    2,611621842e-02   -8,465440571e-02   -6,552411318e-01   -3,977431357e-01    0,000000000e+00    0,000000000e+00    0,000000000e+00    0,000000000e+00
      310000000   -1,893094368e-02   -8,941566944e-02   -7,743274570e-01    1,134285610e-02    0,000000000e+00    0,000000000e+00    0,000000000e+00    0,000000000e+00
      324000000   -4,657708108e-02   -6,356348842e-02   -6,476435065e-01    4,298770726e-01    0,000000000e+00    0,000000000e+00    0,000000000e+00    0,000000000e+00
      338000000   -4,113176465e-02   -3,804757819e-02   -3,095887005e-01    7,113481760e-01    0,000000000e+00    0,000000000e+00    0,000000000e+00    0,000000000e+00
      352000000   -2,345741354e-02   -3,776166961e-02    1,185700670e-01    7,579239011e-01    0,000000000e+00    0,000000000e+00    0,000000000e+00    0,000000000e+00
      366000000   -2,281886898e-02   -5,613242835e-02    5,032115579e-01    5,723608732e-01    0,000000000e+00    0,000000000e+00    0,000000000e+00    0,000000000e+00
      380000000   -4,470077902e-02   -6,510971487e-02    7,262408733e-01    2,117836475e-01    0,000000000e+00    0,000000000e+00    0,000000000e+00    0,000000000e+00
      394000000   -6,653790921e-02   -5,075054988e-02    7,235493660e-01   -2,130914479e-01    0,000000000e+00    0,000000000e+00    0,000000000e+00    0,000000000e+00
      408000000   -6,748469174e-02   -2,620589919e-02    4,899959862e-01   -5,681056976e-01    0,000000000e+00    0,000000000e+00    0,000000000e+00    0,000000000e+00
      422000000   -5,326936767e-02   -1,526669227e-02    1,061789244e-01   -7,389851809e-01    0,000000000e+00    0,000000000e+00    0,000000000e+00    0,000000000e+00
      436000000   -4,634641111e-02   -1,866694167e-02   -3,060963154e-01   -6,766939163e-01    0,000000000e+00    0,000000000e+00    0,000000000e+00    0,000000000e+00
      450000000   -5,184095353e-02   -1,511203405e-02   -6,187585592e-01   -4,005759358e-01    0,000000000e+00    0,000000000e+00    0,000000000e+00    0,000000000e+00
      464000000   -5,023897439e-02    5,656241905e-03   -7,296481729e-01    3,402775852e-03    0,000000000e+00    0,000000000e+00    0,000000000e+00    0,000000000e+00
      478000000   -2,077605762e-02    2,647671476e-02   -5,984739661e-01    3,975145817e-01    0,000000000e+00    0,000000000e+00    0,000000000e+00    0,000000000e+00
      492000000    2,867734991e-02    1,489136927e-02   -2,800040841e-01    6,445414424e-01    0,000000000e+00    0,000000000e+00    0,000000000e+00    0,000000000e+00
      506000000    5,914417654e-02   -3,768779710e-02    1,045961902e-01    6,800960302e-01    0,000000000e+00    0,000000000e+00    0,000000000e+00    0,000000000e+00
      520000000    4,439533874e-02   -1,029066816e-01    4,417289495e-01    5,148178935e-01    0,000000000e+00    0,000000000e+00    0,000000000e+00    0,000000000e+00
      534000000   -1,244531665e-02   -1,438706070e-01    6,496105194e-01    2,053161711e-01    0,000000000e+00    0,000000000e+00    0,000000000e+00    0,000000000e+00
      548000000   -8,208805323e-02   -1,400504112e-01    6,596846581e-01   -1,760185212e-01    0,000000000e+00    0,000000000e+00    0,000000000e+00    0,000000000e+00
      562000000   -1,309612989e-01   -9,850884974e-02    4,514027238e-01   -5,089486837e-01    0,000000000e+00    0,000000000e+00    0,000000000e+00    0,000000000e+00
      576000000   -1,492901295e-01   -3,862968460e-02    8,166841418e-02   -6,616898179e-01    0,000000000e+00    0,000000000e+00    0,000000000e+00    0,000000000e+00
      590000000   -1,300836354e-01    2,881982177e-02   -2,964692414e-01   -5,661445856e-01    0,000000000e+00    0,000000000e+00    0,000000000e+00    0,000000000e+00
      604000000   -3,971494362e-02    6,885427237e-02   -4,901185334e-01   -2,699064910e-01    0,000000000e+00    0,000000000e+00    0,000000000e+00    0,000000000e+00
      618000000    3,461572900e-02   -2,808848955e-02   -4,934602678e-01   -4,841304198e-02    0,000000000e+00    0,000000000e+00    0,000000000e+00    0,000000000e+00
      632000000   -5,124651268e-02   -9,350807965e-02   -5,239083171e-01    1,773052514e-01    0,000000000e+00    0,000000000e+00    0,000000000e+00    0,000000000e+00
      646000000   -1,000450626e-01   -3,437919915e-02   -3,784275651e-01    4,760279357e-01    0,000000000e+00    0,000000000e+00    0,000000000e+00    0,000000000e+00
      660000000   -7,009806484e-02    9,490282275e-03   -5,100575462e-02    6,262047887e-01    0,000000000e+00    0,000000000e+00    0,000000000e+00    0,000000000e+00
      674000000   -3,096041083e-02    4,469652660e-03    2,981425524e-01    5,537161827e-01    0,000000000e+00    0,000000000e+00    0,000000000e+00    0,000000000e+00
      688000000   -1,553658117e-02   -1,671949588e-02    5,470901132e-01    3,035462499e-01    0,000000000e+00    0,000000000e+00    0,000000000e+00    0,000000000e+00
      702000000   -1,366415992e-02   -3,426925093e-02    6,226349473e-01   -4,226893187e-02    0,000000000e+00    0,000000000e+00    0,000000000e+00    0,000000000e+00
      716000000   -1,036893111e-02   -4,857444391e-02    4,924148917e-01   -3,668383956e-01    0,000000000e+00    0,000000000e+00    0,000000000e+00    0,000000000e+00
      730000000   -7,251241710e-03   -7,411360741e-02    2,117710710e-01   -5,682856441e-01    0,000000000e+00    0,000000000e+00    0,000000000e+00    0,000000000e+00
      744000000   -2,525822632e-02   -1,110495105e-01   -1,239670217e-01   -5,872741342e-01    0,000000000e+00    0,000000000e+00    0,000000000e+00    0,000000000e+00
      758000000   -7,373050600e-02   -1,327468157e-01   -4,191881418e-01   -4,323131740e-01    0,000000000e+00    0,000000000e+00    0,000000000e+00    0,000000000e+00
      772000000   -1,353614181e-01   -1,154303402e-01   -5,940222740e-01   -1,401593685e-01    0,000000000e+00    0,000000000e+00    0,000000000e+00    0,000000000e+00
      786000000   -1,715170741e-01   -5,882780254e-02   -5,817842484e-01    2,098503560e-01    0,000000000e+00    0,000000000e+00    0,000000000e+00    0,000000000e+00
      800000000   -1,593108922e-01    6,824090146e-03   -3,729535043e-01    4,961430430e-01    0,000000000e+00    0,000000000e+00    0,000000000e+00    0,000000000e+00
      814000000   -1,141169891e-01    4,298753291e-02   -4,563113302e-02    6,146451831e-01    0,000000000e+00    0,000000000e+00    0,000000000e+00    0,000000000e+00
      828000000   -6,909286231e-02    4,435564205e-02    2,872579694e-01    5,414104462e-01    0,000000000e+00    0,000000000e+00    0,000000000e+00    0,000000000e+00
      842000000   -3,827066347e-02    2,906712517e-02    5,209512711e-01    3,061863780e-01    0,000000000e+00    0,000000000e+00    0,000000000e+00    0,000000000e+00
      856000000   -1,840816997e-02    1,186258812e-02    5,946362615e-01   -1,342093758e-02    0,000000000e+00    0,000000000e+00    0,000000000e+00    0,000000000e+00
      870000000    1,907598344e-03   -1,153454743e-02    4,860268235e-01   -3,171815872e-01    0,000000000e+00    0,000000000e+00    0,000000000e+00    0,000000000e+00
      884000000    1,341586374e-02   -5,130919814e-02    2,426278889e-01   -5,125132799e-01    0,000000000e+00    0,000000000e+00    0,000000000e+00    0,000000000e+00
      898000000   -3,852752037e-03   -1,022399887e-01   -5,880352110e-02   -5,551725626e-01    0,000000000e+00    0,000000000e+00    0,000000000e+00    0,000000000e+00
      912000000   -6,230658293e-02   -1,328622550e-01   -3,817392290e-01   -4,228023291e-01    0,000000000e+00    0,000000000e+00    0,000000000e+00    0,000000000e+00
      926000000   -1,283828914e-01   -1,190131754e-01   -5,672127604e-01   -1,483509094e-01    0,000000000e+00    0,000000000e+00    0,000000000e+00    0,000000000e+00
      940000000   -1,607977450e-01   -6,351350993e-02   -5,666380525e-01    1,917475313e-01    0,000000000e+00    0,000000000e+00    0,000000000e+00    0,000000000e+00
      954000000   -1,464836448e-01    1,577867079e-03   -3,724624813e-01    4,852159619e-01    0,000000000e+00    0,000000000e+00    0,000000000e+00    0,000000000e+00
      968000000   -9,922352433e-02    2,551042289e-02   -5,235782266e-02    6,149429083e-01    0,000000000e+00    0,000000000e+00    0,000000000e+00    0,000000000e+00
      982000000   -5,341349915e-02    6,558064837e-03    2,810155749e-01    5,520588160e-01    0,000000000e+00    0,000000000e+00    0,000000000e+00    0,000000000e+00
      996000000   -4,474825412e-02   -2,935033850e-02    5,242703557e-01    3,260090053e-01    0,000000000e+00    0,000000000e+00    0,000000000e+00    0,000000000e+00
     1010000000   -6,062339619e-02   -6,689776480e-02    6,078296304e-01    1,400917675e-02    0,000000000e+00    0,000000000e+00    0,000000000e+00    0,000000000e+00
     1024000000   -9,944485873e-02   -7,482396066e-02    5,155591369e-01   -2,808107436e-01    0,000000000e+00    0,000000000e+00    0,000000000e+00    0,000000000e+00
     1038000000   -1,394202560e-01   -5,771242455e-02    2,962784469e-01   -4,735542238e-01    0,000000000e+00    0,000000000e+00    0,000000000e+00    0,000000000e+00
     1052000000   -1,540222913e-01   -1,405030838e-03    3,553469479e-02   -5,253016949e-01    0,000000000e+00    0,000000000e+00    0,000000000e+00    0,000000000e+00
     1066000000   -1,053835973e-01    4,295715690e-02   -2,113474607e-01   -4,669975042e-01    0,000000000e+00    0,000000000e+00    0,000000000e+00    0,000000000e+00
     1080000000   -4,932317138e-02    2,646398917e-02   -4,158090949e-01   -2,991053760e-01    0,000000000e+00    0,000000000e+00    0,000000000e+00    0,000000000e+00
     1094000000   -3,141548112e-02   -5,490052514e-03   -5,223074555e-01   -2,507865243e-02    0,000000000e+00    0,000000000e+00    0,000000000e+00    0,000000000e+00
     1108000000   -3,208604828e-02   -2,832083590e-02   -4,434207976e-01    2,860637307e-01    0,000000000e+00    0,000000000e+00    0,000000000e+00    0,000000000e+00
     1122000000   -3,489757329e-02   -5,580016226e-02   -1,887267828e-01    4,957569838e-01    0,000000000e+00    0,000000000e+00    0,000000000e+00    0,000000000e+00
     1136000000   -4,051589221e-02   -9,204592556e-02    1,524102688e-01    5,203889608e-01    0,000000000e+00    0,000000000e+00    0,000000000e+00    0,000000000e+00
     1150000000   -8,450181782e-02   -1,271033138e-01    4,525842965e-01    3,432775140e-01    0,000000000e+00    0,000000000e+00    0,000000000e+00    0,000000000e+00
     1164000000   -1,355719119e-01   -1,249705702e-01    6,104385853e-01    9,891672060e-03    0,000000000e+00    0,000000000e+00    0,000000000e+00    0,000000000e+00
     1178000000   -1,730946749e-01   -8,700001985e-02    5,384041667e-01   -3,736263514e-01    0,000000000e+00    0,000000000e+00    0,000000000e+00    0,000000000e+00
     1192000000   -1,799003929e-01   -5,711457506e-02    2,402589768e-01   -6,354110837e-01    0,000000000e+00    0,000000000e+00    0,000000000e+00    0,000000000e+00
     1206000000   -1,914703101e-01   -5,238944292e-02   -1,374719143e-01   -6,578128338e-01    0,000000000e+00    0,000000000e+00    0,000000000e+00    0,000000000e+00
     1220000000   -2,498271018e-01   -1,725899987e-02   -4,206996858e-01   -4,790991545e-01    0,000000000e+00    0,000000000e+00    0,000000000e+00    0,000000000e+00
     1234000000   -2,446155399e-01    1,116724759e-01   -5,602580905e-01   -2,522968352e-01    0,000000000e+00    0,000000000e+00    0,000000000e+00    0,000000000e+00
     1248000000   -1,151564866e-01    1,711424440e-01   -5,999843478e-01    1,620084792e-02    0,000000000e+00    0,000000000e+00    0,000000000e+00    0,000000000e+00
     1262000000   -1,498629426e-04    1,296109259e-01   -5,011264086e-01    2,945333421e-01    0,000000000e+00    0,000000000e+00    0,000000000e+00    0,000000000e+00
     1276000000    6,493397802e-02    4,338873550e-02   -2,751980722e-01    4,868871272e-01    0,000000000e+00    0,000000000e+00    0,000000000e+00    0,000000000e+00
     1290000000    7,303706557e-02   -7,360334694e-02    9,923963808e-03    5,472728014e-01    0,000000000e+00    0,000000000e+00    0,000000000e+00    0,000000000e+00
     1304000000    2,074167691e-02   -1,840453595e-01    2,983693182e-01    4,762283862e-01    0,000000000e+00    0,000000000e+00    0,000000000e+00    0,000000000e+00
     1318000000   -9,694985300e-02   -2,549234033e-01    5,353365541e-01    2,662142217e-01    0,000000000e+00    0,000000000e+00    0,000000000e+00    0,000000000e+00
     1332000000   -2,455646545e-01   -2,419075519e-01    6,452449560e-01   -5,388589203e-02    0,000000000e+00    0,000000000e+00    0,000000000e+00    0,000000000e+00
     1346000000   -3,587499857e-01   -1,421449333e-01    5,529544353e-01   -4,125453830e-01    0,000000000e+00    0,000000000e+00    0,000000000e+00    0,000000000e+00
     1360000000   -3,872611225e-01    1,051990036e-02    2,563793063e-01   -6,356979609e-01    0,000000000e+00    0,000000000e+00    0,000000000e+00    0,000000000e+00
     1374000000   -3,226711154e-01    1,191830710e-01   -1,003784016e-01   -6,228875518e-01    0,000000000e+00    0,000000000e+00    0,000000000e+00    0,000000000e+00
     1388000000   -2,389978021e-01    1,710802913e-01   -3,780750036e-01   -4,215988815e-01    0,000000000e+00    0,000000000e+00    0,000000000e+00    0,000000000e+00
     1402000000   -1,529868841e-01    1,700135916e-01   -4,765412807e-01   -1,121770218e-01    0,000000000e+00    0,000000000e+00    0,000000000e+00    0,000000000e+00
     1416000000   -8,810840547e-02    1,413679570e-01   -3,919512331e-01    1,973391771e-01    0,000000000e+00    0,000000000e+00    0,000000000e+00    0,000000000e+00
     1430000000   -3,630978987e-02    8,437351882e-02   -1,708235294e-01    4,358513355e-01    0,000000000e+00    0,000000000e+00    0,000000000e+00    0,000000000e+00
     1444000000   -1,177704986e-02    6,413742434e-03    1,243947819e-01    5,225029588e-01    0,000000000e+00    0,000000000e+00    0,000000000e+00    0,000000000e+00
     1458000000   -4,341962188e-02   -8,774140477e-02    4,397619367e-01    4,935339987e-01    0,000000000e+00    0,000000000e+00    0,000000000e+00    0,000000000e+00
     1472000000   -1,228251904e-01   -1,421920806e-01    7,347800732e-01    3,195512891e-01    0,000000000e+00    0,000000000e+00    0,000000000e+00    0,000000000e+00
     1486000000   -2,363685668e-01   -1,362690479e-01    8,941361308e-01   -2,856595628e-02    0,000000000e+00    0,000000000e+00    0,000000000e+00    0,000000000e+00
     1500000000   -3,012057245e-01   -6,677354872e-02    8,340761662e-01   -4,412513971e-01    0,000000000e+00    0,000000000e+00    0,000000000e+00    0,000000000e+00
