! NanoVNA-App
! Date: 2025-09-25 14:56:13
! Start: 100MHz Stop: 1,5GHz Points: 101
! S-Parameter data: F S11 S21 S12 S22
# Hz S RI R 50
!     Frequency           S11_Real           S11_Imag           S21_Real           S21_Imag           S12_Real           S12_Imag           S22_Real           S22_Imag
      100000000    3,562332317e-02    2,699186653e-02    4,407584369e-01   -6,696298122e-01    0,000000000e+00    0,000000000e+00    0,000000000e+00    0,000000000e+00
      114000000    6,052273512e-02    1,759562758e-03    1,276311465e-02   -7,953086495e-01    0,000000000e+00    0,000000000e+00    0,000000000e+00    0,000000000e+00
      128000000    6,795245409e-02   -4,259494320e-02   -4,082897604e-01   -6,780053377e-01    0,000000000e+00    0,000000000e+00    0,000000000e+00    0,000000000e+00
      142000000    4,282719269e-02   -8,889748156e-02   -7,055577636e-01   -3,608507812e-01    0,000000000e+00    0,000000000e+00    0,000000000e+00    0,000000000e+00
      156000000   -1,031263638e-02   -1,092075855e-01   -7,931658626e-01    6,712250412e-02    0,000000000e+00    0,000000000e+00    0,000000000e+00    0,000000000e+00
      170000000   -6,320850551e-02   -9,098600596e-02   -6,369924545e-01    4,867144227e-01    0,000000000e+00    0,000000000e+00    0,000000000e+00    0,000000000e+00
      184000000   -8,864583820e-02   -4,657525942e-02   -2,729126811e-01    7,563087940e-01    0,000000000e+00    0,000000000e+00    0,000000000e+00    0,000000000e+00
      198000000   -8,218286186e-02   -5,407335237e-03    1,799649000e-01    7,820953131e-01    0,000000000e+00    0,000000000e+00    0,000000000e+00    0,000000000e+00
      212000000   -6,159825251e-02    1,861229353e-02    5,706017017e-01    5,580019355e-01    0,000000000e+00    0,000000000e+00    0,000000000e+00    0,000000000e+00
      226000000   -4,013665020e-02    3,168986365e-02    7,766678333e-01    1,617545038e-01    0,000000000e+00    0,000000000e+00    0,000000000e+00    0,000000000e+00
      240000000   -1,374333259e-02    4,043893144e-02    7,358829379e-01   -2,787038386e-01    0,000000000e+00    0,000000000e+00    0,000000000e+00    0,000000000e+00
      254000000    2,189509757e-02    3,491377085e-02    4,679886699e-01   -6,224265099e-01    0,000000000e+00    0,000000000e+00    0,000000000e+00    0,000000000e+00
      268000000    5,300879106e-02    3,174392972e-03    6,683696061e-02   -7,676089406e-01    0,000000000e+00    0,000000000e+00    0,000000000e+00    0,000000000e+00
      282000000    5,624415725e-02   -4,611506686e-02   -3,457986414e-01   -6,828363538e-01    0,000000000e+00    0,000000000e+00    0,000000000e+00    0,000000000e+00
      296000000    2,428148128e-02   -8,524373174e-02   -6,555510759e-01   -3,977134228e-01    0,000000000e+00    0,000000000e+00    0,000000000e+00    0,000000000e+00
      310000000   -2,086178772e-02   -8,898713440e-02   -7,747111320e-01    1,137654949e-02    0,000000000e+00    0,000000000e+00    0,000000000e+00    0,000000000e+00
      324000000   -4,781838879e-02   -6,200866774e-02   -6,478934288e-01    4,307284653e-01    0,000000000e+00    0,000000000e+00    0,000000000e+00    0,000000000e+00
      338000000   -4,152827337e-02   -3,578747064e-02   -3,115325272e-01    7,094277143e-01    0,000000000e+00    0,000000000e+00    0,000000000e+00    0,000000000e+00
      352000000   -2,252888680e-02   -3,597763553e-02    1,203669533e-01    7,575029135e-01    0,000000000e+00    0,000000000e+00    0,000000000e+00    0,000000000e+00
      366000000   -2,130074427e-02   -5,516779050e-02    5,043119192e-01    5,708048344e-01    0,000000000e+00    0,000000000e+00    0,000000000e+00    0,000000000e+00
      380000000   -4,265730083e-02   -6,519714743e-02    7,263062000e-01    2,112436295e-01    0,000000000e+00    0,000000000e+00    0,000000000e+00    0,000000000e+00
      394000000   -6,499126554e-02   -5,151754245e-02    7,224659920e-01   -2,130827308e-01    0,000000000e+00    0,000000000e+00    0,000000000e+00    0,000000000e+00
      408000000   -6,638295203e-02   -2,800472081e-02    4,902721345e-01   -5,684419870e-01    0,000000000e+00    0,000000000e+00    0,000000000e+00    0,000000000e+00
      422000000   -5,307576433e-02   -1,724019647e-02    1,055106223e-01   -7,391952276e-01    0,000000000e+00    0,000000000e+00    0,000000000e+00    0,000000000e+00
      436000000   -4,689582810e-02   -2,057760395e-02   -3,053380847e-01   -6,773894429e-01    0,000000000e+00    0,000000000e+00    0,000000000e+00    0,000000000e+00
      450000000   -5,413794145e-02   -1,607229374e-02   -6,197010875e-01   -3,998166025e-01    0,000000000e+00    0,000000000e+00    0,000000000e+00    0,000000000e+00
      464000000   -5,219123885e-02    5,774054211e-03   -7,300131321e-01    3,470974276e-03    0,000000000e+00    0,000000000e+00    0,000000000e+00    0,000000000e+00
      478000000   -2,244209126e-02    2,675502189e-02   -5,997480154e-01    3,966862857e-01    0,000000000e+00    0,000000000e+00    0,000000000e+00    0,000000000e+00
      492000000    2,646819316e-02    1,645805314e-02   -2,811741531e-01    6,449149847e-01    0,000000000e+00    0,000000000e+00    0,000000000e+00    0,000000000e+00
      506000000    5,838661641e-02   -3,484515101e-02    1,041038260e-01    6,813706160e-01    0,000000000e+00    0,000000000e+00    0,000000000e+00    0,000000000e+00
      520000000    4,465976357e-02   -1,007372364e-01    4,459964633e-01    5,168254375e-01    0,000000000e+00    0,000000000e+00    0,000000000e+00    0,000000000e+00
      534000000   -1,043635979e-02   -1,415967047e-01    6,509861350e-01    2,076376677e-01    0,000000000e+00    0,000000000e+00    0,000000000e+00    0,000000000e+00
      548000000   -7,723505050e-02   -1,392886341e-01    6,626533270e-01   -1,750101447e-01    0,000000000e+00    0,000000000e+00    0,000000000e+00    0,000000000e+00
      562000000   -1,256788969e-01   -1,019292697e-01    4,559873641e-01   -5,101360679e-01    0,000000000e+00    0,000000000e+00    0,000000000e+00    0,000000000e+00
      576000000   -1,477943659e-01   -4,945519939e-02    8,686147630e-02   -6,698070765e-01    0,000000000e+00    0,000000000e+00    0,000000000e+00    0,000000000e+00
      590000000   -1,446625292e-01    1,545288041e-02   -3,078837991e-01   -5,836094618e-01    0,000000000e+00    0,000000000e+00    0,000000000e+00    0,000000000e+00
      604000000   -7,260734588e-02    9,145206958e-02   -5,326384306e-01   -2,523241341e-01    0,000000000e+00    0,000000000e+00    0,000000000e+00    0,000000000e+00
      618000000    8,690271527e-02    1,209580526e-02   -4,418396652e-01    6,910515949e-03    0,000000000e+00    0,000000000e+00    0,000000000e+00    0,000000000e+00
      632000000   -3,799963742e-02   -1,433883458e-01   -5,048013330e-01    1,211803257e-01    0,000000000e+00    0,000000000e+00    0,000000000e+00    0,000000000e+00
      646000000   -1,262187213e-01   -4,418341443e-02   -4,091533720e-01    4,654307663e-01    0,000000000e+00    0,000000000e+00    0,000000000e+00    0,000000000e+00
      660000000   -8,145792782e-02    2,028357051e-02   -6,432447582e-02    6,365714073e-01    0,000000000e+00    0,000000000e+00    0,000000000e+00    0,000000000e+00
      674000000   -3,047094308e-02    1,486735884e-02    3,005440831e-01    5,647562146e-01    0,000000000e+00    0,000000000e+00    0,000000000e+00    0,000000000e+00
      688000000   -1,005786937e-02   -1,276202966e-02    5,544151664e-01    3,079384267e-01    0,000000000e+00    0,000000000e+00    0,000000000e+00    0,000000000e+00
      702000000   -8,932603523e-03   -3,358234465e-02    6,262250543e-01   -4,362345114e-02    0,000000000e+00    0,000000000e+00    0,000000000e+00    0,000000000e+00
      716000000   -6,094222423e-03   -5,104580522e-02    4,967733026e-01   -3,736506701e-01    0,000000000e+00    0,000000000e+00    0,000000000e+00    0,000000000e+00
      730000000   -5,742919166e-03   -7,763409615e-02    2,130888999e-01   -5,744396448e-01    0,000000000e+00    0,000000000e+00    0,000000000e+00    0,000000000e+00
      744000000   -2,720781974e-02   -1,144695655e-01   -1,271516532e-01   -5,943384171e-01    0,000000000e+00    0,000000000e+00    0,000000000e+00    0,000000000e+00
      758000000   -7,856177539e-02   -1,340813190e-01   -4,266517758e-01   -4,365729392e-01    0,000000000e+00    0,000000000e+00    0,000000000e+00    0,000000000e+00
      772000000   -1,397253126e-01   -1,146614403e-01   -6,015878320e-01   -1,390192807e-01    0,000000000e+00    0,000000000e+00    0,000000000e+00    0,000000000e+00
      786000000   -1,731499732e-01   -5,370992422e-02   -5,874617100e-01    2,164149880e-01    0,000000000e+00    0,000000000e+00    0,000000000e+00    0,000000000e+00
      800000000   -1,578093916e-01    1,096950192e-02   -3,735704422e-01    5,061101317e-01    0,000000000e+00    0,000000000e+00    0,000000000e+00    0,000000000e+00
      814000000   -1,089957952e-01    4,501172900e-02   -3,876370192e-02    6,220300794e-01    0,000000000e+00    0,000000000e+00    0,000000000e+00    0,000000000e+00
      828000000   -6,372707337e-02    4,280845821e-02    2,961498499e-01    5,432188511e-01    0,000000000e+00    0,000000000e+00    0,000000000e+00    0,000000000e+00
      842000000   -3,704308718e-02    2,479838207e-02    5,302218795e-01    3,026033938e-01    0,000000000e+00    0,000000000e+00    0,000000000e+00    0,000000000e+00
      856000000   -1,977403089e-02    7,457312662e-03    6,021533012e-01   -2,229975164e-02    0,000000000e+00    0,000000000e+00    0,000000000e+00    0,000000000e+00
      870000000   -1,450078562e-03   -1,384089701e-02    4,884551764e-01   -3,291838169e-01    0,000000000e+00    0,000000000e+00    0,000000000e+00    0,000000000e+00
      884000000    8,842900395e-03   -5,192370340e-02    2,360991538e-01   -5,245031118e-01    0,000000000e+00    0,000000000e+00    0,000000000e+00    0,000000000e+00
      898000000   -6,911606528e-03   -1,010080501e-01   -7,211039215e-02   -5,619937181e-01    0,000000000e+00    0,000000000e+00    0,000000000e+00    0,000000000e+00
      912000000   -6,468952447e-02   -1,303162873e-01   -4,030176699e-01   -4,083488584e-01    0,000000000e+00    0,000000000e+00    0,000000000e+00    0,000000000e+00
      926000000   -1,294209212e-01   -1,167559698e-01   -5,793498755e-01   -1,337698996e-01    0,000000000e+00    0,000000000e+00    0,000000000e+00    0,000000000e+00
      940000000   -1,673365980e-01   -5,668781325e-02   -5,699100494e-01    2,189392298e-01    0,000000000e+00    0,000000000e+00    0,000000000e+00    0,000000000e+00
      954000000   -1,442193389e-01    6,762631238e-03   -3,564703465e-01    5,055327415e-01    0,000000000e+00    0,000000000e+00    0,000000000e+00    0,000000000e+00
      968000000   -9,262504429e-02    2,832677774e-02   -1,859433204e-02    6,180367470e-01    0,000000000e+00    0,000000000e+00    0,000000000e+00    0,000000000e+00
      982000000   -4,236498848e-02    8,106592111e-03    3,102550805e-01    5,287188292e-01    0,000000000e+00    0,000000000e+00    0,000000000e+00    0,000000000e+00
      996000000   -2,526950650e-02   -3,663689643e-02    5,288453102e-01    2,880524099e-01    0,000000000e+00    0,000000000e+00    0,000000000e+00    0,000000000e+00
     1010000000   -4,965212196e-02   -8,187555522e-02    5,754745603e-01   -1,708272845e-02    0,000000000e+00    0,000000000e+00    0,000000000e+00    0,000000000e+00
     1024000000   -1,131278500e-01   -1,048851535e-01    4,677283466e-01   -2,689735889e-01    0,000000000e+00    0,000000000e+00    0,000000000e+00    0,000000000e+00
     1038000000   -1,740011424e-01   -6,395521015e-02    2,909504175e-01   -4,316970706e-01    0,000000000e+00    0,000000000e+00    0,000000000e+00    0,000000000e+00
     1052000000   -1,685534865e-01    1,817449927e-02    5,654173344e-02   -5,184121132e-01    0,000000000e+00    0,000000000e+00    0,000000000e+00    0,000000000e+00
     1066000000   -1,148908809e-01    5,513111502e-02   -2,097647339e-01   -4,711021781e-01    0,000000000e+00    0,000000000e+00    0,000000000e+00    0,000000000e+00
     1080000000   -5,116734281e-02    4,803618416e-02   -4,251927733e-01   -2,848754525e-01    0,000000000e+00    0,000000000e+00    0,000000000e+00    0,000000000e+00
     1094000000   -2,264082432e-02    1,054312289e-02   -5,010735989e-01   -2,608926967e-03    0,000000000e+00    0,000000000e+00    0,000000000e+00    0,000000000e+00
     1108000000   -7,821327075e-03   -2,436188981e-02   -4,119715691e-01    2,790732384e-01    0,000000000e+00    0,000000000e+00    0,000000000e+00    0,000000000e+00
     1122000000   -1,026840042e-02   -7,135772705e-02   -1,767089814e-01    4,658431411e-01    0,000000000e+00    0,000000000e+00    0,000000000e+00    0,000000000e+00
     1136000000   -4,094267637e-02   -1,122882292e-01    1,400331706e-01    4,960795641e-01    0,000000000e+00    0,000000000e+00    0,000000000e+00    0,000000000e+00
     1150000000   -8,646620065e-02   -1,349603981e-01    4,325748086e-01    3,401511610e-01    0,000000000e+00    0,000000000e+00    0,000000000e+00    0,000000000e+00
     1164000000   -1,487674713e-01   -1,339709461e-01    5,958476067e-01    2,102430724e-02    0,000000000e+00    0,000000000e+00    0,000000000e+00    0,000000000e+00
     1178000000   -1,890449226e-01   -8,692173660e-02    5,349435210e-01   -3,572907746e-01    0,000000000e+00    0,000000000e+00    0,000000000e+00    0,000000000e+00
     1192000000   -1,904896945e-01   -5,230028555e-02    2,459970713e-01   -6,246102452e-01    0,000000000e+00    0,000000000e+00    0,000000000e+00    0,000000000e+00
     1206000000   -2,013847679e-01   -4,440732300e-02   -1,285687685e-01   -6,619010568e-01    0,000000000e+00    0,000000000e+00    0,000000000e+00    0,000000000e+00
     1220000000   -2,450559139e-01   -1,208974398e-03   -4,195659757e-01   -4,840600491e-01    0,000000000e+00    0,000000000e+00    0,000000000e+00    0,000000000e+00
     1234000000   -2,400854975e-01    1,197140515e-01   -5,615907311e-01   -2,421513051e-01    0,000000000e+00    0,000000000e+00    0,000000000e+00    0,000000000e+00
     1248000000   -1,080988124e-01    1,770189852e-01   -5,908924341e-01    2,340066805e-02    0,000000000e+00    0,000000000e+00    0,000000000e+00    0,000000000e+00
     1262000000    1,424763119e-03    1,292122006e-01   -5,017131567e-01    2,904226184e-01    0,000000000e+00    0,000000000e+00    0,000000000e+00    0,000000000e+00
     1276000000    6,736165285e-02    3,895693645e-02   -2,727099061e-01    4,818644524e-01    0,000000000e+00    0,000000000e+00    0,000000000e+00    0,000000000e+00
     1290000000    7,022160292e-02   -7,392060757e-02    1,358822919e-03    5,401662588e-01    0,000000000e+00    0,000000000e+00    0,000000000e+00    0,000000000e+00
     1304000000    2,181383781e-02   -1,829157472e-01    2,968968153e-01    4,779330194e-01    0,000000000e+00    0,000000000e+00    0,000000000e+00    0,000000000e+00
     1318000000   -8,815908432e-02   -2,566355467e-01    5,302442908e-01    2,683084607e-01    0,000000000e+00    0,000000000e+00    0,000000000e+00    0,000000000e+00
     1332000000   -2,381030321e-01   -2,474718690e-01    6,494728923e-01   -4,523507506e-02    0,000000000e+00    0,000000000e+00    0,000000000e+00    0,000000000e+00
     1346000000   -3,621063232e-01   -1,499475986e-01    5,492693186e-01   -4,123590589e-01    0,000000000e+00    0,000000000e+00    0,000000000e+00    0,000000000e+00
     1360000000   -3,940140605e-01   -2,964603249e-03    2,527976632e-01   -6,322723031e-01    0,000000000e+00    0,000000000e+00    0,000000000e+00    0,000000000e+00
     1374000000   -3,311888874e-01    1,192220822e-01   -1,023727283e-01   -6,240844727e-01    0,000000000e+00    0,000000000e+00    0,000000000e+00    0,000000000e+00
     1388000000   -2,432682365e-01    1,775355637e-01   -3,696332574e-01   -4,088416398e-01    0,000000000e+00    0,000000000e+00    0,000000000e+00    0,000000000e+00
     1402000000   -1,547761708e-01    1,804579347e-01   -4,725030363e-01   -9,675266594e-02    0,000000000e+00    0,000000000e+00    0,000000000e+00    0,000000000e+00
     1416000000   -8,182599396e-02    1,484709531e-01   -3,706734180e-01    1,997109354e-01    0,000000000e+00    0,000000000e+00    0,000000000e+00    0,000000000e+00
     1430000000   -3,497851267e-02    9,767585993e-02   -1,774545908e-01    4,262427390e-01    0,000000000e+00    0,000000000e+00    0,000000000e+00    0,000000000e+00
     1444000000   -7,177632302e-03    1,318148337e-02    1,272757053e-01    5,172662735e-01    0,000000000e+00    0,000000000e+00    0,000000000e+00    0,000000000e+00
     1458000000   -2,853744850e-02   -7,209616154e-02    4,323562086e-01    4,871326983e-01    0,000000000e+00    0,000000000e+00    0,000000000e+00    0,000000000e+00
     1472000000   -1,104430854e-01   -1,396348327e-01    7,207711935e-01    3,002015352e-01    0,000000000e+00    0,000000000e+00    0,000000000e+00    0,000000000e+00
     1486000000   -2,174358219e-01   -1,439366639e-01    8,895837665e-01   -2,848056704e-02    0,000000000e+00    0,000000000e+00    0,000000000e+00    0,000000000e+00
     1500000000   -2,866224051e-01   -7,407908887e-02    8,425773382e-01   -4,078747034e-01    0,000000000e+00    0,000000000e+00    0,000000000e+00    0,000000000e+00
