! NanoVNA-App
! Date: 2025-09-25 15:01:13
! Start: 100MHz Stop: 1,5GHz Points: 101
! S-Parameter data: F S11 S21 S12 S22
# Hz S RI R 50
!     Frequency           S11_Real           S11_Imag           S21_Real           S21_Imag           S12_Real           S12_Imag           S22_Real           S22_Imag
      100000000    3,558014706e-02    2,737330832e-02    4,407402277e-01   -6,695438623e-01    0,000000000e+00    0,000000000e+00    0,000000000e+00    0,000000000e+00
      114000000    6,071412936e-02    2,192846732e-03    1,300320122e-02   -7,953695059e-01    0,000000000e+00    0,000000000e+00    0,000000000e+00    0,000000000e+00
      128000000    6,837499887e-02   -4,224280268e-02   -4,081518054e-01   -6,780994534e-01    0,000000000e+00    0,000000000e+00    0,000000000e+00    0,000000000e+00
      142000000    4,348196834e-02   -8,882827312e-02   -7,052168250e-01   -3,609025776e-01    0,000000000e+00    0,000000000e+00    0,000000000e+00    0,000000000e+00
      156000000   -8,694116957e-03   -1,103774607e-01   -7,942739129e-01    6,836760044e-02    0,000000000e+00    0,000000000e+00    0,000000000e+00    0,000000000e+00
      170000000   -6,268816441e-02   -9,174274653e-02   -6,369928122e-01    4,861763716e-01    0,000000000e+00    0,000000000e+00    0,000000000e+00    0,000000000e+00
      184000000   -8,859797567e-02   -4,770592228e-02   -2,732735574e-01    7,564262748e-01    0,000000000e+00    0,000000000e+00    0,000000000e+00    0,000000000e+00
      198000000   -8,276591450e-02   -6,447608583e-03    1,793688685e-01    7,826890349e-01    0,000000000e+00    0,000000000e+00    0,000000000e+00    0,000000000e+00
      212000000   -6,272740662e-02    1,799246110e-02    5,707757473e-01    5,584457517e-01    0,000000000e+00    0,000000000e+00    0,000000000e+00    0,000000000e+00
      226000000   -4,156018794e-02    3,186648339e-02    7,767308354e-01    1,619213820e-01    0,000000000e+00    0,000000000e+00    0,000000000e+00    0,000000000e+00
      240000000   -1,495273970e-02    4,135195538e-02    7,361258268e-01   -2,786989808e-01    0,000000000e+00    0,000000000e+00    0,000000000e+00    0,000000000e+00
      254000000    2,139220759e-02    3,631305695e-02    4,681642056e-01   -6,222068071e-01    0,000000000e+00    0,000000000e+00    0,000000000e+00    0,000000000e+00
      268000000    5,326835811e-02    4,715512507e-03    6,680561602e-02   -7,671589255e-01    0,000000000e+00    0,000000000e+00    0,000000000e+00    0,000000000e+00
      282000000    5,744340643e-02   -4,488493130e-02   -3,453696966e-01   -6,828753352e-01    0,000000000e+00    0,000000000e+00    0,000000000e+00    0,000000000e+00
      296000000    2,614960074e-02   -8,477985859e-02   -6,554866433e-01   -3,979158103e-01    0,000000000e+00    0,000000000e+00    0,000000000e+00    0,000000000e+00
      310000000   -1,906088740e-02   -8,942010999e-02   -7,744318843e-01    9,512792341e-03    0,000000000e+00    0,000000000e+00    0,000000000e+00    0,000000000e+00
      324000000   -4,665366188e-02   -6,348622590e-02   -6,480023265e-01    4,299277067e-01    0,000000000e+00    0,000000000e+00    0,000000000e+00    0,000000000e+00
      338000000   -4,125581309e-02   -3,775694966e-02   -3,112725019e-01    7,078096867e-01    0,000000000e+00    0,000000000e+00    0,000000000e+00    0,000000000e+00
      352000000   -2,355947718e-02   -3,794189170e-02    1,191406548e-01    7,589673400e-01    0,000000000e+00    0,000000000e+00    0,000000000e+00    0,000000000e+00
      366000000   -2,315725200e-02   -5,595473945e-02    5,024789572e-01    5,720196962e-01    0,000000000e+00    0,000000000e+00    0,000000000e+00    0,000000000e+00
      380000000   -4,453231767e-02   -6,511436403e-02    7,262447476e-01    2,120784521e-01    0,000000000e+00    0,000000000e+00    0,000000000e+00    0,000000000e+00
      394000000   -6,642354280e-02   -5,069016665e-02    7,220783234e-01   -2,132317722e-01    0,000000000e+00    0,000000000e+00    0,000000000e+00    0,000000000e+00
      408000000   -6,762307137e-02   -2,648416907e-02    4,907919466e-01   -5,692920685e-01    0,000000000e+00    0,000000000e+00    0,000000000e+00    0,000000000e+00
      422000000   -5,331907049e-02   -1,515315101e-02    1,068374068e-01   -7,381437421e-01    0,000000000e+00    0,000000000e+00    0,000000000e+00    0,000000000e+00
      436000000   -4,652073979e-02   -1,842903346e-02   -3,070884645e-01   -6,759568453e-01    0,000000000e+00    0,000000000e+00    0,000000000e+00    0,000000000e+00
      450000000   -5,172654986e-02   -1,512532122e-02   -6,189482212e-01   -3,993285298e-01    0,000000000e+00    0,000000000e+00    0,000000000e+00    0,000000000e+00
      464000000   -5,029122531e-02    5,521192681e-03   -7,301607728e-01    2,985648578e-03    0,000000000e+00    0,000000000e+00    0,000000000e+00    0,000000000e+00
      478000000   -2,032471076e-02    2,632816695e-02   -5,984254479e-01    3,971548080e-01    0,000000000e+00    0,000000000e+00    0,000000000e+00    0,000000000e+00
      492000000    2,823791280e-02    1,440756768e-02   -2,797951102e-01    6,440262198e-01    0,000000000e+00    0,000000000e+00    0,000000000e+00    0,000000000e+00
      506000000    5,863075703e-02   -3,752672300e-02    1,045075879e-01    6,809270382e-01    0,000000000e+00    0,000000000e+00    0,000000000e+00    0,000000000e+00
      520000000    4,421837255e-02   -1,025155634e-01    4,421052635e-01    5,185395479e-01    0,000000000e+00    0,000000000e+00    0,000000000e+00    0,000000000e+00
      534000000   -1,258656662e-02   -1,439019144e-01    6,489419937e-01    2,059248984e-01    0,000000000e+00    0,000000000e+00    0,000000000e+00    0,000000000e+00
      548000000   -8,127952367e-02   -1,391607374e-01    6,599208117e-01   -1,753955185e-01    0,000000000e+00    0,000000000e+00    0,000000000e+00    0,000000000e+00
      562000000   -1,301750690e-01   -9,836723655e-02    4,517475963e-01   -5,084592104e-01    0,000000000e+00    0,000000000e+00    0,000000000e+00    0,000000000e+00
      576000000   -1,475953907e-01   -4,115465656e-02    8,474870771e-02   -6,623627543e-01    0,000000000e+00    0,000000000e+00    0,000000000e+00    0,000000000e+00
      590000000   -1,315810531e-01    2,372443862e-02   -2,945918143e-01   -5,705429912e-01    0,000000000e+00    0,000000000e+00    0,000000000e+00    0,000000000e+00
      604000000   -5,026320368e-02    6,932548434e-02   -5,027874112e-01   -2,720137239e-01    0,000000000e+00    0,000000000e+00    0,000000000e+00    0,000000000e+00
      618000000    3,911066055e-02   -1,242767554e-02   -4,921929240e-01   -2,876082063e-02    0,000000000e+00    0,000000000e+00    0,000000000e+00    0,000000000e+00
      632000000   -3,886847198e-02   -9,855384380e-02   -5,082166195e-01    1,729118079e-01    0,000000000e+00    0,000000000e+00    0,000000000e+00    0,000000000e+00
      646000000   -1,022530198e-01   -4,386615381e-02   -3,801256120e-01    4,655512869e-01    0,000000000e+00    0,000000000e+00    0,000000000e+00    0,000000000e+00
      660000000   -7,490722090e-02    8,461692370e-03   -5,732259527e-02    6,222519875e-01    0,000000000e+00    0,000000000e+00    0,000000000e+00    0,000000000e+00
      674000000   -3,328153864e-02    7,096731104e-03    2,954629362e-01    5,550531149e-01    0,000000000e+00    0,000000000e+00    0,000000000e+00    0,000000000e+00
      688000000   -1,506278105e-02   -1,461054757e-02    5,458347797e-01    3,060953319e-01    0,000000000e+00    0,000000000e+00    0,000000000e+00    0,000000000e+00
      702000000   -1,291275118e-02   -3,320958838e-02    6,230581999e-01   -3,823135048e-02    0,000000000e+00    0,000000000e+00    0,000000000e+00    0,000000000e+00
      716000000   -7,946523838e-03   -4,733124003e-02    4,943114519e-01   -3,668508232e-01    0,000000000e+00    0,000000000e+00    0,000000000e+00    0,000000000e+00
      730000000   -6,365547422e-03   -7,530357689e-02    2,132042497e-01   -5,673119426e-01    0,000000000e+00    0,000000000e+00    0,000000000e+00    0,000000000e+00
      744000000   -2,514996007e-02   -1,118008792e-01   -1,214477867e-01   -5,890878439e-01    0,000000000e+00    0,000000000e+00    0,000000000e+00    0,000000000e+00
      758000000   -7,522217929e-02   -1,336417645e-01   -4,190082848e-01   -4,343129098e-01    0,000000000e+00    0,000000000e+00    0,000000000e+00    0,000000000e+00
      772000000   -1,358393878e-01   -1,162162870e-01   -5,948491693e-01   -1,419354230e-01    0,000000000e+00    0,000000000e+00    0,000000000e+00    0,000000000e+00
      786000000   -1,732702702e-01   -5,812351406e-02   -5,834152102e-01    2,090231776e-01    0,000000000e+00    0,000000000e+00    0,000000000e+00    0,000000000e+00
      800000000   -1,607755125e-01    8,367323317e-03   -3,745243847e-01    4,955556989e-01    0,000000000e+00    0,000000000e+00    0,000000000e+00    0,000000000e+00
      814000000   -1,139252558e-01    4,331524670e-02   -4,561867565e-02    6,154796481e-01    0,000000000e+00    0,000000000e+00    0,000000000e+00    0,000000000e+00
      828000000   -6,767501682e-02    4,437169805e-02    2,861286998e-01    5,410926342e-01    0,000000000e+00    0,000000000e+00    0,000000000e+00    0,000000000e+00
      842000000   -3,726984933e-02    2,803292684e-02    5,216033459e-01    3,057522774e-01    0,000000000e+00    0,000000000e+00    0,000000000e+00    0,000000000e+00
      856000000   -1,858743839e-02    1,069622301e-02    5,958848000e-01   -1,410660800e-02    0,000000000e+00    0,000000000e+00    0,000000000e+00    0,000000000e+00
      870000000    1,254519681e-03   -1,216572989e-02    4,876795709e-01   -3,187572062e-01    0,000000000e+00    0,000000000e+00    0,000000000e+00    0,000000000e+00
      884000000    1,215037331e-02   -5,101913586e-02    2,436750829e-01   -5,137095451e-01    0,000000000e+00    0,000000000e+00    0,000000000e+00    0,000000000e+00
      898000000   -4,552614409e-03   -1,001716033e-01   -6,040450931e-02   -5,568228364e-01    0,000000000e+00    0,000000000e+00    0,000000000e+00    0,000000000e+00
      912000000   -6,179319695e-02   -1,310932189e-01   -3,919831812e-01   -4,253213704e-01    0,000000000e+00    0,000000000e+00    0,000000000e+00    0,000000000e+00
      926000000   -1,264450848e-01   -1,180266142e-01   -5,689615607e-01   -1,449942142e-01    0,000000000e+00    0,000000000e+00    0,000000000e+00    0,000000000e+00
      940000000   -1,611907184e-01   -6,253211200e-02   -5,689213276e-01    1,934098750e-01    0,000000000e+00    0,000000000e+00    0,000000000e+00    0,000000000e+00
      954000000   -1,491347402e-01   -3,398122208e-04   -3,717460334e-01    4,844385087e-01    0,000000000e+00    0,000000000e+00    0,000000000e+00    0,000000000e+00
      968000000   -1,007181928e-01    2,373403497e-02   -5,187680200e-02    6,156078577e-01    0,000000000e+00    0,000000000e+00    0,000000000e+00    0,000000000e+00
      982000000   -5,543937534e-02    3,640954383e-03    2,807751298e-01    5,505541563e-01    0,000000000e+00    0,000000000e+00    0,000000000e+00    0,000000000e+00
      996000000   -4,484888539e-02   -2,935464121e-02    5,263004303e-01    3,245623708e-01    0,000000000e+00    0,000000000e+00    0,000000000e+00    0,000000000e+00
     1010000000   -6,407444179e-02   -6,676250696e-02    6,055926681e-01    1,359561551e-02    0,000000000e+00    0,000000000e+00    0,000000000e+00    0,000000000e+00
     1024000000   -9,919814765e-02   -7,613267004e-02    5,152469873e-01   -2,811039090e-01    0,000000000e+00    0,000000000e+00    0,000000000e+00    0,000000000e+00
     1038000000   -1,438143104e-01   -5,400761962e-02    2,944228649e-01   -4,711006284e-01    0,000000000e+00    0,000000000e+00    0,000000000e+00    0,000000000e+00
     1052000000   -1,494628042e-01    2,511786064e-03    3,292493895e-02   -5,246772766e-01    0,000000000e+00    0,000000000e+00    0,000000000e+00    0,000000000e+00
     1066000000   -1,071708873e-01    4,326435179e-02   -2,127936482e-01   -4,667748809e-01    0,000000000e+00    0,000000000e+00    0,000000000e+00    0,000000000e+00
     1080000000   -4,991703480e-02    2,658371441e-02   -4,183391631e-01   -2,972952724e-01    0,000000000e+00    0,000000000e+00    0,000000000e+00    0,000000000e+00
     1094000000   -3,518258408e-02   -3,763126442e-03   -5,205845237e-01   -2,166671492e-02    0,000000000e+00    0,000000000e+00    0,000000000e+00    0,000000000e+00
     1108000000   -3,465265781e-02   -3,193112835e-02   -4,413640201e-01    2,858299017e-01    0,000000000e+00    0,000000000e+00    0,000000000e+00    0,000000000e+00
     1122000000   -2,868419699e-02   -5,708461255e-02   -1,883708537e-01    4,963757694e-01    0,000000000e+00    0,000000000e+00    0,000000000e+00    0,000000000e+00
     1136000000   -4,173312709e-02   -9,022188187e-02    1,512749940e-01    5,170366168e-01    0,000000000e+00    0,000000000e+00    0,000000000e+00    0,000000000e+00
     1150000000   -8,532492816e-02   -1,191332564e-01    4,531770945e-01    3,427370787e-01    0,000000000e+00    0,000000000e+00    0,000000000e+00    0,000000000e+00
     1164000000   -1,380947828e-01   -1,216821522e-01    6,101657748e-01    8,407783695e-03    0,000000000e+00    0,000000000e+00    0,000000000e+00    0,000000000e+00
     1178000000   -1,749089211e-01   -8,449928463e-02    5,349264741e-01   -3,713351190e-01    0,000000000e+00    0,000000000e+00    0,000000000e+00    0,000000000e+00
     1192000000   -1,782672703e-01   -5,679249391e-02    2,420642972e-01   -6,362926364e-01    0,000000000e+00    0,000000000e+00    0,000000000e+00    0,000000000e+00
     1206000000   -1,937515736e-01   -5,394678935e-02   -1,425022483e-01   -6,603471637e-01    0,000000000e+00    0,000000000e+00    0,000000000e+00    0,000000000e+00
     1220000000   -2,553519607e-01   -1,977305487e-02   -4,161965847e-01   -4,826829731e-01    0,000000000e+00    0,000000000e+00    0,000000000e+00    0,000000000e+00
     1234000000   -2,379652858e-01    1,164008677e-01   -5,574976206e-01   -2,520019114e-01    0,000000000e+00    0,000000000e+00    0,000000000e+00    0,000000000e+00
     1248000000   -1,148760468e-01    1,758804172e-01   -6,058658361e-01    2,429156937e-02    0,000000000e+00    0,000000000e+00    0,000000000e+00    0,000000000e+00
     1262000000   -5,234588403e-03    1,348369569e-01   -5,108066201e-01    2,987236083e-01    0,000000000e+00    0,000000000e+00    0,000000000e+00    0,000000000e+00
     1276000000    6,516000628e-02    4,277710989e-02   -2,791020870e-01    4,916370213e-01    0,000000000e+00    0,000000000e+00    0,000000000e+00    0,000000000e+00
     1290000000    7,244347036e-02   -6,598579884e-02    1,006483380e-02    5,472941399e-01    0,000000000e+00    0,000000000e+00    0,000000000e+00    0,000000000e+00
     1304000000    1,746666804e-02   -1,769462079e-01    2,979598939e-01    4,821339846e-01    0,000000000e+00    0,000000000e+00    0,000000000e+00    0,000000000e+00
     1318000000   -8,912296593e-02   -2,502567768e-01    5,420904756e-01    2,727122605e-01    0,000000000e+00    0,000000000e+00    0,000000000e+00    0,000000000e+00
     1332000000   -2,429202497e-01   -2,436774373e-01    6,602357626e-01   -5,888910964e-02    0,000000000e+00    0,000000000e+00    0,000000000e+00    0,000000000e+00
     1346000000   -3,592419922e-01   -1,438510865e-01    5,629093647e-01   -4,064376652e-01    0,000000000e+00    0,000000000e+00    0,000000000e+00    0,000000000e+00
     1360000000   -3,854796886e-01    9,465803392e-03    2,598083019e-01   -6,326001287e-01    0,000000000e+00    0,000000000e+00    0,000000000e+00    0,000000000e+00
     1374000000   -3,281476796e-01    1,161975563e-01   -1,051079482e-01   -6,287415028e-01    0,000000000e+00    0,000000000e+00    0,000000000e+00    0,000000000e+00
     1388000000   -2,417617589e-01    1,680664122e-01   -3,857266307e-01   -4,162393808e-01    0,000000000e+00    0,000000000e+00    0,000000000e+00    0,000000000e+00
     1402000000   -1,604774147e-01    1,736369580e-01   -4,799904227e-01   -1,081660539e-01    0,000000000e+00    0,000000000e+00    0,000000000e+00    0,000000000e+00
     1416000000   -8,616843820e-02    1,411703378e-01   -3,951887190e-01    1,983295828e-01    0,000000000e+00    0,000000000e+00    0,000000000e+00    0,000000000e+00
     1430000000   -2,990044840e-02    8,234961331e-02   -1,793310642e-01    4,453222156e-01    0,000000000e+00    0,000000000e+00    0,000000000e+00    0,000000000e+00
     1444000000   -1,226187032e-02    9,413443506e-03    1,238155067e-01    5,254081488e-01    0,000000000e+00    0,000000000e+00    0,000000000e+00    0,000000000e+00
     1458000000   -4,139436409e-02   -7,926473022e-02    4,330996573e-01    4,923456907e-01    0,000000000e+00    0,000000000e+00    0,000000000e+00    0,000000000e+00
     1472000000   -1,228109077e-01   -1,473969668e-01    7,342070937e-01    3,125276268e-01    0,000000000e+00    0,000000000e+00    0,000000000e+00    0,000000000e+00
     1486000000   -2,255311906e-01   -1,399197280e-01    9,132329822e-01   -3,848664463e-02    0,000000000e+00    0,000000000e+00    0,000000000e+00    0,000000000e+00
     1500000000   -3,065576851e-01   -7,143867761e-02    8,419681191e-01   -4,258269966e-01    0,000000000e+00    0,000000000e+00    0,000000000e+00    0,000000000e+00
