! NanoVNA-App
! Date: 2025-09-25 14:58:21
! Start: 100MHz Stop: 1,5GHz Points: 101
! S-Parameter data: F S11 S21 S12 S22
# Hz S RI R 50
!     Frequency           S11_Real           S11_Imag           S21_Real           S21_Imag           S12_Real           S12_Imag           S22_Real           S22_Imag
      100000000    3,560676798e-02    2,738131210e-02    4,407056868e-01   -6,695238948e-01    0,000000000e+00    0,000000000e+00    0,000000000e+00    0,000000000e+00
      114000000    6,072970852e-02    2,179714851e-03    1,269256137e-02   -7,953128219e-01    0,000000000e+00    0,000000000e+00    0,000000000e+00    0,000000000e+00
      128000000    6,838984787e-02   -4,220092669e-02   -4,084147811e-01   -6,781827211e-01    0,000000000e+00    0,000000000e+00    0,000000000e+00    0,000000000e+00
      142000000    4,350285232e-02   -8,878777921e-02   -7,053629756e-01   -3,610905707e-01    0,000000000e+00    0,000000000e+00    0,000000000e+00    0,000000000e+00
      156000000   -8,721562102e-03   -1,104531586e-01   -7,941488028e-01    6,841702014e-02    0,000000000e+00    0,000000000e+00    0,000000000e+00    0,000000000e+00
      170000000   -6,259844452e-02   -9,169368446e-02   -6,369679570e-01    4,865016937e-01    0,000000000e+00    0,000000000e+00    0,000000000e+00    0,000000000e+00
      184000000   -8,852145821e-02   -4,768951237e-02   -2,730353177e-01    7,563902736e-01    0,000000000e+00    0,000000000e+00    0,000000000e+00    0,000000000e+00
      198000000   -8,268569410e-02   -6,436998025e-03    1,797674745e-01    7,824697495e-01    0,000000000e+00    0,000000000e+00    0,000000000e+00    0,000000000e+00
      212000000   -6,270030141e-02    1,804396138e-02    5,706516504e-01    5,584098697e-01    0,000000000e+00    0,000000000e+00    0,000000000e+00    0,000000000e+00
      226000000   -4,145215079e-02    3,184254467e-02    7,767780423e-01    1,618541032e-01    0,000000000e+00    0,000000000e+00    0,000000000e+00    0,000000000e+00
      240000000   -1,485058106e-02    4,128436372e-02    7,360590696e-01   -2,786499560e-01    0,000000000e+00    0,000000000e+00    0,000000000e+00    0,000000000e+00
      254000000    2,141659148e-02    3,627803922e-02    4,677932858e-01   -6,221644282e-01    0,000000000e+00    0,000000000e+00    0,000000000e+00    0,000000000e+00
      268000000    5,329304188e-02    4,728844855e-03    6,659224629e-02   -7,671511769e-01    0,000000000e+00    0,000000000e+00    0,000000000e+00    0,000000000e+00
      282000000    5,738401413e-02   -4,487535357e-02   -3,456837237e-01   -6,822595000e-01    0,000000000e+00    0,000000000e+00    0,000000000e+00    0,000000000e+00
      296000000    2,624009363e-02   -8,472795784e-02   -6,557484865e-01   -3,975302279e-01    0,000000000e+00    0,000000000e+00    0,000000000e+00    0,000000000e+00
      310000000   -1,907051541e-02   -8,934759349e-02   -7,738981247e-01    9,402586147e-03    0,000000000e+00    0,000000000e+00    0,000000000e+00    0,000000000e+00
      324000000   -4,661545157e-02   -6,350069493e-02   -6,477361917e-01    4,295499027e-01    0,000000000e+00    0,000000000e+00    0,000000000e+00    0,000000000e+00
      338000000   -4,105202109e-02   -3,770684451e-02   -3,110398948e-01    7,108669877e-01    0,000000000e+00    0,000000000e+00    0,000000000e+00    0,000000000e+00
      352000000   -2,331824414e-02   -3,765284643e-02    1,194585413e-01    7,589307427e-01    0,000000000e+00    0,000000000e+00    0,000000000e+00    0,000000000e+00
      366000000   -2,262654155e-02   -5,605541915e-02    5,043542981e-01    5,705864429e-01    0,000000000e+00    0,000000000e+00    0,000000000e+00    0,000000000e+00
      380000000   -4,447149485e-02   -6,517546624e-02    7,262515426e-01    2,116045207e-01    0,000000000e+00    0,000000000e+00    0,000000000e+00    0,000000000e+00
      394000000   -6,642899662e-02   -5,078761280e-02    7,224243283e-01   -2,130197138e-01    0,000000000e+00    0,000000000e+00    0,000000000e+00    0,000000000e+00
      408000000   -6,745740771e-02   -2,655443549e-02    4,905371666e-01   -5,691516399e-01    0,000000000e+00    0,000000000e+00    0,000000000e+00    0,000000000e+00
      422000000   -5,333475396e-02   -1,516974624e-02    1,051413566e-01   -7,391584516e-01    0,000000000e+00    0,000000000e+00    0,000000000e+00    0,000000000e+00
      436000000   -4,647640139e-02   -1,873031631e-02   -3,058175743e-01   -6,758851409e-01    0,000000000e+00    0,000000000e+00    0,000000000e+00    0,000000000e+00
      450000000   -5,186170712e-02   -1,522257365e-02   -6,184591651e-01   -4,000296891e-01    0,000000000e+00    0,000000000e+00    0,000000000e+00    0,000000000e+00
      464000000   -5,059858412e-02    5,596788600e-03   -7,299643755e-01    3,413231345e-03    0,000000000e+00    0,000000000e+00    0,000000000e+00    0,000000000e+00
      478000000   -2,058786713e-02    2,624702826e-02   -5,988799930e-01    3,971849382e-01    0,000000000e+00    0,000000000e+00    0,000000000e+00    0,000000000e+00
      492000000    2,829997428e-02    1,504317950e-02   -2,803484499e-01    6,441776752e-01    0,000000000e+00    0,000000000e+00    0,000000000e+00    0,000000000e+00
      506000000    5,946536362e-02   -3,793074563e-02    1,051852033e-01    6,805413365e-01    0,000000000e+00    0,000000000e+00    0,000000000e+00    0,000000000e+00
      520000000    4,347247258e-02   -1,025106907e-01    4,431286156e-01    5,169640779e-01    0,000000000e+00    0,000000000e+00    0,000000000e+00    0,000000000e+00
      534000000   -1,252866071e-02   -1,439698040e-01    6,493737698e-01    2,056800276e-01    0,000000000e+00    0,000000000e+00    0,000000000e+00    0,000000000e+00
      548000000   -8,227177709e-02   -1,400298029e-01    6,595500708e-01   -1,763330996e-01    0,000000000e+00    0,000000000e+00    0,000000000e+00    0,000000000e+00
      562000000   -1,312627941e-01   -9,835605323e-02    4,502022564e-01   -5,078867078e-01    0,000000000e+00    0,000000000e+00    0,000000000e+00    0,000000000e+00
      576000000   -1,496542692e-01   -3,851271048e-02    8,157270402e-02   -6,594832540e-01    0,000000000e+00    0,000000000e+00    0,000000000e+00    0,000000000e+00
      590000000   -1,297421157e-01    2,988876775e-02   -2,970933616e-01   -5,627116561e-01    0,000000000e+00    0,000000000e+00    0,000000000e+00    0,000000000e+00
      604000000   -3,677326813e-02    6,778625399e-02   -4,865362644e-01   -2,702589631e-01    0,000000000e+00    0,000000000e+00    0,000000000e+00    0,000000000e+00
      618000000    3,390840441e-02   -3,198664263e-02   -4,937580526e-01   -5,301446840e-02    0,000000000e+00    0,000000000e+00    0,000000000e+00    0,000000000e+00
      632000000   -5,434582010e-02   -9,209719300e-02   -5,272815824e-01    1,778419912e-01    0,000000000e+00    0,000000000e+00    0,000000000e+00    0,000000000e+00
      646000000   -9,907747060e-02   -3,284791484e-02   -3,791599572e-01    4,775221050e-01    0,000000000e+00    0,000000000e+00    0,000000000e+00    0,000000000e+00
      660000000   -6,854276359e-02    9,229826741e-03   -5,045605451e-02    6,240379810e-01    0,000000000e+00    0,000000000e+00    0,000000000e+00    0,000000000e+00
      674000000   -3,010461852e-02    5,063414108e-03    2,991451323e-01    5,527645350e-01    0,000000000e+00    0,000000000e+00    0,000000000e+00    0,000000000e+00
      688000000   -1,557739917e-02   -1,793338358e-02    5,473843813e-01    3,032574356e-01    0,000000000e+00    0,000000000e+00    0,000000000e+00    0,000000000e+00
      702000000   -1,377422828e-02   -3,557115793e-02    6,227063537e-01   -4,025921226e-02    0,000000000e+00    0,000000000e+00    0,000000000e+00    0,000000000e+00
      716000000   -9,328233078e-03   -4,837407172e-02    4,911614656e-01   -3,684231043e-01    0,000000000e+00    0,000000000e+00    0,000000000e+00    0,000000000e+00
      730000000   -6,770162378e-03   -7,465270162e-02    2,111996561e-01   -5,672738552e-01    0,000000000e+00    0,000000000e+00    0,000000000e+00    0,000000000e+00
      744000000   -2,665893175e-02   -1,111423299e-01   -1,247916073e-01   -5,869676471e-01    0,000000000e+00    0,000000000e+00    0,000000000e+00    0,000000000e+00
      758000000   -7,441234589e-02   -1,320844889e-01   -4,192049205e-01   -4,326619804e-01    0,000000000e+00    0,000000000e+00    0,000000000e+00    0,000000000e+00
      772000000   -1,342502534e-01   -1,157143414e-01   -5,935596228e-01   -1,396852583e-01    0,000000000e+00    0,000000000e+00    0,000000000e+00    0,000000000e+00
      786000000   -1,722664088e-01   -5,844283104e-02   -5,808765888e-01    2,101675719e-01    0,000000000e+00    0,000000000e+00    0,000000000e+00    0,000000000e+00
      800000000   -1,597782522e-01    7,292384747e-03   -3,726249635e-01    4,957515597e-01    0,000000000e+00    0,000000000e+00    0,000000000e+00    0,000000000e+00
      814000000   -1,147545800e-01    4,300462455e-02   -4,547958821e-02    6,137120128e-01    0,000000000e+00    0,000000000e+00    0,000000000e+00    0,000000000e+00
      828000000   -6,859152764e-02    4,378594831e-02    2,853537500e-01    5,394443274e-01    0,000000000e+00    0,000000000e+00    0,000000000e+00    0,000000000e+00
      842000000   -3,934091702e-02    2,908725478e-02    5,213225484e-01    3,054043949e-01    0,000000000e+00    0,000000000e+00    0,000000000e+00    0,000000000e+00
      856000000   -1,782768965e-02    1,291797496e-02    5,942516923e-01   -1,455320045e-02    0,000000000e+00    0,000000000e+00    0,000000000e+00    0,000000000e+00
      870000000    2,001593821e-03   -1,146259718e-02    4,869891405e-01   -3,175487220e-01    0,000000000e+00    0,000000000e+00    0,000000000e+00    0,000000000e+00
      884000000    1,368915755e-02   -5,145272985e-02    2,427430302e-01   -5,115040541e-01    0,000000000e+00    0,000000000e+00    0,000000000e+00    0,000000000e+00
      898000000   -3,974303603e-03   -1,021346897e-01   -5,797744915e-02   -5,540322661e-01    0,000000000e+00    0,000000000e+00    0,000000000e+00    0,000000000e+00
      912000000   -6,247302890e-02   -1,323373020e-01   -3,887491822e-01   -4,261844456e-01    0,000000000e+00    0,000000000e+00    0,000000000e+00    0,000000000e+00
      926000000   -1,254907101e-01   -1,196638122e-01   -5,635602474e-01   -1,483613551e-01    0,000000000e+00    0,000000000e+00    0,000000000e+00    0,000000000e+00
      940000000   -1,617726684e-01   -6,296108663e-02   -5,683869123e-01    1,924241930e-01    0,000000000e+00    0,000000000e+00    0,000000000e+00    0,000000000e+00
      954000000   -1,451446414e-01    1,822298509e-04   -3,750006855e-01    4,823641181e-01    0,000000000e+00    0,000000000e+00    0,000000000e+00    0,000000000e+00
      968000000   -9,844931215e-02    2,172202989e-02   -5,313494056e-02    6,145395637e-01    0,000000000e+00    0,000000000e+00    0,000000000e+00    0,000000000e+00
      982000000   -5,459397659e-02    7,664314006e-03    2,815560997e-01    5,503949523e-01    0,000000000e+00    0,000000000e+00    0,000000000e+00    0,000000000e+00
      996000000   -4,378785565e-02   -3,549181670e-02    5,246499181e-01    3,276529014e-01    0,000000000e+00    0,000000000e+00    0,000000000e+00    0,000000000e+00
     1010000000   -6,461138278e-02   -6,499152631e-02    6,076959372e-01    1,401857380e-02    0,000000000e+00    0,000000000e+00    0,000000000e+00    0,000000000e+00
     1024000000   -1,027866974e-01   -7,978691161e-02    5,163271427e-01   -2,814011574e-01    0,000000000e+00    0,000000000e+00    0,000000000e+00    0,000000000e+00
     1038000000   -1,405405402e-01   -5,990781263e-02    2,938969135e-01   -4,696880877e-01    0,000000000e+00    0,000000000e+00    0,000000000e+00    0,000000000e+00
     1052000000   -1,493151784e-01   -1,661332557e-03    3,659464419e-02   -5,224668980e-01    0,000000000e+00    0,000000000e+00    0,000000000e+00    0,000000000e+00
     1066000000   -1,089616045e-01    4,047085717e-02   -2,128261328e-01   -4,658687413e-01    0,000000000e+00    0,000000000e+00    0,000000000e+00    0,000000000e+00
     1080000000   -4,974846914e-02    2,951256931e-02   -4,171079695e-01   -2,986728847e-01    0,000000000e+00    0,000000000e+00    0,000000000e+00    0,000000000e+00
     1094000000   -3,604924679e-02   -8,913304657e-03   -5,179524422e-01   -2,614425123e-02    0,000000000e+00    0,000000000e+00    0,000000000e+00    0,000000000e+00
     1108000000   -3,438049927e-02   -2,914227545e-02   -4,431899190e-01    2,844261229e-01    0,000000000e+00    0,000000000e+00    0,000000000e+00    0,000000000e+00
     1122000000   -3,444709256e-02   -5,665608868e-02   -1,847217381e-01    4,973693490e-01    0,000000000e+00    0,000000000e+00    0,000000000e+00    0,000000000e+00
     1136000000   -3,920910135e-02   -9,496839345e-02    1,508074701e-01    5,199998021e-01    0,000000000e+00    0,000000000e+00    0,000000000e+00    0,000000000e+00
     1150000000   -8,534317464e-02   -1,253251135e-01    4,531776011e-01    3,420396745e-01    0,000000000e+00    0,000000000e+00    0,000000000e+00    0,000000000e+00
     1164000000   -1,395903230e-01   -1,198221073e-01    6,110914350e-01    1,242824085e-02    0,000000000e+00    0,000000000e+00    0,000000000e+00    0,000000000e+00
     1178000000   -1,777947694e-01   -8,494425565e-02    5,390675068e-01   -3,745532334e-01    0,000000000e+00    0,000000000e+00    0,000000000e+00    0,000000000e+00
     1192000000   -1,821544170e-01   -5,488014594e-02    2,378604114e-01   -6,394346952e-01    0,000000000e+00    0,000000000e+00    0,000000000e+00    0,000000000e+00
     1206000000   -1,915458441e-01   -5,119433627e-02   -1,377886236e-01   -6,597459912e-01    0,000000000e+00    0,000000000e+00    0,000000000e+00    0,000000000e+00
     1220000000   -2,556952834e-01   -1,450558472e-02   -4,206926823e-01   -4,803903401e-01    0,000000000e+00    0,000000000e+00    0,000000000e+00    0,000000000e+00
     1234000000   -2,386292815e-01    1,125989482e-01   -5,546044111e-01   -2,489089370e-01    0,000000000e+00    0,000000000e+00    0,000000000e+00    0,000000000e+00
     1248000000   -1,115791351e-01    1,713726521e-01   -6,019915342e-01    1,990566775e-02    0,000000000e+00    0,000000000e+00    0,000000000e+00    0,000000000e+00
     1262000000   -8,927868679e-03    1,329655647e-01   -5,089874864e-01    2,959635556e-01    0,000000000e+00    0,000000000e+00    0,000000000e+00    0,000000000e+00
     1276000000    6,449450552e-02    4,392374307e-02   -2,784706652e-01    4,893673360e-01    0,000000000e+00    0,000000000e+00    0,000000000e+00    0,000000000e+00
     1290000000    7,147070765e-02   -7,528758049e-02    8,388505317e-03    5,441657305e-01    0,000000000e+00    0,000000000e+00    0,000000000e+00    0,000000000e+00
     1304000000    1,546243671e-02   -1,786805689e-01    2,937996387e-01    4,798198342e-01    0,000000000e+00    0,000000000e+00    0,000000000e+00    0,000000000e+00
     1318000000   -8,776624501e-02   -2,510048151e-01    5,378059149e-01    2,745573223e-01    0,000000000e+00    0,000000000e+00    0,000000000e+00    0,000000000e+00
     1332000000   -2,422527373e-01   -2,455921769e-01    6,475319862e-01   -5,787571147e-02    0,000000000e+00    0,000000000e+00    0,000000000e+00    0,000000000e+00
     1346000000   -3,619233370e-01   -1,384307742e-01    5,434247851e-01   -4,049192667e-01    0,000000000e+00    0,000000000e+00    0,000000000e+00    0,000000000e+00
     1360000000   -3,901429772e-01    3,214535071e-03    2,604346871e-01   -6,328795552e-01    0,000000000e+00    0,000000000e+00    0,000000000e+00    0,000000000e+00
     1374000000   -3,276879191e-01    1,221965030e-01   -1,012380496e-01   -6,249245405e-01    0,000000000e+00    0,000000000e+00    0,000000000e+00    0,000000000e+00
     1388000000   -2,369126081e-01    1,712269336e-01   -3,781944811e-01   -4,141775370e-01    0,000000000e+00    0,000000000e+00    0,000000000e+00    0,000000000e+00
     1402000000   -1,557525396e-01    1,729634702e-01   -4,835098386e-01   -1,067913920e-01    0,000000000e+00    0,000000000e+00    0,000000000e+00    0,000000000e+00
     1416000000   -8,106933534e-02    1,461539716e-01   -3,966574073e-01    2,117026895e-01    0,000000000e+00    0,000000000e+00    0,000000000e+00    0,000000000e+00
     1430000000   -3,461722285e-02    8,657485247e-02   -1,958929151e-01    4,401804507e-01    0,000000000e+00    0,000000000e+00    0,000000000e+00    0,000000000e+00
     1444000000   -1,284393389e-02    6,659733132e-03    1,219355166e-01    5,343550444e-01    0,000000000e+00    0,000000000e+00    0,000000000e+00    0,000000000e+00
     1458000000   -4,507452250e-02   -8,076801896e-02    4,443422854e-01    5,003635287e-01    0,000000000e+00    0,000000000e+00    0,000000000e+00    0,000000000e+00
     1472000000   -1,279750764e-01   -1,504398286e-01    7,253628373e-01    3,060587347e-01    0,000000000e+00    0,000000000e+00    0,000000000e+00    0,000000000e+00
     1486000000   -2,365983874e-01   -1,409079283e-01    8,898028135e-01   -2,895430848e-02    0,000000000e+00    0,000000000e+00    0,000000000e+00    0,000000000e+00
     1500000000   -3,037928641e-01   -5,717419833e-02    8,427916765e-01   -4,220551848e-01    0,000000000e+00    0,000000000e+00    0,000000000e+00    0,000000000e+00
