! NanoVNA-App
! Date: 2025-09-25 14:55:37
! Start: 100MHz Stop: 1,5GHz Points: 101
! S-Parameter data: F S11 S21 S12 S22
# Hz S RI R 50
!     Frequency           S11_Real           S11_Imag           S21_Real           S21_Imag           S12_Real           S12_Imag           S22_Real           S22_Imag
      100000000    3,558370471e-02    2,692584507e-02    4,406607747e-01   -6,696316004e-01    0,000000000e+00    0,000000000e+00    0,000000000e+00    0,000000000e+00
      114000000    6,047701463e-02    1,690434990e-03    1,268907357e-02   -7,956489921e-01    0,000000000e+00    0,000000000e+00    0,000000000e+00    0,000000000e+00
      128000000    6,780432910e-02   -4,259700701e-02   -4,082494974e-01   -6,780651808e-01    0,000000000e+00    0,000000000e+00    0,000000000e+00    0,000000000e+00
      142000000    4,270026833e-02   -8,884473890e-02   -7,055037618e-01   -3,608815372e-01    0,000000000e+00    0,000000000e+00    0,000000000e+00    0,000000000e+00
      156000000   -1,038323529e-02   -1,097520515e-01   -7,930627465e-01    6,832697242e-02    0,000000000e+00    0,000000000e+00    0,000000000e+00    0,000000000e+00
      170000000   -6,333856285e-02   -9,091840684e-02   -6,370794177e-01    4,870505631e-01    0,000000000e+00    0,000000000e+00    0,000000000e+00    0,000000000e+00
      184000000   -8,861429989e-02   -4,643657058e-02   -2,727440596e-01    7,566898465e-01    0,000000000e+00    0,000000000e+00    0,000000000e+00    0,000000000e+00
      198000000   -8,203362674e-02   -5,313656293e-03    1,800580025e-01    7,822569013e-01    0,000000000e+00    0,000000000e+00    0,000000000e+00    0,000000000e+00
      212000000   -6,142270938e-02    1,867287606e-02    5,708712935e-01    5,580019355e-01    0,000000000e+00    0,000000000e+00    0,000000000e+00    0,000000000e+00
      226000000   -3,999952599e-02    3,163756430e-02    7,768328786e-01    1,616118103e-01    0,000000000e+00    0,000000000e+00    0,000000000e+00    0,000000000e+00
      240000000   -1,361589879e-02    4,025471210e-02    7,359766364e-01   -2,789033949e-01    0,000000000e+00    0,000000000e+00    0,000000000e+00    0,000000000e+00
      254000000    2,195209265e-02    3,465295583e-02    4,678370357e-01   -6,221214533e-01    0,000000000e+00    0,000000000e+00    0,000000000e+00    0,000000000e+00
      268000000    5,286366865e-02    2,938574878e-03    6,638124585e-02   -7,678169608e-01    0,000000000e+00    0,000000000e+00    0,000000000e+00    0,000000000e+00
      282000000    5,608912185e-02   -4,636207968e-02   -3,460857272e-01   -6,829199195e-01    0,000000000e+00    0,000000000e+00    0,000000000e+00    0,000000000e+00
      296000000    2,407916449e-02   -8,521421999e-02   -6,558883190e-01   -3,977181315e-01    0,000000000e+00    0,000000000e+00    0,000000000e+00    0,000000000e+00
      310000000   -2,092672139e-02   -8,881480992e-02   -7,748283148e-01    1,186535321e-02    0,000000000e+00    0,000000000e+00    0,000000000e+00    0,000000000e+00
      324000000   -4,808426276e-02   -6,177227199e-02   -6,477226615e-01    4,303995371e-01    0,000000000e+00    0,000000000e+00    0,000000000e+00    0,000000000e+00
      338000000   -4,152073711e-02   -3,561722860e-02   -3,086479902e-01    7,112445235e-01    0,000000000e+00    0,000000000e+00    0,000000000e+00    0,000000000e+00
      352000000   -2,233870327e-02   -3,560379893e-02    1,202867553e-01    7,596650124e-01    0,000000000e+00    0,000000000e+00    0,000000000e+00    0,000000000e+00
      366000000   -2,129359357e-02   -5,480363593e-02    5,036463737e-01    5,711010098e-01    0,000000000e+00    0,000000000e+00    0,000000000e+00    0,000000000e+00
      380000000   -4,236893728e-02   -6,497298181e-02    7,263759375e-01    2,110351026e-01    0,000000000e+00    0,000000000e+00    0,000000000e+00    0,000000000e+00
      394000000   -6,452406943e-02   -5,165484548e-02    7,226592898e-01   -2,139926106e-01    0,000000000e+00    0,000000000e+00    0,000000000e+00    0,000000000e+00
      408000000   -6,618002057e-02   -2,813050523e-02    4,891896546e-01   -5,690597892e-01    0,000000000e+00    0,000000000e+00    0,000000000e+00    0,000000000e+00
      422000000   -5,312301591e-02   -1,765070856e-02    1,051696911e-01   -7,395442724e-01    0,000000000e+00    0,000000000e+00    0,000000000e+00    0,000000000e+00
      436000000   -4,718712345e-02   -2,078451402e-02   -3,060484529e-01   -6,765253544e-01    0,000000000e+00    0,000000000e+00    0,000000000e+00    0,000000000e+00
      450000000   -5,364804715e-02   -1,652563922e-02   -6,190380454e-01   -4,000526667e-01    0,000000000e+00    0,000000000e+00    0,000000000e+00    0,000000000e+00
      464000000   -5,257934332e-02    5,451503675e-03   -7,303016782e-01    3,520121565e-03    0,000000000e+00    0,000000000e+00    0,000000000e+00    0,000000000e+00
      478000000   -2,281943709e-02    2,726921625e-02   -5,997866392e-01    3,971343338e-01    0,000000000e+00    0,000000000e+00    0,000000000e+00    0,000000000e+00
      492000000    2,661348879e-02    1,696940139e-02   -2,801680863e-01    6,450937390e-01    0,000000000e+00    0,000000000e+00    0,000000000e+00    0,000000000e+00
      506000000    5,837894604e-02   -3,443837538e-02    1,050749123e-01    6,823024154e-01    0,000000000e+00    0,000000000e+00    0,000000000e+00    0,000000000e+00
      520000000    4,582891241e-02   -1,000094414e-01    4,446814060e-01    5,205693245e-01    0,000000000e+00    0,000000000e+00    0,000000000e+00    0,000000000e+00
      534000000   -9,750719182e-03   -1,415905654e-01    6,511555910e-01    2,064990848e-01    0,000000000e+00    0,000000000e+00    0,000000000e+00    0,000000000e+00
      548000000   -7,612052560e-02   -1,399339736e-01    6,633651257e-01   -1,761688888e-01    0,000000000e+00    0,000000000e+00    0,000000000e+00    0,000000000e+00
      562000000   -1,251801252e-01   -1,020171791e-01    4,560327232e-01   -5,112151504e-01    0,000000000e+00    0,000000000e+00    0,000000000e+00    0,000000000e+00
      576000000   -1,480573863e-01   -5,021860078e-02    8,522062004e-02   -6,703680754e-01    0,000000000e+00    0,000000000e+00    0,000000000e+00    0,000000000e+00
      590000000   -1,466784626e-01    1,560544781e-02   -3,094653189e-01   -5,806093812e-01    0,000000000e+00    0,000000000e+00    0,000000000e+00    0,000000000e+00
      604000000   -7,323896140e-02    9,753783047e-02   -5,343481898e-01   -2,449180484e-01    0,000000000e+00    0,000000000e+00    0,000000000e+00    0,000000000e+00
      618000000    1,008136198e-01    8,188928477e-03   -4,249187708e-01    5,645115860e-03    0,000000000e+00    0,000000000e+00    0,000000000e+00    0,000000000e+00
      632000000   -4,914960265e-02   -1,508404166e-01   -5,163029432e-01    1,111968756e-01    0,000000000e+00    0,000000000e+00    0,000000000e+00    0,000000000e+00
      646000000   -1,304843277e-01   -3,834306821e-02   -4,141775668e-01    4,719358087e-01    0,000000000e+00    0,000000000e+00    0,000000000e+00    0,000000000e+00
      660000000   -7,881178707e-02    2,391989529e-02   -6,244031340e-02    6,420572400e-01    0,000000000e+00    0,000000000e+00    0,000000000e+00    0,000000000e+00
      674000000   -2,730664052e-02    1,496689767e-02    3,048501015e-01    5,654476881e-01    0,000000000e+00    0,000000000e+00    0,000000000e+00    0,000000000e+00
      688000000   -9,043324739e-03   -1,380966231e-02    5,568614006e-01    3,072450459e-01    0,000000000e+00    0,000000000e+00    0,000000000e+00    0,000000000e+00
      702000000   -7,706810720e-03   -3,619490564e-02    6,272482276e-01   -4,047345370e-02    0,000000000e+00    0,000000000e+00    0,000000000e+00    0,000000000e+00
      716000000   -6,717866752e-03   -5,190140381e-02    4,963776469e-01   -3,753437996e-01    0,000000000e+00    0,000000000e+00    0,000000000e+00    0,000000000e+00
      730000000   -8,218463510e-03   -7,881072909e-02    2,120373696e-01   -5,757693052e-01    0,000000000e+00    0,000000000e+00    0,000000000e+00    0,000000000e+00
      744000000   -2,853284031e-02   -1,133144647e-01   -1,293035448e-01   -5,945418477e-01    0,000000000e+00    0,000000000e+00    0,000000000e+00    0,000000000e+00
      758000000   -7,936081290e-02   -1,326447725e-01   -4,289863408e-01   -4,341243207e-01    0,000000000e+00    0,000000000e+00    0,000000000e+00    0,000000000e+00
      772000000   -1,389611363e-01   -1,127310246e-01   -6,030530334e-01   -1,355664730e-01    0,000000000e+00    0,000000000e+00    0,000000000e+00    0,000000000e+00
      786000000   -1,731238365e-01   -5,246031284e-02   -5,866903663e-01    2,205476910e-01    0,000000000e+00    0,000000000e+00    0,000000000e+00    0,000000000e+00
      800000000   -1,553728878e-01    1,172671188e-02   -3,699822128e-01    5,073500276e-01    0,000000000e+00    0,000000000e+00    0,000000000e+00    0,000000000e+00
      814000000   -1,064338982e-01    4,386720434e-02   -3,719963506e-02    6,205005646e-01    0,000000000e+00    0,000000000e+00    0,000000000e+00    0,000000000e+00
      828000000   -6,210332736e-02    3,897081316e-02    2,968029976e-01    5,402261615e-01    0,000000000e+00    0,000000000e+00    0,000000000e+00    0,000000000e+00
      842000000   -3,753041476e-02    2,162772976e-02    5,309829712e-01    2,992374599e-01    0,000000000e+00    0,000000000e+00    0,000000000e+00    0,000000000e+00
      856000000   -2,152095921e-02    5,352924578e-03    5,994535089e-01   -2,528936975e-02    0,000000000e+00    0,000000000e+00    0,000000000e+00    0,000000000e+00
      870000000   -5,388446618e-03   -1,435191464e-02    4,839773774e-01   -3,307246566e-01    0,000000000e+00    0,000000000e+00    0,000000000e+00    0,000000000e+00
      884000000    5,913752597e-03   -4,936011881e-02    2,330542505e-01   -5,223022699e-01    0,000000000e+00    0,000000000e+00    0,000000000e+00    0,000000000e+00
      898000000   -8,410571143e-03   -9,654229879e-02   -7,410119474e-02   -5,580757856e-01    0,000000000e+00    0,000000000e+00    0,000000000e+00    0,000000000e+00
      912000000   -6,338318437e-02   -1,237733513e-01   -4,083641768e-01   -4,176860750e-01    0,000000000e+00    0,000000000e+00    0,000000000e+00    0,000000000e+00
      926000000   -1,242085472e-01   -1,111396775e-01   -5,746842027e-01   -1,284110993e-01    0,000000000e+00    0,000000000e+00    0,000000000e+00    0,000000000e+00
      940000000   -1,593682617e-01   -6,185184047e-02   -5,644496083e-01    2,116505355e-01    0,000000000e+00    0,000000000e+00    0,000000000e+00    0,000000000e+00
      954000000   -1,423651129e-01   -5,971566774e-03   -3,583892286e-01    4,956973493e-01    0,000000000e+00    0,000000000e+00    0,000000000e+00    0,000000000e+00
      968000000   -1,002376080e-01    2,032873221e-02   -2,860982716e-02    6,152842045e-01    0,000000000e+00    0,000000000e+00    0,000000000e+00    0,000000000e+00
      982000000   -5,496377125e-02    7,234107703e-03    3,010964990e-01    5,377284884e-01    0,000000000e+00    0,000000000e+00    0,000000000e+00    0,000000000e+00
      996000000   -4,330588132e-02   -3,160958365e-02    5,335038900e-01    2,997123599e-01    0,000000000e+00    0,000000000e+00    0,000000000e+00    0,000000000e+00
     1010000000   -5,620945618e-02   -6,033473834e-02    5,952939391e-01   -1,491414849e-02    0,000000000e+00    0,000000000e+00    0,000000000e+00    0,000000000e+00
     1024000000   -8,730883896e-02   -8,508529514e-02    4,788784087e-01   -2,910242379e-01    0,000000000e+00    0,000000000e+00    0,000000000e+00    0,000000000e+00
     1038000000   -1,379391849e-01   -7,753199339e-02    2,751090825e-01   -4,522430599e-01    0,000000000e+00    0,000000000e+00    0,000000000e+00    0,000000000e+00
     1052000000   -1,618206054e-01   -2,516455948e-02    3,462888673e-02   -5,152823329e-01    0,000000000e+00    0,000000000e+00    0,000000000e+00    0,000000000e+00
     1066000000   -1,422436237e-01    3,587058559e-02   -2,257179618e-01   -4,617403150e-01    0,000000000e+00    0,000000000e+00    0,000000000e+00    0,000000000e+00
     1080000000   -8,182975650e-02    5,534138530e-02   -4,260215759e-01   -2,668161392e-01    0,000000000e+00    0,000000000e+00    0,000000000e+00    0,000000000e+00
     1094000000   -3,381866962e-02    4,006445780e-02   -4,856601655e-01    1,230473816e-02    0,000000000e+00    0,000000000e+00    0,000000000e+00    0,000000000e+00
     1108000000   -2,836901695e-03   -7,452569436e-03   -3,853207231e-01    2,753621340e-01    0,000000000e+00    0,000000000e+00    0,000000000e+00    0,000000000e+00
     1122000000    8,061775006e-03   -6,080020219e-02   -1,645274013e-01    4,415362477e-01    0,000000000e+00    0,000000000e+00    0,000000000e+00    0,000000000e+00
     1136000000   -1,926939934e-02   -1,211665571e-01    1,208930686e-01    4,706060588e-01    0,000000000e+00    0,000000000e+00    0,000000000e+00    0,000000000e+00
     1150000000   -7,880690694e-02   -1,493162513e-01    4,054266214e-01    3,394514024e-01    0,000000000e+00    0,000000000e+00    0,000000000e+00    0,000000000e+00
     1164000000   -1,508578360e-01   -1,511250585e-01    5,739507079e-01    3,942169622e-02    0,000000000e+00    0,000000000e+00    0,000000000e+00    0,000000000e+00
     1178000000   -2,042805851e-01   -9,963553399e-02    5,413917303e-01   -3,375835419e-01    0,000000000e+00    0,000000000e+00    0,000000000e+00    0,000000000e+00
     1192000000   -2,127414048e-01   -4,784972221e-02    2,650260031e-01   -6,198495030e-01    0,000000000e+00    0,000000000e+00    0,000000000e+00    0,000000000e+00
     1206000000   -2,043520510e-01   -1,952744275e-02   -1,209892109e-01   -6,731811762e-01    0,000000000e+00    0,000000000e+00    0,000000000e+00    0,000000000e+00
     1220000000   -2,307747006e-01    1,053615822e-03   -4,353695512e-01   -5,031151772e-01    0,000000000e+00    0,000000000e+00    0,000000000e+00    0,000000000e+00
     1234000000   -2,315686196e-01    1,048669592e-01   -5,662416816e-01   -2,321780026e-01    0,000000000e+00    0,000000000e+00    0,000000000e+00    0,000000000e+00
     1248000000   -1,239475161e-01    1,774667501e-01   -5,945053697e-01    3,168302402e-02    0,000000000e+00    0,000000000e+00    0,000000000e+00    0,000000000e+00
     1262000000    3,780129831e-03    1,370382905e-01   -4,903872609e-01    2,852866650e-01    0,000000000e+00    0,000000000e+00    0,000000000e+00    0,000000000e+00
     1276000000    6,871856749e-02    4,789928347e-02   -2,750961185e-01    4,751923084e-01    0,000000000e+00    0,000000000e+00    0,000000000e+00    0,000000000e+00
     1290000000    7,445153594e-02   -6,808003038e-02    2,997107804e-03    5,346255302e-01    0,000000000e+00    0,000000000e+00    0,000000000e+00    0,000000000e+00
     1304000000    2,418952063e-02   -1,858840734e-01    2,835476696e-01    4,669576287e-01    0,000000000e+00    0,000000000e+00    0,000000000e+00    0,000000000e+00
     1318000000   -8,620199561e-02   -2,611825168e-01    5,249770284e-01    2,662360966e-01    0,000000000e+00    0,000000000e+00    0,000000000e+00    0,000000000e+00
     1332000000   -2,365030944e-01   -2,549766004e-01    6,447333097e-01   -4,663548246e-02    0,000000000e+00    0,000000000e+00    0,000000000e+00    0,000000000e+00
     1346000000   -3,713909388e-01   -1,513201445e-01    5,501607656e-01   -3,951088190e-01    0,000000000e+00    0,000000000e+00    0,000000000e+00    0,000000000e+00
     1360000000   -4,010252655e-01   -5,675216089e-04    2,570230663e-01   -6,171003580e-01    0,000000000e+00    0,000000000e+00    0,000000000e+00    0,000000000e+00
     1374000000   -3,416167200e-01    1,154643372e-01   -9,747473150e-02   -6,220756173e-01    0,000000000e+00    0,000000000e+00    0,000000000e+00    0,000000000e+00
     1388000000   -2,480214983e-01    1,774324775e-01   -3,730004132e-01   -4,133635759e-01    0,000000000e+00    0,000000000e+00    0,000000000e+00    0,000000000e+00
     1402000000   -1,504173726e-01    1,816567630e-01   -4,569151402e-01   -1,181118488e-01    0,000000000e+00    0,000000000e+00    0,000000000e+00    0,000000000e+00
     1416000000   -8,307392150e-02    1,512964666e-01   -3,846797943e-01    1,966035217e-01    0,000000000e+00    0,000000000e+00    0,000000000e+00    0,000000000e+00
     1430000000   -2,732279152e-02    8,932860941e-02   -1,573304683e-01    4,278869331e-01    0,000000000e+00    0,000000000e+00    0,000000000e+00    0,000000000e+00
     1444000000   -5,353687331e-03    7,453907281e-03    1,199934185e-01    5,019569397e-01    0,000000000e+00    0,000000000e+00    0,000000000e+00    0,000000000e+00
     1458000000   -2,739315480e-02   -8,355122805e-02    4,356735945e-01    4,798657596e-01    0,000000000e+00    0,000000000e+00    0,000000000e+00    0,000000000e+00
     1472000000   -1,124254838e-01   -1,476443410e-01    7,002701759e-01    2,983040214e-01    0,000000000e+00    0,000000000e+00    0,000000000e+00    0,000000000e+00
     1486000000   -2,255071253e-01   -1,478540152e-01    8,911546469e-01   -1,074821874e-02    0,000000000e+00    0,000000000e+00    0,000000000e+00    0,000000000e+00
     1500000000   -2,955135703e-01   -7,025633007e-02    8,542926908e-01   -4,051157236e-01    0,000000000e+00    0,000000000e+00    0,000000000e+00    0,000000000e+00
