! NanoVNA-App
! Date: 2025-09-25 14:59:23
! Start: 100MHz Stop: 1,5GHz Points: 101
! S-Parameter data: F S11 S21 S12 S22
# Hz S RI R 50
!     Frequency           S11_Real           S11_Imag           S21_Real           S21_Imag           S12_Real           S12_Imag           S22_Real           S22_Imag
      100000000    3,558054194e-02    2,735458873e-02    4,407492280e-01   -6,694994569e-01    0,000000000e+00    0,000000000e+00    0,000000000e+00    0,000000000e+00
      114000000    6,073049828e-02    2,172022592e-03    1,270571444e-02   -7,953395247e-01    0,000000000e+00    0,000000000e+00    0,000000000e+00    0,000000000e+00
      128000000    6,834409386e-02   -4,226151854e-02   -4,082594216e-01   -6,781839728e-01    0,000000000e+00    0,000000000e+00    0,000000000e+00    0,000000000e+00
      142000000    4,347360507e-02   -8,876818419e-02   -7,053375244e-01   -3,610424101e-01    0,000000000e+00    0,000000000e+00    0,000000000e+00    0,000000000e+00
      156000000   -9,475173429e-03   -1,093857512e-01   -7,930064201e-01    6,690972298e-02    0,000000000e+00    0,000000000e+00    0,000000000e+00    0,000000000e+00
      170000000   -6,271228939e-02   -9,183483571e-02   -6,368336082e-01    4,865141213e-01    0,000000000e+00    0,000000000e+00    0,000000000e+00    0,000000000e+00
      184000000   -8,856614679e-02   -4,766716436e-02   -2,733028829e-01    7,561198473e-01    0,000000000e+00    0,000000000e+00    0,000000000e+00    0,000000000e+00
      198000000   -8,272626251e-02   -6,431152113e-03    1,796441823e-01    7,823475003e-01    0,000000000e+00    0,000000000e+00    0,000000000e+00    0,000000000e+00
      212000000   -6,269828975e-02    1,805631816e-02    5,708747506e-01    5,585054755e-01    0,000000000e+00    0,000000000e+00    0,000000000e+00    0,000000000e+00
      226000000   -4,148444533e-02    3,187199682e-02    7,767137289e-01    1,618698984e-01    0,000000000e+00    0,000000000e+00    0,000000000e+00    0,000000000e+00
      240000000   -1,491283067e-02    4,128901660e-02    7,361053228e-01   -2,786939144e-01    0,000000000e+00    0,000000000e+00    0,000000000e+00    0,000000000e+00
      254000000    2,141222917e-02    3,628682345e-02    4,681201577e-01   -6,220595837e-01    0,000000000e+00    0,000000000e+00    0,000000000e+00    0,000000000e+00
      268000000    5,326493829e-02    4,748145584e-03    6,647068262e-02   -7,672227621e-01    0,000000000e+00    0,000000000e+00    0,000000000e+00    0,000000000e+00
      282000000    5,735731870e-02   -4,496288672e-02   -3,458168805e-01   -6,827087998e-01    0,000000000e+00    0,000000000e+00    0,000000000e+00    0,000000000e+00
      296000000    2,604451589e-02   -8,478447795e-02   -6,548115015e-01   -3,978009820e-01    0,000000000e+00    0,000000000e+00    0,000000000e+00    0,000000000e+00
      310000000   -1,901067235e-02   -8,938028663e-02   -7,733930349e-01    9,850734845e-03    0,000000000e+00    0,000000000e+00    0,000000000e+00    0,000000000e+00
      324000000   -4,644314572e-02   -6,344331801e-02   -6,481770873e-01    4,297411442e-01    0,000000000e+00    0,000000000e+00    0,000000000e+00    0,000000000e+00
      338000000   -4,134418070e-02   -3,782313317e-02   -3,092046082e-01    7,086076140e-01    0,000000000e+00    0,000000000e+00    0,000000000e+00    0,000000000e+00
      352000000   -2,357613109e-02   -3,789472580e-02    1,189184934e-01    7,587696314e-01    0,000000000e+00    0,000000000e+00    0,000000000e+00    0,000000000e+00
      366000000   -2,296841517e-02   -5,634549260e-02    5,034690499e-01    5,718293786e-01    0,000000000e+00    0,000000000e+00    0,000000000e+00    0,000000000e+00
      380000000   -4,440962896e-02   -6,511627138e-02    7,269002199e-01    2,115464658e-01    0,000000000e+00    0,000000000e+00    0,000000000e+00    0,000000000e+00
      394000000   -6,649424136e-02   -5,052185804e-02    7,229616046e-01   -2,139279544e-01    0,000000000e+00    0,000000000e+00    0,000000000e+00    0,000000000e+00
      408000000   -6,736154109e-02   -2,648747526e-02    4,905777276e-01   -5,685700774e-01    0,000000000e+00    0,000000000e+00    0,000000000e+00    0,000000000e+00
      422000000   -5,322956666e-02   -1,525751501e-02    1,057515740e-01   -7,382590175e-01    0,000000000e+00    0,000000000e+00    0,000000000e+00    0,000000000e+00
      436000000   -4,664826766e-02   -1,824900880e-02   -3,065690100e-01   -6,751592159e-01    0,000000000e+00    0,000000000e+00    0,000000000e+00    0,000000000e+00
      450000000   -5,217776448e-02   -1,494609192e-02   -6,193128228e-01   -3,992187977e-01    0,000000000e+00    0,000000000e+00    0,000000000e+00    0,000000000e+00
      464000000   -5,086947605e-02    5,822081584e-03   -7,302429080e-01    3,301836317e-03    0,000000000e+00    0,000000000e+00    0,000000000e+00    0,000000000e+00
      478000000   -2,058529295e-02    2,640005946e-02   -5,988856554e-01    3,975315392e-01    0,000000000e+00    0,000000000e+00    0,000000000e+00    0,000000000e+00
      492000000    2,834536321e-02    1,483722404e-02   -2,799808681e-01    6,440995336e-01    0,000000000e+00    0,000000000e+00    0,000000000e+00    0,000000000e+00
      506000000    5,911833420e-02   -3,708518296e-02    1,045002490e-01    6,800307035e-01    0,000000000e+00    0,000000000e+00    0,000000000e+00    0,000000000e+00
      520000000    4,327745363e-02   -1,033258811e-01    4,454865158e-01    5,151839852e-01    0,000000000e+00    0,000000000e+00    0,000000000e+00    0,000000000e+00
      534000000   -1,247122046e-02   -1,439740509e-01    6,497703195e-01    2,055876255e-01    0,000000000e+00    0,000000000e+00    0,000000000e+00    0,000000000e+00
      548000000   -8,208461851e-02   -1,400403976e-01    6,597884297e-01   -1,765311956e-01    0,000000000e+00    0,000000000e+00    0,000000000e+00    0,000000000e+00
      562000000   -1,315905601e-01   -9,778829664e-02    4,504314363e-01   -5,085831285e-01    0,000000000e+00    0,000000000e+00    0,000000000e+00    0,000000000e+00
      576000000   -1,494953632e-01   -3,820677102e-02    8,104354888e-02   -6,606522799e-01    0,000000000e+00    0,000000000e+00    0,000000000e+00    0,000000000e+00
      590000000   -1,297848374e-01    2,959994785e-02   -2,964230180e-01   -5,640354156e-01    0,000000000e+00    0,000000000e+00    0,000000000e+00    0,000000000e+00
      604000000   -3,737195209e-02    6,815461814e-02   -4,873503447e-01   -2,698678076e-01    0,000000000e+00    0,000000000e+00    0,000000000e+00    0,000000000e+00
      618000000    3,435510024e-02   -3,104769625e-02   -4,937497973e-01   -5,132614076e-02    0,000000000e+00    0,000000000e+00    0,000000000e+00    0,000000000e+00
      632000000   -5,273530260e-02   -9,224877506e-02   -5,262776017e-01    1,768219322e-01    0,000000000e+00    0,000000000e+00    0,000000000e+00    0,000000000e+00
      646000000   -9,987976402e-02   -3,421894461e-02   -3,792139888e-01    4,773989916e-01    0,000000000e+00    0,000000000e+00    0,000000000e+00    0,000000000e+00
      660000000   -6,920810789e-02    1,012915839e-02   -4,947579280e-02    6,260067821e-01    0,000000000e+00    0,000000000e+00    0,000000000e+00    0,000000000e+00
      674000000   -2,966640145e-02    4,884982482e-03    2,977971733e-01    5,525492430e-01    0,000000000e+00    0,000000000e+00    0,000000000e+00    0,000000000e+00
      688000000   -1,551624108e-02   -1,870913617e-02    5,473791957e-01    3,034290671e-01    0,000000000e+00    0,000000000e+00    0,000000000e+00    0,000000000e+00
      702000000   -1,326506026e-02   -3,527323902e-02    6,172918677e-01   -3,923058882e-02    0,000000000e+00    0,000000000e+00    0,000000000e+00    0,000000000e+00
      716000000   -1,055548713e-02   -4,843159020e-02    4,919864833e-01   -3,687857389e-01    0,000000000e+00    0,000000000e+00    0,000000000e+00    0,000000000e+00
      730000000   -6,903897971e-03   -7,386241853e-02    2,108573914e-01   -5,679174066e-01    0,000000000e+00    0,000000000e+00    0,000000000e+00    0,000000000e+00
      744000000   -2,590860240e-02   -1,112851650e-01   -1,239216179e-01   -5,874257684e-01    0,000000000e+00    0,000000000e+00    0,000000000e+00    0,000000000e+00
      758000000   -7,376442850e-02   -1,328747422e-01   -4,192333817e-01   -4,329095483e-01    0,000000000e+00    0,000000000e+00    0,000000000e+00    0,000000000e+00
      772000000   -1,345143467e-01   -1,154318079e-01   -5,938189626e-01   -1,396604925e-01    0,000000000e+00    0,000000000e+00    0,000000000e+00    0,000000000e+00
      786000000   -1,715626717e-01   -5,774891004e-02   -5,814996362e-01    2,096256763e-01    0,000000000e+00    0,000000000e+00    0,000000000e+00    0,000000000e+00
      800000000   -1,590971947e-01    5,982147530e-03   -3,727799654e-01    4,959413111e-01    0,000000000e+00    0,000000000e+00    0,000000000e+00    0,000000000e+00
      814000000   -1,139383987e-01    4,249171540e-02   -4,562193155e-02    6,147499084e-01    0,000000000e+00    0,000000000e+00    0,000000000e+00    0,000000000e+00
      828000000   -6,866449118e-02    4,447553679e-02    2,859564424e-01    5,399219394e-01    0,000000000e+00    0,000000000e+00    0,000000000e+00    0,000000000e+00
      842000000   -3,910076618e-02    2,929128706e-02    5,212565064e-01    3,054004014e-01    0,000000000e+00    0,000000000e+00    0,000000000e+00    0,000000000e+00
      856000000   -1,857321896e-02    1,257464010e-02    5,942412019e-01   -1,421052311e-02    0,000000000e+00    0,000000000e+00    0,000000000e+00    0,000000000e+00
      870000000    1,882380689e-03   -1,111991331e-02    4,860667288e-01   -3,168677688e-01    0,000000000e+00    0,000000000e+00    0,000000000e+00    0,000000000e+00
      884000000    1,360950153e-02   -5,195529759e-02    2,428465337e-01   -5,121223927e-01    0,000000000e+00    0,000000000e+00    0,000000000e+00    0,000000000e+00
      898000000   -3,745595226e-03   -1,012553796e-01   -5,902931467e-02   -5,545779467e-01    0,000000000e+00    0,000000000e+00    0,000000000e+00    0,000000000e+00
      912000000   -6,315708905e-02   -1,312169284e-01   -3,838629425e-01   -4,255743921e-01    0,000000000e+00    0,000000000e+00    0,000000000e+00    0,000000000e+00
      926000000   -1,259240508e-01   -1,176485494e-01   -5,644561648e-01   -1,464320868e-01    0,000000000e+00    0,000000000e+00    0,000000000e+00    0,000000000e+00
      940000000   -1,644094884e-01   -6,134008244e-02   -5,702888966e-01    1,931219548e-01    0,000000000e+00    0,000000000e+00    0,000000000e+00    0,000000000e+00
      954000000   -1,500701606e-01   -1,069764607e-03   -3,742600679e-01    4,839084148e-01    0,000000000e+00    0,000000000e+00    0,000000000e+00    0,000000000e+00
      968000000   -9,718722850e-02    2,138631418e-02   -5,205611885e-02    6,154232025e-01    0,000000000e+00    0,000000000e+00    0,000000000e+00    0,000000000e+00
      982000000   -5,449588597e-02    8,253078908e-03    2,818127573e-01    5,523526073e-01    0,000000000e+00    0,000000000e+00    0,000000000e+00    0,000000000e+00
      996000000   -4,208265245e-02   -3,655734658e-02    5,241465569e-01    3,274289072e-01    0,000000000e+00    0,000000000e+00    0,000000000e+00    0,000000000e+00
     1010000000   -6,482299417e-02   -6,294438988e-02    6,080513597e-01    1,409966871e-02    0,000000000e+00    0,000000000e+00    0,000000000e+00    0,000000000e+00
     1024000000   -9,922160953e-02   -7,499499619e-02    5,155988336e-01   -2,809639275e-01    0,000000000e+00    0,000000000e+00    0,000000000e+00    0,000000000e+00
     1038000000   -1,403712481e-01   -5,985423550e-02    2,952428162e-01   -4,719378054e-01    0,000000000e+00    0,000000000e+00    0,000000000e+00    0,000000000e+00
     1052000000   -1,534790695e-01    1,700441237e-03    3,217339143e-02   -5,246939063e-01    0,000000000e+00    0,000000000e+00    0,000000000e+00    0,000000000e+00
     1066000000   -1,097026616e-01    4,246775806e-02   -2,163035274e-01   -4,667509794e-01    0,000000000e+00    0,000000000e+00    0,000000000e+00    0,000000000e+00
     1080000000   -5,085141957e-02    3,032802977e-02   -4,182601571e-01   -2,979772687e-01    0,000000000e+00    0,000000000e+00    0,000000000e+00    0,000000000e+00
     1094000000   -3,314457834e-02   -9,149979800e-03   -5,193750262e-01   -2,278653719e-02    0,000000000e+00    0,000000000e+00    0,000000000e+00    0,000000000e+00
     1108000000   -2,855374478e-02   -3,207166120e-02   -4,437901378e-01    2,862842977e-01    0,000000000e+00    0,000000000e+00    0,000000000e+00    0,000000000e+00
     1122000000   -3,385267779e-02   -5,907408521e-02   -1,868972182e-01    4,973467290e-01    0,000000000e+00    0,000000000e+00    0,000000000e+00    0,000000000e+00
     1136000000   -4,304393753e-02   -9,213925898e-02    1,509169042e-01    5,206251740e-01    0,000000000e+00    0,000000000e+00    0,000000000e+00    0,000000000e+00
     1150000000   -8,015212417e-02   -1,267800778e-01    4,502122998e-01    3,462531269e-01    0,000000000e+00    0,000000000e+00    0,000000000e+00    0,000000000e+00
     1164000000   -1,361689717e-01   -1,201462895e-01    6,097856164e-01    1,255246438e-02    0,000000000e+00    0,000000000e+00    0,000000000e+00    0,000000000e+00
     1178000000   -1,769702733e-01   -8,957044780e-02    5,380206108e-01   -3,705284894e-01    0,000000000e+00    0,000000000e+00    0,000000000e+00    0,000000000e+00
     1192000000   -1,781392246e-01   -5,513564497e-02    2,389390767e-01   -6,382325888e-01    0,000000000e+00    0,000000000e+00    0,000000000e+00    0,000000000e+00
     1206000000   -1,952250898e-01   -5,431398004e-02   -1,397364289e-01   -6,640717983e-01    0,000000000e+00    0,000000000e+00    0,000000000e+00    0,000000000e+00
     1220000000   -2,529935837e-01   -1,195769757e-02   -4,192262590e-01   -4,800319076e-01    0,000000000e+00    0,000000000e+00    0,000000000e+00    0,000000000e+00
     1234000000   -2,417087704e-01    1,185349450e-01   -5,594623685e-01   -2,475982755e-01    0,000000000e+00    0,000000000e+00    0,000000000e+00    0,000000000e+00
     1248000000   -1,171987876e-01    1,714046448e-01   -6,069950461e-01    2,083982900e-02    0,000000000e+00    0,000000000e+00    0,000000000e+00    0,000000000e+00
     1262000000   -4,496825859e-03    1,308723837e-01   -5,076475143e-01    2,949946523e-01    0,000000000e+00    0,000000000e+00    0,000000000e+00    0,000000000e+00
     1276000000    5,961908400e-02    4,200046510e-02   -2,796994448e-01    4,862341881e-01    0,000000000e+00    0,000000000e+00    0,000000000e+00    0,000000000e+00
     1290000000    7,335061580e-02   -6,599082053e-02    8,409440517e-03    5,510579348e-01    0,000000000e+00    0,000000000e+00    0,000000000e+00    0,000000000e+00
     1304000000    1,932170056e-02   -1,804986149e-01    2,918867767e-01    4,784236848e-01    0,000000000e+00    0,000000000e+00    0,000000000e+00    0,000000000e+00
     1318000000   -9,205211699e-02   -2,534060776e-01    5,390059352e-01    2,711032331e-01    0,000000000e+00    0,000000000e+00    0,000000000e+00    0,000000000e+00
     1332000000   -2,446609735e-01   -2,454381138e-01    6,602749228e-01   -4,852768406e-02    0,000000000e+00    0,000000000e+00    0,000000000e+00    0,000000000e+00
     1346000000   -3,576882482e-01   -1,455671936e-01    5,510111451e-01   -4,169348776e-01    0,000000000e+00    0,000000000e+00    0,000000000e+00    0,000000000e+00
     1360000000   -3,822094500e-01    4,044751637e-03    2,505561411e-01   -6,441617608e-01    0,000000000e+00    0,000000000e+00    0,000000000e+00    0,000000000e+00
     1374000000   -3,215852380e-01    1,194232553e-01   -1,125422120e-01   -6,242415309e-01    0,000000000e+00    0,000000000e+00    0,000000000e+00    0,000000000e+00
     1388000000   -2,417079657e-01    1,685433239e-01   -3,773056567e-01   -4,129580557e-01    0,000000000e+00    0,000000000e+00    0,000000000e+00    0,000000000e+00
     1402000000   -1,556984186e-01    1,678782552e-01   -4,747706354e-01   -1,029779166e-01    0,000000000e+00    0,000000000e+00    0,000000000e+00    0,000000000e+00
     1416000000   -8,855639398e-02    1,435030997e-01   -3,989882469e-01    1,967076808e-01    0,000000000e+00    0,000000000e+00    0,000000000e+00    0,000000000e+00
     1430000000   -3,052531555e-02    8,133196831e-02   -1,760447174e-01    4,070509970e-01    0,000000000e+00    0,000000000e+00    0,000000000e+00    0,000000000e+00
     1444000000   -1,428612415e-02    1,079181023e-02    1,242638677e-01    5,247470737e-01    0,000000000e+00    0,000000000e+00    0,000000000e+00    0,000000000e+00
     1458000000   -4,161683843e-02   -8,391132951e-02    4,292896688e-01    4,910824597e-01    0,000000000e+00    0,000000000e+00    0,000000000e+00    0,000000000e+00
     1472000000   -1,174370944e-01   -1,434455067e-01    7,347944975e-01    2,940038741e-01    0,000000000e+00    0,000000000e+00    0,000000000e+00    0,000000000e+00
     1486000000   -2,283716202e-01   -1,383623630e-01    9,054541588e-01   -3,555069864e-02    0,000000000e+00    0,000000000e+00    0,000000000e+00    0,000000000e+00
     1500000000   -2,986834347e-01   -6,640153378e-02    8,527009487e-01   -4,249757230e-01    0,000000000e+00    0,000000000e+00    0,000000000e+00    0,000000000e+00
