! NanoVNA-App
! Date: 2025-09-25 14:55:42
! Start: 100MHz Stop: 1,5GHz Points: 101
! S-Parameter data: F S11 S21 S12 S22
# Hz S RI R 50
!     Frequency           S11_Real           S11_Imag           S21_Real           S21_Imag           S12_Real           S12_Imag           S22_Real           S22_Imag
      100000000    3,559334204e-02    2,692946233e-02    4,406765103e-01   -6,697226763e-01    0,000000000e+00    0,000000000e+00    0,000000000e+00    0,000000000e+00
      114000000    6,045804918e-02    1,652877545e-03    1,262742747e-02   -7,955437303e-01    0,000000000e+00    0,000000000e+00    0,000000000e+00    0,000000000e+00
      128000000    6,787060201e-02   -4,264964908e-02   -4,084009528e-01   -6,780545712e-01    0,000000000e+00    0,000000000e+00    0,000000000e+00    0,000000000e+00
      142000000    4,270852357e-02   -8,883181959e-02   -7,054234743e-01   -3,607776463e-01    0,000000000e+00    0,000000000e+00    0,000000000e+00    0,000000000e+00
      156000000   -9,765220806e-03   -1,101281792e-01   -7,938528657e-01    6,880745292e-02    0,000000000e+00    0,000000000e+00    0,000000000e+00    0,000000000e+00
      170000000   -6,327860802e-02   -9,093708545e-02   -6,371162534e-01    4,871468246e-01    0,000000000e+00    0,000000000e+00    0,000000000e+00    0,000000000e+00
      184000000   -8,859883249e-02   -4,648931324e-02   -2,729135454e-01    7,564494610e-01    0,000000000e+00    0,000000000e+00    0,000000000e+00    0,000000000e+00
      198000000   -8,200928569e-02   -5,304161459e-03    1,800985634e-01    7,822701931e-01    0,000000000e+00    0,000000000e+00    0,000000000e+00    0,000000000e+00
      212000000   -6,139841676e-02    1,863289066e-02    5,709704161e-01    5,580762029e-01    0,000000000e+00    0,000000000e+00    0,000000000e+00    0,000000000e+00
      226000000   -4,000702500e-02    3,167266771e-02    7,768310905e-01    1,615544111e-01    0,000000000e+00    0,000000000e+00    0,000000000e+00    0,000000000e+00
      240000000   -1,364128385e-02    4,023269564e-02    7,358422279e-01   -2,788326442e-01    0,000000000e+00    0,000000000e+00    0,000000000e+00    0,000000000e+00
      254000000    2,194840834e-02    3,466274217e-02    4,675842822e-01   -6,219031215e-01    0,000000000e+00    0,000000000e+00    0,000000000e+00    0,000000000e+00
      268000000    5,290800706e-02    2,947299508e-03    6,652825326e-02   -7,675447464e-01    0,000000000e+00    0,000000000e+00    0,000000000e+00    0,000000000e+00
      282000000    5,609703064e-02   -4,627650604e-02   -3,461480141e-01   -6,828641891e-01    0,000000000e+00    0,000000000e+00    0,000000000e+00    0,000000000e+00
      296000000    2,415358834e-02   -8,516664058e-02   -6,559141278e-01   -3,976225555e-01    0,000000000e+00    0,000000000e+00    0,000000000e+00    0,000000000e+00
      310000000   -2,099072561e-02   -8,885143697e-02   -7,734748721e-01    1,085117273e-02    0,000000000e+00    0,000000000e+00    0,000000000e+00    0,000000000e+00
      324000000   -4,783254489e-02   -6,162825972e-02   -6,469574571e-01    4,307099581e-01    0,000000000e+00    0,000000000e+00    0,000000000e+00    0,000000000e+00
      338000000   -4,148570448e-02   -3,532874212e-02   -3,113544881e-01    7,119359374e-01    0,000000000e+00    0,000000000e+00    0,000000000e+00    0,000000000e+00
      352000000   -2,245497517e-02   -3,583765775e-02    1,199322045e-01    7,578079104e-01    0,000000000e+00    0,000000000e+00    0,000000000e+00    0,000000000e+00
      366000000   -2,120091021e-02   -5,478046462e-02    5,047941208e-01    5,713437796e-01    0,000000000e+00    0,000000000e+00    0,000000000e+00    0,000000000e+00
      380000000   -4,260168970e-02   -6,515499204e-02    7,265432477e-01    2,107436359e-01    0,000000000e+00    0,000000000e+00    0,000000000e+00    0,000000000e+00
      394000000   -6,452549994e-02   -5,161551386e-02    7,227429748e-01   -2,137320340e-01    0,000000000e+00    0,000000000e+00    0,000000000e+00    0,000000000e+00
      408000000   -6,615750492e-02   -2,782150730e-02    4,892575443e-01   -5,675759912e-01    0,000000000e+00    0,000000000e+00    0,000000000e+00    0,000000000e+00
      422000000   -5,316532776e-02   -1,732315868e-02    1,047943085e-01   -7,384418845e-01    0,000000000e+00    0,000000000e+00    0,000000000e+00    0,000000000e+00
      436000000   -4,682929814e-02   -2,073104307e-02   -3,060023189e-01   -6,766720414e-01    0,000000000e+00    0,000000000e+00    0,000000000e+00    0,000000000e+00
      450000000   -5,396710336e-02   -1,597775891e-02   -6,196499467e-01   -3,997380137e-01    0,000000000e+00    0,000000000e+00    0,000000000e+00    0,000000000e+00
      464000000   -5,263407156e-02    5,062011536e-03   -7,305074334e-01    3,467301140e-03    0,000000000e+00    0,000000000e+00    0,000000000e+00    0,000000000e+00
      478000000   -2,289042063e-02    2,736171708e-02   -5,998068452e-01    3,982599974e-01    0,000000000e+00    0,000000000e+00    0,000000000e+00    0,000000000e+00
      492000000    2,618299052e-02    1,670894027e-02   -2,806516588e-01    6,457081437e-01    0,000000000e+00    0,000000000e+00    0,000000000e+00    0,000000000e+00
      506000000    5,871454254e-02   -3,447160497e-02    1,051685736e-01    6,820479631e-01    0,000000000e+00    0,000000000e+00    0,000000000e+00    0,000000000e+00
      520000000    4,521483928e-02   -9,971488267e-02    4,425587356e-01    5,169563890e-01    0,000000000e+00    0,000000000e+00    0,000000000e+00    0,000000000e+00
      534000000   -9,309403598e-03   -1,413390636e-01    6,514847875e-01    2,067856938e-01    0,000000000e+00    0,000000000e+00    0,000000000e+00    0,000000000e+00
      548000000   -7,675876468e-02   -1,393934488e-01    6,631133556e-01   -1,757955402e-01    0,000000000e+00    0,000000000e+00    0,000000000e+00    0,000000000e+00
      562000000   -1,256972849e-01   -1,018960550e-01    4,556777179e-01   -5,116940141e-01    0,000000000e+00    0,000000000e+00    0,000000000e+00    0,000000000e+00
      576000000   -1,484795958e-01   -5,032838136e-02    8,594416082e-02   -6,708449125e-01    0,000000000e+00    0,000000000e+00    0,000000000e+00    0,000000000e+00
      590000000   -1,469113082e-01    1,539352909e-02   -3,120263219e-01   -5,836545825e-01    0,000000000e+00    0,000000000e+00    0,000000000e+00    0,000000000e+00
      604000000   -7,394039631e-02    9,718450904e-02   -5,355686545e-01   -2,449958175e-01    0,000000000e+00    0,000000000e+00    0,000000000e+00    0,000000000e+00
      618000000    1,009611562e-01    9,830514900e-03   -4,250817597e-01    8,186752908e-03    0,000000000e+00    0,000000000e+00    0,000000000e+00    0,000000000e+00
      632000000   -4,759291559e-02   -1,516942084e-01   -5,139515400e-01    1,102740467e-01    0,000000000e+00    0,000000000e+00    0,000000000e+00    0,000000000e+00
      646000000   -1,311299801e-01   -4,011644050e-02   -4,135170877e-01    4,703044295e-01    0,000000000e+00    0,000000000e+00    0,000000000e+00    0,000000000e+00
      660000000   -7,948028296e-02    2,376185358e-02   -6,269779056e-02    6,432960033e-01    0,000000000e+00    0,000000000e+00    0,000000000e+00    0,000000000e+00
      674000000   -2,691481076e-02    1,595015265e-02    3,036205769e-01    5,664670467e-01    0,000000000e+00    0,000000000e+00    0,000000000e+00    0,000000000e+00
      688000000   -9,051487781e-03   -1,446466241e-02    5,564967990e-01    3,072391748e-01    0,000000000e+00    0,000000000e+00    0,000000000e+00    0,000000000e+00
      702000000   -7,562303916e-03   -3,623403236e-02    6,250799298e-01   -4,524198174e-02    0,000000000e+00    0,000000000e+00    0,000000000e+00    0,000000000e+00
      716000000   -7,055863738e-03   -5,175685138e-02    4,957852960e-01   -3,752088249e-01    0,000000000e+00    0,000000000e+00    0,000000000e+00    0,000000000e+00
      730000000   -7,978057489e-03   -7,864528149e-02    2,109983414e-01   -5,765482783e-01    0,000000000e+00    0,000000000e+00    0,000000000e+00    0,000000000e+00
      744000000   -2,997427434e-02   -1,142431349e-01   -1,289113164e-01   -5,948146582e-01    0,000000000e+00    0,000000000e+00    0,000000000e+00    0,000000000e+00
      758000000   -7,969507575e-02   -1,334871501e-01   -4,287973940e-01   -4,343583882e-01    0,000000000e+00    0,000000000e+00    0,000000000e+00    0,000000000e+00
      772000000   -1,390706748e-01   -1,126414537e-01   -6,031210423e-01   -1,355160326e-01    0,000000000e+00    0,000000000e+00    0,000000000e+00    0,000000000e+00
      786000000   -1,718923301e-01   -5,250798911e-02   -5,863509178e-01    2,198900282e-01    0,000000000e+00    0,000000000e+00    0,000000000e+00    0,000000000e+00
      800000000   -1,553715765e-01    1,159223355e-02   -3,697406948e-01    5,081374645e-01    0,000000000e+00    0,000000000e+00    0,000000000e+00    0,000000000e+00
      814000000   -1,066432074e-01    4,310823977e-02   -3,664206341e-02    6,227857471e-01    0,000000000e+00    0,000000000e+00    0,000000000e+00    0,000000000e+00
      828000000   -6,275798380e-02    3,949381039e-02    2,973230481e-01    5,405406952e-01    0,000000000e+00    0,000000000e+00    0,000000000e+00    0,000000000e+00
      842000000   -3,721239045e-02    2,115258761e-02    5,302926898e-01    2,989696562e-01    0,000000000e+00    0,000000000e+00    0,000000000e+00    0,000000000e+00
      856000000   -2,143603191e-02    5,128736142e-03    5,999278426e-01   -2,544252202e-02    0,000000000e+00    0,000000000e+00    0,000000000e+00    0,000000000e+00
      870000000   -4,887353629e-03   -1,436972339e-02    4,852736592e-01   -3,298674822e-01    0,000000000e+00    0,000000000e+00    0,000000000e+00    0,000000000e+00
      884000000    6,183031481e-03   -5,017595738e-02    2,319588363e-01   -5,243943930e-01    0,000000000e+00    0,000000000e+00    0,000000000e+00    0,000000000e+00
      898000000   -8,389307186e-03   -9,621039033e-02   -7,520199567e-02   -5,563928485e-01    0,000000000e+00    0,000000000e+00    0,000000000e+00    0,000000000e+00
      912000000   -6,330415606e-02   -1,241384298e-01   -4,033329189e-01   -4,163079262e-01    0,000000000e+00    0,000000000e+00    0,000000000e+00    0,000000000e+00
      926000000   -1,212227941e-01   -1,125042289e-01   -5,722363591e-01   -1,305024177e-01    0,000000000e+00    0,000000000e+00    0,000000000e+00    0,000000000e+00
      940000000   -1,588465720e-01   -6,267701089e-02   -5,641444325e-01    2,116878629e-01    0,000000000e+00    0,000000000e+00    0,000000000e+00    0,000000000e+00
      954000000   -1,412348300e-01   -7,598122465e-04   -3,580759168e-01    4,988649786e-01    0,000000000e+00    0,000000000e+00    0,000000000e+00    0,000000000e+00
      968000000   -9,432756901e-02    1,914274506e-02   -3,011747822e-02    6,178963780e-01    0,000000000e+00    0,000000000e+00    0,000000000e+00    0,000000000e+00
      982000000   -5,524414033e-02    7,480963133e-03    3,025497198e-01    5,375555158e-01    0,000000000e+00    0,000000000e+00    0,000000000e+00    0,000000000e+00
      996000000   -4,175714403e-02   -3,260757402e-02    5,331315994e-01    2,995363474e-01    0,000000000e+00    0,000000000e+00    0,000000000e+00    0,000000000e+00
     1010000000   -5,207797512e-02   -6,435168535e-02    5,933714509e-01   -1,686774753e-02    0,000000000e+00    0,000000000e+00    0,000000000e+00    0,000000000e+00
     1024000000   -9,171922505e-02   -8,719529212e-02    4,811129272e-01   -2,904642522e-01    0,000000000e+00    0,000000000e+00    0,000000000e+00    0,000000000e+00
     1038000000   -1,383643895e-01   -7,761923224e-02    2,730532885e-01   -4,503562748e-01    0,000000000e+00    0,000000000e+00    0,000000000e+00    0,000000000e+00
     1052000000   -1,674964279e-01   -2,075576596e-02    3,635301068e-02   -5,137857199e-01    0,000000000e+00    0,000000000e+00    0,000000000e+00    0,000000000e+00
     1066000000   -1,344722956e-01    3,753089905e-02   -2,160516530e-01   -4,607332051e-01    0,000000000e+00    0,000000000e+00    0,000000000e+00    0,000000000e+00
     1080000000   -8,240447193e-02    5,643530935e-02   -4,238976240e-01   -2,685805559e-01    0,000000000e+00    0,000000000e+00    0,000000000e+00    0,000000000e+00
     1094000000   -2,841362543e-02    3,468642011e-02   -4,878476858e-01    1,121737715e-02    0,000000000e+00    0,000000000e+00    0,000000000e+00    0,000000000e+00
     1108000000    2,012366196e-03   -3,263856284e-03   -3,864405155e-01    2,764021754e-01    0,000000000e+00    0,000000000e+00    0,000000000e+00    0,000000000e+00
     1122000000    7,493688259e-03   -6,739334017e-02   -1,638757885e-01    4,418497086e-01    0,000000000e+00    0,000000000e+00    0,000000000e+00    0,000000000e+00
     1136000000   -1,991976611e-02   -1,206399947e-01    1,234054044e-01    4,735579789e-01    0,000000000e+00    0,000000000e+00    0,000000000e+00    0,000000000e+00
     1150000000   -7,787072659e-02   -1,555494666e-01    4,048550725e-01    3,362515569e-01    0,000000000e+00    0,000000000e+00    0,000000000e+00    0,000000000e+00
     1164000000   -1,510043591e-01   -1,457720399e-01    5,779349804e-01    3,955746815e-02    0,000000000e+00    0,000000000e+00    0,000000000e+00    0,000000000e+00
     1178000000   -2,037228048e-01   -9,630364180e-02    5,381141305e-01   -3,329065442e-01    0,000000000e+00    0,000000000e+00    0,000000000e+00    0,000000000e+00
     1192000000   -2,137529552e-01   -4,525635019e-02    2,685439289e-01   -6,179804802e-01    0,000000000e+00    0,000000000e+00    0,000000000e+00    0,000000000e+00
     1206000000   -2,015283257e-01   -2,585449070e-02   -1,166680753e-01   -6,784500480e-01    0,000000000e+00    0,000000000e+00    0,000000000e+00    0,000000000e+00
     1220000000   -2,336239964e-01    1,330780680e-03   -4,347599149e-01   -5,025247335e-01    0,000000000e+00    0,000000000e+00    0,000000000e+00    0,000000000e+00
     1234000000   -2,283818722e-01    1,066265628e-01   -5,631611347e-01   -2,256271839e-01    0,000000000e+00    0,000000000e+00    0,000000000e+00    0,000000000e+00
     1248000000   -1,173904240e-01    1,777031571e-01   -5,888263583e-01    2,925717644e-02    0,000000000e+00    0,000000000e+00    0,000000000e+00    0,000000000e+00
     1262000000   -5,003852420e-04    1,392432302e-01   -4,909565151e-01    2,872693539e-01    0,000000000e+00    0,000000000e+00    0,000000000e+00    0,000000000e+00
     1276000000    7,186121494e-02    4,696531966e-02   -2,752241492e-01    4,716942310e-01    0,000000000e+00    0,000000000e+00    0,000000000e+00    0,000000000e+00
     1290000000    7,846736908e-02   -6,815972179e-02    8,857217617e-03    5,429710150e-01    0,000000000e+00    0,000000000e+00    0,000000000e+00    0,000000000e+00
     1304000000    2,341252193e-02   -1,847338974e-01    2,795661986e-01    4,718574286e-01    0,000000000e+00    0,000000000e+00    0,000000000e+00    0,000000000e+00
     1318000000   -8,663781732e-02   -2,630578578e-01    5,304087996e-01    2,715983093e-01    0,000000000e+00    0,000000000e+00    0,000000000e+00    0,000000000e+00
     1332000000   -2,478443682e-01   -2,558545470e-01    6,357761025e-01   -4,188618809e-02    0,000000000e+00    0,000000000e+00    0,000000000e+00    0,000000000e+00
     1346000000   -3,618500531e-01   -1,488842517e-01    5,508464575e-01   -3,949537873e-01    0,000000000e+00    0,000000000e+00    0,000000000e+00    0,000000000e+00
     1360000000   -4,010379016e-01    4,624865018e-03    2,565529943e-01   -6,219147444e-01    0,000000000e+00    0,000000000e+00    0,000000000e+00    0,000000000e+00
     1374000000   -3,339264691e-01    1,227946728e-01   -9,924046695e-02   -6,238667965e-01    0,000000000e+00    0,000000000e+00    0,000000000e+00    0,000000000e+00
     1388000000   -2,461021692e-01    1,791474819e-01   -3,718667030e-01   -4,171304405e-01    0,000000000e+00    0,000000000e+00    0,000000000e+00    0,000000000e+00
     1402000000   -1,530782878e-01    1,793627739e-01   -4,647260010e-01   -1,107778326e-01    0,000000000e+00    0,000000000e+00    0,000000000e+00    0,000000000e+00
     1416000000   -8,346386999e-02    1,554453075e-01   -3,866163492e-01    1,946258098e-01    0,000000000e+00    0,000000000e+00    0,000000000e+00    0,000000000e+00
     1430000000   -2,479682863e-02    9,865506738e-02   -1,394963562e-01    4,234293997e-01    0,000000000e+00    0,000000000e+00    0,000000000e+00    0,000000000e+00
     1444000000   -6,430767011e-03    7,153833751e-03    1,166834235e-01    5,033610463e-01    0,000000000e+00    0,000000000e+00    0,000000000e+00    0,000000000e+00
     1458000000   -2,526216023e-02   -8,340983093e-02    4,318164885e-01    4,822827578e-01    0,000000000e+00    0,000000000e+00    0,000000000e+00    0,000000000e+00
     1472000000   -1,137158051e-01   -1,443638802e-01    7,159907818e-01    3,207706809e-01    0,000000000e+00    0,000000000e+00    0,000000000e+00    0,000000000e+00
     1486000000   -2,258739471e-01   -1,556514800e-01    8,758211732e-01   -1,463297661e-02    0,000000000e+00    0,000000000e+00    0,000000000e+00    0,000000000e+00
     1500000000   -3,050267398e-01   -8,243078738e-02    8,470426798e-01   -4,076664746e-01    0,000000000e+00    0,000000000e+00    0,000000000e+00    0,000000000e+00
