! NanoVNA-App
! Date: 2025-09-25 15:01:53
! Start: 100MHz Stop: 1,5GHz Points: 101
! S-Parameter data: F S11 S21 S12 S22
# Hz S RI R 50
!     Frequency           S11_Real           S11_Imag           S21_Real           S21_Imag           S12_Real           S12_Imag           S22_Real           S22_Imag
      100000000    3,558566049e-02    2,736980654e-02    4,407639802e-01   -6,695331335e-01    0,000000000e+00    0,000000000e+00    0,000000000e+00    0,000000000e+00
      114000000    6,070156768e-02    2,153487178e-03    1,276096236e-02   -7,954035401e-01    0,000000000e+00    0,000000000e+00    0,000000000e+00    0,000000000e+00
      128000000    6,840693206e-02   -4,230004176e-02   -4,083422422e-01   -6,782138348e-01    0,000000000e+00    0,000000000e+00    0,000000000e+00    0,000000000e+00
      142000000    4,348070174e-02   -8,881732821e-02   -7,053640485e-01   -3,609177172e-01    0,000000000e+00    0,000000000e+00    0,000000000e+00    0,000000000e+00
      156000000   -9,851014242e-03   -1,093184650e-01   -7,924968600e-01    6,698675454e-02    0,000000000e+00    0,000000000e+00    0,000000000e+00    0,000000000e+00
      170000000   -6,273192912e-02   -9,180194885e-02   -6,369698048e-01    4,864998758e-01    0,000000000e+00    0,000000000e+00    0,000000000e+00    0,000000000e+00
      184000000   -8,863049746e-02   -4,769439995e-02   -2,732418776e-01    7,562697530e-01    0,000000000e+00    0,000000000e+00    0,000000000e+00    0,000000000e+00
      198000000   -8,275359124e-02   -6,434869021e-03    1,795652211e-01    7,825012803e-01    0,000000000e+00    0,000000000e+00    0,000000000e+00    0,000000000e+00
      212000000   -6,276443601e-02    1,807000674e-02    5,708238482e-01    5,585917234e-01    0,000000000e+00    0,000000000e+00    0,000000000e+00    0,000000000e+00
      226000000   -4,150403664e-02    3,180254623e-02    7,767335773e-01    1,619296968e-01    0,000000000e+00    0,000000000e+00    0,000000000e+00    0,000000000e+00
      240000000   -1,495350618e-02    4,132893309e-02    7,361968160e-01   -2,788017690e-01    0,000000000e+00    0,000000000e+00    0,000000000e+00    0,000000000e+00
      254000000    2,135963738e-02    3,633830324e-02    4,677601159e-01   -6,223405004e-01    0,000000000e+00    0,000000000e+00    0,000000000e+00    0,000000000e+00
      268000000    5,335826054e-02    4,741414450e-03    6,699464470e-02   -7,673367262e-01    0,000000000e+00    0,000000000e+00    0,000000000e+00    0,000000000e+00
      282000000    5,738369375e-02   -4,491188005e-02   -3,456245065e-01   -6,826004386e-01    0,000000000e+00    0,000000000e+00    0,000000000e+00    0,000000000e+00
      296000000    2,618814260e-02   -8,465810120e-02   -6,552869081e-01   -3,978473246e-01    0,000000000e+00    0,000000000e+00    0,000000000e+00    0,000000000e+00
      310000000   -1,919589005e-02   -8,924543858e-02   -7,747391462e-01    9,900760837e-03    0,000000000e+00    0,000000000e+00    0,000000000e+00    0,000000000e+00
      324000000   -4,647460580e-02   -6,360111386e-02   -6,474216580e-01    4,289773405e-01    0,000000000e+00    0,000000000e+00    0,000000000e+00    0,000000000e+00
      338000000   -4,135603830e-02   -3,775358573e-02   -3,091186881e-01    7,111722827e-01    0,000000000e+00    0,000000000e+00    0,000000000e+00    0,000000000e+00
      352000000   -2,353292145e-02   -3,793040290e-02    1,191574633e-01    7,584544420e-01    0,000000000e+00    0,000000000e+00    0,000000000e+00    0,000000000e+00
      366000000   -2,316942625e-02   -5,612637475e-02    5,030130148e-01    5,711395144e-01    0,000000000e+00    0,000000000e+00    0,000000000e+00    0,000000000e+00
      380000000   -4,457832128e-02   -6,542529911e-02    7,263795733e-01    2,112761140e-01    0,000000000e+00    0,000000000e+00    0,000000000e+00    0,000000000e+00
      394000000   -6,638640165e-02   -5,068348348e-02    7,227666378e-01   -2,135488093e-01    0,000000000e+00    0,000000000e+00    0,000000000e+00    0,000000000e+00
      408000000   -6,765081733e-02   -2,637995780e-02    4,904661179e-01   -5,688084364e-01    0,000000000e+00    0,000000000e+00    0,000000000e+00    0,000000000e+00
      422000000   -5,308003351e-02   -1,519463584e-02    1,060369015e-01   -7,391923070e-01    0,000000000e+00    0,000000000e+00    0,000000000e+00    0,000000000e+00
      436000000   -4,642189294e-02   -1,878933609e-02   -3,058420420e-01   -6,757410765e-01    0,000000000e+00    0,000000000e+00    0,000000000e+00    0,000000000e+00
      450000000   -5,187787116e-02   -1,522720326e-02   -6,186366081e-01   -4,001926482e-01    0,000000000e+00    0,000000000e+00    0,000000000e+00    0,000000000e+00
      464000000   -5,050326884e-02    5,762476940e-03   -7,300933003e-01    3,236881690e-03    0,000000000e+00    0,000000000e+00    0,000000000e+00    0,000000000e+00
      478000000   -2,069526911e-02    2,639459632e-02   -5,982794166e-01    3,970881402e-01    0,000000000e+00    0,000000000e+00    0,000000000e+00    0,000000000e+00
      492000000    2,843686752e-02    1,454627980e-02   -2,802423835e-01    6,435580254e-01    0,000000000e+00    0,000000000e+00    0,000000000e+00    0,000000000e+00
      506000000    5,882417038e-02   -3,760152683e-02    1,049222872e-01    6,798450351e-01    0,000000000e+00    0,000000000e+00    0,000000000e+00    0,000000000e+00
      520000000    4,446126148e-02   -1,026667431e-01    4,443314373e-01    5,201522112e-01    0,000000000e+00    0,000000000e+00    0,000000000e+00    0,000000000e+00
      534000000   -1,244610921e-02   -1,434630454e-01    6,496975422e-01    2,067542076e-01    0,000000000e+00    0,000000000e+00    0,000000000e+00    0,000000000e+00
      548000000   -8,115271479e-02   -1,388662606e-01    6,601756215e-01   -1,751845628e-01    0,000000000e+00    0,000000000e+00    0,000000000e+00    0,000000000e+00
      562000000   -1,294187456e-01   -9,826599807e-02    4,526929259e-01   -5,085170865e-01    0,000000000e+00    0,000000000e+00    0,000000000e+00    0,000000000e+00
      576000000   -1,477705687e-01   -4,109119251e-02    8,408144861e-02   -6,625883579e-01    0,000000000e+00    0,000000000e+00    0,000000000e+00    0,000000000e+00
      590000000   -1,318961829e-01    2,333212085e-02   -2,971999049e-01   -5,707519650e-01    0,000000000e+00    0,000000000e+00    0,000000000e+00    0,000000000e+00
      604000000   -5,083400756e-02    6,975843757e-02   -5,029997230e-01   -2,724898458e-01    0,000000000e+00    0,000000000e+00    0,000000000e+00    0,000000000e+00
      618000000    3,974769637e-02   -1,219222974e-02   -4,921669960e-01   -2,775500715e-02    0,000000000e+00    0,000000000e+00    0,000000000e+00    0,000000000e+00
      632000000   -3,813191131e-02   -9,897100925e-02   -5,075464249e-01    1,728745103e-01    0,000000000e+00    0,000000000e+00    0,000000000e+00    0,000000000e+00
      646000000   -1,025740653e-01   -4,436045885e-02   -3,804190755e-01    4,654341638e-01    0,000000000e+00    0,000000000e+00    0,000000000e+00    0,000000000e+00
      660000000   -7,558279485e-02    8,232030086e-03   -5,787368491e-02    6,222062111e-01    0,000000000e+00    0,000000000e+00    0,000000000e+00    0,000000000e+00
      674000000   -3,330491856e-02    7,593593094e-03    2,945245206e-01    5,545985103e-01    0,000000000e+00    0,000000000e+00    0,000000000e+00    0,000000000e+00
      688000000   -1,611398160e-02   -1,510220766e-02    5,462300777e-01    3,062219620e-01    0,000000000e+00    0,000000000e+00    0,000000000e+00    0,000000000e+00
      702000000   -1,249202713e-02   -3,163747489e-02    6,232301593e-01   -3,970201313e-02    0,000000000e+00    0,000000000e+00    0,000000000e+00    0,000000000e+00
      716000000   -7,528281305e-03   -4,840211570e-02    4,936413765e-01   -3,669579029e-01    0,000000000e+00    0,000000000e+00    0,000000000e+00    0,000000000e+00
      730000000   -5,285236053e-03   -7,512339950e-02    2,136524916e-01   -5,683094859e-01    0,000000000e+00    0,000000000e+00    0,000000000e+00    0,000000000e+00
      744000000   -2,490248904e-02   -1,115420237e-01   -1,227430105e-01   -5,891665816e-01    0,000000000e+00    0,000000000e+00    0,000000000e+00    0,000000000e+00
      758000000   -7,554494590e-02   -1,337382048e-01   -4,191617668e-01   -4,340308607e-01    0,000000000e+00    0,000000000e+00    0,000000000e+00    0,000000000e+00
      772000000   -1,362974793e-01   -1,161537319e-01   -5,952424407e-01   -1,419783682e-01    0,000000000e+00    0,000000000e+00    0,000000000e+00    0,000000000e+00
      786000000   -1,728678793e-01   -5,697701126e-02   -5,828188062e-01    2,090420425e-01    0,000000000e+00    0,000000000e+00    0,000000000e+00    0,000000000e+00
      800000000   -1,599095166e-01    7,862206548e-03   -3,738643527e-01    4,960883558e-01    0,000000000e+00    0,000000000e+00    0,000000000e+00    0,000000000e+00
      814000000   -1,139568165e-01    4,393166676e-02   -4,669668153e-02    6,153813004e-01    0,000000000e+00    0,000000000e+00    0,000000000e+00    0,000000000e+00
      828000000   -6,709346175e-02    4,451935366e-02    2,859253883e-01    5,414127111e-01    0,000000000e+00    0,000000000e+00    0,000000000e+00    0,000000000e+00
      842000000   -3,804770485e-02    2,843278460e-02    5,217118263e-01    3,059906363e-01    0,000000000e+00    0,000000000e+00    0,000000000e+00    0,000000000e+00
      856000000   -1,808044873e-02    1,071482152e-02    5,962073803e-01   -1,361525431e-02    0,000000000e+00    0,000000000e+00    0,000000000e+00    0,000000000e+00
      870000000    1,331496460e-04   -1,204879396e-02    4,885302186e-01   -3,180892467e-01    0,000000000e+00    0,000000000e+00    0,000000000e+00    0,000000000e+00
      884000000    1,213849057e-02   -5,140430853e-02    2,437638938e-01   -5,122851729e-01    0,000000000e+00    0,000000000e+00    0,000000000e+00    0,000000000e+00
      898000000   -4,133961163e-03   -1,001512334e-01   -5,773584545e-02   -5,564172864e-01    0,000000000e+00    0,000000000e+00    0,000000000e+00    0,000000000e+00
      912000000   -6,156204641e-02   -1,315545589e-01   -3,853614330e-01   -4,228118062e-01    0,000000000e+00    0,000000000e+00    0,000000000e+00    0,000000000e+00
      926000000   -1,242393851e-01   -1,176024079e-01   -5,670206547e-01   -1,436773390e-01    0,000000000e+00    0,000000000e+00    0,000000000e+00    0,000000000e+00
      940000000   -1,631090790e-01   -6,205633283e-02   -5,692360997e-01    1,948500574e-01    0,000000000e+00    0,000000000e+00    0,000000000e+00    0,000000000e+00
      954000000   -1,507083774e-01   -9,084758349e-04   -3,735122383e-01    4,848037064e-01    0,000000000e+00    0,000000000e+00    0,000000000e+00    0,000000000e+00
      968000000   -9,554123133e-02    2,345562354e-02   -5,046298355e-02    6,146656275e-01    0,000000000e+00    0,000000000e+00    0,000000000e+00    0,000000000e+00
      982000000   -5,340584368e-02    7,564784959e-03    2,847656906e-01    5,532850623e-01    0,000000000e+00    0,000000000e+00    0,000000000e+00    0,000000000e+00
      996000000   -4,486908391e-02   -3,562037274e-02    5,240523815e-01    3,254666626e-01    0,000000000e+00    0,000000000e+00    0,000000000e+00    0,000000000e+00
     1010000000   -6,094725803e-02   -6,606589258e-02    6,055310369e-01    1,292681322e-02    0,000000000e+00    0,000000000e+00    0,000000000e+00    0,000000000e+00
     1024000000   -1,022523791e-01   -7,827640325e-02    5,133893490e-01   -2,812709510e-01    0,000000000e+00    0,000000000e+00    0,000000000e+00    0,000000000e+00
     1038000000   -1,394783109e-01   -5,394012108e-02    2,952335179e-01   -4,701043963e-01    0,000000000e+00    0,000000000e+00    0,000000000e+00    0,000000000e+00
     1052000000   -1,495603174e-01   -3,260111203e-03    3,411038965e-02   -5,255143642e-01    0,000000000e+00    0,000000000e+00    0,000000000e+00    0,000000000e+00
     1066000000   -1,042669043e-01    3,688796610e-02   -2,142909169e-01   -4,690460265e-01    0,000000000e+00    0,000000000e+00    0,000000000e+00    0,000000000e+00
     1080000000   -5,050308630e-02    2,779059298e-02   -4,176959395e-01   -2,974976301e-01    0,000000000e+00    0,000000000e+00    0,000000000e+00    0,000000000e+00
     1094000000   -3,105557710e-02   -4,073765129e-03   -5,208584666e-01   -2,481632307e-02    0,000000000e+00    0,000000000e+00    0,000000000e+00    0,000000000e+00
     1108000000   -3,048991039e-02   -2,911196090e-02   -4,430130422e-01    2,839175761e-01    0,000000000e+00    0,000000000e+00    0,000000000e+00    0,000000000e+00
     1122000000   -2,782924101e-02   -6,078810990e-02   -1,855586767e-01    4,936791360e-01    0,000000000e+00    0,000000000e+00    0,000000000e+00    0,000000000e+00
     1136000000   -4,134291410e-02   -9,165481478e-02    1,498593092e-01    5,200105906e-01    0,000000000e+00    0,000000000e+00    0,000000000e+00    0,000000000e+00
     1150000000   -8,375573903e-02   -1,213339642e-01    4,521377087e-01    3,430073261e-01    0,000000000e+00    0,000000000e+00    0,000000000e+00    0,000000000e+00
     1164000000   -1,370109469e-01   -1,225715354e-01    6,086142063e-01    1,128552575e-02    0,000000000e+00    0,000000000e+00    0,000000000e+00    0,000000000e+00
     1178000000   -1,807561815e-01   -8,730687201e-02    5,397666693e-01   -3,732369244e-01    0,000000000e+00    0,000000000e+00    0,000000000e+00    0,000000000e+00
     1192000000   -1,769053042e-01   -5,334156007e-02    2,426232398e-01   -6,378394961e-01    0,000000000e+00    0,000000000e+00    0,000000000e+00    0,000000000e+00
     1206000000   -1,955148280e-01   -5,145194381e-02   -1,408289820e-01   -6,615508199e-01    0,000000000e+00    0,000000000e+00    0,000000000e+00    0,000000000e+00
     1220000000   -2,503513396e-01   -1,195026282e-02   -4,182131290e-01   -4,802757502e-01    0,000000000e+00    0,000000000e+00    0,000000000e+00    0,000000000e+00
     1234000000   -2,414555550e-01    1,102229059e-01   -5,604463816e-01   -2,520417869e-01    0,000000000e+00    0,000000000e+00    0,000000000e+00    0,000000000e+00
     1248000000   -1,190351099e-01    1,755422056e-01   -6,063082814e-01    2,159899101e-02    0,000000000e+00    0,000000000e+00    0,000000000e+00    0,000000000e+00
     1262000000    8,202479803e-04    1,316077113e-01   -5,038847923e-01    2,965257168e-01    0,000000000e+00    0,000000000e+00    0,000000000e+00    0,000000000e+00
     1276000000    6,579620391e-02    4,483649135e-02   -2,814634144e-01    4,924350977e-01    0,000000000e+00    0,000000000e+00    0,000000000e+00    0,000000000e+00
     1290000000    6,641821563e-02   -6,756708026e-02    5,484204274e-03    5,496292114e-01    0,000000000e+00    0,000000000e+00    0,000000000e+00    0,000000000e+00
     1304000000    2,180384099e-02   -1,782214642e-01    2,995989621e-01    4,848755002e-01    0,000000000e+00    0,000000000e+00    0,000000000e+00    0,000000000e+00
     1318000000   -9,237936139e-02   -2,492033839e-01    5,347283483e-01    2,712633610e-01    0,000000000e+00    0,000000000e+00    0,000000000e+00    0,000000000e+00
     1332000000   -2,445842326e-01   -2,448763400e-01    6,527845860e-01   -5,237967148e-02    0,000000000e+00    0,000000000e+00    0,000000000e+00    0,000000000e+00
     1346000000   -3,604610860e-01   -1,440002471e-01    5,596602559e-01   -4,110346735e-01    0,000000000e+00    0,000000000e+00    0,000000000e+00    0,000000000e+00
     1360000000   -3,855676949e-01    3,580792807e-03    2,568484545e-01   -6,407750249e-01    0,000000000e+00    0,000000000e+00    0,000000000e+00    0,000000000e+00
     1374000000   -3,309682608e-01    1,221230999e-01   -1,133627519e-01   -6,222845316e-01    0,000000000e+00    0,000000000e+00    0,000000000e+00    0,000000000e+00
     1388000000   -2,358803153e-01    1,743397117e-01   -3,824197650e-01   -4,197008908e-01    0,000000000e+00    0,000000000e+00    0,000000000e+00    0,000000000e+00
     1402000000   -1,549799293e-01    1,660577655e-01   -4,764837921e-01   -1,151932701e-01    0,000000000e+00    0,000000000e+00    0,000000000e+00    0,000000000e+00
     1416000000   -8,801775426e-02    1,392011791e-01   -3,899843395e-01    1,988444030e-01    0,000000000e+00    0,000000000e+00    0,000000000e+00    0,000000000e+00
     1430000000   -2,631469630e-02    9,021151811e-02   -1,608048975e-01    4,073957503e-01    0,000000000e+00    0,000000000e+00    0,000000000e+00    0,000000000e+00
     1444000000   -1,125048660e-02    6,142621394e-03    1,168824136e-01    5,276604891e-01    0,000000000e+00    0,000000000e+00    0,000000000e+00    0,000000000e+00
     1458000000   -3,318831697e-02   -8,012259007e-02    4,477535188e-01    4,932934046e-01    0,000000000e+00    0,000000000e+00    0,000000000e+00    0,000000000e+00
     1472000000   -1,238386258e-01   -1,499333680e-01    7,308011055e-01    3,013736308e-01    0,000000000e+00    0,000000000e+00    0,000000000e+00    0,000000000e+00
     1486000000   -2,281639874e-01   -1,307014674e-01    9,088484049e-01   -4,198637605e-02    0,000000000e+00    0,000000000e+00    0,000000000e+00    0,000000000e+00
     1500000000   -3,099656999e-01   -6,144348904e-02    8,472809196e-01   -4,160797298e-01    0,000000000e+00    0,000000000e+00    0,000000000e+00    0,000000000e+00
