! NanoVNA-App
! Date: 2025-09-25 15:01:35
! Start: 100MHz Stop: 1,5GHz Points: 101
! S-Parameter data: F S11 S21 S12 S22
# Hz S RI R 50
!     Frequency           S11_Real           S11_Imag           S21_Real           S21_Imag           S12_Real           S12_Imag           S22_Real           S22_Imag
      100000000    3,558109701e-02    2,736814134e-02    4,407228529e-01   -6,695159674e-01    0,000000000e+00    0,000000000e+00    0,000000000e+00    0,000000000e+00
      114000000    6,069552153e-02    2,173980931e-03    1,291424129e-02   -7,951784730e-01    0,000000000e+00    0,000000000e+00    0,000000000e+00    0,000000000e+00
      128000000    6,839969009e-02   -4,224619642e-02   -4,079667330e-01   -6,780722141e-01    0,000000000e+00    0,000000000e+00    0,000000000e+00    0,000000000e+00
      142000000    4,346564040e-02   -8,879429102e-02   -7,052749395e-01   -3,610177934e-01    0,000000000e+00    0,000000000e+00    0,000000000e+00    0,000000000e+00
      156000000   -8,965387940e-03   -1,104950011e-01   -7,936892509e-01    6,853017956e-02    0,000000000e+00    0,000000000e+00    0,000000000e+00    0,000000000e+00
      170000000   -6,268265843e-02   -9,178182483e-02   -6,369688511e-01    4,863538146e-01    0,000000000e+00    0,000000000e+00    0,000000000e+00    0,000000000e+00
      184000000   -8,862399310e-02   -4,769108817e-02   -2,731341124e-01    7,561770678e-01    0,000000000e+00    0,000000000e+00    0,000000000e+00    0,000000000e+00
      198000000   -8,276092261e-02   -6,428619381e-03    1,797186285e-01    7,826423049e-01    0,000000000e+00    0,000000000e+00    0,000000000e+00    0,000000000e+00
      212000000   -6,277640164e-02    1,805606112e-02    5,705125928e-01    5,585362911e-01    0,000000000e+00    0,000000000e+00    0,000000000e+00    0,000000000e+00
      226000000   -4,147846624e-02    3,179618344e-02    7,766610980e-01    1,619045734e-01    0,000000000e+00    0,000000000e+00    0,000000000e+00    0,000000000e+00
      240000000   -1,486461982e-02    4,131489620e-02    7,359918952e-01   -2,787879705e-01    0,000000000e+00    0,000000000e+00    0,000000000e+00    0,000000000e+00
      254000000    2,137820795e-02    3,636205569e-02    4,678464830e-01   -6,222520471e-01    0,000000000e+00    0,000000000e+00    0,000000000e+00    0,000000000e+00
      268000000    5,328225344e-02    4,755168688e-03    6,664338708e-02   -7,674649358e-01    0,000000000e+00    0,000000000e+00    0,000000000e+00    0,000000000e+00
      282000000    5,739107728e-02   -4,498876631e-02   -3,457606435e-01   -6,824237704e-01    0,000000000e+00    0,000000000e+00    0,000000000e+00    0,000000000e+00
      296000000    2,613881044e-02   -8,464441448e-02   -6,552873850e-01   -3,979195952e-01    0,000000000e+00    0,000000000e+00    0,000000000e+00    0,000000000e+00
      310000000   -1,883505285e-02   -8,939547837e-02   -7,750334144e-01    1,074833609e-02    0,000000000e+00    0,000000000e+00    0,000000000e+00    0,000000000e+00
      324000000   -4,653318599e-02   -6,351812929e-02   -6,479228139e-01    4,298208058e-01    0,000000000e+00    0,000000000e+00    0,000000000e+00    0,000000000e+00
      338000000   -4,089385644e-02   -3,781157359e-02   -3,111832738e-01    7,096965313e-01    0,000000000e+00    0,000000000e+00    0,000000000e+00    0,000000000e+00
      352000000   -2,342957072e-02   -3,785046563e-02    1,199851483e-01    7,586113811e-01    0,000000000e+00    0,000000000e+00    0,000000000e+00    0,000000000e+00
      366000000   -2,300976031e-02   -5,618013069e-02    5,031057596e-01    5,712962747e-01    0,000000000e+00    0,000000000e+00    0,000000000e+00    0,000000000e+00
      380000000   -4,454547167e-02   -6,518618017e-02    7,265138030e-01    2,112776786e-01    0,000000000e+00    0,000000000e+00    0,000000000e+00    0,000000000e+00
      394000000   -6,633807719e-02   -5,040865391e-02    7,231033444e-01   -2,129659951e-01    0,000000000e+00    0,000000000e+00    0,000000000e+00    0,000000000e+00
      408000000   -6,753230095e-02   -2,633473650e-02    4,902661443e-01   -5,684573054e-01    0,000000000e+00    0,000000000e+00    0,000000000e+00    0,000000000e+00
      422000000   -5,340816826e-02   -1,517865434e-02    1,053379774e-01   -7,387079000e-01    0,000000000e+00    0,000000000e+00    0,000000000e+00    0,000000000e+00
      436000000   -4,608391598e-02   -1,842671260e-02   -3,064249158e-01   -6,756755710e-01    0,000000000e+00    0,000000000e+00    0,000000000e+00    0,000000000e+00
      450000000   -5,190702528e-02   -1,541515440e-02   -6,185580492e-01   -4,002907574e-01    0,000000000e+00    0,000000000e+00    0,000000000e+00    0,000000000e+00
      464000000   -5,053696036e-02    6,075373385e-03   -7,299056649e-01    3,578700591e-03    0,000000000e+00    0,000000000e+00    0,000000000e+00    0,000000000e+00
      478000000   -2,033428848e-02    2,648890205e-02   -5,985507369e-01    3,971054554e-01    0,000000000e+00    0,000000000e+00    0,000000000e+00    0,000000000e+00
      492000000    2,845684625e-02    1,467986964e-02   -2,805458009e-01    6,440499425e-01    0,000000000e+00    0,000000000e+00    0,000000000e+00    0,000000000e+00
      506000000    5,864837766e-02   -3,712659329e-02    1,052011400e-01    6,801531315e-01    0,000000000e+00    0,000000000e+00    0,000000000e+00    0,000000000e+00
      520000000    4,328168184e-02   -1,020649597e-01    4,422403276e-01    5,171999335e-01    0,000000000e+00    0,000000000e+00    0,000000000e+00    0,000000000e+00
      534000000   -1,305066701e-02   -1,435147375e-01    6,492606401e-01    2,060726136e-01    0,000000000e+00    0,000000000e+00    0,000000000e+00    0,000000000e+00
      548000000   -8,110868931e-02   -1,395225227e-01    6,601980329e-01   -1,755654067e-01    0,000000000e+00    0,000000000e+00    0,000000000e+00    0,000000000e+00
      562000000   -1,296720654e-01   -9,854691476e-02    4,523263872e-01   -5,083174109e-01    0,000000000e+00    0,000000000e+00    0,000000000e+00    0,000000000e+00
      576000000   -1,477524936e-01   -4,053212702e-02    8,466424793e-02   -6,618998647e-01    0,000000000e+00    0,000000000e+00    0,000000000e+00    0,000000000e+00
      590000000   -1,317175925e-01    2,360551991e-02   -2,964954674e-01   -5,687196851e-01    0,000000000e+00    0,000000000e+00    0,000000000e+00    0,000000000e+00
      604000000   -5,030470714e-02    6,951441616e-02   -5,025233626e-01   -2,727509141e-01    0,000000000e+00    0,000000000e+00    0,000000000e+00    0,000000000e+00
      618000000    3,946156055e-02   -1,250601839e-02   -4,918516874e-01   -2,850287221e-02    0,000000000e+00    0,000000000e+00    0,000000000e+00    0,000000000e+00
      632000000   -3,796242550e-02   -9,821859002e-02   -5,079922080e-01    1,729427129e-01    0,000000000e+00    0,000000000e+00    0,000000000e+00    0,000000000e+00
      646000000   -1,019308791e-01   -4,445497692e-02   -3,806824982e-01    4,658795297e-01    0,000000000e+00    0,000000000e+00    0,000000000e+00    0,000000000e+00
      660000000   -7,515113801e-02    7,404727861e-03   -5,783558637e-02    6,227017641e-01    0,000000000e+00    0,000000000e+00    0,000000000e+00    0,000000000e+00
      674000000   -3,337452188e-02    7,101712283e-03    2,945730090e-01    5,552333593e-01    0,000000000e+00    0,000000000e+00    0,000000000e+00    0,000000000e+00
      688000000   -1,510565728e-02   -1,451673172e-02    5,461070538e-01    3,060072958e-01    0,000000000e+00    0,000000000e+00    0,000000000e+00    0,000000000e+00
      702000000   -1,229226403e-02   -3,233639523e-02    6,196772456e-01   -3,533371165e-02    0,000000000e+00    0,000000000e+00    0,000000000e+00    0,000000000e+00
      716000000   -7,342130411e-03   -4,861794412e-02    4,936468005e-01   -3,665751517e-01    0,000000000e+00    0,000000000e+00    0,000000000e+00    0,000000000e+00
      730000000   -5,204367917e-03   -7,512931526e-02    2,134329528e-01   -5,680901408e-01    0,000000000e+00    0,000000000e+00    0,000000000e+00    0,000000000e+00
      744000000   -2,548534051e-02   -1,130745932e-01   -1,216421127e-01   -5,891683698e-01    0,000000000e+00    0,000000000e+00    0,000000000e+00    0,000000000e+00
      758000000   -7,574032247e-02   -1,337666959e-01   -4,187116027e-01   -4,343101382e-01    0,000000000e+00    0,000000000e+00    0,000000000e+00    0,000000000e+00
      772000000   -1,371447891e-01   -1,167240813e-01   -5,944524407e-01   -1,418505758e-01    0,000000000e+00    0,000000000e+00    0,000000000e+00    0,000000000e+00
      786000000   -1,730816662e-01   -5,707446858e-02   -5,832633376e-01    2,092901617e-01    0,000000000e+00    0,000000000e+00    0,000000000e+00    0,000000000e+00
      800000000   -1,606179923e-01    8,519179188e-03   -3,736926913e-01    4,971255362e-01    0,000000000e+00    0,000000000e+00    0,000000000e+00    0,000000000e+00
      814000000   -1,140328869e-01    4,396396875e-02   -4,546645656e-02    6,167484522e-01    0,000000000e+00    0,000000000e+00    0,000000000e+00    0,000000000e+00
      828000000   -6,761252135e-02    4,388156906e-02    2,859110832e-01    5,415979624e-01    0,000000000e+00    0,000000000e+00    0,000000000e+00    0,000000000e+00
      842000000   -3,790520877e-02    2,836106159e-02    5,220707059e-01    3,062751591e-01    0,000000000e+00    0,000000000e+00    0,000000000e+00    0,000000000e+00
      856000000   -1,861461066e-02    1,102448720e-02    5,955438018e-01   -1,430751476e-02    0,000000000e+00    0,000000000e+00    0,000000000e+00    0,000000000e+00
      870000000    6,450100336e-04   -1,136668865e-02    4,870829582e-01   -3,178328276e-01    0,000000000e+00    0,000000000e+00    0,000000000e+00    0,000000000e+00
      884000000    1,203594450e-02   -5,100140348e-02    2,433289438e-01   -5,140727758e-01    0,000000000e+00    0,000000000e+00    0,000000000e+00    0,000000000e+00
      898000000   -4,525325727e-03   -1,007118300e-01   -6,079511717e-02   -5,559940338e-01    0,000000000e+00    0,000000000e+00    0,000000000e+00    0,000000000e+00
      912000000   -6,171855703e-02   -1,307783723e-01   -3,867150247e-01   -4,122893810e-01    0,000000000e+00    0,000000000e+00    0,000000000e+00    0,000000000e+00
      926000000   -1,247138306e-01   -1,197788417e-01   -5,659577250e-01   -1,482403427e-01    0,000000000e+00    0,000000000e+00    0,000000000e+00    0,000000000e+00
      940000000   -1,611031592e-01   -6,438080966e-02   -5,678775907e-01    1,948335767e-01    0,000000000e+00    0,000000000e+00    0,000000000e+00    0,000000000e+00
      954000000   -1,460053027e-01   -8,122722502e-04   -3,720052242e-01    4,857407212e-01    0,000000000e+00    0,000000000e+00    0,000000000e+00    0,000000000e+00
      968000000   -1,013172194e-01    2,189458720e-02   -5,086993054e-02    6,135589480e-01    0,000000000e+00    0,000000000e+00    0,000000000e+00    0,000000000e+00
      982000000   -5,606393144e-02    2,862025518e-03    2,820879221e-01    5,521827936e-01    0,000000000e+00    0,000000000e+00    0,000000000e+00    0,000000000e+00
      996000000   -4,567737505e-02   -3,148052469e-02    5,256939530e-01    3,273651600e-01    0,000000000e+00    0,000000000e+00    0,000000000e+00    0,000000000e+00
     1010000000   -5,805945769e-02   -6,574632227e-02    6,067681313e-01    1,381692383e-02    0,000000000e+00    0,000000000e+00    0,000000000e+00    0,000000000e+00
     1024000000   -1,032502800e-01   -7,775609195e-02    5,154774785e-01   -2,821801007e-01    0,000000000e+00    0,000000000e+00    0,000000000e+00    0,000000000e+00
     1038000000   -1,428782791e-01   -5,878202617e-02    2,953964770e-01   -4,703393877e-01    0,000000000e+00    0,000000000e+00    0,000000000e+00    0,000000000e+00
     1052000000   -1,473830491e-01   -2,630568342e-03    3,592311218e-02   -5,276163220e-01    0,000000000e+00    0,000000000e+00    0,000000000e+00    0,000000000e+00
     1066000000   -1,078085601e-01    3,928021342e-02   -2,100787163e-01   -4,659177661e-01    0,000000000e+00    0,000000000e+00    0,000000000e+00    0,000000000e+00
     1080000000   -5,533698574e-02    2,324406058e-02   -4,167162478e-01   -2,988377810e-01    0,000000000e+00    0,000000000e+00    0,000000000e+00    0,000000000e+00
     1094000000   -3,509685025e-02   -3,479436040e-03   -5,205469728e-01   -2,360008284e-02    0,000000000e+00    0,000000000e+00    0,000000000e+00    0,000000000e+00
     1108000000   -2,905107103e-02   -3,264596313e-02   -4,423611462e-01    2,850565910e-01    0,000000000e+00    0,000000000e+00    0,000000000e+00    0,000000000e+00
     1122000000   -3,535282239e-02   -5,747712776e-02   -1,867029965e-01    4,956454635e-01    0,000000000e+00    0,000000000e+00    0,000000000e+00    0,000000000e+00
     1136000000   -4,452741891e-02   -9,596989304e-02    1,487990618e-01    5,198757052e-01    0,000000000e+00    0,000000000e+00    0,000000000e+00    0,000000000e+00
     1150000000   -8,501525968e-02   -1,221524402e-01    4,531541169e-01    3,423713744e-01    0,000000000e+00    0,000000000e+00    0,000000000e+00    0,000000000e+00
     1164000000   -1,401705593e-01   -1,215471178e-01    6,088358164e-01    1,167636830e-02    0,000000000e+00    0,000000000e+00    0,000000000e+00    0,000000000e+00
     1178000000   -1,775767803e-01   -8,891715854e-02    5,402555466e-01   -3,687669933e-01    0,000000000e+00    0,000000000e+00    0,000000000e+00    0,000000000e+00
     1192000000   -1,770660430e-01   -5,689715967e-02    2,403414100e-01   -6,387760043e-01    0,000000000e+00    0,000000000e+00    0,000000000e+00    0,000000000e+00
     1206000000   -1,891215742e-01   -5,673854053e-02   -1,399959922e-01   -6,626573801e-01    0,000000000e+00    0,000000000e+00    0,000000000e+00    0,000000000e+00
     1220000000   -2,558303177e-01   -1,955739409e-02   -4,200801253e-01   -4,846713543e-01    0,000000000e+00    0,000000000e+00    0,000000000e+00    0,000000000e+00
     1234000000   -2,428682297e-01    1,097140536e-01   -5,571919680e-01   -2,572411597e-01    0,000000000e+00    0,000000000e+00    0,000000000e+00    0,000000000e+00
     1248000000   -1,131121442e-01    1,700736731e-01   -6,023858190e-01    1,866486482e-02    0,000000000e+00    0,000000000e+00    0,000000000e+00    0,000000000e+00
     1262000000   -4,637646955e-03    1,312586218e-01   -5,110123158e-01    2,950703502e-01    0,000000000e+00    0,000000000e+00    0,000000000e+00    0,000000000e+00
     1276000000    6,242918968e-02    4,500979185e-02   -2,790078819e-01    4,918217361e-01    0,000000000e+00    0,000000000e+00    0,000000000e+00    0,000000000e+00
     1290000000    7,138983905e-02   -6,791894883e-02    8,936014958e-03    5,520786643e-01    0,000000000e+00    0,000000000e+00    0,000000000e+00    0,000000000e+00
     1304000000    1,785678789e-02   -1,827727109e-01    2,929325402e-01    4,750997722e-01    0,000000000e+00    0,000000000e+00    0,000000000e+00    0,000000000e+00
     1318000000   -9,512870759e-02   -2,571818829e-01    5,374360681e-01    2,697966695e-01    0,000000000e+00    0,000000000e+00    0,000000000e+00    0,000000000e+00
     1332000000   -2,410333008e-01   -2,463159710e-01    6,567598581e-01   -5,070853233e-02    0,000000000e+00    0,000000000e+00    0,000000000e+00    0,000000000e+00
     1346000000   -3,578848839e-01   -1,437235475e-01    5,574918985e-01   -4,123892188e-01    0,000000000e+00    0,000000000e+00    0,000000000e+00    0,000000000e+00
     1360000000   -3,829126358e-01    1,025321614e-02    2,561970949e-01   -6,292715073e-01    0,000000000e+00    0,000000000e+00    0,000000000e+00    0,000000000e+00
     1374000000   -3,273922503e-01    1,184382439e-01   -1,011743918e-01   -6,260260344e-01    0,000000000e+00    0,000000000e+00    0,000000000e+00    0,000000000e+00
     1388000000   -2,383183539e-01    1,694915146e-01   -3,762091994e-01   -4,178473353e-01    0,000000000e+00    0,000000000e+00    0,000000000e+00    0,000000000e+00
     1402000000   -1,526637524e-01    1,683482528e-01   -4,831263125e-01   -1,149919406e-01    0,000000000e+00    0,000000000e+00    0,000000000e+00    0,000000000e+00
     1416000000   -8,825128525e-02    1,484815031e-01   -3,958088160e-01    2,025739700e-01    0,000000000e+00    0,000000000e+00    0,000000000e+00    0,000000000e+00
     1430000000   -3,063111752e-02    8,830293268e-02   -1,760297418e-01    4,496795535e-01    0,000000000e+00    0,000000000e+00    0,000000000e+00    0,000000000e+00
     1444000000   -8,516779169e-03    1,043959521e-02    1,265198439e-01    5,355139971e-01    0,000000000e+00    0,000000000e+00    0,000000000e+00    0,000000000e+00
     1458000000   -4,246464372e-02   -9,006166458e-02    4,403483868e-01    4,857166409e-01    0,000000000e+00    0,000000000e+00    0,000000000e+00    0,000000000e+00
     1472000000   -1,285746843e-01   -1,447884738e-01    7,308902740e-01    3,060103655e-01    0,000000000e+00    0,000000000e+00    0,000000000e+00    0,000000000e+00
     1486000000   -2,287848741e-01   -1,363943070e-01    9,109121561e-01   -2,757557668e-02    0,000000000e+00    0,000000000e+00    0,000000000e+00    0,000000000e+00
     1500000000   -3,050531745e-01   -7,453436404e-02    8,501014113e-01   -4,452506900e-01    0,000000000e+00    0,000000000e+00    0,000000000e+00    0,000000000e+00
