! NanoVNA-App
! Date: 2025-09-25 14:57:58
! Start: 100MHz Stop: 1,5GHz Points: 101
! S-Parameter data: F S11 S21 S12 S22
# Hz S RI R 50
!     Frequency           S11_Real           S11_Imag           S21_Real           S21_Imag           S12_Real           S12_Imag           S22_Real           S22_Imag
      100000000    3,561958298e-02    2,735592984e-02    4,406664968e-01   -6,694883704e-01    0,000000000e+00    0,000000000e+00    0,000000000e+00    0,000000000e+00
      114000000    6,075340137e-02    2,194832778e-03    1,295470260e-02   -7,953695059e-01    0,000000000e+00    0,000000000e+00    0,000000000e+00    0,000000000e+00
      128000000    6,842803955e-02   -4,224592075e-02   -4,082067609e-01   -6,783134937e-01    0,000000000e+00    0,000000000e+00    0,000000000e+00    0,000000000e+00
      142000000    4,351761937e-02   -8,876536041e-02   -7,049417496e-01   -3,608178794e-01    0,000000000e+00    0,000000000e+00    0,000000000e+00    0,000000000e+00
      156000000   -8,863421157e-03   -1,104335561e-01   -7,937411070e-01    6,854733080e-02    0,000000000e+00    0,000000000e+00    0,000000000e+00    0,000000000e+00
      170000000   -6,262250245e-02   -9,181225300e-02   -6,366553307e-01    4,863809347e-01    0,000000000e+00    0,000000000e+00    0,000000000e+00    0,000000000e+00
      184000000   -8,851265162e-02   -4,762040824e-02   -2,730052769e-01    7,564608455e-01    0,000000000e+00    0,000000000e+00    0,000000000e+00    0,000000000e+00
      198000000   -8,265716583e-02   -6,412538700e-03    1,799948066e-01    7,826121449e-01    0,000000000e+00    0,000000000e+00    0,000000000e+00    0,000000000e+00
      212000000   -6,267659366e-02    1,801724173e-02    5,706119537e-01    5,582711697e-01    0,000000000e+00    0,000000000e+00    0,000000000e+00    0,000000000e+00
      226000000   -4,137888178e-02    3,177475184e-02    7,765331268e-01    1,617845893e-01    0,000000000e+00    0,000000000e+00    0,000000000e+00    0,000000000e+00
      240000000   -1,480469946e-02    4,126079753e-02    7,360028625e-01   -2,786080539e-01    0,000000000e+00    0,000000000e+00    0,000000000e+00    0,000000000e+00
      254000000    2,148192190e-02    3,628836945e-02    4,675602317e-01   -6,222527027e-01    0,000000000e+00    0,000000000e+00    0,000000000e+00    0,000000000e+00
      268000000    5,332079902e-02    4,714580718e-03    6,682023406e-02   -7,672892809e-01    0,000000000e+00    0,000000000e+00    0,000000000e+00    0,000000000e+00
      282000000    5,740231276e-02   -4,495804012e-02   -3,455216289e-01   -6,825357080e-01    0,000000000e+00    0,000000000e+00    0,000000000e+00    0,000000000e+00
      296000000    2,618480101e-02   -8,462825418e-02   -6,546581984e-01   -3,973891735e-01    0,000000000e+00    0,000000000e+00    0,000000000e+00    0,000000000e+00
      310000000   -1,911951788e-02   -8,923681080e-02   -7,743447423e-01    9,593841620e-03    0,000000000e+00    0,000000000e+00    0,000000000e+00    0,000000000e+00
      324000000   -4,654177278e-02   -6,350451708e-02   -6,477065682e-01    4,298037887e-01    0,000000000e+00    0,000000000e+00    0,000000000e+00    0,000000000e+00
      338000000   -4,087750241e-02   -3,763187304e-02   -3,104856610e-01    7,081793547e-01    0,000000000e+00    0,000000000e+00    0,000000000e+00    0,000000000e+00
      352000000   -2,308338322e-02   -3,781976923e-02    1,197652221e-01    7,588866353e-01    0,000000000e+00    0,000000000e+00    0,000000000e+00    0,000000000e+00
      366000000   -2,290283330e-02   -5,631507561e-02    5,033637285e-01    5,715276599e-01    0,000000000e+00    0,000000000e+00    0,000000000e+00    0,000000000e+00
      380000000   -4,472639412e-02   -6,531969458e-02    7,261005044e-01    2,118625194e-01    0,000000000e+00    0,000000000e+00    0,000000000e+00    0,000000000e+00
      394000000   -6,668426841e-02   -5,066673830e-02    7,224733233e-01   -2,128906399e-01    0,000000000e+00    0,000000000e+00    0,000000000e+00    0,000000000e+00
      408000000   -6,723459810e-02   -2,646420896e-02    4,896336496e-01   -5,679576993e-01    0,000000000e+00    0,000000000e+00    0,000000000e+00    0,000000000e+00
      422000000   -5,321425572e-02   -1,572471485e-02    1,058369800e-01   -7,387755513e-01    0,000000000e+00    0,000000000e+00    0,000000000e+00    0,000000000e+00
      436000000   -4,661089554e-02   -1,873408072e-02   -3,070028424e-01   -6,766419411e-01    0,000000000e+00    0,000000000e+00    0,000000000e+00    0,000000000e+00
      450000000   -5,191244557e-02   -1,503277849e-02   -6,190255880e-01   -3,992463350e-01    0,000000000e+00    0,000000000e+00    0,000000000e+00    0,000000000e+00
      464000000   -5,065068230e-02    5,675640889e-03   -7,301634550e-01    3,617768874e-03    0,000000000e+00    0,000000000e+00    0,000000000e+00    0,000000000e+00
      478000000   -2,022650093e-02    2,671162412e-02   -5,983763337e-01    3,975701332e-01    0,000000000e+00    0,000000000e+00    0,000000000e+00    0,000000000e+00
      492000000    2,808968909e-02    1,451253705e-02   -2,795994282e-01    6,450209022e-01    0,000000000e+00    0,000000000e+00    0,000000000e+00    0,000000000e+00
      506000000    5,912435800e-02   -3,770827875e-02    1,049784049e-01    6,800313592e-01    0,000000000e+00    0,000000000e+00    0,000000000e+00    0,000000000e+00
      520000000    4,412875324e-02   -1,020106822e-01    4,428785741e-01    5,178564191e-01    0,000000000e+00    0,000000000e+00    0,000000000e+00    0,000000000e+00
      534000000   -1,265984587e-02   -1,442655623e-01    6,493000984e-01    2,050264031e-01    0,000000000e+00    0,000000000e+00    0,000000000e+00    0,000000000e+00
      548000000   -8,211538196e-02   -1,402052790e-01    6,590297818e-01   -1,764388531e-01    0,000000000e+00    0,000000000e+00    0,000000000e+00    0,000000000e+00
      562000000   -1,315293759e-01   -9,789291769e-02    4,503782690e-01   -5,086789727e-01    0,000000000e+00    0,000000000e+00    0,000000000e+00    0,000000000e+00
      576000000   -1,501187682e-01   -3,813315928e-02    8,189596236e-02   -6,600186229e-01    0,000000000e+00    0,000000000e+00    0,000000000e+00    0,000000000e+00
      590000000   -1,292881221e-01    3,104690090e-02   -2,941037416e-01   -5,605620146e-01    0,000000000e+00    0,000000000e+00    0,000000000e+00    0,000000000e+00
      604000000   -3,473516554e-02    6,831869483e-02   -4,837898612e-01   -2,685205340e-01    0,000000000e+00    0,000000000e+00    0,000000000e+00    0,000000000e+00
      618000000    3,314924240e-02   -3,537300229e-02   -4,946384132e-01   -5,693352968e-02    0,000000000e+00    0,000000000e+00    0,000000000e+00    0,000000000e+00
      632000000   -5,627623573e-02   -9,044578671e-02   -5,302010179e-01    1,787505746e-01    0,000000000e+00    0,000000000e+00    0,000000000e+00    0,000000000e+00
      646000000   -9,862346947e-02   -3,136981279e-02   -3,788547516e-01    4,799190462e-01    0,000000000e+00    0,000000000e+00    0,000000000e+00    0,000000000e+00
      660000000   -6,704452634e-02    1,049876586e-02   -4,875982925e-02    6,266835928e-01    0,000000000e+00    0,000000000e+00    0,000000000e+00    0,000000000e+00
      674000000   -2,910820581e-02    3,509930568e-03    2,996066809e-01    5,519780517e-01    0,000000000e+00    0,000000000e+00    0,000000000e+00    0,000000000e+00
      688000000   -1,473922934e-02   -1,928786747e-02    5,479381084e-01    3,029429615e-01    0,000000000e+00    0,000000000e+00    0,000000000e+00    0,000000000e+00
      702000000   -1,530734636e-02   -3,520435095e-02    6,214952469e-01   -4,036880285e-02    0,000000000e+00    0,000000000e+00    0,000000000e+00    0,000000000e+00
      716000000   -1,084080245e-02   -4,926962405e-02    4,910496771e-01   -3,684147298e-01    0,000000000e+00    0,000000000e+00    0,000000000e+00    0,000000000e+00
      730000000   -8,152163588e-03   -7,385875285e-02    2,105830461e-01   -5,678467155e-01    0,000000000e+00    0,000000000e+00    0,000000000e+00    0,000000000e+00
      744000000   -2,536691166e-02   -1,100041196e-01   -1,232031733e-01   -5,865679979e-01    0,000000000e+00    0,000000000e+00    0,000000000e+00    0,000000000e+00
      758000000   -7,456893474e-02   -1,331107318e-01   -4,192712605e-01   -4,317674339e-01    0,000000000e+00    0,000000000e+00    0,000000000e+00    0,000000000e+00
      772000000   -1,342810690e-01   -1,162501946e-01   -5,931220055e-01   -1,398770064e-01    0,000000000e+00    0,000000000e+00    0,000000000e+00    0,000000000e+00
      786000000   -1,720440984e-01   -5,905780196e-02   -5,812485814e-01    2,102403045e-01    0,000000000e+00    0,000000000e+00    0,000000000e+00    0,000000000e+00
      800000000   -1,597617418e-01    5,452951416e-03   -3,724581599e-01    4,961165190e-01    0,000000000e+00    0,000000000e+00    0,000000000e+00    0,000000000e+00
      814000000   -1,145650670e-01    4,190076515e-02   -4,579542205e-02    6,140543222e-01    0,000000000e+00    0,000000000e+00    0,000000000e+00    0,000000000e+00
      828000000   -6,952903420e-02    4,371419922e-02    2,845021188e-01    5,402591825e-01    0,000000000e+00    0,000000000e+00    0,000000000e+00    0,000000000e+00
      842000000   -3,977366909e-02    2,930446900e-02    5,208896399e-01    3,049729764e-01    0,000000000e+00    0,000000000e+00    0,000000000e+00    0,000000000e+00
      856000000   -1,817055605e-02    1,344364509e-02    5,942584872e-01   -1,412692945e-02    0,000000000e+00    0,000000000e+00    0,000000000e+00    0,000000000e+00
      870000000    2,133341972e-03   -1,075817458e-02    4,853949249e-01   -3,162512481e-01    0,000000000e+00    0,000000000e+00    0,000000000e+00    0,000000000e+00
      884000000    1,347378921e-02   -5,213753507e-02    2,419759780e-01   -5,117285252e-01    0,000000000e+00    0,000000000e+00    0,000000000e+00    0,000000000e+00
      898000000   -4,289912991e-03   -1,023077443e-01   -5,753295124e-02   -5,530573130e-01    0,000000000e+00    0,000000000e+00    0,000000000e+00    0,000000000e+00
      912000000   -6,362986565e-02   -1,325358599e-01   -3,821265996e-01   -4,220895469e-01    0,000000000e+00    0,000000000e+00    0,000000000e+00    0,000000000e+00
      926000000   -1,282696873e-01   -1,200950965e-01   -5,675797462e-01   -1,495804936e-01    0,000000000e+00    0,000000000e+00    0,000000000e+00    0,000000000e+00
      940000000   -1,645999849e-01   -6,407910585e-02   -5,690758824e-01    1,916995645e-01    0,000000000e+00    0,000000000e+00    0,000000000e+00    0,000000000e+00
      954000000   -1,468336582e-01   -3,755964572e-03   -3,739739954e-01    4,805845618e-01    0,000000000e+00    0,000000000e+00    0,000000000e+00    0,000000000e+00
      968000000   -9,517968446e-02    2,409558557e-02   -5,103866383e-02    6,157103181e-01    0,000000000e+00    0,000000000e+00    0,000000000e+00    0,000000000e+00
      982000000   -5,314355716e-02    6,772164721e-03    2,796132863e-01    5,526059270e-01    0,000000000e+00    0,000000000e+00    0,000000000e+00    0,000000000e+00
      996000000   -4,303652793e-02   -3,466586769e-02    5,237290859e-01    3,265070617e-01    0,000000000e+00    0,000000000e+00    0,000000000e+00    0,000000000e+00
     1010000000   -5,883985758e-02   -6,570766121e-02    6,094965935e-01    1,524214167e-02    0,000000000e+00    0,000000000e+00    0,000000000e+00    0,000000000e+00
     1024000000   -9,848609567e-02   -7,925361395e-02    5,131443143e-01   -2,818348110e-01    0,000000000e+00    0,000000000e+00    0,000000000e+00    0,000000000e+00
     1038000000   -1,397261024e-01   -5,487854034e-02    2,942985594e-01   -4,706991315e-01    0,000000000e+00    0,000000000e+00    0,000000000e+00    0,000000000e+00
     1052000000   -1,505250335e-01   -3,307187231e-03    3,425543383e-02   -5,247980952e-01    0,000000000e+00    0,000000000e+00    0,000000000e+00    0,000000000e+00
     1066000000   -1,085142568e-01    4,300217703e-02   -2,096718699e-01   -4,645756483e-01    0,000000000e+00    0,000000000e+00    0,000000000e+00    0,000000000e+00
     1080000000   -4,955860227e-02    2,799496613e-02   -4,164161384e-01   -2,992681265e-01    0,000000000e+00    0,000000000e+00    0,000000000e+00    0,000000000e+00
     1094000000   -3,435405344e-02   -8,955447935e-03   -5,190982223e-01   -2,381879091e-02    0,000000000e+00    0,000000000e+00    0,000000000e+00    0,000000000e+00
     1108000000   -2,940117195e-02   -3,313676268e-02   -4,444326460e-01    2,860395908e-01    0,000000000e+00    0,000000000e+00    0,000000000e+00    0,000000000e+00
     1122000000   -2,554911934e-02   -5,672546849e-02   -1,873985827e-01    4,972572923e-01    0,000000000e+00    0,000000000e+00    0,000000000e+00    0,000000000e+00
     1136000000   -4,218225181e-02   -9,675396979e-02    1,524802595e-01    5,222272873e-01    0,000000000e+00    0,000000000e+00    0,000000000e+00    0,000000000e+00
     1150000000   -8,481021971e-02   -1,229091212e-01    4,531874061e-01    3,434705138e-01    0,000000000e+00    0,000000000e+00    0,000000000e+00    0,000000000e+00
     1164000000   -1,412756443e-01   -1,249412447e-01    6,098510027e-01    1,249840856e-02    0,000000000e+00    0,000000000e+00    0,000000000e+00    0,000000000e+00
     1178000000   -1,784153730e-01   -8,419571072e-02    5,404937267e-01   -3,718752563e-01    0,000000000e+00    0,000000000e+00    0,000000000e+00    0,000000000e+00
     1192000000   -1,843010485e-01   -5,413515121e-02    2,407401055e-01   -6,340331435e-01    0,000000000e+00    0,000000000e+00    0,000000000e+00    0,000000000e+00
     1206000000   -1,944652945e-01   -5,534303933e-02   -1,410070807e-01   -6,654090285e-01    0,000000000e+00    0,000000000e+00    0,000000000e+00    0,000000000e+00
     1220000000   -2,550019324e-01   -1,749881916e-02   -4,252491295e-01   -4,862526953e-01    0,000000000e+00    0,000000000e+00    0,000000000e+00    0,000000000e+00
     1234000000   -2,416203171e-01    1,165645495e-01   -5,592126846e-01   -2,461758256e-01    0,000000000e+00    0,000000000e+00    0,000000000e+00    0,000000000e+00
     1248000000   -1,123905331e-01    1,735955924e-01   -6,054677367e-01    1,682867669e-02    0,000000000e+00    0,000000000e+00    0,000000000e+00    0,000000000e+00
     1262000000   -4,204018973e-03    1,295499355e-01   -5,037472844e-01    2,911862135e-01    0,000000000e+00    0,000000000e+00    0,000000000e+00    0,000000000e+00
     1276000000    6,302069873e-02    4,064150527e-02   -2,787586153e-01    4,847480059e-01    0,000000000e+00    0,000000000e+00    0,000000000e+00    0,000000000e+00
     1290000000    6,717454642e-02   -7,295418531e-02    9,918605909e-03    5,463532209e-01    0,000000000e+00    0,000000000e+00    0,000000000e+00    0,000000000e+00
     1304000000    2,024354227e-02   -1,847338974e-01    2,962898910e-01    4,751737714e-01    0,000000000e+00    0,000000000e+00    0,000000000e+00    0,000000000e+00
     1318000000   -9,694699198e-02   -2,508150339e-01    5,353140831e-01    2,738898396e-01    0,000000000e+00    0,000000000e+00    0,000000000e+00    0,000000000e+00
     1332000000   -2,401375324e-01   -2,439254224e-01    6,509251595e-01   -4,813314229e-02    0,000000000e+00    0,000000000e+00    0,000000000e+00    0,000000000e+00
     1346000000   -3,588811755e-01   -1,414700747e-01    5,589768887e-01   -4,067430496e-01    0,000000000e+00    0,000000000e+00    0,000000000e+00    0,000000000e+00
     1360000000   -3,842299581e-01    1,100412384e-02    2,589185238e-01   -6,315361261e-01    0,000000000e+00    0,000000000e+00    0,000000000e+00    0,000000000e+00
     1374000000   -3,216471076e-01    1,169019789e-01   -1,032066867e-01   -6,237818599e-01    0,000000000e+00    0,000000000e+00    0,000000000e+00    0,000000000e+00
     1388000000   -2,410887778e-01    1,678669155e-01   -3,887627125e-01   -4,257329106e-01    0,000000000e+00    0,000000000e+00    0,000000000e+00    0,000000000e+00
     1402000000   -1,562256664e-01    1,704753339e-01   -4,768364429e-01   -1,011068001e-01    0,000000000e+00    0,000000000e+00    0,000000000e+00    0,000000000e+00
     1416000000   -8,453278989e-02    1,396833509e-01   -3,931660056e-01    2,041574419e-01    0,000000000e+00    0,000000000e+00    0,000000000e+00    0,000000000e+00
     1430000000   -3,319869190e-02    8,826559782e-02   -1,928324848e-01    4,514444470e-01    0,000000000e+00    0,000000000e+00    0,000000000e+00    0,000000000e+00
     1444000000   -1,008261647e-02    1,000561193e-02    1,149124205e-01    5,306752920e-01    0,000000000e+00    0,000000000e+00    0,000000000e+00    0,000000000e+00
     1458000000   -3,482853249e-02   -8,270831406e-02    4,478794932e-01    4,960713983e-01    0,000000000e+00    0,000000000e+00    0,000000000e+00    0,000000000e+00
     1472000000   -1,195013598e-01   -1,406706572e-01    7,336861491e-01    3,147218525e-01    0,000000000e+00    0,000000000e+00    0,000000000e+00    0,000000000e+00
     1486000000   -2,288268507e-01   -1,447564960e-01    8,933051825e-01   -4,369479790e-02    0,000000000e+00    0,000000000e+00    0,000000000e+00    0,000000000e+00
     1500000000   -3,045155108e-01   -5,814170465e-02    8,414292932e-01   -4,099451602e-01    0,000000000e+00    0,000000000e+00    0,000000000e+00    0,000000000e+00
