! NanoVNA-App
! Date: 2025-09-25 15:00:53
! Start: 100MHz Stop: 1,5GHz Points: 101
! S-Parameter data: F S11 S21 S12 S22
# Hz S RI R 50
!     Frequency           S11_Real           S11_Imag           S21_Real           S21_Imag           S12_Real           S12_Imag           S22_Real           S22_Imag
      100000000    3,556127101e-02    2,735810541e-02    4,407369196e-01   -6,695267558e-01    0,000000000e+00    0,000000000e+00    0,000000000e+00    0,000000000e+00
      114000000    6,073286384e-02    2,183195204e-03    1,290983707e-02   -7,955737710e-01    0,000000000e+00    0,000000000e+00    0,000000000e+00    0,000000000e+00
      128000000    6,836610287e-02   -4,227700457e-02   -4,082668126e-01   -6,780601144e-01    0,000000000e+00    0,000000000e+00    0,000000000e+00    0,000000000e+00
      142000000    4,345661029e-02   -8,876610547e-02   -7,052748799e-01   -3,611404300e-01    0,000000000e+00    0,000000000e+00    0,000000000e+00    0,000000000e+00
      156000000   -9,265252389e-03   -1,096236631e-01   -7,934416533e-01    6,704856455e-02    0,000000000e+00    0,000000000e+00    0,000000000e+00    0,000000000e+00
      170000000   -6,261670589e-02   -9,182348102e-02   -6,372265816e-01    4,864863455e-01    0,000000000e+00    0,000000000e+00    0,000000000e+00    0,000000000e+00
      184000000   -8,859202266e-02   -4,765814543e-02   -2,730844617e-01    7,561113238e-01    0,000000000e+00    0,000000000e+00    0,000000000e+00    0,000000000e+00
      198000000   -8,278892189e-02   -6,445640232e-03    1,795628667e-01    7,825502753e-01    0,000000000e+00    0,000000000e+00    0,000000000e+00    0,000000000e+00
      212000000   -6,272780895e-02    1,807417162e-02    5,704830885e-01    5,582578182e-01    0,000000000e+00    0,000000000e+00    0,000000000e+00    0,000000000e+00
      226000000   -4,147135094e-02    3,187921643e-02    7,767860293e-01    1,620015651e-01    0,000000000e+00    0,000000000e+00    0,000000000e+00    0,000000000e+00
      240000000   -1,489968039e-02    4,129894450e-02    7,359771132e-01   -2,785923779e-01    0,000000000e+00    0,000000000e+00    0,000000000e+00    0,000000000e+00
      254000000    2,138753049e-02    3,630989417e-02    4,680561721e-01   -6,220874190e-01    0,000000000e+00    0,000000000e+00    0,000000000e+00    0,000000000e+00
      268000000    5,330943689e-02    4,743047990e-03    6,661147624e-02   -7,676631212e-01    0,000000000e+00    0,000000000e+00    0,000000000e+00    0,000000000e+00
      282000000    5,741103739e-02   -4,497866333e-02   -3,454296291e-01   -6,823536754e-01    0,000000000e+00    0,000000000e+00    0,000000000e+00    0,000000000e+00
      296000000    2,609530278e-02   -8,468046784e-02   -6,549452543e-01   -3,979142308e-01    0,000000000e+00    0,000000000e+00    0,000000000e+00    0,000000000e+00
      310000000   -1,912867650e-02   -8,931496739e-02   -7,744191885e-01    9,793622419e-03    0,000000000e+00    0,000000000e+00    0,000000000e+00    0,000000000e+00
      324000000   -4,682009667e-02   -6,330604851e-02   -6,477630734e-01    4,300415814e-01    0,000000000e+00    0,000000000e+00    0,000000000e+00    0,000000000e+00
      338000000   -4,107670113e-02   -3,776032478e-02   -3,110809028e-01    7,108610272e-01    0,000000000e+00    0,000000000e+00    0,000000000e+00    0,000000000e+00
      352000000   -2,332944982e-02   -3,781854734e-02    1,194678098e-01    7,580198646e-01    0,000000000e+00    0,000000000e+00    0,000000000e+00    0,000000000e+00
      366000000   -2,295537293e-02   -5,606308207e-02    5,028399825e-01    5,716324449e-01    0,000000000e+00    0,000000000e+00    0,000000000e+00    0,000000000e+00
      380000000   -4,455210641e-02   -6,509402394e-02    7,265062928e-01    2,118147016e-01    0,000000000e+00    0,000000000e+00    0,000000000e+00    0,000000000e+00
      394000000   -6,648282707e-02   -5,023268983e-02    7,232668996e-01   -2,129213065e-01    0,000000000e+00    0,000000000e+00    0,000000000e+00    0,000000000e+00
      408000000   -6,761230528e-02   -2,635297365e-02    4,892370403e-01   -5,686827898e-01    0,000000000e+00    0,000000000e+00    0,000000000e+00    0,000000000e+00
      422000000   -5,340927094e-02   -1,531617623e-02    1,049998179e-01   -7,384660244e-01    0,000000000e+00    0,000000000e+00    0,000000000e+00    0,000000000e+00
      436000000   -4,633776844e-02   -1,837546565e-02   -3,059303164e-01   -6,753409505e-01    0,000000000e+00    0,000000000e+00    0,000000000e+00    0,000000000e+00
      450000000   -5,225921422e-02   -1,502025686e-02   -6,194076538e-01   -3,998708129e-01    0,000000000e+00    0,000000000e+00    0,000000000e+00    0,000000000e+00
      464000000   -5,070654303e-02    5,661220290e-03   -7,300549746e-01    3,031550674e-03    0,000000000e+00    0,000000000e+00    0,000000000e+00    0,000000000e+00
      478000000   -2,079735324e-02    2,637208998e-02   -5,983124971e-01    3,969021440e-01    0,000000000e+00    0,000000000e+00    0,000000000e+00    0,000000000e+00
      492000000    2,801974490e-02    1,438150834e-02   -2,801545560e-01    6,438944936e-01    0,000000000e+00    0,000000000e+00    0,000000000e+00    0,000000000e+00
      506000000    5,869068578e-02   -3,695046902e-02    1,041851789e-01    6,800511479e-01    0,000000000e+00    0,000000000e+00    0,000000000e+00    0,000000000e+00
      520000000    4,344001040e-02   -1,025280058e-01    4,403882027e-01    5,149466395e-01    0,000000000e+00    0,000000000e+00    0,000000000e+00    0,000000000e+00
      534000000   -1,289077383e-02   -1,431249678e-01    6,490508914e-01    2,058285177e-01    0,000000000e+00    0,000000000e+00    0,000000000e+00    0,000000000e+00
      548000000   -8,083548397e-02   -1,390218586e-01    6,602797508e-01   -1,751196384e-01    0,000000000e+00    0,000000000e+00    0,000000000e+00    0,000000000e+00
      562000000   -1,296688616e-01   -9,830974787e-02    4,521250129e-01   -5,090550184e-01    0,000000000e+00    0,000000000e+00    0,000000000e+00    0,000000000e+00
      576000000   -1,473121792e-01   -4,089143872e-02    8,566360921e-02   -6,628554463e-01    0,000000000e+00    0,000000000e+00    0,000000000e+00    0,000000000e+00
      590000000   -1,315574348e-01    2,371294238e-02   -2,965193093e-01   -5,683509707e-01    0,000000000e+00    0,000000000e+00    0,000000000e+00    0,000000000e+00
      604000000   -5,021099001e-02    6,940278411e-02   -5,025394559e-01   -2,718479037e-01    0,000000000e+00    0,000000000e+00    0,000000000e+00    0,000000000e+00
      618000000    3,914237767e-02   -1,281122956e-02   -4,923897088e-01   -2,855730057e-02    0,000000000e+00    0,000000000e+00    0,000000000e+00    0,000000000e+00
      632000000   -3,823521361e-02   -9,822467715e-02   -5,081229210e-01    1,729331762e-01    0,000000000e+00    0,000000000e+00    0,000000000e+00    0,000000000e+00
      646000000   -1,023767963e-01   -4,325838760e-02   -3,799338341e-01    4,661542773e-01    0,000000000e+00    0,000000000e+00    0,000000000e+00    0,000000000e+00
      660000000   -7,452293485e-02    7,906947285e-03   -5,767337978e-02    6,229935288e-01    0,000000000e+00    0,000000000e+00    0,000000000e+00    0,000000000e+00
      674000000   -3,400132433e-02    7,903508842e-03    2,944156826e-01    5,549529791e-01    0,000000000e+00    0,000000000e+00    0,000000000e+00    0,000000000e+00
      688000000   -1,496373303e-02   -1,485533360e-02    5,458010435e-01    3,063190877e-01    0,000000000e+00    0,000000000e+00    0,000000000e+00    0,000000000e+00
      702000000   -1,174418349e-02   -3,267293051e-02    6,193376780e-01   -4,153957963e-02    0,000000000e+00    0,000000000e+00    0,000000000e+00    0,000000000e+00
      716000000   -7,648814470e-03   -4,754900932e-02    4,929527938e-01   -3,663017154e-01    0,000000000e+00    0,000000000e+00    0,000000000e+00    0,000000000e+00
      730000000   -6,059516221e-03   -7,610235363e-02    2,131550759e-01   -5,681420565e-01    0,000000000e+00    0,000000000e+00    0,000000000e+00    0,000000000e+00
      744000000   -2,477309853e-02   -1,125813350e-01   -1,229315177e-01   -5,894592404e-01    0,000000000e+00    0,000000000e+00    0,000000000e+00    0,000000000e+00
      758000000   -7,569266856e-02   -1,343470365e-01   -4,191013873e-01   -4,341917932e-01    0,000000000e+00    0,000000000e+00    0,000000000e+00    0,000000000e+00
      772000000   -1,367270052e-01   -1,170563027e-01   -5,944064856e-01   -1,416693181e-01    0,000000000e+00    0,000000000e+00    0,000000000e+00    0,000000000e+00
      786000000   -1,725753099e-01   -5,833766237e-02   -5,833019018e-01    2,099230140e-01    0,000000000e+00    0,000000000e+00    0,000000000e+00    0,000000000e+00
      800000000   -1,596424282e-01    7,950637490e-03   -3,744254112e-01    4,968930185e-01    0,000000000e+00    0,000000000e+00    0,000000000e+00    0,000000000e+00
      814000000   -1,137863547e-01    4,349789023e-02   -4,473293200e-02    6,152737141e-01    0,000000000e+00    0,000000000e+00    0,000000000e+00    0,000000000e+00
      828000000   -6,713449210e-02    4,391830415e-02    2,867587507e-01    5,426563025e-01    0,000000000e+00    0,000000000e+00    0,000000000e+00    0,000000000e+00
      842000000   -3,825858235e-02    2,799157985e-02    5,217377543e-01    3,054241538e-01    0,000000000e+00    0,000000000e+00    0,000000000e+00    0,000000000e+00
      856000000   -1,825467497e-02    1,031794492e-02    5,956155658e-01   -1,370660216e-02    0,000000000e+00    0,000000000e+00    0,000000000e+00    0,000000000e+00
      870000000    8,601358277e-04   -1,221323758e-02    4,888129234e-01   -3,183884025e-01    0,000000000e+00    0,000000000e+00    0,000000000e+00    0,000000000e+00
      884000000    1,241378486e-02   -5,124189705e-02    2,435816824e-01   -5,145325065e-01    0,000000000e+00    0,000000000e+00    0,000000000e+00    0,000000000e+00
      898000000   -4,411634523e-03   -1,001113430e-01   -5,967434496e-02   -5,555876493e-01    0,000000000e+00    0,000000000e+00    0,000000000e+00    0,000000000e+00
      912000000   -6,169981137e-02   -1,307431310e-01   -3,999501467e-01   -4,183890820e-01    0,000000000e+00    0,000000000e+00    0,000000000e+00    0,000000000e+00
      926000000   -1,252060682e-01   -1,180616915e-01   -5,674852133e-01   -1,446058601e-01    0,000000000e+00    0,000000000e+00    0,000000000e+00    0,000000000e+00
      940000000   -1,616999656e-01   -6,585404277e-02   -5,686126947e-01    1,934289634e-01    0,000000000e+00    0,000000000e+00    0,000000000e+00    0,000000000e+00
      954000000   -1,454559118e-01   -2,060213825e-03   -3,743629754e-01    4,849485755e-01    0,000000000e+00    0,000000000e+00    0,000000000e+00    0,000000000e+00
      968000000   -9,698801488e-02    2,533175610e-02   -5,171293765e-02    6,161810160e-01    0,000000000e+00    0,000000000e+00    0,000000000e+00    0,000000000e+00
      982000000   -5,463579297e-02    4,092949443e-03    2,823057473e-01    5,507842302e-01    0,000000000e+00    0,000000000e+00    0,000000000e+00    0,000000000e+00
      996000000   -4,623705894e-02   -3,218172118e-02    5,251549482e-01    3,250703812e-01    0,000000000e+00    0,000000000e+00    0,000000000e+00    0,000000000e+00
     1010000000   -5,948579684e-02   -6,482206285e-02    6,070244312e-01    1,416502614e-02    0,000000000e+00    0,000000000e+00    0,000000000e+00    0,000000000e+00
     1024000000   -9,771088511e-02   -7,527665794e-02    5,147175193e-01   -2,834385931e-01    0,000000000e+00    0,000000000e+00    0,000000000e+00    0,000000000e+00
     1038000000   -1,402117014e-01   -6,003002450e-02    2,942737639e-01   -4,698592722e-01    0,000000000e+00    0,000000000e+00    0,000000000e+00    0,000000000e+00
     1052000000   -1,468695253e-01   -2,292352263e-03    3,851277009e-02   -5,244606137e-01    0,000000000e+00    0,000000000e+00    0,000000000e+00    0,000000000e+00
     1066000000   -1,084844396e-01    3,923488036e-02   -2,182564884e-01   -4,659252167e-01    0,000000000e+00    0,000000000e+00    0,000000000e+00    0,000000000e+00
     1080000000   -5,491920933e-02    2,457788400e-02   -4,161312580e-01   -2,976825833e-01    0,000000000e+00    0,000000000e+00    0,000000000e+00    0,000000000e+00
     1094000000   -3,232000023e-02   -8,923971094e-03   -5,192574859e-01   -2,475633286e-02    0,000000000e+00    0,000000000e+00    0,000000000e+00    0,000000000e+00
     1108000000   -2,934767120e-02   -3,394280747e-02   -4,422928393e-01    2,861035764e-01    0,000000000e+00    0,000000000e+00    0,000000000e+00    0,000000000e+00
     1122000000   -3,012536652e-02   -5,621018261e-02   -1,878114492e-01    4,946107864e-01    0,000000000e+00    0,000000000e+00    0,000000000e+00    0,000000000e+00
     1136000000   -4,263537750e-02   -9,660673887e-02    1,498265266e-01    5,198946595e-01    0,000000000e+00    0,000000000e+00    0,000000000e+00    0,000000000e+00
     1150000000   -8,686728776e-02   -1,234562993e-01    4,541676939e-01    3,428443372e-01    0,000000000e+00    0,000000000e+00    0,000000000e+00    0,000000000e+00
     1164000000   -1,429119259e-01   -1,238371134e-01    6,127818227e-01    1,220602077e-02    0,000000000e+00    0,000000000e+00    0,000000000e+00    0,000000000e+00
     1178000000   -1,754812002e-01   -9,044135362e-02    5,383900404e-01   -3,752640486e-01    0,000000000e+00    0,000000000e+00    0,000000000e+00    0,000000000e+00
     1192000000   -1,838256866e-01   -5,166633427e-02    2,424444854e-01   -6,367994547e-01    0,000000000e+00    0,000000000e+00    0,000000000e+00    0,000000000e+00
     1206000000   -1,936202794e-01   -5,881032348e-02   -1,405937374e-01   -6,632643938e-01    0,000000000e+00    0,000000000e+00    0,000000000e+00    0,000000000e+00
     1220000000   -2,514029443e-01   -1,839094609e-02   -4,168034494e-01   -4,856047630e-01    0,000000000e+00    0,000000000e+00    0,000000000e+00    0,000000000e+00
     1234000000   -2,468883991e-01    1,131284833e-01   -5,597379804e-01   -2,480935156e-01    0,000000000e+00    0,000000000e+00    0,000000000e+00    0,000000000e+00
     1248000000   -1,193150282e-01    1,732573658e-01   -6,049254537e-01    1,819422655e-02    0,000000000e+00    0,000000000e+00    0,000000000e+00    0,000000000e+00
     1262000000   -4,030460492e-03    1,291725636e-01   -5,079740286e-01    2,931838334e-01    0,000000000e+00    0,000000000e+00    0,000000000e+00    0,000000000e+00
     1276000000    6,130627543e-02    4,474267364e-02   -2,843814492e-01    4,883019924e-01    0,000000000e+00    0,000000000e+00    0,000000000e+00    0,000000000e+00
     1290000000    7,157777995e-02   -6,742265821e-02    1,536759268e-02    5,496180058e-01    0,000000000e+00    0,000000000e+00    0,000000000e+00    0,000000000e+00
     1304000000    1,906866953e-02   -1,789314896e-01    3,031897545e-01    4,809763134e-01    0,000000000e+00    0,000000000e+00    0,000000000e+00    0,000000000e+00
     1318000000   -9,266056120e-02   -2,574968040e-01    5,450059175e-01    2,737454772e-01    0,000000000e+00    0,000000000e+00    0,000000000e+00    0,000000000e+00
     1332000000   -2,451888174e-01   -2,449603379e-01    6,480911970e-01   -5,682371184e-02    0,000000000e+00    0,000000000e+00    0,000000000e+00    0,000000000e+00
     1346000000   -3,610126972e-01   -1,411344409e-01    5,493974686e-01   -4,159781635e-01    0,000000000e+00    0,000000000e+00    0,000000000e+00    0,000000000e+00
     1360000000   -3,841013610e-01   -1,074955871e-04    2,585685253e-01   -6,423994899e-01    0,000000000e+00    0,000000000e+00    0,000000000e+00    0,000000000e+00
     1374000000   -3,206667602e-01    1,181448624e-01   -1,003854126e-01   -6,263018250e-01    0,000000000e+00    0,000000000e+00    0,000000000e+00    0,000000000e+00
     1388000000   -2,424315661e-01    1,688428074e-01   -3,739871681e-01   -4,152506292e-01    0,000000000e+00    0,000000000e+00    0,000000000e+00    0,000000000e+00
     1402000000   -1,521770805e-01    1,727098823e-01   -4,737201035e-01   -1,053166091e-01    0,000000000e+00    0,000000000e+00    0,000000000e+00    0,000000000e+00
     1416000000   -8,251149207e-02    1,437930763e-01   -3,890618086e-01    2,064819336e-01    0,000000000e+00    0,000000000e+00    0,000000000e+00    0,000000000e+00
     1430000000   -2,911759727e-02    8,281632513e-02   -1,855807900e-01    4,404321313e-01    0,000000000e+00    0,000000000e+00    0,000000000e+00    0,000000000e+00
     1444000000   -1,153399237e-02    3,025858197e-03    1,184429005e-01    5,222142935e-01    0,000000000e+00    0,000000000e+00    0,000000000e+00    0,000000000e+00
     1458000000   -4,106482491e-02   -8,042883128e-02    4,336405396e-01    5,035610795e-01    0,000000000e+00    0,000000000e+00    0,000000000e+00    0,000000000e+00
     1472000000   -1,208631620e-01   -1,452875137e-01    7,418580651e-01    2,985990345e-01    0,000000000e+00    0,000000000e+00    0,000000000e+00    0,000000000e+00
     1486000000   -2,311048210e-01   -1,362062395e-01    9,042847157e-01   -3,070295416e-02    0,000000000e+00    0,000000000e+00    0,000000000e+00    0,000000000e+00
     1500000000   -3,041972220e-01   -5,207899585e-02    8,557388783e-01   -4,045942724e-01    0,000000000e+00    0,000000000e+00    0,000000000e+00    0,000000000e+00
