! NanoVNA-App
! Date: 2025-09-25 15:02:27
! Start: 100MHz Stop: 1,5GHz Points: 101
! S-Parameter data: F S11 S21 S12 S22
# Hz S RI R 50
!     Frequency           S11_Real           S11_Imag           S21_Real           S21_Imag           S12_Real           S12_Imag           S22_Real           S22_Imag
      100000000    3,560916707e-02    2,736846916e-02    4,407644868e-01   -6,695491076e-01    0,000000000e+00    0,000000000e+00    0,000000000e+00    0,000000000e+00
      114000000    6,071835011e-02    2,213922329e-03    1,291318983e-02   -7,954464555e-01    0,000000000e+00    0,000000000e+00    0,000000000e+00    0,000000000e+00
      128000000    6,837833673e-02   -4,224491864e-02   -4,081113338e-01   -6,781117916e-01    0,000000000e+00    0,000000000e+00    0,000000000e+00    0,000000000e+00
      142000000    4,347425699e-02   -8,878543228e-02   -7,052273154e-01   -3,609400094e-01    0,000000000e+00    0,000000000e+00    0,000000000e+00    0,000000000e+00
      156000000   -8,936690167e-03   -1,104924083e-01   -7,935503125e-01    6,828588992e-02    0,000000000e+00    0,000000000e+00    0,000000000e+00    0,000000000e+00
      170000000   -6,266272068e-02   -9,186104685e-02   -6,371439695e-01    4,865970612e-01    0,000000000e+00    0,000000000e+00    0,000000000e+00    0,000000000e+00
      184000000   -8,861592412e-02   -4,769096151e-02   -2,733256519e-01    7,561613321e-01    0,000000000e+00    0,000000000e+00    0,000000000e+00    0,000000000e+00
      198000000   -8,275423199e-02   -6,450823043e-03    1,796246767e-01    7,821792364e-01    0,000000000e+00    0,000000000e+00    0,000000000e+00    0,000000000e+00
      212000000   -6,273105741e-02    1,808020845e-02    5,706155896e-01    5,582084060e-01    0,000000000e+00    0,000000000e+00    0,000000000e+00    0,000000000e+00
      226000000   -4,153605551e-02    3,184435144e-02    7,767973542e-01    1,619541645e-01    0,000000000e+00    0,000000000e+00    0,000000000e+00    0,000000000e+00
      240000000   -1,488980744e-02    4,126628488e-02    7,361111641e-01   -2,786716819e-01    0,000000000e+00    0,000000000e+00    0,000000000e+00    0,000000000e+00
      254000000    2,139205486e-02    3,631938994e-02    4,681563973e-01   -6,219305396e-01    0,000000000e+00    0,000000000e+00    0,000000000e+00    0,000000000e+00
      268000000    5,329173803e-02    4,729937296e-03    6,673686951e-02   -7,677531242e-01    0,000000000e+00    0,000000000e+00    0,000000000e+00    0,000000000e+00
      282000000    5,743092299e-02   -4,490156472e-02   -3,452820778e-01   -6,826338172e-01    0,000000000e+00    0,000000000e+00    0,000000000e+00    0,000000000e+00
      296000000    2,614049986e-02   -8,457040042e-02   -6,550512314e-01   -3,976533115e-01    0,000000000e+00    0,000000000e+00    0,000000000e+00    0,000000000e+00
      310000000   -1,886093989e-02   -8,939030021e-02   -7,749196887e-01    1,120969653e-02    0,000000000e+00    0,000000000e+00    0,000000000e+00    0,000000000e+00
      324000000   -4,617891088e-02   -6,352785230e-02   -6,474753022e-01    4,293809831e-01    0,000000000e+00    0,000000000e+00    0,000000000e+00    0,000000000e+00
      338000000   -4,093873501e-02   -3,793994337e-02   -3,107345700e-01    7,106853724e-01    0,000000000e+00    0,000000000e+00    0,000000000e+00    0,000000000e+00
      352000000   -2,341851778e-02   -3,784528375e-02    1,194674298e-01    7,588349581e-01    0,000000000e+00    0,000000000e+00    0,000000000e+00    0,000000000e+00
      366000000   -2,292434312e-02   -5,641031638e-02    5,025703907e-01    5,716636777e-01    0,000000000e+00    0,000000000e+00    0,000000000e+00    0,000000000e+00
      380000000   -4,491617158e-02   -6,532616168e-02    7,259572744e-01    2,119504213e-01    0,000000000e+00    0,000000000e+00    0,000000000e+00    0,000000000e+00
      394000000   -6,626922637e-02   -5,050532520e-02    7,235314846e-01   -2,133268863e-01    0,000000000e+00    0,000000000e+00    0,000000000e+00    0,000000000e+00
      408000000   -6,756170839e-02   -2,644075081e-02    4,903734624e-01   -5,678081512e-01    0,000000000e+00    0,000000000e+00    0,000000000e+00    0,000000000e+00
      422000000   -5,336906761e-02   -1,545974147e-02    1,048079804e-01   -7,384850979e-01    0,000000000e+00    0,000000000e+00    0,000000000e+00    0,000000000e+00
      436000000   -4,644206166e-02   -1,860212907e-02   -3,060477972e-01   -6,759341359e-01    0,000000000e+00    0,000000000e+00    0,000000000e+00    0,000000000e+00
      450000000   -5,215442553e-02   -1,480944455e-02   -6,191617250e-01   -3,998965323e-01    0,000000000e+00    0,000000000e+00    0,000000000e+00    0,000000000e+00
      464000000   -4,989268258e-02    5,827262066e-03   -7,297073007e-01    3,296491224e-03    0,000000000e+00    0,000000000e+00    0,000000000e+00    0,000000000e+00
      478000000   -2,006238140e-02    2,674829029e-02   -5,982720852e-01    3,972682059e-01    0,000000000e+00    0,000000000e+00    0,000000000e+00    0,000000000e+00
      492000000    2,830381691e-02    1,451330911e-02   -2,807707787e-01    6,440251470e-01    0,000000000e+00    0,000000000e+00    0,000000000e+00    0,000000000e+00
      506000000    5,877898261e-02   -3,765407205e-02    1,047063023e-01    6,793832183e-01    0,000000000e+00    0,000000000e+00    0,000000000e+00    0,000000000e+00
      520000000    4,445932060e-02   -1,031915024e-01    4,417448938e-01    5,159825087e-01    0,000000000e+00    0,000000000e+00    0,000000000e+00    0,000000000e+00
      534000000   -1,248611882e-02   -1,442212164e-01    6,495102644e-01    2,052453309e-01    0,000000000e+00    0,000000000e+00    0,000000000e+00    0,000000000e+00
      548000000   -8,153827488e-02   -1,400153935e-01    6,598705649e-01   -1,759099662e-01    0,000000000e+00    0,000000000e+00    0,000000000e+00    0,000000000e+00
      562000000   -1,317458302e-01   -9,786782414e-02    4,503565133e-01   -5,086421371e-01    0,000000000e+00    0,000000000e+00    0,000000000e+00    0,000000000e+00
      576000000   -1,503545046e-01   -3,783063591e-02    8,162711561e-02   -6,596974730e-01    0,000000000e+00    0,000000000e+00    0,000000000e+00    0,000000000e+00
      590000000   -1,295800060e-01    3,081028350e-02   -2,946162522e-01   -5,630196333e-01    0,000000000e+00    0,000000000e+00    0,000000000e+00    0,000000000e+00
      604000000   -3,600029647e-02    6,825140864e-02   -4,850589931e-01   -2,694248855e-01    0,000000000e+00    0,000000000e+00    0,000000000e+00    0,000000000e+00
      618000000    3,414780647e-02   -3,377889842e-02   -4,938410819e-01   -5,470586568e-02    0,000000000e+00    0,000000000e+00    0,000000000e+00    0,000000000e+00
      632000000   -5,510652065e-02   -9,211865067e-02   -5,290102363e-01    1,779534668e-01    0,000000000e+00    0,000000000e+00    0,000000000e+00    0,000000000e+00
      646000000   -9,989961982e-02   -3,211999685e-02   -3,786750734e-01    4,786906838e-01    0,000000000e+00    0,000000000e+00    0,000000000e+00    0,000000000e+00
      660000000   -6,744295359e-02    1,009952929e-02   -5,097472295e-02    6,249260306e-01    0,000000000e+00    0,000000000e+00    0,000000000e+00    0,000000000e+00
      674000000   -2,967366949e-02    5,331165157e-03    3,000428677e-01    5,534167886e-01    0,000000000e+00    0,000000000e+00    0,000000000e+00    0,000000000e+00
      688000000   -1,545551978e-02   -1,788152196e-02    5,475099683e-01    3,023999631e-01    0,000000000e+00    0,000000000e+00    0,000000000e+00    0,000000000e+00
      702000000   -1,531952061e-02   -3,503020108e-02    6,224398613e-01   -4,208306596e-02    0,000000000e+00    0,000000000e+00    0,000000000e+00    0,000000000e+00
      716000000   -9,745777585e-03   -4,830585793e-02    4,922894835e-01   -3,683235049e-01    0,000000000e+00    0,000000000e+00    0,000000000e+00    0,000000000e+00
      730000000   -7,271928247e-03   -7,398755103e-02    2,111776769e-01   -5,677677989e-01    0,000000000e+00    0,000000000e+00    0,000000000e+00    0,000000000e+00
      744000000   -2,619910054e-02   -1,099987775e-01   -1,237024888e-01   -5,878701210e-01    0,000000000e+00    0,000000000e+00    0,000000000e+00    0,000000000e+00
      758000000   -7,376959175e-02   -1,327011436e-01   -4,197290540e-01   -4,324945211e-01    0,000000000e+00    0,000000000e+00    0,000000000e+00    0,000000000e+00
      772000000   -1,346332878e-01   -1,155366674e-01   -5,936453342e-01   -1,401215196e-01    0,000000000e+00    0,000000000e+00    0,000000000e+00    0,000000000e+00
      786000000   -1,716507375e-01   -5,918403715e-02   -5,814876556e-01    2,101903707e-01    0,000000000e+00    0,000000000e+00    0,000000000e+00    0,000000000e+00
      800000000   -1,593616158e-01    6,442756858e-03   -3,733234107e-01    4,963747561e-01    0,000000000e+00    0,000000000e+00    0,000000000e+00    0,000000000e+00
      814000000   -1,145013869e-01    4,300991818e-02   -4,497112334e-02    6,148041487e-01    0,000000000e+00    0,000000000e+00    0,000000000e+00    0,000000000e+00
      828000000   -6,915552914e-02    4,362696037e-02    2,856379151e-01    5,392942429e-01    0,000000000e+00    0,000000000e+00    0,000000000e+00    0,000000000e+00
      842000000   -3,880154714e-02    2,927249484e-02    5,205021501e-01    3,056571782e-01    0,000000000e+00    0,000000000e+00    0,000000000e+00    0,000000000e+00
      856000000   -1,855375059e-02    1,249997783e-02    5,940140486e-01   -1,319545694e-02    0,000000000e+00    0,000000000e+00    0,000000000e+00    0,000000000e+00
      870000000    2,191142645e-03   -1,139167324e-02    4,857471883e-01   -3,166947961e-01    0,000000000e+00    0,000000000e+00    0,000000000e+00    0,000000000e+00
      884000000    1,401856542e-02   -5,191643536e-02    2,429366112e-01   -5,106763840e-01    0,000000000e+00    0,000000000e+00    0,000000000e+00    0,000000000e+00
      898000000   -3,434739076e-03   -1,022778898e-01   -5,722337216e-02   -5,538699627e-01    0,000000000e+00    0,000000000e+00    0,000000000e+00    0,000000000e+00
      912000000   -6,299470365e-02   -1,333237886e-01   -3,857898116e-01   -4,251335263e-01    0,000000000e+00    0,000000000e+00    0,000000000e+00    0,000000000e+00
      926000000   -1,278306395e-01   -1,173344254e-01   -5,668390989e-01   -1,470484734e-01    0,000000000e+00    0,000000000e+00    0,000000000e+00    0,000000000e+00
      940000000   -1,655408442e-01   -6,365370750e-02   -5,702328682e-01    1,913776696e-01    0,000000000e+00    0,000000000e+00    0,000000000e+00    0,000000000e+00
      954000000   -1,497009546e-01   -2,680359408e-03   -3,742462397e-01    4,851382375e-01    0,000000000e+00    0,000000000e+00    0,000000000e+00    0,000000000e+00
      968000000   -9,686000645e-02    2,582686394e-02   -5,128596351e-02    6,155648232e-01    0,000000000e+00    0,000000000e+00    0,000000000e+00    0,000000000e+00
      982000000   -5,531788617e-02    2,246427117e-03    2,812401056e-01    5,538575649e-01    0,000000000e+00    0,000000000e+00    0,000000000e+00    0,000000000e+00
      996000000   -4,442409426e-02   -3,169859573e-02    5,226813555e-01    3,269385695e-01    0,000000000e+00    0,000000000e+00    0,000000000e+00    0,000000000e+00
     1010000000   -6,043098122e-02   -6,621076912e-02    6,091079712e-01    1,732488535e-02    0,000000000e+00    0,000000000e+00    0,000000000e+00    0,000000000e+00
     1024000000   -9,929014742e-02   -7,636972517e-02    5,158495307e-01   -2,805097103e-01    0,000000000e+00    0,000000000e+00    0,000000000e+00    0,000000000e+00
     1038000000   -1,423518658e-01   -5,168156698e-02    2,973709404e-01   -4,711319506e-01    0,000000000e+00    0,000000000e+00    0,000000000e+00    0,000000000e+00
     1052000000   -1,505588293e-01   -2,692722250e-03    3,705586493e-02   -5,240689516e-01    0,000000000e+00    0,000000000e+00    0,000000000e+00    0,000000000e+00
     1066000000   -1,001312137e-01    3,835480660e-02   -2,052861154e-01   -4,655211866e-01    0,000000000e+00    0,000000000e+00    0,000000000e+00    0,000000000e+00
     1080000000   -5,003382266e-02    2,710836008e-02   -4,187490940e-01   -3,012608588e-01    0,000000000e+00    0,000000000e+00    0,000000000e+00    0,000000000e+00
     1094000000   -3,710911050e-02   -1,097074803e-02   -5,229011178e-01   -2,368165553e-02    0,000000000e+00    0,000000000e+00    0,000000000e+00    0,000000000e+00
     1108000000   -3,246224672e-02   -3,504311293e-02   -4,429546893e-01    2,849699259e-01    0,000000000e+00    0,000000000e+00    0,000000000e+00    0,000000000e+00
     1122000000   -2,865985967e-02   -5,536329746e-02   -1,849797517e-01    4,963027239e-01    0,000000000e+00    0,000000000e+00    0,000000000e+00    0,000000000e+00
     1136000000   -4,210420698e-02   -9,172601253e-02    1,541272849e-01    5,168482661e-01    0,000000000e+00    0,000000000e+00    0,000000000e+00    0,000000000e+00
     1150000000   -8,132249862e-02   -1,255183667e-01    4,514307976e-01    3,421866298e-01    0,000000000e+00    0,000000000e+00    0,000000000e+00    0,000000000e+00
     1164000000   -1,370493174e-01   -1,242965981e-01    6,108641624e-01    9,165307507e-03    0,000000000e+00    0,000000000e+00    0,000000000e+00    0,000000000e+00
     1178000000   -1,778784990e-01   -8,872310072e-02    5,398305058e-01   -3,716427982e-01    0,000000000e+00    0,000000000e+00    0,000000000e+00    0,000000000e+00
     1192000000   -1,847638786e-01   -5,526905879e-02    2,450141013e-01   -6,398137212e-01    0,000000000e+00    0,000000000e+00    0,000000000e+00    0,000000000e+00
     1206000000   -1,967346519e-01   -5,791016668e-02   -1,377129555e-01   -6,632226706e-01    0,000000000e+00    0,000000000e+00    0,000000000e+00    0,000000000e+00
     1220000000   -2,565270662e-01   -1,028672978e-02   -4,187845886e-01   -4,844381809e-01    0,000000000e+00    0,000000000e+00    0,000000000e+00    0,000000000e+00
     1234000000   -2,355200052e-01    1,177665368e-01   -5,561777353e-01   -2,505677640e-01    0,000000000e+00    0,000000000e+00    0,000000000e+00    0,000000000e+00
     1248000000   -1,109374911e-01    1,780683249e-01   -6,050226092e-01    1,868660748e-02    0,000000000e+00    0,000000000e+00    0,000000000e+00    0,000000000e+00
     1262000000   -5,179539323e-03    1,336991340e-01   -5,080996752e-01    3,019325137e-01    0,000000000e+00    0,000000000e+00    0,000000000e+00    0,000000000e+00
     1276000000    5,736833066e-02    4,076197743e-02   -2,825723588e-01    4,900571406e-01    0,000000000e+00    0,000000000e+00    0,000000000e+00    0,000000000e+00
     1290000000    7,212810218e-02   -6,752986461e-02    9,192124940e-03    5,516988039e-01    0,000000000e+00    0,000000000e+00    0,000000000e+00    0,000000000e+00
     1304000000    1,680132747e-02   -1,778056175e-01    2,950222194e-01    4,811512232e-01    0,000000000e+00    0,000000000e+00    0,000000000e+00    0,000000000e+00
     1318000000   -9,065497667e-02   -2,511877120e-01    5,458673239e-01    2,712868452e-01    0,000000000e+00    0,000000000e+00    0,000000000e+00    0,000000000e+00
     1332000000   -2,428050637e-01   -2,436012179e-01    6,502146721e-01   -6,103514880e-02    0,000000000e+00    0,000000000e+00    0,000000000e+00    0,000000000e+00
     1346000000   -3,624144197e-01   -1,428692937e-01    5,467378497e-01   -4,093541205e-01    0,000000000e+00    0,000000000e+00    0,000000000e+00    0,000000000e+00
     1360000000   -3,820515275e-01    5,989273079e-03    2,601561844e-01   -6,417373419e-01    0,000000000e+00    0,000000000e+00    0,000000000e+00    0,000000000e+00
     1374000000   -3,262362778e-01    1,201728955e-01   -1,011173204e-01   -6,217062473e-01    0,000000000e+00    0,000000000e+00    0,000000000e+00    0,000000000e+00
     1388000000   -2,328597903e-01    1,690536737e-01   -3,790353835e-01   -4,215516746e-01    0,000000000e+00    0,000000000e+00    0,000000000e+00    0,000000000e+00
     1402000000   -1,537423730e-01    1,686208695e-01   -4,772530198e-01   -1,020959914e-01    0,000000000e+00    0,000000000e+00    0,000000000e+00    0,000000000e+00
     1416000000   -8,386709541e-02    1,440293789e-01   -3,909064829e-01    2,038473636e-01    0,000000000e+00    0,000000000e+00    0,000000000e+00    0,000000000e+00
     1430000000   -3,385977820e-02    8,385279030e-02   -1,799563915e-01    4,261748493e-01    0,000000000e+00    0,000000000e+00    0,000000000e+00    0,000000000e+00
     1444000000   -9,647666477e-03    5,046776030e-03    1,240842864e-01    5,263591409e-01    0,000000000e+00    0,000000000e+00    0,000000000e+00    0,000000000e+00
     1458000000   -4,066042602e-02   -8,067746460e-02    4,503147304e-01    5,033959150e-01    0,000000000e+00    0,000000000e+00    0,000000000e+00    0,000000000e+00
     1472000000   -1,195232049e-01   -1,475105584e-01    7,423511147e-01    2,955641150e-01    0,000000000e+00    0,000000000e+00    0,000000000e+00    0,000000000e+00
     1486000000   -2,356798798e-01   -1,363651901e-01    8,773314953e-01   -2,719385736e-02    0,000000000e+00    0,000000000e+00    0,000000000e+00    0,000000000e+00
     1500000000   -3,026024103e-01   -5,662197620e-02    8,520950079e-01   -4,093462527e-01    0,000000000e+00    0,000000000e+00    0,000000000e+00    0,000000000e+00
