! NanoVNA-App
! Date: 2025-09-25 14:56:27
! Start: 100MHz Stop: 1,5GHz Points: 101
! S-Parameter data: F S11 S21 S12 S22
# Hz S RI R 50
!     Frequency           S11_Real           S11_Imag           S21_Real           S21_Imag           S12_Real           S12_Imag           S22_Real           S22_Imag
      100000000    3,560357541e-02    2,699664794e-02    4,407187104e-01   -6,696712971e-01    0,000000000e+00    0,000000000e+00    0,000000000e+00    0,000000000e+00
      114000000    6,051480770e-02    1,754613477e-03    1,276262384e-02   -7,954421639e-01    0,000000000e+00    0,000000000e+00    0,000000000e+00    0,000000000e+00
      128000000    6,790530682e-02   -4,256282747e-02   -4,083029628e-01   -6,783144474e-01    0,000000000e+00    0,000000000e+00    0,000000000e+00    0,000000000e+00
      142000000    4,280222952e-02   -8,888968825e-02   -7,056203485e-01   -3,609328568e-01    0,000000000e+00    0,000000000e+00    0,000000000e+00    0,000000000e+00
      156000000   -1,001833379e-02   -1,099308282e-01   -7,934344411e-01    6,840589643e-02    0,000000000e+00    0,000000000e+00    0,000000000e+00    0,000000000e+00
      170000000   -6,326184422e-02   -9,098450840e-02   -6,369984746e-01    4,868044257e-01    0,000000000e+00    0,000000000e+00    0,000000000e+00    0,000000000e+00
      184000000   -8,867450058e-02   -4,661919549e-02   -2,728011012e-01    7,569235563e-01    0,000000000e+00    0,000000000e+00    0,000000000e+00    0,000000000e+00
      198000000   -8,218926936e-02   -5,446264055e-03    1,800584942e-01    7,820327878e-01    0,000000000e+00    0,000000000e+00    0,000000000e+00    0,000000000e+00
      212000000   -6,165489927e-02    1,857369393e-02    5,709344149e-01    5,579579473e-01    0,000000000e+00    0,000000000e+00    0,000000000e+00    0,000000000e+00
      226000000   -4,017900676e-02    3,168310225e-02    7,767339945e-01    1,616571397e-01    0,000000000e+00    0,000000000e+00    0,000000000e+00    0,000000000e+00
      240000000   -1,382560749e-02    4,045413807e-02    7,359012961e-01   -2,788506448e-01    0,000000000e+00    0,000000000e+00    0,000000000e+00    0,000000000e+00
      254000000    2,189313248e-02    3,493463248e-02    4,679718912e-01   -6,222648025e-01    0,000000000e+00    0,000000000e+00    0,000000000e+00    0,000000000e+00
      268000000    5,294023827e-02    3,223859239e-03    6,663177162e-02   -7,676733136e-01    0,000000000e+00    0,000000000e+00    0,000000000e+00    0,000000000e+00
      282000000    5,636148155e-02   -4,616292566e-02   -3,455794454e-01   -6,824707985e-01    0,000000000e+00    0,000000000e+00    0,000000000e+00    0,000000000e+00
      296000000    2,448876202e-02   -8,513845503e-02   -6,557710171e-01   -3,979249299e-01    0,000000000e+00    0,000000000e+00    0,000000000e+00    0,000000000e+00
      310000000   -2,072591521e-02   -8,873973042e-02   -7,744603157e-01    1,211720426e-02    0,000000000e+00    0,000000000e+00    0,000000000e+00    0,000000000e+00
      324000000   -4,786397889e-02   -6,209337339e-02   -6,485812068e-01    4,302601218e-01    0,000000000e+00    0,000000000e+00    0,000000000e+00    0,000000000e+00
      338000000   -4,125871509e-02   -3,582282737e-02   -3,104132414e-01    7,093912363e-01    0,000000000e+00    0,000000000e+00    0,000000000e+00    0,000000000e+00
      352000000   -2,257388085e-02   -3,576479852e-02    1,204565167e-01    7,580491900e-01    0,000000000e+00    0,000000000e+00    0,000000000e+00    0,000000000e+00
      366000000   -2,160323784e-02   -5,489664897e-02    5,036461353e-01    5,715440512e-01    0,000000000e+00    0,000000000e+00    0,000000000e+00    0,000000000e+00
      380000000   -4,281060025e-02   -6,513116509e-02    7,259998322e-01    2,110238671e-01    0,000000000e+00    0,000000000e+00    0,000000000e+00    0,000000000e+00
      394000000   -6,478787214e-02   -5,128677189e-02    7,222083211e-01   -2,130796164e-01    0,000000000e+00    0,000000000e+00    0,000000000e+00    0,000000000e+00
      408000000   -6,638351083e-02   -2,793604508e-02    4,901002645e-01   -5,687106848e-01    0,000000000e+00    0,000000000e+00    0,000000000e+00    0,000000000e+00
      422000000   -5,310351402e-02   -1,721119508e-02    1,051024944e-01   -7,390511632e-01    0,000000000e+00    0,000000000e+00    0,000000000e+00    0,000000000e+00
      436000000   -4,704907164e-02   -2,034520730e-02   -3,067650795e-01   -6,762341261e-01    0,000000000e+00    0,000000000e+00    0,000000000e+00    0,000000000e+00
      450000000   -5,378231406e-02   -1,576474681e-02   -6,195367575e-01   -3,997155428e-01    0,000000000e+00    0,000000000e+00    0,000000000e+00    0,000000000e+00
      464000000   -5,211764202e-02    5,386311095e-03   -7,302851081e-01    3,107158467e-03    0,000000000e+00    0,000000000e+00    0,000000000e+00    0,000000000e+00
      478000000   -2,245608158e-02    2,694652230e-02   -5,997754335e-01    3,977552056e-01    0,000000000e+00    0,000000000e+00    0,000000000e+00    0,000000000e+00
      492000000    2,669496834e-02    1,657412201e-02   -2,807038724e-01    6,451215148e-01    0,000000000e+00    0,000000000e+00    0,000000000e+00    0,000000000e+00
      506000000    5,856601521e-02   -3,492835164e-02    1,044686064e-01    6,819209456e-01    0,000000000e+00    0,000000000e+00    0,000000000e+00    0,000000000e+00
      520000000    4,475175217e-02   -9,975241870e-02    4,414074123e-01    5,182905793e-01    0,000000000e+00    0,000000000e+00    0,000000000e+00    0,000000000e+00
      534000000   -1,044061594e-02   -1,414816678e-01    6,506564617e-01    2,070682645e-01    0,000000000e+00    0,000000000e+00    0,000000000e+00    0,000000000e+00
      548000000   -7,726363093e-02   -1,394930780e-01    6,625972986e-01   -1,757767051e-01    0,000000000e+00    0,000000000e+00    0,000000000e+00    0,000000000e+00
      562000000   -1,253529787e-01   -1,020237952e-01    4,564636648e-01   -5,111278296e-01    0,000000000e+00    0,000000000e+00    0,000000000e+00    0,000000000e+00
      576000000   -1,477986276e-01   -4,984800890e-02    8,573671430e-02   -6,700308919e-01    0,000000000e+00    0,000000000e+00    0,000000000e+00    0,000000000e+00
      590000000   -1,446708739e-01    1,511787903e-02   -3,051927388e-01   -5,825119615e-01    0,000000000e+00    0,000000000e+00    0,000000000e+00    0,000000000e+00
      604000000   -7,309557498e-02    9,148445725e-02   -5,331569314e-01   -2,526220679e-01    0,000000000e+00    0,000000000e+00    0,000000000e+00    0,000000000e+00
      618000000    8,646145463e-02    1,333982404e-02   -4,420649111e-01    9,195188992e-03    0,000000000e+00    0,000000000e+00    0,000000000e+00    0,000000000e+00
      632000000   -3,657587990e-02   -1,432371140e-01   -5,027925968e-01    1,206712127e-01    0,000000000e+00    0,000000000e+00    0,000000000e+00    0,000000000e+00
      646000000   -1,262356639e-01   -4,575444385e-02   -4,086859524e-01    4,643093050e-01    0,000000000e+00    0,000000000e+00    0,000000000e+00    0,000000000e+00
      660000000   -8,094376326e-02    2,033433318e-02   -6,475758553e-02    6,405604482e-01    0,000000000e+00    0,000000000e+00    0,000000000e+00    0,000000000e+00
      674000000   -3,011574037e-02    1,438310090e-02    2,999915183e-01    5,642723441e-01    0,000000000e+00    0,000000000e+00    0,000000000e+00    0,000000000e+00
      688000000   -1,006964128e-02   -1,245458517e-02    5,537235737e-01    3,083569109e-01    0,000000000e+00    0,000000000e+00    0,000000000e+00    0,000000000e+00
      702000000   -8,489630185e-03   -3,322454169e-02    6,244758964e-01   -4,401317984e-02    0,000000000e+00    0,000000000e+00    0,000000000e+00    0,000000000e+00
      716000000   -6,198523100e-03   -5,148598924e-02    4,972669780e-01   -3,721877933e-01    0,000000000e+00    0,000000000e+00    0,000000000e+00    0,000000000e+00
      730000000   -5,601219833e-03   -7,795565575e-02    2,122637033e-01   -5,741053820e-01    0,000000000e+00    0,000000000e+00    0,000000000e+00    0,000000000e+00
      744000000   -2,722352743e-02   -1,132656336e-01   -1,266217232e-01   -5,950783491e-01    0,000000000e+00    0,000000000e+00    0,000000000e+00    0,000000000e+00
      758000000   -7,728385180e-02   -1,350532770e-01   -4,264611602e-01   -4,362667501e-01    0,000000000e+00    0,000000000e+00    0,000000000e+00    0,000000000e+00
      772000000   -1,395705491e-01   -1,143696830e-01   -6,018831730e-01   -1,388852000e-01    0,000000000e+00    0,000000000e+00    0,000000000e+00    0,000000000e+00
      786000000   -1,733060777e-01   -5,402012914e-02   -5,873810053e-01    2,168938071e-01    0,000000000e+00    0,000000000e+00    0,000000000e+00    0,000000000e+00
      800000000   -1,586000025e-01    1,175353024e-02   -3,736009896e-01    5,048875213e-01    0,000000000e+00    0,000000000e+00    0,000000000e+00    0,000000000e+00
      814000000   -1,092215478e-01    4,477033764e-02   -4,100579768e-02    6,226623058e-01    0,000000000e+00    0,000000000e+00    0,000000000e+00    0,000000000e+00
      828000000   -6,396672130e-02    4,191895574e-02    2,957969904e-01    5,436313152e-01    0,000000000e+00    0,000000000e+00    0,000000000e+00    0,000000000e+00
      842000000   -3,646954894e-02    2,409771271e-02    5,303500295e-01    3,031010926e-01    0,000000000e+00    0,000000000e+00    0,000000000e+00    0,000000000e+00
      856000000   -1,953113824e-02    7,644281257e-03    6,020917296e-01   -2,217703313e-02    0,000000000e+00    0,000000000e+00    0,000000000e+00    0,000000000e+00
      870000000   -1,957598375e-03   -1,391912531e-02    4,881594777e-01   -3,286502957e-01    0,000000000e+00    0,000000000e+00    0,000000000e+00    0,000000000e+00
      884000000    9,094078094e-03   -5,260891095e-02    2,367802858e-01   -5,262669921e-01    0,000000000e+00    0,000000000e+00    0,000000000e+00    0,000000000e+00
      898000000   -6,485541351e-03   -1,008546278e-01   -7,181312144e-02   -5,617285967e-01    0,000000000e+00    0,000000000e+00    0,000000000e+00    0,000000000e+00
      912000000   -6,504692882e-02   -1,314231604e-01   -4,041680694e-01   -4,230417013e-01    0,000000000e+00    0,000000000e+00    0,000000000e+00    0,000000000e+00
      926000000   -1,300372928e-01   -1,161671132e-01   -5,823857188e-01   -1,328921169e-01    0,000000000e+00    0,000000000e+00    0,000000000e+00    0,000000000e+00
      940000000   -1,673057228e-01   -5,808323994e-02   -5,695704222e-01    2,172841877e-01    0,000000000e+00    0,000000000e+00    0,000000000e+00    0,000000000e+00
      954000000   -1,476165354e-01    3,494786099e-03   -3,554441333e-01    5,057948232e-01    0,000000000e+00    0,000000000e+00    0,000000000e+00    0,000000000e+00
      968000000   -9,105473757e-02    2,852482349e-02   -2,160478570e-02    6,212893724e-01    0,000000000e+00    0,000000000e+00    0,000000000e+00    0,000000000e+00
      982000000   -4,632199928e-02    1,206594333e-02    3,096263409e-01    5,305503011e-01    0,000000000e+00    0,000000000e+00    0,000000000e+00    0,000000000e+00
      996000000   -2,549336851e-02   -3,695658967e-02    5,301484466e-01    2,875019908e-01    0,000000000e+00    0,000000000e+00    0,000000000e+00    0,000000000e+00
     1010000000   -4,550941661e-02   -8,518876135e-02    5,764056444e-01   -1,917981543e-02    0,000000000e+00    0,000000000e+00    0,000000000e+00    0,000000000e+00
     1024000000   -1,066885442e-01   -1,052374095e-01    4,682631791e-01   -2,724075019e-01    0,000000000e+00    0,000000000e+00    0,000000000e+00    0,000000000e+00
     1038000000   -1,703869700e-01   -6,256629527e-02    2,859733701e-01   -4,296652675e-01    0,000000000e+00    0,000000000e+00    0,000000000e+00    0,000000000e+00
     1052000000   -1,734224856e-01    1,720405184e-02    5,717264488e-02   -5,131641030e-01    0,000000000e+00    0,000000000e+00    0,000000000e+00    0,000000000e+00
     1066000000   -1,100136638e-01    5,525579676e-02   -2,133847177e-01   -4,733539522e-01    0,000000000e+00    0,000000000e+00    0,000000000e+00    0,000000000e+00
     1080000000   -5,797844008e-02    4,661873356e-02   -4,260153472e-01   -2,844559550e-01    0,000000000e+00    0,000000000e+00    0,000000000e+00    0,000000000e+00
     1094000000   -2,195082977e-02    1,099282503e-02   -5,024163127e-01   -4,869131837e-03    0,000000000e+00    0,000000000e+00    0,000000000e+00    0,000000000e+00
     1108000000   -6,169092841e-03   -3,143749386e-02   -4,098620117e-01    2,784503102e-01    0,000000000e+00    0,000000000e+00    0,000000000e+00    0,000000000e+00
     1122000000   -1,506851427e-02   -6,941601634e-02   -1,770866960e-01    4,693473279e-01    0,000000000e+00    0,000000000e+00    0,000000000e+00    0,000000000e+00
     1136000000   -3,822034225e-02   -1,099239066e-01    1,373728216e-01    4,961250126e-01    0,000000000e+00    0,000000000e+00    0,000000000e+00    0,000000000e+00
     1150000000   -8,743070811e-02   -1,408015341e-01    4,288222492e-01    3,405830562e-01    0,000000000e+00    0,000000000e+00    0,000000000e+00    0,000000000e+00
     1164000000   -1,528149992e-01   -1,304167807e-01    5,953308344e-01    2,385504171e-02    0,000000000e+00    0,000000000e+00    0,000000000e+00    0,000000000e+00
     1178000000   -1,901604831e-01   -9,412048012e-02    5,314582586e-01   -3,556193113e-01    0,000000000e+00    0,000000000e+00    0,000000000e+00    0,000000000e+00
     1192000000   -1,921927184e-01   -5,108911544e-02    2,464581877e-01   -6,235510707e-01    0,000000000e+00    0,000000000e+00    0,000000000e+00    0,000000000e+00
     1206000000   -2,013570964e-01   -4,310490936e-02   -1,299925148e-01   -6,588721275e-01    0,000000000e+00    0,000000000e+00    0,000000000e+00    0,000000000e+00
     1220000000   -2,470007986e-01   -1,507327426e-03   -4,177873731e-01   -4,872985780e-01    0,000000000e+00    0,000000000e+00    0,000000000e+00    0,000000000e+00
     1234000000   -2,411595732e-01    1,166575104e-01   -5,597866774e-01   -2,461064160e-01    0,000000000e+00    0,000000000e+00    0,000000000e+00    0,000000000e+00
     1248000000   -1,121314839e-01    1,725998372e-01   -5,928224325e-01    2,101785503e-02    0,000000000e+00    0,000000000e+00    0,000000000e+00    0,000000000e+00
     1262000000   -2,073944546e-03    1,373379827e-01   -4,997688830e-01    2,920746505e-01    0,000000000e+00    0,000000000e+00    0,000000000e+00    0,000000000e+00
     1276000000    6,593912095e-02    4,194326326e-02   -2,752850652e-01    4,772416353e-01    0,000000000e+00    0,000000000e+00    0,000000000e+00    0,000000000e+00
     1290000000    7,333342731e-02   -6,872196496e-02    8,411867544e-03    5,377201438e-01    0,000000000e+00    0,000000000e+00    0,000000000e+00    0,000000000e+00
     1304000000    2,230416425e-02   -1,823889911e-01    2,951587141e-01    4,694892764e-01    0,000000000e+00    0,000000000e+00    0,000000000e+00    0,000000000e+00
     1318000000   -8,830684423e-02   -2,557977140e-01    5,359228253e-01    2,688385844e-01    0,000000000e+00    0,000000000e+00    0,000000000e+00    0,000000000e+00
     1332000000   -2,420478165e-01   -2,444638461e-01    6,506919861e-01   -4,583472013e-02    0,000000000e+00    0,000000000e+00    0,000000000e+00    0,000000000e+00
     1346000000   -3,608365655e-01   -1,466954798e-01    5,524331331e-01   -4,049152732e-01    0,000000000e+00    0,000000000e+00    0,000000000e+00    0,000000000e+00
     1360000000   -3,861680925e-01    3,397083143e-03    2,538793087e-01   -6,295251846e-01    0,000000000e+00    0,000000000e+00    0,000000000e+00    0,000000000e+00
     1374000000   -3,297618032e-01    1,188795865e-01   -1,026611701e-01   -6,218863130e-01    0,000000000e+00    0,000000000e+00    0,000000000e+00    0,000000000e+00
     1388000000   -2,446870357e-01    1,727252454e-01   -3,717221618e-01   -4,048784673e-01    0,000000000e+00    0,000000000e+00    0,000000000e+00    0,000000000e+00
     1402000000   -1,580019742e-01    1,722847968e-01   -4,715180397e-01   -1,046271548e-01    0,000000000e+00    0,000000000e+00    0,000000000e+00    0,000000000e+00
     1416000000   -8,321567625e-02    1,492733508e-01   -3,797419071e-01    2,027200609e-01    0,000000000e+00    0,000000000e+00    0,000000000e+00    0,000000000e+00
     1430000000   -3,324293718e-02    9,139069170e-02   -1,724474877e-01    4,505954981e-01    0,000000000e+00    0,000000000e+00    0,000000000e+00    0,000000000e+00
     1444000000   -7,995489053e-03    1,080092508e-02    1,350011826e-01    5,192554593e-01    0,000000000e+00    0,000000000e+00    0,000000000e+00    0,000000000e+00
     1458000000   -3,718901426e-02   -7,884924114e-02    4,280590713e-01    4,846357405e-01    0,000000000e+00    0,000000000e+00    0,000000000e+00    0,000000000e+00
     1472000000   -1,054928675e-01   -1,385241747e-01    7,321164608e-01    2,970766127e-01    0,000000000e+00    0,000000000e+00    0,000000000e+00    0,000000000e+00
     1486000000   -2,168172151e-01   -1,392453462e-01    8,878328204e-01   -9,392367676e-03    0,000000000e+00    0,000000000e+00    0,000000000e+00    0,000000000e+00
     1500000000   -3,008283079e-01   -7,235871255e-02    8,263589144e-01   -4,196185470e-01    0,000000000e+00    0,000000000e+00    0,000000000e+00    0,000000000e+00
