! NanoVNA-App
! Date: 2025-09-25 15:02:21
! Start: 100MHz Stop: 1,5GHz Points: 101
! S-Parameter data: F S11 S21 S12 S22
# Hz S RI R 50
!     Frequency           S11_Real           S11_Imag           S21_Real           S21_Imag           S12_Real           S12_Imag           S22_Real           S22_Imag
      100000000    3,559451923e-02    2,737392485e-02    4,407428801e-01   -6,696168780e-01    0,000000000e+00    0,000000000e+00    0,000000000e+00    0,000000000e+00
      114000000    6,073456630e-02    2,190387575e-03    1,293306891e-02   -7,953398228e-01    0,000000000e+00    0,000000000e+00    0,000000000e+00    0,000000000e+00
      128000000    6,838569045e-02   -4,227345437e-02   -4,081898332e-01   -6,780460477e-01    0,000000000e+00    0,000000000e+00    0,000000000e+00    0,000000000e+00
      142000000    4,348741472e-02   -8,884232491e-02   -7,051387429e-01   -3,609227836e-01    0,000000000e+00    0,000000000e+00    0,000000000e+00    0,000000000e+00
      156000000   -8,780051954e-03   -1,101780012e-01   -7,942557335e-01    6,796103716e-02    0,000000000e+00    0,000000000e+00    0,000000000e+00    0,000000000e+00
      170000000   -6,264030188e-02   -9,190521389e-02   -6,369313002e-01    4,862833917e-01    0,000000000e+00    0,000000000e+00    0,000000000e+00    0,000000000e+00
      184000000   -8,861027658e-02   -4,767158628e-02   -2,731884122e-01    7,562605739e-01    0,000000000e+00    0,000000000e+00    0,000000000e+00    0,000000000e+00
      198000000   -8,276429027e-02   -6,445688661e-03    1,798764616e-01    7,826153636e-01    0,000000000e+00    0,000000000e+00    0,000000000e+00    0,000000000e+00
      212000000   -6,268861145e-02    1,804960147e-02    5,707467198e-01    5,583918691e-01    0,000000000e+00    0,000000000e+00    0,000000000e+00    0,000000000e+00
      226000000   -4,148834199e-02    3,180656955e-02    7,766623497e-01    1,620475650e-01    0,000000000e+00    0,000000000e+00    0,000000000e+00    0,000000000e+00
      240000000   -1,496195141e-02    4,136015847e-02    7,361654043e-01   -2,786676586e-01    0,000000000e+00    0,000000000e+00    0,000000000e+00    0,000000000e+00
      254000000    2,140307054e-02    3,633755445e-02    4,681908190e-01   -6,218245029e-01    0,000000000e+00    0,000000000e+00    0,000000000e+00    0,000000000e+00
      268000000    5,332216993e-02    4,752723034e-03    6,712095439e-02   -7,674040198e-01    0,000000000e+00    0,000000000e+00    0,000000000e+00    0,000000000e+00
      282000000    5,752496794e-02   -4,491232336e-02   -3,459647596e-01   -6,829078794e-01    0,000000000e+00    0,000000000e+00    0,000000000e+00    0,000000000e+00
      296000000    2,614177577e-02   -8,473667502e-02   -6,548740864e-01   -3,980309367e-01    0,000000000e+00    0,000000000e+00    0,000000000e+00    0,000000000e+00
      310000000   -1,888260059e-02   -8,935365081e-02   -7,737537622e-01    1,152192149e-02    0,000000000e+00    0,000000000e+00    0,000000000e+00    0,000000000e+00
      324000000   -4,654329643e-02   -6,328556687e-02   -6,480919123e-01    4,298585355e-01    0,000000000e+00    0,000000000e+00    0,000000000e+00    0,000000000e+00
      338000000   -4,103916511e-02   -3,777994961e-02   -3,098613322e-01    7,088794112e-01    0,000000000e+00    0,000000000e+00    0,000000000e+00    0,000000000e+00
      352000000   -2,355316281e-02   -3,764574602e-02    1,188540906e-01    7,593730092e-01    0,000000000e+00    0,000000000e+00    0,000000000e+00    0,000000000e+00
      366000000   -2,294456773e-02   -5,629393086e-02    5,023529530e-01    5,714554191e-01    0,000000000e+00    0,000000000e+00    0,000000000e+00    0,000000000e+00
      380000000   -4,457747564e-02   -6,532084942e-02    7,265799642e-01    2,112776190e-01    0,000000000e+00    0,000000000e+00    0,000000000e+00    0,000000000e+00
      394000000   -6,664861739e-02   -5,064805597e-02    7,226312160e-01   -2,138540894e-01    0,000000000e+00    0,000000000e+00    0,000000000e+00    0,000000000e+00
      408000000   -6,755198538e-02   -2,665405534e-02    4,894058406e-01   -5,692773461e-01    0,000000000e+00    0,000000000e+00    0,000000000e+00    0,000000000e+00
      422000000   -5,350215361e-02   -1,532985643e-02    1,047972962e-01   -7,388630509e-01    0,000000000e+00    0,000000000e+00    0,000000000e+00    0,000000000e+00
      436000000   -4,638346657e-02   -1,857568510e-02   -3,059358001e-01   -6,753097177e-01    0,000000000e+00    0,000000000e+00    0,000000000e+00    0,000000000e+00
      450000000   -5,200492963e-02   -1,472811680e-02   -6,185529828e-01   -3,995132446e-01    0,000000000e+00    0,000000000e+00    0,000000000e+00    0,000000000e+00
      464000000   -5,014364421e-02    5,551131908e-03   -7,297774553e-01    3,376498353e-03    0,000000000e+00    0,000000000e+00    0,000000000e+00    0,000000000e+00
      478000000   -2,003718540e-02    2,657598630e-02   -5,981673002e-01    3,977177143e-01    0,000000000e+00    0,000000000e+00    0,000000000e+00    0,000000000e+00
      492000000    2,855498344e-02    1,511374488e-02   -2,792510092e-01    6,444879174e-01    0,000000000e+00    0,000000000e+00    0,000000000e+00    0,000000000e+00
      506000000    5,936408788e-02   -3,776407987e-02    1,047346368e-01    6,800031066e-01    0,000000000e+00    0,000000000e+00    0,000000000e+00    0,000000000e+00
      520000000    4,398798943e-02   -1,027000248e-01    4,418555796e-01    5,146708488e-01    0,000000000e+00    0,000000000e+00    0,000000000e+00    0,000000000e+00
      534000000   -1,299180929e-02   -1,444230080e-01    6,488845944e-01    2,054779083e-01    0,000000000e+00    0,000000000e+00    0,000000000e+00    0,000000000e+00
      548000000   -8,153703064e-02   -1,406221837e-01    6,602118611e-01   -1,765692979e-01    0,000000000e+00    0,000000000e+00    0,000000000e+00    0,000000000e+00
      562000000   -1,314935982e-01   -9,821548313e-02    4,507719576e-01   -5,087506771e-01    0,000000000e+00    0,000000000e+00    0,000000000e+00    0,000000000e+00
      576000000   -1,502207369e-01   -3,782487661e-02    8,100326359e-02   -6,594642997e-01    0,000000000e+00    0,000000000e+00    0,000000000e+00    0,000000000e+00
      590000000   -1,296893656e-01    3,077061102e-02   -2,940986753e-01   -5,632749200e-01    0,000000000e+00    0,000000000e+00    0,000000000e+00    0,000000000e+00
      604000000   -3,564661741e-02    6,849921495e-02   -4,850767553e-01   -2,694172263e-01    0,000000000e+00    0,000000000e+00    0,000000000e+00    0,000000000e+00
      618000000    3,394787014e-02   -3,338620439e-02   -4,941327274e-01   -5,505521968e-02    0,000000000e+00    0,000000000e+00    0,000000000e+00    0,000000000e+00
      632000000   -5,503105000e-02   -9,126175940e-02   -5,289560556e-01    1,778737754e-01    0,000000000e+00    0,000000000e+00    0,000000000e+00    0,000000000e+00
      646000000   -9,934079647e-02   -3,258357197e-02   -3,795299530e-01    4,785993993e-01    0,000000000e+00    0,000000000e+00    0,000000000e+00    0,000000000e+00
      660000000   -6,731002033e-02    9,925977327e-03   -5,048162118e-02    6,260916591e-01    0,000000000e+00    0,000000000e+00    0,000000000e+00    0,000000000e+00
      674000000   -2,930660732e-02    4,859421402e-03    2,986051738e-01    5,534667969e-01    0,000000000e+00    0,000000000e+00    0,000000000e+00    0,000000000e+00
      688000000   -1,497015171e-02   -1,879898086e-02    5,472547412e-01    3,033979833e-01    0,000000000e+00    0,000000000e+00    0,000000000e+00    0,000000000e+00
      702000000   -1,334350463e-02   -3,511378914e-02    6,215902567e-01   -4,410380498e-02    0,000000000e+00    0,000000000e+00    0,000000000e+00    0,000000000e+00
      716000000   -1,085125655e-02   -4,863413423e-02    4,912801385e-01   -3,681626320e-01    0,000000000e+00    0,000000000e+00    0,000000000e+00    0,000000000e+00
      730000000   -7,960253395e-03   -7,481652498e-02    2,115372419e-01   -5,676744580e-01    0,000000000e+00    0,000000000e+00    0,000000000e+00    0,000000000e+00
      744000000   -2,579388395e-02   -1,110538766e-01   -1,233889610e-01   -5,881469846e-01    0,000000000e+00    0,000000000e+00    0,000000000e+00    0,000000000e+00
      758000000   -7,498313487e-02   -1,324916035e-01   -4,187684655e-01   -4,327124655e-01    0,000000000e+00    0,000000000e+00    0,000000000e+00    0,000000000e+00
      772000000   -1,355897635e-01   -1,162243858e-01   -5,934136510e-01   -1,401397735e-01    0,000000000e+00    0,000000000e+00    0,000000000e+00    0,000000000e+00
      786000000   -1,720457077e-01   -5,925412849e-02   -5,816223025e-01    2,099254131e-01    0,000000000e+00    0,000000000e+00    0,000000000e+00    0,000000000e+00
      800000000   -1,597698331e-01    5,603181664e-03   -3,732689619e-01    4,956764877e-01    0,000000000e+00    0,000000000e+00    0,000000000e+00    0,000000000e+00
      814000000   -1,146092042e-01    4,196470603e-02   -4,620175436e-02    6,143402457e-01    0,000000000e+00    0,000000000e+00    0,000000000e+00    0,000000000e+00
      828000000   -6,881034374e-02    4,396283627e-02    2,860746980e-01    5,409721732e-01    0,000000000e+00    0,000000000e+00    0,000000000e+00    0,000000000e+00
      842000000   -3,900469840e-02    2,914600633e-02    5,208790302e-01    3,063058257e-01    0,000000000e+00    0,000000000e+00    0,000000000e+00    0,000000000e+00
      856000000   -1,786094904e-02    1,244735345e-02    5,942850709e-01   -1,389792375e-02    0,000000000e+00    0,000000000e+00    0,000000000e+00    0,000000000e+00
      870000000    1,744960551e-03   -1,089984551e-02    4,860287309e-01   -3,168826997e-01    0,000000000e+00    0,000000000e+00    0,000000000e+00    0,000000000e+00
      884000000    1,349521242e-02   -5,214331672e-02    2,420507669e-01   -5,127091408e-01    0,000000000e+00    0,000000000e+00    0,000000000e+00    0,000000000e+00
      898000000   -4,347684793e-03   -1,020582616e-01   -5,744195357e-02   -5,548648238e-01    0,000000000e+00    0,000000000e+00    0,000000000e+00    0,000000000e+00
      912000000   -6,358554959e-02   -1,321628392e-01   -3,881472349e-01   -4,105729461e-01    0,000000000e+00    0,000000000e+00    0,000000000e+00    0,000000000e+00
      926000000   -1,258129627e-01   -1,206270158e-01   -5,648480058e-01   -1,510257423e-01    0,000000000e+00    0,000000000e+00    0,000000000e+00    0,000000000e+00
      940000000   -1,612465829e-01   -6,365647167e-02   -5,686740279e-01    1,910663098e-01    0,000000000e+00    0,000000000e+00    0,000000000e+00    0,000000000e+00
      954000000   -1,501483619e-01   -2,799974987e-03   -3,763101399e-01    4,829319715e-01    0,000000000e+00    0,000000000e+00    0,000000000e+00    0,000000000e+00
      968000000   -9,653390944e-02    2,214203775e-02   -4,995531961e-02    6,128074527e-01    0,000000000e+00    0,000000000e+00    0,000000000e+00    0,000000000e+00
      982000000   -5,313509330e-02    6,211977452e-03    2,801990807e-01    5,509254336e-01    0,000000000e+00    0,000000000e+00    0,000000000e+00    0,000000000e+00
      996000000   -4,301359877e-02   -3,162476048e-02    5,243253708e-01    3,278471231e-01    0,000000000e+00    0,000000000e+00    0,000000000e+00    0,000000000e+00
     1010000000   -6,119534373e-02   -6,944126636e-02    6,085963845e-01    1,550274435e-02    0,000000000e+00    0,000000000e+00    0,000000000e+00    0,000000000e+00
     1024000000   -1,040093377e-01   -7,765919715e-02    5,151908398e-01   -2,803719640e-01    0,000000000e+00    0,000000000e+00    0,000000000e+00    0,000000000e+00
     1038000000   -1,390011013e-01   -5,452457070e-02    2,974290252e-01   -4,703824222e-01    0,000000000e+00    0,000000000e+00    0,000000000e+00    0,000000000e+00
     1052000000   -1,489502490e-01    3,883817699e-03    3,512261435e-02   -5,231249928e-01    0,000000000e+00    0,000000000e+00    0,000000000e+00    0,000000000e+00
     1066000000   -1,041964889e-01    4,239441454e-02   -2,117905915e-01   -4,690046608e-01    0,000000000e+00    0,000000000e+00    0,000000000e+00    0,000000000e+00
     1080000000   -5,676913634e-02    2,524244413e-02   -4,172741473e-01   -2,992755771e-01    0,000000000e+00    0,000000000e+00    0,000000000e+00    0,000000000e+00
     1094000000   -3,184565529e-02   -6,277310662e-03   -5,230453610e-01   -2,390262857e-02    0,000000000e+00    0,000000000e+00    0,000000000e+00    0,000000000e+00
     1108000000   -3,496659920e-02   -3,403377905e-02   -4,438986778e-01    2,850879431e-01    0,000000000e+00    0,000000000e+00    0,000000000e+00    0,000000000e+00
     1122000000   -3,340624645e-02   -5,359287933e-02   -1,859469265e-01    4,990265071e-01    0,000000000e+00    0,000000000e+00    0,000000000e+00    0,000000000e+00
     1136000000   -4,540272802e-02   -9,351154417e-02    1,540511250e-01    5,199244618e-01    0,000000000e+00    0,000000000e+00    0,000000000e+00    0,000000000e+00
     1150000000   -8,612627536e-02   -1,255966574e-01    4,535623491e-01    3,424273431e-01    0,000000000e+00    0,000000000e+00    0,000000000e+00    0,000000000e+00
     1164000000   -1,363768131e-01   -1,257435679e-01    6,104760766e-01    1,125419233e-02    0,000000000e+00    0,000000000e+00    0,000000000e+00    0,000000000e+00
     1178000000   -1,805658489e-01   -8,541881293e-02    5,359484553e-01   -3,723227382e-01    0,000000000e+00    0,000000000e+00    0,000000000e+00    0,000000000e+00
     1192000000   -1,833088249e-01   -5,633257329e-02    2,400556505e-01   -6,341269612e-01    0,000000000e+00    0,000000000e+00    0,000000000e+00    0,000000000e+00
     1206000000   -1,955561638e-01   -5,846425891e-02   -1,342874467e-01   -6,641793847e-01    0,000000000e+00    0,000000000e+00    0,000000000e+00    0,000000000e+00
     1220000000   -2,549104691e-01   -9,852096438e-03   -4,218638539e-01   -4,821816683e-01    0,000000000e+00    0,000000000e+00    0,000000000e+00    0,000000000e+00
     1234000000   -2,434750348e-01    1,183676347e-01   -5,627601147e-01   -2,507160604e-01    0,000000000e+00    0,000000000e+00    0,000000000e+00    0,000000000e+00
     1248000000   -1,113254800e-01    1,747674793e-01   -6,050794125e-01    2,006290667e-02    0,000000000e+00    0,000000000e+00    0,000000000e+00    0,000000000e+00
     1262000000   -7,798529696e-04    1,321917325e-01   -5,026963353e-01    3,025749922e-01    0,000000000e+00    0,000000000e+00    0,000000000e+00    0,000000000e+00
     1276000000    5,982879922e-02    4,281323776e-02   -2,757117152e-01    4,920747876e-01    0,000000000e+00    0,000000000e+00    0,000000000e+00    0,000000000e+00
     1290000000    6,828799844e-02   -6,924805790e-02    9,381947108e-03    5,476036072e-01    0,000000000e+00    0,000000000e+00    0,000000000e+00    0,000000000e+00
     1304000000    2,116039582e-02   -1,774882078e-01    2,996265590e-01    4,811394215e-01    0,000000000e+00    0,000000000e+00    0,000000000e+00    0,000000000e+00
     1318000000   -9,221400321e-02   -2,518826425e-01    5,350401402e-01    2,706811130e-01    0,000000000e+00    0,000000000e+00    0,000000000e+00    0,000000000e+00
     1332000000   -2,410557717e-01   -2,430515885e-01    6,619049907e-01   -4,897433892e-02    0,000000000e+00    0,000000000e+00    0,000000000e+00    0,000000000e+00
     1346000000   -3,585972190e-01   -1,456236392e-01    5,591043830e-01   -4,121779501e-01    0,000000000e+00    0,000000000e+00    0,000000000e+00    0,000000000e+00
     1360000000   -3,880913556e-01    6,419743411e-03    2,533401549e-01   -6,416196823e-01    0,000000000e+00    0,000000000e+00    0,000000000e+00    0,000000000e+00
     1374000000   -3,252708316e-01    1,183590442e-01   -1,082433686e-01   -6,355454326e-01    0,000000000e+00    0,000000000e+00    0,000000000e+00    0,000000000e+00
     1388000000   -2,387690395e-01    1,721490026e-01   -3,752036989e-01   -4,196374714e-01    0,000000000e+00    0,000000000e+00    0,000000000e+00    0,000000000e+00
     1402000000   -1,517826915e-01    1,697398573e-01   -4,716161489e-01   -1,071301773e-01    0,000000000e+00    0,000000000e+00    0,000000000e+00    0,000000000e+00
     1416000000   -8,793785423e-02    1,412816346e-01   -3,854531348e-01    2,029464245e-01    0,000000000e+00    0,000000000e+00    0,000000000e+00    0,000000000e+00
     1430000000   -3,597657755e-02    9,059725702e-02   -1,587068290e-01    4,315530658e-01    0,000000000e+00    0,000000000e+00    0,000000000e+00    0,000000000e+00
     1444000000   -1,857293025e-02    9,526272304e-03    1,119950190e-01    5,353856683e-01    0,000000000e+00    0,000000000e+00    0,000000000e+00    0,000000000e+00
     1458000000   -4,605532438e-02   -8,310914040e-02    4,394379556e-01    4,902876019e-01    0,000000000e+00    0,000000000e+00    0,000000000e+00    0,000000000e+00
     1472000000   -1,180390790e-01   -1,489302367e-01    7,397291064e-01    3,021551073e-01    0,000000000e+00    0,000000000e+00    0,000000000e+00    0,000000000e+00
     1486000000   -2,385451049e-01   -1,324447691e-01    9,035018682e-01   -2,849203348e-02    0,000000000e+00    0,000000000e+00    0,000000000e+00    0,000000000e+00
     1500000000   -3,005391061e-01   -5,336159840e-02    8,599242568e-01   -4,280612469e-01    0,000000000e+00    0,000000000e+00    0,000000000e+00    0,000000000e+00
