! NanoVNA-App
! Date: 2025-09-25 15:01:55
! Start: 100MHz Stop: 1,5GHz Points: 101
! S-Parameter data: F S11 S21 S12 S22
# Hz S RI R 50
!     Frequency           S11_Real           S11_Imag           S21_Real           S21_Imag           S12_Real           S12_Imag           S22_Real           S22_Imag
      100000000    3,558963537e-02    2,735233121e-02    4,407237470e-01   -6,695270538e-01    0,000000000e+00    0,000000000e+00    0,000000000e+00    0,000000000e+00
      114000000    6,072195992e-02    2,189428778e-03    1,287566125e-02   -7,951897979e-01    0,000000000e+00    0,000000000e+00    0,000000000e+00    0,000000000e+00
      128000000    6,834912300e-02   -4,227643460e-02   -4,082416296e-01   -6,780473590e-01    0,000000000e+00    0,000000000e+00    0,000000000e+00    0,000000000e+00
      142000000    4,348618165e-02   -8,877786994e-02   -7,052394152e-01   -3,609700203e-01    0,000000000e+00    0,000000000e+00    0,000000000e+00    0,000000000e+00
      156000000   -9,813045152e-03   -1,092999279e-01   -7,924624085e-01    6,696444005e-02    0,000000000e+00    0,000000000e+00    0,000000000e+00    0,000000000e+00
      170000000   -6,274686754e-02   -9,180784971e-02   -6,369013786e-01    4,864785671e-01    0,000000000e+00    0,000000000e+00    0,000000000e+00    0,000000000e+00
      184000000   -8,865784854e-02   -4,768248647e-02   -2,731865644e-01    7,562218308e-01    0,000000000e+00    0,000000000e+00    0,000000000e+00    0,000000000e+00
      198000000   -8,277563751e-02   -6,454227027e-03    1,796275228e-01    7,822834849e-01    0,000000000e+00    0,000000000e+00    0,000000000e+00    0,000000000e+00
      212000000   -6,274370104e-02    1,798056625e-02    5,708810091e-01    5,584854484e-01    0,000000000e+00    0,000000000e+00    0,000000000e+00    0,000000000e+00
      226000000   -4,150857404e-02    3,179934248e-02    7,768633366e-01    1,618843377e-01    0,000000000e+00    0,000000000e+00    0,000000000e+00    0,000000000e+00
      240000000   -1,491854619e-02    4,128301889e-02    7,360059619e-01   -2,787025869e-01    0,000000000e+00    0,000000000e+00    0,000000000e+00    0,000000000e+00
      254000000    2,140703611e-02    3,628909588e-02    4,679478705e-01   -6,220760345e-01    0,000000000e+00    0,000000000e+00    0,000000000e+00    0,000000000e+00
      268000000    5,331917480e-02    4,773384426e-03    6,664396077e-02   -7,675145268e-01    0,000000000e+00    0,000000000e+00    0,000000000e+00    0,000000000e+00
      282000000    5,743626505e-02   -4,500875995e-02   -3,456762731e-01   -6,828758717e-01    0,000000000e+00    0,000000000e+00    0,000000000e+00    0,000000000e+00
      296000000    2,608251385e-02   -8,473144472e-02   -6,554186940e-01   -3,981296718e-01    0,000000000e+00    0,000000000e+00    0,000000000e+00    0,000000000e+00
      310000000   -1,891435124e-02   -8,942345530e-02   -7,731223702e-01    9,926315397e-03    0,000000000e+00    0,000000000e+00    0,000000000e+00    0,000000000e+00
      324000000   -4,644798115e-02   -6,334937364e-02   -6,477365494e-01    4,296692312e-01    0,000000000e+00    0,000000000e+00    0,000000000e+00    0,000000000e+00
      338000000   -4,092485085e-02   -3,782017156e-02   -3,106013536e-01    7,099103332e-01    0,000000000e+00    0,000000000e+00    0,000000000e+00    0,000000000e+00
      352000000   -2,348923869e-02   -3,779624403e-02    1,186607480e-01    7,590093017e-01    0,000000000e+00    0,000000000e+00    0,000000000e+00    0,000000000e+00
      366000000   -2,308414690e-02   -5,635216087e-02    5,031396747e-01    5,714484453e-01    0,000000000e+00    0,000000000e+00    0,000000000e+00    0,000000000e+00
      380000000   -4,469886050e-02   -6,518712640e-02    7,269872427e-01    2,117334157e-01    0,000000000e+00    0,000000000e+00    0,000000000e+00    0,000000000e+00
      394000000   -6,632577628e-02   -5,051032826e-02    7,226963639e-01   -2,138214558e-01    0,000000000e+00    0,000000000e+00    0,000000000e+00    0,000000000e+00
      408000000   -6,761074066e-02   -2,628231607e-02    4,890756905e-01   -5,682368279e-01    0,000000000e+00    0,000000000e+00    0,000000000e+00    0,000000000e+00
      422000000   -5,300452560e-02   -1,512672100e-02    1,063481346e-01   -7,387108207e-01    0,000000000e+00    0,000000000e+00    0,000000000e+00    0,000000000e+00
      436000000   -4,638116807e-02   -1,878933422e-02   -3,059422076e-01   -6,755743027e-01    0,000000000e+00    0,000000000e+00    0,000000000e+00    0,000000000e+00
      450000000   -5,204094946e-02   -1,495870296e-02   -6,194080710e-01   -3,994454443e-01    0,000000000e+00    0,000000000e+00    0,000000000e+00    0,000000000e+00
      464000000   -5,066818371e-02    5,701148883e-03   -7,299014330e-01    3,344584722e-03    0,000000000e+00    0,000000000e+00    0,000000000e+00    0,000000000e+00
      478000000   -2,062246390e-02    2,622720599e-02   -5,987508893e-01    3,972845376e-01    0,000000000e+00    0,000000000e+00    0,000000000e+00    0,000000000e+00
      492000000    2,832898870e-02    1,455970947e-02   -2,797334194e-01    6,437284946e-01    0,000000000e+00    0,000000000e+00    0,000000000e+00    0,000000000e+00
      506000000    5,839473009e-02   -3,711566702e-02    1,040037721e-01    6,804167628e-01    0,000000000e+00    0,000000000e+00    0,000000000e+00    0,000000000e+00
      520000000    4,363975301e-02   -1,016418040e-01    4,387449324e-01    5,168651938e-01    0,000000000e+00    0,000000000e+00    0,000000000e+00    0,000000000e+00
      534000000   -1,280403137e-02   -1,433307081e-01    6,490569711e-01    2,066314667e-01    0,000000000e+00    0,000000000e+00    0,000000000e+00    0,000000000e+00
      548000000   -8,095984161e-02   -1,391577572e-01    6,601458788e-01   -1,755760312e-01    0,000000000e+00    0,000000000e+00    0,000000000e+00    0,000000000e+00
      562000000   -1,293147355e-01   -9,791418165e-02    4,528392255e-01   -5,079117417e-01    0,000000000e+00    0,000000000e+00    0,000000000e+00    0,000000000e+00
      576000000   -1,476384103e-01   -4,113496095e-02    8,501459658e-02   -6,629783511e-01    0,000000000e+00    0,000000000e+00    0,000000000e+00    0,000000000e+00
      590000000   -1,318464130e-01    2,324793674e-02   -2,937200367e-01   -5,697703958e-01    0,000000000e+00    0,000000000e+00    0,000000000e+00    0,000000000e+00
      604000000   -5,109322444e-02    6,928753853e-02   -5,027931929e-01   -2,726817131e-01    0,000000000e+00    0,000000000e+00    0,000000000e+00    0,000000000e+00
      618000000    3,980029002e-02   -1,169301476e-02   -4,919444919e-01   -2,759815566e-02    0,000000000e+00    0,000000000e+00    0,000000000e+00    0,000000000e+00
      632000000   -3,723869100e-02   -9,898995608e-02   -5,071089864e-01    1,727401018e-01    0,000000000e+00    0,000000000e+00    0,000000000e+00    0,000000000e+00
      646000000   -1,018453836e-01   -4,411838949e-02   -3,805031478e-01    4,642766416e-01    0,000000000e+00    0,000000000e+00    0,000000000e+00    0,000000000e+00
      660000000   -7,565608621e-02    8,373119868e-03   -5,860248208e-02    6,235556006e-01    0,000000000e+00    0,000000000e+00    0,000000000e+00    0,000000000e+00
      674000000   -3,450733051e-02    7,746280637e-03    2,946640551e-01    5,554069877e-01    0,000000000e+00    0,000000000e+00    0,000000000e+00    0,000000000e+00
      688000000   -1,538618375e-02   -1,400387101e-02    5,458531380e-01    3,061059713e-01    0,000000000e+00    0,000000000e+00    0,000000000e+00    0,000000000e+00
      702000000   -1,263656840e-02   -3,209967911e-02    6,194482446e-01   -4,150646925e-02    0,000000000e+00    0,000000000e+00    0,000000000e+00    0,000000000e+00
      716000000   -8,355266415e-03   -4,767461121e-02    4,943309128e-01   -3,664689362e-01    0,000000000e+00    0,000000000e+00    0,000000000e+00    0,000000000e+00
      730000000   -6,271610036e-03   -7,560005039e-02    2,145381570e-01   -5,680131912e-01    0,000000000e+00    0,000000000e+00    0,000000000e+00    0,000000000e+00
      744000000   -2,512837388e-02   -1,130060777e-01   -1,217973679e-01   -5,894163847e-01    0,000000000e+00    0,000000000e+00    0,000000000e+00    0,000000000e+00
      758000000   -7,487788796e-02   -1,345074326e-01   -4,199116528e-01   -4,343080223e-01    0,000000000e+00    0,000000000e+00    0,000000000e+00    0,000000000e+00
      772000000   -1,362044066e-01   -1,162786111e-01   -5,948496461e-01   -1,416618079e-01    0,000000000e+00    0,000000000e+00    0,000000000e+00    0,000000000e+00
      786000000   -1,729511768e-01   -5,718128756e-02   -5,831961036e-01    2,092385441e-01    0,000000000e+00    0,000000000e+00    0,000000000e+00    0,000000000e+00
      800000000   -1,598511189e-01    7,753009908e-03   -3,743646443e-01    4,973747134e-01    0,000000000e+00    0,000000000e+00    0,000000000e+00    0,000000000e+00
      814000000   -1,132105067e-01    4,387139902e-02   -4,599458352e-02    6,163339615e-01    0,000000000e+00    0,000000000e+00    0,000000000e+00    0,000000000e+00
      828000000   -6,786459684e-02    4,396433383e-02    2,863912284e-01    5,418098569e-01    0,000000000e+00    0,000000000e+00    0,000000000e+00    0,000000000e+00
      842000000   -3,829151765e-02    2,758887038e-02    5,226442218e-01    3,062332869e-01    0,000000000e+00    0,000000000e+00    0,000000000e+00    0,000000000e+00
      856000000   -1,850280724e-02    1,114552002e-02    5,958532691e-01   -1,363192126e-02    0,000000000e+00    0,000000000e+00    0,000000000e+00    0,000000000e+00
      870000000    2,056195954e-04   -1,176185254e-02    4,875606298e-01   -3,180549443e-01    0,000000000e+00    0,000000000e+00    0,000000000e+00    0,000000000e+00
      884000000    1,176853944e-02   -5,047979206e-02    2,429553717e-01   -5,144513249e-01    0,000000000e+00    0,000000000e+00    0,000000000e+00    0,000000000e+00
      898000000   -4,131202120e-03   -1,008640826e-01   -5,916723609e-02   -5,567173362e-01    0,000000000e+00    0,000000000e+00    0,000000000e+00    0,000000000e+00
      912000000   -6,113250926e-02   -1,313710362e-01   -3,863915205e-01   -4,246298969e-01    0,000000000e+00    0,000000000e+00    0,000000000e+00    0,000000000e+00
      926000000   -1,265617162e-01   -1,176653281e-01   -5,682091117e-01   -1,470381320e-01    0,000000000e+00    0,000000000e+00    0,000000000e+00    0,000000000e+00
      940000000   -1,604610234e-01   -6,381625682e-02   -5,679274201e-01    1,937780678e-01    0,000000000e+00    0,000000000e+00    0,000000000e+00    0,000000000e+00
      954000000   -1,477243304e-01    4,235320957e-04   -3,741157055e-01    4,842842221e-01    0,000000000e+00    0,000000000e+00    0,000000000e+00    0,000000000e+00
      968000000   -9,813327342e-02    2,169894241e-02   -5,071087927e-02    6,128879786e-01    0,000000000e+00    0,000000000e+00    0,000000000e+00    0,000000000e+00
      982000000   -5,380614474e-02    5,566987675e-03    2,823318243e-01    5,518592596e-01    0,000000000e+00    0,000000000e+00    0,000000000e+00    0,000000000e+00
      996000000   -4,101984948e-02   -3,221184760e-02    5,231065750e-01    3,253132999e-01    0,000000000e+00    0,000000000e+00    0,000000000e+00    0,000000000e+00
     1010000000   -6,251375377e-02   -6,730987877e-02    6,080439687e-01    1,420979761e-02    0,000000000e+00    0,000000000e+00    0,000000000e+00    0,000000000e+00
     1024000000   -9,775523096e-02   -7,936650515e-02    5,129443407e-01   -2,837574184e-01    0,000000000e+00    0,000000000e+00    0,000000000e+00    0,000000000e+00
     1038000000   -1,445379555e-01   -5,685804412e-02    2,947409451e-01   -4,699890018e-01    0,000000000e+00    0,000000000e+00    0,000000000e+00    0,000000000e+00
     1052000000   -1,479121596e-01    1,077587600e-03    3,550736606e-02   -5,254926085e-01    0,000000000e+00    0,000000000e+00    0,000000000e+00    0,000000000e+00
     1066000000   -1,069187000e-01    3,720553592e-02   -2,093176693e-01   -4,635381103e-01    0,000000000e+00    0,000000000e+00    0,000000000e+00    0,000000000e+00
     1080000000   -5,266116932e-02    3,099888004e-02   -4,157430232e-01   -2,974924743e-01    0,000000000e+00    0,000000000e+00    0,000000000e+00    0,000000000e+00
     1094000000   -3,229371831e-02   -8,873303421e-03   -5,178263187e-01   -2,459017560e-02    0,000000000e+00    0,000000000e+00    0,000000000e+00    0,000000000e+00
     1108000000   -2,897993289e-02   -3,462205455e-02   -4,425220191e-01    2,834236920e-01    0,000000000e+00    0,000000000e+00    0,000000000e+00    0,000000000e+00
     1122000000   -3,394245356e-02   -5,810168013e-02   -1,885607690e-01    4,949800968e-01    0,000000000e+00    0,000000000e+00    0,000000000e+00    0,000000000e+00
     1136000000   -4,337916896e-02   -9,120041132e-02    1,485029757e-01    5,190998316e-01    0,000000000e+00    0,000000000e+00    0,000000000e+00    0,000000000e+00
     1150000000   -8,564313501e-02   -1,221199930e-01    4,514549673e-01    3,440857828e-01    0,000000000e+00    0,000000000e+00    0,000000000e+00    0,000000000e+00
     1164000000   -1,365322024e-01   -1,218833774e-01    6,117981672e-01    1,176188141e-02    0,000000000e+00    0,000000000e+00    0,000000000e+00    0,000000000e+00
     1178000000   -1,796530485e-01   -8,782494813e-02    5,372017622e-01   -3,731154501e-01    0,000000000e+00    0,000000000e+00    0,000000000e+00    0,000000000e+00
     1192000000   -1,804551780e-01   -5,780109018e-02    2,419472486e-01   -6,347590089e-01    0,000000000e+00    0,000000000e+00    0,000000000e+00    0,000000000e+00
     1206000000   -1,935378760e-01   -5,197170377e-02   -1,391255558e-01   -6,598516703e-01    0,000000000e+00    0,000000000e+00    0,000000000e+00    0,000000000e+00
     1220000000   -2,572915554e-01   -1,865855232e-02   -4,209148586e-01   -4,856306016e-01    0,000000000e+00    0,000000000e+00    0,000000000e+00    0,000000000e+00
     1234000000   -2,440304607e-01    1,105761975e-01   -5,607879162e-01   -2,490798384e-01    0,000000000e+00    0,000000000e+00    0,000000000e+00    0,000000000e+00
     1248000000   -1,200459376e-01    1,719001532e-01   -6,022290587e-01    1,890865900e-02    0,000000000e+00    0,000000000e+00    0,000000000e+00    0,000000000e+00
     1262000000    1,176647027e-03    1,330734342e-01   -5,088612437e-01    2,980373800e-01    0,000000000e+00    0,000000000e+00    0,000000000e+00    0,000000000e+00
     1276000000    6,352830678e-02    4,434878752e-02   -2,765749991e-01    4,879632294e-01    0,000000000e+00    0,000000000e+00    0,000000000e+00    0,000000000e+00
     1290000000    7,072116435e-02   -7,145667821e-02    1,179401763e-02    5,502876043e-01    0,000000000e+00    0,000000000e+00    0,000000000e+00    0,000000000e+00
     1304000000    2,232624963e-02   -1,786794960e-01    3,025305569e-01    4,777605534e-01    0,000000000e+00    0,000000000e+00    0,000000000e+00    0,000000000e+00
     1318000000   -9,226958454e-02   -2,539092898e-01    5,364834666e-01    2,707090080e-01    0,000000000e+00    0,000000000e+00    0,000000000e+00    0,000000000e+00
     1332000000   -2,393337935e-01   -2,444847226e-01    6,564408541e-01   -5,365458131e-02    0,000000000e+00    0,000000000e+00    0,000000000e+00    0,000000000e+00
     1346000000   -3,628901839e-01   -1,395786703e-01    5,574466586e-01   -4,034772515e-01    0,000000000e+00    0,000000000e+00    0,000000000e+00    0,000000000e+00
     1360000000   -3,866099119e-01    6,522874814e-03    2,415746003e-01   -6,310333014e-01    0,000000000e+00    0,000000000e+00    0,000000000e+00    0,000000000e+00
     1374000000   -3,309535086e-01    1,178147942e-01   -1,081249192e-01   -6,259447932e-01    0,000000000e+00    0,000000000e+00    0,000000000e+00    0,000000000e+00
     1388000000   -2,391594201e-01    1,687931865e-01   -3,719804287e-01   -4,144282639e-01    0,000000000e+00    0,000000000e+00    0,000000000e+00    0,000000000e+00
     1402000000   -1,560293734e-01    1,719817668e-01   -4,854611754e-01   -1,034196541e-01    0,000000000e+00    0,000000000e+00    0,000000000e+00    0,000000000e+00
     1416000000   -8,374875039e-02    1,434074640e-01   -3,889117837e-01    2,024736702e-01    0,000000000e+00    0,000000000e+00    0,000000000e+00    0,000000000e+00
     1430000000   -3,361159936e-02    9,017751366e-02   -1,694897562e-01    4,344682693e-01    0,000000000e+00    0,000000000e+00    0,000000000e+00    0,000000000e+00
     1444000000   -1,374901365e-02    8,443329483e-03    1,169143692e-01    5,323133469e-01    0,000000000e+00    0,000000000e+00    0,000000000e+00    0,000000000e+00
     1458000000   -4,448023066e-02   -8,091735840e-02    4,329046309e-01    4,990684688e-01    0,000000000e+00    0,000000000e+00    0,000000000e+00    0,000000000e+00
     1472000000   -1,240674853e-01   -1,466273665e-01    7,313275933e-01    2,979498208e-01    0,000000000e+00    0,000000000e+00    0,000000000e+00    0,000000000e+00
     1486000000   -2,292399257e-01   -1,494168341e-01    9,172332883e-01   -4,169204459e-02    0,000000000e+00    0,000000000e+00    0,000000000e+00    0,000000000e+00
     1500000000   -3,065555692e-01   -6,445471942e-02    8,367543221e-01   -4,286106527e-01    0,000000000e+00    0,000000000e+00    0,000000000e+00    0,000000000e+00
