! NanoVNA-App
! Date: 2025-09-25 14:55:57
! Start: 100MHz Stop: 1,5GHz Points: 101
! S-Parameter data: F S11 S21 S12 S22
# Hz S RI R 50
!     Frequency           S11_Real           S11_Imag           S21_Real           S21_Imag           S12_Real           S12_Imag           S22_Real           S22_Imag
      100000000    3,561327606e-02    2,697450295e-02    4,407527447e-01   -6,696544290e-01    0,000000000e+00    0,000000000e+00    0,000000000e+00    0,000000000e+00
      114000000    6,048405915e-02    1,757212682e-03    1,290611736e-02   -7,955878973e-01    0,000000000e+00    0,000000000e+00    0,000000000e+00    0,000000000e+00
      128000000    6,790176034e-02   -4,263264686e-02   -4,082923234e-01   -6,782209277e-01    0,000000000e+00    0,000000000e+00    0,000000000e+00    0,000000000e+00
      142000000    4,275586829e-02   -8,891330659e-02   -7,055792809e-01   -3,608688414e-01    0,000000000e+00    0,000000000e+00    0,000000000e+00    0,000000000e+00
      156000000   -1,059670653e-02   -1,090264171e-01   -7,927213311e-01    6,723712385e-02    0,000000000e+00    0,000000000e+00    0,000000000e+00    0,000000000e+00
      170000000   -6,329603493e-02   -9,100916237e-02   -6,370386481e-01    4,871015251e-01    0,000000000e+00    0,000000000e+00    0,000000000e+00    0,000000000e+00
      184000000   -8,863387257e-02   -4,653114080e-02   -2,727770209e-01    7,565253973e-01    0,000000000e+00    0,000000000e+00    0,000000000e+00    0,000000000e+00
      198000000   -8,213078231e-02   -5,331303459e-03    1,799126416e-01    7,820711136e-01    0,000000000e+00    0,000000000e+00    0,000000000e+00    0,000000000e+00
      212000000   -6,150424480e-02    1,863299310e-02    5,707325339e-01    5,581532717e-01    0,000000000e+00    0,000000000e+00    0,000000000e+00    0,000000000e+00
      226000000   -4,002373666e-02    3,164470941e-02    7,767475843e-01    1,616761982e-01    0,000000000e+00    0,000000000e+00    0,000000000e+00    0,000000000e+00
      240000000   -1,363221835e-02    4,035350308e-02    7,358970642e-01   -2,788497210e-01    0,000000000e+00    0,000000000e+00    0,000000000e+00    0,000000000e+00
      254000000    2,194293961e-02    3,478933126e-02    4,681074619e-01   -6,221522093e-01    0,000000000e+00    0,000000000e+00    0,000000000e+00    0,000000000e+00
      268000000    5,297534168e-02    3,102515358e-03    6,686239690e-02   -7,676714659e-01    0,000000000e+00    0,000000000e+00    0,000000000e+00    0,000000000e+00
      282000000    5,615696311e-02   -4,635827988e-02   -3,460640907e-01   -6,829184890e-01    0,000000000e+00    0,000000000e+00    0,000000000e+00    0,000000000e+00
      296000000    2,416863292e-02   -8,516643196e-02   -6,554896832e-01   -3,977703452e-01    0,000000000e+00    0,000000000e+00    0,000000000e+00    0,000000000e+00
      310000000   -2,083838545e-02   -8,898001164e-02   -7,738049626e-01    1,033685822e-02    0,000000000e+00    0,000000000e+00    0,000000000e+00    0,000000000e+00
      324000000   -4,785307869e-02   -6,197321415e-02   -6,472589970e-01    4,300421476e-01    0,000000000e+00    0,000000000e+00    0,000000000e+00    0,000000000e+00
      338000000   -4,143985361e-02   -3,558770567e-02   -3,109869361e-01    7,081763744e-01    0,000000000e+00    0,000000000e+00    0,000000000e+00    0,000000000e+00
      352000000   -2,275785245e-02   -3,578165919e-02    1,198263317e-01    7,583220005e-01    0,000000000e+00    0,000000000e+00    0,000000000e+00    0,000000000e+00
      366000000   -2,108675241e-02   -5,490405485e-02    5,041920543e-01    5,711984038e-01    0,000000000e+00    0,000000000e+00    0,000000000e+00    0,000000000e+00
      380000000   -4,262850061e-02   -6,492579728e-02    7,265508175e-01    2,113479674e-01    0,000000000e+00    0,000000000e+00    0,000000000e+00    0,000000000e+00
      394000000   -6,443183124e-02   -5,136103928e-02    7,231758237e-01   -2,126894742e-01    0,000000000e+00    0,000000000e+00    0,000000000e+00    0,000000000e+00
      408000000   -6,633058190e-02   -2,791404538e-02    4,888819456e-01   -5,686624050e-01    0,000000000e+00    0,000000000e+00    0,000000000e+00    0,000000000e+00
      422000000   -5,335435644e-02   -1,747420244e-02    1,066288427e-01   -7,384827733e-01    0,000000000e+00    0,000000000e+00    0,000000000e+00    0,000000000e+00
      436000000   -4,705204815e-02   -2,027579956e-02   -3,063167036e-01   -6,760869026e-01    0,000000000e+00    0,000000000e+00    0,000000000e+00    0,000000000e+00
      450000000   -5,364111438e-02   -1,627027057e-02   -6,197711229e-01   -3,998816311e-01    0,000000000e+00    0,000000000e+00    0,000000000e+00    0,000000000e+00
      464000000   -5,278443918e-02    5,484098569e-03   -7,305558324e-01    3,556890413e-03    0,000000000e+00    0,000000000e+00    0,000000000e+00    0,000000000e+00
      478000000   -2,286193892e-02    2,728593908e-02   -5,994117260e-01    3,973475993e-01    0,000000000e+00    0,000000000e+00    0,000000000e+00    0,000000000e+00
      492000000    2,664693259e-02    1,683958806e-02   -2,809031606e-01    6,449117661e-01    0,000000000e+00    0,000000000e+00    0,000000000e+00    0,000000000e+00
      506000000    5,843337625e-02   -3,460056335e-02    1,040817201e-01    6,817020178e-01    0,000000000e+00    0,000000000e+00    0,000000000e+00    0,000000000e+00
      520000000    4,510932788e-02   -9,939324111e-02    4,393591881e-01    5,191931725e-01    0,000000000e+00    0,000000000e+00    0,000000000e+00    0,000000000e+00
      534000000   -9,784918278e-03   -1,416021436e-01    6,508298516e-01    2,066854239e-01    0,000000000e+00    0,000000000e+00    0,000000000e+00    0,000000000e+00
      548000000   -7,650303096e-02   -1,398640126e-01    6,637402773e-01   -1,757496297e-01    0,000000000e+00    0,000000000e+00    0,000000000e+00    0,000000000e+00
      562000000   -1,258362085e-01   -1,025430635e-01    4,556183517e-01   -5,117236376e-01    0,000000000e+00    0,000000000e+00    0,000000000e+00    0,000000000e+00
      576000000   -1,484402567e-01   -5,035043508e-02    8,539240807e-02   -6,713458300e-01    0,000000000e+00    0,000000000e+00    0,000000000e+00    0,000000000e+00
      590000000   -1,468410641e-01    1,580940001e-02   -3,108229637e-01   -5,842759609e-01    0,000000000e+00    0,000000000e+00    0,000000000e+00    0,000000000e+00
      604000000   -7,303784788e-02    9,687806666e-02   -5,341839790e-01   -2,460953146e-01    0,000000000e+00    0,000000000e+00    0,000000000e+00    0,000000000e+00
      618000000    9,943564981e-02    8,399420418e-03   -4,256227911e-01    5,378881935e-03    0,000000000e+00    0,000000000e+00    0,000000000e+00    0,000000000e+00
      632000000   -4,781623930e-02   -1,498016864e-01   -5,156250000e-01    1,115607470e-01    0,000000000e+00    0,000000000e+00    0,000000000e+00    0,000000000e+00
      646000000   -1,298967600e-01   -3,964580595e-02   -4,137149453e-01    4,709729552e-01    0,000000000e+00    0,000000000e+00    0,000000000e+00    0,000000000e+00
      660000000   -7,969651371e-02    2,366090752e-02   -6,275191903e-02    6,427437067e-01    0,000000000e+00    0,000000000e+00    0,000000000e+00    0,000000000e+00
      674000000   -2,791256085e-02    1,518147159e-02    3,028427660e-01    5,650441051e-01    0,000000000e+00    0,000000000e+00    0,000000000e+00    0,000000000e+00
      688000000   -8,198161609e-03   -1,397486404e-02    5,564516187e-01    3,075672388e-01    0,000000000e+00    0,000000000e+00    0,000000000e+00    0,000000000e+00
      702000000   -8,337629028e-03   -3,491638973e-02    6,263614893e-01   -4,521662742e-02    0,000000000e+00    0,000000000e+00    0,000000000e+00    0,000000000e+00
      716000000   -7,835326716e-03   -5,221362412e-02    4,968107045e-01   -3,746935129e-01    0,000000000e+00    0,000000000e+00    0,000000000e+00    0,000000000e+00
      730000000   -7,561171427e-03   -7,832382619e-02    2,119873613e-01   -5,753414035e-01    0,000000000e+00    0,000000000e+00    0,000000000e+00    0,000000000e+00
      744000000   -2,904963866e-02   -1,130680516e-01   -1,297742575e-01   -5,965015888e-01    0,000000000e+00    0,000000000e+00    0,000000000e+00    0,000000000e+00
      758000000   -7,982672751e-02   -1,327062100e-01   -4,283078909e-01   -4,351885915e-01    0,000000000e+00    0,000000000e+00    0,000000000e+00    0,000000000e+00
      772000000   -1,385472566e-01   -1,121531576e-01   -6,030845046e-01   -1,359496713e-01    0,000000000e+00    0,000000000e+00    0,000000000e+00    0,000000000e+00
      786000000   -1,732192934e-01   -5,305754021e-02   -5,863693357e-01    2,186100185e-01    0,000000000e+00    0,000000000e+00    0,000000000e+00    0,000000000e+00
      800000000   -1,559678912e-01    1,126212720e-02   -3,710863888e-01    5,061357617e-01    0,000000000e+00    0,000000000e+00    0,000000000e+00    0,000000000e+00
      814000000   -1,070167571e-01    4,319098219e-02   -3,701311722e-02    6,213710308e-01    0,000000000e+00    0,000000000e+00    0,000000000e+00    0,000000000e+00
      828000000   -6,280206144e-02    4,005869478e-02    2,964386046e-01    5,406241417e-01    0,000000000e+00    0,000000000e+00    0,000000000e+00    0,000000000e+00
      842000000   -3,730962798e-02    2,145254798e-02    5,303682685e-01    3,009205461e-01    0,000000000e+00    0,000000000e+00    0,000000000e+00    0,000000000e+00
      856000000   -2,221983857e-02    6,252201274e-03    6,002745628e-01   -2,429309487e-02    0,000000000e+00    0,000000000e+00    0,000000000e+00    0,000000000e+00
      870000000   -4,849970806e-03   -1,411033329e-02    4,852102697e-01   -3,296631277e-01    0,000000000e+00    0,000000000e+00    0,000000000e+00    0,000000000e+00
      884000000    6,496163085e-03   -5,026411265e-02    2,340339869e-01   -5,218265057e-01    0,000000000e+00    0,000000000e+00    0,000000000e+00    0,000000000e+00
      898000000   -7,782583125e-03   -9,682019800e-02   -7,287742943e-02   -5,590786338e-01    0,000000000e+00    0,000000000e+00    0,000000000e+00    0,000000000e+00
      912000000   -6,364522874e-02   -1,256368607e-01   -4,010629058e-01   -4,188639522e-01    0,000000000e+00    0,000000000e+00    0,000000000e+00    0,000000000e+00
      926000000   -1,221776977e-01   -1,131460369e-01   -5,741383433e-01   -1,301253736e-01    0,000000000e+00    0,000000000e+00    0,000000000e+00    0,000000000e+00
      940000000   -1,591155529e-01   -6,293454766e-02   -5,662948489e-01    2,129872739e-01    0,000000000e+00    0,000000000e+00    0,000000000e+00    0,000000000e+00
      954000000   -1,460913867e-01   -1,015772577e-03   -3,570505083e-01    4,993835390e-01    0,000000000e+00    0,000000000e+00    0,000000000e+00    0,000000000e+00
      968000000   -9,460704029e-02    2,301623859e-02   -2,940831520e-02    6,174504757e-01    0,000000000e+00    0,000000000e+00    0,000000000e+00    0,000000000e+00
      982000000   -5,516979098e-02    8,230195381e-03    3,038976192e-01    5,387843847e-01    0,000000000e+00    0,000000000e+00    0,000000000e+00    0,000000000e+00
      996000000   -4,180262610e-02   -2,903100848e-02    5,339610577e-01    2,973523140e-01    0,000000000e+00    0,000000000e+00    0,000000000e+00    0,000000000e+00
     1010000000   -5,428142846e-02   -6,778528541e-02    5,919128656e-01   -1,802110672e-02    0,000000000e+00    0,000000000e+00    0,000000000e+00    0,000000000e+00
     1024000000   -9,205965698e-02   -8,644150198e-02    4,765798151e-01   -2,875009775e-01    0,000000000e+00    0,000000000e+00    0,000000000e+00    0,000000000e+00
     1038000000   -1,484395415e-01   -7,180675864e-02    2,782322466e-01   -4,477613270e-01    0,000000000e+00    0,000000000e+00    0,000000000e+00    0,000000000e+00
     1052000000   -1,701949388e-01   -1,564116962e-02    4,015172273e-02   -5,108526349e-01    0,000000000e+00    0,000000000e+00    0,000000000e+00    0,000000000e+00
     1066000000   -1,318448633e-01    4,507723451e-02   -2,201494277e-01   -4,628013670e-01    0,000000000e+00    0,000000000e+00    0,000000000e+00    0,000000000e+00
     1080000000   -7,148686796e-02    4,924105480e-02   -4,254276454e-01   -2,718488872e-01    0,000000000e+00    0,000000000e+00    0,000000000e+00    0,000000000e+00
     1094000000   -3,043767437e-02    2,983212657e-02   -4,923145771e-01    7,190399338e-03    0,000000000e+00    0,000000000e+00    0,000000000e+00    0,000000000e+00
     1108000000   -2,300256863e-03   -1,467404328e-02   -3,930702507e-01    2,771435678e-01    0,000000000e+00    0,000000000e+00    0,000000000e+00    0,000000000e+00
     1122000000    3,548012115e-03   -6,703939289e-02   -1,654890776e-01    4,494466484e-01    0,000000000e+00    0,000000000e+00    0,000000000e+00    0,000000000e+00
     1136000000   -2,618171275e-02   -1,142175794e-01    1,262682974e-01    4,827331007e-01    0,000000000e+00    0,000000000e+00    0,000000000e+00    0,000000000e+00
     1150000000   -8,079005778e-02   -1,500756443e-01    4,129539132e-01    3,401255608e-01    0,000000000e+00    0,000000000e+00    0,000000000e+00    0,000000000e+00
     1164000000   -1,476527452e-01   -1,425632536e-01    5,843001604e-01    3,439243883e-02    0,000000000e+00    0,000000000e+00    0,000000000e+00    0,000000000e+00
     1178000000   -1,957307458e-01   -9,476231039e-02    5,383824110e-01   -3,413775861e-01    0,000000000e+00    0,000000000e+00    0,000000000e+00    0,000000000e+00
     1192000000   -2,055814266e-01   -4,489449412e-02    2,632924020e-01   -6,192974448e-01    0,000000000e+00    0,000000000e+00    0,000000000e+00    0,000000000e+00
     1206000000   -1,988768727e-01   -2,689087391e-02   -1,187802553e-01   -6,740607619e-01    0,000000000e+00    0,000000000e+00    0,000000000e+00    0,000000000e+00
     1220000000   -2,370441854e-01   -3,684628988e-03   -4,352065027e-01   -4,976556897e-01    0,000000000e+00    0,000000000e+00    0,000000000e+00    0,000000000e+00
     1234000000   -2,345100641e-01    1,116143391e-01   -5,616281033e-01   -2,323375344e-01    0,000000000e+00    0,000000000e+00    0,000000000e+00    0,000000000e+00
     1248000000   -1,156310886e-01    1,755317897e-01   -5,890368819e-01    2,650495805e-02    0,000000000e+00    0,000000000e+00    0,000000000e+00    0,000000000e+00
     1262000000   -2,237409586e-03    1,339276135e-01   -4,960556328e-01    2,847418785e-01    0,000000000e+00    0,000000000e+00    0,000000000e+00    0,000000000e+00
     1276000000    6,546202302e-02    4,470513389e-02   -2,799909115e-01    4,755566418e-01    0,000000000e+00    0,000000000e+00    0,000000000e+00    0,000000000e+00
     1290000000    7,499770820e-02   -7,044184953e-02    2,514599822e-03    5,381622910e-01    0,000000000e+00    0,000000000e+00    0,000000000e+00    0,000000000e+00
     1304000000    2,429743111e-02   -1,869042963e-01    2,882488966e-01    4,705933928e-01    0,000000000e+00    0,000000000e+00    0,000000000e+00    0,000000000e+00
     1318000000   -8,857518435e-02   -2,585608959e-01    5,276260972e-01    2,708909214e-01    0,000000000e+00    0,000000000e+00    0,000000000e+00    0,000000000e+00
     1332000000   -2,448160499e-01   -2,517558038e-01    6,328184009e-01   -4,527631402e-02    0,000000000e+00    0,000000000e+00    0,000000000e+00    0,000000000e+00
     1346000000   -3,692656755e-01   -1,482191831e-01    5,430127978e-01   -3,949080110e-01    0,000000000e+00    0,000000000e+00    0,000000000e+00    0,000000000e+00
     1360000000   -3,925791383e-01    4,449762870e-03    2,580625117e-01   -6,185556054e-01    0,000000000e+00    0,000000000e+00    0,000000000e+00    0,000000000e+00
     1374000000   -3,408360481e-01    1,194949299e-01   -1,003181636e-01   -6,247386336e-01    0,000000000e+00    0,000000000e+00    0,000000000e+00    0,000000000e+00
     1388000000   -2,431510240e-01    1,758300662e-01   -3,676334321e-01   -4,120332897e-01    0,000000000e+00    0,000000000e+00    0,000000000e+00    0,000000000e+00
     1402000000   -1,591138542e-01    1,840397418e-01   -4,526572227e-01   -9,823369235e-02    0,000000000e+00    0,000000000e+00    0,000000000e+00    0,000000000e+00
     1416000000   -8,590007573e-02    1,512399614e-01   -3,875722587e-01    1,999769062e-01    0,000000000e+00    0,000000000e+00    0,000000000e+00    0,000000000e+00
     1430000000   -2,637328021e-02    9,450711310e-02   -1,526792645e-01    3,932242692e-01    0,000000000e+00    0,000000000e+00    0,000000000e+00    0,000000000e+00
     1444000000   -5,274652503e-03    1,340418682e-02    1,262732595e-01    5,211805701e-01    0,000000000e+00    0,000000000e+00    0,000000000e+00    0,000000000e+00
     1458000000   -3,433597833e-02   -7,739645988e-02    4,166312814e-01    4,896792173e-01    0,000000000e+00    0,000000000e+00    0,000000000e+00    0,000000000e+00
     1472000000   -1,187495291e-01   -1,505123228e-01    7,096080184e-01    3,086089194e-01    0,000000000e+00    0,000000000e+00    0,000000000e+00    0,000000000e+00
     1486000000   -2,250981927e-01   -1,450412422e-01    8,902398348e-01   -1,267251465e-02    0,000000000e+00    0,000000000e+00    0,000000000e+00    0,000000000e+00
     1500000000   -2,916671932e-01   -7,627202570e-02    8,464336395e-01   -3,983597159e-01    0,000000000e+00    0,000000000e+00    0,000000000e+00    0,000000000e+00
