! NanoVNA-App
! Date: 2025-09-25 15:00:37
! Start: 100MHz Stop: 1,5GHz Points: 101
! S-Parameter data: F S11 S21 S12 S22
# Hz S RI R 50
!     Frequency           S11_Real           S11_Imag           S21_Real           S21_Imag           S12_Real           S12_Imag           S22_Real           S22_Imag
      100000000    3,557909653e-02    2,735505253e-02    4,407773316e-01   -6,695711017e-01    0,000000000e+00    0,000000000e+00    0,000000000e+00    0,000000000e+00
      114000000    6,070583314e-02    2,183091827e-03    1,300496794e-02   -7,953941822e-01    0,000000000e+00    0,000000000e+00    0,000000000e+00    0,000000000e+00
      128000000    6,840490550e-02   -4,226277769e-02   -4,080080092e-01   -6,780570149e-01    0,000000000e+00    0,000000000e+00    0,000000000e+00    0,000000000e+00
      142000000    4,350979999e-02   -8,881470561e-02   -7,053540945e-01   -3,609058857e-01    0,000000000e+00    0,000000000e+00    0,000000000e+00    0,000000000e+00
      156000000   -9,275089949e-03   -1,102496311e-01   -7,933483124e-01    6,814229488e-02    0,000000000e+00    0,000000000e+00    0,000000000e+00    0,000000000e+00
      170000000   -6,265807152e-02   -9,177695215e-02   -6,371839643e-01    4,862915277e-01    0,000000000e+00    0,000000000e+00    0,000000000e+00    0,000000000e+00
      184000000   -8,864537627e-02   -4,769252986e-02   -2,730207145e-01    7,560175657e-01    0,000000000e+00    0,000000000e+00    0,000000000e+00    0,000000000e+00
      198000000   -8,274804801e-02   -6,415878423e-03    1,796831638e-01    7,824094892e-01    0,000000000e+00    0,000000000e+00    0,000000000e+00    0,000000000e+00
      212000000   -6,268581003e-02    1,804501750e-02    5,706982017e-01    5,583295822e-01    0,000000000e+00    0,000000000e+00    0,000000000e+00    0,000000000e+00
      226000000   -4,148441553e-02    3,189411387e-02    7,767160535e-01    1,618623585e-01    0,000000000e+00    0,000000000e+00    0,000000000e+00    0,000000000e+00
      240000000   -1,488364302e-02    4,127112404e-02    7,359259725e-01   -2,785740197e-01    0,000000000e+00    0,000000000e+00    0,000000000e+00    0,000000000e+00
      254000000    2,138235420e-02    3,632378206e-02    4,678032398e-01   -6,221047640e-01    0,000000000e+00    0,000000000e+00    0,000000000e+00    0,000000000e+00
      268000000    5,334306881e-02    4,755125847e-03    6,678177416e-02   -7,673222423e-01    0,000000000e+00    0,000000000e+00    0,000000000e+00    0,000000000e+00
      282000000    5,739775673e-02   -4,496334493e-02   -3,459076881e-01   -6,830722690e-01    0,000000000e+00    0,000000000e+00    0,000000000e+00    0,000000000e+00
      296000000    2,608878165e-02   -8,457367122e-02   -6,546958685e-01   -3,979020417e-01    0,000000000e+00    0,000000000e+00    0,000000000e+00    0,000000000e+00
      310000000   -1,886477321e-02   -8,946842700e-02   -7,736043334e-01    9,449790232e-03    0,000000000e+00    0,000000000e+00    0,000000000e+00    0,000000000e+00
      324000000   -4,659413546e-02   -6,339886039e-02   -6,476956010e-01    4,297959507e-01    0,000000000e+00    0,000000000e+00    0,000000000e+00    0,000000000e+00
      338000000   -4,101063684e-02   -3,766364604e-02   -3,118504882e-01    7,116053700e-01    0,000000000e+00    0,000000000e+00    0,000000000e+00    0,000000000e+00
      352000000   -2,346096933e-02   -3,796211630e-02    1,206147969e-01    7,592052817e-01    0,000000000e+00    0,000000000e+00    0,000000000e+00    0,000000000e+00
      366000000   -2,293874510e-02   -5,614079162e-02    5,027782321e-01    5,722523928e-01    0,000000000e+00    0,000000000e+00    0,000000000e+00    0,000000000e+00
      380000000   -4,485060647e-02   -6,530954689e-02    7,265779972e-01    2,112468332e-01    0,000000000e+00    0,000000000e+00    0,000000000e+00    0,000000000e+00
      394000000   -6,649518758e-02   -5,080513656e-02    7,230625749e-01   -2,138150334e-01    0,000000000e+00    0,000000000e+00    0,000000000e+00    0,000000000e+00
      408000000   -6,751849502e-02   -2,650819160e-02    4,887510836e-01   -5,688422918e-01    0,000000000e+00    0,000000000e+00    0,000000000e+00    0,000000000e+00
      422000000   -5,321510509e-02   -1,502202265e-02    1,057368517e-01   -7,388830185e-01    0,000000000e+00    0,000000000e+00    0,000000000e+00    0,000000000e+00
      436000000   -4,646296427e-02   -1,832282729e-02   -3,058372438e-01   -6,757943630e-01    0,000000000e+00    0,000000000e+00    0,000000000e+00    0,000000000e+00
      450000000   -5,220560357e-02   -1,507585868e-02   -6,189689636e-01   -3,999523520e-01    0,000000000e+00    0,000000000e+00    0,000000000e+00    0,000000000e+00
      464000000   -5,070798472e-02    5,940266419e-03   -7,301813960e-01    3,611088730e-03    0,000000000e+00    0,000000000e+00    0,000000000e+00    0,000000000e+00
      478000000   -2,052620240e-02    2,668161318e-02   -5,990040898e-01    3,971993625e-01    0,000000000e+00    0,000000000e+00    0,000000000e+00    0,000000000e+00
      492000000    2,805127762e-02    1,437394042e-02   -2,808482349e-01    6,441819668e-01    0,000000000e+00    0,000000000e+00    0,000000000e+00    0,000000000e+00
      506000000    5,902368203e-02   -3,721250594e-02    1,054820418e-01    6,798679233e-01    0,000000000e+00    0,000000000e+00    0,000000000e+00    0,000000000e+00
      520000000    4,334807023e-02   -1,028173789e-01    4,420315325e-01    5,158538818e-01    0,000000000e+00    0,000000000e+00    0,000000000e+00    0,000000000e+00
      534000000   -1,321028266e-02   -1,435160190e-01    6,490969658e-01    2,059131265e-01    0,000000000e+00    0,000000000e+00    0,000000000e+00    0,000000000e+00
      548000000   -8,164957911e-02   -1,399116516e-01    6,601458788e-01   -1,763336957e-01    0,000000000e+00    0,000000000e+00    0,000000000e+00    0,000000000e+00
      562000000   -1,308290809e-01   -9,797754139e-02    4,508789778e-01   -5,083876848e-01    0,000000000e+00    0,000000000e+00    0,000000000e+00    0,000000000e+00
      576000000   -1,493275911e-01   -3,839896247e-02    8,247303218e-02   -6,607066393e-01    0,000000000e+00    0,000000000e+00    0,000000000e+00    0,000000000e+00
      590000000   -1,299470514e-01    2,836863510e-02   -2,958264649e-01   -5,633097887e-01    0,000000000e+00    0,000000000e+00    0,000000000e+00    0,000000000e+00
      604000000   -4,025275260e-02    6,840242445e-02   -4,903068244e-01   -2,708048522e-01    0,000000000e+00    0,000000000e+00    0,000000000e+00    0,000000000e+00
      618000000    3,598455712e-02   -2,703851275e-02   -4,930834770e-01   -4,638407007e-02    0,000000000e+00    0,000000000e+00    0,000000000e+00    0,000000000e+00
      632000000   -5,028358474e-02   -9,414416552e-02   -5,222843289e-01    1,766930223e-01    0,000000000e+00    0,000000000e+00    0,000000000e+00    0,000000000e+00
      646000000   -1,004743576e-01   -3,531977534e-02   -3,792270720e-01    4,753023386e-01    0,000000000e+00    0,000000000e+00    0,000000000e+00    0,000000000e+00
      660000000   -7,031780481e-02    8,668369614e-03   -5,162652582e-02    6,233299971e-01    0,000000000e+00    0,000000000e+00    0,000000000e+00    0,000000000e+00
      674000000   -3,093533404e-02    5,599298514e-03    2,987711728e-01    5,535998344e-01    0,000000000e+00    0,000000000e+00    0,000000000e+00    0,000000000e+00
      688000000   -1,574058831e-02   -1,675655693e-02    5,475469232e-01    3,033552170e-01    0,000000000e+00    0,000000000e+00    0,000000000e+00    0,000000000e+00
      702000000   -1,310050767e-02   -3,392888978e-02    6,182588935e-01   -4,237791896e-02    0,000000000e+00    0,000000000e+00    0,000000000e+00    0,000000000e+00
      716000000   -9,809535928e-03   -4,767797142e-02    4,919330180e-01   -3,679568768e-01    0,000000000e+00    0,000000000e+00    0,000000000e+00    0,000000000e+00
      730000000   -6,618474610e-03   -7,468701899e-02    2,119361460e-01   -5,674154758e-01    0,000000000e+00    0,000000000e+00    0,000000000e+00    0,000000000e+00
      744000000   -2,532848716e-02   -1,108095944e-01   -1,236342043e-01   -5,880599022e-01    0,000000000e+00    0,000000000e+00    0,000000000e+00    0,000000000e+00
      758000000   -7,447382063e-02   -1,339913607e-01   -4,194844365e-01   -4,331051409e-01    0,000000000e+00    0,000000000e+00    0,000000000e+00    0,000000000e+00
      772000000   -1,360338032e-01   -1,163934842e-01   -5,937529206e-01   -1,405639052e-01    0,000000000e+00    0,000000000e+00    0,000000000e+00    0,000000000e+00
      786000000   -1,722688824e-01   -5,897956342e-02   -5,815743804e-01    2,099553049e-01    0,000000000e+00    0,000000000e+00    0,000000000e+00    0,000000000e+00
      800000000   -1,597967744e-01    6,381204352e-03   -3,738129139e-01    4,955151081e-01    0,000000000e+00    0,000000000e+00    0,000000000e+00    0,000000000e+00
      814000000   -1,146882698e-01    4,293189943e-02   -4,619318992e-02    6,156772971e-01    0,000000000e+00    0,000000000e+00    0,000000000e+00    0,000000000e+00
      828000000   -6,796623021e-02    4,419436678e-02    2,842554152e-01    5,396920443e-01    0,000000000e+00    0,000000000e+00    0,000000000e+00    0,000000000e+00
      842000000   -3,899537027e-02    2,846487984e-02    5,212506652e-01    3,061529398e-01    0,000000000e+00    0,000000000e+00    0,000000000e+00    0,000000000e+00
      856000000   -1,823783107e-02    1,218484621e-02    5,944044590e-01   -1,416693255e-02    0,000000000e+00    0,000000000e+00    0,000000000e+00    0,000000000e+00
      870000000    1,856004237e-03   -1,156195439e-02    4,873747826e-01   -3,175464272e-01    0,000000000e+00    0,000000000e+00    0,000000000e+00    0,000000000e+00
      884000000    1,252355333e-02   -5,140799657e-02    2,431993783e-01   -5,116020441e-01    0,000000000e+00    0,000000000e+00    0,000000000e+00    0,000000000e+00
      898000000   -3,882525023e-03   -1,018452868e-01   -5,865194276e-02   -5,546678305e-01    0,000000000e+00    0,000000000e+00    0,000000000e+00    0,000000000e+00
      912000000   -6,201589853e-02   -1,322495639e-01   -3,975327909e-01   -4,242044687e-01    0,000000000e+00    0,000000000e+00    0,000000000e+00    0,000000000e+00
      926000000   -1,275478601e-01   -1,201325580e-01   -5,668681860e-01   -1,495004594e-01    0,000000000e+00    0,000000000e+00    0,000000000e+00    0,000000000e+00
      940000000   -1,626495123e-01   -6,015296653e-02   -5,681720972e-01    1,938234270e-01    0,000000000e+00    0,000000000e+00    0,000000000e+00    0,000000000e+00
      954000000   -1,460904926e-01   -3,208086826e-03   -3,738476336e-01    4,843490720e-01    0,000000000e+00    0,000000000e+00    0,000000000e+00    0,000000000e+00
      968000000   -1,011421904e-01    2,317889594e-02   -5,261774734e-02    6,176509261e-01    0,000000000e+00    0,000000000e+00    0,000000000e+00    0,000000000e+00
      982000000   -5,413042381e-02    7,930900902e-03    2,802646160e-01    5,549980402e-01    0,000000000e+00    0,000000000e+00    0,000000000e+00    0,000000000e+00
      996000000   -4,408864304e-02   -2,956161462e-02    5,271010399e-01    3,282468915e-01    0,000000000e+00    0,000000000e+00    0,000000000e+00    0,000000000e+00
     1010000000   -6,030905992e-02   -6,695082039e-02    6,085079908e-01    1,510137133e-02    0,000000000e+00    0,000000000e+00    0,000000000e+00    0,000000000e+00
     1024000000   -1,025464237e-01   -8,021019399e-02    5,164365172e-01   -2,818890810e-01    0,000000000e+00    0,000000000e+00    0,000000000e+00    0,000000000e+00
     1038000000   -1,404218078e-01   -5,980814993e-02    2,926019728e-01   -4,718388915e-01    0,000000000e+00    0,000000000e+00    0,000000000e+00    0,000000000e+00
     1052000000   -1,475028843e-01   -3,187571128e-04    3,324893489e-02   -5,256848335e-01    0,000000000e+00    0,000000000e+00    0,000000000e+00    0,000000000e+00
     1066000000   -1,048595458e-01    4,320724308e-02   -2,087041885e-01   -4,647262096e-01    0,000000000e+00    0,000000000e+00    0,000000000e+00    0,000000000e+00
     1080000000   -5,497436970e-02    2,936587669e-02   -4,171301126e-01   -3,008159399e-01    0,000000000e+00    0,000000000e+00    0,000000000e+00    0,000000000e+00
     1094000000   -3,151277825e-02   -6,606294308e-03   -5,209579468e-01   -2,464395575e-02    0,000000000e+00    0,000000000e+00    0,000000000e+00    0,000000000e+00
     1108000000   -3,323662654e-02   -3,498147428e-02   -4,426261485e-01    2,853288054e-01    0,000000000e+00    0,000000000e+00    0,000000000e+00    0,000000000e+00
     1122000000   -3,124779463e-02   -5,923239887e-02   -1,862282157e-01    4,971885979e-01    0,000000000e+00    0,000000000e+00    0,000000000e+00    0,000000000e+00
     1136000000   -4,616482183e-02   -9,420131892e-02    1,524333060e-01    5,188451409e-01    0,000000000e+00    0,000000000e+00    0,000000000e+00    0,000000000e+00
     1150000000   -8,344452828e-02   -1,210671961e-01    4,506343901e-01    3,456233740e-01    0,000000000e+00    0,000000000e+00    0,000000000e+00    0,000000000e+00
     1164000000   -1,396361142e-01   -1,250721067e-01    6,105786562e-01    1,118237060e-02    0,000000000e+00    0,000000000e+00    0,000000000e+00    0,000000000e+00
     1178000000   -1,750975996e-01   -8,852470666e-02    5,396541357e-01   -3,755535185e-01    0,000000000e+00    0,000000000e+00    0,000000000e+00    0,000000000e+00
     1192000000   -1,818217486e-01   -5,643762276e-02    2,413539886e-01   -6,369162798e-01    0,000000000e+00    0,000000000e+00    0,000000000e+00    0,000000000e+00
     1206000000   -1,912245601e-01   -5,773853138e-02   -1,415476501e-01   -6,587762833e-01    0,000000000e+00    0,000000000e+00    0,000000000e+00    0,000000000e+00
     1220000000   -2,568379045e-01   -1,326952130e-02   -4,189734161e-01   -4,853447080e-01    0,000000000e+00    0,000000000e+00    0,000000000e+00    0,000000000e+00
     1234000000   -2,385248840e-01    1,157277450e-01   -5,567960739e-01   -2,509308755e-01    0,000000000e+00    0,000000000e+00    0,000000000e+00    0,000000000e+00
     1248000000   -1,128027439e-01    1,768786162e-01   -6,007039547e-01    1,858722046e-02    0,000000000e+00    0,000000000e+00    0,000000000e+00    0,000000000e+00
     1262000000   -3,603097750e-03    1,339071840e-01   -5,046650171e-01    2,992520332e-01    0,000000000e+00    0,000000000e+00    0,000000000e+00    0,000000000e+00
     1276000000    6,443584710e-02    3,790668026e-02   -2,781781256e-01    4,843879342e-01    0,000000000e+00    0,000000000e+00    0,000000000e+00    0,000000000e+00
     1290000000    6,797323376e-02   -7,143287361e-02    9,333874099e-03    5,496398807e-01    0,000000000e+00    0,000000000e+00    0,000000000e+00    0,000000000e+00
     1304000000    2,512377687e-02   -1,821245700e-01    3,001813591e-01    4,806759357e-01    0,000000000e+00    0,000000000e+00    0,000000000e+00    0,000000000e+00
     1318000000   -9,846206754e-02   -2,533612847e-01    5,320303440e-01    2,682232261e-01    0,000000000e+00    0,000000000e+00    0,000000000e+00    0,000000000e+00
     1332000000   -2,440372854e-01   -2,396212369e-01    6,535269618e-01   -5,559664592e-02    0,000000000e+00    0,000000000e+00    0,000000000e+00    0,000000000e+00
     1346000000   -3,617878556e-01   -1,420266479e-01    5,572730899e-01   -4,082722962e-01    0,000000000e+00    0,000000000e+00    0,000000000e+00    0,000000000e+00
     1360000000   -3,853667378e-01    1,236769836e-02    2,544291615e-01   -6,347037554e-01    0,000000000e+00    0,000000000e+00    0,000000000e+00    0,000000000e+00
     1374000000   -3,266671598e-01    1,207695007e-01   -1,017884016e-01   -6,279532313e-01    0,000000000e+00    0,000000000e+00    0,000000000e+00    0,000000000e+00
     1388000000   -2,354747653e-01    1,680986881e-01   -3,821157217e-01   -4,174150527e-01    0,000000000e+00    0,000000000e+00    0,000000000e+00    0,000000000e+00
     1402000000   -1,522080302e-01    1,723930985e-01   -4,767129421e-01   -1,010511965e-01    0,000000000e+00    0,000000000e+00    0,000000000e+00    0,000000000e+00
     1416000000   -8,634743840e-02    1,437508315e-01   -3,981055021e-01    2,047446668e-01    0,000000000e+00    0,000000000e+00    0,000000000e+00    0,000000000e+00
     1430000000   -3,595159575e-02    8,733998239e-02   -1,939523965e-01    4,427387714e-01    0,000000000e+00    0,000000000e+00    0,000000000e+00    0,000000000e+00
     1444000000   -1,245354116e-02    9,393421002e-03    1,162884086e-01    5,366281271e-01    0,000000000e+00    0,000000000e+00    0,000000000e+00    0,000000000e+00
     1458000000   -4,190165922e-02   -7,644195855e-02    4,282862544e-01    5,019932389e-01    0,000000000e+00    0,000000000e+00    0,000000000e+00    0,000000000e+00
     1472000000   -1,225415990e-01   -1,487473249e-01    7,290324569e-01    3,057365119e-01    0,000000000e+00    0,000000000e+00    0,000000000e+00    0,000000000e+00
     1486000000   -2,347665876e-01   -1,457844228e-01    8,945976496e-01   -4,417943582e-02    0,000000000e+00    0,000000000e+00    0,000000000e+00    0,000000000e+00
     1500000000   -3,014170229e-01   -6,515096873e-02    8,607267737e-01   -4,331782758e-01    0,000000000e+00    0,000000000e+00    0,000000000e+00    0,000000000e+00
