! NanoVNA-App
! Date: 2025-09-25 15:01:06
! Start: 100MHz Stop: 1,5GHz Points: 101
! S-Parameter data: F S11 S21 S12 S22
# Hz S RI R 50
!     Frequency           S11_Real           S11_Imag           S21_Real           S21_Imag           S12_Real           S12_Imag           S22_Real           S22_Imag
      100000000    3,558190167e-02    2,736745216e-02    4,407555163e-01   -6,695573330e-01    0,000000000e+00    0,000000000e+00    0,000000000e+00    0,000000000e+00
      114000000    6,073434651e-02    2,150453627e-03    1,276489906e-02   -7,954290509e-01    0,000000000e+00    0,000000000e+00    0,000000000e+00    0,000000000e+00
      128000000    6,837660819e-02   -4,228937253e-02   -4,083642662e-01   -6,781365275e-01    0,000000000e+00    0,000000000e+00    0,000000000e+00    0,000000000e+00
      142000000    4,349069670e-02   -8,881206065e-02   -7,052922845e-01   -3,610071838e-01    0,000000000e+00    0,000000000e+00    0,000000000e+00    0,000000000e+00
      156000000   -9,264280088e-03   -1,097745672e-01   -7,935116887e-01    6,704961509e-02    0,000000000e+00    0,000000000e+00    0,000000000e+00    0,000000000e+00
      170000000   -6,266985089e-02   -9,180582315e-02   -6,368903518e-01    4,862857461e-01    0,000000000e+00    0,000000000e+00    0,000000000e+00    0,000000000e+00
      184000000   -8,861260116e-02   -4,766332731e-02   -2,730593085e-01    7,561495304e-01    0,000000000e+00    0,000000000e+00    0,000000000e+00    0,000000000e+00
      198000000   -8,279107511e-02   -6,420372985e-03    1,795194000e-01    7,823612690e-01    0,000000000e+00    0,000000000e+00    0,000000000e+00    0,000000000e+00
      212000000   -6,267553568e-02    1,800007187e-02    5,708060861e-01    5,585064292e-01    0,000000000e+00    0,000000000e+00    0,000000000e+00    0,000000000e+00
      226000000   -4,146075994e-02    3,186134622e-02    7,766327262e-01    1,618776470e-01    0,000000000e+00    0,000000000e+00    0,000000000e+00    0,000000000e+00
      240000000   -1,491957251e-02    4,128914326e-02    7,361892462e-01   -2,786600590e-01    0,000000000e+00    0,000000000e+00    0,000000000e+00    0,000000000e+00
      254000000    2,139050886e-02    3,631631285e-02    4,677321911e-01   -6,220074296e-01    0,000000000e+00    0,000000000e+00    0,000000000e+00    0,000000000e+00
      268000000    5,332960561e-02    4,761545453e-03    6,676766276e-02   -7,671211362e-01    0,000000000e+00    0,000000000e+00    0,000000000e+00    0,000000000e+00
      282000000    5,749614537e-02   -4,489863664e-02   -3,452127576e-01   -6,828885674e-01    0,000000000e+00    0,000000000e+00    0,000000000e+00    0,000000000e+00
      296000000    2,612551674e-02   -8,465286344e-02   -6,547328234e-01   -3,977955282e-01    0,000000000e+00    0,000000000e+00    0,000000000e+00    0,000000000e+00
      310000000   -1,918926649e-02   -8,942919225e-02   -7,751008272e-01    1,104479469e-02    0,000000000e+00    0,000000000e+00    0,000000000e+00    0,000000000e+00
      324000000   -4,656623304e-02   -6,342047453e-02   -6,479479074e-01    4,297215641e-01    0,000000000e+00    0,000000000e+00    0,000000000e+00    0,000000000e+00
      338000000   -4,126549512e-02   -3,779464588e-02   -3,087434471e-01    7,091643810e-01    0,000000000e+00    0,000000000e+00    0,000000000e+00    0,000000000e+00
      352000000   -2,369686775e-02   -3,777559847e-02    1,194980219e-01    7,587249875e-01    0,000000000e+00    0,000000000e+00    0,000000000e+00    0,000000000e+00
      366000000   -2,317882888e-02   -5,620739609e-02    5,034120083e-01    5,723985434e-01    0,000000000e+00    0,000000000e+00    0,000000000e+00    0,000000000e+00
      380000000   -4,455628246e-02   -6,506916136e-02    7,266004682e-01    2,118895352e-01    0,000000000e+00    0,000000000e+00    0,000000000e+00    0,000000000e+00
      394000000   -6,638723612e-02   -5,050461367e-02    7,231162190e-01   -2,131686658e-01    0,000000000e+00    0,000000000e+00    0,000000000e+00    0,000000000e+00
      408000000   -6,767506152e-02   -2,640444413e-02    4,905711710e-01   -5,683040619e-01    0,000000000e+00    0,000000000e+00    0,000000000e+00    0,000000000e+00
      422000000   -5,298706517e-02   -1,511297654e-02    1,063539833e-01   -7,378157973e-01    0,000000000e+00    0,000000000e+00    0,000000000e+00    0,000000000e+00
      436000000   -4,658227786e-02   -1,869229041e-02   -3,059395552e-01   -6,755135655e-01    0,000000000e+00    0,000000000e+00    0,000000000e+00    0,000000000e+00
      450000000   -5,194404721e-02   -1,526078675e-02   -6,194590926e-01   -4,002938569e-01    0,000000000e+00    0,000000000e+00    0,000000000e+00    0,000000000e+00
      464000000   -5,028096586e-02    5,583854392e-03   -7,297102213e-01    3,198309336e-03    0,000000000e+00    0,000000000e+00    0,000000000e+00    0,000000000e+00
      478000000   -2,077200264e-02    2,638681978e-02   -5,987320542e-01    3,969593942e-01    0,000000000e+00    0,000000000e+00    0,000000000e+00    0,000000000e+00
      492000000    2,822101675e-02    1,441234257e-02   -2,802760899e-01    6,438294649e-01    0,000000000e+00    0,000000000e+00    0,000000000e+00    0,000000000e+00
      506000000    5,864312127e-02   -3,698903322e-02    1,045595407e-01    6,801856160e-01    0,000000000e+00    0,000000000e+00    0,000000000e+00    0,000000000e+00
      520000000    4,477927461e-02   -1,027894393e-01    4,426520169e-01    5,188091397e-01    0,000000000e+00    0,000000000e+00    0,000000000e+00    0,000000000e+00
      534000000   -1,244284213e-02   -1,432426125e-01    6,494711637e-01    2,068361193e-01    0,000000000e+00    0,000000000e+00    0,000000000e+00    0,000000000e+00
      548000000   -8,076034486e-02   -1,391992271e-01    6,605184078e-01   -1,752314419e-01    0,000000000e+00    0,000000000e+00    0,000000000e+00    0,000000000e+00
      562000000   -1,297800690e-01   -9,796099365e-02    4,521459937e-01   -5,083634257e-01    0,000000000e+00    0,000000000e+00    0,000000000e+00    0,000000000e+00
      576000000   -1,474628001e-01   -4,045140371e-02    8,529893309e-02   -6,619350314e-01    0,000000000e+00    0,000000000e+00    0,000000000e+00    0,000000000e+00
      590000000   -1,315200627e-01    2,370023541e-02   -2,960950136e-01   -5,683004260e-01    0,000000000e+00    0,000000000e+00    0,000000000e+00    0,000000000e+00
      604000000   -5,057638884e-02    6,947293878e-02   -5,032292008e-01   -2,721472979e-01    0,000000000e+00    0,000000000e+00    0,000000000e+00    0,000000000e+00
      618000000    3,912309557e-02   -1,316978876e-02   -4,924192727e-01   -2,914206684e-02    0,000000000e+00    0,000000000e+00    0,000000000e+00    0,000000000e+00
      632000000   -3,884408996e-02   -9,830098599e-02   -5,088345408e-01    1,730254441e-01    0,000000000e+00    0,000000000e+00    0,000000000e+00    0,000000000e+00
      646000000   -1,022259519e-01   -4,394571111e-02   -3,801255524e-01    4,659027755e-01    0,000000000e+00    0,000000000e+00    0,000000000e+00    0,000000000e+00
      660000000   -7,549723983e-02    7,743220776e-03   -5,756867304e-02    6,216852069e-01    0,000000000e+00    0,000000000e+00    0,000000000e+00    0,000000000e+00
      674000000   -3,357577324e-02    7,749103941e-03    2,950348258e-01    5,550222993e-01    0,000000000e+00    0,000000000e+00    0,000000000e+00    0,000000000e+00
      688000000   -1,551448088e-02   -1,543409470e-02    5,458325148e-01    3,060576320e-01    0,000000000e+00    0,000000000e+00    0,000000000e+00    0,000000000e+00
      702000000   -1,300123055e-02   -3,196481615e-02    6,197598577e-01   -4,188634455e-02    0,000000000e+00    0,000000000e+00    0,000000000e+00    0,000000000e+00
      716000000   -7,595536299e-03   -4,784176871e-02    4,931662381e-01   -3,668940961e-01    0,000000000e+00    0,000000000e+00    0,000000000e+00    0,000000000e+00
      730000000   -5,893204361e-03   -7,507078350e-02    2,132547647e-01   -5,677187443e-01    0,000000000e+00    0,000000000e+00    0,000000000e+00    0,000000000e+00
      744000000   -2,505873144e-02   -1,126443073e-01   -1,216293648e-01   -5,898554921e-01    0,000000000e+00    0,000000000e+00    0,000000000e+00    0,000000000e+00
      758000000   -7,611376047e-02   -1,342965364e-01   -4,194597602e-01   -4,339891672e-01    0,000000000e+00    0,000000000e+00    0,000000000e+00    0,000000000e+00
      772000000   -1,365696937e-01   -1,157982349e-01   -5,948303938e-01   -1,418449879e-01    0,000000000e+00    0,000000000e+00    0,000000000e+00    0,000000000e+00
      786000000   -1,734906584e-01   -5,724172667e-02   -5,829100013e-01    2,095602453e-01    0,000000000e+00    0,000000000e+00    0,000000000e+00    0,000000000e+00
      800000000   -1,608274728e-01    8,542662486e-03   -3,741435409e-01    4,963336289e-01    0,000000000e+00    0,000000000e+00    0,000000000e+00    0,000000000e+00
      814000000   -1,138714403e-01    4,372384027e-02   -4,494969547e-02    6,160196066e-01    0,000000000e+00    0,000000000e+00    0,000000000e+00    0,000000000e+00
      828000000   -6,758590043e-02    4,444656521e-02    2,866256237e-01    5,413291454e-01    0,000000000e+00    0,000000000e+00    0,000000000e+00    0,000000000e+00
      842000000   -3,783253208e-02    2,769800276e-02    5,209757686e-01    3,058716357e-01    0,000000000e+00    0,000000000e+00    0,000000000e+00    0,000000000e+00
      856000000   -1,821515337e-02    1,090769470e-02    5,962823629e-01   -1,391480118e-02    0,000000000e+00    0,000000000e+00    0,000000000e+00    0,000000000e+00
      870000000    2,256659936e-04   -1,226332691e-02    4,878358543e-01   -3,179908097e-01    0,000000000e+00    0,000000000e+00    0,000000000e+00    0,000000000e+00
      884000000    1,171792485e-02   -5,024582148e-02    2,426103503e-01   -5,141469836e-01    0,000000000e+00    0,000000000e+00    0,000000000e+00    0,000000000e+00
      898000000   -4,008947406e-03   -1,006621942e-01   -5,707558617e-02   -5,556286573e-01    0,000000000e+00    0,000000000e+00    0,000000000e+00    0,000000000e+00
      912000000   -6,148995459e-02   -1,310881972e-01   -3,902907372e-01   -4,079061151e-01    0,000000000e+00    0,000000000e+00    0,000000000e+00    0,000000000e+00
      926000000   -1,239313036e-01   -1,194256470e-01   -5,659182668e-01   -1,475364268e-01    0,000000000e+00    0,000000000e+00    0,000000000e+00    0,000000000e+00
      940000000   -1,651116610e-01   -6,540603936e-02   -5,698257089e-01    1,932885200e-01    0,000000000e+00    0,000000000e+00    0,000000000e+00    0,000000000e+00
      954000000   -1,474238187e-01   -4,617426544e-03   -3,731098473e-01    4,830927849e-01    0,000000000e+00    0,000000000e+00    0,000000000e+00    0,000000000e+00
      968000000   -9,684652835e-02    2,232375741e-02   -5,038925633e-02    6,135720611e-01    0,000000000e+00    0,000000000e+00    0,000000000e+00    0,000000000e+00
      982000000   -5,804886669e-02    4,773074761e-03    2,820565701e-01    5,513471961e-01    0,000000000e+00    0,000000000e+00    0,000000000e+00    0,000000000e+00
      996000000   -4,431397468e-02   -2,968923189e-02    5,230916142e-01    3,268059492e-01    0,000000000e+00    0,000000000e+00    0,000000000e+00    0,000000000e+00
     1010000000   -6,424352527e-02   -6,610544771e-02    6,071946621e-01    1,357038971e-02    0,000000000e+00    0,000000000e+00    0,000000000e+00    0,000000000e+00
     1024000000   -1,003139541e-01   -8,143095672e-02    5,135319233e-01   -2,823267579e-01    0,000000000e+00    0,000000000e+00    0,000000000e+00    0,000000000e+00
     1038000000   -1,385190338e-01   -5,765138194e-02    2,924574316e-01   -4,693227708e-01    0,000000000e+00    0,000000000e+00    0,000000000e+00    0,000000000e+00
     1052000000   -1,466428638e-01   -1,191467163e-03    3,329655901e-02   -5,235591531e-01    0,000000000e+00    0,000000000e+00    0,000000000e+00    0,000000000e+00
     1066000000   -1,070333943e-01    3,698550165e-02   -2,057340741e-01   -4,664182365e-01    0,000000000e+00    0,000000000e+00    0,000000000e+00    0,000000000e+00
     1080000000   -5,135754496e-02    2,613731474e-02   -4,184305966e-01   -2,975004017e-01    0,000000000e+00    0,000000000e+00    0,000000000e+00    0,000000000e+00
     1094000000   -3,672534972e-02   -6,552000530e-03   -5,186264515e-01   -2,261672541e-02    0,000000000e+00    0,000000000e+00    0,000000000e+00    0,000000000e+00
     1108000000   -3,193620965e-02   -3,017534316e-02   -4,427931607e-01    2,824032605e-01    0,000000000e+00    0,000000000e+00    0,000000000e+00    0,000000000e+00
     1122000000   -2,828726545e-02   -5,911615491e-02   -1,864069551e-01    4,975731969e-01    0,000000000e+00    0,000000000e+00    0,000000000e+00    0,000000000e+00
     1136000000   -4,629908502e-02   -9,403966367e-02    1,521755308e-01    5,216873884e-01    0,000000000e+00    0,000000000e+00    0,000000000e+00    0,000000000e+00
     1150000000   -7,938876003e-02   -1,233825833e-01    4,523468316e-01    3,446576893e-01    0,000000000e+00    0,000000000e+00    0,000000000e+00    0,000000000e+00
     1164000000   -1,377671808e-01   -1,234799400e-01    6,116331816e-01    1,370939612e-02    0,000000000e+00    0,000000000e+00    0,000000000e+00    0,000000000e+00
     1178000000   -1,736978740e-01   -8,756435663e-02    5,392061472e-01   -3,718631566e-01    0,000000000e+00    0,000000000e+00    0,000000000e+00    0,000000000e+00
     1192000000   -1,818965822e-01   -5,682225525e-02    2,411397398e-01   -6,363923550e-01    0,000000000e+00    0,000000000e+00    0,000000000e+00    0,000000000e+00
     1206000000   -1,901306510e-01   -5,779755488e-02   -1,397181898e-01   -6,632865667e-01    0,000000000e+00    0,000000000e+00    0,000000000e+00    0,000000000e+00
     1220000000   -2,495214641e-01   -1,615569554e-02   -4,166279137e-01   -4,809888303e-01    0,000000000e+00    0,000000000e+00    0,000000000e+00    0,000000000e+00
     1234000000   -2,377669960e-01    1,167794615e-01   -5,558788180e-01   -2,475920320e-01    0,000000000e+00    0,000000000e+00    0,000000000e+00    0,000000000e+00
     1248000000   -1,159579605e-01    1,765646935e-01   -6,039074063e-01    2,029003203e-02    0,000000000e+00    0,000000000e+00    0,000000000e+00    0,000000000e+00
     1262000000   -3,034560475e-03    1,330152750e-01   -5,050042868e-01    2,972819209e-01    0,000000000e+00    0,000000000e+00    0,000000000e+00    0,000000000e+00
     1276000000    5,733210966e-02    4,111624137e-02   -2,806289792e-01    4,861355722e-01    0,000000000e+00    0,000000000e+00    0,000000000e+00    0,000000000e+00
     1290000000    7,161808014e-02   -6,899790466e-02    9,991347790e-03    5,484001040e-01    0,000000000e+00    0,000000000e+00    0,000000000e+00    0,000000000e+00
     1304000000    2,016027272e-02   -1,777738929e-01    2,982339859e-01    4,767622352e-01    0,000000000e+00    0,000000000e+00    0,000000000e+00    0,000000000e+00
     1318000000   -9,100363404e-02   -2,496112287e-01    5,413437486e-01    2,795204818e-01    0,000000000e+00    0,000000000e+00    0,000000000e+00    0,000000000e+00
     1332000000   -2,424926460e-01   -2,463196367e-01    6,467573643e-01   -4,705851898e-02    0,000000000e+00    0,000000000e+00    0,000000000e+00    0,000000000e+00
     1346000000   -3,559637368e-01   -1,382836998e-01    5,533428788e-01   -4,069397748e-01    0,000000000e+00    0,000000000e+00    0,000000000e+00    0,000000000e+00
     1360000000   -3,863518834e-01    7,179468870e-03    2,595165074e-01   -6,402302384e-01    0,000000000e+00    0,000000000e+00    0,000000000e+00    0,000000000e+00
     1374000000   -3,257016242e-01    1,182149798e-01   -9,931533039e-02   -6,264110804e-01    0,000000000e+00    0,000000000e+00    0,000000000e+00    0,000000000e+00
     1388000000   -2,388730198e-01    1,632468253e-01   -3,775177002e-01   -4,217036963e-01    0,000000000e+00    0,000000000e+00    0,000000000e+00    0,000000000e+00
     1402000000   -1,522505432e-01    1,694376469e-01   -4,746200144e-01   -1,098710150e-01    0,000000000e+00    0,000000000e+00    0,000000000e+00    0,000000000e+00
     1416000000   -8,863143623e-02    1,412149966e-01   -3,963289559e-01    2,013669014e-01    0,000000000e+00    0,000000000e+00    0,000000000e+00    0,000000000e+00
     1430000000   -3,166218847e-02    8,872397244e-02   -1,981274188e-01    4,435044825e-01    0,000000000e+00    0,000000000e+00    0,000000000e+00    0,000000000e+00
     1444000000   -1,505894586e-02    7,187599782e-03    1,086040139e-01    5,261393189e-01    0,000000000e+00    0,000000000e+00    0,000000000e+00    0,000000000e+00
     1458000000   -3,944952413e-02   -8,331833035e-02    4,408298135e-01    4,858465195e-01    0,000000000e+00    0,000000000e+00    0,000000000e+00    0,000000000e+00
     1472000000   -1,171335131e-01   -1,424724013e-01    7,322216630e-01    3,100670278e-01    0,000000000e+00    0,000000000e+00    0,000000000e+00    0,000000000e+00
     1486000000   -2,353460044e-01   -1,460633874e-01    9,120336175e-01   -4,256812111e-02    0,000000000e+00    0,000000000e+00    0,000000000e+00    0,000000000e+00
     1500000000   -3,050628006e-01   -6,597471982e-02    8,482741714e-01   -4,280662537e-01    0,000000000e+00    0,000000000e+00    0,000000000e+00    0,000000000e+00
