! NanoVNA-App
! Date: 2025-09-25 15:01:42
! Start: 100MHz Stop: 1,5GHz Points: 101
! S-Parameter data: F S11 S21 S12 S22
# Hz S RI R 50
!     Frequency           S11_Real           S11_Imag           S21_Real           S21_Imag           S12_Real           S12_Imag           S22_Real           S22_Imag
      100000000    3,557455912e-02    2,737521380e-02    4,407879412e-01   -6,695932150e-01    0,000000000e+00    0,000000000e+00    0,000000000e+00    0,000000000e+00
      114000000    6,071881205e-02    2,197959693e-03    1,288474817e-02   -7,953979969e-01    0,000000000e+00    0,000000000e+00    0,000000000e+00    0,000000000e+00
      128000000    6,838098168e-02   -4,224405438e-02   -4,082046747e-01   -6,780076027e-01    0,000000000e+00    0,000000000e+00    0,000000000e+00    0,000000000e+00
      142000000    4,347359762e-02   -8,881565928e-02   -7,052759528e-01   -3,608615100e-01    0,000000000e+00    0,000000000e+00    0,000000000e+00    0,000000000e+00
      156000000   -8,873536251e-03   -1,103751361e-01   -7,942714691e-01    6,792989373e-02    0,000000000e+00    0,000000000e+00    0,000000000e+00    0,000000000e+00
      170000000   -6,263911724e-02   -9,177021682e-02   -6,370640993e-01    4,862797260e-01    0,000000000e+00    0,000000000e+00    0,000000000e+00    0,000000000e+00
      184000000   -8,859292418e-02   -4,769062623e-02   -2,732188702e-01    7,562547326e-01    0,000000000e+00    0,000000000e+00    0,000000000e+00    0,000000000e+00
      198000000   -8,276818693e-02   -6,421766244e-03    1,795917004e-01    7,821657658e-01    0,000000000e+00    0,000000000e+00    0,000000000e+00    0,000000000e+00
      212000000   -6,275220960e-02    1,806350425e-02    5,708358288e-01    5,583184361e-01    0,000000000e+00    0,000000000e+00    0,000000000e+00    0,000000000e+00
      226000000   -4,150678962e-02    3,180732578e-02    7,767213583e-01    1,621174812e-01    0,000000000e+00    0,000000000e+00    0,000000000e+00    0,000000000e+00
      240000000   -1,491653360e-02    4,129817337e-02    7,360142469e-01   -2,785568237e-01    0,000000000e+00    0,000000000e+00    0,000000000e+00    0,000000000e+00
      254000000    2,136356942e-02    3,630791232e-02    4,678570628e-01   -6,220345497e-01    0,000000000e+00    0,000000000e+00    0,000000000e+00    0,000000000e+00
      268000000    5,331677943e-02    4,733762238e-03    6,671734154e-02   -7,673348188e-01    0,000000000e+00    0,000000000e+00    0,000000000e+00    0,000000000e+00
      282000000    5,745919421e-02   -4,497203976e-02   -3,453164995e-01   -6,821053028e-01    0,000000000e+00    0,000000000e+00    0,000000000e+00    0,000000000e+00
      296000000    2,606366388e-02   -8,460614830e-02   -6,552166939e-01   -3,977112174e-01    0,000000000e+00    0,000000000e+00    0,000000000e+00    0,000000000e+00
      310000000   -1,883405633e-02   -8,935087919e-02   -7,745794058e-01    9,950350970e-03    0,000000000e+00    0,000000000e+00    0,000000000e+00    0,000000000e+00
      324000000   -4,652967677e-02   -6,359796226e-02   -6,482004523e-01    4,294108152e-01    0,000000000e+00    0,000000000e+00    0,000000000e+00    0,000000000e+00
      338000000   -4,130239040e-02   -3,768634796e-02   -3,110555112e-01    7,078021765e-01    0,000000000e+00    0,000000000e+00    0,000000000e+00    0,000000000e+00
      352000000   -2,358268388e-02   -3,788512945e-02    1,199082881e-01    7,587462664e-01    0,000000000e+00    0,000000000e+00    0,000000000e+00    0,000000000e+00
      366000000   -2,325795591e-02   -5,627266690e-02    5,023595691e-01    5,712671280e-01    0,000000000e+00    0,000000000e+00    0,000000000e+00    0,000000000e+00
      380000000   -4,479811341e-02   -6,528519094e-02    7,263743281e-01    2,119569182e-01    0,000000000e+00    0,000000000e+00    0,000000000e+00    0,000000000e+00
      394000000   -6,655357033e-02   -5,088688433e-02    7,230204344e-01   -2,140422016e-01    0,000000000e+00    0,000000000e+00    0,000000000e+00    0,000000000e+00
      408000000   -6,752607971e-02   -2,666229755e-02    4,901546836e-01   -5,689993501e-01    0,000000000e+00    0,000000000e+00    0,000000000e+00    0,000000000e+00
      422000000   -5,333600938e-02   -1,520545501e-02    1,055764034e-01   -7,388687134e-01    0,000000000e+00    0,000000000e+00    0,000000000e+00    0,000000000e+00
      436000000   -4,656924680e-02   -1,854635589e-02   -3,065431714e-01   -6,760837436e-01    0,000000000e+00    0,000000000e+00    0,000000000e+00    0,000000000e+00
      450000000   -5,208180100e-02   -1,545539685e-02   -6,191456318e-01   -4,002741873e-01    0,000000000e+00    0,000000000e+00    0,000000000e+00    0,000000000e+00
      464000000   -5,036582053e-02    5,768252537e-03   -7,296658158e-01    3,305518068e-03    0,000000000e+00    0,000000000e+00    0,000000000e+00    0,000000000e+00
      478000000   -2,072982490e-02    2,645176649e-02   -5,986467600e-01    3,968495131e-01    0,000000000e+00    0,000000000e+00    0,000000000e+00    0,000000000e+00
      492000000    2,848305181e-02    1,457170956e-02   -2,805961370e-01    6,445211172e-01    0,000000000e+00    0,000000000e+00    0,000000000e+00    0,000000000e+00
      506000000    5,848563090e-02   -3,740495443e-02    1,044741273e-01    6,801213622e-01    0,000000000e+00    0,000000000e+00    0,000000000e+00    0,000000000e+00
      520000000    4,415265471e-02   -1,032581031e-01    4,462104142e-01    5,203122497e-01    0,000000000e+00    0,000000000e+00    0,000000000e+00    0,000000000e+00
      534000000   -1,246944349e-02   -1,437092423e-01    6,494693756e-01    2,059057206e-01    0,000000000e+00    0,000000000e+00    0,000000000e+00    0,000000000e+00
      548000000   -8,132546395e-02   -1,393807530e-01    6,602460146e-01   -1,755112261e-01    0,000000000e+00    0,000000000e+00    0,000000000e+00    0,000000000e+00
      562000000   -1,293029785e-01   -9,767550230e-02    4,525105953e-01   -5,079911947e-01    0,000000000e+00    0,000000000e+00    0,000000000e+00    0,000000000e+00
      576000000   -1,477777660e-01   -4,129316285e-02    8,491587639e-02   -6,634458899e-01    0,000000000e+00    0,000000000e+00    0,000000000e+00    0,000000000e+00
      590000000   -1,315468997e-01    2,362762205e-02   -2,955451012e-01   -5,710764527e-01    0,000000000e+00    0,000000000e+00    0,000000000e+00    0,000000000e+00
      604000000   -5,056549236e-02    6,948916614e-02   -5,026352406e-01   -2,722948492e-01    0,000000000e+00    0,000000000e+00    0,000000000e+00    0,000000000e+00
      618000000    3,889071196e-02   -1,231474523e-02   -4,924915135e-01   -2,835089713e-02    0,000000000e+00    0,000000000e+00    0,000000000e+00    0,000000000e+00
      632000000   -3,827498481e-02   -9,903917462e-02   -5,081019402e-01    1,725933850e-01    0,000000000e+00    0,000000000e+00    0,000000000e+00    0,000000000e+00
      646000000   -1,016543955e-01   -4,343525320e-02   -3,806915581e-01    4,658236802e-01    0,000000000e+00    0,000000000e+00    0,000000000e+00    0,000000000e+00
      660000000   -7,530346513e-02    7,247055415e-03   -5,823824182e-02    6,234021187e-01    0,000000000e+00    0,000000000e+00    0,000000000e+00    0,000000000e+00
      674000000   -3,365350142e-02    7,023147773e-03    2,942445278e-01    5,540505052e-01    0,000000000e+00    0,000000000e+00    0,000000000e+00    0,000000000e+00
      688000000   -1,592397131e-02   -1,430722512e-02    5,458813310e-01    3,058937192e-01    0,000000000e+00    0,000000000e+00    0,000000000e+00    0,000000000e+00
      702000000   -1,161071844e-02   -3,241627663e-02    6,176981330e-01   -3,690592200e-02    0,000000000e+00    0,000000000e+00    0,000000000e+00    0,000000000e+00
      716000000   -7,882636972e-03   -4,870053753e-02    4,936534166e-01   -3,666574359e-01    0,000000000e+00    0,000000000e+00    0,000000000e+00    0,000000000e+00
      730000000   -6,363423076e-03   -7,534548640e-02    2,132397741e-01   -5,678578615e-01    0,000000000e+00    0,000000000e+00    0,000000000e+00    0,000000000e+00
      744000000   -2,472593077e-02   -1,123858690e-01   -1,215148717e-01   -5,898586512e-01    0,000000000e+00    0,000000000e+00    0,000000000e+00    0,000000000e+00
      758000000   -7,558611780e-02   -1,343660802e-01   -4,189463258e-01   -4,345555305e-01    0,000000000e+00    0,000000000e+00    0,000000000e+00    0,000000000e+00
      772000000   -1,364003569e-01   -1,159346998e-01   -5,948718190e-01   -1,416836381e-01    0,000000000e+00    0,000000000e+00    0,000000000e+00    0,000000000e+00
      786000000   -1,732129157e-01   -5,710946396e-02   -5,831030011e-01    2,090507448e-01    0,000000000e+00    0,000000000e+00    0,000000000e+00    0,000000000e+00
      800000000   -1,607657224e-01    8,316242136e-03   -3,743845224e-01    4,969038665e-01    0,000000000e+00    0,000000000e+00    0,000000000e+00    0,000000000e+00
      814000000   -1,135953069e-01    4,456914961e-02   -4,608704150e-02    6,162405610e-01    0,000000000e+00    0,000000000e+00    0,000000000e+00    0,000000000e+00
      828000000   -6,781253219e-02    4,448773712e-02    2,856758833e-01    5,415014029e-01    0,000000000e+00    0,000000000e+00    0,000000000e+00    0,000000000e+00
      842000000   -3,796352819e-02    2,772840671e-02    5,219954252e-01    3,066141009e-01    0,000000000e+00    0,000000000e+00    0,000000000e+00    0,000000000e+00
      856000000   -1,885551214e-02    1,101594977e-02    5,960448980e-01   -1,337687112e-02    0,000000000e+00    0,000000000e+00    0,000000000e+00    0,000000000e+00
      870000000    3,950465180e-04   -1,232445240e-02    4,871445596e-01   -3,180359602e-01    0,000000000e+00    0,000000000e+00    0,000000000e+00    0,000000000e+00
      884000000    1,186466031e-02   -5,135367811e-02    2,429518253e-01   -5,139644146e-01    0,000000000e+00    0,000000000e+00    0,000000000e+00    0,000000000e+00
      898000000   -4,597428720e-03   -9,953416884e-02   -6,034870073e-02   -5,547713041e-01    0,000000000e+00    0,000000000e+00    0,000000000e+00    0,000000000e+00
      912000000   -6,255997717e-02   -1,310127079e-01   -3,988987505e-01   -4,201327264e-01    0,000000000e+00    0,000000000e+00    0,000000000e+00    0,000000000e+00
      926000000   -1,253971756e-01   -1,202748343e-01   -5,698680878e-01   -1,486842185e-01    0,000000000e+00    0,000000000e+00    0,000000000e+00    0,000000000e+00
      940000000   -1,629441828e-01   -6,638096273e-02   -5,681851506e-01    1,929998696e-01    0,000000000e+00    0,000000000e+00    0,000000000e+00    0,000000000e+00
      954000000   -1,502703428e-01   -5,774440942e-04   -3,731875122e-01    4,847229421e-01    0,000000000e+00    0,000000000e+00    0,000000000e+00    0,000000000e+00
      968000000   -1,007520705e-01    2,318580449e-02   -4,919899255e-02    6,137339473e-01    0,000000000e+00    0,000000000e+00    0,000000000e+00    0,000000000e+00
      982000000   -5,549511686e-02    8,229655214e-03    2,823292017e-01    5,523901582e-01    0,000000000e+00    0,000000000e+00    0,000000000e+00    0,000000000e+00
      996000000   -4,439143836e-02   -2,988818474e-02    5,242484808e-01    3,258181810e-01    0,000000000e+00    0,000000000e+00    0,000000000e+00    0,000000000e+00
     1010000000   -6,011295319e-02   -6,700474024e-02    6,066142917e-01    1,302462537e-02    0,000000000e+00    0,000000000e+00    0,000000000e+00    0,000000000e+00
     1024000000   -1,017622203e-01   -7,802151144e-02    5,135607719e-01   -2,803567350e-01    0,000000000e+00    0,000000000e+00    0,000000000e+00    0,000000000e+00
     1038000000   -1,385893673e-01   -5,410078540e-02    2,924550176e-01   -4,712530971e-01    0,000000000e+00    0,000000000e+00    0,000000000e+00    0,000000000e+00
     1052000000   -1,508293152e-01   -3,508665599e-03    3,405690193e-02   -5,262794495e-01    0,000000000e+00    0,000000000e+00    0,000000000e+00    0,000000000e+00
     1066000000   -1,070384160e-01    4,215919971e-02   -2,110418528e-01   -4,638161361e-01    0,000000000e+00    0,000000000e+00    0,000000000e+00    0,000000000e+00
     1080000000   -5,135665461e-02    2,656246349e-02   -4,159364998e-01   -2,989604771e-01    0,000000000e+00    0,000000000e+00    0,000000000e+00    0,000000000e+00
     1094000000   -3,354250640e-02   -3,405358642e-03   -5,189831853e-01   -2,248321660e-02    0,000000000e+00    0,000000000e+00    0,000000000e+00    0,000000000e+00
     1108000000   -3,265050426e-02   -2,912604995e-02   -4,408821762e-01    2,850802839e-01    0,000000000e+00    0,000000000e+00    0,000000000e+00    0,000000000e+00
     1122000000   -3,588350117e-02   -5,670941249e-02   -1,892001331e-01    4,967108667e-01    0,000000000e+00    0,000000000e+00    0,000000000e+00    0,000000000e+00
     1136000000   -4,410301149e-02   -9,540305287e-02    1,495217681e-01    5,189227462e-01    0,000000000e+00    0,000000000e+00    0,000000000e+00    0,000000000e+00
     1150000000   -8,197560161e-02   -1,197961047e-01    4,510280490e-01    3,426969647e-01    0,000000000e+00    0,000000000e+00    0,000000000e+00    0,000000000e+00
     1164000000   -1,408859640e-01   -1,184513643e-01    6,125383973e-01    1,083847880e-02    0,000000000e+00    0,000000000e+00    0,000000000e+00    0,000000000e+00
     1178000000   -1,773972362e-01   -8,708263189e-02    5,401725173e-01   -3,733628988e-01    0,000000000e+00    0,000000000e+00    0,000000000e+00    0,000000000e+00
     1192000000   -1,768859178e-01   -5,501030385e-02    2,385598719e-01   -6,357842088e-01    0,000000000e+00    0,000000000e+00    0,000000000e+00    0,000000000e+00
     1206000000   -1,932848841e-01   -5,859703571e-02   -1,443922073e-01   -6,613386869e-01    0,000000000e+00    0,000000000e+00    0,000000000e+00    0,000000000e+00
     1220000000   -2,553058863e-01   -1,473651826e-02   -4,218075871e-01   -4,829042852e-01    0,000000000e+00    0,000000000e+00    0,000000000e+00    0,000000000e+00
     1234000000   -2,457515150e-01    1,187877953e-01   -5,629833341e-01   -2,457367778e-01    0,000000000e+00    0,000000000e+00    0,000000000e+00    0,000000000e+00
     1248000000   -1,126086786e-01    1,732208878e-01   -6,040174961e-01    1,813135110e-02    0,000000000e+00    0,000000000e+00    0,000000000e+00    0,000000000e+00
     1262000000   -6,113729905e-03    1,299818903e-01   -5,053520799e-01    2,964085639e-01    0,000000000e+00    0,000000000e+00    0,000000000e+00    0,000000000e+00
     1276000000    6,040367112e-02    4,564080387e-02   -2,809909582e-01    4,921166599e-01    0,000000000e+00    0,000000000e+00    0,000000000e+00    0,000000000e+00
     1290000000    7,494132221e-02   -7,142623514e-02    1,047888864e-02    5,475072265e-01    0,000000000e+00    0,000000000e+00    0,000000000e+00    0,000000000e+00
     1304000000    1,599646360e-02   -1,849383116e-01    2,970622480e-01    4,772457182e-01    0,000000000e+00    0,000000000e+00    0,000000000e+00    0,000000000e+00
     1318000000   -9,426157922e-02   -2,574298680e-01    5,383782983e-01    2,686285973e-01    0,000000000e+00    0,000000000e+00    0,000000000e+00    0,000000000e+00
     1332000000   -2,423429042e-01   -2,473806292e-01    6,553047895e-01   -5,385079980e-02    0,000000000e+00    0,000000000e+00    0,000000000e+00    0,000000000e+00
     1346000000   -3,631972373e-01   -1,415476054e-01    5,488764048e-01   -4,139861465e-01    0,000000000e+00    0,000000000e+00    0,000000000e+00    0,000000000e+00
     1360000000   -3,876903951e-01    1,075687353e-02    2,536876798e-01   -6,299223304e-01    0,000000000e+00    0,000000000e+00    0,000000000e+00    0,000000000e+00
     1374000000   -3,271443546e-01    1,216093823e-01   -1,045719385e-01   -6,246665716e-01    0,000000000e+00    0,000000000e+00    0,000000000e+00    0,000000000e+00
     1388000000   -2,370409369e-01    1,706901938e-01   -3,798979223e-01   -4,127545953e-01    0,000000000e+00    0,000000000e+00    0,000000000e+00    0,000000000e+00
     1402000000   -1,494922936e-01    1,695276946e-01   -4,774424136e-01   -1,138868108e-01    0,000000000e+00    0,000000000e+00    0,000000000e+00    0,000000000e+00
     1416000000   -8,273611963e-02    1,424320489e-01   -3,867747784e-01    2,005417347e-01    0,000000000e+00    0,000000000e+00    0,000000000e+00    0,000000000e+00
     1430000000   -2,942710184e-02    9,370573610e-02   -1,510537565e-01    4,367690980e-01    0,000000000e+00    0,000000000e+00    0,000000000e+00    0,000000000e+00
     1444000000   -1,299364679e-02    5,378737580e-03    1,162946299e-01    5,312800407e-01    0,000000000e+00    0,000000000e+00    0,000000000e+00    0,000000000e+00
     1458000000   -4,140004143e-02   -8,360599726e-02    4,313359261e-01    4,819789529e-01    0,000000000e+00    0,000000000e+00    0,000000000e+00    0,000000000e+00
     1472000000   -1,188347861e-01   -1,516389400e-01    7,328074574e-01    2,951535881e-01    0,000000000e+00    0,000000000e+00    0,000000000e+00    0,000000000e+00
     1486000000   -2,246051729e-01   -1,422985196e-01    9,098222852e-01   -3,509319946e-02    0,000000000e+00    0,000000000e+00    0,000000000e+00    0,000000000e+00
     1500000000   -3,017217815e-01   -6,029731780e-02    8,485305905e-01   -4,321475327e-01    0,000000000e+00    0,000000000e+00    0,000000000e+00    0,000000000e+00
