! NanoVNA-App
! Date: 2025-09-25 14:55:24
! Start: 100MHz Stop: 1,5GHz Points: 101
! S-Parameter data: F S11 S21 S12 S22
# Hz S RI R 50
!     Frequency           S11_Real           S11_Imag           S21_Real           S21_Imag           S12_Real           S12_Imag           S22_Real           S22_Imag
      100000000    3,558686748e-02    2,690737508e-02    4,406847358e-01   -6,696754098e-01    0,000000000e+00    0,000000000e+00    0,000000000e+00    0,000000000e+00
      114000000    6,043061614e-02    1,700561726e-03    1,266871206e-02   -7,955045700e-01    0,000000000e+00    0,000000000e+00    0,000000000e+00    0,000000000e+00
      128000000    6,786831468e-02   -4,260257632e-02   -4,082887471e-01   -6,781093478e-01    0,000000000e+00    0,000000000e+00    0,000000000e+00    0,000000000e+00
      142000000    4,269420356e-02   -8,883845061e-02   -7,053416967e-01   -3,608024120e-01    0,000000000e+00    0,000000000e+00    0,000000000e+00    0,000000000e+00
      156000000   -9,814451449e-03   -1,099828929e-01   -7,936701775e-01    6,872899085e-02    0,000000000e+00    0,000000000e+00    0,000000000e+00    0,000000000e+00
      170000000   -6,318054348e-02   -9,082518518e-02   -6,368361115e-01    4,868907034e-01    0,000000000e+00    0,000000000e+00    0,000000000e+00    0,000000000e+00
      184000000   -8,856380731e-02   -4,643703997e-02   -2,725986540e-01    7,564735413e-01    0,000000000e+00    0,000000000e+00    0,000000000e+00    0,000000000e+00
      198000000   -8,198380470e-02   -5,295910407e-03    1,800819337e-01    7,819108367e-01    0,000000000e+00    0,000000000e+00    0,000000000e+00    0,000000000e+00
      212000000   -6,133624166e-02    1,868886873e-02    5,708974004e-01    5,577028394e-01    0,000000000e+00    0,000000000e+00    0,000000000e+00    0,000000000e+00
      226000000   -3,992537409e-02    3,164141253e-02    7,767629027e-01    1,615191996e-01    0,000000000e+00    0,000000000e+00    0,000000000e+00    0,000000000e+00
      240000000   -1,361725759e-02    4,021954164e-02    7,358314991e-01   -2,788274586e-01    0,000000000e+00    0,000000000e+00    0,000000000e+00    0,000000000e+00
      254000000    2,194231004e-02    3,463799506e-02    4,678114057e-01   -6,221638322e-01    0,000000000e+00    0,000000000e+00    0,000000000e+00    0,000000000e+00
      268000000    5,290586129e-02    2,913929289e-03    6,678677350e-02   -7,676271200e-01    0,000000000e+00    0,000000000e+00    0,000000000e+00    0,000000000e+00
      282000000    5,597424507e-02   -4,637954757e-02   -3,461546004e-01   -6,830199957e-01    0,000000000e+00    0,000000000e+00    0,000000000e+00    0,000000000e+00
      296000000    2,397532016e-02   -8,529278636e-02   -6,553999782e-01   -3,977051973e-01    0,000000000e+00    0,000000000e+00    0,000000000e+00    0,000000000e+00
      310000000   -2,100780979e-02   -8,848606795e-02   -7,747988701e-01    1,176751964e-02    0,000000000e+00    0,000000000e+00    0,000000000e+00    0,000000000e+00
      324000000   -4,801193997e-02   -6,180913374e-02   -6,481924653e-01    4,304917157e-01    0,000000000e+00    0,000000000e+00    0,000000000e+00    0,000000000e+00
      338000000   -4,132746160e-02   -3,563415632e-02   -3,107665479e-01    7,101770043e-01    0,000000000e+00    0,000000000e+00    0,000000000e+00    0,000000000e+00
      352000000   -2,257399261e-02   -3,571955487e-02    1,204952151e-01    7,576364279e-01    0,000000000e+00    0,000000000e+00    0,000000000e+00    0,000000000e+00
      366000000   -2,089835331e-02   -5,510533601e-02    5,042359233e-01    5,705918074e-01    0,000000000e+00    0,000000000e+00    0,000000000e+00    0,000000000e+00
      380000000   -4,226731509e-02   -6,502337009e-02    7,268147469e-01    2,110452205e-01    0,000000000e+00    0,000000000e+00    0,000000000e+00    0,000000000e+00
      394000000   -6,450772285e-02   -5,170664936e-02    7,224196196e-01   -2,135410309e-01    0,000000000e+00    0,000000000e+00    0,000000000e+00    0,000000000e+00
      408000000   -6,632883102e-02   -2,851345576e-02    4,884832799e-01   -5,686556697e-01    0,000000000e+00    0,000000000e+00    0,000000000e+00    0,000000000e+00
      422000000   -5,305026099e-02   -1,784030721e-02    1,052424684e-01   -7,391055822e-01    0,000000000e+00    0,000000000e+00    0,000000000e+00    0,000000000e+00
      436000000   -4,718531296e-02   -2,103549056e-02   -3,067005277e-01   -6,766492128e-01    0,000000000e+00    0,000000000e+00    0,000000000e+00    0,000000000e+00
      450000000   -5,409201980e-02   -1,587590948e-02   -6,201015711e-01   -4,001091123e-01    0,000000000e+00    0,000000000e+00    0,000000000e+00    0,000000000e+00
      464000000   -5,234640837e-02    5,424524192e-03   -7,304728031e-01    3,677322529e-03    0,000000000e+00    0,000000000e+00    0,000000000e+00    0,000000000e+00
      478000000   -2,242088132e-02    2,720599435e-02   -5,993750691e-01    3,981942832e-01    0,000000000e+00    0,000000000e+00    0,000000000e+00    0,000000000e+00
      492000000    2,683992870e-02    1,689776592e-02   -2,799676359e-01    6,454479098e-01    0,000000000e+00    0,000000000e+00    0,000000000e+00    0,000000000e+00
      506000000    5,846023560e-02   -3,416207060e-02    1,052182019e-01    6,818627119e-01    0,000000000e+00    0,000000000e+00    0,000000000e+00    0,000000000e+00
      520000000    4,488217831e-02   -9,946464002e-02    4,395511150e-01    5,180729032e-01    0,000000000e+00    0,000000000e+00    0,000000000e+00    0,000000000e+00
      534000000   -9,849893861e-03   -1,418639719e-01    6,513378620e-01    2,067195922e-01    0,000000000e+00    0,000000000e+00    0,000000000e+00    0,000000000e+00
      548000000   -7,669740915e-02   -1,397641897e-01    6,629574299e-01   -1,763687283e-01    0,000000000e+00    0,000000000e+00    0,000000000e+00    0,000000000e+00
      562000000   -1,251822859e-01   -1,026820764e-01    4,557597041e-01   -5,117728710e-01    0,000000000e+00    0,000000000e+00    0,000000000e+00    0,000000000e+00
      576000000   -1,479377598e-01   -5,021467060e-02    8,536031097e-02   -6,713640094e-01    0,000000000e+00    0,000000000e+00    0,000000000e+00    0,000000000e+00
      590000000   -1,466486752e-01    1,579120196e-02   -3,111299872e-01   -5,826000571e-01    0,000000000e+00    0,000000000e+00    0,000000000e+00    0,000000000e+00
      604000000   -7,279805094e-02    9,770595282e-02   -5,342351794e-01   -2,447115332e-01    0,000000000e+00    0,000000000e+00    0,000000000e+00    0,000000000e+00
      618000000    1,002934277e-01    6,782277022e-03   -4,246163368e-01    4,033465404e-03    0,000000000e+00    0,000000000e+00    0,000000000e+00    0,000000000e+00
      632000000   -4,978606105e-02   -1,498267949e-01   -5,171560645e-01    1,117088273e-01    0,000000000e+00    0,000000000e+00    0,000000000e+00    0,000000000e+00
      646000000   -1,299855560e-01   -3,886063769e-02   -4,136248827e-01    4,717037976e-01    0,000000000e+00    0,000000000e+00    0,000000000e+00    0,000000000e+00
      660000000   -7,860542089e-02    2,364425175e-02   -6,072409451e-02    6,422820091e-01    0,000000000e+00    0,000000000e+00    0,000000000e+00    0,000000000e+00
      674000000   -2,764734067e-02    1,552630216e-02    3,045330942e-01    5,664094687e-01    0,000000000e+00    0,000000000e+00    0,000000000e+00    0,000000000e+00
      688000000   -8,953214623e-03   -1,450135466e-02    5,571185946e-01    3,070561588e-01    0,000000000e+00    0,000000000e+00    0,000000000e+00    0,000000000e+00
      702000000   -8,256595582e-03   -3,555460274e-02    6,293740273e-01   -4,210311919e-02    0,000000000e+00    0,000000000e+00    0,000000000e+00    0,000000000e+00
      716000000   -7,471131161e-03   -5,195485055e-02    4,965409935e-01   -3,755035698e-01    0,000000000e+00    0,000000000e+00    0,000000000e+00    0,000000000e+00
      730000000   -8,345223963e-03   -7,919907570e-02    2,122182101e-01   -5,770726800e-01    0,000000000e+00    0,000000000e+00    0,000000000e+00    0,000000000e+00
      744000000   -2,869138308e-02   -1,137354448e-01   -1,294483840e-01   -5,956043005e-01    0,000000000e+00    0,000000000e+00    0,000000000e+00    0,000000000e+00
      758000000   -7,990135252e-02   -1,325553060e-01   -4,299432337e-01   -4,350769520e-01    0,000000000e+00    0,000000000e+00    0,000000000e+00    0,000000000e+00
      772000000   -1,389889121e-01   -1,116675436e-01   -6,035143733e-01   -1,356994063e-01    0,000000000e+00    0,000000000e+00    0,000000000e+00    0,000000000e+00
      786000000   -1,723216921e-01   -5,256420374e-02   -5,862081647e-01    2,205308527e-01    0,000000000e+00    0,000000000e+00    0,000000000e+00    0,000000000e+00
      800000000   -1,547433734e-01    1,219984237e-02   -3,696766198e-01    5,091882348e-01    0,000000000e+00    0,000000000e+00    0,000000000e+00    0,000000000e+00
      814000000   -1,063337848e-01    4,394906387e-02   -3,516530618e-02    6,218577623e-01    0,000000000e+00    0,000000000e+00    0,000000000e+00    0,000000000e+00
      828000000   -6,170926616e-02    3,895349428e-02    2,986342907e-01    5,412579775e-01    0,000000000e+00    0,000000000e+00    0,000000000e+00    0,000000000e+00
      842000000   -3,629073128e-02    2,079900168e-02    5,312260985e-01    2,991960049e-01    0,000000000e+00    0,000000000e+00    0,000000000e+00    0,000000000e+00
      856000000   -2,143092267e-02    4,992229864e-03    5,999833345e-01   -2,575959451e-02    0,000000000e+00    0,000000000e+00    0,000000000e+00    0,000000000e+00
      870000000   -5,750834476e-03   -1,493103802e-02    4,845530093e-01   -3,308870196e-01    0,000000000e+00    0,000000000e+00    0,000000000e+00    0,000000000e+00
      884000000    5,211581942e-03   -4,963065684e-02    2,312946469e-01   -5,218353868e-01    0,000000000e+00    0,000000000e+00    0,000000000e+00    0,000000000e+00
      898000000   -9,185312316e-03   -9,586001188e-02   -7,598526776e-02   -5,565513372e-01    0,000000000e+00    0,000000000e+00    0,000000000e+00    0,000000000e+00
      912000000   -6,390276551e-02   -1,248542070e-01   -4,026357830e-01   -4,011142850e-01    0,000000000e+00    0,000000000e+00    0,000000000e+00    0,000000000e+00
      926000000   -1,210500821e-01   -1,135901883e-01   -5,722303391e-01   -1,306171715e-01    0,000000000e+00    0,000000000e+00    0,000000000e+00    0,000000000e+00
      940000000   -1,530517489e-01   -6,070595235e-02   -5,636366606e-01    2,100517899e-01    0,000000000e+00    0,000000000e+00    0,000000000e+00    0,000000000e+00
      954000000   -1,433219463e-01   -5,755036138e-03   -3,562590778e-01    4,958611131e-01    0,000000000e+00    0,000000000e+00    0,000000000e+00    0,000000000e+00
      968000000   -9,737311304e-02    1,639793999e-02   -3,297456726e-02    6,148539782e-01    0,000000000e+00    0,000000000e+00    0,000000000e+00    0,000000000e+00
      982000000   -5,602306500e-02    9,524215711e-04    3,015368283e-01    5,396404266e-01    0,000000000e+00    0,000000000e+00    0,000000000e+00    0,000000000e+00
      996000000   -4,162938893e-02   -2,826360613e-02    5,338571668e-01    3,019923568e-01    0,000000000e+00    0,000000000e+00    0,000000000e+00    0,000000000e+00
     1010000000   -5,793786049e-02   -6,379427016e-02    5,955999494e-01   -1,539481152e-02    0,000000000e+00    0,000000000e+00    0,000000000e+00    0,000000000e+00
     1024000000   -8,785273135e-02   -8,456511050e-02    4,812221825e-01   -2,902877927e-01    0,000000000e+00    0,000000000e+00    0,000000000e+00    0,000000000e+00
     1038000000   -1,328547746e-01   -7,191870362e-02    2,761870325e-01   -4,547065794e-01    0,000000000e+00    0,000000000e+00    0,000000000e+00    0,000000000e+00
     1052000000   -1,629384160e-01   -2,086562291e-02    3,448062763e-02   -5,151075721e-01    0,000000000e+00    0,000000000e+00    0,000000000e+00    0,000000000e+00
     1066000000   -1,426916569e-01    3,348002210e-02   -2,305978239e-01   -4,606593549e-01    0,000000000e+00    0,000000000e+00    0,000000000e+00    0,000000000e+00
     1080000000   -8,255415410e-02    5,577601492e-02   -4,245882332e-01   -2,617901266e-01    0,000000000e+00    0,000000000e+00    0,000000000e+00    0,000000000e+00
     1094000000   -3,562022746e-02    4,020841792e-02   -4,829325378e-01    1,397196203e-02    0,000000000e+00    0,000000000e+00    0,000000000e+00    0,000000000e+00
     1108000000    2,385830972e-03   -6,717368495e-03   -3,824002743e-01    2,766074836e-01    0,000000000e+00    0,000000000e+00    0,000000000e+00    0,000000000e+00
     1122000000    5,148016848e-03   -6,237291917e-02   -1,586150974e-01    4,397629797e-01    0,000000000e+00    0,000000000e+00    0,000000000e+00    0,000000000e+00
     1136000000   -2,247089148e-02   -1,225921661e-01    1,249109209e-01    4,723634720e-01    0,000000000e+00    0,000000000e+00    0,000000000e+00    0,000000000e+00
     1150000000   -8,261907846e-02   -1,527488381e-01    4,044537842e-01    3,358790874e-01    0,000000000e+00    0,000000000e+00    0,000000000e+00    0,000000000e+00
     1164000000   -1,529259384e-01   -1,480800658e-01    5,780870318e-01    4,036382213e-02    0,000000000e+00    0,000000000e+00    0,000000000e+00    0,000000000e+00
     1178000000   -2,033369988e-01   -1,032289788e-01    5,409111977e-01   -3,334350288e-01    0,000000000e+00    0,000000000e+00    0,000000000e+00    0,000000000e+00
     1192000000   -2,120560408e-01   -4,756731167e-02    2,725371420e-01   -6,163085103e-01    0,000000000e+00    0,000000000e+00    0,000000000e+00    0,000000000e+00
     1206000000   -2,008605003e-01   -1,904250868e-02   -1,101953462e-01   -6,755493879e-01    0,000000000e+00    0,000000000e+00    0,000000000e+00    0,000000000e+00
     1220000000   -2,230733186e-01    6,085705012e-03   -4,331546724e-01   -5,019248128e-01    0,000000000e+00    0,000000000e+00    0,000000000e+00    0,000000000e+00
     1234000000   -2,334273905e-01    9,703596681e-02   -5,698061585e-01   -2,300883681e-01    0,000000000e+00    0,000000000e+00    0,000000000e+00    0,000000000e+00
     1248000000   -1,191133112e-01    1,782966703e-01   -5,856522322e-01    3,419020027e-02    0,000000000e+00    0,000000000e+00    0,000000000e+00    0,000000000e+00
     1262000000   -2,516434528e-03    1,438185275e-01   -4,872503877e-01    2,842986286e-01    0,000000000e+00    0,000000000e+00    0,000000000e+00    0,000000000e+00
     1276000000    6,565331668e-02    4,273829237e-02   -2,742702961e-01    4,706261158e-01    0,000000000e+00    0,000000000e+00    0,000000000e+00    0,000000000e+00
     1290000000    8,033515513e-02   -6,764658540e-02    7,073926274e-03    5,366199017e-01    0,000000000e+00    0,000000000e+00    0,000000000e+00    0,000000000e+00
     1304000000    2,826406993e-02   -1,852581054e-01    2,832077146e-01    4,701340199e-01    0,000000000e+00    0,000000000e+00    0,000000000e+00    0,000000000e+00
     1318000000   -9,102137387e-02   -2,618316412e-01    5,186273456e-01    2,671342194e-01    0,000000000e+00    0,000000000e+00    0,000000000e+00    0,000000000e+00
     1332000000   -2,421243638e-01   -2,550508678e-01    6,426614523e-01   -4,338906333e-02    0,000000000e+00    0,000000000e+00    0,000000000e+00    0,000000000e+00
     1346000000   -3,727090657e-01   -1,524540335e-01    5,458633900e-01   -3,967068195e-01    0,000000000e+00    0,000000000e+00    0,000000000e+00    0,000000000e+00
     1360000000   -3,959174752e-01   -5,527038593e-04    2,574654520e-01   -6,192752719e-01    0,000000000e+00    0,000000000e+00    0,000000000e+00    0,000000000e+00
     1374000000   -3,373899162e-01    1,236861646e-01   -9,992097318e-02   -6,148654222e-01    0,000000000e+00    0,000000000e+00    0,000000000e+00    0,000000000e+00
     1388000000   -2,466690391e-01    1,728706509e-01   -3,705209196e-01   -4,280692637e-01    0,000000000e+00    0,000000000e+00    0,000000000e+00    0,000000000e+00
     1402000000   -1,549009383e-01    1,840876490e-01   -4,695880711e-01   -1,034138203e-01    0,000000000e+00    0,000000000e+00    0,000000000e+00    0,000000000e+00
     1416000000   -7,695183903e-02    1,541529298e-01   -3,832156956e-01    1,960475892e-01    0,000000000e+00    0,000000000e+00    0,000000000e+00    0,000000000e+00
     1430000000   -2,454495430e-02    9,529523551e-02   -1,454541385e-01    4,062950909e-01    0,000000000e+00    0,000000000e+00    0,000000000e+00    0,000000000e+00
     1444000000   -4,886202049e-03    9,074259549e-03    1,101134270e-01    5,089478493e-01    0,000000000e+00    0,000000000e+00    0,000000000e+00    0,000000000e+00
     1458000000   -2,863618173e-02   -7,617564499e-02    4,253835082e-01    4,972416759e-01    0,000000000e+00    0,000000000e+00    0,000000000e+00    0,000000000e+00
     1472000000   -1,152880639e-01   -1,533757001e-01    7,072184086e-01    3,192392290e-01    0,000000000e+00    0,000000000e+00    0,000000000e+00    0,000000000e+00
     1486000000   -2,177708298e-01   -1,434875429e-01    8,938813210e-01   -1,125742029e-02    0,000000000e+00    0,000000000e+00    0,000000000e+00    0,000000000e+00
     1500000000   -3,012096584e-01   -8,144339919e-02    8,458330035e-01   -4,205439091e-01    0,000000000e+00    0,000000000e+00    0,000000000e+00    0,000000000e+00
