! NanoVNA-App
! Date: 2025-09-25 14:56:57
! Start: 100MHz Stop: 1,5GHz Points: 101
! S-Parameter data: F S11 S21 S12 S22
# Hz S RI R 50
!     Frequency           S11_Real           S11_Imag           S21_Real           S21_Imag           S12_Real           S12_Imag           S22_Real           S22_Imag
      100000000    3,560040891e-02    2,732882835e-02    4,407188892e-01   -6,695027947e-01    0,000000000e+00    0,000000000e+00    0,000000000e+00    0,000000000e+00
      114000000    6,072730199e-02    2,169685438e-03    1,298422832e-02   -7,953938842e-01    0,000000000e+00    0,000000000e+00    0,000000000e+00    0,000000000e+00
      128000000    6,832022220e-02   -4,228163511e-02   -4,082262218e-01   -6,779230237e-01    0,000000000e+00    0,000000000e+00    0,000000000e+00    0,000000000e+00
      142000000    4,345815256e-02   -8,875590563e-02   -7,050352097e-01   -3,608405292e-01    0,000000000e+00    0,000000000e+00    0,000000000e+00    0,000000000e+00
      156000000   -8,922943845e-03   -1,099730879e-01   -7,938726544e-01    6,760441512e-02    0,000000000e+00    0,000000000e+00    0,000000000e+00    0,000000000e+00
      170000000   -6,263579428e-02   -9,179084748e-02   -6,366038322e-01    4,860807061e-01    0,000000000e+00    0,000000000e+00    0,000000000e+00    0,000000000e+00
      184000000   -8,855806291e-02   -4,765507951e-02   -2,730351090e-01    7,562130690e-01    0,000000000e+00    0,000000000e+00    0,000000000e+00    0,000000000e+00
      198000000   -8,272314817e-02   -6,362551823e-03    1,795998365e-01    7,819399238e-01    0,000000000e+00    0,000000000e+00    0,000000000e+00    0,000000000e+00
      212000000   -6,268648058e-02    1,809509657e-02    5,705050826e-01    5,581668019e-01    0,000000000e+00    0,000000000e+00    0,000000000e+00    0,000000000e+00
      226000000   -4,139128327e-02    3,184616938e-02    7,766163945e-01    1,617968529e-01    0,000000000e+00    0,000000000e+00    0,000000000e+00    0,000000000e+00
      240000000   -1,479052845e-02    4,125582799e-02    7,360537052e-01   -2,786854804e-01    0,000000000e+00    0,000000000e+00    0,000000000e+00    0,000000000e+00
      254000000    2,149293385e-02    3,621267155e-02    4,679136574e-01   -6,218861938e-01    0,000000000e+00    0,000000000e+00    0,000000000e+00    0,000000000e+00
      268000000    5,332978815e-02    4,583538044e-03    6,705065817e-02   -7,674252391e-01    0,000000000e+00    0,000000000e+00    0,000000000e+00    0,000000000e+00
      282000000    5,746459216e-02   -4,509169981e-02   -3,457974792e-01   -6,830101013e-01    0,000000000e+00    0,000000000e+00    0,000000000e+00    0,000000000e+00
      296000000    2,603509836e-02   -8,480124921e-02   -6,550493836e-01   -3,977155387e-01    0,000000000e+00    0,000000000e+00    0,000000000e+00    0,000000000e+00
      310000000   -1,888564602e-02   -8,956470340e-02   -7,738017440e-01    9,757777676e-03    0,000000000e+00    0,000000000e+00    0,000000000e+00    0,000000000e+00
      324000000   -4,651077464e-02   -6,348533183e-02   -6,480370760e-01    4,293765128e-01    0,000000000e+00    0,000000000e+00    0,000000000e+00    0,000000000e+00
      338000000   -4,095276818e-02   -3,765695170e-02   -3,120650351e-01    7,078390718e-01    0,000000000e+00    0,000000000e+00    0,000000000e+00    0,000000000e+00
      352000000   -2,368361317e-02   -3,760037571e-02    1,191787496e-01    7,584543228e-01    0,000000000e+00    0,000000000e+00    0,000000000e+00    0,000000000e+00
      366000000   -2,341023646e-02   -5,612707883e-02    5,027337074e-01    5,718880296e-01    0,000000000e+00    0,000000000e+00    0,000000000e+00    0,000000000e+00
      380000000   -4,454173148e-02   -6,492715329e-02    7,263102531e-01    2,116084099e-01    0,000000000e+00    0,000000000e+00    0,000000000e+00    0,000000000e+00
      394000000   -6,603093445e-02   -5,009220168e-02    7,228919268e-01   -2,131275535e-01    0,000000000e+00    0,000000000e+00    0,000000000e+00    0,000000000e+00
      408000000   -6,742281467e-02   -2,646646835e-02    4,895177782e-01   -5,682081580e-01    0,000000000e+00    0,000000000e+00    0,000000000e+00    0,000000000e+00
      422000000   -5,279668048e-02   -1,529506128e-02    1,057531163e-01   -7,381333113e-01    0,000000000e+00    0,000000000e+00    0,000000000e+00    0,000000000e+00
      436000000   -4,627582431e-02   -1,912869886e-02   -3,056152165e-01   -6,760470867e-01    0,000000000e+00    0,000000000e+00    0,000000000e+00    0,000000000e+00
      450000000   -5,214183033e-02   -1,525189076e-02   -6,187117696e-01   -4,001130164e-01    0,000000000e+00    0,000000000e+00    0,000000000e+00    0,000000000e+00
      464000000   -5,036565661e-02    5,073928274e-03   -7,291375399e-01    3,265636275e-03    0,000000000e+00    0,000000000e+00    0,000000000e+00    0,000000000e+00
      478000000   -2,115793154e-02    2,608558908e-02   -5,988770127e-01    3,965890408e-01    0,000000000e+00    0,000000000e+00    0,000000000e+00    0,000000000e+00
      492000000    2,757186443e-02    1,470065583e-02   -2,807155848e-01    6,438781619e-01    0,000000000e+00    0,000000000e+00    0,000000000e+00    0,000000000e+00
      506000000    5,783694983e-02   -3,652787581e-02    1,039377600e-01    6,810339093e-01    0,000000000e+00    0,000000000e+00    0,000000000e+00    0,000000000e+00
      520000000    4,239993542e-02   -1,014406383e-01    4,422729611e-01    5,174077153e-01    0,000000000e+00    0,000000000e+00    0,000000000e+00    0,000000000e+00
      534000000   -1,210085675e-02   -1,420051605e-01    6,490752101e-01    2,075698823e-01    0,000000000e+00    0,000000000e+00    0,000000000e+00    0,000000000e+00
      548000000   -7,930245996e-02   -1,384306997e-01    6,616472006e-01   -1,739151031e-01    0,000000000e+00    0,000000000e+00    0,000000000e+00    0,000000000e+00
      562000000   -1,261996031e-01   -9,790342301e-02    4,557200372e-01   -5,072904229e-01    0,000000000e+00    0,000000000e+00    0,000000000e+00    0,000000000e+00
      576000000   -1,440855712e-01   -4,547558725e-02    8,891627938e-02   -6,650226712e-01    0,000000000e+00    0,000000000e+00    0,000000000e+00    0,000000000e+00
      590000000   -1,342203319e-01    1,290426590e-02   -2,933580577e-01   -5,836545825e-01    0,000000000e+00    0,000000000e+00    0,000000000e+00    0,000000000e+00
      604000000   -7,197273523e-02    6,677442044e-02   -5,254964232e-01   -2,806662321e-01    0,000000000e+00    0,000000000e+00    0,000000000e+00    0,000000000e+00
      618000000    3,596757352e-02    2,165948413e-02   -5,019322634e-01    1,004767232e-02    0,000000000e+00    0,000000000e+00    0,000000000e+00    0,000000000e+00
      632000000   -5,702183116e-03   -1,029983461e-01   -4,702937007e-01    1,727108955e-01    0,000000000e+00    0,000000000e+00    0,000000000e+00    0,000000000e+00
      646000000   -1,033260599e-01   -6,468452513e-02   -3,787617683e-01    4,423220456e-01    0,000000000e+00    0,000000000e+00    0,000000000e+00    0,000000000e+00
      660000000   -8,656185865e-02    3,940181341e-03   -6,855814904e-02    6,170615554e-01    0,000000000e+00    0,000000000e+00    0,000000000e+00    0,000000000e+00
      674000000   -3,965520486e-02    1,113712043e-02    2,871589363e-01    5,575959682e-01    0,000000000e+00    0,000000000e+00    0,000000000e+00    0,000000000e+00
      688000000   -1,588104479e-02   -9,626256302e-03    5,438128114e-01    3,104378581e-01    0,000000000e+00    0,000000000e+00    0,000000000e+00    0,000000000e+00
      702000000   -1,004607510e-02   -2,858738042e-02    6,241948009e-01   -3,688731790e-02    0,000000000e+00    0,000000000e+00    0,000000000e+00    0,000000000e+00
      716000000   -5,644264165e-03   -4,694026336e-02    4,959778488e-01   -3,647740781e-01    0,000000000e+00    0,000000000e+00    0,000000000e+00    0,000000000e+00
      730000000   -2,968032844e-03   -7,626099139e-02    2,171124071e-01   -5,680032969e-01    0,000000000e+00    0,000000000e+00    0,000000000e+00    0,000000000e+00
      744000000   -2,440209500e-02   -1,138603538e-01   -1,204280704e-01   -5,914208293e-01    0,000000000e+00    0,000000000e+00    0,000000000e+00    0,000000000e+00
      758000000   -7,685361058e-02   -1,357715726e-01   -4,195385277e-01   -4,372644126e-01    0,000000000e+00    0,000000000e+00    0,000000000e+00    0,000000000e+00
      772000000   -1,382456124e-01   -1,172935516e-01   -5,967993140e-01   -1,431360394e-01    0,000000000e+00    0,000000000e+00    0,000000000e+00    0,000000000e+00
      786000000   -1,751272231e-01   -5,675262213e-02   -5,857144594e-01    2,098760456e-01    0,000000000e+00    0,000000000e+00    0,000000000e+00    0,000000000e+00
      800000000   -1,605672538e-01    1,102458034e-02   -3,753544986e-01    4,986945987e-01    0,000000000e+00    0,000000000e+00    0,000000000e+00    0,000000000e+00
      814000000   -1,112870649e-01    4,524000362e-02   -4,473378137e-02    6,169858575e-01    0,000000000e+00    0,000000000e+00    0,000000000e+00    0,000000000e+00
      828000000   -6,534736603e-02    4,378297180e-02    2,862978578e-01    5,421265364e-01    0,000000000e+00    0,000000000e+00    0,000000000e+00    0,000000000e+00
      842000000   -3,583170846e-02    2,664564177e-02    5,235475898e-01    3,061837554e-01    0,000000000e+00    0,000000000e+00    0,000000000e+00    0,000000000e+00
      856000000   -1,872251369e-02    8,422328159e-03    5,964834690e-01   -1,494043600e-02    0,000000000e+00    0,000000000e+00    0,000000000e+00    0,000000000e+00
      870000000   -1,890410553e-03   -1,404719055e-02    4,879122972e-01   -3,195836842e-01    0,000000000e+00    0,000000000e+00    0,000000000e+00    0,000000000e+00
      884000000    8,268572390e-03   -5,144001171e-02    2,424807698e-01   -5,157994032e-01    0,000000000e+00    0,000000000e+00    0,000000000e+00    0,000000000e+00
      898000000   -6,857010536e-03   -9,857589751e-02   -6,208731607e-02   -5,557275414e-01    0,000000000e+00    0,000000000e+00    0,000000000e+00    0,000000000e+00
      912000000   -6,127107516e-02   -1,272409707e-01   -4,017574489e-01   -4,193578064e-01    0,000000000e+00    0,000000000e+00    0,000000000e+00    0,000000000e+00
      926000000   -1,218580380e-01   -1,144538224e-01   -5,662202239e-01   -1,434742361e-01    0,000000000e+00    0,000000000e+00    0,000000000e+00    0,000000000e+00
      940000000   -1,589684039e-01   -6,399298459e-02   -5,666660666e-01    1,935495883e-01    0,000000000e+00    0,000000000e+00    0,000000000e+00    0,000000000e+00
      954000000   -1,476287097e-01   -5,867546424e-03   -3,747086823e-01    4,832797647e-01    0,000000000e+00    0,000000000e+00    0,000000000e+00    0,000000000e+00
      968000000   -9,905435890e-02    2,120424993e-02   -5,123272911e-02    6,158668399e-01    0,000000000e+00    0,000000000e+00    0,000000000e+00    0,000000000e+00
      982000000   -6,037102640e-02    6,136964541e-03    2,799879313e-01    5,538007021e-01    0,000000000e+00    0,000000000e+00    0,000000000e+00    0,000000000e+00
      996000000   -4,982786626e-02   -2,699122392e-02    5,256671906e-01    3,280880153e-01    0,000000000e+00    0,000000000e+00    0,000000000e+00    0,000000000e+00
     1010000000   -6,700605899e-02   -6,004883349e-02    6,117412448e-01    1,692626625e-02    0,000000000e+00    0,000000000e+00    0,000000000e+00    0,000000000e+00
     1024000000   -9,275627136e-02   -6,703421474e-02    5,181351900e-01   -2,867617607e-01    0,000000000e+00    0,000000000e+00    0,000000000e+00    0,000000000e+00
     1038000000   -1,304957718e-01   -5,383500829e-02    2,934517860e-01   -4,784650207e-01    0,000000000e+00    0,000000000e+00    0,000000000e+00    0,000000000e+00
     1052000000   -1,423787177e-01   -1,350491866e-02    2,843176760e-02   -5,297422409e-01    0,000000000e+00    0,000000000e+00    0,000000000e+00    0,000000000e+00
     1066000000   -1,182967424e-01    2,523248084e-02   -2,271073759e-01   -4,631155133e-01    0,000000000e+00    0,000000000e+00    0,000000000e+00    0,000000000e+00
     1080000000   -6,514242291e-02    2,872671746e-02   -4,203429520e-01   -2,879741490e-01    0,000000000e+00    0,000000000e+00    0,000000000e+00    0,000000000e+00
     1094000000   -3,351594135e-02    3,046860220e-03   -5,108695626e-01   -1,715552621e-02    0,000000000e+00    0,000000000e+00    0,000000000e+00    0,000000000e+00
     1108000000   -2,344673313e-02   -2,388745733e-02   -4,328421950e-01    2,800823450e-01    0,000000000e+00    0,000000000e+00    0,000000000e+00    0,000000000e+00
     1122000000   -2,657363378e-02   -5,657124519e-02   -1,826320589e-01    4,841285646e-01    0,000000000e+00    0,000000000e+00    0,000000000e+00    0,000000000e+00
     1136000000   -4,133099318e-02   -1,002599150e-01    1,454593539e-01    5,117238760e-01    0,000000000e+00    0,000000000e+00    0,000000000e+00    0,000000000e+00
     1150000000   -7,939487696e-02   -1,280033141e-01    4,443499446e-01    3,404982686e-01    0,000000000e+00    0,000000000e+00    0,000000000e+00    0,000000000e+00
     1164000000   -1,400260180e-01   -1,248029247e-01    6,052235365e-01    1,579866931e-02    0,000000000e+00    0,000000000e+00    0,000000000e+00    0,000000000e+00
     1178000000   -1,781799197e-01   -9,070111811e-02    5,374467969e-01   -3,670402169e-01    0,000000000e+00    0,000000000e+00    0,000000000e+00    0,000000000e+00
     1192000000   -1,820447594e-01   -4,975298047e-02    2,452865988e-01   -6,353047490e-01    0,000000000e+00    0,000000000e+00    0,000000000e+00    0,000000000e+00
     1206000000   -1,895287186e-01   -5,102394894e-02   -1,321849823e-01   -6,626413465e-01    0,000000000e+00    0,000000000e+00    0,000000000e+00    0,000000000e+00
     1220000000   -2,447108328e-01   -1,371435355e-02   -4,199274778e-01   -4,883118570e-01    0,000000000e+00    0,000000000e+00    0,000000000e+00    0,000000000e+00
     1234000000   -2,391021103e-01    1,070287526e-01   -5,605806112e-01   -2,543767989e-01    0,000000000e+00    0,000000000e+00    0,000000000e+00    0,000000000e+00
     1248000000   -1,177770197e-01    1,774700284e-01   -6,065954566e-01    1,818473265e-02    0,000000000e+00    0,000000000e+00    0,000000000e+00    0,000000000e+00
     1262000000   -5,840728991e-03    1,306782812e-01   -5,058274865e-01    2,923353314e-01    0,000000000e+00    0,000000000e+00    0,000000000e+00    0,000000000e+00
     1276000000    6,123811752e-02    3,835841641e-02   -2,758686543e-01    4,809533358e-01    0,000000000e+00    0,000000000e+00    0,000000000e+00    0,000000000e+00
     1290000000    6,814757735e-02   -6,912589818e-02    8,074181154e-03    5,484222174e-01    0,000000000e+00    0,000000000e+00    0,000000000e+00    0,000000000e+00
     1304000000    2,091289125e-02   -1,804552823e-01    2,994556129e-01    4,811515808e-01    0,000000000e+00    0,000000000e+00    0,000000000e+00    0,000000000e+00
     1318000000   -9,895868599e-02   -2,513413131e-01    5,290149450e-01    2,734907568e-01    0,000000000e+00    0,000000000e+00    0,000000000e+00    0,000000000e+00
     1332000000   -2,440660000e-01   -2,484329492e-01    6,481162310e-01   -5,128512904e-02    0,000000000e+00    0,000000000e+00    0,000000000e+00    0,000000000e+00
     1346000000   -3,646450639e-01   -1,408889145e-01    5,565398932e-01   -4,096774459e-01    0,000000000e+00    0,000000000e+00    0,000000000e+00    0,000000000e+00
     1360000000   -3,884556293e-01    7,871017791e-03    2,583673894e-01   -6,349338293e-01    0,000000000e+00    0,000000000e+00    0,000000000e+00    0,000000000e+00
     1374000000   -3,266785443e-01    1,235051602e-01   -1,035387665e-01   -6,267574430e-01    0,000000000e+00    0,000000000e+00    0,000000000e+00    0,000000000e+00
     1388000000   -2,373675406e-01    1,745191514e-01   -3,686562777e-01   -4,140355289e-01    0,000000000e+00    0,000000000e+00    0,000000000e+00    0,000000000e+00
     1402000000   -1,543859690e-01    1,753003895e-01   -4,614489675e-01   -1,170440838e-01    0,000000000e+00    0,000000000e+00    0,000000000e+00    0,000000000e+00
     1416000000   -8,447775990e-02    1,458688080e-01   -3,857482374e-01    2,027736753e-01    0,000000000e+00    0,000000000e+00    0,000000000e+00    0,000000000e+00
     1430000000   -3,012761846e-02    9,022332728e-02   -1,804337949e-01    4,307860434e-01    0,000000000e+00    0,000000000e+00    0,000000000e+00    0,000000000e+00
     1444000000   -1,167650986e-02    6,730501540e-03    1,191975698e-01    5,289148688e-01    0,000000000e+00    0,000000000e+00    0,000000000e+00    0,000000000e+00
     1458000000   -3,388420492e-02   -8,369489759e-02    4,468044341e-01    4,966498017e-01    0,000000000e+00    0,000000000e+00    0,000000000e+00    0,000000000e+00
     1472000000   -1,225210279e-01   -1,530126929e-01    7,305929065e-01    2,988884747e-01    0,000000000e+00    0,000000000e+00    0,000000000e+00    0,000000000e+00
     1486000000   -2,317505330e-01   -1,559778601e-01    9,116809368e-01   -3,231693804e-02    0,000000000e+00    0,000000000e+00    0,000000000e+00    0,000000000e+00
     1500000000   -3,040404618e-01   -6,520313770e-02    8,409758806e-01   -4,104387462e-01    0,000000000e+00    0,000000000e+00    0,000000000e+00    0,000000000e+00
