! NanoVNA-App
! Date: 2025-09-25 14:59:33
! Start: 100MHz Stop: 1,5GHz Points: 101
! S-Parameter data: F S11 S21 S12 S22
# Hz S RI R 50
!     Frequency           S11_Real           S11_Imag           S21_Real           S21_Imag           S12_Real           S12_Imag           S22_Real           S22_Imag
      100000000    3,558014706e-02    2,735405043e-02    4,407903552e-01   -6,695544720e-01    0,000000000e+00    0,000000000e+00    0,000000000e+00    0,000000000e+00
      114000000    6,069632247e-02    2,184197539e-03    1,280906703e-02   -7,953741550e-01    0,000000000e+00    0,000000000e+00    0,000000000e+00    0,000000000e+00
      128000000    6,839878857e-02   -4,223354906e-02   -4,082538784e-01   -6,779980659e-01    0,000000000e+00    0,000000000e+00    0,000000000e+00    0,000000000e+00
      142000000    4,349323735e-02   -8,879581094e-02   -7,051820755e-01   -3,608457744e-01    0,000000000e+00    0,000000000e+00    0,000000000e+00    0,000000000e+00
      156000000   -9,301023558e-03   -1,097874418e-01   -7,935052514e-01    6,706634909e-02    0,000000000e+00    0,000000000e+00    0,000000000e+00    0,000000000e+00
      170000000   -6,271646172e-02   -9,173692018e-02   -6,369586587e-01    4,862324893e-01    0,000000000e+00    0,000000000e+00    0,000000000e+00    0,000000000e+00
      184000000   -8,859604597e-02   -4,767888039e-02   -2,731543779e-01    7,560276389e-01    0,000000000e+00    0,000000000e+00    0,000000000e+00    0,000000000e+00
      198000000   -8,275599033e-02   -6,431454327e-03    1,797954142e-01    7,823393941e-01    0,000000000e+00    0,000000000e+00    0,000000000e+00    0,000000000e+00
      212000000   -6,272113323e-02    1,798980683e-02    5,705999136e-01    5,581201315e-01    0,000000000e+00    0,000000000e+00    0,000000000e+00    0,000000000e+00
      226000000   -4,145974666e-02    3,186966479e-02    7,767736316e-01    1,619116366e-01    0,000000000e+00    0,000000000e+00    0,000000000e+00    0,000000000e+00
      240000000   -1,493120007e-02    4,127226397e-02    7,359518409e-01   -2,786384821e-01    0,000000000e+00    0,000000000e+00    0,000000000e+00    0,000000000e+00
      254000000    2,137695067e-02    3,630581498e-02    4,680971205e-01   -6,220707893e-01    0,000000000e+00    0,000000000e+00    0,000000000e+00    0,000000000e+00
      268000000    5,328599364e-02    4,750237800e-03    6,666606665e-02   -7,674857974e-01    0,000000000e+00    0,000000000e+00    0,000000000e+00    0,000000000e+00
      282000000    5,737381056e-02   -4,498469085e-02   -3,454271853e-01   -6,826937795e-01    0,000000000e+00    0,000000000e+00    0,000000000e+00    0,000000000e+00
      296000000    2,611402050e-02   -8,477317542e-02   -6,548690796e-01   -3,977390826e-01    0,000000000e+00    0,000000000e+00    0,000000000e+00    0,000000000e+00
      310000000   -1,904753968e-02   -8,943731338e-02   -7,751587629e-01    1,075314172e-02    0,000000000e+00    0,000000000e+00    0,000000000e+00    0,000000000e+00
      324000000   -4,663218930e-02   -6,349577755e-02   -6,483833790e-01    4,292324185e-01    0,000000000e+00    0,000000000e+00    0,000000000e+00    0,000000000e+00
      338000000   -4,111911356e-02   -3,787851334e-02   -3,091759384e-01    7,120247483e-01    0,000000000e+00    0,000000000e+00    0,000000000e+00    0,000000000e+00
      352000000   -2,339689620e-02   -3,812094778e-02    1,205440536e-01    7,578828931e-01    0,000000000e+00    0,000000000e+00    0,000000000e+00    0,000000000e+00
      366000000   -2,272269130e-02   -5,621310323e-02    5,027830601e-01    5,709807873e-01    0,000000000e+00    0,000000000e+00    0,000000000e+00    0,000000000e+00
      380000000   -4,464547709e-02   -6,516917050e-02    7,262436152e-01    2,115215957e-01    0,000000000e+00    0,000000000e+00    0,000000000e+00    0,000000000e+00
      394000000   -6,663531065e-02   -5,095951259e-02    7,222544551e-01   -2,130560428e-01    0,000000000e+00    0,000000000e+00    0,000000000e+00    0,000000000e+00
      408000000   -6,761541963e-02   -2,638787590e-02    4,898352623e-01   -5,689273477e-01    0,000000000e+00    0,000000000e+00    0,000000000e+00    0,000000000e+00
      422000000   -5,338312685e-02   -1,525204442e-02    1,064396128e-01   -7,386376262e-01    0,000000000e+00    0,000000000e+00    0,000000000e+00    0,000000000e+00
      436000000   -4,672338441e-02   -1,847222261e-02   -3,056642115e-01   -6,756435633e-01    0,000000000e+00    0,000000000e+00    0,000000000e+00    0,000000000e+00
      450000000   -5,194156989e-02   -1,494385861e-02   -6,183611155e-01   -3,991555870e-01    0,000000000e+00    0,000000000e+00    0,000000000e+00    0,000000000e+00
      464000000   -5,030790716e-02    5,991240032e-03   -7,298482656e-01    3,650330240e-03    0,000000000e+00    0,000000000e+00    0,000000000e+00    0,000000000e+00
      478000000   -2,020378038e-02    2,655255981e-02   -5,993112922e-01    3,971783519e-01    0,000000000e+00    0,000000000e+00    0,000000000e+00    0,000000000e+00
      492000000    2,813817561e-02    1,463416591e-02   -2,808802128e-01    6,438033581e-01    0,000000000e+00    0,000000000e+00    0,000000000e+00    0,000000000e+00
      506000000    5,898263305e-02   -3,759934381e-02    1,056584567e-01    6,791964173e-01    0,000000000e+00    0,000000000e+00    0,000000000e+00    0,000000000e+00
      520000000    4,336735234e-02   -1,026617438e-01    4,415088594e-01    5,144683123e-01    0,000000000e+00    0,000000000e+00    0,000000000e+00    0,000000000e+00
      534000000   -1,257651486e-02   -1,438500136e-01    6,493438482e-01    2,059219629e-01    0,000000000e+00    0,000000000e+00    0,000000000e+00    0,000000000e+00
      548000000   -8,165462315e-02   -1,400734186e-01    6,597721577e-01   -1,764076799e-01    0,000000000e+00    0,000000000e+00    0,000000000e+00    0,000000000e+00
      562000000   -1,315142810e-01   -9,804102033e-02    4,506184459e-01   -5,088337064e-01    0,000000000e+00    0,000000000e+00    0,000000000e+00    0,000000000e+00
      576000000   -1,497371048e-01   -3,864122182e-02    8,253983408e-02   -6,604672670e-01    0,000000000e+00    0,000000000e+00    0,000000000e+00    0,000000000e+00
      590000000   -1,298893392e-01    2,977115288e-02   -2,970696390e-01   -5,620689988e-01    0,000000000e+00    0,000000000e+00    0,000000000e+00    0,000000000e+00
      604000000   -3,816446289e-02    6,836189330e-02   -4,875283837e-01   -2,703097165e-01    0,000000000e+00    0,000000000e+00    0,000000000e+00    0,000000000e+00
      618000000    3,435997292e-02   -3,120534308e-02   -4,938485622e-01   -5,176030472e-02    0,000000000e+00    0,000000000e+00    0,000000000e+00    0,000000000e+00
      632000000   -5,254824832e-02   -9,251604974e-02   -5,261377096e-01    1,774124801e-01    0,000000000e+00    0,000000000e+00    0,000000000e+00    0,000000000e+00
      646000000   -9,959848970e-02   -3,334381059e-02   -3,790055513e-01    4,769783616e-01    0,000000000e+00    0,000000000e+00    0,000000000e+00    0,000000000e+00
      660000000   -6,852298975e-02    9,188287891e-03   -5,121099949e-02    6,238105893e-01    0,000000000e+00    0,000000000e+00    0,000000000e+00    0,000000000e+00
      674000000   -3,071307205e-02    4,569143988e-03    2,976272106e-01    5,528846979e-01    0,000000000e+00    0,000000000e+00    0,000000000e+00    0,000000000e+00
      688000000   -1,503116358e-02   -1,756684482e-02    5,471295118e-01    3,031700850e-01    0,000000000e+00    0,000000000e+00    0,000000000e+00    0,000000000e+00
      702000000   -1,465764921e-02   -3,372306749e-02    6,189936399e-01   -4,060804099e-02    0,000000000e+00    0,000000000e+00    0,000000000e+00    0,000000000e+00
      716000000   -9,451468475e-03   -4,834602028e-02    4,920880198e-01   -3,684977591e-01    0,000000000e+00    0,000000000e+00    0,000000000e+00    0,000000000e+00
      730000000   -7,636171300e-03   -7,490432262e-02    2,114495933e-01   -5,675029755e-01    0,000000000e+00    0,000000000e+00    0,000000000e+00    0,000000000e+00
      744000000   -2,605707198e-02   -1,111975685e-01   -1,235072911e-01   -5,875950456e-01    0,000000000e+00    0,000000000e+00    0,000000000e+00    0,000000000e+00
      758000000   -7,471737266e-02   -1,322398633e-01   -4,194338024e-01   -4,326958954e-01    0,000000000e+00    0,000000000e+00    0,000000000e+00    0,000000000e+00
      772000000   -1,346945912e-01   -1,156047136e-01   -5,932925940e-01   -1,402258575e-01    0,000000000e+00    0,000000000e+00    0,000000000e+00    0,000000000e+00
      786000000   -1,717500687e-01   -5,800576136e-02   -5,817345977e-01    2,094861418e-01    0,000000000e+00    0,000000000e+00    0,000000000e+00    0,000000000e+00
      800000000   -1,592833698e-01    6,147339940e-03   -3,733195364e-01    4,954867363e-01    0,000000000e+00    0,000000000e+00    0,000000000e+00    0,000000000e+00
      814000000   -1,142105013e-01    4,278510436e-02   -4,517250508e-02    6,144683957e-01    0,000000000e+00    0,000000000e+00    0,000000000e+00    0,000000000e+00
      828000000   -6,903435290e-02    4,317268357e-02    2,852490842e-01    5,415911674e-01    0,000000000e+00    0,000000000e+00    0,000000000e+00    0,000000000e+00
      842000000   -3,919514641e-02    2,953606285e-02    5,213010907e-01    3,053037822e-01    0,000000000e+00    0,000000000e+00    0,000000000e+00    0,000000000e+00
      856000000   -1,857566461e-02    1,216204092e-02    5,942568183e-01   -1,348404866e-02    0,000000000e+00    0,000000000e+00    0,000000000e+00    0,000000000e+00
      870000000    1,991768600e-03   -1,132745482e-02    4,865873754e-01   -3,175472617e-01    0,000000000e+00    0,000000000e+00    0,000000000e+00    0,000000000e+00
      884000000    1,358843409e-02   -5,137983710e-02    2,430766374e-01   -5,113136172e-01    0,000000000e+00    0,000000000e+00    0,000000000e+00    0,000000000e+00
      898000000   -3,443622496e-03   -1,023838073e-01   -5,720439181e-02   -5,542523861e-01    0,000000000e+00    0,000000000e+00    0,000000000e+00    0,000000000e+00
      912000000   -6,318401545e-02   -1,311290860e-01   -3,825962842e-01   -4,223886132e-01    0,000000000e+00    0,000000000e+00    0,000000000e+00    0,000000000e+00
      926000000   -1,280151010e-01   -1,198871881e-01   -5,685288310e-01   -1,492490619e-01    0,000000000e+00    0,000000000e+00    0,000000000e+00    0,000000000e+00
      940000000   -1,643070430e-01   -6,400924921e-02   -5,677747130e-01    1,913209110e-01    0,000000000e+00    0,000000000e+00    0,000000000e+00    0,000000000e+00
      954000000   -1,484550685e-01    2,194580156e-03   -3,729813397e-01    4,841109514e-01    0,000000000e+00    0,000000000e+00    0,000000000e+00    0,000000000e+00
      968000000   -9,605773538e-02    2,239671163e-02   -5,057661980e-02    6,167811751e-01    0,000000000e+00    0,000000000e+00    0,000000000e+00    0,000000000e+00
      982000000   -5,727203935e-02    5,562247708e-03    2,815752029e-01    5,520195365e-01    0,000000000e+00    0,000000000e+00    0,000000000e+00    0,000000000e+00
      996000000   -4,562459141e-02   -3,487580270e-02    5,228428841e-01    3,271771371e-01    0,000000000e+00    0,000000000e+00    0,000000000e+00    0,000000000e+00
     1010000000   -6,331975013e-02   -6,269039959e-02    6,075246930e-01    1,553131733e-02    0,000000000e+00    0,000000000e+00    0,000000000e+00    0,000000000e+00
     1024000000   -9,799416363e-02   -7,768011093e-02    5,157374740e-01   -2,812097073e-01    0,000000000e+00    0,000000000e+00    0,000000000e+00    0,000000000e+00
     1038000000   -1,411396861e-01   -5,375775322e-02    2,963553965e-01   -4,708772004e-01    0,000000000e+00    0,000000000e+00    0,000000000e+00    0,000000000e+00
     1052000000   -1,504601538e-01   -4,468404688e-03    3,403502330e-02   -5,262259841e-01    0,000000000e+00    0,000000000e+00    0,000000000e+00    0,000000000e+00
     1066000000   -1,022372395e-01    3,925992921e-02   -2,129443437e-01   -4,666856527e-01    0,000000000e+00    0,000000000e+00    0,000000000e+00    0,000000000e+00
     1080000000   -5,122297257e-02    2,834350802e-02   -4,196074605e-01   -2,995594144e-01    0,000000000e+00    0,000000000e+00    0,000000000e+00    0,000000000e+00
     1094000000   -3,281942010e-02   -3,315081121e-03   -5,194488168e-01   -2,477234602e-02    0,000000000e+00    0,000000000e+00    0,000000000e+00    0,000000000e+00
     1108000000   -2,995965816e-02   -3,427648917e-02   -4,442139566e-01    2,848884463e-01    0,000000000e+00    0,000000000e+00    0,000000000e+00    0,000000000e+00
     1122000000   -2,946168929e-02   -5,497196317e-02   -1,859589219e-01    4,940841496e-01    0,000000000e+00    0,000000000e+00    0,000000000e+00    0,000000000e+00
     1136000000   -4,190962017e-02   -9,548066556e-02    1,544392258e-01    5,222538114e-01    0,000000000e+00    0,000000000e+00    0,000000000e+00    0,000000000e+00
     1150000000   -8,563822508e-02   -1,249146163e-01    4,544279873e-01    3,461587429e-01    0,000000000e+00    0,000000000e+00    0,000000000e+00    0,000000000e+00
     1164000000   -1,350798607e-01   -1,171661988e-01    6,088750362e-01    9,798371233e-03    0,000000000e+00    0,000000000e+00    0,000000000e+00    0,000000000e+00
     1178000000   -1,754276156e-01   -8,922047913e-02    5,386067033e-01   -3,724745512e-01    0,000000000e+00    0,000000000e+00    0,000000000e+00    0,000000000e+00
     1192000000   -1,821730137e-01   -5,593462661e-02    2,415214628e-01   -6,376231313e-01    0,000000000e+00    0,000000000e+00    0,000000000e+00    0,000000000e+00
     1206000000   -1,908578426e-01   -5,214973167e-02   -1,390289664e-01   -6,624059677e-01    0,000000000e+00    0,000000000e+00    0,000000000e+00    0,000000000e+00
     1220000000   -2,559115589e-01   -1,468629483e-02   -4,207836092e-01   -4,829856157e-01    0,000000000e+00    0,000000000e+00    0,000000000e+00    0,000000000e+00
     1234000000   -2,437091470e-01    1,145474985e-01   -5,572804213e-01   -2,528626323e-01    0,000000000e+00    0,000000000e+00    0,000000000e+00    0,000000000e+00
     1248000000   -1,166264117e-01    1,706950963e-01   -6,020340919e-01    1,914944872e-02    0,000000000e+00    0,000000000e+00    0,000000000e+00    0,000000000e+00
     1262000000   -6,024074974e-04    1,292056441e-01   -5,100952387e-01    2,983511984e-01    0,000000000e+00    0,000000000e+00    0,000000000e+00    0,000000000e+00
     1276000000    6,341226399e-02    4,302972183e-02   -2,752447128e-01    4,857742190e-01    0,000000000e+00    0,000000000e+00    0,000000000e+00    0,000000000e+00
     1290000000    7,455062866e-02   -6,883572042e-02    1,307543274e-02    5,479144454e-01    0,000000000e+00    0,000000000e+00    0,000000000e+00    0,000000000e+00
     1304000000    1,873999462e-02   -1,778674126e-01    2,924807072e-01    4,745694399e-01    0,000000000e+00    0,000000000e+00    0,000000000e+00    0,000000000e+00
     1318000000   -8,935833722e-02   -2,555724680e-01    5,404548645e-01    2,724952996e-01    0,000000000e+00    0,000000000e+00    0,000000000e+00    0,000000000e+00
     1332000000   -2,429405600e-01   -2,426758111e-01    6,511812210e-01   -4,745918512e-02    0,000000000e+00    0,000000000e+00    0,000000000e+00    0,000000000e+00
     1346000000   -3,602682054e-01   -1,398308128e-01    5,535166860e-01   -4,060789049e-01    0,000000000e+00    0,000000000e+00    0,000000000e+00    0,000000000e+00
     1360000000   -3,780304492e-01    1,012212224e-02    2,583941519e-01   -6,401143074e-01    0,000000000e+00    0,000000000e+00    0,000000000e+00    0,000000000e+00
     1374000000   -3,260603249e-01    1,177650467e-01   -1,026268452e-01   -6,242325306e-01    0,000000000e+00    0,000000000e+00    0,000000000e+00    0,000000000e+00
     1388000000   -2,399941385e-01    1,712627262e-01   -3,849164546e-01   -4,217115343e-01    0,000000000e+00    0,000000000e+00    0,000000000e+00    0,000000000e+00
     1402000000   -1,513465047e-01    1,699657738e-01   -4,633599818e-01   -1,147611067e-01    0,000000000e+00    0,000000000e+00    0,000000000e+00    0,000000000e+00
     1416000000   -8,407328278e-02    1,409509927e-01   -3,984729052e-01    1,961023957e-01    0,000000000e+00    0,000000000e+00    0,000000000e+00    0,000000000e+00
     1430000000   -3,775599971e-02    8,877584338e-02   -1,760516167e-01    4,202504158e-01    0,000000000e+00    0,000000000e+00    0,000000000e+00    0,000000000e+00
     1444000000   -1,826717518e-02    6,058971863e-03    1,161742434e-01    5,377197862e-01    0,000000000e+00    0,000000000e+00    0,000000000e+00    0,000000000e+00
     1458000000   -3,837030753e-02   -8,597103506e-02    4,418695271e-01    4,882088602e-01    0,000000000e+00    0,000000000e+00    0,000000000e+00    0,000000000e+00
     1472000000   -1,159167811e-01   -1,382779181e-01    7,342252135e-01    3,121142387e-01    0,000000000e+00    0,000000000e+00    0,000000000e+00    0,000000000e+00
     1486000000   -2,321403027e-01   -1,461100280e-01    8,909516335e-01   -4,727141932e-02    0,000000000e+00    0,000000000e+00    0,000000000e+00    0,000000000e+00
     1500000000   -3,073503971e-01   -6,797824055e-02    8,528827429e-01   -4,284901619e-01    0,000000000e+00    0,000000000e+00    0,000000000e+00    0,000000000e+00
