! NanoVNA-App
! Date: 2025-09-25 15:00:35
! Start: 100MHz Stop: 1,5GHz Points: 101
! S-Parameter data: F S11 S21 S12 S22
# Hz S RI R 50
!     Frequency           S11_Real           S11_Imag           S21_Real           S21_Imag           S12_Real           S12_Imag           S22_Real           S22_Imag
      100000000    3,556854278e-02    2,737612277e-02    4,407187104e-01   -6,695486903e-01    0,000000000e+00    0,000000000e+00    0,000000000e+00    0,000000000e+00
      114000000    6,072695181e-02    2,182611264e-03    1,270396356e-02   -7,952842116e-01    0,000000000e+00    0,000000000e+00    0,000000000e+00    0,000000000e+00
      128000000    6,835626066e-02   -4,225014150e-02   -4,082521200e-01   -6,781165004e-01    0,000000000e+00    0,000000000e+00    0,000000000e+00    0,000000000e+00
      142000000    4,350399971e-02   -8,883579075e-02   -7,053925991e-01   -3,610851765e-01    0,000000000e+00    0,000000000e+00    0,000000000e+00    0,000000000e+00
      156000000   -9,546834975e-03   -1,100170985e-01   -7,929497957e-01    6,782580912e-02    0,000000000e+00    0,000000000e+00    0,000000000e+00    0,000000000e+00
      170000000   -6,264623255e-02   -9,184315801e-02   -6,368694305e-01    4,865844846e-01    0,000000000e+00    0,000000000e+00    0,000000000e+00    0,000000000e+00
      184000000   -8,862234652e-02   -4,764332622e-02   -2,732026279e-01    7,562396526e-01    0,000000000e+00    0,000000000e+00    0,000000000e+00    0,000000000e+00
      198000000   -8,277875185e-02   -6,424303632e-03    1,795712262e-01    7,826761603e-01    0,000000000e+00    0,000000000e+00    0,000000000e+00    0,000000000e+00
      212000000   -6,275916100e-02    1,802437007e-02    5,705962777e-01    5,582359433e-01    0,000000000e+00    0,000000000e+00    0,000000000e+00    0,000000000e+00
      226000000   -4,144194722e-02    3,183391318e-02    7,766981721e-01    1,618821919e-01    0,000000000e+00    0,000000000e+00    0,000000000e+00    0,000000000e+00
      240000000   -1,488429867e-02    4,132691026e-02    7,361037135e-01   -2,788161039e-01    0,000000000e+00    0,000000000e+00    0,000000000e+00    0,000000000e+00
      254000000    2,139863372e-02    3,633863851e-02    4,677922428e-01   -6,216967702e-01    0,000000000e+00    0,000000000e+00    0,000000000e+00    0,000000000e+00
      268000000    5,327978358e-02    4,696668126e-03    6,654093415e-02   -7,678836584e-01    0,000000000e+00    0,000000000e+00    0,000000000e+00    0,000000000e+00
      282000000    5,742321908e-02   -4,491520673e-02   -3,455884755e-01   -6,825248003e-01    0,000000000e+00    0,000000000e+00    0,000000000e+00    0,000000000e+00
      296000000    2,602092549e-02   -8,474003524e-02   -6,551471353e-01   -3,977448642e-01    0,000000000e+00    0,000000000e+00    0,000000000e+00    0,000000000e+00
      310000000   -1,882935874e-02   -8,955186605e-02   -7,734016776e-01    9,806473739e-03    0,000000000e+00    0,000000000e+00    0,000000000e+00    0,000000000e+00
      324000000   -4,654036835e-02   -6,367556751e-02   -6,482605338e-01    4,297322035e-01    0,000000000e+00    0,000000000e+00    0,000000000e+00    0,000000000e+00
      338000000   -4,137985781e-02   -3,784589842e-02   -3,083272874e-01    7,122913599e-01    0,000000000e+00    0,000000000e+00    0,000000000e+00    0,000000000e+00
      352000000   -2,345409431e-02   -3,787265345e-02    1,198301166e-01    7,578663826e-01    0,000000000e+00    0,000000000e+00    0,000000000e+00    0,000000000e+00
      366000000   -2,311131917e-02   -5,624127015e-02    5,032286644e-01    5,715137124e-01    0,000000000e+00    0,000000000e+00    0,000000000e+00    0,000000000e+00
      380000000   -4,472783208e-02   -6,518594921e-02    7,265790105e-01    2,122117877e-01    0,000000000e+00    0,000000000e+00    0,000000000e+00    0,000000000e+00
      394000000   -6,636540592e-02   -5,061185732e-02    7,228089571e-01   -2,134744525e-01    0,000000000e+00    0,000000000e+00    0,000000000e+00    0,000000000e+00
      408000000   -6,766200811e-02   -2,635402232e-02    4,891336560e-01   -5,687570572e-01    0,000000000e+00    0,000000000e+00    0,000000000e+00    0,000000000e+00
      422000000   -5,321826786e-02   -1,532424893e-02    1,060640365e-01   -7,395662069e-01    0,000000000e+00    0,000000000e+00    0,000000000e+00    0,000000000e+00
      436000000   -4,655775800e-02   -1,849158481e-02   -3,059900105e-01   -6,753779650e-01    0,000000000e+00    0,000000000e+00    0,000000000e+00    0,000000000e+00
      450000000   -5,181262270e-02   -1,514064241e-02   -6,184283495e-01   -4,000702202e-01    0,000000000e+00    0,000000000e+00    0,000000000e+00    0,000000000e+00
      464000000   -5,020466447e-02    5,855717231e-03   -7,300640345e-01    3,314040136e-03    0,000000000e+00    0,000000000e+00    0,000000000e+00    0,000000000e+00
      478000000   -2,017244697e-02    2,647501417e-02   -5,983777046e-01    3,971834481e-01    0,000000000e+00    0,000000000e+00    0,000000000e+00    0,000000000e+00
      492000000    2,829446457e-02    1,457680110e-02   -2,802619636e-01    6,432485580e-01    0,000000000e+00    0,000000000e+00    0,000000000e+00    0,000000000e+00
      506000000    5,915290490e-02   -3,768118843e-02    1,045821309e-01    6,799424887e-01    0,000000000e+00    0,000000000e+00    0,000000000e+00    0,000000000e+00
      520000000    4,400746524e-02   -1,022490636e-01    4,378783703e-01    5,191398859e-01    0,000000000e+00    0,000000000e+00    0,000000000e+00    0,000000000e+00
      534000000   -1,265598927e-02   -1,441752017e-01    6,493952274e-01    2,056954652e-01    0,000000000e+00    0,000000000e+00    0,000000000e+00    0,000000000e+00
      548000000   -8,190798759e-02   -1,395195276e-01    6,592173576e-01   -1,759044081e-01    0,000000000e+00    0,000000000e+00    0,000000000e+00    0,000000000e+00
      562000000   -1,307634860e-01   -9,790756553e-02    4,518947899e-01   -5,083087087e-01    0,000000000e+00    0,000000000e+00    0,000000000e+00    0,000000000e+00
      576000000   -1,493254453e-01   -3,860742226e-02    8,247719705e-02   -6,608778238e-01    0,000000000e+00    0,000000000e+00    0,000000000e+00    0,000000000e+00
      590000000   -1,300591975e-01    2,821009979e-02   -2,962276340e-01   -5,628505349e-01    0,000000000e+00    0,000000000e+00    0,000000000e+00    0,000000000e+00
      604000000   -3,997948766e-02    6,867223978e-02   -4,908616543e-01   -2,707479596e-01    0,000000000e+00    0,000000000e+00    0,000000000e+00    0,000000000e+00
      618000000    3,564102575e-02   -2,699670009e-02   -4,931849539e-01   -4,685552791e-02    0,000000000e+00    0,000000000e+00    0,000000000e+00    0,000000000e+00
      632000000   -4,988184944e-02   -9,278788418e-02   -5,228149891e-01    1,767393202e-01    0,000000000e+00    0,000000000e+00    0,000000000e+00    0,000000000e+00
      646000000   -9,966841340e-02   -3,604155406e-02   -3,793812394e-01    4,752817154e-01    0,000000000e+00    0,000000000e+00    0,000000000e+00    0,000000000e+00
      660000000   -6,934720278e-02    9,522426873e-03   -5,183365196e-02    6,253710389e-01    0,000000000e+00    0,000000000e+00    0,000000000e+00    0,000000000e+00
      674000000   -3,059384972e-02    5,470585078e-03    2,971733809e-01    5,531982780e-01    0,000000000e+00    0,000000000e+00    0,000000000e+00    0,000000000e+00
      688000000   -1,541226823e-02   -1,789550111e-02    5,468741655e-01    3,041899800e-01    0,000000000e+00    0,000000000e+00    0,000000000e+00    0,000000000e+00
      702000000   -1,314663328e-02   -3,438426554e-02    6,182428598e-01   -4,257326573e-02    0,000000000e+00    0,000000000e+00    0,000000000e+00    0,000000000e+00
      716000000   -8,902850561e-03   -4,867477715e-02    4,925954938e-01   -3,679802716e-01    0,000000000e+00    0,000000000e+00    0,000000000e+00    0,000000000e+00
      730000000   -6,370576564e-03   -7,448352128e-02    2,118829340e-01   -5,678675771e-01    0,000000000e+00    0,000000000e+00    0,000000000e+00    0,000000000e+00
      744000000   -2,662082575e-02   -1,111883372e-01   -1,233830899e-01   -5,884194970e-01    0,000000000e+00    0,000000000e+00    0,000000000e+00    0,000000000e+00
      758000000   -7,426663488e-02   -1,337743402e-01   -4,190714657e-01   -4,324840009e-01    0,000000000e+00    0,000000000e+00    0,000000000e+00    0,000000000e+00
      772000000   -1,357021034e-01   -1,155042648e-01   -5,937096477e-01   -1,404903829e-01    0,000000000e+00    0,000000000e+00    0,000000000e+00    0,000000000e+00
      786000000   -1,715610623e-01   -5,825768411e-02   -5,821424723e-01    2,096058875e-01    0,000000000e+00    0,000000000e+00    0,000000000e+00    0,000000000e+00
      800000000   -1,595418453e-01    6,556860171e-03   -3,738435805e-01    4,958780110e-01    0,000000000e+00    0,000000000e+00    0,000000000e+00    0,000000000e+00
      814000000   -1,147291362e-01    4,304005578e-02   -4,512364045e-02    6,153571606e-01    0,000000000e+00    0,000000000e+00    0,000000000e+00    0,000000000e+00
      828000000   -6,904122978e-02    4,419830814e-02    2,861015797e-01    5,401463509e-01    0,000000000e+00    0,000000000e+00    0,000000000e+00    0,000000000e+00
      842000000   -3,850816190e-02    2,926606685e-02    5,218064189e-01    3,059975207e-01    0,000000000e+00    0,000000000e+00    0,000000000e+00    0,000000000e+00
      856000000   -1,852513850e-02    1,177382562e-02    5,943309665e-01   -1,363043301e-02    0,000000000e+00    0,000000000e+00    0,000000000e+00    0,000000000e+00
      870000000    1,923143631e-03   -1,134516113e-02    4,860968888e-01   -3,172828555e-01    0,000000000e+00    0,000000000e+00    0,000000000e+00    0,000000000e+00
      884000000    1,319789421e-02   -5,088795722e-02    2,429224402e-01   -5,124036074e-01    0,000000000e+00    0,000000000e+00    0,000000000e+00    0,000000000e+00
      898000000   -4,266340286e-03   -1,011812165e-01   -5,914380029e-02   -5,537778735e-01    0,000000000e+00    0,000000000e+00    0,000000000e+00    0,000000000e+00
      912000000   -6,244645640e-02   -1,313807964e-01   -3,830497861e-01   -4,244199693e-01    0,000000000e+00    0,000000000e+00    0,000000000e+00    0,000000000e+00
      926000000   -1,240151599e-01   -1,196753755e-01   -5,645087361e-01   -1,495360583e-01    0,000000000e+00    0,000000000e+00    0,000000000e+00    0,000000000e+00
      940000000   -1,610068232e-01   -6,416495889e-02   -5,677542090e-01    1,922943890e-01    0,000000000e+00    0,000000000e+00    0,000000000e+00    0,000000000e+00
      954000000   -1,492483318e-01   -3,337474307e-03   -3,749608397e-01    4,852024615e-01    0,000000000e+00    0,000000000e+00    0,000000000e+00    0,000000000e+00
      968000000   -9,918599576e-02    2,615679801e-02   -5,332366750e-02    6,175344586e-01    0,000000000e+00    0,000000000e+00    0,000000000e+00    0,000000000e+00
      982000000   -5,808819830e-02    4,344278481e-03    2,794980109e-01    5,531705022e-01    0,000000000e+00    0,000000000e+00    0,000000000e+00    0,000000000e+00
      996000000   -4,526697099e-02   -3,376735002e-02    5,245918632e-01    3,263244927e-01    0,000000000e+00    0,000000000e+00    0,000000000e+00    0,000000000e+00
     1010000000   -6,414219737e-02   -6,301996112e-02    6,061093211e-01    1,698252931e-02    0,000000000e+00    0,000000000e+00    0,000000000e+00    0,000000000e+00
     1024000000   -9,693673998e-02   -7,826763391e-02    5,157272816e-01   -2,834492028e-01    0,000000000e+00    0,000000000e+00    0,000000000e+00    0,000000000e+00
     1038000000   -1,452198476e-01   -5,691688880e-02    2,947137952e-01   -4,722612202e-01    0,000000000e+00    0,000000000e+00    0,000000000e+00    0,000000000e+00
     1052000000   -1,487282962e-01    1,189115457e-03    3,371138871e-02   -5,249120593e-01    0,000000000e+00    0,000000000e+00    0,000000000e+00    0,000000000e+00
     1066000000   -1,047453284e-01    4,395212606e-02   -2,118797153e-01   -4,685209692e-01    0,000000000e+00    0,000000000e+00    0,000000000e+00    0,000000000e+00
     1080000000   -5,583677813e-02    2,731008828e-02   -4,194566011e-01   -2,993264794e-01    0,000000000e+00    0,000000000e+00    0,000000000e+00    0,000000000e+00
     1094000000   -3,570006788e-02   -9,136821143e-03   -5,218216181e-01   -2,559670992e-02    0,000000000e+00    0,000000000e+00    0,000000000e+00    0,000000000e+00
     1108000000   -3,675087541e-02   -2,950589918e-02   -4,429691136e-01    2,884821892e-01    0,000000000e+00    0,000000000e+00    0,000000000e+00    0,000000000e+00
     1122000000   -2,856333368e-02   -5,677048489e-02   -1,845947206e-01    4,977793396e-01    0,000000000e+00    0,000000000e+00    0,000000000e+00    0,000000000e+00
     1136000000   -4,484074563e-02   -9,481485933e-02    1,527083069e-01    5,207005143e-01    0,000000000e+00    0,000000000e+00    0,000000000e+00    0,000000000e+00
     1150000000   -8,199534565e-02   -1,274245828e-01    4,529680908e-01    3,443075716e-01    0,000000000e+00    0,000000000e+00    0,000000000e+00    0,000000000e+00
     1164000000   -1,425627768e-01   -1,216624454e-01    6,105324626e-01    1,115109958e-02    0,000000000e+00    0,000000000e+00    0,000000000e+00    0,000000000e+00
     1178000000   -1,721583754e-01   -8,403021842e-02    5,384815335e-01   -3,719302118e-01    0,000000000e+00    0,000000000e+00    0,000000000e+00    0,000000000e+00
     1192000000   -1,806129515e-01   -5,058275163e-02    2,402958125e-01   -6,368440986e-01    0,000000000e+00    0,000000000e+00    0,000000000e+00    0,000000000e+00
     1206000000   -1,908637434e-01   -5,359321833e-02   -1,421888620e-01   -6,624376774e-01    0,000000000e+00    0,000000000e+00    0,000000000e+00    0,000000000e+00
     1220000000   -2,570951879e-01   -1,548332721e-02   -4,219670594e-01   -4,782231450e-01    0,000000000e+00    0,000000000e+00    0,000000000e+00    0,000000000e+00
     1234000000   -2,442666441e-01    1,122405678e-01   -5,637039542e-01   -2,520836294e-01    0,000000000e+00    0,000000000e+00    0,000000000e+00    0,000000000e+00
     1248000000   -1,140268072e-01    1,700744480e-01   -6,054939628e-01    1,529184822e-02    0,000000000e+00    0,000000000e+00    0,000000000e+00    0,000000000e+00
     1262000000   -7,131372578e-03    1,301282346e-01   -5,084738731e-01    2,943066061e-01    0,000000000e+00    0,000000000e+00    0,000000000e+00    0,000000000e+00
     1276000000    6,391344965e-02    4,475129396e-02   -2,779139280e-01    4,906294644e-01    0,000000000e+00    0,000000000e+00    0,000000000e+00    0,000000000e+00
     1290000000    7,265418023e-02   -7,238007337e-02    1,335795596e-02    5,497431159e-01    0,000000000e+00    0,000000000e+00    0,000000000e+00    0,000000000e+00
     1304000000    2,264468372e-02   -1,801133305e-01    3,023980558e-01    4,780202508e-01    0,000000000e+00    0,000000000e+00    0,000000000e+00    0,000000000e+00
     1318000000   -9,101265669e-02   -2,517729104e-01    5,399369597e-01    2,749310136e-01    0,000000000e+00    0,000000000e+00    0,000000000e+00    0,000000000e+00
     1332000000   -2,418816537e-01   -2,420612127e-01    6,522936821e-01   -5,631059781e-02    0,000000000e+00    0,000000000e+00    0,000000000e+00    0,000000000e+00
     1346000000   -3,594150245e-01   -1,395898312e-01    5,615365505e-01   -4,080919027e-01    0,000000000e+00    0,000000000e+00    0,000000000e+00    0,000000000e+00
     1360000000   -3,883910179e-01    7,399596740e-03    2,477791458e-01   -6,387804151e-01    0,000000000e+00    0,000000000e+00    0,000000000e+00    0,000000000e+00
     1374000000   -3,268881738e-01    1,165216267e-01   -1,023958027e-01   -6,294063330e-01    0,000000000e+00    0,000000000e+00    0,000000000e+00    0,000000000e+00
     1388000000   -2,374433279e-01    1,671910733e-01   -3,733669221e-01   -4,235266149e-01    0,000000000e+00    0,000000000e+00    0,000000000e+00    0,000000000e+00
     1402000000   -1,515399069e-01    1,693760604e-01   -4,793851674e-01   -1,100153700e-01    0,000000000e+00    0,000000000e+00    0,000000000e+00    0,000000000e+00
     1416000000   -8,401883394e-02    1,381522864e-01   -3,967218995e-01    2,037995607e-01    0,000000000e+00    0,000000000e+00    0,000000000e+00    0,000000000e+00
     1430000000   -3,026499040e-02    8,876398951e-02   -1,687160879e-01    4,555327296e-01    0,000000000e+00    0,000000000e+00    0,000000000e+00    0,000000000e+00
     1444000000   -1,596592180e-02    1,670132158e-03    1,166001111e-01    5,271219015e-01    0,000000000e+00    0,000000000e+00    0,000000000e+00    0,000000000e+00
     1458000000   -3,523210436e-02   -8,604838699e-02    4,383852780e-01    4,784245193e-01    0,000000000e+00    0,000000000e+00    0,000000000e+00    0,000000000e+00
     1472000000   -1,150965542e-01   -1,471877247e-01    7,459287643e-01    3,060065806e-01    0,000000000e+00    0,000000000e+00    0,000000000e+00    0,000000000e+00
     1486000000   -2,314528376e-01   -1,415949166e-01    9,055473208e-01   -4,933141172e-02    0,000000000e+00    0,000000000e+00    0,000000000e+00    0,000000000e+00
     1500000000   -3,014371097e-01   -6,229429320e-02    8,474406004e-01   -4,342220426e-01    0,000000000e+00    0,000000000e+00    0,000000000e+00    0,000000000e+00
