! NanoVNA-App
! Date: 2025-09-25 15:00:07
! Start: 100MHz Stop: 1,5GHz Points: 101
! S-Parameter data: F S11 S21 S12 S22
# Hz S RI R 50
!     Frequency           S11_Real           S11_Imag           S21_Real           S21_Imag           S12_Real           S12_Imag           S22_Real           S22_Imag
      100000000    3,558186069e-02    2,736354992e-02    4,407720864e-01   -6,695200801e-01    0,000000000e+00    0,000000000e+00    0,000000000e+00    0,000000000e+00
      114000000    6,069848314e-02    2,183572389e-03    1,271231566e-02   -7,954127789e-01    0,000000000e+00    0,000000000e+00    0,000000000e+00    0,000000000e+00
      128000000    6,833292544e-02   -4,223553836e-02   -4,080759287e-01   -6,780804396e-01    0,000000000e+00    0,000000000e+00    0,000000000e+00    0,000000000e+00
      142000000    4,345992953e-02   -8,878970891e-02   -7,052900791e-01   -3,610486686e-01    0,000000000e+00    0,000000000e+00    0,000000000e+00    0,000000000e+00
      156000000   -9,751127101e-03   -1,096817181e-01   -7,925518751e-01    6,756838411e-02    0,000000000e+00    0,000000000e+00    0,000000000e+00    0,000000000e+00
      170000000   -6,265433133e-02   -9,186459333e-02   -6,371527910e-01    4,865165651e-01    0,000000000e+00    0,000000000e+00    0,000000000e+00    0,000000000e+00
      184000000   -8,856262267e-02   -4,762845486e-02   -2,731270194e-01    7,562875152e-01    0,000000000e+00    0,000000000e+00    0,000000000e+00    0,000000000e+00
      198000000   -8,276858181e-02   -6,410006434e-03    1,796226650e-01    7,824574709e-01    0,000000000e+00    0,000000000e+00    0,000000000e+00    0,000000000e+00
      212000000   -6,275239587e-02    1,802646182e-02    5,706270933e-01    5,584841967e-01    0,000000000e+00    0,000000000e+00    0,000000000e+00    0,000000000e+00
      226000000   -4,143464938e-02    3,180969134e-02    7,767485380e-01    1,619137079e-01    0,000000000e+00    0,000000000e+00    0,000000000e+00    0,000000000e+00
      240000000   -1,487850677e-02    4,132835940e-02    7,359498143e-01   -2,789068818e-01    0,000000000e+00    0,000000000e+00    0,000000000e+00    0,000000000e+00
      254000000    2,139423415e-02    3,632367030e-02    4,680493772e-01   -6,219905019e-01    0,000000000e+00    0,000000000e+00    0,000000000e+00    0,000000000e+00
      268000000    5,328184739e-02    4,690082744e-03    6,667531282e-02   -7,676908374e-01    0,000000000e+00    0,000000000e+00    0,000000000e+00    0,000000000e+00
      282000000    5,744626001e-02   -4,494010285e-02   -3,455452323e-01   -6,826124191e-01    0,000000000e+00    0,000000000e+00    0,000000000e+00    0,000000000e+00
      296000000    2,611196972e-02   -8,460515738e-02   -6,551899910e-01   -3,981069028e-01    0,000000000e+00    0,000000000e+00    0,000000000e+00    0,000000000e+00
      310000000   -1,875034720e-02   -8,941777796e-02   -7,741129398e-01    1,167745888e-02    0,000000000e+00    0,000000000e+00    0,000000000e+00    0,000000000e+00
      324000000   -4,637008160e-02   -6,344673783e-02   -6,485401988e-01    4,302029908e-01    0,000000000e+00    0,000000000e+00    0,000000000e+00    0,000000000e+00
      338000000   -4,105992615e-02   -3,785047680e-02   -3,112905920e-01    7,114533782e-01    0,000000000e+00    0,000000000e+00    0,000000000e+00    0,000000000e+00
      352000000   -2,333263308e-02   -3,753510118e-02    1,197723746e-01    7,593775392e-01    0,000000000e+00    0,000000000e+00    0,000000000e+00    0,000000000e+00
      366000000   -2,277890779e-02   -5,604322255e-02    5,024486184e-01    5,726292133e-01    0,000000000e+00    0,000000000e+00    0,000000000e+00    0,000000000e+00
      380000000   -4,466592520e-02   -6,525626034e-02    7,263243794e-01    2,120027691e-01    0,000000000e+00    0,000000000e+00    0,000000000e+00    0,000000000e+00
      394000000   -6,639856100e-02   -5,076981708e-02    7,230917811e-01   -2,134204656e-01    0,000000000e+00    0,000000000e+00    0,000000000e+00    0,000000000e+00
      408000000   -6,773041189e-02   -2,630851790e-02    4,903138876e-01   -5,685870051e-01    0,000000000e+00    0,000000000e+00    0,000000000e+00    0,000000000e+00
      422000000   -5,333190039e-02   -1,557718590e-02    1,042756736e-01   -7,385159731e-01    0,000000000e+00    0,000000000e+00    0,000000000e+00    0,000000000e+00
      436000000   -4,654213786e-02   -1,885082014e-02   -3,063517213e-01   -6,767160892e-01    0,000000000e+00    0,000000000e+00    0,000000000e+00    0,000000000e+00
      450000000   -5,204989761e-02   -1,518113911e-02   -6,189573407e-01   -3,996466100e-01    0,000000000e+00    0,000000000e+00    0,000000000e+00    0,000000000e+00
      464000000   -5,069155246e-02    5,777979270e-03   -7,299142480e-01    3,728918498e-03    0,000000000e+00    0,000000000e+00    0,000000000e+00    0,000000000e+00
      478000000   -2,057604119e-02    2,633663639e-02   -5,990260839e-01    3,976533413e-01    0,000000000e+00    0,000000000e+00    0,000000000e+00    0,000000000e+00
      492000000    2,813934162e-02    1,443684381e-02   -2,797653973e-01    6,445230246e-01    0,000000000e+00    0,000000000e+00    0,000000000e+00    0,000000000e+00
      506000000    5,897095799e-02   -3,769478947e-02    1,050135493e-01    6,797387600e-01    0,000000000e+00    0,000000000e+00    0,000000000e+00    0,000000000e+00
      520000000    4,427292570e-02   -1,039427593e-01    4,473608434e-01    5,160838962e-01    0,000000000e+00    0,000000000e+00    0,000000000e+00    0,000000000e+00
      534000000   -1,320106909e-02   -1,436510235e-01    6,493533850e-01    2,058619112e-01    0,000000000e+00    0,000000000e+00    0,000000000e+00    0,000000000e+00
      548000000   -8,145526797e-02   -1,397136301e-01    6,603741646e-01   -1,760283113e-01    0,000000000e+00    0,000000000e+00    0,000000000e+00    0,000000000e+00
      562000000   -1,311955005e-01   -9,838265181e-02    4,510326684e-01   -5,085650086e-01    0,000000000e+00    0,000000000e+00    0,000000000e+00    0,000000000e+00
      576000000   -1,490541250e-01   -3,894469887e-02    8,221741766e-02   -6,607216001e-01    0,000000000e+00    0,000000000e+00    0,000000000e+00    0,000000000e+00
      590000000   -1,301854849e-01    2,856824361e-02   -2,972251475e-01   -5,659493208e-01    0,000000000e+00    0,000000000e+00    0,000000000e+00    0,000000000e+00
      604000000   -3,993032873e-02    6,848871708e-02   -4,906143844e-01   -2,707342803e-01    0,000000000e+00    0,000000000e+00    0,000000000e+00    0,000000000e+00
      618000000    3,495731950e-02   -2,781765535e-02   -4,936072230e-01   -4,718398303e-02    0,000000000e+00    0,000000000e+00    0,000000000e+00    0,000000000e+00
      632000000   -5,014340952e-02   -9,356851131e-02   -5,231968164e-01    1,764384210e-01    0,000000000e+00    0,000000000e+00    0,000000000e+00    0,000000000e+00
      646000000   -1,004171968e-01   -3,573862091e-02   -3,791618645e-01    4,753657579e-01    0,000000000e+00    0,000000000e+00    0,000000000e+00    0,000000000e+00
      660000000   -6,983979046e-02    9,874029085e-03   -5,207698047e-02    6,241496205e-01    0,000000000e+00    0,000000000e+00    0,000000000e+00    0,000000000e+00
      674000000   -3,120364621e-02    5,410338752e-03    2,977507412e-01    5,529215932e-01    0,000000000e+00    0,000000000e+00    0,000000000e+00    0,000000000e+00
      688000000   -1,514537539e-02   -1,728437468e-02    5,469173789e-01    3,031115234e-01    0,000000000e+00    0,000000000e+00    0,000000000e+00    0,000000000e+00
      702000000   -1,342554577e-02   -3,401726484e-02    6,191164255e-01   -4,161841050e-02    0,000000000e+00    0,000000000e+00    0,000000000e+00    0,000000000e+00
      716000000   -9,382179007e-03   -4,900183529e-02    4,921191633e-01   -3,683544099e-01    0,000000000e+00    0,000000000e+00    0,000000000e+00    0,000000000e+00
      730000000   -6,578948814e-03   -7,460438460e-02    2,110262811e-01   -5,680510402e-01    0,000000000e+00    0,000000000e+00    0,000000000e+00    0,000000000e+00
      744000000   -2,607979067e-02   -1,112815812e-01   -1,239293516e-01   -5,877797008e-01    0,000000000e+00    0,000000000e+00    0,000000000e+00    0,000000000e+00
      758000000   -7,409380376e-02   -1,323169917e-01   -4,199683070e-01   -4,325332642e-01    0,000000000e+00    0,000000000e+00    0,000000000e+00    0,000000000e+00
      772000000   -1,350332052e-01   -1,154638603e-01   -5,938674212e-01   -1,399716288e-01    0,000000000e+00    0,000000000e+00    0,000000000e+00    0,000000000e+00
      786000000   -1,712136418e-01   -5,834361911e-02   -5,819261074e-01    2,099289596e-01    0,000000000e+00    0,000000000e+00    0,000000000e+00    0,000000000e+00
      800000000   -1,596920937e-01    7,208634168e-03   -3,725049496e-01    4,959914088e-01    0,000000000e+00    0,000000000e+00    0,000000000e+00    0,000000000e+00
      814000000   -1,145194024e-01    4,328254610e-02   -4,592953250e-02    6,139669418e-01    0,000000000e+00    0,000000000e+00    0,000000000e+00    0,000000000e+00
      828000000   -6,916275620e-02    4,421052337e-02    2,849303782e-01    5,405370593e-01    0,000000000e+00    0,000000000e+00    0,000000000e+00    0,000000000e+00
      842000000   -3,948491812e-02    2,875506319e-02    5,212876201e-01    3,059300184e-01    0,000000000e+00    0,000000000e+00    0,000000000e+00    0,000000000e+00
      856000000   -1,837760583e-02    1,153955143e-02    5,944412947e-01   -1,375038922e-02    0,000000000e+00    0,000000000e+00    0,000000000e+00    0,000000000e+00
      870000000    2,062917454e-03   -1,169320662e-02    4,865247905e-01   -3,176180720e-01    0,000000000e+00    0,000000000e+00    0,000000000e+00    0,000000000e+00
      884000000    1,273333188e-02   -5,169776082e-02    2,427864969e-01   -5,121061802e-01    0,000000000e+00    0,000000000e+00    0,000000000e+00    0,000000000e+00
      898000000   -3,464163281e-03   -1,017697453e-01   -5,815431103e-02   -5,536741614e-01    0,000000000e+00    0,000000000e+00    0,000000000e+00    0,000000000e+00
      912000000   -6,253354996e-02   -1,312499046e-01   -3,887372911e-01   -4,099089503e-01    0,000000000e+00    0,000000000e+00    0,000000000e+00    0,000000000e+00
      926000000   -1,247792393e-01   -1,191796139e-01   -5,632535219e-01   -1,481588781e-01    0,000000000e+00    0,000000000e+00    0,000000000e+00    0,000000000e+00
      940000000   -1,639240831e-01   -6,478005648e-02   -5,689567327e-01    1,914459169e-01    0,000000000e+00    0,000000000e+00    0,000000000e+00    0,000000000e+00
      954000000   -1,491359919e-01    6,491678650e-04   -3,758862615e-01    4,833062291e-01    0,000000000e+00    0,000000000e+00    0,000000000e+00    0,000000000e+00
      968000000   -9,584760666e-02    2,471069060e-02   -4,974500835e-02    6,141147017e-01    0,000000000e+00    0,000000000e+00    0,000000000e+00    0,000000000e+00
      982000000   -5,640643463e-02    8,542136289e-03    2,818456292e-01    5,526944399e-01    0,000000000e+00    0,000000000e+00    0,000000000e+00    0,000000000e+00
      996000000   -4,157857969e-02   -3,418492898e-02    5,235216022e-01    3,304249942e-01    0,000000000e+00    0,000000000e+00    0,000000000e+00    0,000000000e+00
     1010000000   -6,129131839e-02   -6,293458492e-02    6,065093279e-01    1,615006477e-02    0,000000000e+00    0,000000000e+00    0,000000000e+00    0,000000000e+00
     1024000000   -9,941782802e-02   -8,119013160e-02    5,172033310e-01   -2,818019390e-01    0,000000000e+00    0,000000000e+00    0,000000000e+00    0,000000000e+00
     1038000000   -1,381551772e-01   -5,790767074e-02    2,945761085e-01   -4,729715884e-01    0,000000000e+00    0,000000000e+00    0,000000000e+00    0,000000000e+00
     1052000000   -1,540609598e-01   -2,707783366e-03    3,518595919e-02   -5,238668323e-01    0,000000000e+00    0,000000000e+00    0,000000000e+00    0,000000000e+00
     1066000000   -1,070298329e-01    3,838352114e-02   -2,113664895e-01   -4,665087461e-01    0,000000000e+00    0,000000000e+00    0,000000000e+00    0,000000000e+00
     1080000000   -5,551862717e-02    2,851409651e-02   -4,172849953e-01   -2,977208197e-01    0,000000000e+00    0,000000000e+00    0,000000000e+00    0,000000000e+00
     1094000000   -3,167296574e-02   -4,353614524e-03   -5,207199454e-01   -2,433748171e-02    0,000000000e+00    0,000000000e+00    0,000000000e+00    0,000000000e+00
     1108000000   -3,094732016e-02   -3,459976614e-02   -4,421520531e-01    2,862828076e-01    0,000000000e+00    0,000000000e+00    0,000000000e+00    0,000000000e+00
     1122000000   -2,731305920e-02   -5,795738846e-02   -1,854311973e-01    4,963187873e-01    0,000000000e+00    0,000000000e+00    0,000000000e+00    0,000000000e+00
     1136000000   -4,353692755e-02   -9,219563007e-02    1,502203941e-01    5,201711059e-01    0,000000000e+00    0,000000000e+00    0,000000000e+00    0,000000000e+00
     1150000000   -8,529820293e-02   -1,233891845e-01    4,536364675e-01    3,426860273e-01    0,000000000e+00    0,000000000e+00    0,000000000e+00    0,000000000e+00
     1164000000   -1,415764391e-01   -1,255924255e-01    6,103165150e-01    9,124470875e-03    0,000000000e+00    0,000000000e+00    0,000000000e+00    0,000000000e+00
     1178000000   -1,786738485e-01   -8,507589251e-02    5,411040783e-01   -3,734787703e-01    0,000000000e+00    0,000000000e+00    0,000000000e+00    0,000000000e+00
     1192000000   -1,817998886e-01   -5,489710346e-02    2,345221341e-01   -6,364959478e-01    0,000000000e+00    0,000000000e+00    0,000000000e+00    0,000000000e+00
     1206000000   -1,905577481e-01   -5,776648223e-02   -1,404519379e-01   -6,612823009e-01    0,000000000e+00    0,000000000e+00    0,000000000e+00    0,000000000e+00
     1220000000   -2,566640973e-01   -1,717234589e-02   -4,203518033e-01   -4,897712171e-01    0,000000000e+00    0,000000000e+00    0,000000000e+00    0,000000000e+00
     1234000000   -2,404952049e-01    1,167862639e-01   -5,587692857e-01   -2,462102622e-01    0,000000000e+00    0,000000000e+00    0,000000000e+00    0,000000000e+00
     1248000000   -1,142374501e-01    1,719375402e-01   -6,065643430e-01    1,443105564e-02    0,000000000e+00    0,000000000e+00    0,000000000e+00    0,000000000e+00
     1262000000   -6,531619467e-03    1,330124736e-01   -5,104103088e-01    2,987993062e-01    0,000000000e+00    0,000000000e+00    0,000000000e+00    0,000000000e+00
     1276000000    6,390416622e-02    4,410935566e-02   -2,817488909e-01    4,913896918e-01    0,000000000e+00    0,000000000e+00    0,000000000e+00    0,000000000e+00
     1290000000    7,212784886e-02   -6,763847172e-02    1,121131517e-02    5,485025048e-01    0,000000000e+00    0,000000000e+00    0,000000000e+00    0,000000000e+00
     1304000000    1,492595486e-02   -1,793358624e-01    2,954774499e-01    4,775060415e-01    0,000000000e+00    0,000000000e+00    0,000000000e+00    0,000000000e+00
     1318000000   -9,328289330e-02   -2,494944632e-01    5,356909633e-01    2,757995427e-01    0,000000000e+00    0,000000000e+00    0,000000000e+00    0,000000000e+00
     1332000000   -2,466361076e-01   -2,457752377e-01    6,460772753e-01   -4,881118983e-02    0,000000000e+00    0,000000000e+00    0,000000000e+00    0,000000000e+00
     1346000000   -3,567945957e-01   -1,400201023e-01    5,593678951e-01   -4,074664712e-01    0,000000000e+00    0,000000000e+00    0,000000000e+00    0,000000000e+00
     1360000000   -3,835311532e-01    9,422296658e-03    2,550837100e-01   -6,425389647e-01    0,000000000e+00    0,000000000e+00    0,000000000e+00    0,000000000e+00
     1374000000   -3,204880357e-01    1,176229864e-01   -9,618354589e-02   -6,286145449e-01    0,000000000e+00    0,000000000e+00    0,000000000e+00    0,000000000e+00
     1388000000   -2,359786779e-01    1,725977212e-01   -3,746194541e-01   -4,201368988e-01    0,000000000e+00    0,000000000e+00    0,000000000e+00    0,000000000e+00
     1402000000   -1,542907953e-01    1,718701571e-01   -4,774880409e-01   -1,024694368e-01    0,000000000e+00    0,000000000e+00    0,000000000e+00    0,000000000e+00
     1416000000   -8,742512017e-02    1,383508146e-01   -4,004785419e-01    2,012884319e-01    0,000000000e+00    0,000000000e+00    0,000000000e+00    0,000000000e+00
     1430000000   -3,780668229e-02    8,820417523e-02   -2,035735399e-01    4,427079558e-01    0,000000000e+00    0,000000000e+00    0,000000000e+00    0,000000000e+00
     1444000000   -1,581709087e-02    7,646057289e-03    1,236712188e-01    5,199356675e-01    0,000000000e+00    0,000000000e+00    0,000000000e+00    0,000000000e+00
     1458000000   -4,143368080e-02   -8,225089312e-02    4,342206717e-01    5,010349751e-01    0,000000000e+00    0,000000000e+00    0,000000000e+00    0,000000000e+00
     1472000000   -1,270066649e-01   -1,457621753e-01    7,185418010e-01    3,087995052e-01    0,000000000e+00    0,000000000e+00    0,000000000e+00    0,000000000e+00
     1486000000   -2,328294069e-01   -1,350593418e-01    9,009001255e-01   -2,085125633e-02    0,000000000e+00    0,000000000e+00    0,000000000e+00    0,000000000e+00
     1500000000   -3,008006811e-01   -6,456613541e-02    8,423647285e-01   -4,270502031e-01    0,000000000e+00    0,000000000e+00    0,000000000e+00    0,000000000e+00
