! NanoVNA-App
! Date: 2025-09-25 15:02:54
! Start: 100MHz Stop: 1,5GHz Points: 101
! S-Parameter data: F S11 S21 S12 S22
# Hz S RI R 50
!     Frequency           S11_Real           S11_Imag           S21_Real           S21_Imag           S12_Real           S12_Imag           S22_Real           S22_Imag
      100000000    3,559860587e-02    2,737519704e-02    4,407894909e-01   -6,695452929e-01    0,000000000e+00    0,000000000e+00    0,000000000e+00    0,000000000e+00
      114000000    6,073101610e-02    2,187087899e-03    1,294804458e-02   -7,953497767e-01    0,000000000e+00    0,000000000e+00    0,000000000e+00    0,000000000e+00
      128000000    6,839928776e-02   -4,226929694e-02   -4,080691338e-01   -6,782371402e-01    0,000000000e+00    0,000000000e+00    0,000000000e+00    0,000000000e+00
      142000000    4,350696877e-02   -8,879194409e-02   -7,050858736e-01   -3,609453738e-01    0,000000000e+00    0,000000000e+00    0,000000000e+00    0,000000000e+00
      156000000   -9,543698281e-03   -1,095068231e-01   -7,929283977e-01    6,681184471e-02    0,000000000e+00    0,000000000e+00    0,000000000e+00    0,000000000e+00
      170000000   -6,264475733e-02   -9,186580777e-02   -6,368632913e-01    4,861894846e-01    0,000000000e+00    0,000000000e+00    0,000000000e+00    0,000000000e+00
      184000000   -8,856736869e-02   -4,768610001e-02   -2,732916474e-01    7,561575770e-01    0,000000000e+00    0,000000000e+00    0,000000000e+00    0,000000000e+00
      198000000   -8,279595524e-02   -6,430964917e-03    1,795609295e-01    7,821717858e-01    0,000000000e+00    0,000000000e+00    0,000000000e+00    0,000000000e+00
      212000000   -6,267313659e-02    1,801193878e-02    5,705603957e-01    5,584549904e-01    0,000000000e+00    0,000000000e+00    0,000000000e+00    0,000000000e+00
      226000000   -4,149900377e-02    3,181146830e-02    7,768814564e-01    1,619143933e-01    0,000000000e+00    0,000000000e+00    0,000000000e+00    0,000000000e+00
      240000000   -1,486429479e-02    4,133062437e-02    7,359499931e-01   -2,786423564e-01    0,000000000e+00    0,000000000e+00    0,000000000e+00    0,000000000e+00
      254000000    2,141463943e-02    3,635273501e-02    4,681189954e-01   -6,221014857e-01    0,000000000e+00    0,000000000e+00    0,000000000e+00    0,000000000e+00
      268000000    5,332989618e-02    4,783364013e-03    6,695084274e-02   -7,670449018e-01    0,000000000e+00    0,000000000e+00    0,000000000e+00    0,000000000e+00
      282000000    5,748745054e-02   -4,488851503e-02   -3,459265530e-01   -6,827821732e-01    0,000000000e+00    0,000000000e+00    0,000000000e+00    0,000000000e+00
      296000000    2,612912096e-02   -8,482056111e-02   -6,552340388e-01   -3,977461159e-01    0,000000000e+00    0,000000000e+00    0,000000000e+00    0,000000000e+00
      310000000   -1,919805072e-02   -8,915550262e-02   -7,751085758e-01    1,052374393e-02    0,000000000e+00    0,000000000e+00    0,000000000e+00    0,000000000e+00
      324000000   -4,658576474e-02   -6,348539144e-02   -6,475632787e-01    4,298874140e-01    0,000000000e+00    0,000000000e+00    0,000000000e+00    0,000000000e+00
      338000000   -4,108132794e-02   -3,797970712e-02   -3,111013472e-01    7,109567523e-01    0,000000000e+00    0,000000000e+00    0,000000000e+00    0,000000000e+00
      352000000   -2,332757413e-02   -3,793847933e-02    1,194117144e-01    7,581632733e-01    0,000000000e+00    0,000000000e+00    0,000000000e+00    0,000000000e+00
      366000000   -2,296412736e-02   -5,598339438e-02    5,020824671e-01    5,713995695e-01    0,000000000e+00    0,000000000e+00    0,000000000e+00    0,000000000e+00
      380000000   -4,459783062e-02   -6,530810148e-02    7,268918157e-01    2,114320993e-01    0,000000000e+00    0,000000000e+00    0,000000000e+00    0,000000000e+00
      394000000   -6,650554389e-02   -5,050594360e-02    7,222067118e-01   -2,137991339e-01    0,000000000e+00    0,000000000e+00    0,000000000e+00    0,000000000e+00
      408000000   -6,772318482e-02   -2,624003962e-02    4,895597994e-01   -5,677481890e-01    0,000000000e+00    0,000000000e+00    0,000000000e+00    0,000000000e+00
      422000000   -5,326800793e-02   -1,487650163e-02    1,049418151e-01   -7,384601831e-01    0,000000000e+00    0,000000000e+00    0,000000000e+00    0,000000000e+00
      436000000   -4,618075117e-02   -1,858432032e-02   -3,059209585e-01   -6,760804653e-01    0,000000000e+00    0,000000000e+00    0,000000000e+00    0,000000000e+00
      450000000   -5,236152932e-02   -1,519837882e-02   -6,189554334e-01   -3,994134068e-01    0,000000000e+00    0,000000000e+00    0,000000000e+00    0,000000000e+00
      464000000   -5,026781932e-02    6,102496292e-03   -7,297718525e-01    3,637258662e-03    0,000000000e+00    0,000000000e+00    0,000000000e+00    0,000000000e+00
      478000000   -2,028207853e-02    2,644512430e-02   -5,986179709e-01    3,975276947e-01    0,000000000e+00    0,000000000e+00    0,000000000e+00    0,000000000e+00
      492000000    2,854377218e-02    1,473486796e-02   -2,799386680e-01    6,443282366e-01    0,000000000e+00    0,000000000e+00    0,000000000e+00    0,000000000e+00
      506000000    5,870052800e-02   -3,755375370e-02    1,050735191e-01    6,799809337e-01    0,000000000e+00    0,000000000e+00    0,000000000e+00    0,000000000e+00
      520000000    4,395402595e-02   -1,027574912e-01    4,416858852e-01    5,163540840e-01    0,000000000e+00    0,000000000e+00    0,000000000e+00    0,000000000e+00
      534000000   -1,301090606e-02   -1,443334967e-01    6,490517259e-01    2,052056193e-01    0,000000000e+00    0,000000000e+00    0,000000000e+00    0,000000000e+00
      548000000   -8,180471510e-02   -1,396259815e-01    6,595874429e-01   -1,762542129e-01    0,000000000e+00    0,000000000e+00    0,000000000e+00    0,000000000e+00
      562000000   -1,316851079e-01   -9,787178040e-02    4,510614276e-01   -5,089706779e-01    0,000000000e+00    0,000000000e+00    0,000000000e+00    0,000000000e+00
      576000000   -1,502907723e-01   -3,840921447e-02    8,124264330e-02   -6,604340672e-01    0,000000000e+00    0,000000000e+00    0,000000000e+00    0,000000000e+00
      590000000   -1,295985281e-01    3,041064180e-02   -2,938862741e-01   -5,629605651e-01    0,000000000e+00    0,000000000e+00    0,000000000e+00    0,000000000e+00
      604000000   -3,581465408e-02    6,876008213e-02   -4,852328897e-01   -2,692140341e-01    0,000000000e+00    0,000000000e+00    0,000000000e+00    0,000000000e+00
      618000000    3,396606818e-02   -3,342955932e-02   -4,940591753e-01   -5,468475819e-02    0,000000000e+00    0,000000000e+00    0,000000000e+00    0,000000000e+00
      632000000   -5,476712435e-02   -9,235558659e-02   -5,284999609e-01    1,779871136e-01    0,000000000e+00    0,000000000e+00    0,000000000e+00    0,000000000e+00
      646000000   -1,001795530e-01   -3,202360868e-02   -3,797184825e-01    4,788102508e-01    0,000000000e+00    0,000000000e+00    0,000000000e+00    0,000000000e+00
      660000000   -6,857784837e-02    9,798958898e-03   -5,039579049e-02    6,253186464e-01    0,000000000e+00    0,000000000e+00    0,000000000e+00    0,000000000e+00
      674000000   -2,966744453e-02    5,171901081e-03    2,992813885e-01    5,520992279e-01    0,000000000e+00    0,000000000e+00    0,000000000e+00    0,000000000e+00
      688000000   -1,489700843e-02   -1,870603859e-02    5,469629765e-01    3,028380275e-01    0,000000000e+00    0,000000000e+00    0,000000000e+00    0,000000000e+00
      702000000   -1,328741573e-02   -3,491666913e-02    6,170492172e-01   -4,331892356e-02    0,000000000e+00    0,000000000e+00    0,000000000e+00    0,000000000e+00
      716000000   -9,624892846e-03   -4,840869457e-02    4,919890165e-01   -3,684568107e-01    0,000000000e+00    0,000000000e+00    0,000000000e+00    0,000000000e+00
      730000000   -7,238623686e-03   -7,386992872e-02    2,112015486e-01   -5,682699680e-01    0,000000000e+00    0,000000000e+00    0,000000000e+00    0,000000000e+00
      744000000   -2,554021776e-02   -1,108623371e-01   -1,233670264e-01   -5,869618058e-01    0,000000000e+00    0,000000000e+00    0,000000000e+00    0,000000000e+00
      758000000   -7,464335114e-02   -1,332087219e-01   -4,192575812e-01   -4,317542315e-01    0,000000000e+00    0,000000000e+00    0,000000000e+00    0,000000000e+00
      772000000   -1,353533119e-01   -1,161400452e-01   -5,938821435e-01   -1,401691735e-01    0,000000000e+00    0,000000000e+00    0,000000000e+00    0,000000000e+00
      786000000   -1,711963862e-01   -5,922907218e-02   -5,814749599e-01    2,098983228e-01    0,000000000e+00    0,000000000e+00    0,000000000e+00    0,000000000e+00
      800000000   -1,591667980e-01    6,514962297e-03   -3,736382425e-01    4,954931736e-01    0,000000000e+00    0,000000000e+00    0,000000000e+00    0,000000000e+00
      814000000   -1,140969172e-01    4,247111827e-02   -4,542614892e-02    6,159317493e-01    0,000000000e+00    0,000000000e+00    0,000000000e+00    0,000000000e+00
      828000000   -6,890712678e-02    4,349352419e-02    2,853862643e-01    5,400727987e-01    0,000000000e+00    0,000000000e+00    0,000000000e+00    0,000000000e+00
      842000000   -3,871568292e-02    2,933226340e-02    5,207993388e-01    3,059016466e-01    0,000000000e+00    0,000000000e+00    0,000000000e+00    0,000000000e+00
      856000000   -1,815632358e-02    1,261317357e-02    5,942767262e-01   -1,406329777e-02    0,000000000e+00    0,000000000e+00    0,000000000e+00    0,000000000e+00
      870000000    2,393146744e-03   -1,146041881e-02    4,860392809e-01   -3,169589937e-01    0,000000000e+00    0,000000000e+00    0,000000000e+00    0,000000000e+00
      884000000    1,339664683e-02   -5,115130171e-02    2,414693981e-01   -5,113633275e-01    0,000000000e+00    0,000000000e+00    0,000000000e+00    0,000000000e+00
      898000000   -4,428336397e-03   -1,021552458e-01   -5,924283713e-02   -5,537320971e-01    0,000000000e+00    0,000000000e+00    0,000000000e+00    0,000000000e+00
      912000000   -6,302171201e-02   -1,324223131e-01   -3,800934255e-01   -4,125387967e-01    0,000000000e+00    0,000000000e+00    0,000000000e+00    0,000000000e+00
      926000000   -1,273044497e-01   -1,207350641e-01   -5,676559806e-01   -1,508405507e-01    0,000000000e+00    0,000000000e+00    0,000000000e+00    0,000000000e+00
      940000000   -1,655576527e-01   -6,099279225e-02   -5,699926019e-01    1,926877797e-01    0,000000000e+00    0,000000000e+00    0,000000000e+00    0,000000000e+00
      954000000   -1,452477574e-01    1,592100161e-04   -3,742254972e-01    4,830808938e-01    0,000000000e+00    0,000000000e+00    0,000000000e+00    0,000000000e+00
      968000000   -9,685589373e-02    2,082556672e-02   -5,358324200e-02    6,134960651e-01    0,000000000e+00    0,000000000e+00    0,000000000e+00    0,000000000e+00
      982000000   -5,626629665e-02    6,565687247e-03    2,802866101e-01    5,520325303e-01    0,000000000e+00    0,000000000e+00    0,000000000e+00    0,000000000e+00
      996000000   -4,584370553e-02   -3,529819474e-02    5,221937299e-01    3,281825483e-01    0,000000000e+00    0,000000000e+00    0,000000000e+00    0,000000000e+00
     1010000000   -6,479446590e-02   -6,363108009e-02    6,074023843e-01    1,602413133e-02    0,000000000e+00    0,000000000e+00    0,000000000e+00    0,000000000e+00
     1024000000   -1,033182517e-01   -7,659115642e-02    5,159701109e-01   -2,792184949e-01    0,000000000e+00    0,000000000e+00    0,000000000e+00    0,000000000e+00
     1038000000   -1,394794583e-01   -5,500057340e-02    2,958064377e-01   -4,692210853e-01    0,000000000e+00    0,000000000e+00    0,000000000e+00    0,000000000e+00
     1052000000   -1,495360285e-01   -2,770342398e-03    3,793928772e-02   -5,245339274e-01    0,000000000e+00    0,000000000e+00    0,000000000e+00    0,000000000e+00
     1066000000   -1,064126566e-01    4,188699648e-02   -2,131818980e-01   -4,665507078e-01    0,000000000e+00    0,000000000e+00    0,000000000e+00    0,000000000e+00
     1080000000   -5,602096766e-02    2,574372105e-02   -4,192161858e-01   -2,987988293e-01    0,000000000e+00    0,000000000e+00    0,000000000e+00    0,000000000e+00
     1094000000   -3,732729331e-02   -9,943966754e-03   -5,208660364e-01   -2,341614850e-02    0,000000000e+00    0,000000000e+00    0,000000000e+00    0,000000000e+00
     1108000000   -3,317575529e-02   -2,917137370e-02   -4,429542720e-01    2,865998745e-01    0,000000000e+00    0,000000000e+00    0,000000000e+00    0,000000000e+00
     1122000000   -3,313940018e-02   -5,569264665e-02   -1,856561452e-01    4,943453670e-01    0,000000000e+00    0,000000000e+00    0,000000000e+00    0,000000000e+00
     1136000000   -4,582784325e-02   -9,306690097e-02    1,525943279e-01    5,219537616e-01    0,000000000e+00    0,000000000e+00    0,000000000e+00    0,000000000e+00
     1150000000   -8,105675876e-02   -1,226584911e-01    4,525844753e-01    3,430982232e-01    0,000000000e+00    0,000000000e+00    0,000000000e+00    0,000000000e+00
     1164000000   -1,374417245e-01   -1,250158697e-01    6,115009189e-01    1,294977032e-02    0,000000000e+00    0,000000000e+00    0,000000000e+00    0,000000000e+00
     1178000000   -1,794377565e-01   -8,768461645e-02    5,359621644e-01   -3,727965653e-01    0,000000000e+00    0,000000000e+00    0,000000000e+00    0,000000000e+00
     1192000000   -1,812210977e-01   -5,587466806e-02    2,408929765e-01   -6,393650770e-01    0,000000000e+00    0,000000000e+00    0,000000000e+00    0,000000000e+00
     1206000000   -1,906594783e-01   -5,659566447e-02   -1,423919052e-01   -6,596761346e-01    0,000000000e+00    0,000000000e+00    0,000000000e+00    0,000000000e+00
     1220000000   -2,519986033e-01   -1,615950465e-02   -4,144724607e-01   -4,830655754e-01    0,000000000e+00    0,000000000e+00    0,000000000e+00    0,000000000e+00
     1234000000   -2,337848395e-01    1,165044010e-01   -5,570539832e-01   -2,538083494e-01    0,000000000e+00    0,000000000e+00    0,000000000e+00    0,000000000e+00
     1248000000   -1,124499962e-01    1,775491983e-01   -6,025943756e-01    1,869769022e-02    0,000000000e+00    0,000000000e+00    0,000000000e+00    0,000000000e+00
     1262000000   -1,363499672e-03    1,277336329e-01   -5,052977204e-01    2,939796746e-01    0,000000000e+00    0,000000000e+00    0,000000000e+00    0,000000000e+00
     1276000000    5,876460299e-02    4,244045541e-02   -2,804675400e-01    4,924144447e-01    0,000000000e+00    0,000000000e+00    0,000000000e+00    0,000000000e+00
     1290000000    6,761264056e-02   -7,066623122e-02    1,206218824e-02    5,534705520e-01    0,000000000e+00    0,000000000e+00    0,000000000e+00    0,000000000e+00
     1304000000    1,849878021e-02   -1,831184030e-01    2,966063619e-01    4,756703675e-01    0,000000000e+00    0,000000000e+00    0,000000000e+00    0,000000000e+00
     1318000000   -9,354420006e-02   -2,501712739e-01    5,401850343e-01    2,674976289e-01    0,000000000e+00    0,000000000e+00    0,000000000e+00    0,000000000e+00
     1332000000   -2,428362072e-01   -2,426046133e-01    6,557065248e-01   -5,293732509e-02    0,000000000e+00    0,000000000e+00    0,000000000e+00    0,000000000e+00
     1346000000   -3,582948446e-01   -1,431338936e-01    5,577746630e-01   -4,053961635e-01    0,000000000e+00    0,000000000e+00    0,000000000e+00    0,000000000e+00
     1360000000   -3,839047551e-01    9,565738030e-03    2,544025183e-01   -6,295173764e-01    0,000000000e+00    0,000000000e+00    0,000000000e+00    0,000000000e+00
     1374000000   -3,242714703e-01    1,231169254e-01   -1,049552336e-01   -6,157560945e-01    0,000000000e+00    0,000000000e+00    0,000000000e+00    0,000000000e+00
     1388000000   -2,389990389e-01    1,673081964e-01   -3,814376295e-01   -4,175864160e-01    0,000000000e+00    0,000000000e+00    0,000000000e+00    0,000000000e+00
     1402000000   -1,575635076e-01    1,717591882e-01   -4,718009233e-01   -1,143785417e-01    0,000000000e+00    0,000000000e+00    0,000000000e+00    0,000000000e+00
     1416000000   -8,145035058e-02    1,428922564e-01   -3,895761669e-01    1,993072927e-01    0,000000000e+00    0,000000000e+00    0,000000000e+00    0,000000000e+00
     1430000000   -3,066228144e-02    8,406788856e-02   -1,806556582e-01    4,452212453e-01    0,000000000e+00    0,000000000e+00    0,000000000e+00    0,000000000e+00
     1444000000   -1,683215238e-02    2,380099846e-03    1,210806370e-01    5,170503855e-01    0,000000000e+00    0,000000000e+00    0,000000000e+00    0,000000000e+00
     1458000000   -4,414278269e-02   -8,076775819e-02    4,291925132e-01    5,048613548e-01    0,000000000e+00    0,000000000e+00    0,000000000e+00    0,000000000e+00
     1472000000   -1,217186004e-01   -1,383025497e-01    7,316880226e-01    3,093001842e-01    0,000000000e+00    0,000000000e+00    0,000000000e+00    0,000000000e+00
     1486000000   -2,310713232e-01   -1,344438642e-01    9,010159969e-01   -1,808213070e-02    0,000000000e+00    0,000000000e+00    0,000000000e+00    0,000000000e+00
     1500000000   -3,084101379e-01   -6,072935462e-02    8,387562633e-01   -4,194220901e-01    0,000000000e+00    0,000000000e+00    0,000000000e+00    0,000000000e+00
