! NanoVNA-App
! Date: 2025-09-25 15:00:41
! Start: 100MHz Stop: 1,5GHz Points: 101
! S-Parameter data: F S11 S21 S12 S22
# Hz S RI R 50
!     Frequency           S11_Real           S11_Imag           S21_Real           S21_Imag           S12_Real           S12_Imag           S22_Real           S22_Imag
      100000000    3,558040783e-02    2,736816369e-02    4,407541752e-01   -6,695686579e-01    0,000000000e+00    0,000000000e+00    0,000000000e+00    0,000000000e+00
      114000000    6,070051715e-02    2,139115939e-03    1,279207505e-02   -7,952784300e-01    0,000000000e+00    0,000000000e+00    0,000000000e+00    0,000000000e+00
      128000000    6,835965812e-02   -4,230790213e-02   -4,082244933e-01   -6,779916286e-01    0,000000000e+00    0,000000000e+00    0,000000000e+00    0,000000000e+00
      142000000    4,347042367e-02   -8,877976239e-02   -7,054258585e-01   -3,609348834e-01    0,000000000e+00    0,000000000e+00    0,000000000e+00    0,000000000e+00
      156000000   -8,798875846e-03   -1,102220640e-01   -7,942962646e-01    6,799186766e-02    0,000000000e+00    0,000000000e+00    0,000000000e+00    0,000000000e+00
      170000000   -6,268183887e-02   -9,184857458e-02   -6,372896433e-01    4,865526855e-01    0,000000000e+00    0,000000000e+00    0,000000000e+00    0,000000000e+00
      184000000   -8,859187365e-02   -4,768030718e-02   -2,733251452e-01    7,563338876e-01    0,000000000e+00    0,000000000e+00    0,000000000e+00    0,000000000e+00
      198000000   -8,276668936e-02   -6,396125536e-03    1,797337383e-01    7,822761536e-01    0,000000000e+00    0,000000000e+00    0,000000000e+00    0,000000000e+00
      212000000   -6,270957738e-02    1,798206381e-02    5,706506371e-01    5,584781170e-01    0,000000000e+00    0,000000000e+00    0,000000000e+00    0,000000000e+00
      226000000   -4,147017747e-02    3,178589419e-02    7,767149210e-01    1,618888080e-01    0,000000000e+00    0,000000000e+00    0,000000000e+00    0,000000000e+00
      240000000   -1,495594066e-02    4,129873961e-02    7,362065315e-01   -2,787475884e-01    0,000000000e+00    0,000000000e+00    0,000000000e+00    0,000000000e+00
      254000000    2,137665078e-02    3,629798070e-02    4,677244425e-01   -6,218115687e-01    0,000000000e+00    0,000000000e+00    0,000000000e+00    0,000000000e+00
      268000000    5,329453200e-02    4,773292225e-03    6,652703136e-02   -7,673345208e-01    0,000000000e+00    0,000000000e+00    0,000000000e+00    0,000000000e+00
      282000000    5,741944164e-02   -4,487336800e-02   -3,458441198e-01   -6,823179722e-01    0,000000000e+00    0,000000000e+00    0,000000000e+00    0,000000000e+00
      296000000    2,614277415e-02   -8,485581726e-02   -6,547600627e-01   -3,976964653e-01    0,000000000e+00    0,000000000e+00    0,000000000e+00    0,000000000e+00
      310000000   -1,910191774e-02   -8,955483884e-02   -7,747005820e-01    1,007462200e-02    0,000000000e+00    0,000000000e+00    0,000000000e+00    0,000000000e+00
      324000000   -4,658469930e-02   -6,339784712e-02   -6,473497152e-01    4,298260212e-01    0,000000000e+00    0,000000000e+00    0,000000000e+00    0,000000000e+00
      338000000   -4,119408876e-02   -3,770161793e-02   -3,094002604e-01    7,118252516e-01    0,000000000e+00    0,000000000e+00    0,000000000e+00    0,000000000e+00
      352000000   -2,372886613e-02   -3,766398504e-02    1,194180474e-01    7,584065199e-01    0,000000000e+00    0,000000000e+00    0,000000000e+00    0,000000000e+00
      366000000   -2,301570401e-02   -5,612100288e-02    5,029062033e-01    5,717071295e-01    0,000000000e+00    0,000000000e+00    0,000000000e+00    0,000000000e+00
      380000000   -4,468364269e-02   -6,498485059e-02    7,264983654e-01    2,119741142e-01    0,000000000e+00    0,000000000e+00    0,000000000e+00    0,000000000e+00
      394000000   -6,637721509e-02   -5,073251948e-02    7,230073810e-01   -2,137769163e-01    0,000000000e+00    0,000000000e+00    0,000000000e+00    0,000000000e+00
      408000000   -6,759966165e-02   -2,647397481e-02    4,893433750e-01   -5,685735941e-01    0,000000000e+00    0,000000000e+00    0,000000000e+00    0,000000000e+00
      422000000   -5,354964733e-02   -1,537609473e-02    1,055497974e-01   -7,381496429e-01    0,000000000e+00    0,000000000e+00    0,000000000e+00    0,000000000e+00
      436000000   -4,636066407e-02   -1,833497919e-02   -3,057996333e-01   -6,751796603e-01    0,000000000e+00    0,000000000e+00    0,000000000e+00    0,000000000e+00
      450000000   -5,199245363e-02   -1,483915374e-02   -6,191774011e-01   -3,994520903e-01    0,000000000e+00    0,000000000e+00    0,000000000e+00    0,000000000e+00
      464000000   -5,018675700e-02    5,879847333e-03   -7,296732068e-01    3,492835909e-03    0,000000000e+00    0,000000000e+00    0,000000000e+00    0,000000000e+00
      478000000   -2,064011991e-02    2,687147073e-02   -5,986833572e-01    3,975841105e-01    0,000000000e+00    0,000000000e+00    0,000000000e+00    0,000000000e+00
      492000000    2,825393528e-02    1,501392946e-02   -2,811027169e-01    6,438910961e-01    0,000000000e+00    0,000000000e+00    0,000000000e+00    0,000000000e+00
      506000000    5,881548673e-02   -3,743666410e-02    1,046086326e-01    6,802094579e-01    0,000000000e+00    0,000000000e+00    0,000000000e+00    0,000000000e+00
      520000000    4,418914765e-02   -1,027089730e-01    4,432724416e-01    5,183168054e-01    0,000000000e+00    0,000000000e+00    0,000000000e+00    0,000000000e+00
      534000000   -1,247297972e-02   -1,437769234e-01    6,499142051e-01    2,058119178e-01    0,000000000e+00    0,000000000e+00    0,000000000e+00    0,000000000e+00
      548000000   -8,195742965e-02   -1,395301223e-01    6,594749689e-01   -1,760167629e-01    0,000000000e+00    0,000000000e+00    0,000000000e+00    0,000000000e+00
      562000000   -1,306654513e-01   -9,795967489e-02    4,509786367e-01   -5,095877051e-01    0,000000000e+00    0,000000000e+00    0,000000000e+00    0,000000000e+00
      576000000   -1,489917338e-01   -3,880931810e-02    8,251688629e-02   -6,613625288e-01    0,000000000e+00    0,000000000e+00    0,000000000e+00    0,000000000e+00
      590000000   -1,302281320e-01    2,802135237e-02   -2,938691080e-01   -5,652207136e-01    0,000000000e+00    0,000000000e+00    0,000000000e+00    0,000000000e+00
      604000000   -4,074963927e-02    6,846852601e-02   -4,913595021e-01   -2,705710828e-01    0,000000000e+00    0,000000000e+00    0,000000000e+00    0,000000000e+00
      618000000    3,536410630e-02   -2,663173154e-02   -4,933531880e-01   -4,620686918e-02    0,000000000e+00    0,000000000e+00    0,000000000e+00    0,000000000e+00
      632000000   -4,944259301e-02   -9,388099611e-02   -5,221887827e-01    1,766373813e-01    0,000000000e+00    0,000000000e+00    0,000000000e+00    0,000000000e+00
      646000000   -9,968879819e-02   -3,573197499e-02   -3,799303472e-01    4,748185873e-01    0,000000000e+00    0,000000000e+00    0,000000000e+00    0,000000000e+00
      660000000   -7,020913810e-02    9,780562483e-03   -5,158545449e-02    6,245456934e-01    0,000000000e+00    0,000000000e+00    0,000000000e+00    0,000000000e+00
      674000000   -3,052731976e-02    5,161628593e-03    2,966463566e-01    5,537880659e-01    0,000000000e+00    0,000000000e+00    0,000000000e+00    0,000000000e+00
      688000000   -1,608155109e-02   -1,770871691e-02    5,467118621e-01    3,037110269e-01    0,000000000e+00    0,000000000e+00    0,000000000e+00    0,000000000e+00
      702000000   -1,371791866e-02   -3,317733482e-02    6,183460355e-01   -4,256888106e-02    0,000000000e+00    0,000000000e+00    0,000000000e+00    0,000000000e+00
      716000000   -8,942735381e-03   -4,882863164e-02    4,925486147e-01   -3,677093387e-01    0,000000000e+00    0,000000000e+00    0,000000000e+00    0,000000000e+00
      730000000   -7,502343040e-03   -7,454605401e-02    2,122745365e-01   -5,673598647e-01    0,000000000e+00    0,000000000e+00    0,000000000e+00    0,000000000e+00
      744000000   -2,617478557e-02   -1,115694717e-01   -1,230064556e-01   -5,879891515e-01    0,000000000e+00    0,000000000e+00    0,000000000e+00    0,000000000e+00
      758000000   -7,506065816e-02   -1,324834079e-01   -4,191967547e-01   -4,328587055e-01    0,000000000e+00    0,000000000e+00    0,000000000e+00    0,000000000e+00
      772000000   -1,362925619e-01   -1,160029843e-01   -5,935664773e-01   -1,403042674e-01    0,000000000e+00    0,000000000e+00    0,000000000e+00    0,000000000e+00
      786000000   -1,718044430e-01   -5,773294717e-02   -5,815293193e-01    2,093998790e-01    0,000000000e+00    0,000000000e+00    0,000000000e+00    0,000000000e+00
      800000000   -1,599607468e-01    7,597621996e-03   -3,735853434e-01    4,962012172e-01    0,000000000e+00    0,000000000e+00    0,000000000e+00    0,000000000e+00
      814000000   -1,140582711e-01    4,250430688e-02   -4,497167841e-02    6,144617796e-01    0,000000000e+00    0,000000000e+00    0,000000000e+00    0,000000000e+00
      828000000   -6,910508871e-02    4,414429516e-02    2,852780223e-01    5,405957699e-01    0,000000000e+00    0,000000000e+00    0,000000000e+00    0,000000000e+00
      842000000   -3,905355185e-02    2,847626619e-02    5,211113095e-01    3,055257201e-01    0,000000000e+00    0,000000000e+00    0,000000000e+00    0,000000000e+00
      856000000   -1,853789575e-02    1,184050366e-02    5,947582722e-01   -1,386767067e-02    0,000000000e+00    0,000000000e+00    0,000000000e+00    0,000000000e+00
      870000000    1,247921493e-03   -1,094490010e-02    4,865325689e-01   -3,173430860e-01    0,000000000e+00    0,000000000e+00    0,000000000e+00    0,000000000e+00
      884000000    1,263463404e-02   -5,165756121e-02    2,431740463e-01   -5,118606687e-01    0,000000000e+00    0,000000000e+00    0,000000000e+00    0,000000000e+00
      898000000   -3,784486093e-03   -1,019744352e-01   -5,982287228e-02   -5,551594496e-01    0,000000000e+00    0,000000000e+00    0,000000000e+00    0,000000000e+00
      912000000   -6,270629168e-02   -1,318018585e-01   -3,804428577e-01   -4,207697213e-01    0,000000000e+00    0,000000000e+00    0,000000000e+00    0,000000000e+00
      926000000   -1,247127056e-01   -1,177290902e-01   -5,653918386e-01   -1,465555429e-01    0,000000000e+00    0,000000000e+00    0,000000000e+00    0,000000000e+00
      940000000   -1,654358953e-01   -6,498765945e-02   -5,693748593e-01    1,914362311e-01    0,000000000e+00    0,000000000e+00    0,000000000e+00    0,000000000e+00
      954000000   -1,505782753e-01    6,711781025e-04   -3,749718070e-01    4,855512083e-01    0,000000000e+00    0,000000000e+00    0,000000000e+00    0,000000000e+00
      968000000   -9,982356429e-02    2,198527381e-02   -5,051593110e-02    6,165675521e-01    0,000000000e+00    0,000000000e+00    0,000000000e+00    0,000000000e+00
      982000000   -5,685493350e-02    2,910675248e-03    2,834585011e-01    5,511611700e-01    0,000000000e+00    0,000000000e+00    0,000000000e+00    0,000000000e+00
      996000000   -4,360161349e-02   -3,053579107e-02    5,239734650e-01    3,276859820e-01    0,000000000e+00    0,000000000e+00    0,000000000e+00    0,000000000e+00
     1010000000   -6,143303961e-02   -6,784683466e-02    6,080812216e-01    1,609335840e-02    0,000000000e+00    0,000000000e+00    0,000000000e+00    0,000000000e+00
     1024000000   -9,798014909e-02   -7,974674553e-02    5,138458610e-01   -2,810991108e-01    0,000000000e+00    0,000000000e+00    0,000000000e+00    0,000000000e+00
     1038000000   -1,384537518e-01   -5,645732582e-02    2,942777276e-01   -4,719596505e-01    0,000000000e+00    0,000000000e+00    0,000000000e+00    0,000000000e+00
     1052000000   -1,517238021e-01    2,197014401e-03    3,541490436e-02   -5,268691182e-01    0,000000000e+00    0,000000000e+00    0,000000000e+00    0,000000000e+00
     1066000000   -1,020645648e-01    3,833516687e-02   -2,169489563e-01   -4,637254775e-01    0,000000000e+00    0,000000000e+00    0,000000000e+00    0,000000000e+00
     1080000000   -5,500547588e-02    2,288672142e-02   -4,184379280e-01   -2,974420190e-01    0,000000000e+00    0,000000000e+00    0,000000000e+00    0,000000000e+00
     1094000000   -3,171135858e-02   -9,976580739e-03   -5,202310085e-01   -2,415306680e-02    0,000000000e+00    0,000000000e+00    0,000000000e+00    0,000000000e+00
     1108000000   -2,855144627e-02   -3,160473704e-02   -4,430222511e-01    2,859419882e-01    0,000000000e+00    0,000000000e+00    0,000000000e+00    0,000000000e+00
     1122000000   -3,418904915e-02   -5,926807597e-02   -1,875864416e-01    5,000295639e-01    0,000000000e+00    0,000000000e+00    0,000000000e+00    0,000000000e+00
     1136000000   -4,522700980e-02   -9,204970300e-02    1,526143998e-01    5,184962749e-01    0,000000000e+00    0,000000000e+00    0,000000000e+00    0,000000000e+00
     1150000000   -8,105017990e-02   -1,237855926e-01    4,520240128e-01    3,434469402e-01    0,000000000e+00    0,000000000e+00    0,000000000e+00    0,000000000e+00
     1164000000   -1,406837404e-01   -1,188245043e-01    6,132197976e-01    1,428794023e-02    0,000000000e+00    0,000000000e+00    0,000000000e+00    0,000000000e+00
     1178000000   -1,704086512e-01   -8,723128587e-02    5,382230878e-01   -3,728991747e-01    0,000000000e+00    0,000000000e+00    0,000000000e+00    0,000000000e+00
     1192000000   -1,786947399e-01   -5,168243125e-02    2,432629317e-01   -6,384617686e-01    0,000000000e+00    0,000000000e+00    0,000000000e+00    0,000000000e+00
     1206000000   -1,909768283e-01   -5,935996771e-02   -1,402939856e-01   -6,622420549e-01    0,000000000e+00    0,000000000e+00    0,000000000e+00    0,000000000e+00
     1220000000   -2,561362684e-01   -1,384276431e-02   -4,230444133e-01   -4,838854074e-01    0,000000000e+00    0,000000000e+00    0,000000000e+00    0,000000000e+00
     1234000000   -2,460920960e-01    1,139629483e-01   -5,610918999e-01   -2,490206659e-01    0,000000000e+00    0,000000000e+00    0,000000000e+00    0,000000000e+00
     1248000000   -1,124806926e-01    1,724410802e-01   -6,064484119e-01    1,847369596e-02    0,000000000e+00    0,000000000e+00    0,000000000e+00    0,000000000e+00
     1262000000   -6,769109052e-03    1,329868287e-01   -5,045891404e-01    2,958674133e-01    0,000000000e+00    0,000000000e+00    0,000000000e+00    0,000000000e+00
     1276000000    6,428839266e-02    4,153271392e-02   -2,733625770e-01    4,888495505e-01    0,000000000e+00    0,000000000e+00    0,000000000e+00    0,000000000e+00
     1290000000    7,158388942e-02   -7,434607297e-02    9,082621895e-03    5,475887060e-01    0,000000000e+00    0,000000000e+00    0,000000000e+00    0,000000000e+00
     1304000000    1,692721434e-02   -1,787911355e-01    2,937512100e-01    4,748643339e-01    0,000000000e+00    0,000000000e+00    0,000000000e+00    0,000000000e+00
     1318000000   -9,805765003e-02   -2,529808581e-01    5,352493525e-01    2,750440538e-01    0,000000000e+00    0,000000000e+00    0,000000000e+00    0,000000000e+00
     1332000000   -2,424766868e-01   -2,454440892e-01    6,545297503e-01   -5,894447491e-02    0,000000000e+00    0,000000000e+00    0,000000000e+00    0,000000000e+00
     1346000000   -3,646866679e-01   -1,343434155e-01    5,490580201e-01   -4,086639881e-01    0,000000000e+00    0,000000000e+00    0,000000000e+00    0,000000000e+00
     1360000000   -3,891852200e-01    7,014020346e-03    2,509435713e-01   -6,361289024e-01    0,000000000e+00    0,000000000e+00    0,000000000e+00    0,000000000e+00
     1374000000   -3,239203393e-01    1,175947562e-01   -1,110948622e-01   -6,307802796e-01    0,000000000e+00    0,000000000e+00    0,000000000e+00    0,000000000e+00
     1388000000   -2,364759594e-01    1,695155799e-01   -3,809321225e-01   -4,135659039e-01    0,000000000e+00    0,000000000e+00    0,000000000e+00    0,000000000e+00
     1402000000   -1,531649977e-01    1,701197475e-01   -4,746064544e-01   -1,003991291e-01    0,000000000e+00    0,000000000e+00    0,000000000e+00    0,000000000e+00
     1416000000   -8,832468837e-02    1,423200369e-01   -3,937471807e-01    2,070685774e-01    0,000000000e+00    0,000000000e+00    0,000000000e+00    0,000000000e+00
     1430000000   -2,982171625e-02    8,784811944e-02   -1,805599034e-01    4,395494759e-01    0,000000000e+00    0,000000000e+00    0,000000000e+00    0,000000000e+00
     1444000000   -1,470820326e-02    5,962983239e-03    1,182508916e-01    5,289561749e-01    0,000000000e+00    0,000000000e+00    0,000000000e+00    0,000000000e+00
     1458000000   -3,438889235e-02   -8,269292116e-02    4,461683035e-01    4,882362783e-01    0,000000000e+00    0,000000000e+00    0,000000000e+00    0,000000000e+00
     1472000000   -1,249326840e-01   -1,499798894e-01    7,230654359e-01    3,080980480e-01    0,000000000e+00    0,000000000e+00    0,000000000e+00    0,000000000e+00
     1486000000   -2,308202833e-01   -1,455511749e-01    8,998904824e-01   -4,938738048e-02    0,000000000e+00    0,000000000e+00    0,000000000e+00    0,000000000e+00
     1500000000   -3,072067499e-01   -6,593296677e-02    8,321642280e-01   -4,333001971e-01    0,000000000e+00    0,000000000e+00    0,000000000e+00    0,000000000e+00
