! NanoVNA-App
! Date: 2025-09-25 15:00:55
! Start: 100MHz Stop: 1,5GHz Points: 101
! S-Parameter data: F S11 S21 S12 S22
# Hz S RI R 50
!     Frequency           S11_Real           S11_Imag           S21_Real           S21_Imag           S12_Real           S12_Imag           S22_Real           S22_Imag
      100000000    3,558268026e-02    2,736323699e-02    4,407622516e-01   -6,695787311e-01    0,000000000e+00    0,000000000e+00    0,000000000e+00    0,000000000e+00
      114000000    6,070341170e-02    2,143680584e-03    1,279244944e-02   -7,953192592e-01    0,000000000e+00    0,000000000e+00    0,000000000e+00    0,000000000e+00
      128000000    6,840786338e-02   -4,229077697e-02   -4,083503485e-01   -6,781857014e-01    0,000000000e+00    0,000000000e+00    0,000000000e+00    0,000000000e+00
      142000000    4,345368221e-02   -8,881608397e-02   -7,051419616e-01   -3,608616590e-01    0,000000000e+00    0,000000000e+00    0,000000000e+00    0,000000000e+00
      156000000   -9,763463400e-03   -1,092747226e-01   -7,925664186e-01    6,696884334e-02    0,000000000e+00    0,000000000e+00    0,000000000e+00    0,000000000e+00
      170000000   -6,263781339e-02   -9,176509082e-02   -6,371333003e-01    4,865103364e-01    0,000000000e+00    0,000000000e+00    0,000000000e+00    0,000000000e+00
      184000000   -8,859726787e-02   -4,764009640e-02   -2,733273208e-01    7,563760281e-01    0,000000000e+00    0,000000000e+00    0,000000000e+00    0,000000000e+00
      198000000   -8,274688572e-02   -6,434000097e-03    1,796831042e-01    7,824167013e-01    0,000000000e+00    0,000000000e+00    0,000000000e+00    0,000000000e+00
      212000000   -6,274566799e-02    1,801023260e-02    5,706840158e-01    5,584468246e-01    0,000000000e+00    0,000000000e+00    0,000000000e+00    0,000000000e+00
      226000000   -4,151428118e-02    3,181092814e-02    7,766889334e-01    1,619705707e-01    0,000000000e+00    0,000000000e+00    0,000000000e+00    0,000000000e+00
      240000000   -1,496951748e-02    4,135073721e-02    7,360465527e-01   -2,786578834e-01    0,000000000e+00    0,000000000e+00    0,000000000e+00    0,000000000e+00
      254000000    2,142161876e-02    3,633365408e-02    4,679001868e-01   -6,221408248e-01    0,000000000e+00    0,000000000e+00    0,000000000e+00    0,000000000e+00
      268000000    5,336231366e-02    4,748037551e-03    6,680941582e-02   -7,673017979e-01    0,000000000e+00    0,000000000e+00    0,000000000e+00    0,000000000e+00
      282000000    5,738258362e-02   -4,495241120e-02   -3,457037508e-01   -6,823751926e-01    0,000000000e+00    0,000000000e+00    0,000000000e+00    0,000000000e+00
      296000000    2,612683177e-02   -8,465638012e-02   -6,547848582e-01   -3,979060054e-01    0,000000000e+00    0,000000000e+00    0,000000000e+00    0,000000000e+00
      310000000   -1,891174167e-02   -8,922055364e-02   -7,749665380e-01    1,055257395e-02    0,000000000e+00    0,000000000e+00    0,000000000e+00    0,000000000e+00
      324000000   -4,641801119e-02   -6,350957602e-02   -6,473241448e-01    4,295042455e-01    0,000000000e+00    0,000000000e+00    0,000000000e+00    0,000000000e+00
      338000000   -4,134414345e-02   -3,791153803e-02   -3,093052804e-01    7,095898390e-01    0,000000000e+00    0,000000000e+00    0,000000000e+00    0,000000000e+00
      352000000   -2,338145114e-02   -3,781882674e-02    1,194026694e-01    7,599095106e-01    0,000000000e+00    0,000000000e+00    0,000000000e+00    0,000000000e+00
      366000000   -2,308074012e-02   -5,602544174e-02    5,024077296e-01    5,719617605e-01    0,000000000e+00    0,000000000e+00    0,000000000e+00    0,000000000e+00
      380000000   -4,471902549e-02   -6,496135145e-02    7,263343334e-01    2,121414095e-01    0,000000000e+00    0,000000000e+00    0,000000000e+00    0,000000000e+00
      394000000   -6,653437018e-02   -5,072036386e-02    7,222720385e-01   -2,131834924e-01    0,000000000e+00    0,000000000e+00    0,000000000e+00    0,000000000e+00
      408000000   -6,726273894e-02   -2,619589306e-02    4,900657237e-01   -5,676283836e-01    0,000000000e+00    0,000000000e+00    0,000000000e+00    0,000000000e+00
      422000000   -5,303904042e-02   -1,515632588e-02    1,056616977e-01   -7,385616899e-01    0,000000000e+00    0,000000000e+00    0,000000000e+00    0,000000000e+00
      436000000   -4,626886919e-02   -1,847962290e-02   -3,059778512e-01   -6,757265925e-01    0,000000000e+00    0,000000000e+00    0,000000000e+00    0,000000000e+00
      450000000   -5,174668133e-02   -1,490728371e-02   -6,186927557e-01   -3,991490006e-01    0,000000000e+00    0,000000000e+00    0,000000000e+00    0,000000000e+00
      464000000   -5,017270520e-02    5,922314711e-03   -7,294498086e-01    3,042264609e-03    0,000000000e+00    0,000000000e+00    0,000000000e+00    0,000000000e+00
      478000000   -2,050953731e-02    2,598405816e-02   -5,986326337e-01    3,969449997e-01    0,000000000e+00    0,000000000e+00    0,000000000e+00    0,000000000e+00
      492000000    2,821656130e-02    1,438055467e-02   -2,807924151e-01    6,435324550e-01    0,000000000e+00    0,000000000e+00    0,000000000e+00    0,000000000e+00
      506000000    5,912776664e-02   -3,745784611e-02    1,051764116e-01    6,802756786e-01    0,000000000e+00    0,000000000e+00    0,000000000e+00    0,000000000e+00
      520000000    4,497468844e-02   -1,025005281e-01    4,440435767e-01    5,190772414e-01    0,000000000e+00    0,000000000e+00    0,000000000e+00    0,000000000e+00
      534000000   -1,286196522e-02   -1,432663947e-01    6,490925550e-01    2,066682577e-01    0,000000000e+00    0,000000000e+00    0,000000000e+00    0,000000000e+00
      548000000   -8,094496280e-02   -1,394435614e-01    6,604753137e-01   -1,753849089e-01    0,000000000e+00    0,000000000e+00    0,000000000e+00    0,000000000e+00
      562000000   -1,295128614e-01   -9,781034291e-02    4,525339305e-01   -5,079823136e-01    0,000000000e+00    0,000000000e+00    0,000000000e+00    0,000000000e+00
      576000000   -1,477141827e-01   -4,052491859e-02    8,509229124e-02   -6,618297696e-01    0,000000000e+00    0,000000000e+00    0,000000000e+00    0,000000000e+00
      590000000   -1,315492541e-01    2,341308631e-02   -2,950394750e-01   -5,706182122e-01    0,000000000e+00    0,000000000e+00    0,000000000e+00    0,000000000e+00
      604000000   -5,069686845e-02    6,929824501e-02   -5,028231144e-01   -2,728731036e-01    0,000000000e+00    0,000000000e+00    0,000000000e+00    0,000000000e+00
      618000000    3,894293308e-02   -1,308168471e-02   -4,923312068e-01   -2,901502512e-02    0,000000000e+00    0,000000000e+00    0,000000000e+00    0,000000000e+00
      632000000   -3,894132748e-02   -9,804233164e-02   -5,079579949e-01    1,730035394e-01    0,000000000e+00    0,000000000e+00    0,000000000e+00    0,000000000e+00
      646000000   -1,012491882e-01   -4,322323948e-02   -3,802171350e-01    4,660747647e-01    0,000000000e+00    0,000000000e+00    0,000000000e+00    0,000000000e+00
      660000000   -7,482129335e-02    8,470017463e-03   -5,698421225e-02    6,224394441e-01    0,000000000e+00    0,000000000e+00    0,000000000e+00    0,000000000e+00
      674000000   -3,367096558e-02    6,874222308e-03    2,948870063e-01    5,553957820e-01    0,000000000e+00    0,000000000e+00    0,000000000e+00    0,000000000e+00
      688000000   -1,604533009e-02   -1,432060730e-02    5,462824106e-01    3,063965738e-01    0,000000000e+00    0,000000000e+00    0,000000000e+00    0,000000000e+00
      702000000   -1,293850131e-02   -3,302688152e-02    6,195920110e-01   -4,147142917e-02    0,000000000e+00    0,000000000e+00    0,000000000e+00    0,000000000e+00
      716000000   -7,557189558e-03   -4,876748100e-02    4,932149351e-01   -3,669571579e-01    0,000000000e+00    0,000000000e+00    0,000000000e+00    0,000000000e+00
      730000000   -5,159346852e-03   -7,560978085e-02    2,129019946e-01   -5,669662952e-01    0,000000000e+00    0,000000000e+00    0,000000000e+00    0,000000000e+00
      744000000   -2,609467134e-02   -1,125605628e-01   -1,218612939e-01   -5,893745422e-01    0,000000000e+00    0,000000000e+00    0,000000000e+00    0,000000000e+00
      758000000   -7,480931282e-02   -1,347010136e-01   -4,191325307e-01   -4,344545305e-01    0,000000000e+00    0,000000000e+00    0,000000000e+00    0,000000000e+00
      772000000   -1,373443753e-01   -1,162819043e-01   -5,945650935e-01   -1,417309940e-01    0,000000000e+00    0,000000000e+00    0,000000000e+00    0,000000000e+00
      786000000   -1,737734377e-01   -5,817880481e-02   -5,834454894e-01    2,095394135e-01    0,000000000e+00    0,000000000e+00    0,000000000e+00    0,000000000e+00
      800000000   -1,598981768e-01    8,930452168e-03   -3,740824163e-01    4,964785576e-01    0,000000000e+00    0,000000000e+00    0,000000000e+00    0,000000000e+00
      814000000   -1,137971729e-01    4,445039481e-02   -4,628403485e-02    6,151362062e-01    0,000000000e+00    0,000000000e+00    0,000000000e+00    0,000000000e+00
      828000000   -6,788007170e-02    4,391738400e-02    2,859030068e-01    5,418559313e-01    0,000000000e+00    0,000000000e+00    0,000000000e+00    0,000000000e+00
      842000000   -3,754449636e-02    2,835194580e-02    5,221399665e-01    3,061774075e-01    0,000000000e+00    0,000000000e+00    0,000000000e+00    0,000000000e+00
      856000000   -1,838480122e-02    1,032966096e-02    5,957092047e-01   -1,406340394e-02    0,000000000e+00    0,000000000e+00    0,000000000e+00    0,000000000e+00
      870000000    1,040111994e-03   -1,226567943e-02    4,872027040e-01   -3,177722096e-01    0,000000000e+00    0,000000000e+00    0,000000000e+00    0,000000000e+00
      884000000    1,237845980e-02   -5,095990002e-02    2,438328564e-01   -5,137769580e-01    0,000000000e+00    0,000000000e+00    0,000000000e+00    0,000000000e+00
      898000000   -4,592636600e-03   -1,008359194e-01   -5,870343372e-02   -5,549632907e-01    0,000000000e+00    0,000000000e+00    0,000000000e+00    0,000000000e+00
      912000000   -6,243129820e-02   -1,306958944e-01   -3,899387717e-01   -4,110594690e-01    0,000000000e+00    0,000000000e+00    0,000000000e+00    0,000000000e+00
      926000000   -1,243727431e-01   -1,196872592e-01   -5,659455061e-01   -1,490595788e-01    0,000000000e+00    0,000000000e+00    0,000000000e+00    0,000000000e+00
      940000000   -1,613867283e-01   -6,216992065e-02   -5,689401031e-01    1,962331980e-01    0,000000000e+00    0,000000000e+00    0,000000000e+00    0,000000000e+00
      954000000   -1,472206265e-01    4,667259636e-04   -3,735786974e-01    4,862733185e-01    0,000000000e+00    0,000000000e+00    0,000000000e+00    0,000000000e+00
      968000000   -9,715807438e-02    2,233593911e-02   -5,105401576e-02    6,129111648e-01    0,000000000e+00    0,000000000e+00    0,000000000e+00    0,000000000e+00
      982000000   -5,319505185e-02    4,817370325e-03    2,824732959e-01    5,522730350e-01    0,000000000e+00    0,000000000e+00    0,000000000e+00    0,000000000e+00
      996000000   -4,100272059e-02   -3,160127625e-02    5,250182152e-01    3,268458247e-01    0,000000000e+00    0,000000000e+00    0,000000000e+00    0,000000000e+00
     1010000000   -6,177167594e-02   -6,767569482e-02    6,071897149e-01    1,409847289e-02    0,000000000e+00    0,000000000e+00    0,000000000e+00    0,000000000e+00
     1024000000   -9,824932367e-02   -7,972998172e-02    5,135211349e-01   -2,826773822e-01    0,000000000e+00    0,000000000e+00    0,000000000e+00    0,000000000e+00
     1038000000   -1,387271881e-01   -5,658240616e-02    2,958430648e-01   -4,686843753e-01    0,000000000e+00    0,000000000e+00    0,000000000e+00    0,000000000e+00
     1052000000   -1,486936510e-01    2,451518783e-03    3,698753566e-02   -5,275172591e-01    0,000000000e+00    0,000000000e+00    0,000000000e+00    0,000000000e+00
     1066000000   -1,066591665e-01    3,598266840e-02   -2,097387016e-01   -4,631110132e-01    0,000000000e+00    0,000000000e+00    0,000000000e+00    0,000000000e+00
     1080000000   -5,728079379e-02    2,869892493e-02   -4,193670750e-01   -2,962209284e-01    0,000000000e+00    0,000000000e+00    0,000000000e+00    0,000000000e+00
     1094000000   -3,561242297e-02   -9,494397789e-03   -5,196822882e-01   -2,349157818e-02    0,000000000e+00    0,000000000e+00    0,000000000e+00    0,000000000e+00
     1108000000   -3,243925422e-02   -3,595432639e-02   -4,424448609e-01    2,880696058e-01    0,000000000e+00    0,000000000e+00    0,000000000e+00    0,000000000e+00
     1122000000   -3,479674459e-02   -5,470227450e-02   -1,861702055e-01    4,971590936e-01    0,000000000e+00    0,000000000e+00    0,000000000e+00    0,000000000e+00
     1136000000   -4,166172817e-02   -9,189447016e-02    1,485465169e-01    5,192292333e-01    0,000000000e+00    0,000000000e+00    0,000000000e+00    0,000000000e+00
     1150000000   -8,411001414e-02   -1,205708310e-01    4,519603252e-01    3,449392021e-01    0,000000000e+00    0,000000000e+00    0,000000000e+00    0,000000000e+00
     1164000000   -1,417327374e-01   -1,203828454e-01    6,124472022e-01    9,595728479e-03    0,000000000e+00    0,000000000e+00    0,000000000e+00    0,000000000e+00
     1178000000   -1,768255532e-01   -8,770798892e-02    5,415821671e-01   -3,734371662e-01    0,000000000e+00    0,000000000e+00    0,000000000e+00    0,000000000e+00
     1192000000   -1,769353300e-01   -5,885739997e-02    2,424332350e-01   -6,332826614e-01    0,000000000e+00    0,000000000e+00    0,000000000e+00    0,000000000e+00
     1206000000   -1,879452318e-01   -5,509717390e-02   -1,389767826e-01   -6,614694595e-01    0,000000000e+00    0,000000000e+00    0,000000000e+00    0,000000000e+00
     1220000000   -2,531422973e-01   -1,914449781e-02   -4,193383455e-01   -4,815715551e-01    0,000000000e+00    0,000000000e+00    0,000000000e+00    0,000000000e+00
     1234000000   -2,439991385e-01    1,189859137e-01   -5,603228807e-01   -2,456009537e-01    0,000000000e+00    0,000000000e+00    0,000000000e+00    0,000000000e+00
     1248000000   -1,138068661e-01    1,742488742e-01   -6,045377254e-01    1,647493429e-02    0,000000000e+00    0,000000000e+00    0,000000000e+00    0,000000000e+00
     1262000000   -2,992216963e-03    1,276814193e-01   -5,069624186e-01    2,955058217e-01    0,000000000e+00    0,000000000e+00    0,000000000e+00    0,000000000e+00
     1276000000    6,090757251e-02    3,791044280e-02   -2,787093818e-01    4,864707887e-01    0,000000000e+00    0,000000000e+00    0,000000000e+00    0,000000000e+00
     1290000000    7,212188840e-02   -7,120995224e-02    1,365176681e-02    5,492273569e-01    0,000000000e+00    0,000000000e+00    0,000000000e+00    0,000000000e+00
     1304000000    2,305254713e-02   -1,805393994e-01    3,027876318e-01    4,810031652e-01    0,000000000e+00    0,000000000e+00    0,000000000e+00    0,000000000e+00
     1318000000   -9,366437048e-02   -2,488111258e-01    5,334231853e-01    2,771383822e-01    0,000000000e+00    0,000000000e+00    0,000000000e+00    0,000000000e+00
     1332000000   -2,356101274e-01   -2,478914261e-01    6,465936899e-01   -5,924593285e-02    0,000000000e+00    0,000000000e+00    0,000000000e+00    0,000000000e+00
     1346000000   -3,557990491e-01   -1,410967112e-01    5,521829724e-01   -4,105767608e-01    0,000000000e+00    0,000000000e+00    0,000000000e+00    0,000000000e+00
     1360000000   -3,816969395e-01    1,150350366e-02    2,671884298e-01   -6,268398166e-01    0,000000000e+00    0,000000000e+00    0,000000000e+00    0,000000000e+00
     1374000000   -3,243806958e-01    1,236916482e-01   -1,026619226e-01   -6,218408346e-01    0,000000000e+00    0,000000000e+00    0,000000000e+00    0,000000000e+00
     1388000000   -2,332505584e-01    1,680797338e-01   -3,716496825e-01   -4,193761051e-01    0,000000000e+00    0,000000000e+00    0,000000000e+00    0,000000000e+00
     1402000000   -1,548103988e-01    1,721440107e-01   -4,743673503e-01   -1,148289666e-01    0,000000000e+00    0,000000000e+00    0,000000000e+00    0,000000000e+00
     1416000000   -8,903463930e-02    1,431114078e-01   -3,878424466e-01    1,979422569e-01    0,000000000e+00    0,000000000e+00    0,000000000e+00    0,000000000e+00
     1430000000   -3,436674550e-02    8,396614343e-02   -1,750798672e-01    4,250353277e-01    0,000000000e+00    0,000000000e+00    0,000000000e+00    0,000000000e+00
     1444000000   -1,507219579e-02    6,891536526e-03    1,191509441e-01    5,394793749e-01    0,000000000e+00    0,000000000e+00    0,000000000e+00    0,000000000e+00
     1458000000   -4,373479635e-02   -8,006797731e-02    4,368833005e-01    4,998365343e-01    0,000000000e+00    0,000000000e+00    0,000000000e+00    0,000000000e+00
     1472000000   -1,182204187e-01   -1,496656835e-01    7,389256358e-01    3,025590479e-01    0,000000000e+00    0,000000000e+00    0,000000000e+00    0,000000000e+00
     1486000000   -2,317445129e-01   -1,452239007e-01    9,006925821e-01   -4,605871812e-02    0,000000000e+00    0,000000000e+00    0,000000000e+00    0,000000000e+00
     1500000000   -3,113627434e-01   -5,456189439e-02    8,464566469e-01   -4,263021648e-01    0,000000000e+00    0,000000000e+00    0,000000000e+00    0,000000000e+00
