! NanoVNA-App
! Date: 2025-09-25 15:02:53
! Start: 100MHz Stop: 1,5GHz Points: 101
! S-Parameter data: F S11 S21 S12 S22
# Hz S RI R 50
!     Frequency           S11_Real           S11_Imag           S21_Real           S21_Imag           S12_Real           S12_Imag           S22_Real           S22_Imag
      100000000    3,559512645e-02    2,737452090e-02    4,407479167e-01   -6,695143580e-01    0,000000000e+00    0,000000000e+00    0,000000000e+00    0,000000000e+00
      114000000    6,070546433e-02    2,196206478e-03    1,283614989e-02   -7,953913212e-01    0,000000000e+00    0,000000000e+00    0,000000000e+00    0,000000000e+00
      128000000    6,838605553e-02   -4,222442210e-02   -4,082905948e-01   -6,783158779e-01    0,000000000e+00    0,000000000e+00    0,000000000e+00    0,000000000e+00
      142000000    4,343859106e-02   -8,877490461e-02   -7,052226067e-01   -3,610734940e-01    0,000000000e+00    0,000000000e+00    0,000000000e+00    0,000000000e+00
      156000000   -9,524106048e-03   -1,100306362e-01   -7,929126620e-01    6,777914613e-02    0,000000000e+00    0,000000000e+00    0,000000000e+00    0,000000000e+00
      170000000   -6,263918430e-02   -9,176664054e-02   -6,369482875e-01    4,862170219e-01    0,000000000e+00    0,000000000e+00    0,000000000e+00    0,000000000e+00
      184000000   -8,859512955e-02   -4,767262191e-02   -2,730727792e-01    7,562479377e-01    0,000000000e+00    0,000000000e+00    0,000000000e+00    0,000000000e+00
      198000000   -8,278977126e-02   -6,432269700e-03    1,796638221e-01    7,822474241e-01    0,000000000e+00    0,000000000e+00    0,000000000e+00    0,000000000e+00
      212000000   -6,267968565e-02    1,802488603e-02    5,705994368e-01    5,584220290e-01    0,000000000e+00    0,000000000e+00    0,000000000e+00    0,000000000e+00
      226000000   -4,152391106e-02    3,180672228e-02    7,767782211e-01    1,619812846e-01    0,000000000e+00    0,000000000e+00    0,000000000e+00    0,000000000e+00
      240000000   -1,484539919e-02    4,133555666e-02    7,360757589e-01   -2,787066400e-01    0,000000000e+00    0,000000000e+00    0,000000000e+00    0,000000000e+00
      254000000    2,140692063e-02    3,635976091e-02    4,677155316e-01   -6,220711470e-01    0,000000000e+00    0,000000000e+00    0,000000000e+00    0,000000000e+00
      268000000    5,330060795e-02    4,709582776e-03    6,681007147e-02   -7,673267126e-01    0,000000000e+00    0,000000000e+00    0,000000000e+00    0,000000000e+00
      282000000    5,748173594e-02   -4,486293346e-02   -3,456997573e-01   -6,827867627e-01    0,000000000e+00    0,000000000e+00    0,000000000e+00    0,000000000e+00
      296000000    2,613035962e-02   -8,464341611e-02   -6,545451283e-01   -3,975454867e-01    0,000000000e+00    0,000000000e+00    0,000000000e+00    0,000000000e+00
      310000000   -1,909258775e-02   -8,941073716e-02   -7,746737599e-01    1,126827579e-02    0,000000000e+00    0,000000000e+00    0,000000000e+00    0,000000000e+00
      324000000   -4,658225179e-02   -6,355495751e-02   -6,476256251e-01    4,297396541e-01    0,000000000e+00    0,000000000e+00    0,000000000e+00    0,000000000e+00
      338000000   -4,112815857e-02   -3,768480197e-02   -3,125448823e-01    7,077609301e-01    0,000000000e+00    0,000000000e+00    0,000000000e+00    0,000000000e+00
      352000000   -2,356125414e-02   -3,791046515e-02    1,194492429e-01    7,589169145e-01    0,000000000e+00    0,000000000e+00    0,000000000e+00    0,000000000e+00
      366000000   -2,278228849e-02   -5,606858805e-02    5,028296113e-01    5,713784099e-01    0,000000000e+00    0,000000000e+00    0,000000000e+00    0,000000000e+00
      380000000   -4,455692321e-02   -6,511975825e-02    7,266554236e-01    2,119420767e-01    0,000000000e+00    0,000000000e+00    0,000000000e+00    0,000000000e+00
      394000000   -6,630768627e-02   -5,069227889e-02    7,234641910e-01   -2,137672454e-01    0,000000000e+00    0,000000000e+00    0,000000000e+00    0,000000000e+00
      408000000   -6,757318228e-02   -2,641296573e-02    4,894768894e-01   -5,681489110e-01    0,000000000e+00    0,000000000e+00    0,000000000e+00    0,000000000e+00
      422000000   -5,331289023e-02   -1,524566766e-02    1,063871309e-01   -7,376183271e-01    0,000000000e+00    0,000000000e+00    0,000000000e+00    0,000000000e+00
      436000000   -4,644751921e-02   -1,884303801e-02   -3,055698574e-01   -6,767562628e-01    0,000000000e+00    0,000000000e+00    0,000000000e+00    0,000000000e+00
      450000000   -5,211895704e-02   -1,481221151e-02   -6,187998652e-01   -3,996706605e-01    0,000000000e+00    0,000000000e+00    0,000000000e+00    0,000000000e+00
      464000000   -5,059162527e-02    5,778732710e-03   -7,297522426e-01    3,354916349e-03    0,000000000e+00    0,000000000e+00    0,000000000e+00    0,000000000e+00
      478000000   -2,035627514e-02    2,670682408e-02   -5,984990597e-01    3,970845342e-01    0,000000000e+00    0,000000000e+00    0,000000000e+00    0,000000000e+00
      492000000    2,862478420e-02    1,459930930e-02   -2,800890207e-01    6,443049312e-01    0,000000000e+00    0,000000000e+00    0,000000000e+00    0,000000000e+00
      506000000    5,904027447e-02   -3,734476864e-02    1,049128473e-01    6,802324653e-01    0,000000000e+00    0,000000000e+00    0,000000000e+00    0,000000000e+00
      520000000    4,451992735e-02   -1,024771109e-01    4,414030612e-01    5,202886462e-01    0,000000000e+00    0,000000000e+00    0,000000000e+00    0,000000000e+00
      534000000   -1,271461044e-02   -1,439427137e-01    6,494424939e-01    2,058316916e-01    0,000000000e+00    0,000000000e+00    0,000000000e+00    0,000000000e+00
      548000000   -8,176138252e-02   -1,401015818e-01    6,599169970e-01   -1,764739454e-01    0,000000000e+00    0,000000000e+00    0,000000000e+00    0,000000000e+00
      562000000   -1,314763427e-01   -9,805124253e-02    4,501314759e-01   -5,086407065e-01    0,000000000e+00    0,000000000e+00    0,000000000e+00    0,000000000e+00
      576000000   -1,497927010e-01   -3,806829453e-02    8,213412017e-02   -6,602918506e-01    0,000000000e+00    0,000000000e+00    0,000000000e+00    0,000000000e+00
      590000000   -1,296228319e-01    3,054792620e-02   -2,963176370e-01   -5,601338744e-01    0,000000000e+00    0,000000000e+00    0,000000000e+00    0,000000000e+00
      604000000   -3,579675779e-02    6,843533367e-02   -4,851690531e-01   -2,697475553e-01    0,000000000e+00    0,000000000e+00    0,000000000e+00    0,000000000e+00
      618000000    3,370554000e-02   -3,311030567e-02   -4,938216805e-01   -5,433835089e-02    0,000000000e+00    0,000000000e+00    0,000000000e+00    0,000000000e+00
      632000000   -5,475064367e-02   -9,233643860e-02   -5,280907154e-01    1,775379181e-01    0,000000000e+00    0,000000000e+00    0,000000000e+00    0,000000000e+00
      646000000   -9,972610325e-02   -3,324392810e-02   -3,791914284e-01    4,785379171e-01    0,000000000e+00    0,000000000e+00    0,000000000e+00    0,000000000e+00
      660000000   -6,876073033e-02    9,888578206e-03   -4,904866219e-02    6,251463890e-01    0,000000000e+00    0,000000000e+00    0,000000000e+00    0,000000000e+00
      674000000   -3,031167388e-02    4,185042810e-03    2,990024686e-01    5,534396768e-01    0,000000000e+00    0,000000000e+00    0,000000000e+00    0,000000000e+00
      688000000   -1,540023461e-02   -1,755122282e-02    5,477191210e-01    3,030861914e-01    0,000000000e+00    0,000000000e+00    0,000000000e+00    0,000000000e+00
      702000000   -1,500132587e-02   -3,432177752e-02    6,215813756e-01   -4,230742529e-02    0,000000000e+00    0,000000000e+00    0,000000000e+00    0,000000000e+00
      716000000   -1,080893911e-02   -4,869119450e-02    4,918785989e-01   -3,683382869e-01    0,000000000e+00    0,000000000e+00    0,000000000e+00    0,000000000e+00
      730000000   -7,861644030e-03   -7,487384975e-02    2,115072906e-01   -5,678126216e-01    0,000000000e+00    0,000000000e+00    0,000000000e+00    0,000000000e+00
      744000000   -2,545429021e-02   -1,108060479e-01   -1,235610619e-01   -5,881887078e-01    0,000000000e+00    0,000000000e+00    0,000000000e+00    0,000000000e+00
      758000000   -7,487942278e-02   -1,322698146e-01   -4,194821119e-01   -4,321889281e-01    0,000000000e+00    0,000000000e+00    0,000000000e+00    0,000000000e+00
      772000000   -1,343220919e-01   -1,160272807e-01   -5,937941074e-01   -1,397018433e-01    0,000000000e+00    0,000000000e+00    0,000000000e+00    0,000000000e+00
      786000000   -1,711727828e-01   -5,801191181e-02   -5,813521147e-01    2,095526010e-01    0,000000000e+00    0,000000000e+00    0,000000000e+00    0,000000000e+00
      800000000   -1,596538424e-01    5,760796834e-03   -3,724014461e-01    4,967567921e-01    0,000000000e+00    0,000000000e+00    0,000000000e+00    0,000000000e+00
      814000000   -1,154860035e-01    4,285344854e-02   -4,635167867e-02    6,151052117e-01    0,000000000e+00    0,000000000e+00    0,000000000e+00    0,000000000e+00
      828000000   -6,919289380e-02    4,364519566e-02    2,861522436e-01    5,396581292e-01    0,000000000e+00    0,000000000e+00    0,000000000e+00    0,000000000e+00
      842000000   -3,899128363e-02    2,892868780e-02    5,202940106e-01    3,055060208e-01    0,000000000e+00    0,000000000e+00    0,000000000e+00    0,000000000e+00
      856000000   -1,853272505e-02    1,310259942e-02    5,945236087e-01   -1,376233902e-02    0,000000000e+00    0,000000000e+00    0,000000000e+00    0,000000000e+00
      870000000    2,686182037e-03   -1,090557966e-02    4,861139357e-01   -3,170423210e-01    0,000000000e+00    0,000000000e+00    0,000000000e+00    0,000000000e+00
      884000000    1,330680866e-02   -5,183794722e-02    2,419246137e-01   -5,104306340e-01    0,000000000e+00    0,000000000e+00    0,000000000e+00    0,000000000e+00
      898000000   -3,851227928e-03   -1,031182706e-01   -5,881110206e-02   -5,555630922e-01    0,000000000e+00    0,000000000e+00    0,000000000e+00    0,000000000e+00
      912000000   -6,271227449e-02   -1,333597749e-01   -3,934065402e-01   -4,104401469e-01    0,000000000e+00    0,000000000e+00    0,000000000e+00    0,000000000e+00
      926000000   -1,290423721e-01   -1,182854101e-01   -5,677030087e-01   -1,476050168e-01    0,000000000e+00    0,000000000e+00    0,000000000e+00    0,000000000e+00
      940000000   -1,609724611e-01   -6,133324280e-02   -5,682499409e-01    1,930375993e-01    0,000000000e+00    0,000000000e+00    0,000000000e+00    0,000000000e+00
      954000000   -1,463302970e-01    1,198233804e-03   -3,742723167e-01    4,845815003e-01    0,000000000e+00    0,000000000e+00    0,000000000e+00    0,000000000e+00
      968000000   -9,713361412e-02    2,205448225e-02   -5,097552761e-02    6,145607233e-01    0,000000000e+00    0,000000000e+00    0,000000000e+00    0,000000000e+00
      982000000   -5,619439855e-02    7,332176901e-03    2,787157595e-01    5,530087352e-01    0,000000000e+00    0,000000000e+00    0,000000000e+00    0,000000000e+00
      996000000   -4,110880196e-02   -3,442073613e-02    5,228997469e-01    3,297334909e-01    0,000000000e+00    0,000000000e+00    0,000000000e+00    0,000000000e+00
     1010000000   -6,191290915e-02   -6,326597929e-02    6,078220606e-01    1,610624976e-02    0,000000000e+00    0,000000000e+00    0,000000000e+00    0,000000000e+00
     1024000000   -1,029400602e-01   -7,594212145e-02    5,144417882e-01   -2,822094560e-01    0,000000000e+00    0,000000000e+00    0,000000000e+00    0,000000000e+00
     1038000000   -1,410827190e-01   -5,294723809e-02    2,975206375e-01   -4,699901342e-01    0,000000000e+00    0,000000000e+00    0,000000000e+00    0,000000000e+00
     1052000000   -1,507789344e-01    3,852085443e-03    3,716685623e-02   -5,287586451e-01    0,000000000e+00    0,000000000e+00    0,000000000e+00    0,000000000e+00
     1066000000   -1,055841818e-01    4,160148650e-02   -2,115593255e-01   -4,709612727e-01    0,000000000e+00    0,000000000e+00    0,000000000e+00    0,000000000e+00
     1080000000   -5,020552874e-02    2,515217289e-02   -4,195814133e-01   -2,996114790e-01    0,000000000e+00    0,000000000e+00    0,000000000e+00    0,000000000e+00
     1094000000   -3,174231946e-02   -7,391605061e-03   -5,216649175e-01   -2,478691004e-02    0,000000000e+00    0,000000000e+00    0,000000000e+00    0,000000000e+00
     1108000000   -3,572658077e-02   -3,484754637e-02   -4,416287541e-01    2,884808183e-01    0,000000000e+00    0,000000000e+00    0,000000000e+00    0,000000000e+00
     1122000000   -3,331052512e-02   -5,413310975e-02   -1,860208660e-01    4,964015484e-01    0,000000000e+00    0,000000000e+00    0,000000000e+00    0,000000000e+00
     1136000000   -4,536266252e-02   -9,256789833e-02    1,516676992e-01    5,187118053e-01    0,000000000e+00    0,000000000e+00    0,000000000e+00    0,000000000e+00
     1150000000   -8,078522235e-02   -1,221566796e-01    4,551868439e-01    3,443534076e-01    0,000000000e+00    0,000000000e+00    0,000000000e+00    0,000000000e+00
     1164000000   -1,417216808e-01   -1,206041276e-01    6,097769737e-01    1,165246498e-02    0,000000000e+00    0,000000000e+00    0,000000000e+00    0,000000000e+00
     1178000000   -1,739353240e-01   -8,691351861e-02    5,381000638e-01   -3,713242412e-01    0,000000000e+00    0,000000000e+00    0,000000000e+00    0,000000000e+00
     1192000000   -1,778305471e-01   -5,331360549e-02    2,394693941e-01   -6,358323693e-01    0,000000000e+00    0,000000000e+00    0,000000000e+00    0,000000000e+00
     1206000000   -1,932033598e-01   -5,104341730e-02   -1,346628666e-01   -6,599020362e-01    0,000000000e+00    0,000000000e+00    0,000000000e+00    0,000000000e+00
     1220000000   -2,510168850e-01   -1,682625152e-02   -4,187829196e-01   -4,860896170e-01    0,000000000e+00    0,000000000e+00    0,000000000e+00    0,000000000e+00
     1234000000   -2,431156337e-01    1,137654781e-01   -5,623358488e-01   -2,521105111e-01    0,000000000e+00    0,000000000e+00    0,000000000e+00    0,000000000e+00
     1248000000   -1,133201420e-01    1,759726554e-01   -6,026728749e-01    2,156916820e-02    0,000000000e+00    0,000000000e+00    0,000000000e+00    0,000000000e+00
     1262000000   -4,988742527e-03    1,304370761e-01   -5,048297644e-01    3,000417352e-01    0,000000000e+00    0,000000000e+00    0,000000000e+00    0,000000000e+00
     1276000000    5,914044380e-02    3,897998109e-02   -2,815341353e-01    4,894827902e-01    0,000000000e+00    0,000000000e+00    0,000000000e+00    0,000000000e+00
     1290000000    6,753860414e-02   -6,737707555e-02    1,035279967e-02    5,481751561e-01    0,000000000e+00    0,000000000e+00    0,000000000e+00    0,000000000e+00
     1304000000    2,312410995e-02   -1,791709810e-01    3,011917472e-01    4,808952808e-01    0,000000000e+00    0,000000000e+00    0,000000000e+00    0,000000000e+00
     1318000000   -9,444324672e-02   -2,509832978e-01    5,451413393e-01    2,735406756e-01    0,000000000e+00    0,000000000e+00    0,000000000e+00    0,000000000e+00
     1332000000   -2,382153869e-01   -2,481101006e-01    6,579374671e-01   -5,335979536e-02    0,000000000e+00    0,000000000e+00    0,000000000e+00    0,000000000e+00
     1346000000   -3,589741588e-01   -1,372767687e-01    5,543739796e-01   -4,164929092e-01    0,000000000e+00    0,000000000e+00    0,000000000e+00    0,000000000e+00
     1360000000   -3,865275979e-01    9,781513363e-04    2,559577227e-01   -6,333681941e-01    0,000000000e+00    0,000000000e+00    0,000000000e+00    0,000000000e+00
     1374000000   -3,245044947e-01    1,188111827e-01   -1,041052788e-01   -6,284595132e-01    0,000000000e+00    0,000000000e+00    0,000000000e+00    0,000000000e+00
     1388000000   -2,360380739e-01    1,670132130e-01   -3,798289895e-01   -4,119584858e-01    0,000000000e+00    0,000000000e+00    0,000000000e+00    0,000000000e+00
     1402000000   -1,548946351e-01    1,750496328e-01   -4,745481312e-01   -1,033280566e-01    0,000000000e+00    0,000000000e+00    0,000000000e+00    0,000000000e+00
     1416000000   -8,303871006e-02    1,445320696e-01   -3,965445459e-01    2,089018226e-01    0,000000000e+00    0,000000000e+00    0,000000000e+00    0,000000000e+00
     1430000000   -3,301732242e-02    8,278950304e-02   -1,698266417e-01    4,147785604e-01    0,000000000e+00    0,000000000e+00    0,000000000e+00    0,000000000e+00
     1444000000   -1,664114743e-02    7,895448245e-03    1,190067753e-01    5,297713280e-01    0,000000000e+00    0,000000000e+00    0,000000000e+00    0,000000000e+00
     1458000000   -4,446164519e-02   -8,307665586e-02    4,408338666e-01    4,869554043e-01    0,000000000e+00    0,000000000e+00    0,000000000e+00    0,000000000e+00
     1472000000   -1,156758368e-01   -1,441080570e-01    7,358047366e-01    3,037377894e-01    0,000000000e+00    0,000000000e+00    0,000000000e+00    0,000000000e+00
     1486000000   -2,320912182e-01   -1,411103755e-01    8,977735043e-01   -3,561099619e-02    0,000000000e+00    0,000000000e+00    0,000000000e+00    0,000000000e+00
     1500000000   -2,960927486e-01   -7,257489860e-02    8,476876020e-01   -4,479226172e-01    0,000000000e+00    0,000000000e+00    0,000000000e+00    0,000000000e+00
