! NanoVNA-App
! Date: 2025-09-25 14:55:47
! Start: 100MHz Stop: 1,5GHz Points: 101
! S-Parameter data: F S11 S21 S12 S22
# Hz S RI R 50
!     Frequency           S11_Real           S11_Imag           S21_Real           S21_Imag           S12_Real           S12_Imag           S22_Real           S22_Imag
      100000000    3,559816256e-02    2,694999240e-02    4,406723976e-01   -6,696270108e-01    0,000000000e+00    0,000000000e+00    0,000000000e+00    0,000000000e+00
      114000000    6,050104275e-02    1,718189684e-03    1,266826224e-02   -7,953211665e-01    0,000000000e+00    0,000000000e+00    0,000000000e+00    0,000000000e+00
      128000000    6,788879633e-02   -4,264944792e-02   -4,084698260e-01   -6,782274246e-01    0,000000000e+00    0,000000000e+00    0,000000000e+00    0,000000000e+00
      142000000    4,271391034e-02   -8,885463327e-02   -7,053391337e-01   -3,607634306e-01    0,000000000e+00    0,000000000e+00    0,000000000e+00    0,000000000e+00
      156000000   -9,689612314e-03   -1,102459729e-01   -7,939107418e-01    6,865850091e-02    0,000000000e+00    0,000000000e+00    0,000000000e+00    0,000000000e+00
      170000000   -6,330748647e-02   -9,089899808e-02   -6,369056106e-01    4,866439700e-01    0,000000000e+00    0,000000000e+00    0,000000000e+00    0,000000000e+00
      184000000   -8,867518604e-02   -4,649480805e-02   -2,728434503e-01    7,565317750e-01    0,000000000e+00    0,000000000e+00    0,000000000e+00    0,000000000e+00
      198000000   -8,209981024e-02   -5,349425133e-03    1,799715310e-01    7,822164297e-01    0,000000000e+00    0,000000000e+00    0,000000000e+00    0,000000000e+00
      212000000   -6,142828241e-02    1,867697947e-02    5,708300471e-01    5,579026937e-01    0,000000000e+00    0,000000000e+00    0,000000000e+00    0,000000000e+00
      226000000   -4,002202302e-02    3,164795786e-02    7,768448591e-01    1,617409587e-01    0,000000000e+00    0,000000000e+00    0,000000000e+00    0,000000000e+00
      240000000   -1,371886954e-02    4,037711397e-02    7,361116409e-01   -2,788996100e-01    0,000000000e+00    0,000000000e+00    0,000000000e+00    0,000000000e+00
      254000000    2,193746343e-02    3,474555910e-02    4,678017795e-01   -6,221627593e-01    0,000000000e+00    0,000000000e+00    0,000000000e+00    0,000000000e+00
      268000000    5,287222564e-02    3,043862525e-03    6,653771549e-02   -7,678239346e-01    0,000000000e+00    0,000000000e+00    0,000000000e+00    0,000000000e+00
      282000000    5,615989119e-02   -4,622658342e-02   -3,460358381e-01   -6,822571754e-01    0,000000000e+00    0,000000000e+00    0,000000000e+00    0,000000000e+00
      296000000    2,414516732e-02   -8,528912812e-02   -6,554242969e-01   -3,976183534e-01    0,000000000e+00    0,000000000e+00    0,000000000e+00    0,000000000e+00
      310000000   -2,076406591e-02   -8,883057535e-02   -7,735598683e-01    1,183336508e-02    0,000000000e+00    0,000000000e+00    0,000000000e+00    0,000000000e+00
      324000000   -4,782585055e-02   -6,185747311e-02   -6,475662589e-01    4,301294386e-01    0,000000000e+00    0,000000000e+00    0,000000000e+00    0,000000000e+00
      338000000   -4,151907191e-02   -3,562481701e-02   -3,114172220e-01    7,110093236e-01    0,000000000e+00    0,000000000e+00    0,000000000e+00    0,000000000e+00
      352000000   -2,272368968e-02   -3,551363200e-02    1,204766333e-01    7,584319115e-01    0,000000000e+00    0,000000000e+00    0,000000000e+00    0,000000000e+00
      366000000   -2,114360034e-02   -5,494846404e-02    5,034760237e-01    5,711031556e-01    0,000000000e+00    0,000000000e+00    0,000000000e+00    0,000000000e+00
      380000000   -4,252834618e-02   -6,492188573e-02    7,254449725e-01    2,112237960e-01    0,000000000e+00    0,000000000e+00    0,000000000e+00    0,000000000e+00
      394000000   -6,449652463e-02   -5,144853517e-02    7,231042981e-01   -2,134591639e-01    0,000000000e+00    0,000000000e+00    0,000000000e+00    0,000000000e+00
      408000000   -6,623265147e-02   -2,830543928e-02    4,890458286e-01   -5,687533617e-01    0,000000000e+00    0,000000000e+00    0,000000000e+00    0,000000000e+00
      422000000   -5,294392630e-02   -1,745376922e-02    1,061253771e-01   -7,383943796e-01    0,000000000e+00    0,000000000e+00    0,000000000e+00    0,000000000e+00
      436000000   -4,703110456e-02   -2,061533369e-02   -3,056732118e-01   -6,771018505e-01    0,000000000e+00    0,000000000e+00    0,000000000e+00    0,000000000e+00
      450000000   -5,392281711e-02   -1,609588973e-02   -6,198700666e-01   -3,998843133e-01    0,000000000e+00    0,000000000e+00    0,000000000e+00    0,000000000e+00
      464000000   -5,213500187e-02    5,329952575e-03   -7,301642299e-01    3,379725153e-03    0,000000000e+00    0,000000000e+00    0,000000000e+00    0,000000000e+00
      478000000   -2,262039483e-02    2,715399675e-02   -5,994242430e-01    3,975979388e-01    0,000000000e+00    0,000000000e+00    0,000000000e+00    0,000000000e+00
      492000000    2,685970441e-02    1,696744561e-02   -2,813188732e-01    6,454438567e-01    0,000000000e+00    0,000000000e+00    0,000000000e+00    0,000000000e+00
      506000000    5,834130570e-02   -3,488976508e-02    1,048350260e-01    6,815513372e-01    0,000000000e+00    0,000000000e+00    0,000000000e+00    0,000000000e+00
      520000000    4,543052986e-02   -1,003829390e-01    4,452742040e-01    5,219669342e-01    0,000000000e+00    0,000000000e+00    0,000000000e+00    0,000000000e+00
      534000000   -9,312789887e-03   -1,416433603e-01    6,511556506e-01    2,068252861e-01    0,000000000e+00    0,000000000e+00    0,000000000e+00    0,000000000e+00
      548000000   -7,701902092e-02   -1,396075934e-01    6,630499363e-01   -1,756362319e-01    0,000000000e+00    0,000000000e+00    0,000000000e+00    0,000000000e+00
      562000000   -1,253239214e-01   -1,017885208e-01    4,564085305e-01   -5,113807321e-01    0,000000000e+00    0,000000000e+00    0,000000000e+00    0,000000000e+00
      576000000   -1,483236551e-01   -4,963637888e-02    8,576729149e-02   -6,706153154e-01    0,000000000e+00    0,000000000e+00    0,000000000e+00    0,000000000e+00
      590000000   -1,466900706e-01    1,570223831e-02   -3,115714490e-01   -5,827704668e-01    0,000000000e+00    0,000000000e+00    0,000000000e+00    0,000000000e+00
      604000000   -7,246923447e-02    9,779871255e-02   -5,336630344e-01   -2,455048412e-01    0,000000000e+00    0,000000000e+00    0,000000000e+00    0,000000000e+00
      618000000    1,005336791e-01    6,810361519e-03   -4,251557887e-01    3,410020610e-03    0,000000000e+00    0,000000000e+00    0,000000000e+00    0,000000000e+00
      632000000   -4,872707650e-02   -1,493117213e-01   -5,167318583e-01    1,123830751e-01    0,000000000e+00    0,000000000e+00    0,000000000e+00    0,000000000e+00
      646000000   -1,298449785e-01   -3,910071030e-02   -4,141761363e-01    4,721520841e-01    0,000000000e+00    0,000000000e+00    0,000000000e+00    0,000000000e+00
      660000000   -7,933514565e-02    2,370648272e-02   -6,173039228e-02    6,408033967e-01    0,000000000e+00    0,000000000e+00    0,000000000e+00    0,000000000e+00
      674000000   -2,757179551e-02    1,492768060e-02    3,043675125e-01    5,661572814e-01    0,000000000e+00    0,000000000e+00    0,000000000e+00    0,000000000e+00
      688000000   -8,486012928e-03   -1,486112829e-02    5,565481782e-01    3,070500493e-01    0,000000000e+00    0,000000000e+00    0,000000000e+00    0,000000000e+00
      702000000   -9,285885841e-03   -3,552873805e-02    6,267825365e-01   -4,295061529e-02    0,000000000e+00    0,000000000e+00    0,000000000e+00    0,000000000e+00
      716000000   -7,628993131e-03   -5,302718282e-02    4,969968796e-01   -3,749842048e-01    0,000000000e+00    0,000000000e+00    0,000000000e+00    0,000000000e+00
      730000000   -7,814014331e-03   -7,959146798e-02    2,120245844e-01   -5,763865113e-01    0,000000000e+00    0,000000000e+00    0,000000000e+00    0,000000000e+00
      744000000   -2,850841731e-02   -1,141790599e-01   -1,290700436e-01   -5,955436826e-01    0,000000000e+00    0,000000000e+00    0,000000000e+00    0,000000000e+00
      758000000   -7,937408239e-02   -1,322093457e-01   -4,295085967e-01   -4,353489280e-01    0,000000000e+00    0,000000000e+00    0,000000000e+00    0,000000000e+00
      772000000   -1,395265460e-01   -1,116651744e-01   -6,035212278e-01   -1,361444890e-01    0,000000000e+00    0,000000000e+00    0,000000000e+00    0,000000000e+00
      786000000   -1,727274358e-01   -5,278858542e-02   -5,862640738e-01    2,195030749e-01    0,000000000e+00    0,000000000e+00    0,000000000e+00    0,000000000e+00
      800000000   -1,557471752e-01    1,147077978e-02   -3,700509965e-01    5,062518120e-01    0,000000000e+00    0,000000000e+00    0,000000000e+00    0,000000000e+00
      814000000   -1,077574417e-01    4,392739385e-02   -3,649374470e-02    6,204663515e-01    0,000000000e+00    0,000000000e+00    0,000000000e+00    0,000000000e+00
      828000000   -6,310774386e-02    3,967447579e-02    2,975166738e-01    5,412752628e-01    0,000000000e+00    0,000000000e+00    0,000000000e+00    0,000000000e+00
      842000000   -3,731907159e-02    2,135910653e-02    5,302879810e-01    2,998520136e-01    0,000000000e+00    0,000000000e+00    0,000000000e+00    0,000000000e+00
      856000000   -2,211875655e-02    5,670857616e-03    6,004694104e-01   -2,448018827e-02    0,000000000e+00    0,000000000e+00    0,000000000e+00    0,000000000e+00
      870000000   -4,936804529e-03   -1,445519738e-02    4,847926497e-01   -3,298770785e-01    0,000000000e+00    0,000000000e+00    0,000000000e+00    0,000000000e+00
      884000000    5,682318006e-03   -4,932275042e-02    2,333424836e-01   -5,228213072e-01    0,000000000e+00    0,000000000e+00    0,000000000e+00    0,000000000e+00
      898000000   -8,687895723e-03   -9,629257023e-02   -7,480780035e-02   -5,568361282e-01    0,000000000e+00    0,000000000e+00    0,000000000e+00    0,000000000e+00
      912000000   -6,274239719e-02   -1,253353059e-01   -4,054399729e-01   -4,021792114e-01    0,000000000e+00    0,000000000e+00    0,000000000e+00    0,000000000e+00
      926000000   -1,217877641e-01   -1,142232493e-01   -5,708535314e-01   -1,308133602e-01    0,000000000e+00    0,000000000e+00    0,000000000e+00    0,000000000e+00
      940000000   -1,551544368e-01   -5,989433080e-02   -5,647744536e-01    2,115416527e-01    0,000000000e+00    0,000000000e+00    0,000000000e+00    0,000000000e+00
      954000000   -1,411123574e-01   -1,650409540e-03   -3,575395346e-01    4,985836148e-01    0,000000000e+00    0,000000000e+00    0,000000000e+00    0,000000000e+00
      968000000   -9,684515744e-02    2,248303220e-02   -2,868534625e-02    6,177492738e-01    0,000000000e+00    0,000000000e+00    0,000000000e+00    0,000000000e+00
      982000000   -5,547433719e-02    4,016591702e-03    3,027417362e-01    5,374115705e-01    0,000000000e+00    0,000000000e+00    0,000000000e+00    0,000000000e+00
      996000000   -4,434453696e-02   -2,860391513e-02    5,350680947e-01    2,995493710e-01    0,000000000e+00    0,000000000e+00    0,000000000e+00    0,000000000e+00
     1010000000   -5,166251585e-02   -6,283323467e-02    5,922699571e-01   -1,831833273e-02    0,000000000e+00    0,000000000e+00    0,000000000e+00    0,000000000e+00
     1024000000   -9,145098180e-02   -8,828543872e-02    4,807254970e-01   -2,866774201e-01    0,000000000e+00    0,000000000e+00    0,000000000e+00    0,000000000e+00
     1038000000   -1,390626580e-01   -7,684135437e-02    2,776694894e-01   -4,487455785e-01    0,000000000e+00    0,000000000e+00    0,000000000e+00    0,000000000e+00
     1052000000   -1,678178906e-01   -1,891386323e-02    3,929518908e-02   -5,133464932e-01    0,000000000e+00    0,000000000e+00    0,000000000e+00    0,000000000e+00
     1066000000   -1,307506412e-01    3,935785592e-02   -2,222068608e-01   -4,631764591e-01    0,000000000e+00    0,000000000e+00    0,000000000e+00    0,000000000e+00
     1080000000   -7,839521766e-02    5,010935292e-02   -4,241099954e-01   -2,707318962e-01    0,000000000e+00    0,000000000e+00    0,000000000e+00    0,000000000e+00
     1094000000   -2,687312104e-02    3,228573501e-02   -4,904577434e-01    9,243345819e-03    0,000000000e+00    0,000000000e+00    0,000000000e+00    0,000000000e+00
     1108000000    4,772564396e-03   -6,945715751e-03   -3,917348087e-01    2,769972384e-01    0,000000000e+00    0,000000000e+00    0,000000000e+00    0,000000000e+00
     1122000000    4,206353333e-03   -6,270924211e-02   -1,662511677e-01    4,446223676e-01    0,000000000e+00    0,000000000e+00    0,000000000e+00    0,000000000e+00
     1136000000   -2,381896600e-02   -1,220097169e-01    1,235338822e-01    4,769779146e-01    0,000000000e+00    0,000000000e+00    0,000000000e+00    0,000000000e+00
     1150000000   -8,250816166e-02   -1,466151476e-01    4,087599814e-01    3,360867798e-01    0,000000000e+00    0,000000000e+00    0,000000000e+00    0,000000000e+00
     1164000000   -1,483649462e-01   -1,442035288e-01    5,825044513e-01    3,621340171e-02    0,000000000e+00    0,000000000e+00    0,000000000e+00    0,000000000e+00
     1178000000   -1,972210854e-01   -9,676384926e-02    5,420177579e-01   -3,375680745e-01    0,000000000e+00    0,000000000e+00    0,000000000e+00    0,000000000e+00
     1192000000   -2,062667161e-01   -5,024897680e-02    2,614715695e-01   -6,192860603e-01    0,000000000e+00    0,000000000e+00    0,000000000e+00    0,000000000e+00
     1206000000   -2,035167813e-01   -2,441894077e-02   -1,201161891e-01   -6,759155989e-01    0,000000000e+00    0,000000000e+00    0,000000000e+00    0,000000000e+00
     1220000000   -2,291262150e-01    1,468849601e-03   -4,275192022e-01   -4,958175421e-01    0,000000000e+00    0,000000000e+00    0,000000000e+00    0,000000000e+00
     1234000000   -2,342205942e-01    1,021148264e-01   -5,634099841e-01   -2,342943996e-01    0,000000000e+00    0,000000000e+00    0,000000000e+00    0,000000000e+00
     1248000000   -1,212821081e-01    1,730516106e-01   -5,901368260e-01    2,113450319e-02    0,000000000e+00    0,000000000e+00    0,000000000e+00    0,000000000e+00
     1262000000   -1,044765348e-03    1,387579292e-01   -4,934607744e-01    2,873630822e-01    0,000000000e+00    0,000000000e+00    0,000000000e+00    0,000000000e+00
     1276000000    6,832221895e-02    4,419032484e-02   -2,698365152e-01    4,789676666e-01    0,000000000e+00    0,000000000e+00    0,000000000e+00    0,000000000e+00
     1290000000    7,797780633e-02   -7,381310314e-02    3,707401687e-03    5,380842090e-01    0,000000000e+00    0,000000000e+00    0,000000000e+00    0,000000000e+00
     1304000000    2,360670827e-02   -1,880536377e-01    2,873947024e-01    4,734807909e-01    0,000000000e+00    0,000000000e+00    0,000000000e+00    0,000000000e+00
     1318000000   -8,654817194e-02   -2,618194520e-01    5,288465619e-01    2,683144808e-01    0,000000000e+00    0,000000000e+00    0,000000000e+00    0,000000000e+00
     1332000000   -2,353811115e-01   -2,549897134e-01    6,438022852e-01   -4,613773897e-02    0,000000000e+00    0,000000000e+00    0,000000000e+00    0,000000000e+00
     1346000000   -3,672078252e-01   -1,498805583e-01    5,494151115e-01   -4,049445391e-01    0,000000000e+00    0,000000000e+00    0,000000000e+00    0,000000000e+00
     1360000000   -3,966477811e-01   -2,384426305e-03    2,593576014e-01   -6,307157278e-01    0,000000000e+00    0,000000000e+00    0,000000000e+00    0,000000000e+00
     1374000000   -3,370749056e-01    1,218663305e-01   -1,065283343e-01   -6,147990227e-01    0,000000000e+00    0,000000000e+00    0,000000000e+00    0,000000000e+00
     1388000000   -2,441438884e-01    1,795589477e-01   -3,713189065e-01   -4,092281461e-01    0,000000000e+00    0,000000000e+00    0,000000000e+00    0,000000000e+00
     1402000000   -1,560250521e-01    1,839961708e-01   -4,715567827e-01   -1,012084410e-01    0,000000000e+00    0,000000000e+00    0,000000000e+00    0,000000000e+00
     1416000000   -8,737201244e-02    1,509656012e-01   -3,886524737e-01    2,018088549e-01    0,000000000e+00    0,000000000e+00    0,000000000e+00    0,000000000e+00
     1430000000   -3,008538671e-02    8,595858514e-02   -1,952987462e-01    4,026029706e-01    0,000000000e+00    0,000000000e+00    0,000000000e+00    0,000000000e+00
     1444000000   -7,347676437e-03    7,683311589e-03    1,141534299e-01    5,051226020e-01    0,000000000e+00    0,000000000e+00    0,000000000e+00    0,000000000e+00
     1458000000   -3,625157848e-02   -8,029449731e-02    4,097931087e-01    4,853650630e-01    0,000000000e+00    0,000000000e+00    0,000000000e+00    0,000000000e+00
     1472000000   -1,087521985e-01   -1,426298618e-01    7,229950428e-01    3,091645837e-01    0,000000000e+00    0,000000000e+00    0,000000000e+00    0,000000000e+00
     1486000000   -2,235164046e-01   -1,399381161e-01    8,793214560e-01   -1,301334053e-02    0,000000000e+00    0,000000000e+00    0,000000000e+00    0,000000000e+00
     1500000000   -2,960362136e-01   -7,572654635e-02    8,679399490e-01   -4,069406986e-01    0,000000000e+00    0,000000000e+00    0,000000000e+00    0,000000000e+00
