! NanoVNA-App
! Date: 2025-09-25 15:01:08
! Start: 100MHz Stop: 1,5GHz Points: 101
! S-Parameter data: F S11 S21 S12 S22
# Hz S RI R 50
!     Frequency           S11_Real           S11_Imag           S21_Real           S21_Imag           S12_Real           S12_Imag           S22_Real           S22_Imag
      100000000    3,557839245e-02    2,735621110e-02    4,407623708e-01   -6,695286036e-01    0,000000000e+00    0,000000000e+00    0,000000000e+00    0,000000000e+00
      114000000    6,072998419e-02    2,189135877e-03    1,279134490e-02   -7,954127789e-01    0,000000000e+00    0,000000000e+00    0,000000000e+00    0,000000000e+00
      128000000    6,840801239e-02   -4,225296155e-02   -4,081279337e-01   -6,782261729e-01    0,000000000e+00    0,000000000e+00    0,000000000e+00    0,000000000e+00
      142000000    4,347953200e-02   -8,879768848e-02   -7,053653002e-01   -3,610133827e-01    0,000000000e+00    0,000000000e+00    0,000000000e+00    0,000000000e+00
      156000000   -8,858038113e-03   -1,105527803e-01   -7,937436700e-01    6,847363710e-02    0,000000000e+00    0,000000000e+00    0,000000000e+00    0,000000000e+00
      170000000   -6,263420731e-02   -9,184412658e-02   -6,371870637e-01    4,864161909e-01    0,000000000e+00    0,000000000e+00    0,000000000e+00    0,000000000e+00
      184000000   -8,857860416e-02   -4,767528921e-02   -2,730713189e-01    7,560597658e-01    0,000000000e+00    0,000000000e+00    0,000000000e+00    0,000000000e+00
      198000000   -8,278321475e-02   -6,412479095e-03    1,796159595e-01    7,820089459e-01    0,000000000e+00    0,000000000e+00    0,000000000e+00    0,000000000e+00
      212000000   -6,271775067e-02    1,799013838e-02    5,705553293e-01    5,583403111e-01    0,000000000e+00    0,000000000e+00    0,000000000e+00    0,000000000e+00
      226000000   -4,144525900e-02    3,183386475e-02    7,766768336e-01    1,619158387e-01    0,000000000e+00    0,000000000e+00    0,000000000e+00    0,000000000e+00
      240000000   -1,492958795e-02    4,132698476e-02    7,361821532e-01   -2,786146402e-01    0,000000000e+00    0,000000000e+00    0,000000000e+00    0,000000000e+00
      254000000    2,139950357e-02    3,635748103e-02    4,677932262e-01   -6,223449111e-01    0,000000000e+00    0,000000000e+00    0,000000000e+00    0,000000000e+00
      268000000    5,329572782e-02    4,738348536e-03    6,667673588e-02   -7,673217654e-01    0,000000000e+00    0,000000000e+00    0,000000000e+00    0,000000000e+00
      282000000    5,750983953e-02   -4,494604841e-02   -3,455323875e-01   -6,823146939e-01    0,000000000e+00    0,000000000e+00    0,000000000e+00    0,000000000e+00
      296000000    2,607869543e-02   -8,463816345e-02   -6,544277072e-01   -3,975814879e-01    0,000000000e+00    0,000000000e+00    0,000000000e+00    0,000000000e+00
      310000000   -1,898095571e-02   -8,946505189e-02   -7,748676538e-01    1,036053989e-02    0,000000000e+00    0,000000000e+00    0,000000000e+00    0,000000000e+00
      324000000   -4,654820263e-02   -6,351724267e-02   -6,482021213e-01    4,295662344e-01    0,000000000e+00    0,000000000e+00    0,000000000e+00    0,000000000e+00
      338000000   -4,123903438e-02   -3,783088550e-02   -3,126848638e-01    7,088517547e-01    0,000000000e+00    0,000000000e+00    0,000000000e+00    0,000000000e+00
      352000000   -2,339963987e-02   -3,768511117e-02    1,201284677e-01    7,583460212e-01    0,000000000e+00    0,000000000e+00    0,000000000e+00    0,000000000e+00
      366000000   -2,309224010e-02   -5,612173676e-02    5,022206903e-01    5,715860724e-01    0,000000000e+00    0,000000000e+00    0,000000000e+00    0,000000000e+00
      380000000   -4,472059011e-02   -6,542911381e-02    7,264640331e-01    2,115534544e-01    0,000000000e+00    0,000000000e+00    0,000000000e+00    0,000000000e+00
      394000000   -6,640344858e-02   -5,078716204e-02    7,230514884e-01   -2,129343301e-01    0,000000000e+00    0,000000000e+00    0,000000000e+00    0,000000000e+00
      408000000   -6,740892678e-02   -2,621806040e-02    4,906340539e-01   -5,684613585e-01    0,000000000e+00    0,000000000e+00    0,000000000e+00    0,000000000e+00
      422000000   -5,311610922e-02   -1,511069480e-02    1,052033305e-01   -7,386219501e-01    0,000000000e+00    0,000000000e+00    0,000000000e+00    0,000000000e+00
      436000000   -4,636036977e-02   -1,861955598e-02   -3,064573705e-01   -6,756147742e-01    0,000000000e+00    0,000000000e+00    0,000000000e+00    0,000000000e+00
      450000000   -5,206999555e-02   -1,487134397e-02   -6,194419265e-01   -3,993612230e-01    0,000000000e+00    0,000000000e+00    0,000000000e+00    0,000000000e+00
      464000000   -5,050463229e-02    6,064957939e-03   -7,301095128e-01    3,298247932e-03    0,000000000e+00    0,000000000e+00    0,000000000e+00    0,000000000e+00
      478000000   -2,067552134e-02    2,655841410e-02   -5,985165834e-01    3,972311616e-01    0,000000000e+00    0,000000000e+00    0,000000000e+00    0,000000000e+00
      492000000    2,786128037e-02    1,465462148e-02   -2,804192007e-01    6,440592408e-01    0,000000000e+00    0,000000000e+00    0,000000000e+00    0,000000000e+00
      506000000    5,858803540e-02   -3,741526231e-02    1,041713282e-01    6,806564331e-01    0,000000000e+00    0,000000000e+00    0,000000000e+00    0,000000000e+00
      520000000    4,391090199e-02   -1,027226225e-01    4,459377825e-01    5,168202519e-01    0,000000000e+00    0,000000000e+00    0,000000000e+00    0,000000000e+00
      534000000   -1,282467321e-02   -1,434899569e-01    6,495022178e-01    2,063619941e-01    0,000000000e+00    0,000000000e+00    0,000000000e+00    0,000000000e+00
      548000000   -8,084379882e-02   -1,396134645e-01    6,603262424e-01   -1,755298972e-01    0,000000000e+00    0,000000000e+00    0,000000000e+00    0,000000000e+00
      562000000   -1,292473823e-01   -9,792397916e-02    4,526884556e-01   -5,083768964e-01    0,000000000e+00    0,000000000e+00    0,000000000e+00    0,000000000e+00
      576000000   -1,473567784e-01   -4,054548591e-02    8,490433544e-02   -6,619428992e-01    0,000000000e+00    0,000000000e+00    0,000000000e+00    0,000000000e+00
      590000000   -1,316670328e-01    2,377069741e-02   -2,941269279e-01   -5,705407262e-01    0,000000000e+00    0,000000000e+00    0,000000000e+00    0,000000000e+00
      604000000   -5,057920516e-02    6,985226274e-02   -5,024121404e-01   -2,719285488e-01    0,000000000e+00    0,000000000e+00    0,000000000e+00    0,000000000e+00
      618000000    3,897048533e-02   -1,218114141e-02   -4,922199845e-01   -2,872242779e-02    0,000000000e+00    0,000000000e+00    0,000000000e+00    0,000000000e+00
      632000000   -3,811086714e-02   -9,892994910e-02   -5,082926154e-01    1,729529649e-01    0,000000000e+00    0,000000000e+00    0,000000000e+00    0,000000000e+00
      646000000   -1,014605537e-01   -4,382738099e-02   -3,801211417e-01    4,654094875e-01    0,000000000e+00    0,000000000e+00    0,000000000e+00    0,000000000e+00
      660000000   -7,520394772e-02    7,341322489e-03   -5,734211206e-02    6,219301820e-01    0,000000000e+00    0,000000000e+00    0,000000000e+00    0,000000000e+00
      674000000   -3,347210959e-02    6,600377616e-03    2,949753702e-01    5,549063087e-01    0,000000000e+00    0,000000000e+00    0,000000000e+00    0,000000000e+00
      688000000   -1,539926324e-02   -1,535229664e-02    5,460176468e-01    3,056082726e-01    0,000000000e+00    0,000000000e+00    0,000000000e+00    0,000000000e+00
      702000000   -1,280231774e-02   -3,333202004e-02    6,220192313e-01   -3,744855151e-02    0,000000000e+00    0,000000000e+00    0,000000000e+00    0,000000000e+00
      716000000   -8,191382512e-03   -4,886104912e-02    4,931329191e-01   -3,668905497e-01    0,000000000e+00    0,000000000e+00    0,000000000e+00    0,000000000e+00
      730000000   -5,303013138e-03   -7,583565265e-02    2,127912492e-01   -5,676695704e-01    0,000000000e+00    0,000000000e+00    0,000000000e+00    0,000000000e+00
      744000000   -2,475972101e-02   -1,128894314e-01   -1,229895502e-01   -5,888348818e-01    0,000000000e+00    0,000000000e+00    0,000000000e+00    0,000000000e+00
      758000000   -7,457675040e-02   -1,339146197e-01   -4,189980328e-01   -4,343703091e-01    0,000000000e+00    0,000000000e+00    0,000000000e+00    0,000000000e+00
      772000000   -1,365924180e-01   -1,158573553e-01   -5,949173570e-01   -1,417690814e-01    0,000000000e+00    0,000000000e+00    0,000000000e+00    0,000000000e+00
      786000000   -1,727333069e-01   -5,805972964e-02   -5,835295320e-01    2,093696594e-01    0,000000000e+00    0,000000000e+00    0,000000000e+00    0,000000000e+00
      800000000   -1,593423039e-01    8,431252092e-03   -3,748293817e-01    4,963621199e-01    0,000000000e+00    0,000000000e+00    0,000000000e+00    0,000000000e+00
      814000000   -1,136020347e-01    4,440615326e-02   -4,544706270e-02    6,157464981e-01    0,000000000e+00    0,000000000e+00    0,000000000e+00    0,000000000e+00
      828000000   -6,689469516e-02    4,350092635e-02    2,857625186e-01    5,410469174e-01    0,000000000e+00    0,000000000e+00    0,000000000e+00    0,000000000e+00
      842000000   -3,823665529e-02    2,851714194e-02    5,216622353e-01    3,057748973e-01    0,000000000e+00    0,000000000e+00    0,000000000e+00    0,000000000e+00
      856000000   -1,819604635e-02    1,054880023e-02    5,958749056e-01   -1,400728617e-02    0,000000000e+00    0,000000000e+00    0,000000000e+00    0,000000000e+00
      870000000    4,787011421e-04   -1,179072540e-02    4,873680770e-01   -3,180943131e-01    0,000000000e+00    0,000000000e+00    0,000000000e+00    0,000000000e+00
      884000000    1,197304763e-02   -5,039497465e-02    2,423727661e-01   -5,142002106e-01    0,000000000e+00    0,000000000e+00    0,000000000e+00    0,000000000e+00
      898000000   -4,666904919e-03   -1,004185602e-01   -5,985421687e-02   -5,552910566e-01    0,000000000e+00    0,000000000e+00    0,000000000e+00    0,000000000e+00
      912000000   -6,197747961e-02   -1,303977370e-01   -3,963528872e-01   -4,263122678e-01    0,000000000e+00    0,000000000e+00    0,000000000e+00    0,000000000e+00
      926000000   -1,250225604e-01   -1,210223809e-01   -5,672613978e-01   -1,496797502e-01    0,000000000e+00    0,000000000e+00    0,000000000e+00    0,000000000e+00
      940000000   -1,607701033e-01   -6,393486261e-02   -5,674296021e-01    1,955405027e-01    0,000000000e+00    0,000000000e+00    0,000000000e+00    0,000000000e+00
      954000000   -1,457080841e-01    2,514310763e-04   -3,722895980e-01    4,851576388e-01    0,000000000e+00    0,000000000e+00    0,000000000e+00    0,000000000e+00
      968000000   -9,810391814e-02    2,131473459e-02   -5,010165274e-02    6,143285632e-01    0,000000000e+00    0,000000000e+00    0,000000000e+00    0,000000000e+00
      982000000   -5,407687649e-02    5,622301251e-03    2,830861807e-01    5,508602262e-01    0,000000000e+00    0,000000000e+00    0,000000000e+00    0,000000000e+00
      996000000   -4,502638802e-02   -3,308292851e-02    5,224180818e-01    3,249922097e-01    0,000000000e+00    0,000000000e+00    0,000000000e+00    0,000000000e+00
     1010000000   -6,065768376e-02   -6,758888066e-02    6,066584587e-01    1,424148772e-02    0,000000000e+00    0,000000000e+00    0,000000000e+00    0,000000000e+00
     1024000000   -1,039248928e-01   -7,886735350e-02    5,133245587e-01   -2,805033624e-01    0,000000000e+00    0,000000000e+00    0,000000000e+00    0,000000000e+00
     1038000000   -1,414419115e-01   -5,301560462e-02    2,958404422e-01   -4,695042670e-01    0,000000000e+00    0,000000000e+00    0,000000000e+00    0,000000000e+00
     1052000000   -1,540864855e-01    4,156562791e-04    3,634773940e-02   -5,226467848e-01    0,000000000e+00    0,000000000e+00    0,000000000e+00    0,000000000e+00
     1066000000   -1,032677293e-01    4,205564782e-02   -2,102025151e-01   -4,651506841e-01    0,000000000e+00    0,000000000e+00    0,000000000e+00    0,000000000e+00
     1080000000   -5,361245945e-02    3,088211641e-02   -4,189699888e-01   -2,986902893e-01    0,000000000e+00    0,000000000e+00    0,000000000e+00    0,000000000e+00
     1094000000   -3,255431354e-02   -8,085690439e-03   -5,208808184e-01   -2,326764539e-02    0,000000000e+00    0,000000000e+00    0,000000000e+00    0,000000000e+00
     1108000000   -2,907642163e-02   -3,136191145e-02   -4,402717054e-01    2,862677872e-01    0,000000000e+00    0,000000000e+00    0,000000000e+00    0,000000000e+00
     1122000000   -3,145897388e-02   -6,017450243e-02   -1,869855523e-01    4,979488254e-01    0,000000000e+00    0,000000000e+00    0,000000000e+00    0,000000000e+00
     1136000000   -4,131214693e-02   -9,604590386e-02    1,498552263e-01    5,217508078e-01    0,000000000e+00    0,000000000e+00    0,000000000e+00    0,000000000e+00
     1150000000   -7,987208664e-02   -1,238072738e-01    4,530344307e-01    3,451641500e-01    0,000000000e+00    0,000000000e+00    0,000000000e+00    0,000000000e+00
     1164000000   -1,435952634e-01   -1,248176917e-01    6,136572361e-01    1,318664011e-02    0,000000000e+00    0,000000000e+00    0,000000000e+00    0,000000000e+00
     1178000000   -1,764595360e-01   -8,901443332e-02    5,364671350e-01   -3,670272827e-01    0,000000000e+00    0,000000000e+00    0,000000000e+00    0,000000000e+00
     1192000000   -1,780959368e-01   -5,542225018e-02    2,442431152e-01   -6,403194070e-01    0,000000000e+00    0,000000000e+00    0,000000000e+00    0,000000000e+00
     1206000000   -1,874260902e-01   -5,362218246e-02   -1,349301487e-01   -6,614592075e-01    0,000000000e+00    0,000000000e+00    0,000000000e+00    0,000000000e+00
     1220000000   -2,506155670e-01   -1,519146655e-02   -4,216412306e-01   -4,853576720e-01    0,000000000e+00    0,000000000e+00    0,000000000e+00    0,000000000e+00
     1234000000   -2,443625629e-01    1,153340414e-01   -5,597612262e-01   -2,513337135e-01    0,000000000e+00    0,000000000e+00    0,000000000e+00    0,000000000e+00
     1248000000   -1,185668930e-01    1,748545915e-01   -6,044579148e-01    2,309093811e-02    0,000000000e+00    0,000000000e+00    0,000000000e+00    0,000000000e+00
     1262000000   -5,993561354e-03    1,338025331e-01   -5,113559961e-01    2,973915040e-01    0,000000000e+00    0,000000000e+00    0,000000000e+00    0,000000000e+00
     1276000000    5,585268885e-02    4,084893689e-02   -2,761828601e-01    4,914878309e-01    0,000000000e+00    0,000000000e+00    0,000000000e+00    0,000000000e+00
     1290000000    6,776949763e-02   -7,440249622e-02    1,076678000e-02    5,468636155e-01    0,000000000e+00    0,000000000e+00    0,000000000e+00    0,000000000e+00
     1304000000    2,077665925e-02   -1,832955033e-01    2,990148365e-01    4,730723798e-01    0,000000000e+00    0,000000000e+00    0,000000000e+00    0,000000000e+00
     1318000000   -9,390827268e-02   -2,518518567e-01    5,344610214e-01    2,760346532e-01    0,000000000e+00    0,000000000e+00    0,000000000e+00    0,000000000e+00
     1332000000   -2,437317520e-01   -2,469744235e-01    6,604135036e-01   -4,692305624e-02    0,000000000e+00    0,000000000e+00    0,000000000e+00    0,000000000e+00
     1346000000   -3,649015129e-01   -1,420790106e-01    5,501461029e-01   -4,182325304e-01    0,000000000e+00    0,000000000e+00    0,000000000e+00    0,000000000e+00
     1360000000   -3,879329860e-01    9,536273777e-03    2,590346038e-01   -6,265602112e-01    0,000000000e+00    0,000000000e+00    0,000000000e+00    0,000000000e+00
     1374000000   -3,239713013e-01    1,176910102e-01   -1,128671467e-01   -6,382682323e-01    0,000000000e+00    0,000000000e+00    0,000000000e+00    0,000000000e+00
     1388000000   -2,328407019e-01    1,725637168e-01   -3,775486648e-01   -4,178749025e-01    0,000000000e+00    0,000000000e+00    0,000000000e+00    0,000000000e+00
     1402000000   -1,511872560e-01    1,673265696e-01   -4,767044485e-01   -1,083692834e-01    0,000000000e+00    0,000000000e+00    0,000000000e+00    0,000000000e+00
     1416000000   -8,080727607e-02    1,419203877e-01   -3,939453065e-01    1,980403960e-01    0,000000000e+00    0,000000000e+00    0,000000000e+00    0,000000000e+00
     1430000000   -3,451515362e-02    8,444018662e-02   -1,771502048e-01    4,240606427e-01    0,000000000e+00    0,000000000e+00    0,000000000e+00    0,000000000e+00
     1444000000   -1,716500893e-02    3,698413493e-03    1,115036979e-01    5,272398591e-01    0,000000000e+00    0,000000000e+00    0,000000000e+00    0,000000000e+00
     1458000000   -4,219961911e-02   -8,477308601e-02    4,360620081e-01    4,880575836e-01    0,000000000e+00    0,000000000e+00    0,000000000e+00    0,000000000e+00
     1472000000   -1,262826622e-01   -1,424846351e-01    7,237952948e-01    3,202156126e-01    0,000000000e+00    0,000000000e+00    0,000000000e+00    0,000000000e+00
     1486000000   -2,238897085e-01   -1,424443871e-01    9,054116607e-01   -3,423030302e-02    0,000000000e+00    0,000000000e+00    0,000000000e+00    0,000000000e+00
     1500000000   -3,033830225e-01   -5,926934257e-02    8,358107805e-01   -4,070588350e-01    0,000000000e+00    0,000000000e+00    0,000000000e+00    0,000000000e+00
