! NanoVNA-App
! Date: 2025-09-25 14:57:18
! Start: 100MHz Stop: 1,5GHz Points: 101
! S-Parameter data: F S11 S21 S12 S22
# Hz S RI R 50
!     Frequency           S11_Real           S11_Imag           S21_Real           S21_Imag           S12_Real           S12_Imag           S22_Real           S22_Imag
      100000000    3,559874743e-02    2,733164094e-02    4,406691194e-01   -6,694402099e-01    0,000000000e+00    0,000000000e+00    0,000000000e+00    0,000000000e+00
      114000000    6,070498377e-02    2,183773322e-03    1,277852897e-02   -7,953713536e-01    0,000000000e+00    0,000000000e+00    0,000000000e+00    0,000000000e+00
      128000000    6,840222329e-02   -4,226266965e-02   -4,082138240e-01   -6,782966256e-01    0,000000000e+00    0,000000000e+00    0,000000000e+00    0,000000000e+00
      142000000    4,346942529e-02   -8,875319362e-02   -7,050618529e-01   -3,607914746e-01    0,000000000e+00    0,000000000e+00    0,000000000e+00    0,000000000e+00
      156000000   -8,725668304e-03   -1,103852764e-01   -7,940897346e-01    6,843230128e-02    0,000000000e+00    0,000000000e+00    0,000000000e+00    0,000000000e+00
      170000000   -6,275015324e-02   -9,180141985e-02   -6,367456913e-01    4,862354398e-01    0,000000000e+00    0,000000000e+00    0,000000000e+00    0,000000000e+00
      184000000   -8,862096071e-02   -4,766908661e-02   -2,731967568e-01    7,560330629e-01    0,000000000e+00    0,000000000e+00    0,000000000e+00    0,000000000e+00
      198000000   -8,272401989e-02   -6,408547051e-03    1,795759797e-01    7,821822166e-01    0,000000000e+00    0,000000000e+00    0,000000000e+00    0,000000000e+00
      212000000   -6,268615276e-02    1,806758344e-02    5,705620646e-01    5,581507683e-01    0,000000000e+00    0,000000000e+00    0,000000000e+00    0,000000000e+00
      226000000   -4,134653509e-02    3,188775852e-02    7,766158581e-01    1,618125290e-01    0,000000000e+00    0,000000000e+00    0,000000000e+00    0,000000000e+00
      240000000   -1,479156502e-02    4,127500206e-02    7,360642552e-01   -2,786387205e-01    0,000000000e+00    0,000000000e+00    0,000000000e+00    0,000000000e+00
      254000000    2,152621932e-02    3,628687561e-02    4,678449333e-01   -6,222940087e-01    0,000000000e+00    0,000000000e+00    0,000000000e+00    0,000000000e+00
      268000000    5,334714800e-02    4,640061408e-03    6,680317223e-02   -7,675802112e-01    0,000000000e+00    0,000000000e+00    0,000000000e+00    0,000000000e+00
      282000000    5,748075247e-02   -4,509522393e-02   -3,454591036e-01   -6,824030280e-01    0,000000000e+00    0,000000000e+00    0,000000000e+00    0,000000000e+00
      296000000    2,611860819e-02   -8,486706764e-02   -6,553093791e-01   -3,979620039e-01    0,000000000e+00    0,000000000e+00    0,000000000e+00    0,000000000e+00
      310000000   -1,904708892e-02   -8,946587145e-02   -7,734684944e-01    9,599499404e-03    0,000000000e+00    0,000000000e+00    0,000000000e+00    0,000000000e+00
      324000000   -4,679212719e-02   -6,341679394e-02   -6,485644579e-01    4,292857945e-01    0,000000000e+00    0,000000000e+00    0,000000000e+00    0,000000000e+00
      338000000   -4,125106707e-02   -3,776970506e-02   -3,116557300e-01    7,112910151e-01    0,000000000e+00    0,000000000e+00    0,000000000e+00    0,000000000e+00
      352000000   -2,370804921e-02   -3,777469695e-02    1,191172600e-01    7,584401369e-01    0,000000000e+00    0,000000000e+00    0,000000000e+00    0,000000000e+00
      366000000   -2,285996638e-02   -5,584743246e-02    5,028761029e-01    5,718231797e-01    0,000000000e+00    0,000000000e+00    0,000000000e+00    0,000000000e+00
      380000000   -4,468118772e-02   -6,511772424e-02    7,270013094e-01    2,113539726e-01    0,000000000e+00    0,000000000e+00    0,000000000e+00    0,000000000e+00
      394000000   -6,622380018e-02   -5,043629184e-02    7,232521772e-01   -2,132468671e-01    0,000000000e+00    0,000000000e+00    0,000000000e+00    0,000000000e+00
      408000000   -6,702555716e-02   -2,631893195e-02    4,906523824e-01   -5,680413842e-01    0,000000000e+00    0,000000000e+00    0,000000000e+00    0,000000000e+00
      422000000   -5,311330035e-02   -1,522978023e-02    1,053809822e-01   -7,379372716e-01    0,000000000e+00    0,000000000e+00    0,000000000e+00    0,000000000e+00
      436000000   -4,580000788e-02   -1,912747510e-02   -3,046249747e-01   -6,757022142e-01    0,000000000e+00    0,000000000e+00    0,000000000e+00    0,000000000e+00
      450000000   -5,202727020e-02   -1,548855472e-02   -6,186927557e-01   -4,001103640e-01    0,000000000e+00    0,000000000e+00    0,000000000e+00    0,000000000e+00
      464000000   -5,052117631e-02    5,266667344e-03   -7,297099829e-01    3,082335228e-03    0,000000000e+00    0,000000000e+00    0,000000000e+00    0,000000000e+00
      478000000   -2,121697739e-02    2,621861175e-02   -5,988965631e-01    3,964484930e-01    0,000000000e+00    0,000000000e+00    0,000000000e+00    0,000000000e+00
      492000000    2,767858841e-02    1,469026506e-02   -2,807707787e-01    6,434992552e-01    0,000000000e+00    0,000000000e+00    0,000000000e+00    0,000000000e+00
      506000000    5,809883773e-02   -3,667299822e-02    1,043155864e-01    6,799257994e-01    0,000000000e+00    0,000000000e+00    0,000000000e+00    0,000000000e+00
      520000000    4,357838258e-02   -1,015368402e-01    4,413647354e-01    5,212540030e-01    0,000000000e+00    0,000000000e+00    0,000000000e+00    0,000000000e+00
      534000000   -1,172647811e-02   -1,418621391e-01    6,498374343e-01    2,077855617e-01    0,000000000e+00    0,000000000e+00    0,000000000e+00    0,000000000e+00
      548000000   -7,867386937e-02   -1,378982067e-01    6,617463231e-01   -1,739257723e-01    0,000000000e+00    0,000000000e+00    0,000000000e+00    0,000000000e+00
      562000000   -1,260332763e-01   -9,861427546e-02    4,555137753e-01   -5,070974827e-01    0,000000000e+00    0,000000000e+00    0,000000000e+00    0,000000000e+00
      576000000   -1,436441094e-01   -4,610606283e-02    8,992714435e-02   -6,662168503e-01    0,000000000e+00    0,000000000e+00    0,000000000e+00    0,000000000e+00
      590000000   -1,346073002e-01    1,212312281e-02   -2,939826548e-01   -5,838519335e-01    0,000000000e+00    0,000000000e+00    0,000000000e+00    0,000000000e+00
      604000000   -7,368446141e-02    6,703886390e-02   -5,279612541e-01   -2,805339694e-01    0,000000000e+00    0,000000000e+00    0,000000000e+00    0,000000000e+00
      618000000    3,666572645e-02    2,504104376e-02   -5,024916530e-01    1,436154172e-02    0,000000000e+00    0,000000000e+00    0,000000000e+00    0,000000000e+00
      632000000   -2,115329495e-03   -1,043066159e-01   -4,654005170e-01    1,718647480e-01    0,000000000e+00    0,000000000e+00    0,000000000e+00    0,000000000e+00
      646000000   -1,028445885e-01   -6,729424745e-02   -3,794102967e-01    4,395148158e-01    0,000000000e+00    0,000000000e+00    0,000000000e+00    0,000000000e+00
      660000000   -8,826076239e-02    2,747364342e-03   -7,161075622e-02    6,169107556e-01    0,000000000e+00    0,000000000e+00    0,000000000e+00    0,000000000e+00
      674000000   -4,072380066e-02    1,253088750e-02    2,882675231e-01    5,590953231e-01    0,000000000e+00    0,000000000e+00    0,000000000e+00    0,000000000e+00
      688000000   -1,691801101e-02   -8,669140749e-03    5,441414118e-01    3,117260933e-01    0,000000000e+00    0,000000000e+00    0,000000000e+00    0,000000000e+00
      702000000   -1,103913411e-02   -2,915261872e-02    6,209126115e-01   -3,592572734e-02    0,000000000e+00    0,000000000e+00    0,000000000e+00    0,000000000e+00
      716000000   -5,491603166e-03   -4,768654332e-02    4,970192313e-01   -3,651422858e-01    0,000000000e+00    0,000000000e+00    0,000000000e+00    0,000000000e+00
      730000000   -3,657591529e-03   -7,752900571e-02    2,169991136e-01   -5,677021146e-01    0,000000000e+00    0,000000000e+00    0,000000000e+00    0,000000000e+00
      744000000   -2,498961054e-02   -1,143810302e-01   -1,199224442e-01   -5,909441113e-01    0,000000000e+00    0,000000000e+00    0,000000000e+00    0,000000000e+00
      758000000   -7,675955445e-02   -1,365328878e-01   -4,195658267e-01   -4,371096790e-01    0,000000000e+00    0,000000000e+00    0,000000000e+00    0,000000000e+00
      772000000   -1,390732378e-01   -1,164159030e-01   -5,966620445e-01   -1,438710839e-01    0,000000000e+00    0,000000000e+00    0,000000000e+00    0,000000000e+00
      786000000   -1,755921692e-01   -5,623671412e-02   -5,856204033e-01    2,091245651e-01    0,000000000e+00    0,000000000e+00    0,000000000e+00    0,000000000e+00
      800000000   -1,598340869e-01    1,011600718e-02   -3,762908280e-01    4,975542128e-01    0,000000000e+00    0,000000000e+00    0,000000000e+00    0,000000000e+00
      814000000   -1,123689488e-01    4,547094554e-02   -4,593944550e-02    6,188079119e-01    0,000000000e+00    0,000000000e+00    0,000000000e+00    0,000000000e+00
      828000000   -6,471300870e-02    4,384324327e-02    2,877679467e-01    5,429986119e-01    0,000000000e+00    0,000000000e+00    0,000000000e+00    0,000000000e+00
      842000000   -3,555900604e-02    2,621594444e-02    5,232732296e-01    3,067574203e-01    0,000000000e+00    0,000000000e+00    0,000000000e+00    0,000000000e+00
      856000000   -1,844702289e-02    7,755207829e-03    5,974562168e-01   -1,462948509e-02    0,000000000e+00    0,000000000e+00    0,000000000e+00    0,000000000e+00
      870000000   -1,507216832e-03   -1,347647980e-02    4,877586663e-01   -3,193218112e-01    0,000000000e+00    0,000000000e+00    0,000000000e+00    0,000000000e+00
      884000000    9,414262138e-03   -5,103399977e-02    2,420933396e-01   -5,153762698e-01    0,000000000e+00    0,000000000e+00    0,000000000e+00    0,000000000e+00
      898000000   -6,730702240e-03   -9,874819964e-02   -6,197435409e-02   -5,561159253e-01    0,000000000e+00    0,000000000e+00    0,000000000e+00    0,000000000e+00
      912000000   -6,213174015e-02   -1,273373663e-01   -3,883557320e-01   -4,083259106e-01    0,000000000e+00    0,000000000e+00    0,000000000e+00    0,000000000e+00
      926000000   -1,225845963e-01   -1,138854995e-01   -5,667540431e-01   -1,439734548e-01    0,000000000e+00    0,000000000e+00    0,000000000e+00    0,000000000e+00
      940000000   -1,610717922e-01   -6,249973178e-02   -5,697439909e-01    1,941692680e-01    0,000000000e+00    0,000000000e+00    0,000000000e+00    0,000000000e+00
      954000000   -1,479806006e-01   -6,891774945e-03   -3,743888140e-01    4,837824702e-01    0,000000000e+00    0,000000000e+00    0,000000000e+00    0,000000000e+00
      968000000   -1,017960384e-01    1,769661717e-02   -5,119032785e-02    6,153728366e-01    0,000000000e+00    0,000000000e+00    0,000000000e+00    0,000000000e+00
      982000000   -5,936088413e-02    5,071590655e-03    2,815119028e-01    5,533526540e-01    0,000000000e+00    0,000000000e+00    0,000000000e+00    0,000000000e+00
      996000000   -5,161017179e-02   -2,941633016e-02    5,252963901e-01    3,300724328e-01    0,000000000e+00    0,000000000e+00    0,000000000e+00    0,000000000e+00
     1010000000   -6,633938849e-02   -5,956482515e-02    6,116194129e-01    1,399917807e-02    0,000000000e+00    0,000000000e+00    0,000000000e+00    0,000000000e+00
     1024000000   -9,789771587e-02   -7,214190811e-02    5,166874528e-01   -2,853550315e-01    0,000000000e+00    0,000000000e+00    0,000000000e+00    0,000000000e+00
     1038000000   -1,336539686e-01   -5,863487720e-02    2,959666252e-01   -4,767497182e-01    0,000000000e+00    0,000000000e+00    0,000000000e+00    0,000000000e+00
     1052000000   -1,460086256e-01   -1,016857103e-02    3,013433702e-02   -5,296396017e-01    0,000000000e+00    0,000000000e+00    0,000000000e+00    0,000000000e+00
     1066000000   -1,175516024e-01    3,127469495e-02   -2,227378488e-01   -4,665059149e-01    0,000000000e+00    0,000000000e+00    0,000000000e+00    0,000000000e+00
     1080000000   -6,324704736e-02    3,164260089e-02   -4,203921854e-01   -2,899691761e-01    0,000000000e+00    0,000000000e+00    0,000000000e+00    0,000000000e+00
     1094000000   -3,759887069e-02    1,065543038e-03   -5,116835237e-01   -1,407631487e-02    0,000000000e+00    0,000000000e+00    0,000000000e+00    0,000000000e+00
     1108000000   -2,449506335e-02   -2,821512893e-02   -4,319753051e-01    2,833237052e-01    0,000000000e+00    0,000000000e+00    0,000000000e+00    0,000000000e+00
     1122000000   -2,705047652e-02   -5,837640911e-02   -1,828010380e-01    4,862149060e-01    0,000000000e+00    0,000000000e+00    0,000000000e+00    0,000000000e+00
     1136000000   -4,106179997e-02   -9,595341235e-02    1,512586772e-01    5,138962865e-01    0,000000000e+00    0,000000000e+00    0,000000000e+00    0,000000000e+00
     1150000000   -8,591821045e-02   -1,289606094e-01    4,473811090e-01    3,422272801e-01    0,000000000e+00    0,000000000e+00    0,000000000e+00    0,000000000e+00
     1164000000   -1,403703094e-01   -1,223500893e-01    6,021923423e-01    1,499065477e-02    0,000000000e+00    0,000000000e+00    0,000000000e+00    0,000000000e+00
     1178000000   -1,769292802e-01   -8,930450678e-02    5,378975868e-01   -3,637907207e-01    0,000000000e+00    0,000000000e+00    0,000000000e+00    0,000000000e+00
     1192000000   -1,875121742e-01   -5,381922424e-02    2,447557151e-01   -6,322667003e-01    0,000000000e+00    0,000000000e+00    0,000000000e+00    0,000000000e+00
     1206000000   -1,911600381e-01   -4,708426818e-02   -1,310087591e-01   -6,568303108e-01    0,000000000e+00    0,000000000e+00    0,000000000e+00    0,000000000e+00
     1220000000   -2,502455413e-01   -1,032952033e-02   -4,190996289e-01   -4,858537912e-01    0,000000000e+00    0,000000000e+00    0,000000000e+00    0,000000000e+00
     1234000000   -2,449654490e-01    1,118255332e-01   -5,638206005e-01   -2,487310469e-01    0,000000000e+00    0,000000000e+00    0,000000000e+00    0,000000000e+00
     1248000000   -1,147892699e-01    1,773195714e-01   -6,012166739e-01    1,869619638e-02    0,000000000e+00    0,000000000e+00    0,000000000e+00    0,000000000e+00
     1262000000   -3,207607428e-03    1,347890645e-01   -5,048457384e-01    2,995521128e-01    0,000000000e+00    0,000000000e+00    0,000000000e+00    0,000000000e+00
     1276000000    6,329327077e-02    3,893676773e-02   -2,797999084e-01    4,823641181e-01    0,000000000e+00    0,000000000e+00    0,000000000e+00    0,000000000e+00
     1290000000    7,574535906e-02   -7,120560855e-02    1,212519780e-02    5,482598543e-01    0,000000000e+00    0,000000000e+00    0,000000000e+00    0,000000000e+00
     1304000000    1,923385635e-02   -1,810202003e-01    2,924331427e-01    4,799716175e-01    0,000000000e+00    0,000000000e+00    0,000000000e+00    0,000000000e+00
     1318000000   -9,594664723e-02   -2,526337206e-01    5,308735967e-01    2,714953125e-01    0,000000000e+00    0,000000000e+00    0,000000000e+00    0,000000000e+00
     1332000000   -2,421461940e-01   -2,469688058e-01    6,474748850e-01   -4,924256355e-02    0,000000000e+00    0,000000000e+00    0,000000000e+00    0,000000000e+00
     1346000000   -3,677746952e-01   -1,419366598e-01    5,480218530e-01   -4,077674747e-01    0,000000000e+00    0,000000000e+00    0,000000000e+00    0,000000000e+00
     1360000000   -3,900036514e-01    9,018784389e-03    2,574216127e-01   -6,341632605e-01    0,000000000e+00    0,000000000e+00    0,000000000e+00    0,000000000e+00
     1374000000   -3,255084157e-01    1,184298992e-01   -1,047172919e-01   -6,304553151e-01    0,000000000e+00    0,000000000e+00    0,000000000e+00    0,000000000e+00
     1388000000   -2,343195677e-01    1,693188250e-01   -3,650707304e-01   -4,111490250e-01    0,000000000e+00    0,000000000e+00    0,000000000e+00    0,000000000e+00
     1402000000   -1,529575735e-01    1,719100624e-01   -4,773201048e-01   -1,032701209e-01    0,000000000e+00    0,000000000e+00    0,000000000e+00    0,000000000e+00
     1416000000   -8,384465426e-02    1,405908018e-01   -3,943680525e-01    1,977703422e-01    0,000000000e+00    0,000000000e+00    0,000000000e+00    0,000000000e+00
     1430000000   -3,700555861e-02    8,957244456e-02   -1,806087345e-01    4,285862446e-01    0,000000000e+00    0,000000000e+00    0,000000000e+00    0,000000000e+00
     1444000000   -1,077110879e-02    5,351719446e-03    1,146571189e-01    5,215604305e-01    0,000000000e+00    0,000000000e+00    0,000000000e+00    0,000000000e+00
     1458000000   -3,594862297e-02   -7,940465212e-02    4,451642036e-01    4,984066188e-01    0,000000000e+00    0,000000000e+00    0,000000000e+00    0,000000000e+00
     1472000000   -1,210181266e-01   -1,470658928e-01    7,392413616e-01    2,820757329e-01    0,000000000e+00    0,000000000e+00    0,000000000e+00    0,000000000e+00
     1486000000   -2,373622805e-01   -1,388921440e-01    9,026431441e-01   -2,541713975e-02    0,000000000e+00    0,000000000e+00    0,000000000e+00    0,000000000e+00
     1500000000   -3,044759333e-01   -6,063260138e-02    8,569154143e-01   -4,138179123e-01    0,000000000e+00    0,000000000e+00    0,000000000e+00    0,000000000e+00
