! NanoVNA-App
! Date: 2025-09-25 14:58:46
! Start: 100MHz Stop: 1,5GHz Points: 101
! S-Parameter data: F S11 S21 S12 S22
# Hz S RI R 50
!     Frequency           S11_Real           S11_Imag           S21_Real           S21_Imag           S12_Real           S12_Imag           S22_Real           S22_Imag
      100000000    3,557862714e-02    2,735748887e-02    4,407302737e-01   -6,694741845e-01    0,000000000e+00    0,000000000e+00    0,000000000e+00    0,000000000e+00
      114000000    6,072235852e-02    2,178640803e-03    1,301821694e-02   -7,954631448e-01    0,000000000e+00    0,000000000e+00    0,000000000e+00    0,000000000e+00
      128000000    6,839218736e-02   -4,226126894e-02   -4,082039595e-01   -6,783153415e-01    0,000000000e+00    0,000000000e+00    0,000000000e+00    0,000000000e+00
      142000000    4,348137230e-02   -8,874306828e-02   -7,051603794e-01   -3,608877063e-01    0,000000000e+00    0,000000000e+00    0,000000000e+00    0,000000000e+00
      156000000   -9,244728833e-03   -1,101833731e-01   -7,932839990e-01    6,815719604e-02    0,000000000e+00    0,000000000e+00    0,000000000e+00    0,000000000e+00
      170000000   -6,272676587e-02   -9,176770598e-02   -6,369888186e-01    4,865046144e-01    0,000000000e+00    0,000000000e+00    0,000000000e+00    0,000000000e+00
      184000000   -8,859861642e-02   -4,769820347e-02   -2,731597126e-01    7,559912205e-01    0,000000000e+00    0,000000000e+00    0,000000000e+00    0,000000000e+00
      198000000   -8,273962885e-02   -6,425688975e-03    1,795935780e-01    7,826814651e-01    0,000000000e+00    0,000000000e+00    0,000000000e+00    0,000000000e+00
      212000000   -6,271459907e-02    1,798700541e-02    5,706786513e-01    5,582996011e-01    0,000000000e+00    0,000000000e+00    0,000000000e+00    0,000000000e+00
      226000000   -4,147099704e-02    3,186556324e-02    7,768572569e-01    1,619309336e-01    0,000000000e+00    0,000000000e+00    0,000000000e+00    0,000000000e+00
      240000000   -1,494005695e-02    4,132308811e-02    7,360396385e-01   -2,787756324e-01    0,000000000e+00    0,000000000e+00    0,000000000e+00    0,000000000e+00
      254000000    2,139357291e-02    3,626877815e-02    4,676018059e-01   -6,217796206e-01    0,000000000e+00    0,000000000e+00    0,000000000e+00    0,000000000e+00
      268000000    5,326157808e-02    4,722195212e-03    6,661974639e-02   -7,671031356e-01    0,000000000e+00    0,000000000e+00    0,000000000e+00    0,000000000e+00
      282000000    5,735600740e-02   -4,497839883e-02   -3,457500339e-01   -6,827109456e-01    0,000000000e+00    0,000000000e+00    0,000000000e+00    0,000000000e+00
      296000000    2,610711381e-02   -8,466662467e-02   -6,553617120e-01   -3,976377547e-01    0,000000000e+00    0,000000000e+00    0,000000000e+00    0,000000000e+00
      310000000   -1,905293576e-02   -8,959283680e-02   -7,733071446e-01    1,095630135e-02    0,000000000e+00    0,000000000e+00    0,000000000e+00    0,000000000e+00
      324000000   -4,671153426e-02   -6,339731812e-02   -6,475761533e-01    4,293936789e-01    0,000000000e+00    0,000000000e+00    0,000000000e+00    0,000000000e+00
      338000000   -4,120950028e-02   -3,786312789e-02   -3,094222248e-01    7,113459110e-01    0,000000000e+00    0,000000000e+00    0,000000000e+00    0,000000000e+00
      352000000   -2,332754806e-02   -3,761750460e-02    1,191308275e-01    7,591370344e-01    0,000000000e+00    0,000000000e+00    0,000000000e+00    0,000000000e+00
      366000000   -2,271345817e-02   -5,628068000e-02    5,028639436e-01    5,710834265e-01    0,000000000e+00    0,000000000e+00    0,000000000e+00    0,000000000e+00
      380000000   -4,448786750e-02   -6,533490121e-02    7,271586657e-01    2,115303278e-01    0,000000000e+00    0,000000000e+00    0,000000000e+00    0,000000000e+00
      394000000   -6,643454731e-02   -5,054804310e-02    7,231107354e-01   -2,134586275e-01    0,000000000e+00    0,000000000e+00    0,000000000e+00    0,000000000e+00
      408000000   -6,748986989e-02   -2,616827190e-02    4,897855222e-01   -5,686668754e-01    0,000000000e+00    0,000000000e+00    0,000000000e+00    0,000000000e+00
      422000000   -5,346349254e-02   -1,525931992e-02    1,048148274e-01   -7,387124300e-01    0,000000000e+00    0,000000000e+00    0,000000000e+00    0,000000000e+00
      436000000   -4,673717543e-02   -1,882434264e-02   -3,063584864e-01   -6,762006283e-01    0,000000000e+00    0,000000000e+00    0,000000000e+00    0,000000000e+00
      450000000   -5,191905797e-02   -1,491057593e-02   -6,188964844e-01   -3,997103274e-01    0,000000000e+00    0,000000000e+00    0,000000000e+00    0,000000000e+00
      464000000   -5,033498257e-02    5,739794113e-03   -7,300918102e-01    3,190474119e-03    0,000000000e+00    0,000000000e+00    0,000000000e+00    0,000000000e+00
      478000000   -2,060896158e-02    2,665383182e-02   -5,987813473e-01    3,976975381e-01    0,000000000e+00    0,000000000e+00    0,000000000e+00    0,000000000e+00
      492000000    2,866211906e-02    1,459071413e-02   -2,798454463e-01    6,439282298e-01    0,000000000e+00    0,000000000e+00    0,000000000e+00    0,000000000e+00
      506000000    5,887299404e-02   -3,768677637e-02    1,049380153e-01    6,800904870e-01    0,000000000e+00    0,000000000e+00    0,000000000e+00    0,000000000e+00
      520000000    4,428055510e-02   -1,028760970e-01    4,406366944e-01    5,191470981e-01    0,000000000e+00    0,000000000e+00    0,000000000e+00    0,000000000e+00
      534000000   -1,245167293e-02   -1,441134363e-01    6,494373679e-01    2,051140964e-01    0,000000000e+00    0,000000000e+00    0,000000000e+00    0,000000000e+00
      548000000   -8,182385564e-02   -1,400700361e-01    6,599351168e-01   -1,761717945e-01    0,000000000e+00    0,000000000e+00    0,000000000e+00    0,000000000e+00
      562000000   -1,315058023e-01   -9,830701351e-02    4,507584274e-01   -5,094712973e-01    0,000000000e+00    0,000000000e+00    0,000000000e+00    0,000000000e+00
      576000000   -1,492676586e-01   -3,828015178e-02    8,161385357e-02   -6,604452133e-01    0,000000000e+00    0,000000000e+00    0,000000000e+00    0,000000000e+00
      590000000   -1,297198981e-01    2,997537702e-02   -2,948104143e-01   -5,607407689e-01    0,000000000e+00    0,000000000e+00    0,000000000e+00    0,000000000e+00
      604000000   -3,692360222e-02    6,807105988e-02   -4,867812395e-01   -2,703690231e-01    0,000000000e+00    0,000000000e+00    0,000000000e+00    0,000000000e+00
      618000000    3,383389860e-02   -3,181499243e-02   -4,939788878e-01   -5,268083140e-02    0,000000000e+00    0,000000000e+00    0,000000000e+00    0,000000000e+00
      632000000   -5,366222560e-02   -9,169721603e-02   -5,270711780e-01    1,775939167e-01    0,000000000e+00    0,000000000e+00    0,000000000e+00    0,000000000e+00
      646000000   -9,932984412e-02   -3,372963145e-02   -3,792636096e-01    4,781668484e-01    0,000000000e+00    0,000000000e+00    0,000000000e+00    0,000000000e+00
      660000000   -6,813109666e-02    9,556530043e-03   -5,032028630e-02    6,249982715e-01    0,000000000e+00    0,000000000e+00    0,000000000e+00    0,000000000e+00
      674000000   -2,959163859e-02    5,049181636e-03    2,989277244e-01    5,532836318e-01    0,000000000e+00    0,000000000e+00    0,000000000e+00    0,000000000e+00
      688000000   -1,540358178e-02   -1,760330610e-02    5,474241376e-01    3,028738797e-01    0,000000000e+00    0,000000000e+00    0,000000000e+00    0,000000000e+00
      702000000   -1,373354346e-02   -3,509138525e-02    6,197770834e-01   -4,235257953e-02    0,000000000e+00    0,000000000e+00    0,000000000e+00    0,000000000e+00
      716000000   -9,694020264e-03   -4,900100827e-02    4,911758602e-01   -3,682973683e-01    0,000000000e+00    0,000000000e+00    0,000000000e+00    0,000000000e+00
      730000000   -7,208088413e-03   -7,378492504e-02    2,105180174e-01   -5,681224465e-01    0,000000000e+00    0,000000000e+00    0,000000000e+00    0,000000000e+00
      744000000   -2,602316625e-02   -1,109247282e-01   -1,235648692e-01   -5,883115530e-01    0,000000000e+00    0,000000000e+00    0,000000000e+00    0,000000000e+00
      758000000   -7,543615997e-02   -1,326131374e-01   -4,192295074e-01   -4,319516420e-01    0,000000000e+00    0,000000000e+00    0,000000000e+00    0,000000000e+00
      772000000   -1,356025934e-01   -1,160154790e-01   -5,934097767e-01   -1,397149712e-01    0,000000000e+00    0,000000000e+00    0,000000000e+00    0,000000000e+00
      786000000   -1,713239253e-01   -5,927699804e-02   -5,813243985e-01    2,093616873e-01    0,000000000e+00    0,000000000e+00    0,000000000e+00    0,000000000e+00
      800000000   -1,591107249e-01    6,103697233e-03   -3,720112443e-01    4,957007468e-01    0,000000000e+00    0,000000000e+00    0,000000000e+00    0,000000000e+00
      814000000   -1,139962226e-01    4,279728979e-02   -4,459759220e-02    6,149501801e-01    0,000000000e+00    0,000000000e+00    0,000000000e+00    0,000000000e+00
      828000000   -6,918133050e-02    4,348742962e-02    2,861945033e-01    5,405052304e-01    0,000000000e+00    0,000000000e+00    0,000000000e+00    0,000000000e+00
      842000000   -3,901551664e-02    2,964406088e-02    5,210580826e-01    3,061391711e-01    0,000000000e+00    0,000000000e+00    0,000000000e+00    0,000000000e+00
      856000000   -1,780253276e-02    1,219686028e-02    5,943053961e-01   -1,372178365e-02    0,000000000e+00    0,000000000e+00    0,000000000e+00    0,000000000e+00
      870000000    2,432248788e-03   -1,067612506e-02    4,864208698e-01   -3,169403672e-01    0,000000000e+00    0,000000000e+00    0,000000000e+00    0,000000000e+00
      884000000    1,325860247e-02   -5,196478590e-02    2,420174479e-01   -5,131900907e-01    0,000000000e+00    0,000000000e+00    0,000000000e+00    0,000000000e+00
      898000000   -4,283770919e-03   -1,021322012e-01   -5,890885741e-02   -5,541692376e-01    0,000000000e+00    0,000000000e+00    0,000000000e+00    0,000000000e+00
      912000000   -6,294371933e-02   -1,323942989e-01   -3,925773203e-01   -4,260182679e-01    0,000000000e+00    0,000000000e+00    0,000000000e+00    0,000000000e+00
      926000000   -1,259253621e-01   -1,210350543e-01   -5,650733113e-01   -1,481317580e-01    0,000000000e+00    0,000000000e+00    0,000000000e+00    0,000000000e+00
      940000000   -1,613304764e-01   -6,404887885e-02   -5,694788098e-01    1,917341948e-01    0,000000000e+00    0,000000000e+00    0,000000000e+00    0,000000000e+00
      954000000   -1,492906362e-01   -1,531557995e-03   -3,753660917e-01    4,838167429e-01    0,000000000e+00    0,000000000e+00    0,000000000e+00    0,000000000e+00
      968000000   -9,833209962e-02    2,176083997e-02   -5,181424320e-02    6,141521931e-01    0,000000000e+00    0,000000000e+00    0,000000000e+00    0,000000000e+00
      982000000   -5,283818021e-02    4,620714579e-03    2,809014320e-01    5,509721637e-01    0,000000000e+00    0,000000000e+00    0,000000000e+00    0,000000000e+00
      996000000   -4,299099743e-02   -2,986360714e-02    5,242272615e-01    3,278038502e-01    0,000000000e+00    0,000000000e+00    0,000000000e+00    0,000000000e+00
     1010000000   -6,009224057e-02   -6,769123673e-02    6,078685522e-01    1,661140099e-02    0,000000000e+00    0,000000000e+00    0,000000000e+00    0,000000000e+00
     1024000000   -1,025323272e-01   -7,956892997e-02    5,174397230e-01   -2,812301517e-01    0,000000000e+00    0,000000000e+00    0,000000000e+00    0,000000000e+00
     1038000000   -1,428392529e-01   -5,964640900e-02    2,950790226e-01   -4,723878801e-01    0,000000000e+00    0,000000000e+00    0,000000000e+00    0,000000000e+00
     1052000000   -1,532681435e-01   -1,279081189e-04    3,193632886e-02   -5,254181623e-01    0,000000000e+00    0,000000000e+00    0,000000000e+00    0,000000000e+00
     1066000000   -1,025296971e-01    4,143967107e-02   -2,166312486e-01   -4,638184011e-01    0,000000000e+00    0,000000000e+00    0,000000000e+00    0,000000000e+00
     1080000000   -5,292401463e-02    2,952811494e-02   -4,200155735e-01   -2,979281545e-01    0,000000000e+00    0,000000000e+00    0,000000000e+00    0,000000000e+00
     1094000000   -3,228696063e-02   -9,184143506e-03   -5,218382478e-01   -2,235312760e-02    0,000000000e+00    0,000000000e+00    0,000000000e+00    0,000000000e+00
     1108000000   -3,031755984e-02   -3,364424035e-02   -4,438499808e-01    2,831998169e-01    0,000000000e+00    0,000000000e+00    0,000000000e+00    0,000000000e+00
     1122000000   -3,355588391e-02   -5,836185068e-02   -1,852614880e-01    4,960425794e-01    0,000000000e+00    0,000000000e+00    0,000000000e+00    0,000000000e+00
     1136000000   -4,239213094e-02   -9,143828601e-02    1,509344429e-01    5,227926970e-01    0,000000000e+00    0,000000000e+00    0,000000000e+00    0,000000000e+00
     1150000000   -8,383325487e-02   -1,228177845e-01    4,523527920e-01    3,448002636e-01    0,000000000e+00    0,000000000e+00    0,000000000e+00    0,000000000e+00
     1164000000   -1,432675570e-01   -1,237981766e-01    6,121845841e-01    1,282869559e-02    0,000000000e+00    0,000000000e+00    0,000000000e+00    0,000000000e+00
     1178000000   -1,743082106e-01   -8,351197094e-02    5,392469764e-01   -3,714420497e-01    0,000000000e+00    0,000000000e+00    0,000000000e+00    0,000000000e+00
     1192000000   -1,797188371e-01   -5,816210806e-02    2,412626445e-01   -6,370859146e-01    0,000000000e+00    0,000000000e+00    0,000000000e+00    0,000000000e+00
     1206000000   -1,951225996e-01   -5,155582353e-02   -1,411502957e-01   -6,589012742e-01    0,000000000e+00    0,000000000e+00    0,000000000e+00    0,000000000e+00
     1220000000   -2,563911974e-01   -2,026325092e-02   -4,205079973e-01   -4,826394916e-01    0,000000000e+00    0,000000000e+00    0,000000000e+00    0,000000000e+00
     1234000000   -2,408935130e-01    1,178697422e-01   -5,554797053e-01   -2,465299815e-01    0,000000000e+00    0,000000000e+00    0,000000000e+00    0,000000000e+00
     1248000000   -1,139326170e-01    1,704427600e-01   -6,010267138e-01    1,796944998e-02    0,000000000e+00    0,000000000e+00    0,000000000e+00    0,000000000e+00
     1262000000    4,420803452e-04    1,338377595e-01   -5,025324821e-01    2,985631227e-01    0,000000000e+00    0,000000000e+00    0,000000000e+00    0,000000000e+00
     1276000000    6,205762923e-02    4,285264388e-02   -2,735256851e-01    4,916537404e-01    0,000000000e+00    0,000000000e+00    0,000000000e+00    0,000000000e+00
     1290000000    7,017453760e-02   -6,671157479e-02    1,010554098e-02    5,510541797e-01    0,000000000e+00    0,000000000e+00    0,000000000e+00    0,000000000e+00
     1304000000    1,673107408e-02   -1,788704544e-01    2,948303521e-01    4,718815684e-01    0,000000000e+00    0,000000000e+00    0,000000000e+00    0,000000000e+00
     1318000000   -9,062082320e-02   -2,503215373e-01    5,395303369e-01    2,748062909e-01    0,000000000e+00    0,000000000e+00    0,000000000e+00    0,000000000e+00
     1332000000   -2,461895198e-01   -2,413577735e-01    6,506885886e-01   -4,503224418e-02    0,000000000e+00    0,000000000e+00    0,000000000e+00    0,000000000e+00
     1346000000   -3,601112068e-01   -1,436453313e-01    5,613304973e-01   -4,127366245e-01    0,000000000e+00    0,000000000e+00    0,000000000e+00    0,000000000e+00
     1360000000   -3,898231089e-01    4,584929906e-03    2,626749277e-01   -6,303085089e-01    0,000000000e+00    0,000000000e+00    0,000000000e+00    0,000000000e+00
     1374000000   -3,274686337e-01    1,196103692e-01   -1,072113216e-01   -6,326092482e-01    0,000000000e+00    0,000000000e+00    0,000000000e+00    0,000000000e+00
     1388000000   -2,378525585e-01    1,735969484e-01   -3,752184510e-01   -4,168163836e-01    0,000000000e+00    0,000000000e+00    0,000000000e+00    0,000000000e+00
     1402000000   -1,519223005e-01    1,734007895e-01   -4,711789787e-01   -1,073411107e-01    0,000000000e+00    0,000000000e+00    0,000000000e+00    0,000000000e+00
     1416000000   -8,796172589e-02    1,419181973e-01   -3,900147676e-01    1,931737661e-01    0,000000000e+00    0,000000000e+00    0,000000000e+00    0,000000000e+00
     1430000000   -3,274253011e-02    8,716376126e-02   -1,981315911e-01    4,236282706e-01    0,000000000e+00    0,000000000e+00    0,000000000e+00    0,000000000e+00
     1444000000   -1,813365892e-02    1,082748733e-02    1,102007553e-01    5,307580233e-01    0,000000000e+00    0,000000000e+00    0,000000000e+00    0,000000000e+00
     1458000000   -3,307921812e-02   -8,422856778e-02    4,422509372e-01    4,857545495e-01    0,000000000e+00    0,000000000e+00    0,000000000e+00    0,000000000e+00
     1472000000   -1,201578975e-01   -1,482592523e-01    7,192925811e-01    2,986119986e-01    0,000000000e+00    0,000000000e+00    0,000000000e+00    0,000000000e+00
     1486000000   -2,367105931e-01   -1,463652104e-01    9,024792910e-01   -3,013098240e-02    0,000000000e+00    0,000000000e+00    0,000000000e+00    0,000000000e+00
     1500000000   -3,019848466e-01   -6,184131652e-02    8,431934118e-01   -4,281096160e-01    0,000000000e+00    0,000000000e+00    0,000000000e+00    0,000000000e+00
