! NanoVNA-App
! Date: 2025-09-25 14:59:07
! Start: 100MHz Stop: 1,5GHz Points: 101
! S-Parameter data: F S11 S21 S12 S22
# Hz S RI R 50
!     Frequency           S11_Real           S11_Imag           S21_Real           S21_Imag           S12_Real           S12_Imag           S22_Real           S22_Imag
      100000000    3,557768092e-02    2,734434791e-02    4,407038987e-01   -6,694739461e-01    0,000000000e+00    0,000000000e+00    0,000000000e+00    0,000000000e+00
      114000000    6,069920957e-02    2,189109800e-03    1,279152744e-02   -7,954547405e-01    0,000000000e+00    0,000000000e+00    0,000000000e+00    0,000000000e+00
      128000000    6,835337728e-02   -4,223373532e-02   -4,081524014e-01   -6,780836582e-01    0,000000000e+00    0,000000000e+00    0,000000000e+00    0,000000000e+00
      142000000    4,350902513e-02   -8,879277110e-02   -7,054960728e-01   -3,610686064e-01    0,000000000e+00    0,000000000e+00    0,000000000e+00    0,000000000e+00
      156000000   -9,429665282e-03   -1,100317463e-01   -7,929359674e-01    6,790018082e-02    0,000000000e+00    0,000000000e+00    0,000000000e+00    0,000000000e+00
      170000000   -6,270790845e-02   -9,183236957e-02   -6,369410753e-01    4,863142371e-01    0,000000000e+00    0,000000000e+00    0,000000000e+00    0,000000000e+00
      184000000   -8,856505156e-02   -4,769222811e-02   -2,731865346e-01    7,562243342e-01    0,000000000e+00    0,000000000e+00    0,000000000e+00    0,000000000e+00
      198000000   -8,273914456e-02   -6,400655955e-03    1,794266850e-01    7,819291353e-01    0,000000000e+00    0,000000000e+00    0,000000000e+00    0,000000000e+00
      212000000   -6,270761788e-02    1,798656769e-02    5,704680681e-01    5,583540797e-01    0,000000000e+00    0,000000000e+00    0,000000000e+00    0,000000000e+00
      226000000   -4,150445387e-02    3,185760602e-02    7,767805457e-01    1,618846804e-01    0,000000000e+00    0,000000000e+00    0,000000000e+00    0,000000000e+00
      240000000   -1,491395384e-02    4,129982367e-02    7,360558510e-01   -2,787751555e-01    0,000000000e+00    0,000000000e+00    0,000000000e+00    0,000000000e+00
      254000000    2,139333077e-02    3,631249815e-02    4,678942561e-01   -6,222303510e-01    0,000000000e+00    0,000000000e+00    0,000000000e+00    0,000000000e+00
      268000000    5,335460603e-02    4,746968858e-03    6,702844054e-02   -7,675063610e-01    0,000000000e+00    0,000000000e+00    0,000000000e+00    0,000000000e+00
      282000000    5,749367923e-02   -4,488755390e-02   -3,453204334e-01   -6,825119853e-01    0,000000000e+00    0,000000000e+00    0,000000000e+00    0,000000000e+00
      296000000    2,605669014e-02   -8,485136926e-02   -6,551792026e-01   -3,980014026e-01    0,000000000e+00    0,000000000e+00    0,000000000e+00    0,000000000e+00
      310000000   -1,901302114e-02   -8,948263526e-02   -7,752674222e-01    1,046423800e-02    0,000000000e+00    0,000000000e+00    0,000000000e+00    0,000000000e+00
      324000000   -4,647513479e-02   -6,368600577e-02   -6,477262378e-01    4,292917550e-01    0,000000000e+00    0,000000000e+00    0,000000000e+00    0,000000000e+00
      338000000   -4,098640382e-02   -3,773780540e-02   -3,085417151e-01    7,095522881e-01    0,000000000e+00    0,000000000e+00    0,000000000e+00    0,000000000e+00
      352000000   -2,346260287e-02   -3,747106716e-02    1,183152571e-01    7,594558001e-01    0,000000000e+00    0,000000000e+00    0,000000000e+00    0,000000000e+00
      366000000   -2,296805941e-02   -5,646306276e-02    5,035228133e-01    5,714797378e-01    0,000000000e+00    0,000000000e+00    0,000000000e+00    0,000000000e+00
      380000000   -4,478834569e-02   -6,516084075e-02    7,260092497e-01    2,119599879e-01    0,000000000e+00    0,000000000e+00    0,000000000e+00    0,000000000e+00
      394000000   -6,620856375e-02   -5,093058944e-02    7,235323787e-01   -2,136040628e-01    0,000000000e+00    0,000000000e+00    0,000000000e+00    0,000000000e+00
      408000000   -6,732454896e-02   -2,645276859e-02    4,894807935e-01   -5,682700872e-01    0,000000000e+00    0,000000000e+00    0,000000000e+00    0,000000000e+00
      422000000   -5,326318741e-02   -1,541185658e-02    1,048725992e-01   -7,397911549e-01    0,000000000e+00    0,000000000e+00    0,000000000e+00    0,000000000e+00
      436000000   -4,644769803e-02   -1,840399764e-02   -3,054746389e-01   -6,769319177e-01    0,000000000e+00    0,000000000e+00    0,000000000e+00    0,000000000e+00
      450000000   -5,211017653e-02   -1,480616443e-02   -6,192128062e-01   -3,994135857e-01    0,000000000e+00    0,000000000e+00    0,000000000e+00    0,000000000e+00
      464000000   -5,002340302e-02    5,753436591e-03   -7,296897769e-01    3,213727614e-03    0,000000000e+00    0,000000000e+00    0,000000000e+00    0,000000000e+00
      478000000   -2,056203596e-02    2,660302818e-02   -5,985435843e-01    3,974369466e-01    0,000000000e+00    0,000000000e+00    0,000000000e+00    0,000000000e+00
      492000000    2,849732898e-02    1,455784589e-02   -2,795072198e-01    6,433921456e-01    0,000000000e+00    0,000000000e+00    0,000000000e+00    0,000000000e+00
      506000000    5,896018073e-02   -3,739347681e-02    1,046518460e-01    6,803330779e-01    0,000000000e+00    0,000000000e+00    0,000000000e+00    0,000000000e+00
      520000000    4,364543408e-02   -1,026655287e-01    4,419553876e-01    5,142174959e-01    0,000000000e+00    0,000000000e+00    0,000000000e+00    0,000000000e+00
      534000000   -1,251779683e-02   -1,442770660e-01    6,497787237e-01    2,054599375e-01    0,000000000e+00    0,000000000e+00    0,000000000e+00    0,000000000e+00
      548000000   -8,168429136e-02   -1,400443614e-01    6,600821018e-01   -1,762336791e-01    0,000000000e+00    0,000000000e+00    0,000000000e+00    0,000000000e+00
      562000000   -1,316153705e-01   -9,801323712e-02    4,502647519e-01   -5,090925097e-01    0,000000000e+00    0,000000000e+00    0,000000000e+00    0,000000000e+00
      576000000   -1,498478651e-01   -3,867265582e-02    8,219884336e-02   -6,602411866e-01    0,000000000e+00    0,000000000e+00    0,000000000e+00    0,000000000e+00
      590000000   -1,298401207e-01    2,960321866e-02   -2,977735698e-01   -5,642946959e-01    0,000000000e+00    0,000000000e+00    0,000000000e+00    0,000000000e+00
      604000000   -3,774828464e-02    6,807088107e-02   -4,878162742e-01   -2,701281607e-01    0,000000000e+00    0,000000000e+00    0,000000000e+00    0,000000000e+00
      618000000    3,462760523e-02   -3,147453442e-02   -4,937610030e-01   -5,210090801e-02    0,000000000e+00    0,000000000e+00    0,000000000e+00    0,000000000e+00
      632000000   -5,371101573e-02   -9,259481728e-02   -5,265970826e-01    1,775414497e-01    0,000000000e+00    0,000000000e+00    0,000000000e+00    0,000000000e+00
      646000000   -9,966865927e-02   -3,397113085e-02   -3,788660169e-01    4,771788716e-01    0,000000000e+00    0,000000000e+00    0,000000000e+00    0,000000000e+00
      660000000   -6,846360862e-02    9,284256957e-03   -5,003284663e-02    6,247624159e-01    0,000000000e+00    0,000000000e+00    0,000000000e+00    0,000000000e+00
      674000000   -2,969095856e-02    4,347025882e-03    2,982282937e-01    5,533873439e-01    0,000000000e+00    0,000000000e+00    0,000000000e+00    0,000000000e+00
      688000000   -1,588651910e-02   -1,794226840e-02    5,475152135e-01    3,031844497e-01    0,000000000e+00    0,000000000e+00    0,000000000e+00    0,000000000e+00
      702000000   -1,491804235e-02   -3,478011861e-02    6,216604114e-01   -4,177487269e-02    0,000000000e+00    0,000000000e+00    0,000000000e+00    0,000000000e+00
      716000000   -9,688245133e-03   -4,907701537e-02    4,921234846e-01   -3,680254817e-01    0,000000000e+00    0,000000000e+00    0,000000000e+00    0,000000000e+00
      730000000   -6,853905506e-03   -7,409295440e-02    2,124582827e-01   -5,671778917e-01    0,000000000e+00    0,000000000e+00    0,000000000e+00    0,000000000e+00
      744000000   -2,629737183e-02   -1,110827774e-01   -1,243069172e-01   -5,866690278e-01    0,000000000e+00    0,000000000e+00    0,000000000e+00    0,000000000e+00
      758000000   -7,497993857e-02   -1,321171522e-01   -4,199069440e-01   -4,330017269e-01    0,000000000e+00    0,000000000e+00    0,000000000e+00    0,000000000e+00
      772000000   -1,356180459e-01   -1,161342040e-01   -5,939989090e-01   -1,399189383e-01    0,000000000e+00    0,000000000e+00    0,000000000e+00    0,000000000e+00
      786000000   -1,716807932e-01   -5,785603821e-02   -5,815539360e-01    2,093685418e-01    0,000000000e+00    0,000000000e+00    0,000000000e+00    0,000000000e+00
      800000000   -1,601249725e-01    6,964037195e-03   -3,732852638e-01    4,955221713e-01    0,000000000e+00    0,000000000e+00    0,000000000e+00    0,000000000e+00
      814000000   -1,138827354e-01    4,260145873e-02   -4,512698948e-02    6,136956811e-01    0,000000000e+00    0,000000000e+00    0,000000000e+00    0,000000000e+00
      828000000   -6,915612519e-02    4,477438703e-02    2,858992219e-01    5,412064791e-01    0,000000000e+00    0,000000000e+00    0,000000000e+00    0,000000000e+00
      842000000   -3,943681344e-02    2,948900685e-02    5,211986303e-01    3,057473302e-01    0,000000000e+00    0,000000000e+00    0,000000000e+00    0,000000000e+00
      856000000   -1,795731485e-02    1,292434242e-02    5,940170288e-01   -1,392700803e-02    0,000000000e+00    0,000000000e+00    0,000000000e+00    0,000000000e+00
      870000000    1,919161296e-03   -1,050603762e-02    4,857225716e-01   -3,164180517e-01    0,000000000e+00    0,000000000e+00    0,000000000e+00    0,000000000e+00
      884000000    1,383252628e-02   -5,136061087e-02    2,420243472e-01   -5,116367936e-01    0,000000000e+00    0,000000000e+00    0,000000000e+00    0,000000000e+00
      898000000   -3,531343304e-03   -1,018401980e-01   -5,719828606e-02   -5,535299778e-01    0,000000000e+00    0,000000000e+00    0,000000000e+00    0,000000000e+00
      912000000   -6,201969460e-02   -1,325844377e-01   -3,953048885e-01   -4,199864566e-01    0,000000000e+00    0,000000000e+00    0,000000000e+00    0,000000000e+00
      926000000   -1,265735775e-01   -1,206358150e-01   -5,665641427e-01   -1,503693461e-01    0,000000000e+00    0,000000000e+00    0,000000000e+00    0,000000000e+00
      940000000   -1,631862372e-01   -6,473004818e-02   -5,678300858e-01    1,906417310e-01    0,000000000e+00    0,000000000e+00    0,000000000e+00    0,000000000e+00
      954000000   -1,504869461e-01   -1,024761150e-04   -3,734981716e-01    4,828598797e-01    0,000000000e+00    0,000000000e+00    0,000000000e+00    0,000000000e+00
      968000000   -9,604100138e-02    2,615915798e-02   -5,094749480e-02    6,162490249e-01    0,000000000e+00    0,000000000e+00    0,000000000e+00    0,000000000e+00
      982000000   -5,613369122e-02    7,882722653e-03    2,793022692e-01    5,524166822e-01    0,000000000e+00    0,000000000e+00    0,000000000e+00    0,000000000e+00
      996000000   -4,656717926e-02   -3,172011673e-02    5,252603292e-01    3,283319771e-01    0,000000000e+00    0,000000000e+00    0,000000000e+00    0,000000000e+00
     1010000000   -6,474633515e-02   -6,713464111e-02    6,082345247e-01    1,645689644e-02    0,000000000e+00    0,000000000e+00    0,000000000e+00    0,000000000e+00
     1024000000   -9,883769602e-02   -7,509113848e-02    5,153002739e-01   -2,824667394e-01    0,000000000e+00    0,000000000e+00    0,000000000e+00    0,000000000e+00
     1038000000   -1,413325369e-01   -5,383515731e-02    2,940245867e-01   -4,716258645e-01    0,000000000e+00    0,000000000e+00    0,000000000e+00    0,000000000e+00
     1052000000   -1,542507410e-01    9,171679849e-04    3,401933610e-02   -5,239558220e-01    0,000000000e+00    0,000000000e+00    0,000000000e+00    0,000000000e+00
     1066000000   -1,022186428e-01    4,132650048e-02   -2,141498476e-01   -4,664075077e-01    0,000000000e+00    0,000000000e+00    0,000000000e+00    0,000000000e+00
     1080000000   -5,456284806e-02    2,421662956e-02   -4,168142974e-01   -2,977445722e-01    0,000000000e+00    0,000000000e+00    0,000000000e+00    0,000000000e+00
     1094000000   -3,454227746e-02   -9,956574067e-03   -5,209081173e-01   -2,522033639e-02    0,000000000e+00    0,000000000e+00    0,000000000e+00    0,000000000e+00
     1108000000   -3,545724973e-02   -2,900291979e-02   -4,412002265e-01    2,840268016e-01    0,000000000e+00    0,000000000e+00    0,000000000e+00    0,000000000e+00
     1122000000   -3,438328207e-02   -5,907091871e-02   -1,855896562e-01    4,967474639e-01    0,000000000e+00    0,000000000e+00    0,000000000e+00    0,000000000e+00
     1136000000   -4,527749121e-02   -9,477489442e-02    1,519368887e-01    5,178801417e-01    0,000000000e+00    0,000000000e+00    0,000000000e+00    0,000000000e+00
     1150000000   -8,365740627e-02   -1,199479103e-01    4,527885616e-01    3,479164839e-01    0,000000000e+00    0,000000000e+00    0,000000000e+00    0,000000000e+00
     1164000000   -1,348260939e-01   -1,232484207e-01    6,110804677e-01    1,332035102e-02    0,000000000e+00    0,000000000e+00    0,000000000e+00    0,000000000e+00
     1178000000   -1,790103763e-01   -8,886369318e-02    5,408464670e-01   -3,712252676e-01    0,000000000e+00    0,000000000e+00    0,000000000e+00    0,000000000e+00
     1192000000   -1,790276319e-01   -5,810946226e-02    2,417343706e-01   -6,358776689e-01    0,000000000e+00    0,000000000e+00    0,000000000e+00    0,000000000e+00
     1206000000   -1,951109767e-01   -5,576612428e-02   -1,408372670e-01   -6,598153710e-01    0,000000000e+00    0,000000000e+00    0,000000000e+00    0,000000000e+00
     1220000000   -2,531273067e-01   -1,287361700e-02   -4,232757390e-01   -4,819287062e-01    0,000000000e+00    0,000000000e+00    0,000000000e+00    0,000000000e+00
     1234000000   -2,440773994e-01    1,162688658e-01   -5,589073300e-01   -2,499677390e-01    0,000000000e+00    0,000000000e+00    0,000000000e+00    0,000000000e+00
     1248000000   -1,137771979e-01    1,731728166e-01   -6,055331230e-01    2,109529078e-02    0,000000000e+00    0,000000000e+00    0,000000000e+00    0,000000000e+00
     1262000000   -6,940494291e-03    1,290871054e-01   -5,040827394e-01    2,914613485e-01    0,000000000e+00    0,000000000e+00    0,000000000e+00    0,000000000e+00
     1276000000    6,248131394e-02    4,115931317e-02   -2,738937140e-01    4,887563586e-01    0,000000000e+00    0,000000000e+00    0,000000000e+00    0,000000000e+00
     1290000000    7,302696258e-02   -7,196599245e-02    1,167256199e-02    5,505002141e-01    0,000000000e+00    0,000000000e+00    0,000000000e+00    0,000000000e+00
     1304000000    2,360002697e-02   -1,783077121e-01    2,995505035e-01    4,839744866e-01    0,000000000e+00    0,000000000e+00    0,000000000e+00    0,000000000e+00
     1318000000   -9,220609814e-02   -2,479875237e-01    5,390256643e-01    2,736147344e-01    0,000000000e+00    0,000000000e+00    0,000000000e+00    0,000000000e+00
     1332000000   -2,397357970e-01   -2,481604069e-01    6,593379974e-01   -5,583301932e-02    0,000000000e+00    0,000000000e+00    0,000000000e+00    0,000000000e+00
     1346000000   -3,604622483e-01   -1,406719536e-01    5,531240106e-01   -4,090139568e-01    0,000000000e+00    0,000000000e+00    0,000000000e+00    0,000000000e+00
     1360000000   -3,877642155e-01    6,860692054e-03    2,540253103e-01   -6,390052438e-01    0,000000000e+00    0,000000000e+00    0,000000000e+00    0,000000000e+00
     1374000000   -3,239268363e-01    1,218897998e-01   -1,052218676e-01   -6,192128658e-01    0,000000000e+00    0,000000000e+00    0,000000000e+00    0,000000000e+00
     1388000000   -2,324594706e-01    1,656060219e-01   -3,581248522e-01   -4,194885194e-01    0,000000000e+00    0,000000000e+00    0,000000000e+00    0,000000000e+00
     1402000000   -1,568758488e-01    1,707780808e-01   -4,694297314e-01   -1,089175642e-01    0,000000000e+00    0,000000000e+00    0,000000000e+00    0,000000000e+00
     1416000000   -8,444348723e-02    1,368137300e-01   -3,955240548e-01    1,998803318e-01    0,000000000e+00    0,000000000e+00    0,000000000e+00    0,000000000e+00
     1430000000   -3,468349576e-02    8,425813168e-02   -1,966346651e-01    4,358282685e-01    0,000000000e+00    0,000000000e+00    0,000000000e+00    0,000000000e+00
     1444000000   -8,664597757e-03    9,514244273e-03    1,213905811e-01    5,301493406e-01    0,000000000e+00    0,000000000e+00    0,000000000e+00    0,000000000e+00
     1458000000   -4,196900874e-02   -8,473686874e-02    4,406726360e-01    4,807397723e-01    0,000000000e+00    0,000000000e+00    0,000000000e+00    0,000000000e+00
     1472000000   -1,163131967e-01   -1,416873932e-01    7,441928983e-01    3,163785934e-01    0,000000000e+00    0,000000000e+00    0,000000000e+00    0,000000000e+00
     1486000000   -2,280334830e-01   -1,485833079e-01    8,961784840e-01   -3,476130590e-02    0,000000000e+00    0,000000000e+00    0,000000000e+00    0,000000000e+00
     1500000000   -3,124305308e-01   -7,231110334e-02    8,318192959e-01   -4,381423295e-01    0,000000000e+00    0,000000000e+00    0,000000000e+00    0,000000000e+00
