! NanoVNA-App
! Date: 2025-09-25 14:57:31
! Start: 100MHz Stop: 1,5GHz Points: 101
! S-Parameter data: F S11 S21 S12 S22
# Hz S RI R 50
!     Frequency           S11_Real           S11_Imag           S21_Real           S21_Imag           S12_Real           S12_Imag           S22_Real           S22_Imag
      100000000    3,558396921e-02    2,735075355e-02    4,407458007e-01   -6,694796085e-01    0,000000000e+00    0,000000000e+00    0,000000000e+00    0,000000000e+00
      114000000    6,073474512e-02    2,152742352e-03    1,279286761e-02   -7,953872085e-01    0,000000000e+00    0,000000000e+00    0,000000000e+00    0,000000000e+00
      128000000    6,832846254e-02   -4,226800799e-02   -4,081262350e-01   -6,778914332e-01    0,000000000e+00    0,000000000e+00    0,000000000e+00    0,000000000e+00
      142000000    4,347224534e-02   -8,876676112e-02   -7,054096460e-01   -3,609238267e-01    0,000000000e+00    0,000000000e+00    0,000000000e+00    0,000000000e+00
      156000000   -9,792839177e-03   -1,094056368e-01   -7,923312783e-01    6,737399846e-02    0,000000000e+00    0,000000000e+00    0,000000000e+00    0,000000000e+00
      170000000   -6,266481429e-02   -9,176675975e-02   -6,370633841e-01    4,863360226e-01    0,000000000e+00    0,000000000e+00    0,000000000e+00    0,000000000e+00
      184000000   -8,856163919e-02   -4,771577194e-02   -2,730263770e-01    7,560662627e-01    0,000000000e+00    0,000000000e+00    0,000000000e+00    0,000000000e+00
      198000000   -8,275121450e-02   -6,378354505e-03    1,797067225e-01    7,822415829e-01    0,000000000e+00    0,000000000e+00    0,000000000e+00    0,000000000e+00
      212000000   -6,270366162e-02    1,812154427e-02    5,708525181e-01    5,583016872e-01    0,000000000e+00    0,000000000e+00    0,000000000e+00    0,000000000e+00
      226000000   -4,145336524e-02    3,186597675e-02    7,766597271e-01    1,617609262e-01    0,000000000e+00    0,000000000e+00    0,000000000e+00    0,000000000e+00
      240000000   -1,477366313e-02    4,129499942e-02    7,358855605e-01   -2,785567045e-01    0,000000000e+00    0,000000000e+00    0,000000000e+00    0,000000000e+00
      254000000    2,148230001e-02    3,625068814e-02    4,680776000e-01   -6,217231154e-01    0,000000000e+00    0,000000000e+00    0,000000000e+00    0,000000000e+00
      268000000    5,334644392e-02    4,623258021e-03    6,651246548e-02   -7,673521638e-01    0,000000000e+00    0,000000000e+00    0,000000000e+00    0,000000000e+00
      282000000    5,741870031e-02   -4,496286809e-02   -3,452842236e-01   -6,821663380e-01    0,000000000e+00    0,000000000e+00    0,000000000e+00    0,000000000e+00
      296000000    2,597994544e-02   -8,479254693e-02   -6,548554897e-01   -3,977564871e-01    0,000000000e+00    0,000000000e+00    0,000000000e+00    0,000000000e+00
      310000000   -1,894142665e-02   -8,933380991e-02   -7,740857005e-01    1,163551770e-02    0,000000000e+00    0,000000000e+00    0,000000000e+00    0,000000000e+00
      324000000   -4,695569351e-02   -6,335730106e-02   -6,489172578e-01    4,293436408e-01    0,000000000e+00    0,000000000e+00    0,000000000e+00    0,000000000e+00
      338000000   -4,094729200e-02   -3,756335378e-02   -3,082686663e-01    7,095337510e-01    0,000000000e+00    0,000000000e+00    0,000000000e+00    0,000000000e+00
      352000000   -2,374535240e-02   -3,777596354e-02    1,191695109e-01    7,585929632e-01    0,000000000e+00    0,000000000e+00    0,000000000e+00    0,000000000e+00
      366000000   -2,287619933e-02   -5,594288185e-02    5,027658343e-01    5,715513229e-01    0,000000000e+00    0,000000000e+00    0,000000000e+00    0,000000000e+00
      380000000   -4,452715814e-02   -6,510967016e-02    7,265633941e-01    2,111151367e-01    0,000000000e+00    0,000000000e+00    0,000000000e+00    0,000000000e+00
      394000000   -6,593384594e-02   -5,043633282e-02    7,233699560e-01   -2,128554732e-01    0,000000000e+00    0,000000000e+00    0,000000000e+00    0,000000000e+00
      408000000   -6,723355502e-02   -2,615321055e-02    4,895111322e-01   -5,675601363e-01    0,000000000e+00    0,000000000e+00    0,000000000e+00    0,000000000e+00
      422000000   -5,277791619e-02   -1,528629847e-02    1,065224707e-01   -7,381792068e-01    0,000000000e+00    0,000000000e+00    0,000000000e+00    0,000000000e+00
      436000000   -4,606358334e-02   -1,901514828e-02   -3,056153357e-01   -6,765138507e-01    0,000000000e+00    0,000000000e+00    0,000000000e+00    0,000000000e+00
      450000000   -5,203427747e-02   -1,558271609e-02   -6,189270616e-01   -4,005428851e-01    0,000000000e+00    0,000000000e+00    0,000000000e+00    0,000000000e+00
      464000000   -5,014983565e-02    5,344421603e-03   -7,293701172e-01    2,886899281e-03    0,000000000e+00    0,000000000e+00    0,000000000e+00    0,000000000e+00
      478000000   -2,106616646e-02    2,579917945e-02   -5,991002321e-01    3,962095380e-01    0,000000000e+00    0,000000000e+00    0,000000000e+00    0,000000000e+00
      492000000    2,738691308e-02    1,459278632e-02   -2,808894813e-01    6,440992355e-01    0,000000000e+00    0,000000000e+00    0,000000000e+00    0,000000000e+00
      506000000    5,774339288e-02   -3,655923903e-02    1,038129032e-01    6,808516383e-01    0,000000000e+00    0,000000000e+00    0,000000000e+00    0,000000000e+00
      520000000    4,369236529e-02   -1,021150127e-01    4,447242618e-01    5,186292529e-01    0,000000000e+00    0,000000000e+00    0,000000000e+00    0,000000000e+00
      534000000   -1,150206756e-02   -1,414896399e-01    6,495895982e-01    2,077625394e-01    0,000000000e+00    0,000000000e+00    0,000000000e+00    0,000000000e+00
      548000000   -7,886107266e-02   -1,376586258e-01    6,611303091e-01   -1,734911650e-01    0,000000000e+00    0,000000000e+00    0,000000000e+00    0,000000000e+00
      562000000   -1,259247214e-01   -9,896206111e-02    4,556445777e-01   -5,073331594e-01    0,000000000e+00    0,000000000e+00    0,000000000e+00    0,000000000e+00
      576000000   -1,435954571e-01   -4,585723206e-02    9,033697844e-02   -6,650372744e-01    0,000000000e+00    0,000000000e+00    0,000000000e+00    0,000000000e+00
      590000000   -1,346880347e-01    1,227775216e-02   -2,960479259e-01   -5,814201236e-01    0,000000000e+00    0,000000000e+00    0,000000000e+00    0,000000000e+00
      604000000   -7,379636914e-02    6,762509048e-02   -5,283022523e-01   -2,801692486e-01    0,000000000e+00    0,000000000e+00    0,000000000e+00    0,000000000e+00
      618000000    3,732060641e-02    2,553113922e-02   -5,020013452e-01    1,539767440e-02    0,000000000e+00    0,000000000e+00    0,000000000e+00    0,000000000e+00
      632000000   -1,151404344e-03   -1,036731154e-01   -4,644901156e-01    1,720856726e-01    0,000000000e+00    0,000000000e+00    0,000000000e+00    0,000000000e+00
      646000000   -1,033038646e-01   -6,819931418e-02   -3,801254332e-01    4,390705824e-01    0,000000000e+00    0,000000000e+00    0,000000000e+00    0,000000000e+00
      660000000   -8,782663196e-02    2,549108118e-03   -7,025692612e-02    6,150766611e-01    0,000000000e+00    0,000000000e+00    0,000000000e+00    0,000000000e+00
      674000000   -4,027326778e-02    1,220065821e-02    2,867918611e-01    5,589728355e-01    0,000000000e+00    0,000000000e+00    0,000000000e+00    0,000000000e+00
      688000000   -1,687192731e-02   -9,163653478e-03    5,438792109e-01    3,115796745e-01    0,000000000e+00    0,000000000e+00    0,000000000e+00    0,000000000e+00
      702000000   -1,077161171e-02   -2,938149124e-02    6,233476996e-01   -3,343771398e-02    0,000000000e+00    0,000000000e+00    0,000000000e+00    0,000000000e+00
      716000000   -4,548188299e-03   -4,682885855e-02    4,958330095e-01   -3,652062118e-01    0,000000000e+00    0,000000000e+00    0,000000000e+00    0,000000000e+00
      730000000   -2,849197481e-03   -7,721273601e-02    2,169452310e-01   -5,679596663e-01    0,000000000e+00    0,000000000e+00    0,000000000e+00    0,000000000e+00
      744000000   -2,390172146e-02   -1,150481552e-01   -1,200937480e-01   -5,907331109e-01    0,000000000e+00    0,000000000e+00    0,000000000e+00    0,000000000e+00
      758000000   -7,645037770e-02   -1,367772818e-01   -4,193426669e-01   -4,369440079e-01    0,000000000e+00    0,000000000e+00    0,000000000e+00    0,000000000e+00
      772000000   -1,389235258e-01   -1,162908152e-01   -5,969135761e-01   -1,435253024e-01    0,000000000e+00    0,000000000e+00    0,000000000e+00    0,000000000e+00
      786000000   -1,746612936e-01   -5,713659897e-02   -5,852780938e-01    2,094108164e-01    0,000000000e+00    0,000000000e+00    0,000000000e+00    0,000000000e+00
      800000000   -1,614075601e-01    1,027518045e-02   -3,760993183e-01    4,983152151e-01    0,000000000e+00    0,000000000e+00    0,000000000e+00    0,000000000e+00
      814000000   -1,123507917e-01    4,541420564e-02   -4,535997286e-02    6,173254848e-01    0,000000000e+00    0,000000000e+00    0,000000000e+00    0,000000000e+00
      828000000   -6,464723498e-02    4,380843416e-02    2,855998874e-01    5,427493453e-01    0,000000000e+00    0,000000000e+00    0,000000000e+00    0,000000000e+00
      842000000   -3,566418216e-02    2,659160830e-02    5,231891870e-01    3,065426052e-01    0,000000000e+00    0,000000000e+00    0,000000000e+00    0,000000000e+00
      856000000   -1,835970394e-02    8,493667468e-03    5,971044302e-01   -1,448883768e-02    0,000000000e+00    0,000000000e+00    0,000000000e+00    0,000000000e+00
      870000000   -1,286622719e-03   -1,382157952e-02    4,881492257e-01   -3,187503815e-01    0,000000000e+00    0,000000000e+00    0,000000000e+00    0,000000000e+00
      884000000    9,309235960e-03   -5,080718547e-02    2,424237877e-01   -5,152991414e-01    0,000000000e+00    0,000000000e+00    0,000000000e+00    0,000000000e+00
      898000000   -6,808439735e-03   -9,863939136e-02   -6,142408401e-02   -5,573327541e-01    0,000000000e+00    0,000000000e+00    0,000000000e+00    0,000000000e+00
      912000000   -6,168965623e-02   -1,281407923e-01   -3,886905611e-01   -4,247838855e-01    0,000000000e+00    0,000000000e+00    0,000000000e+00    0,000000000e+00
      926000000   -1,237453818e-01   -1,146334261e-01   -5,673210621e-01   -1,444525719e-01    0,000000000e+00    0,000000000e+00    0,000000000e+00    0,000000000e+00
      940000000   -1,574832201e-01   -6,352686882e-02   -5,678347349e-01    1,933580786e-01    0,000000000e+00    0,000000000e+00    0,000000000e+00    0,000000000e+00
      954000000   -1,468223333e-01   -7,459257264e-03   -3,743738532e-01    4,824654162e-01    0,000000000e+00    0,000000000e+00    0,000000000e+00    0,000000000e+00
      968000000   -1,006151959e-01    1,660789177e-02   -5,347867683e-02    6,148501635e-01    0,000000000e+00    0,000000000e+00    0,000000000e+00    0,000000000e+00
      982000000   -5,831614882e-02    2,067543333e-03    2,812228501e-01    5,509994626e-01    0,000000000e+00    0,000000000e+00    0,000000000e+00    0,000000000e+00
      996000000   -5,012878031e-02   -2,860160731e-02    5,266804099e-01    3,266204000e-01    0,000000000e+00    0,000000000e+00    0,000000000e+00    0,000000000e+00
     1010000000   -6,664922088e-02   -6,104310974e-02    6,101264358e-01    1,349400729e-02    0,000000000e+00    0,000000000e+00    0,000000000e+00    0,000000000e+00
     1024000000   -9,676522017e-02   -7,364545763e-02    5,169770718e-01   -2,837728560e-01    0,000000000e+00    0,000000000e+00    0,000000000e+00    0,000000000e+00
     1038000000   -1,296064854e-01   -5,750355870e-02    2,950915396e-01   -4,742947817e-01    0,000000000e+00    0,000000000e+00    0,000000000e+00    0,000000000e+00
     1052000000   -1,429167390e-01   -9,935278445e-03    2,879307605e-02   -5,305330157e-01    0,000000000e+00    0,000000000e+00    0,000000000e+00    0,000000000e+00
     1066000000   -1,116514429e-01    2,761474065e-02   -2,212075740e-01   -4,677082896e-01    0,000000000e+00    0,000000000e+00    0,000000000e+00    0,000000000e+00
     1080000000   -5,997363105e-02    2,989417873e-02   -4,206848443e-01   -2,897859514e-01    0,000000000e+00    0,000000000e+00    0,000000000e+00    0,000000000e+00
     1094000000   -3,901840746e-02   -2,625735069e-04   -5,144405365e-01   -1,693399437e-02    0,000000000e+00    0,000000000e+00    0,000000000e+00    0,000000000e+00
     1108000000   -2,935831062e-02   -2,499643900e-02   -4,328986704e-01    2,827325165e-01    0,000000000e+00    0,000000000e+00    0,000000000e+00    0,000000000e+00
     1122000000   -2,323589660e-02   -5,537797138e-02   -1,831902862e-01    4,890145659e-01    0,000000000e+00    0,000000000e+00    0,000000000e+00    0,000000000e+00
     1136000000   -4,122078791e-02   -1,004672050e-01    1,495284736e-01    5,130997300e-01    0,000000000e+00    0,000000000e+00    0,000000000e+00    0,000000000e+00
     1150000000   -8,100277930e-02   -1,285514086e-01    4,508603811e-01    3,390488029e-01    0,000000000e+00    0,000000000e+00    0,000000000e+00    0,000000000e+00
     1164000000   -1,392418444e-01   -1,246303245e-01    6,027902961e-01    1,540402416e-02    0,000000000e+00    0,000000000e+00    0,000000000e+00    0,000000000e+00
     1178000000   -1,779535711e-01   -8,621145785e-02    5,344776511e-01   -3,669091463e-01    0,000000000e+00    0,000000000e+00    0,000000000e+00    0,000000000e+00
     1192000000   -1,825999916e-01   -5,847757310e-02    2,457547933e-01   -6,311838031e-01    0,000000000e+00    0,000000000e+00    0,000000000e+00    0,000000000e+00
     1206000000   -1,886174828e-01   -5,167757720e-02   -1,348595917e-01   -6,632919908e-01    0,000000000e+00    0,000000000e+00    0,000000000e+00    0,000000000e+00
     1220000000   -2,513462603e-01   -1,622751914e-02   -4,182755351e-01   -4,885821342e-01    0,000000000e+00    0,000000000e+00    0,000000000e+00    0,000000000e+00
     1234000000   -2,440022528e-01    1,154237986e-01   -5,601419806e-01   -2,477371097e-01    0,000000000e+00    0,000000000e+00    0,000000000e+00    0,000000000e+00
     1248000000   -1,131113172e-01    1,755807847e-01   -6,019219160e-01    1,708946005e-02    0,000000000e+00    0,000000000e+00    0,000000000e+00    0,000000000e+00
     1262000000   -3,295538947e-03    1,357062608e-01   -5,078737736e-01    2,995322049e-01    0,000000000e+00    0,000000000e+00    0,000000000e+00    0,000000000e+00
     1276000000    5,795054883e-02    4,394507781e-02   -2,818482816e-01    4,893401563e-01    0,000000000e+00    0,000000000e+00    0,000000000e+00    0,000000000e+00
     1290000000    7,415153086e-02   -6,840888411e-02    1,346924622e-02    5,438116789e-01    0,000000000e+00    0,000000000e+00    0,000000000e+00    0,000000000e+00
     1304000000    2,084794454e-02   -1,776947677e-01    2,987283468e-01    4,797449410e-01    0,000000000e+00    0,000000000e+00    0,000000000e+00    0,000000000e+00
     1318000000   -9,268241376e-02   -2,513965070e-01    5,277008414e-01    2,841797173e-01    0,000000000e+00    0,000000000e+00    0,000000000e+00    0,000000000e+00
     1332000000   -2,415356338e-01   -2,488785088e-01    6,519410610e-01   -5,857609585e-02    0,000000000e+00    0,000000000e+00    0,000000000e+00    0,000000000e+00
     1346000000   -3,573086858e-01   -1,416402310e-01    5,540387034e-01   -4,029578269e-01    0,000000000e+00    0,000000000e+00    0,000000000e+00    0,000000000e+00
     1360000000   -3,874121308e-01    1,092613861e-02    2,620378435e-01   -6,243489385e-01    0,000000000e+00    0,000000000e+00    0,000000000e+00    0,000000000e+00
     1374000000   -3,295507133e-01    1,238643453e-01   -1,028228998e-01   -6,218327284e-01    0,000000000e+00    0,000000000e+00    0,000000000e+00    0,000000000e+00
     1388000000   -2,373213023e-01    1,684172004e-01   -3,674203753e-01   -4,133147597e-01    0,000000000e+00    0,000000000e+00    0,000000000e+00    0,000000000e+00
     1402000000   -1,536627710e-01    1,706945896e-01   -4,707352221e-01   -1,131371632e-01    0,000000000e+00    0,000000000e+00    0,000000000e+00    0,000000000e+00
     1416000000   -7,877278328e-02    1,395575553e-01   -3,890945017e-01    1,907623559e-01    0,000000000e+00    0,000000000e+00    0,000000000e+00    0,000000000e+00
     1430000000   -2,987322398e-02    8,201166242e-02   -1,885605901e-01    4,140225053e-01    0,000000000e+00    0,000000000e+00    0,000000000e+00    0,000000000e+00
     1444000000   -1,023382787e-02    5,870459601e-03    1,176612452e-01    5,223878026e-01    0,000000000e+00    0,000000000e+00    0,000000000e+00    0,000000000e+00
     1458000000   -3,674858809e-02   -9,238576889e-02    4,348370135e-01    4,835933745e-01    0,000000000e+00    0,000000000e+00    0,000000000e+00    0,000000000e+00
     1472000000   -1,334108263e-01   -1,504272968e-01    7,270149589e-01    3,110669851e-01    0,000000000e+00    0,000000000e+00    0,000000000e+00    0,000000000e+00
     1486000000   -2,344943583e-01   -1,447512805e-01    8,888168335e-01   -4,224365950e-02    0,000000000e+00    0,000000000e+00    0,000000000e+00    0,000000000e+00
     1500000000   -3,053019345e-01   -6,270079315e-02    8,548973799e-01   -4,334830344e-01    0,000000000e+00    0,000000000e+00    0,000000000e+00    0,000000000e+00
