! NanoVNA-App
! Date: 2025-09-25 14:59:29
! Start: 100MHz Stop: 1,5GHz Points: 101
! S-Parameter data: F S11 S21 S12 S22
# Hz S RI R 50
!     Frequency           S11_Real           S11_Imag           S21_Real           S21_Imag           S12_Real           S12_Imag           S22_Real           S22_Imag
      100000000    3,558513522e-02    2,735047601e-02    4,407364130e-01   -6,694992781e-01    0,000000000e+00    0,000000000e+00    0,000000000e+00    0,000000000e+00
      114000000    6,071634963e-02    2,197323134e-03    1,271987520e-02   -7,954209447e-01    0,000000000e+00    0,000000000e+00    0,000000000e+00    0,000000000e+00
      128000000    6,836848706e-02   -4,223621264e-02   -4,083040953e-01   -6,782323718e-01    0,000000000e+00    0,000000000e+00    0,000000000e+00    0,000000000e+00
      142000000    4,345679656e-02   -8,879371732e-02   -7,052423954e-01   -3,607929051e-01    0,000000000e+00    0,000000000e+00    0,000000000e+00    0,000000000e+00
      156000000   -8,915797807e-03   -1,104325801e-01   -7,937311530e-01    6,850334257e-02    0,000000000e+00    0,000000000e+00    0,000000000e+00    0,000000000e+00
      170000000   -6,267023087e-02   -9,174772352e-02   -6,369432807e-01    4,860953987e-01    0,000000000e+00    0,000000000e+00    0,000000000e+00    0,000000000e+00
      184000000   -8,856871724e-02   -4,761933163e-02   -2,730382085e-01    7,559732795e-01    0,000000000e+00    0,000000000e+00    0,000000000e+00    0,000000000e+00
      198000000   -8,273294568e-02   -6,433232222e-03    1,796678007e-01    7,822500467e-01    0,000000000e+00    0,000000000e+00    0,000000000e+00    0,000000000e+00
      212000000   -6,270028651e-02    1,798248291e-02    5,707788467e-01    5,585153103e-01    0,000000000e+00    0,000000000e+00    0,000000000e+00    0,000000000e+00
      226000000   -4,140219465e-02    3,182956949e-02    7,768839002e-01    1,618459523e-01    0,000000000e+00    0,000000000e+00    0,000000000e+00    0,000000000e+00
      240000000   -1,489758398e-02    4,132686183e-02    7,360143661e-01   -2,788967788e-01    0,000000000e+00    0,000000000e+00    0,000000000e+00    0,000000000e+00
      254000000    2,139292471e-02    3,630764410e-02    4,679569006e-01   -6,219090819e-01    0,000000000e+00    0,000000000e+00    0,000000000e+00    0,000000000e+00
      268000000    5,328756943e-02    4,757305142e-03    6,649159640e-02   -7,672773004e-01    0,000000000e+00    0,000000000e+00    0,000000000e+00    0,000000000e+00
      282000000    5,749310181e-02   -4,490544647e-02   -3,457861543e-01   -6,826875806e-01    0,000000000e+00    0,000000000e+00    0,000000000e+00    0,000000000e+00
      296000000    2,611812018e-02   -8,474636078e-02   -6,551772356e-01   -3,977137506e-01    0,000000000e+00    0,000000000e+00    0,000000000e+00    0,000000000e+00
      310000000   -1,899136603e-02   -8,926735818e-02   -7,745957971e-01    1,084330399e-02    0,000000000e+00    0,000000000e+00    0,000000000e+00    0,000000000e+00
      324000000   -4,643964767e-02   -6,365831196e-02   -6,475445628e-01    4,302258193e-01    0,000000000e+00    0,000000000e+00    0,000000000e+00    0,000000000e+00
      338000000   -4,110850394e-02   -3,787859157e-02   -3,129125834e-01    7,108292580e-01    0,000000000e+00    0,000000000e+00    0,000000000e+00    0,000000000e+00
      352000000   -2,355403453e-02   -3,787788749e-02    1,184957325e-01    7,588806152e-01    0,000000000e+00    0,000000000e+00    0,000000000e+00    0,000000000e+00
      366000000   -2,303438634e-02   -5,634236336e-02    5,030638576e-01    5,707511902e-01    0,000000000e+00    0,000000000e+00    0,000000000e+00    0,000000000e+00
      380000000   -4,477529600e-02   -6,519920379e-02    7,259083986e-01    2,114160359e-01    0,000000000e+00    0,000000000e+00    0,000000000e+00    0,000000000e+00
      394000000   -6,627179682e-02   -5,068626627e-02    7,229914069e-01   -2,132145762e-01    0,000000000e+00    0,000000000e+00    0,000000000e+00    0,000000000e+00
      408000000   -6,759052724e-02   -2,673440613e-02    4,899908900e-01   -5,685355663e-01    0,000000000e+00    0,000000000e+00    0,000000000e+00    0,000000000e+00
      422000000   -5,310592428e-02   -1,557531767e-02    1,060475707e-01   -7,391650677e-01    0,000000000e+00    0,000000000e+00    0,000000000e+00    0,000000000e+00
      436000000   -4,624422267e-02   -1,838400774e-02   -3,051184714e-01   -6,757575274e-01    0,000000000e+00    0,000000000e+00    0,000000000e+00    0,000000000e+00
      450000000   -5,210887641e-02   -1,517548319e-02   -6,191588640e-01   -3,998136818e-01    0,000000000e+00    0,000000000e+00    0,000000000e+00    0,000000000e+00
      464000000   -5,047346652e-02    6,058256608e-03   -7,299069166e-01    3,697313601e-03    0,000000000e+00    0,000000000e+00    0,000000000e+00    0,000000000e+00
      478000000   -2,026058175e-02    2,640248463e-02   -5,985305905e-01    3,971636295e-01    0,000000000e+00    0,000000000e+00    0,000000000e+00    0,000000000e+00
      492000000    2,826171741e-02    1,458290219e-02   -2,800926268e-01    6,440063119e-01    0,000000000e+00    0,000000000e+00    0,000000000e+00    0,000000000e+00
      506000000    5,882802606e-02   -3,759940341e-02    1,049024984e-01    6,801162362e-01    0,000000000e+00    0,000000000e+00    0,000000000e+00    0,000000000e+00
      520000000    4,442450032e-02   -1,032489538e-01    4,433971941e-01    5,179073811e-01    0,000000000e+00    0,000000000e+00    0,000000000e+00    0,000000000e+00
      534000000   -1,291560102e-02   -1,445379555e-01    6,493303180e-01    2,054030895e-01    0,000000000e+00    0,000000000e+00    0,000000000e+00    0,000000000e+00
      548000000   -8,190929145e-02   -1,402920187e-01    6,598351002e-01   -1,763617247e-01    0,000000000e+00    0,000000000e+00    0,000000000e+00    0,000000000e+00
      562000000   -1,316917092e-01   -9,770014137e-02    4,509953260e-01   -5,084958673e-01    0,000000000e+00    0,000000000e+00    0,000000000e+00    0,000000000e+00
      576000000   -1,494381130e-01   -3,819666430e-02    8,208017051e-02   -6,599596739e-01    0,000000000e+00    0,000000000e+00    0,000000000e+00    0,000000000e+00
      590000000   -1,297939569e-01    2,977965958e-02   -2,972306311e-01   -5,616387129e-01    0,000000000e+00    0,000000000e+00    0,000000000e+00    0,000000000e+00
      604000000   -3,743813187e-02    6,860443950e-02   -4,871453345e-01   -2,696423233e-01    0,000000000e+00    0,000000000e+00    0,000000000e+00    0,000000000e+00
      618000000    3,451643512e-02   -3,116037510e-02   -4,937931597e-01   -5,156530812e-02    0,000000000e+00    0,000000000e+00    0,000000000e+00    0,000000000e+00
      632000000   -5,311812833e-02   -9,208203107e-02   -5,258422494e-01    1,776379198e-01    0,000000000e+00    0,000000000e+00    0,000000000e+00    0,000000000e+00
      646000000   -9,939279407e-02   -3,413320705e-02   -3,794020116e-01    4,773165286e-01    0,000000000e+00    0,000000000e+00    0,000000000e+00    0,000000000e+00
      660000000   -6,934502721e-02    9,379241616e-03   -5,123723298e-02    6,260425448e-01    0,000000000e+00    0,000000000e+00    0,000000000e+00    0,000000000e+00
      674000000   -3,029153682e-02    3,994026687e-03    2,989863157e-01    5,529811382e-01    0,000000000e+00    0,000000000e+00    0,000000000e+00    0,000000000e+00
      688000000   -1,492900681e-02   -1,823332347e-02    5,468358397e-01    3,030618727e-01    0,000000000e+00    0,000000000e+00    0,000000000e+00    0,000000000e+00
      702000000   -1,521032676e-02   -3,481790051e-02    6,216682196e-01   -4,197224230e-02    0,000000000e+00    0,000000000e+00    0,000000000e+00    0,000000000e+00
      716000000   -9,723991156e-03   -4,905637726e-02    4,915775061e-01   -3,680132926e-01    0,000000000e+00    0,000000000e+00    0,000000000e+00    0,000000000e+00
      730000000   -6,927491166e-03   -7,483808696e-02    2,110904902e-01   -5,675030947e-01    0,000000000e+00    0,000000000e+00    0,000000000e+00    0,000000000e+00
      744000000   -2,508893795e-02   -1,104512736e-01   -1,240547597e-01   -5,877088904e-01    0,000000000e+00    0,000000000e+00    0,000000000e+00    0,000000000e+00
      758000000   -7,484020293e-02   -1,330618858e-01   -4,199863672e-01   -4,321712255e-01    0,000000000e+00    0,000000000e+00    0,000000000e+00    0,000000000e+00
      772000000   -1,348737031e-01   -1,164742932e-01   -5,939776301e-01   -1,399608999e-01    0,000000000e+00    0,000000000e+00    0,000000000e+00    0,000000000e+00
      786000000   -1,710225046e-01   -5,875181407e-02   -5,814216137e-01    2,099228948e-01    0,000000000e+00    0,000000000e+00    0,000000000e+00    0,000000000e+00
      800000000   -1,594848037e-01    6,997391116e-03   -3,732222319e-01    4,953979850e-01    0,000000000e+00    0,000000000e+00    0,000000000e+00    0,000000000e+00
      814000000   -1,144734547e-01    4,186178744e-02   -4,604917020e-02    6,149072051e-01    0,000000000e+00    0,000000000e+00    0,000000000e+00    0,000000000e+00
      828000000   -6,923830509e-02    4,424766824e-02    2,864942253e-01    5,406591892e-01    0,000000000e+00    0,000000000e+00    0,000000000e+00    0,000000000e+00
      842000000   -3,937670588e-02    2,944298834e-02    5,209255815e-01    3,054991364e-01    0,000000000e+00    0,000000000e+00    0,000000000e+00    0,000000000e+00
      856000000   -1,843504980e-02    1,211590506e-02    5,945445895e-01   -1,351849549e-02    0,000000000e+00    0,000000000e+00    0,000000000e+00    0,000000000e+00
      870000000    1,483696280e-03   -1,064547896e-02    4,867355227e-01   -3,163272738e-01    0,000000000e+00    0,000000000e+00    0,000000000e+00    0,000000000e+00
      884000000    1,306963433e-02   -5,186445266e-02    2,428626567e-01   -5,124670267e-01    0,000000000e+00    0,000000000e+00    0,000000000e+00    0,000000000e+00
      898000000   -3,307839623e-03   -1,021926999e-01   -5,865440145e-02   -5,541226864e-01    0,000000000e+00    0,000000000e+00    0,000000000e+00    0,000000000e+00
      912000000   -6,255381554e-02   -1,327215284e-01   -3,907722235e-01   -4,097509086e-01    0,000000000e+00    0,000000000e+00    0,000000000e+00    0,000000000e+00
      926000000   -1,253712773e-01   -1,178623587e-01   -5,629836321e-01   -1,477630138e-01    0,000000000e+00    0,000000000e+00    0,000000000e+00    0,000000000e+00
      940000000   -1,618023217e-01   -6,074638292e-02   -5,686793923e-01    1,930150688e-01    0,000000000e+00    0,000000000e+00    0,000000000e+00    0,000000000e+00
      954000000   -1,488147378e-01    1,184125780e-03   -3,745034933e-01    4,840337634e-01    0,000000000e+00    0,000000000e+00    0,000000000e+00    0,000000000e+00
      968000000   -9,542951733e-02    2,446139790e-02   -5,221438035e-02    6,165919304e-01    0,000000000e+00    0,000000000e+00    0,000000000e+00    0,000000000e+00
      982000000   -5,720564723e-02    3,623211058e-03    2,833359838e-01    5,515921116e-01    0,000000000e+00    0,000000000e+00    0,000000000e+00    0,000000000e+00
      996000000   -4,348105565e-02   -3,501756862e-02    5,248022676e-01    3,260580897e-01    0,000000000e+00    0,000000000e+00    0,000000000e+00    0,000000000e+00
     1010000000   -5,986428261e-02   -6,619954854e-02    6,086699963e-01    1,552274823e-02    0,000000000e+00    0,000000000e+00    0,000000000e+00    0,000000000e+00
     1024000000   -9,744907171e-02   -7,791465521e-02    5,149191022e-01   -2,815705538e-01    0,000000000e+00    0,000000000e+00    0,000000000e+00    0,000000000e+00
     1038000000   -1,422603428e-01   -5,960484222e-02    2,959465086e-01   -4,696266949e-01    0,000000000e+00    0,000000000e+00    0,000000000e+00    0,000000000e+00
     1052000000   -1,497210711e-01   -4,125091247e-03    3,402201831e-02   -5,243424773e-01    0,000000000e+00    0,000000000e+00    0,000000000e+00    0,000000000e+00
     1066000000   -1,026936322e-01    3,903947026e-02   -2,126039863e-01   -4,686760008e-01    0,000000000e+00    0,000000000e+00    0,000000000e+00    0,000000000e+00
     1080000000   -5,572052300e-02    2,499779314e-02   -4,153372943e-01   -2,983734310e-01    0,000000000e+00    0,000000000e+00    0,000000000e+00    0,000000000e+00
     1094000000   -3,402635455e-02   -2,770461608e-03   -5,209028125e-01   -2,368273959e-02    0,000000000e+00    0,000000000e+00    0,000000000e+00    0,000000000e+00
     1108000000   -3,153063729e-02   -3,392282128e-02   -4,408396482e-01    2,844722271e-01    0,000000000e+00    0,000000000e+00    0,000000000e+00    0,000000000e+00
     1122000000   -3,529628366e-02   -5,695009977e-02   -1,853583902e-01    4,954571128e-01    0,000000000e+00    0,000000000e+00    0,000000000e+00    0,000000000e+00
     1136000000   -4,028605670e-02   -9,048245847e-02    1,540700644e-01    5,191497207e-01    0,000000000e+00    0,000000000e+00    0,000000000e+00    0,000000000e+00
     1150000000   -8,145042509e-02   -1,273695081e-01    4,545576870e-01    3,447817862e-01    0,000000000e+00    0,000000000e+00    0,000000000e+00    0,000000000e+00
     1164000000   -1,360930055e-01   -1,240133643e-01    6,148127913e-01    1,350130141e-02    0,000000000e+00    0,000000000e+00    0,000000000e+00    0,000000000e+00
     1178000000   -1,746736765e-01   -8,352166414e-02    5,395624638e-01   -3,703792691e-01    0,000000000e+00    0,000000000e+00    0,000000000e+00    0,000000000e+00
     1192000000   -1,796917915e-01   -5,198870972e-02    2,418560535e-01   -6,408889890e-01    0,000000000e+00    0,000000000e+00    0,000000000e+00    0,000000000e+00
     1206000000   -1,932668686e-01   -5,313102156e-02   -1,392768770e-01   -6,602213383e-01    0,000000000e+00    0,000000000e+00    0,000000000e+00    0,000000000e+00
     1220000000   -2,515639365e-01   -1,116017997e-02   -4,206353426e-01   -4,835911393e-01    0,000000000e+00    0,000000000e+00    0,000000000e+00    0,000000000e+00
     1234000000   -2,467311025e-01    1,151507050e-01   -5,567933321e-01   -2,495983243e-01    0,000000000e+00    0,000000000e+00    0,000000000e+00    0,000000000e+00
     1248000000   -1,178635955e-01    1,738221347e-01   -6,074456573e-01    1,717491075e-02    0,000000000e+00    0,000000000e+00    0,000000000e+00    0,000000000e+00
     1262000000   -3,980226815e-03    1,327329725e-01   -5,081642866e-01    2,988990843e-01    0,000000000e+00    0,000000000e+00    0,000000000e+00    0,000000000e+00
     1276000000    6,466958672e-02    4,239708558e-02   -2,738189697e-01    4,846224487e-01    0,000000000e+00    0,000000000e+00    0,000000000e+00    0,000000000e+00
     1290000000    7,279250026e-02   -6,879027188e-02    1,308009960e-02    5,508651733e-01    0,000000000e+00    0,000000000e+00    0,000000000e+00    0,000000000e+00
     1304000000    1,706260629e-02   -1,764583588e-01    2,937669158e-01    4,728861749e-01    0,000000000e+00    0,000000000e+00    0,000000000e+00    0,000000000e+00
     1318000000   -9,383696318e-02   -2,530825138e-01    5,418106318e-01    2,736709118e-01    0,000000000e+00    0,000000000e+00    0,000000000e+00    0,000000000e+00
     1332000000   -2,428936511e-01   -2,405075878e-01    6,474038959e-01   -4,915846139e-02    0,000000000e+00    0,000000000e+00    0,000000000e+00    0,000000000e+00
     1346000000   -3,614174128e-01   -1,428955644e-01    5,580991507e-01   -4,121478796e-01    0,000000000e+00    0,000000000e+00    0,000000000e+00    0,000000000e+00
     1360000000   -3,835845888e-01    2,364936983e-03    2,519793510e-01   -6,440696716e-01    0,000000000e+00    0,000000000e+00    0,000000000e+00    0,000000000e+00
     1374000000   -3,257228732e-01    1,204896569e-01   -1,043684930e-01   -6,240636110e-01    0,000000000e+00    0,000000000e+00    0,000000000e+00    0,000000000e+00
     1388000000   -2,411153466e-01    1,671541333e-01   -3,865938485e-01   -4,161120653e-01    0,000000000e+00    0,000000000e+00    0,000000000e+00    0,000000000e+00
     1402000000   -1,534115076e-01    1,687077731e-01   -4,766794741e-01   -1,146816462e-01    0,000000000e+00    0,000000000e+00    0,000000000e+00    0,000000000e+00
     1416000000   -8,312560618e-02    1,408231705e-01   -3,886348307e-01    2,099193633e-01    0,000000000e+00    0,000000000e+00    0,000000000e+00    0,000000000e+00
     1430000000   -3,751456738e-02    8,905875683e-02   -1,753932089e-01    4,274037182e-01    0,000000000e+00    0,000000000e+00    0,000000000e+00    0,000000000e+00
     1444000000   -8,960117586e-03    2,643846907e-03    1,249155179e-01    5,305123329e-01    0,000000000e+00    0,000000000e+00    0,000000000e+00    0,000000000e+00
     1458000000   -4,500155896e-02   -8,300767839e-02    4,330856204e-01    5,006153584e-01    0,000000000e+00    0,000000000e+00    0,000000000e+00    0,000000000e+00
     1472000000   -1,230447069e-01   -1,407908797e-01    7,387305498e-01    3,138950467e-01    0,000000000e+00    0,000000000e+00    0,000000000e+00    0,000000000e+00
     1486000000   -2,348628789e-01   -1,360371113e-01    8,963189721e-01   -3,559505567e-02    0,000000000e+00    0,000000000e+00    0,000000000e+00    0,000000000e+00
     1500000000   -3,087962866e-01   -6,351470947e-02    8,331826925e-01   -4,176027477e-01    0,000000000e+00    0,000000000e+00    0,000000000e+00    0,000000000e+00
