! NanoVNA-App
! Date: 2025-09-25 15:00:50
! Start: 100MHz Stop: 1,5GHz Points: 101
! S-Parameter data: F S11 S21 S12 S22
# Hz S RI R 50
!     Frequency           S11_Real           S11_Imag           S21_Real           S21_Imag           S12_Real           S12_Imag           S22_Real           S22_Imag
      100000000    3,558100387e-02    2,736504935e-02    4,407362640e-01   -6,695908904e-01    0,000000000e+00    0,000000000e+00    0,000000000e+00    0,000000000e+00
      114000000    6,073179096e-02    2,152558416e-03    1,277688704e-02   -7,954801917e-01    0,000000000e+00    0,000000000e+00    0,000000000e+00    0,000000000e+00
      128000000    6,839524955e-02   -4,220362753e-02   -4,083623886e-01   -6,783159971e-01    0,000000000e+00    0,000000000e+00    0,000000000e+00    0,000000000e+00
      142000000    4,346572608e-02   -8,874211460e-02   -7,052193284e-01   -3,609219790e-01    0,000000000e+00    0,000000000e+00    0,000000000e+00    0,000000000e+00
      156000000   -8,918526582e-03   -1,104929596e-01   -7,937403917e-01    6,857062876e-02    0,000000000e+00    0,000000000e+00    0,000000000e+00    0,000000000e+00
      170000000   -6,267840415e-02   -9,179007262e-02   -6,369382143e-01    4,866148233e-01    0,000000000e+00    0,000000000e+00    0,000000000e+00    0,000000000e+00
      184000000   -8,856479824e-02   -4,765344039e-02   -2,734613717e-01    7,565313578e-01    0,000000000e+00    0,000000000e+00    0,000000000e+00    0,000000000e+00
      198000000   -8,274761587e-02   -6,394336466e-03    1,797657460e-01    7,820512652e-01    0,000000000e+00    0,000000000e+00    0,000000000e+00    0,000000000e+00
      212000000   -6,273221970e-02    1,800322533e-02    5,706219077e-01    5,584947467e-01    0,000000000e+00    0,000000000e+00    0,000000000e+00    0,000000000e+00
      226000000   -4,153433070e-02    3,184041753e-02    7,767632604e-01    1,619317532e-01    0,000000000e+00    0,000000000e+00    0,000000000e+00    0,000000000e+00
      240000000   -1,486327220e-02    4,127316922e-02    7,361536622e-01   -2,787627280e-01    0,000000000e+00    0,000000000e+00    0,000000000e+00    0,000000000e+00
      254000000    2,141315676e-02    3,635382280e-02    4,676112533e-01   -6,221836209e-01    0,000000000e+00    0,000000000e+00    0,000000000e+00    0,000000000e+00
      268000000    5,333929509e-02    4,788910970e-03    6,643902510e-02   -7,671339512e-01    0,000000000e+00    0,000000000e+00    0,000000000e+00    0,000000000e+00
      282000000    5,742747337e-02   -4,488355666e-02   -3,456613123e-01   -6,824976802e-01    0,000000000e+00    0,000000000e+00    0,000000000e+00    0,000000000e+00
      296000000    2,618817240e-02   -8,476295322e-02   -6,549425721e-01   -3,977808356e-01    0,000000000e+00    0,000000000e+00    0,000000000e+00    0,000000000e+00
      310000000   -1,913816482e-02   -8,934517205e-02   -7,745381594e-01    1,140872855e-02    0,000000000e+00    0,000000000e+00    0,000000000e+00    0,000000000e+00
      324000000   -4,655688629e-02   -6,362531334e-02   -6,474968791e-01    4,301725030e-01    0,000000000e+00    0,000000000e+00    0,000000000e+00    0,000000000e+00
      338000000   -4,106793553e-02   -3,787942603e-02   -3,114987314e-01    7,089009285e-01    0,000000000e+00    0,000000000e+00    0,000000000e+00    0,000000000e+00
      352000000   -2,340005897e-02   -3,769019246e-02    1,198094785e-01    7,591540813e-01    0,000000000e+00    0,000000000e+00    0,000000000e+00    0,000000000e+00
      366000000   -2,306658402e-02   -5,597103015e-02    5,026777983e-01    5,725312829e-01    0,000000000e+00    0,000000000e+00    0,000000000e+00    0,000000000e+00
      380000000   -4,458801821e-02   -6,521949917e-02    7,269402742e-01    2,114885002e-01    0,000000000e+00    0,000000000e+00    0,000000000e+00    0,000000000e+00
      394000000   -6,609615684e-02   -5,065233633e-02    7,232329845e-01   -2,136308700e-01    0,000000000e+00    0,000000000e+00    0,000000000e+00    0,000000000e+00
      408000000   -6,748189032e-02   -2,645113692e-02    4,901159704e-01   -5,683131218e-01    0,000000000e+00    0,000000000e+00    0,000000000e+00    0,000000000e+00
      422000000   -5,325601250e-02   -1,511605643e-02    1,051740050e-01   -7,386339903e-01    0,000000000e+00    0,000000000e+00    0,000000000e+00    0,000000000e+00
      436000000   -4,639162496e-02   -1,905039139e-02   -3,064757586e-01   -6,759241819e-01    0,000000000e+00    0,000000000e+00    0,000000000e+00    0,000000000e+00
      450000000   -5,200894549e-02   -1,523215603e-02   -6,187100410e-01   -3,998913765e-01    0,000000000e+00    0,000000000e+00    0,000000000e+00    0,000000000e+00
      464000000   -5,051422119e-02    5,775286350e-03   -7,300920486e-01    3,349778941e-03    0,000000000e+00    0,000000000e+00    0,000000000e+00    0,000000000e+00
      478000000   -2,061118372e-02    2,659048140e-02   -5,986576080e-01    3,977515697e-01    0,000000000e+00    0,000000000e+00    0,000000000e+00    0,000000000e+00
      492000000    2,795931511e-02    1,444573514e-02   -2,798539400e-01    6,442246437e-01    0,000000000e+00    0,000000000e+00    0,000000000e+00    0,000000000e+00
      506000000    5,883306637e-02   -3,716659918e-02    1,049323156e-01    6,806668639e-01    0,000000000e+00    0,000000000e+00    0,000000000e+00    0,000000000e+00
      520000000    4,427903891e-02   -1,028770208e-01    4,464033246e-01    5,181885958e-01    0,000000000e+00    0,000000000e+00    0,000000000e+00    0,000000000e+00
      534000000   -1,295903604e-02   -1,428598315e-01    6,492229104e-01    2,066068649e-01    0,000000000e+00    0,000000000e+00    0,000000000e+00    0,000000000e+00
      548000000   -8,101443201e-02   -1,395924091e-01    6,604759097e-01   -1,758279949e-01    0,000000000e+00    0,000000000e+00    0,000000000e+00    0,000000000e+00
      562000000   -1,294963658e-01   -9,800553322e-02    4,522327781e-01   -5,081922412e-01    0,000000000e+00    0,000000000e+00    0,000000000e+00    0,000000000e+00
      576000000   -1,473172456e-01   -4,044735432e-02    8,492594957e-02   -6,610509157e-01    0,000000000e+00    0,000000000e+00    0,000000000e+00    0,000000000e+00
      590000000   -1,316151768e-01    2,359441482e-02   -2,966727912e-01   -5,716816187e-01    0,000000000e+00    0,000000000e+00    0,000000000e+00    0,000000000e+00
      604000000   -5,021452159e-02    6,977333128e-02   -5,019311905e-01   -2,717067897e-01    0,000000000e+00    0,000000000e+00    0,000000000e+00    0,000000000e+00
      618000000    3,910158575e-02   -1,245214790e-02   -4,921941161e-01   -2,903168090e-02    0,000000000e+00    0,000000000e+00    0,000000000e+00    0,000000000e+00
      632000000   -3,801635653e-02   -9,869215637e-02   -5,080007911e-01    1,730090380e-01    0,000000000e+00    0,000000000e+00    0,000000000e+00    0,000000000e+00
      646000000   -1,013258696e-01   -4,343212768e-02   -3,802960813e-01    4,665297568e-01    0,000000000e+00    0,000000000e+00    0,000000000e+00    0,000000000e+00
      660000000   -7,479017228e-02    8,398261853e-03   -5,683612078e-02    6,234812737e-01    0,000000000e+00    0,000000000e+00    0,000000000e+00    0,000000000e+00
      674000000   -3,364962712e-02    7,912174799e-03    2,941699922e-01    5,552344322e-01    0,000000000e+00    0,000000000e+00    0,000000000e+00    0,000000000e+00
      688000000   -1,526095532e-02   -1,488507632e-02    5,458135009e-01    3,066948056e-01    0,000000000e+00    0,000000000e+00    0,000000000e+00    0,000000000e+00
      702000000   -1,298669260e-02   -3,246805817e-02    6,217613220e-01   -3,782147169e-02    0,000000000e+00    0,000000000e+00    0,000000000e+00    0,000000000e+00
      716000000   -8,510529064e-03   -4,838195071e-02    4,938081801e-01   -3,661246598e-01    0,000000000e+00    0,000000000e+00    0,000000000e+00    0,000000000e+00
      730000000   -5,762317218e-03   -7,492183894e-02    2,129355073e-01   -5,676463246e-01    0,000000000e+00    0,000000000e+00    0,000000000e+00    0,000000000e+00
      744000000   -2,540703677e-02   -1,116529256e-01   -1,227866784e-01   -5,875856876e-01    0,000000000e+00    0,000000000e+00    0,000000000e+00    0,000000000e+00
      758000000   -7,577040046e-02   -1,337073743e-01   -4,190149903e-01   -4,341031313e-01    0,000000000e+00    0,000000000e+00    0,000000000e+00    0,000000000e+00
      772000000   -1,360541433e-01   -1,160285175e-01   -5,947364569e-01   -1,414245516e-01    0,000000000e+00    0,000000000e+00    0,000000000e+00    0,000000000e+00
      786000000   -1,730848849e-01   -5,709882081e-02   -5,833626390e-01    2,090838999e-01    0,000000000e+00    0,000000000e+00    0,000000000e+00    0,000000000e+00
      800000000   -1,604746878e-01    8,890233003e-03   -3,743301034e-01    4,963772893e-01    0,000000000e+00    0,000000000e+00    0,000000000e+00    0,000000000e+00
      814000000   -1,139979139e-01    4,433616996e-02   -4,642996937e-02    6,153573394e-01    0,000000000e+00    0,000000000e+00    0,000000000e+00    0,000000000e+00
      828000000   -6,690968573e-02    4,429221898e-02    2,869139910e-01    5,411488414e-01    0,000000000e+00    0,000000000e+00    0,000000000e+00    0,000000000e+00
      842000000   -3,794040903e-02    2,830718271e-02    5,222315192e-01    3,061612248e-01    0,000000000e+00    0,000000000e+00    0,000000000e+00    0,000000000e+00
      856000000   -1,876241341e-02    1,092509646e-02    5,955716372e-01   -1,372340415e-02    0,000000000e+00    0,000000000e+00    0,000000000e+00    0,000000000e+00
      870000000    2,941545972e-04   -1,198919024e-02    4,877094328e-01   -3,180415928e-01    0,000000000e+00    0,000000000e+00    0,000000000e+00    0,000000000e+00
      884000000    1,155225746e-02   -5,126989633e-02    2,433614284e-01   -5,147978067e-01    0,000000000e+00    0,000000000e+00    0,000000000e+00    0,000000000e+00
      898000000   -4,590097349e-03   -1,001057178e-01   -5,916567147e-02   -5,552021861e-01    0,000000000e+00    0,000000000e+00    0,000000000e+00    0,000000000e+00
      912000000   -6,232867390e-02   -1,307968348e-01   -3,853812814e-01   -4,213881195e-01    0,000000000e+00    0,000000000e+00    0,000000000e+00    0,000000000e+00
      926000000   -1,243775412e-01   -1,188553348e-01   -5,656623840e-01   -1,479761153e-01    0,000000000e+00    0,000000000e+00    0,000000000e+00    0,000000000e+00
      940000000   -1,619637609e-01   -6,264872849e-02   -5,673500896e-01    1,945895255e-01    0,000000000e+00    0,000000000e+00    0,000000000e+00    0,000000000e+00
      954000000   -1,471935213e-01   -3,365778364e-03   -3,746847510e-01    4,838739634e-01    0,000000000e+00    0,000000000e+00    0,000000000e+00    0,000000000e+00
      968000000   -1,013587490e-01    2,357211336e-02   -5,107161030e-02    6,163872480e-01    0,000000000e+00    0,000000000e+00    0,000000000e+00    0,000000000e+00
      982000000   -5,321369320e-02    5,773615092e-03    2,811741531e-01    5,506709814e-01    0,000000000e+00    0,000000000e+00    0,000000000e+00    0,000000000e+00
      996000000   -4,697906598e-02   -3,266863525e-02    5,233334303e-01    3,261735737e-01    0,000000000e+00    0,000000000e+00    0,000000000e+00    0,000000000e+00
     1010000000   -6,428464502e-02   -6,781189889e-02    6,065997481e-01    1,494816784e-02    0,000000000e+00    0,000000000e+00    0,000000000e+00    0,000000000e+00
     1024000000   -1,017873287e-01   -7,466278970e-02    5,146819353e-01   -2,823118865e-01    0,000000000e+00    0,000000000e+00    0,000000000e+00    0,000000000e+00
     1038000000   -1,390287429e-01   -5,832022429e-02    2,924700081e-01   -4,701324105e-01    0,000000000e+00    0,000000000e+00    0,000000000e+00    0,000000000e+00
     1052000000   -1,537623405e-01   -2,151886933e-03    3,501941264e-02   -5,267394185e-01    0,000000000e+00    0,000000000e+00    0,000000000e+00    0,000000000e+00
     1066000000   -1,071801409e-01    3,692346066e-02   -2,137538046e-01   -4,658078551e-01    0,000000000e+00    0,000000000e+00    0,000000000e+00    0,000000000e+00
     1080000000   -5,521388352e-02    3,070831113e-02   -4,193052351e-01   -2,978345454e-01    0,000000000e+00    0,000000000e+00    0,000000000e+00    0,000000000e+00
     1094000000   -3,831042349e-02   -6,298600696e-03   -5,185616612e-01   -2,382920310e-02    0,000000000e+00    0,000000000e+00    0,000000000e+00    0,000000000e+00
     1108000000   -2,888714336e-02   -2,994544618e-02   -4,425923526e-01    2,847407460e-01    0,000000000e+00    0,000000000e+00    0,000000000e+00    0,000000000e+00
     1122000000   -2,995054051e-02   -5,562223867e-02   -1,835519671e-01    4,967969060e-01    0,000000000e+00    0,000000000e+00    0,000000000e+00    0,000000000e+00
     1136000000   -4,533211514e-02   -9,742745757e-02    1,518000811e-01    5,199809670e-01    0,000000000e+00    0,000000000e+00    0,000000000e+00    0,000000000e+00
     1150000000   -7,991667837e-02   -1,234804392e-01    4,504012465e-01    3,434456587e-01    0,000000000e+00    0,000000000e+00    0,000000000e+00    0,000000000e+00
     1164000000   -1,374294758e-01   -1,204341352e-01    6,123428941e-01    1,294311229e-02    0,000000000e+00    0,000000000e+00    0,000000000e+00    0,000000000e+00
     1178000000   -1,746543050e-01   -8,870505542e-02    5,401678681e-01   -3,745060563e-01    0,000000000e+00    0,000000000e+00    0,000000000e+00    0,000000000e+00
     1192000000   -1,760342121e-01   -5,587477237e-02    2,405764163e-01   -6,358438134e-01    0,000000000e+00    0,000000000e+00    0,000000000e+00    0,000000000e+00
     1206000000   -1,905276030e-01   -5,299301818e-02   -1,384768933e-01   -6,605753303e-01    0,000000000e+00    0,000000000e+00    0,000000000e+00    0,000000000e+00
     1220000000   -2,545621693e-01   -1,874815114e-02   -4,199241102e-01   -4,832347631e-01    0,000000000e+00    0,000000000e+00    0,000000000e+00    0,000000000e+00
     1234000000   -2,427797765e-01    1,122481301e-01   -5,576951504e-01   -2,524075806e-01    0,000000000e+00    0,000000000e+00    0,000000000e+00    0,000000000e+00
     1248000000   -1,181309223e-01    1,700709760e-01   -6,039023399e-01    1,521307137e-02    0,000000000e+00    0,000000000e+00    0,000000000e+00    0,000000000e+00
     1262000000   -6,018219050e-03    1,346532702e-01   -5,075241327e-01    3,008685708e-01    0,000000000e+00    0,000000000e+00    0,000000000e+00    0,000000000e+00
     1276000000    6,128896400e-02    4,393558204e-02   -2,773760259e-01    4,913564026e-01    0,000000000e+00    0,000000000e+00    0,000000000e+00    0,000000000e+00
     1290000000    7,039348781e-02   -7,007040083e-02    1,077418216e-02    5,510190129e-01    0,000000000e+00    0,000000000e+00    0,000000000e+00    0,000000000e+00
     1304000000    1,898609288e-02   -1,766054034e-01    2,978328764e-01    4,756775200e-01    0,000000000e+00    0,000000000e+00    0,000000000e+00    0,000000000e+00
     1318000000   -9,259624034e-02   -2,508741617e-01    5,322397351e-01    2,725898325e-01    0,000000000e+00    0,000000000e+00    0,000000000e+00    0,000000000e+00
     1332000000   -2,363391072e-01   -2,400745153e-01    6,540794969e-01   -4,857872427e-02    0,000000000e+00    0,000000000e+00    0,000000000e+00    0,000000000e+00
     1346000000   -3,613510430e-01   -1,391295046e-01    5,582085252e-01   -4,164885879e-01    0,000000000e+00    0,000000000e+00    0,000000000e+00    0,000000000e+00
     1360000000   -3,836469054e-01    9,896344505e-03    2,665570378e-01   -6,383708715e-01    0,000000000e+00    0,000000000e+00    0,000000000e+00    0,000000000e+00
     1374000000   -3,242149651e-01    1,158377379e-01   -1,043378636e-01   -6,266870499e-01    0,000000000e+00    0,000000000e+00    0,000000000e+00    0,000000000e+00
     1388000000   -2,370464206e-01    1,697993129e-01   -3,810518086e-01   -4,142680764e-01    0,000000000e+00    0,000000000e+00    0,000000000e+00    0,000000000e+00
     1402000000   -1,562074125e-01    1,686525494e-01   -4,774742126e-01   -1,068234742e-01    0,000000000e+00    0,000000000e+00    0,000000000e+00    0,000000000e+00
     1416000000   -8,124920726e-02    1,419449449e-01   -3,861636519e-01    2,032621801e-01    0,000000000e+00    0,000000000e+00    0,000000000e+00    0,000000000e+00
     1430000000   -3,335155919e-02    8,922513574e-02   -1,628963500e-01    4,200803339e-01    0,000000000e+00    0,000000000e+00    0,000000000e+00    0,000000000e+00
     1444000000   -1,371248253e-02    3,185408656e-03    1,177556142e-01    5,209131837e-01    0,000000000e+00    0,000000000e+00    0,000000000e+00    0,000000000e+00
     1458000000   -3,767780960e-02   -8,419439942e-02    4,422197640e-01    4,900191128e-01    0,000000000e+00    0,000000000e+00    0,000000000e+00    0,000000000e+00
     1472000000   -1,195334718e-01   -1,552627236e-01    7,383181453e-01    3,037153184e-01    0,000000000e+00    0,000000000e+00    0,000000000e+00    0,000000000e+00
     1486000000   -2,370824367e-01   -1,384086311e-01    8,910369277e-01   -2,978628501e-02    0,000000000e+00    0,000000000e+00    0,000000000e+00    0,000000000e+00
     1500000000   -3,069998920e-01   -6,394352764e-02    8,303817511e-01   -4,466089606e-01    0,000000000e+00    0,000000000e+00    0,000000000e+00    0,000000000e+00
