! NanoVNA-App
! Date: 2025-09-25 14:59:06
! Start: 100MHz Stop: 1,5GHz Points: 101
! S-Parameter data: F S11 S21 S12 S22
# Hz S RI R 50
!     Frequency           S11_Real           S11_Imag           S21_Real           S21_Imag           S12_Real           S12_Imag           S22_Real           S22_Imag
      100000000    3,557532653e-02    2,736228332e-02    4,407165945e-01   -6,694850326e-01    0,000000000e+00    0,000000000e+00    0,000000000e+00    0,000000000e+00
      114000000    6,071679294e-02    2,195393201e-03    1,296186447e-02   -7,952624559e-01    0,000000000e+00    0,000000000e+00    0,000000000e+00    0,000000000e+00
      128000000    6,836937368e-02   -4,225032404e-02   -4,079592228e-01   -6,780075431e-01    0,000000000e+00    0,000000000e+00    0,000000000e+00    0,000000000e+00
      142000000    4,349160939e-02   -8,878667653e-02   -7,053251863e-01   -3,609692156e-01    0,000000000e+00    0,000000000e+00    0,000000000e+00    0,000000000e+00
      156000000   -9,319986217e-03   -1,103221774e-01   -7,932001948e-01    6,820295751e-02    0,000000000e+00    0,000000000e+00    0,000000000e+00    0,000000000e+00
      170000000   -6,268911064e-02   -9,188068658e-02   -6,371347308e-01    4,864765108e-01    0,000000000e+00    0,000000000e+00    0,000000000e+00    0,000000000e+00
      184000000   -8,861671388e-02   -4,770334065e-02   -2,730733752e-01    7,559340000e-01    0,000000000e+00    0,000000000e+00    0,000000000e+00    0,000000000e+00
      198000000   -8,273945749e-02   -6,415175274e-03    1,794755310e-01    7,824015021e-01    0,000000000e+00    0,000000000e+00    0,000000000e+00    0,000000000e+00
      212000000   -6,272895634e-02    1,799487881e-02    5,706527829e-01    5,585476160e-01    0,000000000e+00    0,000000000e+00    0,000000000e+00    0,000000000e+00
      226000000   -4,152058810e-02    3,187100589e-02    7,767355442e-01    1,619292051e-01    0,000000000e+00    0,000000000e+00    0,000000000e+00    0,000000000e+00
      240000000   -1,493837219e-02    4,129681736e-02    7,361437082e-01   -2,786518037e-01    0,000000000e+00    0,000000000e+00    0,000000000e+00    0,000000000e+00
      254000000    2,140233479e-02    3,632476553e-02    4,678500295e-01   -6,220248938e-01    0,000000000e+00    0,000000000e+00    0,000000000e+00    0,000000000e+00
      268000000    5,332496762e-02    4,724366590e-03    6,713783741e-02   -7,669723630e-01    0,000000000e+00    0,000000000e+00    0,000000000e+00    0,000000000e+00
      282000000    5,737540498e-02   -4,494201392e-02   -3,457764983e-01   -6,827130318e-01    0,000000000e+00    0,000000000e+00    0,000000000e+00    0,000000000e+00
      296000000    2,617061883e-02   -8,467064053e-02   -6,549695730e-01   -3,977958262e-01    0,000000000e+00    0,000000000e+00    0,000000000e+00    0,000000000e+00
      310000000   -1,910651289e-02   -8,931353688e-02   -7,740414739e-01    9,421158582e-03    0,000000000e+00    0,000000000e+00    0,000000000e+00    0,000000000e+00
      324000000   -4,632443190e-02   -6,325740367e-02   -6,475201845e-01    4,288551807e-01    0,000000000e+00    0,000000000e+00    0,000000000e+00    0,000000000e+00
      338000000   -4,126135632e-02   -3,786006197e-02   -3,097754419e-01    7,103834152e-01    0,000000000e+00    0,000000000e+00    0,000000000e+00    0,000000000e+00
      352000000   -2,373140864e-02   -3,778914362e-02    1,186463386e-01    7,588647604e-01    0,000000000e+00    0,000000000e+00    0,000000000e+00    0,000000000e+00
      366000000   -2,285954356e-02   -5,616301671e-02    5,029746294e-01    5,708095431e-01    0,000000000e+00    0,000000000e+00    0,000000000e+00    0,000000000e+00
      380000000   -4,450785741e-02   -6,517201662e-02    7,263307571e-01    2,121391296e-01    0,000000000e+00    0,000000000e+00    0,000000000e+00    0,000000000e+00
      394000000   -6,641780585e-02   -5,087701231e-02    7,230252624e-01   -2,139343321e-01    0,000000000e+00    0,000000000e+00    0,000000000e+00    0,000000000e+00
      408000000   -6,742889434e-02   -2,657154761e-02    4,892767072e-01   -5,690933466e-01    0,000000000e+00    0,000000000e+00    0,000000000e+00    0,000000000e+00
      422000000   -5,321980268e-02   -1,542398892e-02    1,053615883e-01   -7,389403582e-01    0,000000000e+00    0,000000000e+00    0,000000000e+00    0,000000000e+00
      436000000   -4,655199870e-02   -1,850653626e-02   -3,065285385e-01   -6,758742332e-01    0,000000000e+00    0,000000000e+00    0,000000000e+00    0,000000000e+00
      450000000   -5,226878077e-02   -1,505291276e-02   -6,188154221e-01   -4,001697004e-01    0,000000000e+00    0,000000000e+00    0,000000000e+00    0,000000000e+00
      464000000   -5,049688742e-02    5,546467844e-03   -7,298504710e-01    3,474162659e-03    0,000000000e+00    0,000000000e+00    0,000000000e+00    0,000000000e+00
      478000000   -2,061920799e-02    2,650333568e-02   -5,983909965e-01    3,969026506e-01    0,000000000e+00    0,000000000e+00    0,000000000e+00    0,000000000e+00
      492000000    2,846766636e-02    1,507408638e-02   -2,802782655e-01    6,442010403e-01    0,000000000e+00    0,000000000e+00    0,000000000e+00    0,000000000e+00
      506000000    5,908532813e-02   -3,750330582e-02    1,052438319e-01    6,803445816e-01    0,000000000e+00    0,000000000e+00    0,000000000e+00    0,000000000e+00
      520000000    4,348787293e-02   -1,025945395e-01    4,387167394e-01    5,152819753e-01    0,000000000e+00    0,000000000e+00    0,000000000e+00    0,000000000e+00
      534000000   -1,267701853e-02   -1,443626881e-01    6,491655111e-01    2,052271664e-01    0,000000000e+00    0,000000000e+00    0,000000000e+00    0,000000000e+00
      548000000   -8,223365247e-02   -1,399072111e-01    6,596925259e-01   -1,761030555e-01    0,000000000e+00    0,000000000e+00    0,000000000e+00    0,000000000e+00
      562000000   -1,310022771e-01   -9,831377119e-02    4,509583414e-01   -5,082303882e-01    0,000000000e+00    0,000000000e+00    0,000000000e+00    0,000000000e+00
      576000000   -1,498975307e-01   -3,874288872e-02    8,241280913e-02   -6,599924564e-01    0,000000000e+00    0,000000000e+00    0,000000000e+00    0,000000000e+00
      590000000   -1,296683997e-01    2,969023027e-02   -2,941100001e-01   -5,634149909e-01    0,000000000e+00    0,000000000e+00    0,000000000e+00    0,000000000e+00
      604000000   -3,745257854e-02    6,810776144e-02   -4,874732792e-01   -2,701885700e-01    0,000000000e+00    0,000000000e+00    0,000000000e+00    0,000000000e+00
      618000000    3,457061946e-02   -3,171214461e-02   -4,937727749e-01   -5,225751176e-02    0,000000000e+00    0,000000000e+00    0,000000000e+00    0,000000000e+00
      632000000   -5,283376575e-02   -9,254962951e-02   -5,264146328e-01    1,776548475e-01    0,000000000e+00    0,000000000e+00    0,000000000e+00    0,000000000e+00
      646000000   -9,942135215e-02   -3,311530873e-02   -3,794865608e-01    4,779353440e-01    0,000000000e+00    0,000000000e+00    0,000000000e+00    0,000000000e+00
      660000000   -6,879348308e-02    9,199910797e-03   -5,072793365e-02    6,251165867e-01    0,000000000e+00    0,000000000e+00    0,000000000e+00    0,000000000e+00
      674000000   -3,048358113e-02    5,001077428e-03    2,986032665e-01    5,529061556e-01    0,000000000e+00    0,000000000e+00    0,000000000e+00    0,000000000e+00
      688000000   -1,582537405e-02   -1,777839288e-02    5,474542379e-01    3,029810190e-01    0,000000000e+00    0,000000000e+00    0,000000000e+00    0,000000000e+00
      702000000   -1,366868708e-02   -3,397794068e-02    6,197619438e-01   -4,375868291e-02    0,000000000e+00    0,000000000e+00    0,000000000e+00    0,000000000e+00
      716000000   -1,005919185e-02   -4,776579887e-02    4,911907315e-01   -3,682318628e-01    0,000000000e+00    0,000000000e+00    0,000000000e+00    0,000000000e+00
      730000000   -7,781344000e-03   -7,418932021e-02    2,115851045e-01   -5,679284334e-01    0,000000000e+00    0,000000000e+00    0,000000000e+00    0,000000000e+00
      744000000   -2,538535930e-02   -1,106547490e-01   -1,241620556e-01   -5,879307985e-01    0,000000000e+00    0,000000000e+00    0,000000000e+00    0,000000000e+00
      758000000   -7,466045767e-02   -1,331997961e-01   -4,190316200e-01   -4,327685237e-01    0,000000000e+00    0,000000000e+00    0,000000000e+00    0,000000000e+00
      772000000   -1,343867332e-01   -1,160461903e-01   -5,940515399e-01   -1,402597576e-01    0,000000000e+00    0,000000000e+00    0,000000000e+00    0,000000000e+00
      786000000   -1,712835878e-01   -5,841377378e-02   -5,817617178e-01    2,094962448e-01    0,000000000e+00    0,000000000e+00    0,000000000e+00    0,000000000e+00
      800000000   -1,594167799e-01    6,996618584e-03   -3,727195859e-01    4,959816635e-01    0,000000000e+00    0,000000000e+00    0,000000000e+00    0,000000000e+00
      814000000   -1,143181399e-01    4,277920350e-02   -4,526546225e-02    6,146641374e-01    0,000000000e+00    0,000000000e+00    0,000000000e+00    0,000000000e+00
      828000000   -6,889269501e-02    4,331719875e-02    2,850923240e-01    5,402179956e-01    0,000000000e+00    0,000000000e+00    0,000000000e+00    0,000000000e+00
      842000000   -3,843208030e-02    2,906554565e-02    5,209769011e-01    3,056389689e-01    0,000000000e+00    0,000000000e+00    0,000000000e+00    0,000000000e+00
      856000000   -1,859935559e-02    1,238188427e-02    5,939534307e-01   -1,375137176e-02    0,000000000e+00    0,000000000e+00    0,000000000e+00    0,000000000e+00
      870000000    2,005874645e-03   -1,169484202e-02    4,859251380e-01   -3,163531721e-01    0,000000000e+00    0,000000000e+00    0,000000000e+00    0,000000000e+00
      884000000    1,309228782e-02   -5,133135989e-02    2,417614609e-01   -5,114178658e-01    0,000000000e+00    0,000000000e+00    0,000000000e+00    0,000000000e+00
      898000000   -3,450968070e-03   -1,016933843e-01   -5,784427747e-02   -5,531806946e-01    0,000000000e+00    0,000000000e+00    0,000000000e+00    0,000000000e+00
      912000000   -6,262630224e-02   -1,336953193e-01   -3,817995191e-01   -4,136202633e-01    0,000000000e+00    0,000000000e+00    0,000000000e+00    0,000000000e+00
      926000000   -1,271869391e-01   -1,175701991e-01   -5,681884885e-01   -1,473291069e-01    0,000000000e+00    0,000000000e+00    0,000000000e+00    0,000000000e+00
      940000000   -1,656097174e-01   -6,401254237e-02   -5,713673830e-01    1,929250211e-01    0,000000000e+00    0,000000000e+00    0,000000000e+00    0,000000000e+00
      954000000   -1,498907506e-01   -2,457838273e-03   -3,779105842e-01    4,839424491e-01    0,000000000e+00    0,000000000e+00    0,000000000e+00    0,000000000e+00
      968000000   -9,876714647e-02    2,148861438e-02   -5,213241652e-02    6,165302992e-01    0,000000000e+00    0,000000000e+00    0,000000000e+00    0,000000000e+00
      982000000   -5,458305404e-02    3,605632577e-03    2,835270762e-01    5,521307588e-01    0,000000000e+00    0,000000000e+00    0,000000000e+00    0,000000000e+00
      996000000   -4,608839005e-02   -3,247356042e-02    5,241181254e-01    3,283428252e-01    0,000000000e+00    0,000000000e+00    0,000000000e+00    0,000000000e+00
     1010000000   -6,464774907e-02   -6,608550996e-02    6,097944975e-01    1,432925463e-02    0,000000000e+00    0,000000000e+00    0,000000000e+00    0,000000000e+00
     1024000000   -1,019976661e-01   -7,961495221e-02    5,164216757e-01   -2,832737863e-01    0,000000000e+00    0,000000000e+00    0,000000000e+00    0,000000000e+00
     1038000000   -1,397418082e-01   -5,849191546e-02    2,959309220e-01   -4,710789025e-01    0,000000000e+00    0,000000000e+00    0,000000000e+00    0,000000000e+00
     1052000000   -1,545183510e-01    1,010478241e-03    3,362599760e-02   -5,243163109e-01    0,000000000e+00    0,000000000e+00    0,000000000e+00    0,000000000e+00
     1066000000   -1,069961786e-01    3,751765564e-02   -2,080447376e-01   -4,654523134e-01    0,000000000e+00    0,000000000e+00    0,000000000e+00    0,000000000e+00
     1080000000   -5,347061902e-02    3,005470894e-02   -4,166568816e-01   -2,960653603e-01    0,000000000e+00    0,000000000e+00    0,000000000e+00    0,000000000e+00
     1094000000   -3,622205555e-02   -4,052707460e-03   -5,203940272e-01   -2,318947017e-02    0,000000000e+00    0,000000000e+00    0,000000000e+00    0,000000000e+00
     1108000000   -3,421705961e-02   -3,162293509e-02   -4,431784153e-01    2,858138978e-01    0,000000000e+00    0,000000000e+00    0,000000000e+00    0,000000000e+00
     1122000000   -3,260961175e-02   -5,897895992e-02   -1,868214160e-01    4,977136552e-01    0,000000000e+00    0,000000000e+00    0,000000000e+00    0,000000000e+00
     1136000000   -4,408036917e-02   -9,066407382e-02    1,526098102e-01    5,238267779e-01    0,000000000e+00    0,000000000e+00    0,000000000e+00    0,000000000e+00
     1150000000   -8,144316077e-02   -1,257072836e-01    4,527386427e-01    3,461666107e-01    0,000000000e+00    0,000000000e+00    0,000000000e+00    0,000000000e+00
     1164000000   -1,363718212e-01   -1,249783188e-01    6,119696498e-01    9,773909114e-03    0,000000000e+00    0,000000000e+00    0,000000000e+00    0,000000000e+00
     1178000000   -1,803141683e-01   -8,677681535e-02    5,409346819e-01   -3,756234646e-01    0,000000000e+00    0,000000000e+00    0,000000000e+00    0,000000000e+00
     1192000000   -1,773829460e-01   -5,211260915e-02    2,403421551e-01   -6,388257742e-01    0,000000000e+00    0,000000000e+00    0,000000000e+00    0,000000000e+00
     1206000000   -1,886808574e-01   -5,529699102e-02   -1,392897367e-01   -6,592174172e-01    0,000000000e+00    0,000000000e+00    0,000000000e+00    0,000000000e+00
     1220000000   -2,493112087e-01   -1,346124150e-02   -4,209007323e-01   -4,841128886e-01    0,000000000e+00    0,000000000e+00    0,000000000e+00    0,000000000e+00
     1234000000   -2,391234487e-01    1,165925115e-01   -5,584371090e-01   -2,478725612e-01    0,000000000e+00    0,000000000e+00    0,000000000e+00    0,000000000e+00
     1248000000   -1,160627231e-01    1,714040041e-01   -6,039053798e-01    2,061227337e-02    0,000000000e+00    0,000000000e+00    0,000000000e+00    0,000000000e+00
     1262000000   -4,182782955e-03    1,338349432e-01   -5,070427060e-01    3,004844189e-01    0,000000000e+00    0,000000000e+00    0,000000000e+00    0,000000000e+00
     1276000000    5,999607593e-02    4,351686686e-02   -2,820020616e-01    4,900966883e-01    0,000000000e+00    0,000000000e+00    0,000000000e+00    0,000000000e+00
     1290000000    7,374162227e-02   -6,703903526e-02    1,345218718e-02    5,517621040e-01    0,000000000e+00    0,000000000e+00    0,000000000e+00    0,000000000e+00
     1304000000    2,299050801e-02   -1,811466664e-01    3,002364039e-01    4,743865430e-01    0,000000000e+00    0,000000000e+00    0,000000000e+00    0,000000000e+00
     1318000000   -9,764274955e-02   -2,526267767e-01    5,323320031e-01    2,654696703e-01    0,000000000e+00    0,000000000e+00    0,000000000e+00    0,000000000e+00
     1332000000   -2,422937304e-01   -2,442898303e-01    6,514373422e-01   -4,922223836e-02    0,000000000e+00    0,000000000e+00    0,000000000e+00    0,000000000e+00
     1346000000   -3,639990687e-01   -1,393768340e-01    5,516840219e-01   -4,106820226e-01    0,000000000e+00    0,000000000e+00    0,000000000e+00    0,000000000e+00
     1360000000   -3,857104778e-01    6,761397701e-03    2,549380958e-01   -6,339977980e-01    0,000000000e+00    0,000000000e+00    0,000000000e+00    0,000000000e+00
     1374000000   -3,206105232e-01    1,199907437e-01   -1,088167354e-01   -6,230068803e-01    0,000000000e+00    0,000000000e+00    0,000000000e+00    0,000000000e+00
     1388000000   -2,398386747e-01    1,676743329e-01   -3,818420768e-01   -4,144843817e-01    0,000000000e+00    0,000000000e+00    0,000000000e+00    0,000000000e+00
     1402000000   -1,502665430e-01    1,705884039e-01   -4,764569998e-01   -1,064758375e-01    0,000000000e+00    0,000000000e+00    0,000000000e+00    0,000000000e+00
     1416000000   -8,583238721e-02    1,455653757e-01   -3,924948871e-01    2,063709795e-01    0,000000000e+00    0,000000000e+00    0,000000000e+00    0,000000000e+00
     1430000000   -3,593124077e-02    8,625638485e-02   -1,592232585e-01    4,109524488e-01    0,000000000e+00    0,000000000e+00    0,000000000e+00    0,000000000e+00
     1444000000   -1,468892395e-02    7,895519957e-03    1,192182675e-01    5,248414874e-01    0,000000000e+00    0,000000000e+00    0,000000000e+00    0,000000000e+00
     1458000000   -4,089899734e-02   -7,620614767e-02    4,336652160e-01    4,997339845e-01    0,000000000e+00    0,000000000e+00    0,000000000e+00    0,000000000e+00
     1472000000   -1,244106814e-01   -1,505788714e-01    7,264483571e-01    3,049779534e-01    0,000000000e+00    0,000000000e+00    0,000000000e+00    0,000000000e+00
     1486000000   -2,313763946e-01   -1,294775754e-01    9,032282829e-01   -2,455983683e-02    0,000000000e+00    0,000000000e+00    0,000000000e+00    0,000000000e+00
     1500000000   -3,081722856e-01   -5,771416053e-02    8,357385993e-01   -4,139222503e-01    0,000000000e+00    0,000000000e+00    0,000000000e+00    0,000000000e+00
