! NanoVNA-App
! Date: 2025-09-25 14:56:57
! Start: 100MHz Stop: 1,5GHz Points: 101
! S-Parameter data: F S11 S21 S12 S22
# Hz S RI R 50
!     Frequency           S11_Real           S11_Imag           S21_Real           S21_Imag           S12_Real           S12_Imag           S22_Real           S22_Imag
      100000000    3,559474647e-02    2,731787413e-02    4,406961203e-01   -6,694806218e-01    0,000000000e+00    0,000000000e+00    0,000000000e+00    0,000000000e+00
      114000000    6,068045646e-02    2,146353712e-03    1,276119612e-02   -7,952920198e-01    0,000000000e+00    0,000000000e+00    0,000000000e+00    0,000000000e+00
      128000000    6,835302711e-02   -4,220469669e-02   -4,081469178e-01   -6,781519055e-01    0,000000000e+00    0,000000000e+00    0,000000000e+00    0,000000000e+00
      142000000    4,342906177e-02   -8,872860670e-02   -7,052857876e-01   -3,609544635e-01    0,000000000e+00    0,000000000e+00    0,000000000e+00    0,000000000e+00
      156000000   -9,819003753e-03   -1,093571559e-01   -7,924092412e-01    6,710253656e-02    0,000000000e+00    0,000000000e+00    0,000000000e+00    0,000000000e+00
      170000000   -6,264408678e-02   -9,183520824e-02   -6,371815205e-01    4,867002964e-01    0,000000000e+00    0,000000000e+00    0,000000000e+00    0,000000000e+00
      184000000   -8,857255429e-02   -4,759248719e-02   -2,731313705e-01    7,562583685e-01    0,000000000e+00    0,000000000e+00    0,000000000e+00    0,000000000e+00
      198000000   -8,271437138e-02   -6,364163943e-03    1,795374900e-01    7,820904255e-01    0,000000000e+00    0,000000000e+00    0,000000000e+00    0,000000000e+00
      212000000   -6,268514693e-02    1,810233481e-02    5,707960725e-01    5,583044887e-01    0,000000000e+00    0,000000000e+00    0,000000000e+00    0,000000000e+00
      226000000   -4,138170183e-02    3,182204068e-02    7,766308784e-01    1,618792713e-01    0,000000000e+00    0,000000000e+00    0,000000000e+00    0,000000000e+00
      240000000   -1,478867047e-02    4,126586020e-02    7,359154224e-01   -2,784538269e-01    0,000000000e+00    0,000000000e+00    0,000000000e+00    0,000000000e+00
      254000000    2,149090543e-02    3,618265688e-02    4,678491652e-01   -6,218410134e-01    0,000000000e+00    0,000000000e+00    0,000000000e+00    0,000000000e+00
      268000000    5,334122479e-02    4,593992140e-03    6,676021963e-02   -7,675764561e-01    0,000000000e+00    0,000000000e+00    0,000000000e+00    0,000000000e+00
      282000000    5,743344501e-02   -4,505353794e-02   -3,455115855e-01   -6,824413538e-01    0,000000000e+00    0,000000000e+00    0,000000000e+00    0,000000000e+00
      296000000    2,593654208e-02   -8,478262275e-02   -6,547905207e-01   -3,980136812e-01    0,000000000e+00    0,000000000e+00    0,000000000e+00    0,000000000e+00
      310000000   -1,921095513e-02   -8,932643384e-02   -7,743591070e-01    1,038314775e-02    0,000000000e+00    0,000000000e+00    0,000000000e+00    0,000000000e+00
      324000000   -4,649907723e-02   -6,361921132e-02   -6,483407021e-01    4,294902980e-01    0,000000000e+00    0,000000000e+00    0,000000000e+00    0,000000000e+00
      338000000   -4,114613682e-02   -3,765138239e-02   -3,119974732e-01    7,076692581e-01    0,000000000e+00    0,000000000e+00    0,000000000e+00    0,000000000e+00
      352000000   -2,349398285e-02   -3,770771250e-02    1,193774268e-01    7,583274841e-01    0,000000000e+00    0,000000000e+00    0,000000000e+00    0,000000000e+00
      366000000   -2,308304049e-02   -5,605756864e-02    5,029469132e-01    5,712690353e-01    0,000000000e+00    0,000000000e+00    0,000000000e+00    0,000000000e+00
      380000000   -4,424132779e-02   -6,491004676e-02    7,260578275e-01    2,117512375e-01    0,000000000e+00    0,000000000e+00    0,000000000e+00    0,000000000e+00
      394000000   -6,625544280e-02   -5,064868182e-02    7,223546505e-01   -2,129944116e-01    0,000000000e+00    0,000000000e+00    0,000000000e+00    0,000000000e+00
      408000000   -6,719403714e-02   -2,628225274e-02    4,905524552e-01   -5,681706071e-01    0,000000000e+00    0,000000000e+00    0,000000000e+00    0,000000000e+00
      422000000   -5,289637297e-02   -1,562630385e-02    1,061205789e-01   -7,386155725e-01    0,000000000e+00    0,000000000e+00    0,000000000e+00    0,000000000e+00
      436000000   -4,577432573e-02   -1,894834638e-02   -3,050034940e-01   -6,758257151e-01    0,000000000e+00    0,000000000e+00    0,000000000e+00    0,000000000e+00
      450000000   -5,233574659e-02   -1,568688825e-02   -6,186437011e-01   -4,002561867e-01    0,000000000e+00    0,000000000e+00    0,000000000e+00    0,000000000e+00
      464000000   -5,056460574e-02    5,143351853e-03   -7,296451926e-01    2,969958121e-03    0,000000000e+00    0,000000000e+00    0,000000000e+00    0,000000000e+00
      478000000   -2,103364468e-02    2,619071677e-02   -5,983883739e-01    3,965808153e-01    0,000000000e+00    0,000000000e+00    0,000000000e+00    0,000000000e+00
      492000000    2,717867307e-02    1,460324973e-02   -2,808956802e-01    6,436201334e-01    0,000000000e+00    0,000000000e+00    0,000000000e+00    0,000000000e+00
      506000000    5,771684274e-02   -3,659279272e-02    1,030799448e-01    6,801971197e-01    0,000000000e+00    0,000000000e+00    0,000000000e+00    0,000000000e+00
      520000000    4,421846941e-02   -1,007513329e-01    4,410109818e-01    5,192429423e-01    0,000000000e+00    0,000000000e+00    0,000000000e+00    0,000000000e+00
      534000000   -1,183763146e-02   -1,419151127e-01    6,496089697e-01    2,078618407e-01    0,000000000e+00    0,000000000e+00    0,000000000e+00    0,000000000e+00
      548000000   -7,930511981e-02   -1,379581243e-01    6,611414552e-01   -1,740609109e-01    0,000000000e+00    0,000000000e+00    0,000000000e+00    0,000000000e+00
      562000000   -1,265333891e-01   -9,824238718e-02    4,555322230e-01   -5,073575974e-01    0,000000000e+00    0,000000000e+00    0,000000000e+00    0,000000000e+00
      576000000   -1,438616365e-01   -4,524954408e-02    9,052379429e-02   -6,651214361e-01    0,000000000e+00    0,000000000e+00    0,000000000e+00    0,000000000e+00
      590000000   -1,341854781e-01    1,284664124e-02   -2,935116291e-01   -5,802500844e-01    0,000000000e+00    0,000000000e+00    0,000000000e+00    0,000000000e+00
      604000000   -7,198489457e-02    6,671833992e-02   -5,258993506e-01   -2,804434597e-01    0,000000000e+00    0,000000000e+00    0,000000000e+00    0,000000000e+00
      618000000    3,693063930e-02    2,194507420e-02   -5,019825101e-01    1,032100245e-02    0,000000000e+00    0,000000000e+00    0,000000000e+00    0,000000000e+00
      632000000   -5,455544218e-03   -1,029809415e-01   -4,700316787e-01    1,728004217e-01    0,000000000e+00    0,000000000e+00    0,000000000e+00    0,000000000e+00
      646000000   -1,024249494e-01   -6,486997753e-02   -3,794696033e-01    4,424563050e-01    0,000000000e+00    0,000000000e+00    0,000000000e+00    0,000000000e+00
      660000000   -8,632264286e-02    3,135310253e-03   -6,846068054e-02    6,169721484e-01    0,000000000e+00    0,000000000e+00    0,000000000e+00    0,000000000e+00
      674000000   -3,975986689e-02    1,170200575e-02    2,882562280e-01    5,592269897e-01    0,000000000e+00    0,000000000e+00    0,000000000e+00    0,000000000e+00
      688000000   -1,656541042e-02   -1,031256747e-02    5,441213250e-01    3,101620078e-01    0,000000000e+00    0,000000000e+00    0,000000000e+00    0,000000000e+00
      702000000   -1,105201617e-02   -2,895639278e-02    6,211814284e-01   -3,432494029e-02    0,000000000e+00    0,000000000e+00    0,000000000e+00    0,000000000e+00
      716000000   -5,842485465e-03   -4,783166945e-02    4,956183434e-01   -3,647399247e-01    0,000000000e+00    0,000000000e+00    0,000000000e+00    0,000000000e+00
      730000000   -3,688789206e-03   -7,626852393e-02    2,160505354e-01   -5,686603785e-01    0,000000000e+00    0,000000000e+00    0,000000000e+00    0,000000000e+00
      744000000   -2,421370149e-02   -1,147885472e-01   -1,195717156e-01   -5,914766192e-01    0,000000000e+00    0,000000000e+00    0,000000000e+00    0,000000000e+00
      758000000   -7,572946697e-02   -1,359620988e-01   -4,194778502e-01   -4,372310042e-01    0,000000000e+00    0,000000000e+00    0,000000000e+00    0,000000000e+00
      772000000   -1,387071162e-01   -1,176445857e-01   -5,970745087e-01   -1,433935016e-01    0,000000000e+00    0,000000000e+00    0,000000000e+00    0,000000000e+00
      786000000   -1,741911173e-01   -5,705169961e-02   -5,853404999e-01    2,097697258e-01    0,000000000e+00    0,000000000e+00    0,000000000e+00    0,000000000e+00
      800000000   -1,599516273e-01    1,065803785e-02   -3,748910725e-01    4,981372356e-01    0,000000000e+00    0,000000000e+00    0,000000000e+00    0,000000000e+00
      814000000   -1,118298918e-01    4,631361365e-02   -4,556716979e-02    6,181246042e-01    0,000000000e+00    0,000000000e+00    0,000000000e+00    0,000000000e+00
      828000000   -6,523628533e-02    4,435392097e-02    2,874051929e-01    5,420777202e-01    0,000000000e+00    0,000000000e+00    0,000000000e+00    0,000000000e+00
      842000000   -3,567320481e-02    2,626024932e-02    5,234439969e-01    3,058788478e-01    0,000000000e+00    0,000000000e+00    0,000000000e+00    0,000000000e+00
      856000000   -1,807557419e-02    8,687306195e-03    5,964229107e-01   -1,452051476e-02    0,000000000e+00    0,000000000e+00    0,000000000e+00    0,000000000e+00
      870000000   -1,474171295e-03   -1,382295694e-02    4,871557951e-01   -3,195734322e-01    0,000000000e+00    0,000000000e+00    0,000000000e+00    0,000000000e+00
      884000000    8,445754647e-03   -5,153487623e-02    2,399807572e-01   -5,143718123e-01    0,000000000e+00    0,000000000e+00    0,000000000e+00    0,000000000e+00
      898000000   -7,279136684e-03   -9,784051776e-02   -5,988394469e-02   -5,557277799e-01    0,000000000e+00    0,000000000e+00    0,000000000e+00    0,000000000e+00
      912000000   -6,250758469e-02   -1,268989146e-01   -3,915438950e-01   -4,251291454e-01    0,000000000e+00    0,000000000e+00    0,000000000e+00    0,000000000e+00
      926000000   -1,238994822e-01   -1,155860722e-01   -5,698062181e-01   -1,448978484e-01    0,000000000e+00    0,000000000e+00    0,000000000e+00    0,000000000e+00
      940000000   -1,575661302e-01   -6,219293177e-02   -5,677059293e-01    1,932528764e-01    0,000000000e+00    0,000000000e+00    0,000000000e+00    0,000000000e+00
      954000000   -1,453992426e-01   -2,711313544e-03   -3,729040027e-01    4,836502373e-01    0,000000000e+00    0,000000000e+00    0,000000000e+00    0,000000000e+00
      968000000   -1,020348519e-01    1,897921041e-02   -5,116789043e-02    6,139857769e-01    0,000000000e+00    0,000000000e+00    0,000000000e+00    0,000000000e+00
      982000000   -6,125873327e-02    6,025360781e-04    2,825106382e-01    5,527656078e-01    0,000000000e+00    0,000000000e+00    0,000000000e+00    0,000000000e+00
      996000000   -4,980926961e-02   -2,812183276e-02    5,262387991e-01    3,296662271e-01    0,000000000e+00    0,000000000e+00    0,000000000e+00    0,000000000e+00
     1010000000   -6,132612005e-02   -6,081048772e-02    6,096161604e-01    1,537687518e-02    0,000000000e+00    0,000000000e+00    0,000000000e+00    0,000000000e+00
     1024000000   -9,475448728e-02   -6,695458293e-02    5,168423057e-01   -2,835037112e-01    0,000000000e+00    0,000000000e+00    0,000000000e+00    0,000000000e+00
     1038000000   -1,274154633e-01   -5,602707714e-02    2,962759435e-01   -4,760586917e-01    0,000000000e+00    0,000000000e+00    0,000000000e+00    0,000000000e+00
     1052000000   -1,474086940e-01   -1,765659824e-02    2,735639550e-02   -5,279478431e-01    0,000000000e+00    0,000000000e+00    0,000000000e+00    0,000000000e+00
     1066000000   -1,176057681e-01    2,992239036e-02   -2,246422768e-01   -4,619328678e-01    0,000000000e+00    0,000000000e+00    0,000000000e+00    0,000000000e+00
     1080000000   -6,271974742e-02    3,207380697e-02   -4,206943214e-01   -2,836126983e-01    0,000000000e+00    0,000000000e+00    0,000000000e+00    0,000000000e+00
     1094000000   -3,602859378e-02    3,236585530e-03   -5,099126697e-01   -1,587562263e-02    0,000000000e+00    0,000000000e+00    0,000000000e+00    0,000000000e+00
     1108000000   -2,573342621e-02   -2,854957990e-02   -4,305190742e-01    2,817685306e-01    0,000000000e+00    0,000000000e+00    0,000000000e+00    0,000000000e+00
     1122000000   -2,655760385e-02   -5,653647706e-02   -1,812402010e-01    4,878261089e-01    0,000000000e+00    0,000000000e+00    0,000000000e+00    0,000000000e+00
     1136000000   -4,025314376e-02   -1,013158783e-01    1,453750134e-01    5,109463930e-01    0,000000000e+00    0,000000000e+00    0,000000000e+00    0,000000000e+00
     1150000000   -8,418383449e-02   -1,251841784e-01    4,471025169e-01    3,423101008e-01    0,000000000e+00    0,000000000e+00    0,000000000e+00    0,000000000e+00
     1164000000   -1,452117115e-01   -1,288717985e-01    6,053586006e-01    1,588902436e-02    0,000000000e+00    0,000000000e+00    0,000000000e+00    0,000000000e+00
     1178000000   -1,815303415e-01   -9,136081487e-02    5,375798345e-01   -3,633593917e-01    0,000000000e+00    0,000000000e+00    0,000000000e+00    0,000000000e+00
     1192000000   -1,855465174e-01   -5,244167149e-02    2,456759065e-01   -6,328573823e-01    0,000000000e+00    0,000000000e+00    0,000000000e+00    0,000000000e+00
     1206000000   -1,931223720e-01   -5,217572302e-02   -1,348323077e-01   -6,606230736e-01    0,000000000e+00    0,000000000e+00    0,000000000e+00    0,000000000e+00
     1220000000   -2,479540408e-01   -1,555232424e-02   -4,215185046e-01   -4,913260639e-01    0,000000000e+00    0,000000000e+00    0,000000000e+00    0,000000000e+00
     1234000000   -2,422457188e-01    1,067218408e-01   -5,618570447e-01   -2,531825900e-01    0,000000000e+00    0,000000000e+00    0,000000000e+00    0,000000000e+00
     1248000000   -1,219134182e-01    1,738180220e-01   -6,056053638e-01    1,741072163e-02    0,000000000e+00    0,000000000e+00    0,000000000e+00    0,000000000e+00
     1262000000   -4,010272212e-03    1,292357892e-01   -5,088955164e-01    2,936230898e-01    0,000000000e+00    0,000000000e+00    0,000000000e+00    0,000000000e+00
     1276000000    5,975827947e-02    4,523070529e-02   -2,804106176e-01    4,910040796e-01    0,000000000e+00    0,000000000e+00    0,000000000e+00    0,000000000e+00
     1290000000    7,538316399e-02   -6,982448697e-02    1,040449087e-02    5,479468703e-01    0,000000000e+00    0,000000000e+00    0,000000000e+00    0,000000000e+00
     1304000000    2,240063250e-02   -1,794728935e-01    2,961084247e-01    4,802019596e-01    0,000000000e+00    0,000000000e+00    0,000000000e+00    0,000000000e+00
     1318000000   -8,940897137e-02   -2,570747137e-01    5,377659202e-01    2,711852193e-01    0,000000000e+00    0,000000000e+00    0,000000000e+00    0,000000000e+00
     1332000000   -2,439931482e-01   -2,469098717e-01    6,502450705e-01   -4,827203602e-02    0,000000000e+00    0,000000000e+00    0,000000000e+00    0,000000000e+00
     1346000000   -3,588336110e-01   -1,468894631e-01    5,525515079e-01   -4,155303538e-01    0,000000000e+00    0,000000000e+00    0,000000000e+00    0,000000000e+00
     1360000000   -3,937298059e-01    8,641323075e-03    2,496892661e-01   -6,278641820e-01    0,000000000e+00    0,000000000e+00    0,000000000e+00    0,000000000e+00
     1374000000   -3,279120624e-01    1,172012240e-01   -1,085227132e-01   -6,248617768e-01    0,000000000e+00    0,000000000e+00    0,000000000e+00    0,000000000e+00
     1388000000   -2,375417203e-01    1,730150878e-01   -3,744396567e-01   -4,177324772e-01    0,000000000e+00    0,000000000e+00    0,000000000e+00    0,000000000e+00
     1402000000   -1,567430198e-01    1,709552854e-01   -4,749000967e-01   -1,019156724e-01    0,000000000e+00    0,000000000e+00    0,000000000e+00    0,000000000e+00
     1416000000   -8,579051495e-02    1,500561982e-01   -3,890496790e-01    2,077436000e-01    0,000000000e+00    0,000000000e+00    0,000000000e+00    0,000000000e+00
     1430000000   -2,997156605e-02    8,887755126e-02   -1,838793159e-01    4,432299733e-01    0,000000000e+00    0,000000000e+00    0,000000000e+00    0,000000000e+00
     1444000000   -1,383685321e-02    1,049448270e-02    1,222671717e-01    5,223378539e-01    0,000000000e+00    0,000000000e+00    0,000000000e+00    0,000000000e+00
     1458000000   -3,617845476e-02   -8,684566617e-02    4,407037199e-01    4,800589681e-01    0,000000000e+00    0,000000000e+00    0,000000000e+00    0,000000000e+00
     1472000000   -1,169821024e-01   -1,546520889e-01    7,315647006e-01    2,984738946e-01    0,000000000e+00    0,000000000e+00    0,000000000e+00    0,000000000e+00
     1486000000   -2,397636026e-01   -1,549045146e-01    8,862968683e-01   -3,721478581e-02    0,000000000e+00    0,000000000e+00    0,000000000e+00    0,000000000e+00
     1500000000   -3,112498224e-01   -5,703657493e-02    8,483007550e-01   -4,055621922e-01    0,000000000e+00    0,000000000e+00    0,000000000e+00    0,000000000e+00
