! NanoVNA-App
! Date: 2025-09-25 15:00:18
! Start: 100MHz Stop: 1,5GHz Points: 101
! S-Parameter data: F S11 S21 S12 S22
# Hz S RI R 50
!     Frequency           S11_Real           S11_Imag           S21_Real           S21_Imag           S12_Real           S12_Imag           S22_Real           S22_Imag
      100000000    3,558370471e-02    2,735407650e-02    4,407939017e-01   -6,695352197e-01    0,000000000e+00    0,000000000e+00    0,000000000e+00    0,000000000e+00
      114000000    6,071389467e-02    2,178917639e-03    1,279055048e-02   -7,954248786e-01    0,000000000e+00    0,000000000e+00    0,000000000e+00    0,000000000e+00
      128000000    6,841282547e-02   -4,229281098e-02   -4,081528783e-01   -6,780969501e-01    0,000000000e+00    0,000000000e+00    0,000000000e+00    0,000000000e+00
      142000000    4,347731918e-02   -8,878859133e-02   -7,053173780e-01   -3,608219028e-01    0,000000000e+00    0,000000000e+00    0,000000000e+00    0,000000000e+00
      156000000   -8,868740872e-03   -1,102062389e-01   -7,942751050e-01    6,799507886e-02    0,000000000e+00    0,000000000e+00    0,000000000e+00    0,000000000e+00
      170000000   -6,265311688e-02   -9,182516485e-02   -6,370242834e-01    4,864293635e-01    0,000000000e+00    0,000000000e+00    0,000000000e+00    0,000000000e+00
      184000000   -8,859638125e-02   -4,766136035e-02   -2,733700275e-01    7,565051317e-01    0,000000000e+00    0,000000000e+00    0,000000000e+00    0,000000000e+00
      198000000   -8,275873214e-02   -6,439057179e-03    1,795551926e-01    7,823034525e-01    0,000000000e+00    0,000000000e+00    0,000000000e+00    0,000000000e+00
      212000000   -6,268632412e-02    1,801519841e-02    5,706947446e-01    5,583515763e-01    0,000000000e+00    0,000000000e+00    0,000000000e+00    0,000000000e+00
      226000000   -4,144030809e-02    3,184505180e-02    7,767230868e-01    1,617854238e-01    0,000000000e+00    0,000000000e+00    0,000000000e+00    0,000000000e+00
      240000000   -1,492171921e-02    4,135086760e-02    7,362254858e-01   -2,788136601e-01    0,000000000e+00    0,000000000e+00    0,000000000e+00    0,000000000e+00
      254000000    2,138038166e-02    3,629715368e-02    4,679325223e-01   -6,219522953e-01    0,000000000e+00    0,000000000e+00    0,000000000e+00    0,000000000e+00
      268000000    5,333700404e-02    4,732740577e-03    6,675413996e-02   -7,671433091e-01    0,000000000e+00    0,000000000e+00    0,000000000e+00    0,000000000e+00
      282000000    5,739196017e-02   -4,489926621e-02   -3,456375897e-01   -6,823976636e-01    0,000000000e+00    0,000000000e+00    0,000000000e+00    0,000000000e+00
      296000000    2,605652623e-02   -8,479505032e-02   -6,549608707e-01   -3,975721002e-01    0,000000000e+00    0,000000000e+00    0,000000000e+00    0,000000000e+00
      310000000   -1,908662729e-02   -8,926745504e-02   -7,749229670e-01    1,090242527e-02    0,000000000e+00    0,000000000e+00    0,000000000e+00    0,000000000e+00
      324000000   -4,644305259e-02   -6,330673397e-02   -6,475591063e-01    4,300594628e-01    0,000000000e+00    0,000000000e+00    0,000000000e+00    0,000000000e+00
      338000000   -4,130628705e-02   -3,784316033e-02   -3,091076314e-01    7,121364474e-01    0,000000000e+00    0,000000000e+00    0,000000000e+00    0,000000000e+00
      352000000   -2,356076799e-02   -3,774871305e-02    1,200023815e-01    7,593569756e-01    0,000000000e+00    0,000000000e+00    0,000000000e+00    0,000000000e+00
      366000000   -2,302270569e-02   -5,616845191e-02    5,034109354e-01    5,720751286e-01    0,000000000e+00    0,000000000e+00    0,000000000e+00    0,000000000e+00
      380000000   -4,459978640e-02   -6,537653506e-02    7,269936204e-01    2,120327353e-01    0,000000000e+00    0,000000000e+00    0,000000000e+00    0,000000000e+00
      394000000   -6,631582975e-02   -5,056570843e-02    7,236676216e-01   -2,131263912e-01    0,000000000e+00    0,000000000e+00    0,000000000e+00    0,000000000e+00
      408000000   -6,739041209e-02   -2,623119950e-02    4,904294610e-01   -5,683766007e-01    0,000000000e+00    0,000000000e+00    0,000000000e+00    0,000000000e+00
      422000000   -5,318320915e-02   -1,536050066e-02    1,054211259e-01   -7,389659286e-01    0,000000000e+00    0,000000000e+00    0,000000000e+00    0,000000000e+00
      436000000   -4,645610973e-02   -1,871121675e-02   -3,063041866e-01   -6,755633950e-01    0,000000000e+00    0,000000000e+00    0,000000000e+00    0,000000000e+00
      450000000   -5,204303190e-02   -1,544077788e-02   -6,190715432e-01   -3,999600410e-01    0,000000000e+00    0,000000000e+00    0,000000000e+00    0,000000000e+00
      464000000   -5,039249361e-02    5,561367143e-03   -7,300354242e-01    3,175756196e-03    0,000000000e+00    0,000000000e+00    0,000000000e+00    0,000000000e+00
      478000000   -2,029147930e-02    2,657715231e-02   -5,989207029e-01    3,971579969e-01    0,000000000e+00    0,000000000e+00    0,000000000e+00    0,000000000e+00
      492000000    2,823243290e-02    1,465701126e-02   -2,801247835e-01    6,443377137e-01    0,000000000e+00    0,000000000e+00    0,000000000e+00    0,000000000e+00
      506000000    5,895743519e-02   -3,740235791e-02    1,050247028e-01    6,801626682e-01    0,000000000e+00    0,000000000e+00    0,000000000e+00    0,000000000e+00
      520000000    4,443189874e-02   -1,028738618e-01    4,418515861e-01    5,176046491e-01    0,000000000e+00    0,000000000e+00    0,000000000e+00    0,000000000e+00
      534000000   -1,293559931e-02   -1,437570304e-01    6,490026116e-01    2,060647309e-01    0,000000000e+00    0,000000000e+00    0,000000000e+00    0,000000000e+00
      548000000   -8,147969842e-02   -1,395246834e-01    6,599040627e-01   -1,759569049e-01    0,000000000e+00    0,000000000e+00    0,000000000e+00    0,000000000e+00
      562000000   -1,311958134e-01   -9,826706350e-02    4,513672888e-01   -5,090861320e-01    0,000000000e+00    0,000000000e+00    0,000000000e+00    0,000000000e+00
      576000000   -1,495913118e-01   -3,887955472e-02    8,123503625e-02   -6,606153846e-01    0,000000000e+00    0,000000000e+00    0,000000000e+00    0,000000000e+00
      590000000   -1,300439239e-01    2,867934294e-02   -2,933889031e-01   -5,649626851e-01    0,000000000e+00    0,000000000e+00    0,000000000e+00    0,000000000e+00
      604000000   -4,004206508e-02    6,871291995e-02   -4,898741543e-01   -2,706726193e-01    0,000000000e+00    0,000000000e+00    0,000000000e+00    0,000000000e+00
      618000000    3,544971347e-02   -2,760538273e-02   -4,933320284e-01   -4,721251875e-02    0,000000000e+00    0,000000000e+00    0,000000000e+00    0,000000000e+00
      632000000   -5,043625087e-02   -9,376461059e-02   -5,232660770e-01    1,766183823e-01    0,000000000e+00    0,000000000e+00    0,000000000e+00    0,000000000e+00
      646000000   -1,006501317e-01   -3,561410308e-02   -3,793914318e-01    4,759894907e-01    0,000000000e+00    0,000000000e+00    0,000000000e+00    0,000000000e+00
      660000000   -6,964658201e-02    9,737072513e-03   -5,171904340e-02    6,245301366e-01    0,000000000e+00    0,000000000e+00    0,000000000e+00    0,000000000e+00
      674000000   -3,025094233e-02    4,840260837e-03    2,980702221e-01    5,536543727e-01    0,000000000e+00    0,000000000e+00    0,000000000e+00    0,000000000e+00
      688000000   -1,597317122e-02   -1,765997708e-02    5,474623442e-01    3,032565713e-01    0,000000000e+00    0,000000000e+00    0,000000000e+00    0,000000000e+00
      702000000   -1,343598031e-02   -3,391280398e-02    6,189407706e-01   -3,763800859e-02    0,000000000e+00    0,000000000e+00    0,000000000e+00    0,000000000e+00
      716000000   -1,014376152e-02   -4,776790366e-02    4,926870763e-01   -3,681077361e-01    0,000000000e+00    0,000000000e+00    0,000000000e+00    0,000000000e+00
      730000000   -7,581234444e-03   -7,448290288e-02    2,117238492e-01   -5,682446361e-01    0,000000000e+00    0,000000000e+00    0,000000000e+00    0,000000000e+00
      744000000   -2,529820800e-02   -1,105144322e-01   -1,241357252e-01   -5,882425308e-01    0,000000000e+00    0,000000000e+00    0,000000000e+00    0,000000000e+00
      758000000   -7,465422899e-02   -1,323428154e-01   -4,194067121e-01   -4,329207838e-01    0,000000000e+00    0,000000000e+00    0,000000000e+00    0,000000000e+00
      772000000   -1,357630938e-01   -1,154398993e-01   -5,942170024e-01   -1,403994113e-01    0,000000000e+00    0,000000000e+00    0,000000000e+00    0,000000000e+00
      786000000   -1,712939888e-01   -5,884524435e-02   -5,822240114e-01    2,099487484e-01    0,000000000e+00    0,000000000e+00    0,000000000e+00    0,000000000e+00
      800000000   -1,595393270e-01    7,008826360e-03   -3,724402785e-01    4,959922433e-01    0,000000000e+00    0,000000000e+00    0,000000000e+00    0,000000000e+00
      814000000   -1,144834980e-01    4,339048639e-02   -4,463613778e-02    6,151421666e-01    0,000000000e+00    0,000000000e+00    0,000000000e+00    0,000000000e+00
      828000000   -6,829380244e-02    4,373111576e-02    2,859691083e-01    5,405791402e-01    0,000000000e+00    0,000000000e+00    0,000000000e+00    0,000000000e+00
      842000000   -3,831183165e-02    2,903507836e-02    5,207976699e-01    3,061826825e-01    0,000000000e+00    0,000000000e+00    0,000000000e+00    0,000000000e+00
      856000000   -1,868193783e-02    1,161999442e-02    5,946847200e-01   -1,378089841e-02    0,000000000e+00    0,000000000e+00    0,000000000e+00    0,000000000e+00
      870000000    2,055975376e-03   -1,154286880e-02    4,867642224e-01   -3,174144030e-01    0,000000000e+00    0,000000000e+00    0,000000000e+00    0,000000000e+00
      884000000    1,334302872e-02   -5,074519664e-02    2,425204515e-01   -5,116862059e-01    0,000000000e+00    0,000000000e+00    0,000000000e+00    0,000000000e+00
      898000000   -3,578600474e-03   -1,018874124e-01   -5,767964199e-02   -5,562020540e-01    0,000000000e+00    0,000000000e+00    0,000000000e+00    0,000000000e+00
      912000000   -6,146083400e-02   -1,322636306e-01   -3,916245997e-01   -4,093927443e-01    0,000000000e+00    0,000000000e+00    0,000000000e+00    0,000000000e+00
      926000000   -1,244333833e-01   -1,172038764e-01   -5,652050376e-01   -1,466702074e-01    0,000000000e+00    0,000000000e+00    0,000000000e+00    0,000000000e+00
      940000000   -1,625818312e-01   -6,145754829e-02   -5,688412189e-01    1,925117075e-01    0,000000000e+00    0,000000000e+00    0,000000000e+00    0,000000000e+00
      954000000   -1,493169218e-01    2,015803038e-04   -3,755904436e-01    4,853287339e-01    0,000000000e+00    0,000000000e+00    0,000000000e+00    0,000000000e+00
      968000000   -1,010568514e-01    2,371536009e-02   -5,268323794e-02    6,136829853e-01    0,000000000e+00    0,000000000e+00    0,000000000e+00    0,000000000e+00
      982000000   -5,521120504e-02    8,417607285e-03    2,803019881e-01    5,492711067e-01    0,000000000e+00    0,000000000e+00    0,000000000e+00    0,000000000e+00
      996000000   -4,172805697e-02   -3,487865254e-02    5,245338678e-01    3,277216554e-01    0,000000000e+00    0,000000000e+00    0,000000000e+00    0,000000000e+00
     1010000000   -6,498107314e-02   -6,769812852e-02    6,074160933e-01    1,535003446e-02    0,000000000e+00    0,000000000e+00    0,000000000e+00    0,000000000e+00
     1024000000   -9,961693734e-02   -7,506956905e-02    5,151730776e-01   -2,805145979e-01    0,000000000e+00    0,000000000e+00    0,000000000e+00    0,000000000e+00
     1038000000   -1,388047636e-01   -5,765556172e-02    2,948062420e-01   -4,722765684e-01    0,000000000e+00    0,000000000e+00    0,000000000e+00    0,000000000e+00
     1052000000   -1,488163620e-01   -1,040048199e-03    3,434910998e-02   -5,260104537e-01    0,000000000e+00    0,000000000e+00    0,000000000e+00    0,000000000e+00
     1066000000   -1,036063731e-01    4,341042042e-02   -2,163213342e-01   -4,644453824e-01    0,000000000e+00    0,000000000e+00    0,000000000e+00    0,000000000e+00
     1080000000   -5,196663365e-02    2,399478480e-02   -4,170817137e-01   -2,972198129e-01    0,000000000e+00    0,000000000e+00    0,000000000e+00    0,000000000e+00
     1094000000   -3,850835562e-02   -6,972105242e-03   -5,193974376e-01   -2,391057648e-02    0,000000000e+00    0,000000000e+00    0,000000000e+00    0,000000000e+00
     1108000000   -3,051320836e-02   -3,069434687e-02   -4,429962039e-01    2,849358916e-01    0,000000000e+00    0,000000000e+00    0,000000000e+00    0,000000000e+00
     1122000000   -3,115953878e-02   -6,081897393e-02   -1,861393601e-01    4,966990352e-01    0,000000000e+00    0,000000000e+00    0,000000000e+00    0,000000000e+00
     1136000000   -4,151124507e-02   -9,628751874e-02    1,520625204e-01    5,180777907e-01    0,000000000e+00    0,000000000e+00    0,000000000e+00    0,000000000e+00
     1150000000   -8,669316769e-02   -1,257465035e-01    4,545801878e-01    3,436257243e-01    0,000000000e+00    0,000000000e+00    0,000000000e+00    0,000000000e+00
     1164000000   -1,375607252e-01   -1,244922206e-01    6,120688319e-01    9,012068622e-03    0,000000000e+00    0,000000000e+00    0,000000000e+00    0,000000000e+00
     1178000000   -1,772210151e-01   -8,292498440e-02    5,410308838e-01   -3,741385937e-01    0,000000000e+00    0,000000000e+00    0,000000000e+00    0,000000000e+00
     1192000000   -1,811256856e-01   -5,441366509e-02    2,389040887e-01   -6,401237845e-01    0,000000000e+00    0,000000000e+00    0,000000000e+00    0,000000000e+00
     1206000000   -1,870191842e-01   -5,423375964e-02   -1,391910166e-01   -6,573685408e-01    0,000000000e+00    0,000000000e+00    0,000000000e+00    0,000000000e+00
     1220000000   -2,537043989e-01   -1,249476708e-02   -4,174063802e-01   -4,840613604e-01    0,000000000e+00    0,000000000e+00    0,000000000e+00    0,000000000e+00
     1234000000   -2,391299605e-01    1,108340696e-01   -5,543406606e-01   -2,526356578e-01    0,000000000e+00    0,000000000e+00    0,000000000e+00    0,000000000e+00
     1248000000   -1,125986502e-01    1,779274046e-01   -6,016139984e-01    2,074657939e-02    0,000000000e+00    0,000000000e+00    0,000000000e+00    0,000000000e+00
     1262000000   -5,915460177e-03    1,374662668e-01   -5,089883208e-01    2,955894172e-01    0,000000000e+00    0,000000000e+00    0,000000000e+00    0,000000000e+00
     1276000000    5,819647014e-02    3,910617158e-02   -2,833818197e-01    4,867357016e-01    0,000000000e+00    0,000000000e+00    0,000000000e+00    0,000000000e+00
     1290000000    7,334719598e-02   -6,693293154e-02    1,113061793e-02    5,501376987e-01    0,000000000e+00    0,000000000e+00    0,000000000e+00    0,000000000e+00
     1304000000    1,426690258e-02   -1,781848073e-01    2,994265258e-01    4,802140892e-01    0,000000000e+00    0,000000000e+00    0,000000000e+00    0,000000000e+00
     1318000000   -9,420296550e-02   -2,504805326e-01    5,346685648e-01    2,680413425e-01    0,000000000e+00    0,000000000e+00    0,000000000e+00    0,000000000e+00
     1332000000   -2,400681376e-01   -2,437070161e-01    6,507067084e-01   -5,214680359e-02    0,000000000e+00    0,000000000e+00    0,000000000e+00    0,000000000e+00
     1346000000   -3,623587191e-01   -1,441179514e-01    5,589158535e-01   -4,128012359e-01    0,000000000e+00    0,000000000e+00    0,000000000e+00    0,000000000e+00
     1360000000   -3,877821267e-01    7,140344474e-03    2,422339618e-01   -6,347981691e-01    0,000000000e+00    0,000000000e+00    0,000000000e+00    0,000000000e+00
     1374000000   -3,259859979e-01    1,212742105e-01   -1,058033928e-01   -6,203360558e-01    0,000000000e+00    0,000000000e+00    0,000000000e+00    0,000000000e+00
     1388000000   -2,366353720e-01    1,668953598e-01   -3,769660294e-01   -4,227389395e-01    0,000000000e+00    0,000000000e+00    0,000000000e+00    0,000000000e+00
     1402000000   -1,504126042e-01    1,691673845e-01   -4,798805416e-01   -1,044207886e-01    0,000000000e+00    0,000000000e+00    0,000000000e+00    0,000000000e+00
     1416000000   -8,248011768e-02    1,402430683e-01   -3,950644135e-01    2,045453936e-01    0,000000000e+00    0,000000000e+00    0,000000000e+00    0,000000000e+00
     1430000000   -3,529194742e-02    8,466962725e-02   -1,504901648e-01    4,131837487e-01    0,000000000e+00    0,000000000e+00    0,000000000e+00    0,000000000e+00
     1444000000   -1,543567609e-02    5,783098750e-03    1,154182777e-01    5,249924064e-01    0,000000000e+00    0,000000000e+00    0,000000000e+00    0,000000000e+00
     1458000000   -3,610306978e-02   -8,160287142e-02    4,436910450e-01    5,129670501e-01    0,000000000e+00    0,000000000e+00    0,000000000e+00    0,000000000e+00
     1472000000   -1,176501513e-01   -1,467029303e-01    7,351310849e-01    3,120003045e-01    0,000000000e+00    0,000000000e+00    0,000000000e+00    0,000000000e+00
     1486000000   -2,378475666e-01   -1,482651383e-01    8,923472762e-01   -3,130385280e-02    0,000000000e+00    0,000000000e+00    0,000000000e+00    0,000000000e+00
     1500000000   -3,021792173e-01   -6,145268306e-02    8,499773145e-01   -4,302044213e-01    0,000000000e+00    0,000000000e+00    0,000000000e+00    0,000000000e+00
