! NanoVNA-App
! Date: 2025-09-25 14:57:21
! Start: 100MHz Stop: 1,5GHz Points: 101
! S-Parameter data: F S11 S21 S12 S22
# Hz S RI R 50
!     Frequency           S11_Real           S11_Imag           S21_Real           S21_Imag           S12_Real           S12_Imag           S22_Real           S22_Imag
      100000000    3,560173512e-02    2,733342350e-02    4,407082200e-01   -6,695172191e-01    0,000000000e+00    0,000000000e+00    0,000000000e+00    0,000000000e+00
      114000000    6,068180874e-02    2,170000691e-03    1,297383197e-02   -7,953226566e-01    0,000000000e+00    0,000000000e+00    0,000000000e+00    0,000000000e+00
      128000000    6,840787083e-02   -4,223879427e-02   -4,081792235e-01   -6,781471968e-01    0,000000000e+00    0,000000000e+00    0,000000000e+00    0,000000000e+00
      142000000    4,349304736e-02   -8,877403289e-02   -7,053235173e-01   -3,609996438e-01    0,000000000e+00    0,000000000e+00    0,000000000e+00    0,000000000e+00
      156000000   -8,638712578e-03   -1,103780791e-01   -7,941501737e-01    6,832925230e-02    0,000000000e+00    0,000000000e+00    0,000000000e+00    0,000000000e+00
      170000000   -6,264258176e-02   -9,183665365e-02   -6,369906068e-01    4,863813519e-01    0,000000000e+00    0,000000000e+00    0,000000000e+00    0,000000000e+00
      184000000   -8,857684582e-02   -4,766495898e-02   -2,728924453e-01    7,561109066e-01    0,000000000e+00    0,000000000e+00    0,000000000e+00    0,000000000e+00
      198000000   -8,273036033e-02   -6,391128059e-03    1,794584543e-01    7,820191979e-01    0,000000000e+00    0,000000000e+00    0,000000000e+00    0,000000000e+00
      212000000   -6,265756488e-02    1,804772019e-02    5,707855821e-01    5,583370328e-01    0,000000000e+00    0,000000000e+00    0,000000000e+00    0,000000000e+00
      226000000   -4,142375663e-02    3,193235397e-02    7,764942050e-01    1,619099528e-01    0,000000000e+00    0,000000000e+00    0,000000000e+00    0,000000000e+00
      240000000   -1,477509644e-02    4,123589769e-02    7,358615994e-01   -2,786149979e-01    0,000000000e+00    0,000000000e+00    0,000000000e+00    0,000000000e+00
      254000000    2,149059065e-02    3,626895696e-02    4,680105746e-01   -6,217765808e-01    0,000000000e+00    0,000000000e+00    0,000000000e+00    0,000000000e+00
      268000000    5,329483747e-02    4,619880114e-03    6,693532318e-02   -7,671083808e-01    0,000000000e+00    0,000000000e+00    0,000000000e+00    0,000000000e+00
      282000000    5,749193206e-02   -4,498786479e-02   -3,457331657e-01   -6,819883585e-01    0,000000000e+00    0,000000000e+00    0,000000000e+00    0,000000000e+00
      296000000    2,597356960e-02   -8,478231728e-02   -6,546223760e-01   -3,978732824e-01    0,000000000e+00    0,000000000e+00    0,000000000e+00    0,000000000e+00
      310000000   -1,906475611e-02   -8,946979791e-02   -7,746486664e-01    1,000334788e-02    0,000000000e+00    0,000000000e+00    0,000000000e+00    0,000000000e+00
      324000000   -4,654608667e-02   -6,351236254e-02   -6,473919749e-01    4,296870232e-01    0,000000000e+00    0,000000000e+00    0,000000000e+00    0,000000000e+00
      338000000   -4,156001285e-02   -3,775121644e-02   -3,091690242e-01    7,070779800e-01    0,000000000e+00    0,000000000e+00    0,000000000e+00    0,000000000e+00
      352000000   -2,336101234e-02   -3,750057518e-02    1,197761893e-01    7,586831450e-01    0,000000000e+00    0,000000000e+00    0,000000000e+00    0,000000000e+00
      366000000   -2,296212688e-02   -5,574841425e-02    5,034291148e-01    5,721092224e-01    0,000000000e+00    0,000000000e+00    0,000000000e+00    0,000000000e+00
      380000000   -4,452622309e-02   -6,520482153e-02    7,264337540e-01    2,113943696e-01    0,000000000e+00    0,000000000e+00    0,000000000e+00    0,000000000e+00
      394000000   -6,612134725e-02   -5,036802962e-02    7,229277492e-01   -2,129701525e-01    0,000000000e+00    0,000000000e+00    0,000000000e+00    0,000000000e+00
      408000000   -6,717224419e-02   -2,646370605e-02    4,893701375e-01   -5,682355762e-01    0,000000000e+00    0,000000000e+00    0,000000000e+00    0,000000000e+00
      422000000   -5,295773596e-02   -1,524802204e-02    1,053549647e-01   -7,378591895e-01    0,000000000e+00    0,000000000e+00    0,000000000e+00    0,000000000e+00
      436000000   -4,603611678e-02   -1,865484752e-02   -3,060548306e-01   -6,754495502e-01    0,000000000e+00    0,000000000e+00    0,000000000e+00    0,000000000e+00
      450000000   -5,179684982e-02   -1,571081951e-02   -6,181139350e-01   -4,003267288e-01    0,000000000e+00    0,000000000e+00    0,000000000e+00    0,000000000e+00
      464000000   -5,021642894e-02    5,343581550e-03   -7,293450832e-01    2,818201901e-03    0,000000000e+00    0,000000000e+00    0,000000000e+00    0,000000000e+00
      478000000   -2,134411409e-02    2,582604438e-02   -5,985906124e-01    3,959973752e-01    0,000000000e+00    0,000000000e+00    0,000000000e+00    0,000000000e+00
      492000000    2,738550864e-02    1,452290080e-02   -2,814809680e-01    6,433011293e-01    0,000000000e+00    0,000000000e+00    0,000000000e+00    0,000000000e+00
      506000000    5,790441483e-02   -3,659779951e-02    1,041070893e-01    6,795743108e-01    0,000000000e+00    0,000000000e+00    0,000000000e+00    0,000000000e+00
      520000000    4,319682345e-02   -1,017069072e-01    4,428161979e-01    5,182434320e-01    0,000000000e+00    0,000000000e+00    0,000000000e+00    0,000000000e+00
      534000000   -1,156712230e-02   -1,414236128e-01    6,497885585e-01    2,079335749e-01    0,000000000e+00    0,000000000e+00    0,000000000e+00    0,000000000e+00
      548000000   -7,870813459e-02   -1,378040612e-01    6,617396474e-01   -1,732210219e-01    0,000000000e+00    0,000000000e+00    0,000000000e+00    0,000000000e+00
      562000000   -1,256936640e-01   -9,883093834e-02    4,559591413e-01   -5,077291131e-01    0,000000000e+00    0,000000000e+00    0,000000000e+00    0,000000000e+00
      576000000   -1,435934156e-01   -4,568929970e-02    9,040290862e-02   -6,654850245e-01    0,000000000e+00    0,000000000e+00    0,000000000e+00    0,000000000e+00
      590000000   -1,347550601e-01    1,223327406e-02   -2,956192493e-01   -5,841593146e-01    0,000000000e+00    0,000000000e+00    0,000000000e+00    0,000000000e+00
      604000000   -7,363734394e-02    6,699049473e-02   -5,280632377e-01   -2,803763151e-01    0,000000000e+00    0,000000000e+00    0,000000000e+00    0,000000000e+00
      618000000    3,719567880e-02    2,498997748e-02   -5,020266175e-01    1,466042828e-02    0,000000000e+00    0,000000000e+00    0,000000000e+00    0,000000000e+00
      632000000   -1,401149668e-03   -1,037259325e-01   -4,650710523e-01    1,718722731e-01    0,000000000e+00    0,000000000e+00    0,000000000e+00    0,000000000e+00
      646000000   -1,035918295e-01   -6,804168224e-02   -3,803352714e-01    4,400334656e-01    0,000000000e+00    0,000000000e+00    0,000000000e+00    0,000000000e+00
      660000000   -8,799018711e-02    2,500827890e-03   -7,103240490e-02    6,162663698e-01    0,000000000e+00    0,000000000e+00    0,000000000e+00    0,000000000e+00
      674000000   -4,117937386e-02    1,253074780e-02    2,870800793e-01    5,591054559e-01    0,000000000e+00    0,000000000e+00    0,000000000e+00    0,000000000e+00
      688000000   -1,712992787e-02   -9,276072495e-03    5,439038277e-01    3,115077615e-01    0,000000000e+00    0,000000000e+00    0,000000000e+00    0,000000000e+00
      702000000   -1,023854036e-02   -2,945096418e-02    6,192608476e-01   -3,704187274e-02    0,000000000e+00    0,000000000e+00    0,000000000e+00    0,000000000e+00
      716000000   -5,034533329e-03   -4,778542370e-02    4,965901673e-01   -3,644845784e-01    0,000000000e+00    0,000000000e+00    0,000000000e+00    0,000000000e+00
      730000000   -2,791172592e-03   -7,723107189e-02    2,168254405e-01   -5,682189465e-01    0,000000000e+00    0,000000000e+00    0,000000000e+00    0,000000000e+00
      744000000   -2,525789477e-02   -1,147589236e-01   -1,211535409e-01   -5,908728838e-01    0,000000000e+00    0,000000000e+00    0,000000000e+00    0,000000000e+00
      758000000   -7,558568567e-02   -1,359034181e-01   -4,198477268e-01   -4,381001294e-01    0,000000000e+00    0,000000000e+00    0,000000000e+00    0,000000000e+00
      772000000   -1,386221200e-01   -1,176863834e-01   -5,965814590e-01   -1,434785575e-01    0,000000000e+00    0,000000000e+00    0,000000000e+00    0,000000000e+00
      786000000   -1,745664328e-01   -5,695140362e-02   -5,854409933e-01    2,096305341e-01    0,000000000e+00    0,000000000e+00    0,000000000e+00    0,000000000e+00
      800000000   -1,600390971e-01    1,058599446e-02   -3,764472306e-01    4,982097745e-01    0,000000000e+00    0,000000000e+00    0,000000000e+00    0,000000000e+00
      814000000   -1,123919263e-01    4,561030492e-02   -4,474843666e-02    6,171287894e-01    0,000000000e+00    0,000000000e+00    0,000000000e+00    0,000000000e+00
      828000000   -6,480574608e-02    4,475142807e-02    2,874904275e-01    5,433186293e-01    0,000000000e+00    0,000000000e+00    0,000000000e+00    0,000000000e+00
      842000000   -3,563626111e-02    2,602359839e-02    5,238785148e-01    3,069507778e-01    0,000000000e+00    0,000000000e+00    0,000000000e+00    0,000000000e+00
      856000000   -1,787998341e-02    8,017517626e-03    5,967077613e-01   -1,456109807e-02    0,000000000e+00    0,000000000e+00    0,000000000e+00    0,000000000e+00
      870000000   -8,893564809e-04   -1,386142988e-02    4,887557030e-01   -3,197314441e-01    0,000000000e+00    0,000000000e+00    0,000000000e+00    0,000000000e+00
      884000000    9,143539704e-03   -5,151191354e-02    2,423845679e-01   -5,153127313e-01    0,000000000e+00    0,000000000e+00    0,000000000e+00    0,000000000e+00
      898000000   -7,155282889e-03   -9,864541888e-02   -6,146330386e-02   -5,562605858e-01    0,000000000e+00    0,000000000e+00    0,000000000e+00    0,000000000e+00
      912000000   -6,232857332e-02   -1,266307980e-01   -3,941792250e-01   -4,253280461e-01    0,000000000e+00    0,000000000e+00    0,000000000e+00    0,000000000e+00
      926000000   -1,206174418e-01   -1,177440137e-01   -5,664250851e-01   -1,476530284e-01    0,000000000e+00    0,000000000e+00    0,000000000e+00    0,000000000e+00
      940000000   -1,565069109e-01   -6,455525011e-02   -5,662444830e-01    1,944894642e-01    0,000000000e+00    0,000000000e+00    0,000000000e+00    0,000000000e+00
      954000000   -1,429672688e-01   -4,690667149e-03   -3,727721274e-01    4,837402999e-01    0,000000000e+00    0,000000000e+00    0,000000000e+00    0,000000000e+00
      968000000   -1,001436040e-01    2,156529203e-02   -5,260959640e-02    6,160063148e-01    0,000000000e+00    0,000000000e+00    0,000000000e+00    0,000000000e+00
      982000000   -6,227461621e-02    5,298441742e-03    2,811502814e-01    5,530998707e-01    0,000000000e+00    0,000000000e+00    0,000000000e+00    0,000000000e+00
      996000000   -5,027266219e-02   -3,046459518e-02    5,245573521e-01    3,274517059e-01    0,000000000e+00    0,000000000e+00    0,000000000e+00    0,000000000e+00
     1010000000   -6,204668432e-02   -6,003929302e-02    6,096464396e-01    1,128678117e-02    0,000000000e+00    0,000000000e+00    0,000000000e+00    0,000000000e+00
     1024000000   -9,727396816e-02   -6,809001416e-02    5,173065066e-01   -2,857860923e-01    0,000000000e+00    0,000000000e+00    0,000000000e+00    0,000000000e+00
     1038000000   -1,337143332e-01   -5,837173760e-02    2,952046394e-01   -4,755127728e-01    0,000000000e+00    0,000000000e+00    0,000000000e+00    0,000000000e+00
     1052000000   -1,434263736e-01   -8,883098140e-03    2,969570272e-02   -5,309710503e-01    0,000000000e+00    0,000000000e+00    0,000000000e+00    0,000000000e+00
     1066000000   -1,129019037e-01    2,587827668e-02   -2,206289023e-01   -4,632943273e-01    0,000000000e+00    0,000000000e+00    0,000000000e+00    0,000000000e+00
     1080000000   -6,249313802e-02    3,253346309e-02   -4,215341210e-01   -2,861578465e-01    0,000000000e+00    0,000000000e+00    0,000000000e+00    0,000000000e+00
     1094000000   -3,473486751e-02    6,229176186e-03   -5,113483071e-01   -1,697723940e-02    0,000000000e+00    0,000000000e+00    0,000000000e+00    0,000000000e+00
     1108000000   -2,601737529e-02   -2,327169664e-02   -4,320573211e-01    2,845169008e-01    0,000000000e+00    0,000000000e+00    0,000000000e+00    0,000000000e+00
     1122000000   -2,578295767e-02   -5,715488642e-02   -1,816477925e-01    4,874370396e-01    0,000000000e+00    0,000000000e+00    0,000000000e+00    0,000000000e+00
     1136000000   -4,374025390e-02   -9,726116806e-02    1,505644768e-01    5,142970681e-01    0,000000000e+00    0,000000000e+00    0,000000000e+00    0,000000000e+00
     1150000000   -8,160438389e-02   -1,282843947e-01    4,477422833e-01    3,417544365e-01    0,000000000e+00    0,000000000e+00    0,000000000e+00    0,000000000e+00
     1164000000   -1,415103227e-01   -1,309274584e-01    6,012793779e-01    1,679918170e-02    0,000000000e+00    0,000000000e+00    0,000000000e+00    0,000000000e+00
     1178000000   -1,768562198e-01   -9,055694193e-02    5,357632637e-01   -3,636476696e-01    0,000000000e+00    0,000000000e+00    0,000000000e+00    0,000000000e+00
     1192000000   -1,867178530e-01   -5,429899693e-02    2,430730909e-01   -6,258377433e-01    0,000000000e+00    0,000000000e+00    0,000000000e+00    0,000000000e+00
     1206000000   -1,932727993e-01   -5,368278921e-02   -1,339610517e-01   -6,594942212e-01    0,000000000e+00    0,000000000e+00    0,000000000e+00    0,000000000e+00
     1220000000   -2,465758473e-01   -2,049052529e-02   -4,126515687e-01   -4,883273840e-01    0,000000000e+00    0,000000000e+00    0,000000000e+00    0,000000000e+00
     1234000000   -2,357263565e-01    1,094358414e-01   -5,569357276e-01   -2,448607534e-01    0,000000000e+00    0,000000000e+00    0,000000000e+00    0,000000000e+00
     1248000000   -1,198423505e-01    1,781336069e-01   -6,012762785e-01    1,890406199e-02    0,000000000e+00    0,000000000e+00    0,000000000e+00    0,000000000e+00
     1262000000   -1,032359782e-03    1,364385635e-01   -5,045843720e-01    2,991649210e-01    0,000000000e+00    0,000000000e+00    0,000000000e+00    0,000000000e+00
     1276000000    6,091507524e-02    3,893844411e-02   -2,797624767e-01    4,833523929e-01    0,000000000e+00    0,000000000e+00    0,000000000e+00    0,000000000e+00
     1290000000    6,969443709e-02   -6,774567813e-02    5,197114660e-04    5,523989201e-01    0,000000000e+00    0,000000000e+00    0,000000000e+00    0,000000000e+00
     1304000000    2,032909170e-02   -1,827917844e-01    3,028714955e-01    4,800112545e-01    0,000000000e+00    0,000000000e+00    0,000000000e+00    0,000000000e+00
     1318000000   -9,606499970e-02   -2,542052865e-01    5,319187641e-01    2,718479037e-01    0,000000000e+00    0,000000000e+00    0,000000000e+00    0,000000000e+00
     1332000000   -2,403178513e-01   -2,493145168e-01    6,577187777e-01   -5,504531786e-02    0,000000000e+00    0,000000000e+00    0,000000000e+00    0,000000000e+00
     1346000000   -3,635022640e-01   -1,426579505e-01    5,644981265e-01   -4,115443528e-01    0,000000000e+00    0,000000000e+00    0,000000000e+00    0,000000000e+00
     1360000000   -3,847028017e-01    1,072292309e-02    2,644476593e-01   -6,368106604e-01    0,000000000e+00    0,000000000e+00    0,000000000e+00    0,000000000e+00
     1374000000   -3,256755769e-01    1,208725199e-01   -1,022598669e-01   -6,199581027e-01    0,000000000e+00    0,000000000e+00    0,000000000e+00    0,000000000e+00
     1388000000   -2,360712886e-01    1,720568538e-01   -3,690756261e-01   -4,160168171e-01    0,000000000e+00    0,000000000e+00    0,000000000e+00    0,000000000e+00
     1402000000   -1,535088271e-01    1,712749451e-01   -4,721002579e-01   -1,101863608e-01    0,000000000e+00    0,000000000e+00    0,000000000e+00    0,000000000e+00
     1416000000   -8,012652397e-02    1,442802101e-01   -3,921479285e-01    2,054937184e-01    0,000000000e+00    0,000000000e+00    0,000000000e+00    0,000000000e+00
     1430000000   -3,291704133e-02    8,681578934e-02   -1,850065589e-01    4,171682000e-01    0,000000000e+00    0,000000000e+00    0,000000000e+00    0,000000000e+00
     1444000000   -8,586320095e-03    3,111544065e-03    1,219958439e-01    5,169971585e-01    0,000000000e+00    0,000000000e+00    0,000000000e+00    0,000000000e+00
     1458000000   -3,479519486e-02   -8,596996218e-02    4,468074739e-01    4,921114445e-01    0,000000000e+00    0,000000000e+00    0,000000000e+00    0,000000000e+00
     1472000000   -1,256590486e-01   -1,467245221e-01    7,311784029e-01    3,088762760e-01    0,000000000e+00    0,000000000e+00    0,000000000e+00    0,000000000e+00
     1486000000   -2,342057824e-01   -1,477295160e-01    9,017393589e-01   -4,218552634e-02    0,000000000e+00    0,000000000e+00    0,000000000e+00    0,000000000e+00
     1500000000   -3,018264174e-01   -6,249335408e-02    8,473541737e-01   -4,121873975e-01    0,000000000e+00    0,000000000e+00    0,000000000e+00    0,000000000e+00
