! NanoVNA-App
! Date: 2025-09-25 14:56:14
! Start: 100MHz Stop: 1,5GHz Points: 101
! S-Parameter data: F S11 S21 S12 S22
# Hz S RI R 50
!     Frequency           S11_Real           S11_Imag           S21_Real           S21_Imag           S12_Real           S12_Imag           S22_Real           S22_Imag
      100000000    3,561196476e-02    2,698166855e-02    4,406675696e-01   -6,696037054e-01    0,000000000e+00    0,000000000e+00    0,000000000e+00    0,000000000e+00
      114000000    6,055520847e-02    1,756280195e-03    1,282903645e-02   -7,955473661e-01    0,000000000e+00    0,000000000e+00    0,000000000e+00    0,000000000e+00
      128000000    6,795670837e-02   -4,256643355e-02   -4,082939327e-01   -6,779930592e-01    0,000000000e+00    0,000000000e+00    0,000000000e+00    0,000000000e+00
      142000000    4,280306026e-02   -8,886568993e-02   -7,055351138e-01   -3,608841300e-01    0,000000000e+00    0,000000000e+00    0,000000000e+00    0,000000000e+00
      156000000   -1,054404397e-02   -1,091125980e-01   -7,925752401e-01    6,754121929e-02    0,000000000e+00    0,000000000e+00    0,000000000e+00    0,000000000e+00
      170000000   -6,321955472e-02   -9,098094702e-02   -6,367601156e-01    4,866027236e-01    0,000000000e+00    0,000000000e+00    0,000000000e+00    0,000000000e+00
      184000000   -8,866857737e-02   -4,663113132e-02   -2,729087174e-01    7,562974095e-01    0,000000000e+00    0,000000000e+00    0,000000000e+00    0,000000000e+00
      198000000   -8,218409866e-02   -5,413030740e-03    1,797790974e-01    7,822777033e-01    0,000000000e+00    0,000000000e+00    0,000000000e+00    0,000000000e+00
      212000000   -6,163430959e-02    1,864020340e-02    5,708600283e-01    5,582579374e-01    0,000000000e+00    0,000000000e+00    0,000000000e+00    0,000000000e+00
      226000000   -4,014257714e-02    3,166903183e-02    7,765955925e-01    1,616874486e-01    0,000000000e+00    0,000000000e+00    0,000000000e+00    0,000000000e+00
      240000000   -1,382855698e-02    4,044081643e-02    7,361208797e-01   -2,788561583e-01    0,000000000e+00    0,000000000e+00    0,000000000e+00    0,000000000e+00
      254000000    2,191222273e-02    3,486409783e-02    4,678727090e-01   -6,220343113e-01    0,000000000e+00    0,000000000e+00    0,000000000e+00    0,000000000e+00
      268000000    5,294069275e-02    3,154796315e-03    6,638135761e-02   -7,677868009e-01    0,000000000e+00    0,000000000e+00    0,000000000e+00    0,000000000e+00
      282000000    5,625985935e-02   -4,612359032e-02   -3,459459841e-01   -6,824873090e-01    0,000000000e+00    0,000000000e+00    0,000000000e+00    0,000000000e+00
      296000000    2,438752912e-02   -8,503985405e-02   -6,558486819e-01   -3,977904320e-01    0,000000000e+00    0,000000000e+00    0,000000000e+00    0,000000000e+00
      310000000   -2,078518271e-02   -8,877622336e-02   -7,744129300e-01    1,005783770e-02    0,000000000e+00    0,000000000e+00    0,000000000e+00    0,000000000e+00
      324000000   -4,765815288e-02   -6,208498776e-02   -6,473440528e-01    4,292643368e-01    0,000000000e+00    0,000000000e+00    0,000000000e+00    0,000000000e+00
      338000000   -4,145471752e-02   -3,584624082e-02   -3,104802072e-01    7,103446126e-01    0,000000000e+00    0,000000000e+00    0,000000000e+00    0,000000000e+00
      352000000   -2,268938161e-02   -3,588977829e-02    1,204553470e-01    7,596771121e-01    0,000000000e+00    0,000000000e+00    0,000000000e+00    0,000000000e+00
      366000000   -2,161732502e-02   -5,508726463e-02    5,039142370e-01    5,710616708e-01    0,000000000e+00    0,000000000e+00    0,000000000e+00    0,000000000e+00
      380000000   -4,301407561e-02   -6,482993066e-02    7,258111835e-01    2,117299289e-01    0,000000000e+00    0,000000000e+00    0,000000000e+00    0,000000000e+00
      394000000   -6,476070732e-02   -5,122019351e-02    7,229734063e-01   -2,129544020e-01    0,000000000e+00    0,000000000e+00    0,000000000e+00    0,000000000e+00
      408000000   -6,648480147e-02   -2,776614390e-02    4,890057743e-01   -5,686531067e-01    0,000000000e+00    0,000000000e+00    0,000000000e+00    0,000000000e+00
      422000000   -5,293589458e-02   -1,741285622e-02    1,060402021e-01   -7,389479280e-01    0,000000000e+00    0,000000000e+00    0,000000000e+00    0,000000000e+00
      436000000   -4,688363150e-02   -2,051377669e-02   -3,058262765e-01   -6,763138771e-01    0,000000000e+00    0,000000000e+00    0,000000000e+00    0,000000000e+00
      450000000   -5,406989530e-02   -1,631821692e-02   -6,203601360e-01   -3,994753659e-01    0,000000000e+00    0,000000000e+00    0,000000000e+00    0,000000000e+00
      464000000   -5,239005759e-02    5,629223306e-03   -7,299893498e-01    3,411086276e-03    0,000000000e+00    0,000000000e+00    0,000000000e+00    0,000000000e+00
      478000000   -2,254736237e-02    2,676413953e-02   -5,992571115e-01    3,974674642e-01    0,000000000e+00    0,000000000e+00    0,000000000e+00    0,000000000e+00
      492000000    2,693399601e-02    1,630749553e-02   -2,813094556e-01    6,456051469e-01    0,000000000e+00    0,000000000e+00    0,000000000e+00    0,000000000e+00
      506000000    5,875023454e-02   -3,481229767e-02    1,043566689e-01    6,821411252e-01    0,000000000e+00    0,000000000e+00    0,000000000e+00    0,000000000e+00
      520000000    4,591204971e-02   -1,000789106e-01    4,446275830e-01    5,227119327e-01    0,000000000e+00    0,000000000e+00    0,000000000e+00    0,000000000e+00
      534000000   -1,026076544e-02   -1,415171921e-01    6,508327723e-01    2,070673853e-01    0,000000000e+00    0,000000000e+00    0,000000000e+00    0,000000000e+00
      548000000   -7,685037702e-02   -1,390471756e-01    6,632125974e-01   -1,750810146e-01    0,000000000e+00    0,000000000e+00    0,000000000e+00    0,000000000e+00
      562000000   -1,255691648e-01   -1,020392850e-01    4,568988681e-01   -5,107538700e-01    0,000000000e+00    0,000000000e+00    0,000000000e+00    0,000000000e+00
      576000000   -1,471848190e-01   -4,929582402e-02    8,701621741e-02   -6,702987552e-01    0,000000000e+00    0,000000000e+00    0,000000000e+00    0,000000000e+00
      590000000   -1,446166039e-01    1,531964075e-02   -3,053668439e-01   -5,806344748e-01    0,000000000e+00    0,000000000e+00    0,000000000e+00    0,000000000e+00
      604000000   -7,258645445e-02    9,173157811e-02   -5,323864818e-01   -2,522680759e-01    0,000000000e+00    0,000000000e+00    0,000000000e+00    0,000000000e+00
      618000000    8,685997128e-02    1,204846986e-02   -4,420727789e-01    7,329540327e-03    0,000000000e+00    0,000000000e+00    0,000000000e+00    0,000000000e+00
      632000000   -3,699396178e-02   -1,435918808e-01   -5,037742853e-01    1,210758314e-01    0,000000000e+00    0,000000000e+00    0,000000000e+00    0,000000000e+00
      646000000   -1,267316788e-01   -4,479378834e-02   -4,088608623e-01    4,652972519e-01    0,000000000e+00    0,000000000e+00    0,000000000e+00    0,000000000e+00
      660000000   -8,067092299e-02    2,020880580e-02   -6,390918046e-02    6,370981336e-01    0,000000000e+00    0,000000000e+00    0,000000000e+00    0,000000000e+00
      674000000   -3,033172898e-02    1,409958117e-02    3,001948595e-01    5,654374361e-01    0,000000000e+00    0,000000000e+00    0,000000000e+00    0,000000000e+00
      688000000   -9,979063645e-03   -1,341777015e-02    5,543200970e-01    3,085868061e-01    0,000000000e+00    0,000000000e+00    0,000000000e+00    0,000000000e+00
      702000000   -8,986517787e-03   -3,437873349e-02    6,294838786e-01   -4,250691831e-02    0,000000000e+00    0,000000000e+00    0,000000000e+00    0,000000000e+00
      716000000   -6,190467626e-03   -5,044155940e-02    4,968046248e-01   -3,726923168e-01    0,000000000e+00    0,000000000e+00    0,000000000e+00    0,000000000e+00
      730000000   -6,030089222e-03   -7,829653472e-02    2,138677835e-01   -5,745435357e-01    0,000000000e+00    0,000000000e+00    0,000000000e+00    0,000000000e+00
      744000000   -2,709107287e-02   -1,143160909e-01   -1,263871193e-01   -5,935271978e-01    0,000000000e+00    0,000000000e+00    0,000000000e+00    0,000000000e+00
      758000000   -7,814656198e-02   -1,348667592e-01   -4,265575707e-01   -4,361470044e-01    0,000000000e+00    0,000000000e+00    0,000000000e+00    0,000000000e+00
      772000000   -1,393810809e-01   -1,140413359e-01   -6,018083692e-01   -1,386021376e-01    0,000000000e+00    0,000000000e+00    0,000000000e+00    0,000000000e+00
      786000000   -1,733259857e-01   -5,495135114e-02   -5,873390436e-01    2,166859806e-01    0,000000000e+00    0,000000000e+00    0,000000000e+00    0,000000000e+00
      800000000   -1,575094312e-01    1,173880696e-02   -3,725121617e-01    5,054129362e-01    0,000000000e+00    0,000000000e+00    0,000000000e+00    0,000000000e+00
      814000000   -1,091313213e-01    4,531178996e-02   -3,915352747e-02    6,215023994e-01    0,000000000e+00    0,000000000e+00    0,000000000e+00    0,000000000e+00
      828000000   -6,340500712e-02    4,170721769e-02    2,951757610e-01    5,432566404e-01    0,000000000e+00    0,000000000e+00    0,000000000e+00    0,000000000e+00
      842000000   -3,652649373e-02    2,479503676e-02    5,312551856e-01    3,023199141e-01    0,000000000e+00    0,000000000e+00    0,000000000e+00    0,000000000e+00
      856000000   -1,936089993e-02    7,650062907e-03    6,017945409e-01   -2,241089754e-02    0,000000000e+00    0,000000000e+00    0,000000000e+00    0,000000000e+00
      870000000   -1,839246484e-03   -1,462876890e-02    4,885788262e-01   -3,302073479e-01    0,000000000e+00    0,000000000e+00    0,000000000e+00    0,000000000e+00
      884000000    9,547126479e-03   -5,229938403e-02    2,358286679e-01   -5,255062580e-01    0,000000000e+00    0,000000000e+00    0,000000000e+00    0,000000000e+00
      898000000   -6,983345374e-03   -1,009998247e-01   -7,388330251e-02   -5,608283281e-01    0,000000000e+00    0,000000000e+00    0,000000000e+00    0,000000000e+00
      912000000   -6,613603234e-02   -1,295745224e-01   -4,044798613e-01   -4,221396148e-01    0,000000000e+00    0,000000000e+00    0,000000000e+00    0,000000000e+00
      926000000   -1,303978264e-01   -1,163301840e-01   -5,800285935e-01   -1,324021518e-01    0,000000000e+00    0,000000000e+00    0,000000000e+00    0,000000000e+00
      940000000   -1,672368944e-01   -5,945087224e-02   -5,695541501e-01    2,175976038e-01    0,000000000e+00    0,000000000e+00    0,000000000e+00    0,000000000e+00
      954000000   -1,462240815e-01    2,290533157e-03   -3,567740917e-01    5,048691630e-01    0,000000000e+00    0,000000000e+00    0,000000000e+00    0,000000000e+00
      968000000   -9,390952438e-02    3,217880800e-02   -2,052740939e-02    6,198762059e-01    0,000000000e+00    0,000000000e+00    0,000000000e+00    0,000000000e+00
      982000000   -4,583738744e-02    9,266396053e-03    3,094577789e-01    5,318698287e-01    0,000000000e+00    0,000000000e+00    0,000000000e+00    0,000000000e+00
      996000000   -2,717378549e-02   -3,936601058e-02    5,283734798e-01    2,867086828e-01    0,000000000e+00    0,000000000e+00    0,000000000e+00    0,000000000e+00
     1010000000   -5,207191780e-02   -8,411139995e-02    5,755589008e-01   -1,863295399e-02    0,000000000e+00    0,000000000e+00    0,000000000e+00    0,000000000e+00
     1024000000   -1,122478470e-01   -1,067092791e-01    4,682980180e-01   -2,724110782e-01    0,000000000e+00    0,000000000e+00    0,000000000e+00    0,000000000e+00
     1038000000   -1,734055430e-01   -6,589415669e-02    2,892225385e-01   -4,296364188e-01    0,000000000e+00    0,000000000e+00    0,000000000e+00    0,000000000e+00
     1052000000   -1,676719487e-01    1,696540788e-02    5,659177527e-02   -5,170881152e-01    0,000000000e+00    0,000000000e+00    0,000000000e+00    0,000000000e+00
     1066000000   -1,103149578e-01    5,183169618e-02   -2,052419782e-01   -4,745516777e-01    0,000000000e+00    0,000000000e+00    0,000000000e+00    0,000000000e+00
     1080000000   -5,853996426e-02    4,739391059e-02   -4,262887537e-01   -2,833806872e-01    0,000000000e+00    0,000000000e+00    0,000000000e+00    0,000000000e+00
     1094000000   -1,733380370e-02    1,404600870e-02   -5,018769503e-01   -4,504383076e-03    0,000000000e+00    0,000000000e+00    0,000000000e+00    0,000000000e+00
     1108000000   -5,254792515e-03   -2,578758262e-02   -4,129688442e-01    2,772405446e-01    0,000000000e+00    0,000000000e+00    0,000000000e+00    0,000000000e+00
     1122000000   -1,281502564e-02   -6,809801608e-02   -1,757416278e-01    4,668248296e-01    0,000000000e+00    0,000000000e+00    0,000000000e+00    0,000000000e+00
     1136000000   -3,910155222e-02   -1,101018786e-01    1,364540011e-01    4,983862936e-01    0,000000000e+00    0,000000000e+00    0,000000000e+00    0,000000000e+00
     1150000000   -8,601411432e-02   -1,401822269e-01    4,291455150e-01    3,415695131e-01    0,000000000e+00    0,000000000e+00    0,000000000e+00    0,000000000e+00
     1164000000   -1,470652521e-01   -1,272425354e-01    5,956092477e-01    2,011905983e-02    0,000000000e+00    0,000000000e+00    0,000000000e+00    0,000000000e+00
     1178000000   -1,879933923e-01   -8,765230328e-02    5,328452587e-01   -3,573246896e-01    0,000000000e+00    0,000000000e+00    0,000000000e+00    0,000000000e+00
     1192000000   -1,936745197e-01   -5,060087144e-02    2,494527847e-01   -6,244936585e-01    0,000000000e+00    0,000000000e+00    0,000000000e+00    0,000000000e+00
     1206000000   -2,022100091e-01   -4,217618331e-02   -1,310718954e-01   -6,626256704e-01    0,000000000e+00    0,000000000e+00    0,000000000e+00    0,000000000e+00
     1220000000   -2,517075837e-01   -5,901182070e-03   -4,198976755e-01   -4,847425520e-01    0,000000000e+00    0,000000000e+00    0,000000000e+00    0,000000000e+00
     1234000000   -2,378762662e-01    1,217381209e-01   -5,554139018e-01   -2,419918776e-01    0,000000000e+00    0,000000000e+00    0,000000000e+00    0,000000000e+00
     1248000000   -1,094959155e-01    1,779087633e-01   -5,969940424e-01    2,310177498e-02    0,000000000e+00    0,000000000e+00    0,000000000e+00    0,000000000e+00
     1262000000    2,112022368e-03    1,304599941e-01   -4,981045425e-01    2,868902087e-01    0,000000000e+00    0,000000000e+00    0,000000000e+00    0,000000000e+00
     1276000000    6,000822783e-02    4,085692018e-02   -2,771597505e-01    4,757691026e-01    0,000000000e+00    0,000000000e+00    0,000000000e+00    0,000000000e+00
     1290000000    7,424444705e-02   -7,216387987e-02    5,551765207e-03    5,375148654e-01    0,000000000e+00    0,000000000e+00    0,000000000e+00    0,000000000e+00
     1304000000    2,400589176e-02   -1,793756336e-01    2,885338068e-01    4,772656262e-01    0,000000000e+00    0,000000000e+00    0,000000000e+00    0,000000000e+00
     1318000000   -9,260030091e-02   -2,577549815e-01    5,332919955e-01    2,699094415e-01    0,000000000e+00    0,000000000e+00    0,000000000e+00    0,000000000e+00
     1332000000   -2,395851761e-01   -2,506512702e-01    6,495941877e-01   -4,383729398e-02    0,000000000e+00    0,000000000e+00    0,000000000e+00    0,000000000e+00
     1346000000   -3,685777187e-01   -1,451431960e-01    5,514482856e-01   -3,978548646e-01    0,000000000e+00    0,000000000e+00    0,000000000e+00    0,000000000e+00
     1360000000   -3,914520741e-01    3,507925663e-03    2,546671927e-01   -6,338685751e-01    0,000000000e+00    0,000000000e+00    0,000000000e+00    0,000000000e+00
     1374000000   -3,321571350e-01    1,226009652e-01   -1,024794355e-01   -6,106807590e-01    0,000000000e+00    0,000000000e+00    0,000000000e+00    0,000000000e+00
     1388000000   -2,446358353e-01    1,673810631e-01   -3,731206954e-01   -4,175548255e-01    0,000000000e+00    0,000000000e+00    0,000000000e+00    0,000000000e+00
     1402000000   -1,531950235e-01    1,750583053e-01   -4,713590443e-01   -9,961297363e-02    0,000000000e+00    0,000000000e+00    0,000000000e+00    0,000000000e+00
     1416000000   -9,032504261e-02    1,473094523e-01   -3,875747323e-01    2,028726190e-01    0,000000000e+00    0,000000000e+00    0,000000000e+00    0,000000000e+00
     1430000000   -2,807623707e-02    9,443904459e-02   -1,431886107e-01    4,283409715e-01    0,000000000e+00    0,000000000e+00    0,000000000e+00    0,000000000e+00
     1444000000   -3,773043863e-03    1,393053867e-02    1,241670027e-01    5,247034431e-01    0,000000000e+00    0,000000000e+00    0,000000000e+00    0,000000000e+00
     1458000000   -3,247426823e-02   -7,312534750e-02    4,445030689e-01    4,839266241e-01    0,000000000e+00    0,000000000e+00    0,000000000e+00    0,000000000e+00
     1472000000   -1,103399470e-01   -1,385744065e-01    7,214985490e-01    2,969704866e-01    0,000000000e+00    0,000000000e+00    0,000000000e+00    0,000000000e+00
     1486000000   -2,241220325e-01   -1,431678683e-01    8,726626635e-01   -3,150632605e-02    0,000000000e+00    0,000000000e+00    0,000000000e+00    0,000000000e+00
     1500000000   -2,953507006e-01   -7,274378836e-02    8,334891200e-01   -4,223120809e-01    0,000000000e+00    0,000000000e+00    0,000000000e+00    0,000000000e+00
