! NanoVNA-App
! Date: 2025-09-25 14:56:20
! Start: 100MHz Stop: 1,5GHz Points: 101
! S-Parameter data: F S11 S21 S12 S22
# Hz S RI R 50
!     Frequency           S11_Real           S11_Imag           S21_Real           S21_Imag           S12_Real           S12_Imag           S22_Real           S22_Imag
      100000000    3,562192991e-02    2,698443830e-02    4,406971931e-01   -6,696427464e-01    0,000000000e+00    0,000000000e+00    0,000000000e+00    0,000000000e+00
      114000000    6,051990017e-02    1,766903792e-03    1,269928273e-02   -7,954277992e-01    0,000000000e+00    0,000000000e+00    0,000000000e+00    0,000000000e+00
      128000000    6,791095436e-02   -4,257972911e-02   -4,084102511e-01   -6,782678366e-01    0,000000000e+00    0,000000000e+00    0,000000000e+00    0,000000000e+00
      142000000    4,285398498e-02   -8,890449256e-02   -7,055661082e-01   -3,609320223e-01    0,000000000e+00    0,000000000e+00    0,000000000e+00    0,000000000e+00
      156000000   -1,048936974e-02   -1,095090732e-01   -7,926150560e-01    6,789012998e-02    0,000000000e+00    0,000000000e+00    0,000000000e+00    0,000000000e+00
      170000000   -6,318143755e-02   -9,098753333e-02   -6,368120909e-01    4,866912961e-01    0,000000000e+00    0,000000000e+00    0,000000000e+00    0,000000000e+00
      184000000   -8,864584565e-02   -4,661184922e-02   -2,728696465e-01    7,566019297e-01    0,000000000e+00    0,000000000e+00    0,000000000e+00    0,000000000e+00
      198000000   -8,218638599e-02   -5,438558292e-03    1,797626615e-01    7,822722793e-01    0,000000000e+00    0,000000000e+00    0,000000000e+00    0,000000000e+00
      212000000   -6,161300838e-02    1,867314056e-02    5,707656741e-01    5,579690337e-01    0,000000000e+00    0,000000000e+00    0,000000000e+00    0,000000000e+00
      226000000   -4,017081857e-02    3,165991604e-02    7,767026424e-01    1,617752761e-01    0,000000000e+00    0,000000000e+00    0,000000000e+00    0,000000000e+00
      240000000   -1,374077518e-02    4,039902985e-02    7,359200120e-01   -2,787107229e-01    0,000000000e+00    0,000000000e+00    0,000000000e+00    0,000000000e+00
      254000000    2,190690860e-02    3,490540758e-02    4,677624702e-01   -6,221482754e-01    0,000000000e+00    0,000000000e+00    0,000000000e+00    0,000000000e+00
      268000000    5,300474539e-02    3,144899150e-03    6,683249772e-02   -7,675298452e-01    0,000000000e+00    0,000000000e+00    0,000000000e+00    0,000000000e+00
      282000000    5,632708967e-02   -4,619008675e-02   -3,458668888e-01   -6,831874847e-01    0,000000000e+00    0,000000000e+00    0,000000000e+00    0,000000000e+00
      296000000    2,439378947e-02   -8,523426950e-02   -6,553174257e-01   -3,976042569e-01    0,000000000e+00    0,000000000e+00    0,000000000e+00    0,000000000e+00
      310000000   -2,082641609e-02   -8,864101022e-02   -7,736020088e-01    1,007538382e-02    0,000000000e+00    0,000000000e+00    0,000000000e+00    0,000000000e+00
      324000000   -4,782497138e-02   -6,212511286e-02   -6,484079957e-01    4,306635261e-01    0,000000000e+00    0,000000000e+00    0,000000000e+00    0,000000000e+00
      338000000   -4,165969789e-02   -3,589162976e-02   -3,093087375e-01    7,117734551e-01    0,000000000e+00    0,000000000e+00    0,000000000e+00    0,000000000e+00
      352000000   -2,264161408e-02   -3,577876464e-02    1,196360514e-01    7,591068745e-01    0,000000000e+00    0,000000000e+00    0,000000000e+00    0,000000000e+00
      366000000   -2,157028951e-02   -5,494852737e-02    5,035437346e-01    5,706629753e-01    0,000000000e+00    0,000000000e+00    0,000000000e+00    0,000000000e+00
      380000000   -4,275374487e-02   -6,496591121e-02    7,263453603e-01    2,109859586e-01    0,000000000e+00    0,000000000e+00    0,000000000e+00    0,000000000e+00
      394000000   -6,471905112e-02   -5,151739717e-02    7,228630185e-01   -2,140138298e-01    0,000000000e+00    0,000000000e+00    0,000000000e+00    0,000000000e+00
      408000000   -6,624274701e-02   -2,803830802e-02    4,890493453e-01   -5,690982938e-01    0,000000000e+00    0,000000000e+00    0,000000000e+00    0,000000000e+00
      422000000   -5,302709714e-02   -1,725795493e-02    1,055872440e-01   -7,390123606e-01    0,000000000e+00    0,000000000e+00    0,000000000e+00    0,000000000e+00
      436000000   -4,691260308e-02   -2,050101571e-02   -3,061683476e-01   -6,771560311e-01    0,000000000e+00    0,000000000e+00    0,000000000e+00    0,000000000e+00
      450000000   -5,385268852e-02   -1,621315628e-02   -6,196474433e-01   -4,003347754e-01    0,000000000e+00    0,000000000e+00    0,000000000e+00    0,000000000e+00
      464000000   -5,235784128e-02    5,293005146e-03   -7,301240563e-01    3,078632988e-03    0,000000000e+00    0,000000000e+00    0,000000000e+00    0,000000000e+00
      478000000   -2,259251662e-02    2,724830247e-02   -5,997977853e-01    3,976009488e-01    0,000000000e+00    0,000000000e+00    0,000000000e+00    0,000000000e+00
      492000000    2,658578940e-02    1,640713960e-02   -2,810692191e-01    6,453747749e-01    0,000000000e+00    0,000000000e+00    0,000000000e+00    0,000000000e+00
      506000000    5,861166865e-02   -3,489689901e-02    1,043973863e-01    6,814320683e-01    0,000000000e+00    0,000000000e+00    0,000000000e+00    0,000000000e+00
      520000000    4,454741254e-02   -1,005732119e-01    4,441177547e-01    5,151979923e-01    0,000000000e+00    0,000000000e+00    0,000000000e+00    0,000000000e+00
      534000000   -1,002408005e-02   -1,413700134e-01    6,504477262e-01    2,076581120e-01    0,000000000e+00    0,000000000e+00    0,000000000e+00    0,000000000e+00
      548000000   -7,722127438e-02   -1,391537338e-01    6,629299521e-01   -1,748989820e-01    0,000000000e+00    0,000000000e+00    0,000000000e+00    0,000000000e+00
      562000000   -1,254839450e-01   -1,018727198e-01    4,561317265e-01   -5,106338859e-01    0,000000000e+00    0,000000000e+00    0,000000000e+00    0,000000000e+00
      576000000   -1,476941556e-01   -4,950904101e-02    8,588771522e-02   -6,706241965e-01    0,000000000e+00    0,000000000e+00    0,000000000e+00    0,000000000e+00
      590000000   -1,446439773e-01    1,545891911e-02   -3,080826402e-01   -5,820924640e-01    0,000000000e+00    0,000000000e+00    0,000000000e+00    0,000000000e+00
      604000000   -7,276611775e-02    9,127553552e-02   -5,326685905e-01   -2,528147399e-01    0,000000000e+00    0,000000000e+00    0,000000000e+00    0,000000000e+00
      618000000    8,692923188e-02    1,246496942e-02   -4,421916902e-01    8,038568310e-03    0,000000000e+00    0,000000000e+00    0,000000000e+00    0,000000000e+00
      632000000   -3,640460968e-02   -1,433621347e-01   -5,033267736e-01    1,211669147e-01    0,000000000e+00    0,000000000e+00    0,000000000e+00    0,000000000e+00
      646000000   -1,265995651e-01   -4,562163725e-02   -4,093425870e-01    4,645110965e-01    0,000000000e+00    0,000000000e+00    0,000000000e+00    0,000000000e+00
      660000000   -8,107875288e-02    1,949307509e-02   -6,289462745e-02    6,376008391e-01    0,000000000e+00    0,000000000e+00    0,000000000e+00    0,000000000e+00
      674000000   -2,940193564e-02    1,479301322e-02    3,009145558e-01    5,653173327e-01    0,000000000e+00    0,000000000e+00    0,000000000e+00    0,000000000e+00
      688000000   -9,997981600e-03   -1,287215576e-02    5,535970330e-01    3,082590699e-01    0,000000000e+00    0,000000000e+00    0,000000000e+00    0,000000000e+00
      702000000   -8,922881447e-03   -3,339714929e-02    6,257777214e-01   -4,132687300e-02    0,000000000e+00    0,000000000e+00    0,000000000e+00    0,000000000e+00
      716000000   -6,169671193e-03   -5,112428963e-02    4,972827733e-01   -3,724761307e-01    0,000000000e+00    0,000000000e+00    0,000000000e+00    0,000000000e+00
      730000000   -6,917729042e-03   -7,801846415e-02    2,132606953e-01   -5,742776394e-01    0,000000000e+00    0,000000000e+00    0,000000000e+00    0,000000000e+00
      744000000   -2,712892368e-02   -1,132668406e-01   -1,263289899e-01   -5,939221978e-01    0,000000000e+00    0,000000000e+00    0,000000000e+00    0,000000000e+00
      758000000   -7,836241275e-02   -1,337489188e-01   -4,267702997e-01   -4,363501072e-01    0,000000000e+00    0,000000000e+00    0,000000000e+00    0,000000000e+00
      772000000   -1,394020915e-01   -1,141921654e-01   -6,018019915e-01   -1,385054439e-01    0,000000000e+00    0,000000000e+00    0,000000000e+00    0,000000000e+00
      786000000   -1,729068905e-01   -5,445966125e-02   -5,877034068e-01    2,167317569e-01    0,000000000e+00    0,000000000e+00    0,000000000e+00    0,000000000e+00
      800000000   -1,573783159e-01    1,152625494e-02   -3,739613593e-01    5,055705309e-01    0,000000000e+00    0,000000000e+00    0,000000000e+00    0,000000000e+00
      814000000   -1,095952243e-01    4,440963641e-02   -4,002270475e-02    6,229729056e-01    0,000000000e+00    0,000000000e+00    0,000000000e+00    0,000000000e+00
      828000000   -6,401233375e-02    4,285613075e-02    2,958715856e-01    5,427570939e-01    0,000000000e+00    0,000000000e+00    0,000000000e+00    0,000000000e+00
      842000000   -3,596395999e-02    2,432174608e-02    5,308119059e-01    3,028647900e-01    0,000000000e+00    0,000000000e+00    0,000000000e+00    0,000000000e+00
      856000000   -1,886773668e-02    7,801713888e-03    6,020866632e-01   -2,207611129e-02    0,000000000e+00    0,000000000e+00    0,000000000e+00    0,000000000e+00
      870000000   -1,811999129e-03   -1,425890718e-02    4,881040454e-01   -3,298294544e-01    0,000000000e+00    0,000000000e+00    0,000000000e+00    0,000000000e+00
      884000000    9,530564770e-03   -5,234575272e-02    2,351620346e-01   -5,237367749e-01    0,000000000e+00    0,000000000e+00    0,000000000e+00    0,000000000e+00
      898000000   -7,409187034e-03   -1,006914973e-01   -7,247251272e-02   -5,620772839e-01    0,000000000e+00    0,000000000e+00    0,000000000e+00    0,000000000e+00
      912000000   -6,653043628e-02   -1,301706582e-01   -4,135553539e-01   -4,106487632e-01    0,000000000e+00    0,000000000e+00    0,000000000e+00    0,000000000e+00
      926000000   -1,305955350e-01   -1,168043464e-01   -5,816803575e-01   -1,340319663e-01    0,000000000e+00    0,000000000e+00    0,000000000e+00    0,000000000e+00
      940000000   -1,657875776e-01   -5,576329678e-02   -5,694749355e-01    2,173081636e-01    0,000000000e+00    0,000000000e+00    0,000000000e+00    0,000000000e+00
      954000000   -1,492446363e-01    6,202593446e-03   -3,572507799e-01    5,064256191e-01    0,000000000e+00    0,000000000e+00    0,000000000e+00    0,000000000e+00
      968000000   -9,467422217e-02    2,824267000e-02   -2,020906843e-02    6,184139252e-01    0,000000000e+00    0,000000000e+00    0,000000000e+00    0,000000000e+00
      982000000   -4,486665502e-02    1,255643927e-02    3,106659651e-01    5,319398642e-01    0,000000000e+00    0,000000000e+00    0,000000000e+00    0,000000000e+00
      996000000   -2,860155888e-02   -3,511753678e-02    5,295221210e-01    2,857640386e-01    0,000000000e+00    0,000000000e+00    0,000000000e+00    0,000000000e+00
     1010000000   -5,119648203e-02   -8,490894735e-02    5,770160556e-01   -1,758341305e-02    0,000000000e+00    0,000000000e+00    0,000000000e+00    0,000000000e+00
     1024000000   -1,100738570e-01   -1,090478823e-01    4,686098099e-01   -2,707559764e-01    0,000000000e+00    0,000000000e+00    0,000000000e+00    0,000000000e+00
     1038000000   -1,703442782e-01   -6,652811170e-02    2,880403101e-01   -4,329540431e-01    0,000000000e+00    0,000000000e+00    0,000000000e+00    0,000000000e+00
     1052000000   -1,732666492e-01    1,534394734e-02    5,811770260e-02   -5,158722997e-01    0,000000000e+00    0,000000000e+00    0,000000000e+00    0,000000000e+00
     1066000000   -1,104853973e-01    5,671789870e-02   -2,133651525e-01   -4,727645814e-01    0,000000000e+00    0,000000000e+00    0,000000000e+00    0,000000000e+00
     1080000000   -5,749081820e-02    4,957288131e-02   -4,236124754e-01   -2,843920887e-01    0,000000000e+00    0,000000000e+00    0,000000000e+00    0,000000000e+00
     1094000000   -1,897581294e-02    1,077275909e-02   -5,024883747e-01   -2,911387244e-03    0,000000000e+00    0,000000000e+00    0,000000000e+00    0,000000000e+00
     1108000000   -3,572240938e-03   -2,800865285e-02   -4,125585556e-01    2,769250870e-01    0,000000000e+00    0,000000000e+00    0,000000000e+00    0,000000000e+00
     1122000000   -1,053247321e-02   -7,143767178e-02   -1,759393960e-01    4,660776258e-01    0,000000000e+00    0,000000000e+00    0,000000000e+00    0,000000000e+00
     1136000000   -3,888595849e-02   -1,137151718e-01    1,370792538e-01    4,980632663e-01    0,000000000e+00    0,000000000e+00    0,000000000e+00    0,000000000e+00
     1150000000   -9,004640579e-02   -1,397025585e-01    4,297547936e-01    3,394409120e-01    0,000000000e+00    0,000000000e+00    0,000000000e+00    0,000000000e+00
     1164000000   -1,484677643e-01   -1,339976192e-01    5,931538343e-01    2,132067084e-02    0,000000000e+00    0,000000000e+00    0,000000000e+00    0,000000000e+00
     1178000000   -1,837037057e-01   -9,213013202e-02    5,310370326e-01   -3,568509221e-01    0,000000000e+00    0,000000000e+00    0,000000000e+00    0,000000000e+00
     1192000000   -1,946463585e-01   -5,265476555e-02    2,473209053e-01   -6,252441406e-01    0,000000000e+00    0,000000000e+00    0,000000000e+00    0,000000000e+00
     1206000000   -1,999999732e-01   -4,055052996e-02   -1,291088462e-01   -6,613067985e-01    0,000000000e+00    0,000000000e+00    0,000000000e+00    0,000000000e+00
     1220000000   -2,461713552e-01   -3,847844200e-03   -4,183275104e-01   -4,862174988e-01    0,000000000e+00    0,000000000e+00    0,000000000e+00    0,000000000e+00
     1234000000   -2,353798747e-01    1,221538857e-01   -5,586795211e-01   -2,454343885e-01    0,000000000e+00    0,000000000e+00    0,000000000e+00    0,000000000e+00
     1248000000   -1,119224206e-01    1,704091579e-01   -5,937979221e-01    1,855669357e-02    0,000000000e+00    0,000000000e+00    0,000000000e+00    0,000000000e+00
     1262000000   -1,350309351e-03    1,357718408e-01   -5,022746325e-01    2,936923802e-01    0,000000000e+00    0,000000000e+00    0,000000000e+00    0,000000000e+00
     1276000000    6,403101981e-02    4,024181888e-02   -2,758266330e-01    4,768669605e-01    0,000000000e+00    0,000000000e+00    0,000000000e+00    0,000000000e+00
     1290000000    7,283300161e-02   -6,928366423e-02    5,953514017e-03    5,427787304e-01    0,000000000e+00    0,000000000e+00    0,000000000e+00    0,000000000e+00
     1304000000    2,462033182e-02   -1,833530664e-01    2,968705595e-01    4,697170258e-01    0,000000000e+00    0,000000000e+00    0,000000000e+00    0,000000000e+00
     1318000000   -9,060345590e-02   -2,549127042e-01    5,309163332e-01    2,701042295e-01    0,000000000e+00    0,000000000e+00    0,000000000e+00    0,000000000e+00
     1332000000   -2,387519330e-01   -2,485732138e-01    6,482744217e-01   -5,253476277e-02    0,000000000e+00    0,000000000e+00    0,000000000e+00    0,000000000e+00
     1346000000   -3,595679104e-01   -1,522959024e-01    5,525162220e-01   -3,958899677e-01    0,000000000e+00    0,000000000e+00    0,000000000e+00    0,000000000e+00
     1360000000   -3,896618485e-01    9,963357588e-04    2,484984547e-01   -6,308442950e-01    0,000000000e+00    0,000000000e+00    0,000000000e+00    0,000000000e+00
     1374000000   -3,312197030e-01    1,200618148e-01   -1,060922667e-01   -6,124171019e-01    0,000000000e+00    0,000000000e+00    0,000000000e+00    0,000000000e+00
     1388000000   -2,473474592e-01    1,743379533e-01   -3,737349510e-01   -4,044896066e-01    0,000000000e+00    0,000000000e+00    0,000000000e+00    0,000000000e+00
     1402000000   -1,572022289e-01    1,751594990e-01   -4,613642097e-01   -9,715624154e-02    0,000000000e+00    0,000000000e+00    0,000000000e+00    0,000000000e+00
     1416000000   -8,796387911e-02    1,476660669e-01   -3,817198277e-01    2,035521865e-01    0,000000000e+00    0,000000000e+00    0,000000000e+00    0,000000000e+00
     1430000000   -3,048433922e-02    9,531226009e-02   -1,469875574e-01    4,202199876e-01    0,000000000e+00    0,000000000e+00    0,000000000e+00    0,000000000e+00
     1444000000   -8,728883229e-03    1,092584245e-02    1,135535017e-01    5,158500075e-01    0,000000000e+00    0,000000000e+00    0,000000000e+00    0,000000000e+00
     1458000000   -3,239474073e-02   -8,247455209e-02    4,284538627e-01    4,693576992e-01    0,000000000e+00    0,000000000e+00    0,000000000e+00    0,000000000e+00
     1472000000   -1,157080680e-01   -1,401422173e-01    7,115451694e-01    3,029995561e-01    0,000000000e+00    0,000000000e+00    0,000000000e+00    0,000000000e+00
     1486000000   -2,249912918e-01   -1,454130709e-01    8,622831702e-01   -3,726400435e-02    0,000000000e+00    0,000000000e+00    0,000000000e+00    0,000000000e+00
     1500000000   -2,958375514e-01   -7,612199336e-02    8,292437792e-01   -4,267808795e-01    0,000000000e+00    0,000000000e+00    0,000000000e+00    0,000000000e+00
