! NanoVNA-App
! Date: 2025-09-25 15:01:19
! Start: 100MHz Stop: 1,5GHz Points: 101
! S-Parameter data: F S11 S21 S12 S22
# Hz S RI R 50
!     Frequency           S11_Real           S11_Imag           S21_Real           S21_Imag           S12_Real           S12_Imag           S22_Real           S22_Imag
      100000000    3,558664024e-02    2,734868973e-02    4,407905340e-01   -6,695457101e-01    0,000000000e+00    0,000000000e+00    0,000000000e+00    0,000000000e+00
      114000000    6,072287634e-02    2,184955403e-03    1,272550691e-02   -7,952566147e-01    0,000000000e+00    0,000000000e+00    0,000000000e+00    0,000000000e+00
      128000000    6,840517372e-02   -4,224598035e-02   -4,081633985e-01   -6,783185601e-01    0,000000000e+00    0,000000000e+00    0,000000000e+00    0,000000000e+00
      142000000    4,344978929e-02   -8,878192306e-02   -7,051703334e-01   -3,609767258e-01    0,000000000e+00    0,000000000e+00    0,000000000e+00    0,000000000e+00
      156000000   -8,903977461e-03   -1,099784747e-01   -7,939564586e-01    6,756246090e-02    0,000000000e+00    0,000000000e+00    0,000000000e+00    0,000000000e+00
      170000000   -6,275192648e-02   -9,178753942e-02   -6,372045875e-01    4,863692820e-01    0,000000000e+00    0,000000000e+00    0,000000000e+00    0,000000000e+00
      184000000   -8,862097561e-02   -4,770560935e-02   -2,731161714e-01    7,560943961e-01    0,000000000e+00    0,000000000e+00    0,000000000e+00    0,000000000e+00
      198000000   -8,276324719e-02   -6,456367206e-03    1,796853095e-01    7,824745178e-01    0,000000000e+00    0,000000000e+00    0,000000000e+00    0,000000000e+00
      212000000   -6,268395483e-02    1,807256415e-02    5,707420111e-01    5,583324432e-01    0,000000000e+00    0,000000000e+00    0,000000000e+00    0,000000000e+00
      226000000   -4,151470214e-02    3,181498498e-02    7,767639756e-01    1,619748920e-01    0,000000000e+00    0,000000000e+00    0,000000000e+00    0,000000000e+00
      240000000   -1,491937600e-02    4,130103439e-02    7,359700799e-01   -2,786505818e-01    0,000000000e+00    0,000000000e+00    0,000000000e+00    0,000000000e+00
      254000000    2,136506885e-02    3,630974889e-02    4,680177867e-01   -6,222982407e-01    0,000000000e+00    0,000000000e+00    0,000000000e+00    0,000000000e+00
      268000000    5,329571292e-02    4,738919903e-03    6,646831334e-02   -7,676904798e-01    0,000000000e+00    0,000000000e+00    0,000000000e+00    0,000000000e+00
      282000000    5,743413791e-02   -4,490106925e-02   -3,453553915e-01   -6,824901700e-01    0,000000000e+00    0,000000000e+00    0,000000000e+00    0,000000000e+00
      296000000    2,604224719e-02   -8,465474844e-02   -6,547272205e-01   -3,977812529e-01    0,000000000e+00    0,000000000e+00    0,000000000e+00    0,000000000e+00
      310000000   -1,888629608e-02   -8,946313709e-02   -7,746143341e-01    1,133035216e-02    0,000000000e+00    0,000000000e+00    0,000000000e+00    0,000000000e+00
      324000000   -4,648412019e-02   -6,344420463e-02   -6,472015977e-01    4,296165407e-01    0,000000000e+00    0,000000000e+00    0,000000000e+00    0,000000000e+00
      338000000   -4,107576609e-02   -3,779901937e-02   -3,105398715e-01    7,110971212e-01    0,000000000e+00    0,000000000e+00    0,000000000e+00    0,000000000e+00
      352000000   -2,350031212e-02   -3,792193159e-02    1,192421168e-01    7,592491508e-01    0,000000000e+00    0,000000000e+00    0,000000000e+00    0,000000000e+00
      366000000   -2,318811603e-02   -5,609076470e-02    5,033301115e-01    5,723791122e-01    0,000000000e+00    0,000000000e+00    0,000000000e+00    0,000000000e+00
      380000000   -4,462723807e-02   -6,539166719e-02    7,266185880e-01    2,113632709e-01    0,000000000e+00    0,000000000e+00    0,000000000e+00    0,000000000e+00
      394000000   -6,647343934e-02   -5,035387352e-02    7,230226994e-01   -2,128782272e-01    0,000000000e+00    0,000000000e+00    0,000000000e+00    0,000000000e+00
      408000000   -6,749460101e-02   -2,635304071e-02    4,896223545e-01   -5,685478449e-01    0,000000000e+00    0,000000000e+00    0,000000000e+00    0,000000000e+00
      422000000   -5,305843428e-02   -1,540859230e-02    1,064221412e-01   -7,389268875e-01    0,000000000e+00    0,000000000e+00    0,000000000e+00    0,000000000e+00
      436000000   -4,626883939e-02   -1,858489402e-02   -3,055827022e-01   -6,758648157e-01    0,000000000e+00    0,000000000e+00    0,000000000e+00    0,000000000e+00
      450000000   -5,207712203e-02   -1,510260254e-02   -6,193055511e-01   -4,002530873e-01    0,000000000e+00    0,000000000e+00    0,000000000e+00    0,000000000e+00
      464000000   -5,034640059e-02    6,070452277e-03   -7,295261621e-01    3,849837696e-03    0,000000000e+00    0,000000000e+00    0,000000000e+00    0,000000000e+00
      478000000   -2,025751211e-02    2,611546032e-02   -5,988126993e-01    3,973903060e-01    0,000000000e+00    0,000000000e+00    0,000000000e+00    0,000000000e+00
      492000000    2,800946496e-02    1,474112552e-02   -2,802423835e-01    6,434912682e-01    0,000000000e+00    0,000000000e+00    0,000000000e+00    0,000000000e+00
      506000000    5,867842585e-02   -3,731062263e-02    1,042976454e-01    6,802626848e-01    0,000000000e+00    0,000000000e+00    0,000000000e+00    0,000000000e+00
      520000000    4,507901892e-02   -1,028209478e-01    4,461467862e-01    5,211738348e-01    0,000000000e+00    0,000000000e+00    0,000000000e+00    0,000000000e+00
      534000000   -1,250164956e-02   -1,434606463e-01    6,494295001e-01    2,064289004e-01    0,000000000e+00    0,000000000e+00    0,000000000e+00    0,000000000e+00
      548000000   -8,046236634e-02   -1,390065551e-01    6,603921056e-01   -1,748729050e-01    0,000000000e+00    0,000000000e+00    0,000000000e+00    0,000000000e+00
      562000000   -1,295066625e-01   -9,777481109e-02    4,518993795e-01   -5,082617998e-01    0,000000000e+00    0,000000000e+00    0,000000000e+00    0,000000000e+00
      576000000   -1,477321088e-01   -4,039194062e-02    8,431219310e-02   -6,618080139e-01    0,000000000e+00    0,000000000e+00    0,000000000e+00    0,000000000e+00
      590000000   -1,316756010e-01    2,363172919e-02   -2,944199443e-01   -5,693568587e-01    0,000000000e+00    0,000000000e+00    0,000000000e+00    0,000000000e+00
      604000000   -5,048767850e-02    6,956636906e-02   -5,025027990e-01   -2,710682452e-01    0,000000000e+00    0,000000000e+00    0,000000000e+00    0,000000000e+00
      618000000    3,947721422e-02   -1,222194452e-02   -4,920197427e-01   -2,871796489e-02    0,000000000e+00    0,000000000e+00    0,000000000e+00    0,000000000e+00
      632000000   -3,806763887e-02   -9,916023165e-02   -5,080481768e-01    1,728166044e-01    0,000000000e+00    0,000000000e+00    0,000000000e+00    0,000000000e+00
      646000000   -1,011933535e-01   -4,400256649e-02   -3,802836537e-01    4,654939771e-01    0,000000000e+00    0,000000000e+00    0,000000000e+00    0,000000000e+00
      660000000   -7,456904650e-02    8,180461824e-03   -5,756082386e-02    6,228942871e-01    0,000000000e+00    0,000000000e+00    0,000000000e+00    0,000000000e+00
      674000000   -3,442336991e-02    6,854766048e-03    2,954950631e-01    5,546517372e-01    0,000000000e+00    0,000000000e+00    0,000000000e+00    0,000000000e+00
      688000000   -1,551987976e-02   -1,437764987e-02    5,460185409e-01    3,061076701e-01    0,000000000e+00    0,000000000e+00    0,000000000e+00    0,000000000e+00
      702000000   -1,250729617e-02   -3,220917284e-02    6,203965545e-01   -3,995672986e-02    0,000000000e+00    0,000000000e+00    0,000000000e+00    0,000000000e+00
      716000000   -7,272403222e-03   -4,783688486e-02    4,940042496e-01   -3,668903410e-01    0,000000000e+00    0,000000000e+00    0,000000000e+00    0,000000000e+00
      730000000   -5,917408969e-03   -7,514615357e-02    2,145151198e-01   -5,680796504e-01    0,000000000e+00    0,000000000e+00    0,000000000e+00    0,000000000e+00
      744000000   -2,591331303e-02   -1,117609665e-01   -1,225070581e-01   -5,901215076e-01    0,000000000e+00    0,000000000e+00    0,000000000e+00    0,000000000e+00
      758000000   -7,483419776e-02   -1,337729990e-01   -4,184879959e-01   -4,343338609e-01    0,000000000e+00    0,000000000e+00    0,000000000e+00    0,000000000e+00
      772000000   -1,364474148e-01   -1,168589965e-01   -5,948985815e-01   -1,417036504e-01    0,000000000e+00    0,000000000e+00    0,000000000e+00    0,000000000e+00
      786000000   -1,725226790e-01   -5,786927789e-02   -5,830115080e-01    2,099827081e-01    0,000000000e+00    0,000000000e+00    0,000000000e+00    0,000000000e+00
      800000000   -1,607781351e-01    7,909477688e-03   -3,741498590e-01    4,973245263e-01    0,000000000e+00    0,000000000e+00    0,000000000e+00    0,000000000e+00
      814000000   -1,136226133e-01    4,445353523e-02   -4,694999382e-02    6,164126396e-01    0,000000000e+00    0,000000000e+00    0,000000000e+00    0,000000000e+00
      828000000   -6,671042740e-02    4,391457886e-02    2,872442901e-01    5,417605639e-01    0,000000000e+00    0,000000000e+00    0,000000000e+00    0,000000000e+00
      842000000   -3,816441074e-02    2,775108628e-02    5,222443342e-01    3,066344559e-01    0,000000000e+00    0,000000000e+00    0,000000000e+00    0,000000000e+00
      856000000   -1,807915606e-02    1,054977067e-02    5,957822204e-01   -1,365304086e-02    0,000000000e+00    0,000000000e+00    0,000000000e+00    0,000000000e+00
      870000000    1,160689630e-03   -1,203567162e-02    4,868461490e-01   -3,176746964e-01    0,000000000e+00    0,000000000e+00    0,000000000e+00    0,000000000e+00
      884000000    1,190255489e-02   -5,056794360e-02    2,437903434e-01   -5,135163665e-01    0,000000000e+00    0,000000000e+00    0,000000000e+00    0,000000000e+00
      898000000   -4,272041377e-03   -1,003223434e-01   -5,826887488e-02   -5,538634062e-01    0,000000000e+00    0,000000000e+00    0,000000000e+00    0,000000000e+00
      912000000   -6,174679101e-02   -1,298786253e-01   -3,886584938e-01   -4,090173841e-01    0,000000000e+00    0,000000000e+00    0,000000000e+00    0,000000000e+00
      926000000   -1,242422536e-01   -1,197718605e-01   -5,659740567e-01   -1,476934105e-01    0,000000000e+00    0,000000000e+00    0,000000000e+00    0,000000000e+00
      940000000   -1,650896370e-01   -6,363897771e-02   -5,709741116e-01    1,938164532e-01    0,000000000e+00    0,000000000e+00    0,000000000e+00    0,000000000e+00
      954000000   -1,509278864e-01   -3,220780520e-03   -3,731357455e-01    4,865188599e-01    0,000000000e+00    0,000000000e+00    0,000000000e+00    0,000000000e+00
      968000000   -9,919895232e-02    2,642180398e-02   -4,975106940e-02    6,167293787e-01    0,000000000e+00    0,000000000e+00    0,000000000e+00    0,000000000e+00
      982000000   -5,441421643e-02    3,749189898e-03    2,813690603e-01    5,514482260e-01    0,000000000e+00    0,000000000e+00    0,000000000e+00    0,000000000e+00
      996000000   -4,182803631e-02   -2,957190201e-02    5,220706463e-01    3,256566226e-01    0,000000000e+00    0,000000000e+00    0,000000000e+00    0,000000000e+00
     1010000000   -6,349787861e-02   -6,348991394e-02    6,068476439e-01    1,343777217e-02    0,000000000e+00    0,000000000e+00    0,000000000e+00    0,000000000e+00
     1024000000   -1,026279479e-01   -7,738832384e-02    5,133466721e-01   -2,806013525e-01    0,000000000e+00    0,000000000e+00    0,000000000e+00    0,000000000e+00
     1038000000   -1,399249732e-01   -5,361505598e-02    2,946377695e-01   -4,697417319e-01    0,000000000e+00    0,000000000e+00    0,000000000e+00    0,000000000e+00
     1052000000   -1,527324617e-01   -3,820275422e-03    3,582593054e-02   -5,244863629e-01    0,000000000e+00    0,000000000e+00    0,000000000e+00    0,000000000e+00
     1066000000   -1,077337191e-01    4,188169166e-02   -2,071520388e-01   -4,661269784e-01    0,000000000e+00    0,000000000e+00    0,000000000e+00    0,000000000e+00
     1080000000   -5,059611425e-02    2,950885147e-02   -4,184641242e-01   -2,967486382e-01    0,000000000e+00    0,000000000e+00    0,000000000e+00    0,000000000e+00
     1094000000   -3,593190387e-02   -8,651041426e-03   -5,192164183e-01   -2,313039638e-02    0,000000000e+00    0,000000000e+00    0,000000000e+00    0,000000000e+00
     1108000000   -3,336827457e-02   -2,961598337e-02   -4,427317977e-01    2,854978442e-01    0,000000000e+00    0,000000000e+00    0,000000000e+00    0,000000000e+00
     1122000000   -3,310498595e-02   -5,774406344e-02   -1,875003427e-01    4,939403236e-01    0,000000000e+00    0,000000000e+00    0,000000000e+00    0,000000000e+00
     1136000000   -4,660965875e-02   -9,707651287e-02    1,509538442e-01    5,173474550e-01    0,000000000e+00    0,000000000e+00    0,000000000e+00    0,000000000e+00
     1150000000   -8,353394270e-02   -1,260447949e-01    4,535027742e-01    3,442531228e-01    0,000000000e+00    0,000000000e+00    0,000000000e+00    0,000000000e+00
     1164000000   -1,365765035e-01   -1,218827441e-01    6,091954708e-01    1,026885957e-02    0,000000000e+00    0,000000000e+00    0,000000000e+00    0,000000000e+00
     1178000000   -1,758282632e-01   -8,237669617e-02    5,382730365e-01   -3,724532425e-01    0,000000000e+00    0,000000000e+00    0,000000000e+00    0,000000000e+00
     1192000000   -1,823411435e-01   -5,638365820e-02    2,420367897e-01   -6,399216652e-01    0,000000000e+00    0,000000000e+00    0,000000000e+00    0,000000000e+00
     1206000000   -1,902618259e-01   -5,287017301e-02   -1,387307197e-01   -6,572423577e-01    0,000000000e+00    0,000000000e+00    0,000000000e+00    0,000000000e+00
     1220000000   -2,528945506e-01   -2,004032023e-02   -4,209974706e-01   -4,873206317e-01    0,000000000e+00    0,000000000e+00    0,000000000e+00    0,000000000e+00
     1234000000   -2,418231368e-01    1,168534905e-01   -5,581144691e-01   -2,483526170e-01    0,000000000e+00    0,000000000e+00    0,000000000e+00    0,000000000e+00
     1248000000   -1,162563860e-01    1,719557196e-01   -6,034899354e-01    1,412057411e-02    0,000000000e+00    0,000000000e+00    0,000000000e+00    0,000000000e+00
     1262000000   -7,645702455e-03    1,321609169e-01   -5,088853836e-01    2,970036864e-01    0,000000000e+00    0,000000000e+00    0,000000000e+00    0,000000000e+00
     1276000000    6,351165473e-02    4,220362008e-02   -2,751039863e-01    4,911040962e-01    0,000000000e+00    0,000000000e+00    0,000000000e+00    0,000000000e+00
     1290000000    7,489979267e-02   -6,611770391e-02    6,997428369e-03    5,548125505e-01    0,000000000e+00    0,000000000e+00    0,000000000e+00    0,000000000e+00
     1304000000    1,706979237e-02   -1,770796031e-01    2,962961495e-01    4,816615582e-01    0,000000000e+00    0,000000000e+00    0,000000000e+00    0,000000000e+00
     1318000000   -9,585817158e-02   -2,542291582e-01    5,329205990e-01    2,668653727e-01    0,000000000e+00    0,000000000e+00    0,000000000e+00    0,000000000e+00
     1332000000   -2,418673337e-01   -2,425574511e-01    6,462462544e-01   -4,441707954e-02    0,000000000e+00    0,000000000e+00    0,000000000e+00    0,000000000e+00
     1346000000   -3,620229363e-01   -1,385644674e-01    5,535293221e-01   -4,076444507e-01    0,000000000e+00    0,000000000e+00    0,000000000e+00    0,000000000e+00
     1360000000   -3,879183233e-01    3,938496113e-03    2,455322444e-01   -6,394731998e-01    0,000000000e+00    0,000000000e+00    0,000000000e+00    0,000000000e+00
     1374000000   -3,249235451e-01    1,202403158e-01   -1,091693565e-01   -6,383550167e-01    0,000000000e+00    0,000000000e+00    0,000000000e+00    0,000000000e+00
     1388000000   -2,413800955e-01    1,720499694e-01   -3,753940761e-01   -4,158835113e-01    0,000000000e+00    0,000000000e+00    0,000000000e+00    0,000000000e+00
     1402000000   -1,538837999e-01    1,729517877e-01   -4,721046388e-01   -1,002208143e-01    0,000000000e+00    0,000000000e+00    0,000000000e+00    0,000000000e+00
     1416000000   -8,683644980e-02    1,427156776e-01   -3,907012343e-01    1,918433607e-01    0,000000000e+00    0,000000000e+00    0,000000000e+00    0,000000000e+00
     1430000000   -3,518157080e-02    8,915556967e-02   -1,871094406e-01    4,573028386e-01    0,000000000e+00    0,000000000e+00    0,000000000e+00    0,000000000e+00
     1444000000   -1,708589867e-02    8,960247040e-03    1,082410440e-01    5,282394886e-01    0,000000000e+00    0,000000000e+00    0,000000000e+00    0,000000000e+00
     1458000000   -3,918611631e-02   -8,094828576e-02    4,339406788e-01    4,989531338e-01    0,000000000e+00    0,000000000e+00    0,000000000e+00    0,000000000e+00
     1472000000   -1,238903180e-01   -1,439464539e-01    7,287260890e-01    3,074876666e-01    0,000000000e+00    0,000000000e+00    0,000000000e+00    0,000000000e+00
     1486000000   -2,271816880e-01   -1,398109049e-01    9,017221332e-01   -4,426499084e-02    0,000000000e+00    0,000000000e+00    0,000000000e+00    0,000000000e+00
     1500000000   -3,146519959e-01   -6,524046510e-02    8,340542316e-01   -4,253318906e-01    0,000000000e+00    0,000000000e+00    0,000000000e+00    0,000000000e+00
