! NanoVNA-App
! Date: 2025-09-25 14:59:53
! Start: 100MHz Stop: 1,5GHz Points: 101
! S-Parameter data: F S11 S21 S12 S22
# Hz S RI R 50
!     Frequency           S11_Real           S11_Imag           S21_Real           S21_Imag           S12_Real           S12_Imag           S22_Real           S22_Imag
      100000000    3,558294848e-02    2,736402489e-02    4,407281280e-01   -6,695357561e-01    0,000000000e+00    0,000000000e+00    0,000000000e+00    0,000000000e+00
      114000000    6,073224917e-02    2,177536022e-03    1,273079123e-02   -7,953147292e-01    0,000000000e+00    0,000000000e+00    0,000000000e+00    0,000000000e+00
      128000000    6,835128367e-02   -4,228572920e-02   -4,082135856e-01   -6,780002713e-01    0,000000000e+00    0,000000000e+00    0,000000000e+00    0,000000000e+00
      142000000    4,349922016e-02   -8,880458772e-02   -7,049880028e-01   -3,608787656e-01    0,000000000e+00    0,000000000e+00    0,000000000e+00    0,000000000e+00
      156000000   -8,736788295e-03   -1,104392931e-01   -7,942747474e-01    6,836378574e-02    0,000000000e+00    0,000000000e+00    0,000000000e+00    0,000000000e+00
      170000000   -6,267380714e-02   -9,180720150e-02   -6,369172335e-01    4,864191711e-01    0,000000000e+00    0,000000000e+00    0,000000000e+00    0,000000000e+00
      184000000   -8,860114962e-02   -4,766033217e-02   -2,732240260e-01    7,562615275e-01    0,000000000e+00    0,000000000e+00    0,000000000e+00    0,000000000e+00
      198000000   -8,271638304e-02   -6,422406062e-03    1,796392202e-01    7,823423147e-01    0,000000000e+00    0,000000000e+00    0,000000000e+00    0,000000000e+00
      212000000   -6,273416430e-02    1,801184192e-02    5,705730915e-01    5,583673120e-01    0,000000000e+00    0,000000000e+00    0,000000000e+00    0,000000000e+00
      226000000   -4,146857932e-02    3,188725933e-02    7,767677307e-01    1,618870348e-01    0,000000000e+00    0,000000000e+00    0,000000000e+00    0,000000000e+00
      240000000   -1,493428461e-02    4,132250324e-02    7,359679341e-01   -2,787231803e-01    0,000000000e+00    0,000000000e+00    0,000000000e+00    0,000000000e+00
      254000000    2,135304548e-02    3,629267961e-02    4,678167999e-01   -6,221348643e-01    0,000000000e+00    0,000000000e+00    0,000000000e+00    0,000000000e+00
      268000000    5,330122635e-02    4,744652659e-03    6,692637503e-02   -7,674024105e-01    0,000000000e+00    0,000000000e+00    0,000000000e+00    0,000000000e+00
      282000000    5,750181898e-02   -4,492481425e-02   -3,458782732e-01   -6,825147271e-01    0,000000000e+00    0,000000000e+00    0,000000000e+00    0,000000000e+00
      296000000    2,600855380e-02   -8,463552594e-02   -6,554068327e-01   -3,978897035e-01    0,000000000e+00    0,000000000e+00    0,000000000e+00    0,000000000e+00
      310000000   -1,905049570e-02   -8,953645080e-02   -7,741387486e-01    9,740911424e-03    0,000000000e+00    0,000000000e+00    0,000000000e+00    0,000000000e+00
      324000000   -4,639558867e-02   -6,357236207e-02   -6,479205489e-01    4,291684031e-01    0,000000000e+00    0,000000000e+00    0,000000000e+00    0,000000000e+00
      338000000   -4,111504555e-02   -3,785212338e-02   -3,120498061e-01    7,114424109e-01    0,000000000e+00    0,000000000e+00    0,000000000e+00    0,000000000e+00
      352000000   -2,349493094e-02   -3,766615316e-02    1,184798554e-01    7,591850162e-01    0,000000000e+00    0,000000000e+00    0,000000000e+00    0,000000000e+00
      366000000   -2,267887257e-02   -5,597748235e-02    5,026357770e-01    5,712942481e-01    0,000000000e+00    0,000000000e+00    0,000000000e+00    0,000000000e+00
      380000000   -4,487292841e-02   -6,540202349e-02    7,260897160e-01    2,114890665e-01    0,000000000e+00    0,000000000e+00    0,000000000e+00    0,000000000e+00
      394000000   -6,669195741e-02   -5,062131956e-02    7,225006819e-01   -2,130246609e-01    0,000000000e+00    0,000000000e+00    0,000000000e+00    0,000000000e+00
      408000000   -6,766214967e-02   -2,627393231e-02    4,897720516e-01   -5,681310296e-01    0,000000000e+00    0,000000000e+00    0,000000000e+00    0,000000000e+00
      422000000   -5,348825082e-02   -1,531672850e-02    1,058467850e-01   -7,387920618e-01    0,000000000e+00    0,000000000e+00    0,000000000e+00    0,000000000e+00
      436000000   -4,648576304e-02   -1,848554984e-02   -3,059771955e-01   -6,747940183e-01    0,000000000e+00    0,000000000e+00    0,000000000e+00    0,000000000e+00
      450000000   -5,213328823e-02   -1,492976397e-02   -6,192880273e-01   -3,992885351e-01    0,000000000e+00    0,000000000e+00    0,000000000e+00    0,000000000e+00
      464000000   -5,019018427e-02    5,789357703e-03   -7,299188375e-01    3,113501007e-03    0,000000000e+00    0,000000000e+00    0,000000000e+00    0,000000000e+00
      478000000   -2,011067793e-02    2,681820653e-02   -5,986189246e-01    3,974922597e-01    0,000000000e+00    0,000000000e+00    0,000000000e+00    0,000000000e+00
      492000000    2,846256457e-02    1,473745424e-02   -2,802366018e-01    6,437476277e-01    0,000000000e+00    0,000000000e+00    0,000000000e+00    0,000000000e+00
      506000000    5,881917477e-02   -3,736926243e-02    1,052833274e-01    6,804466844e-01    0,000000000e+00    0,000000000e+00    0,000000000e+00    0,000000000e+00
      520000000    4,432484880e-02   -1,022278070e-01    4,424093664e-01    5,193929672e-01    0,000000000e+00    0,000000000e+00    0,000000000e+00    0,000000000e+00
      534000000   -1,252052281e-02   -1,442398429e-01    6,494851112e-01    2,055726796e-01    0,000000000e+00    0,000000000e+00    0,000000000e+00    0,000000000e+00
      548000000   -8,136375993e-02   -1,402563155e-01    6,599065661e-01   -1,763517112e-01    0,000000000e+00    0,000000000e+00    0,000000000e+00    0,000000000e+00
      562000000   -1,313675940e-01   -9,810387343e-02    4,503579736e-01   -5,089530349e-01    0,000000000e+00    0,000000000e+00    0,000000000e+00    0,000000000e+00
      576000000   -1,493669301e-01   -3,837709501e-02    8,216624707e-02   -6,607117057e-01    0,000000000e+00    0,000000000e+00    0,000000000e+00    0,000000000e+00
      590000000   -1,300440580e-01    2,871690504e-02   -2,942244112e-01   -5,633959770e-01    0,000000000e+00    0,000000000e+00    0,000000000e+00    0,000000000e+00
      604000000   -3,889596462e-02    6,849596649e-02   -4,888724089e-01   -2,701780200e-01    0,000000000e+00    0,000000000e+00    0,000000000e+00    0,000000000e+00
      618000000    3,482370824e-02   -2,955839783e-02   -4,940347672e-01   -4,932633787e-02    0,000000000e+00    0,000000000e+00    0,000000000e+00    0,000000000e+00
      632000000   -5,174042284e-02   -9,270659089e-02   -5,243535042e-01    1,771628708e-01    0,000000000e+00    0,000000000e+00    0,000000000e+00    0,000000000e+00
      646000000   -9,941917658e-02   -3,469021991e-02   -3,798680604e-01    4,769465327e-01    0,000000000e+00    0,000000000e+00    0,000000000e+00    0,000000000e+00
      660000000   -6,967476010e-02    9,101640433e-03   -5,193984509e-02    6,247007847e-01    0,000000000e+00    0,000000000e+00    0,000000000e+00    0,000000000e+00
      674000000   -3,055608459e-02    5,438803695e-03    2,981119454e-01    5,544859171e-01    0,000000000e+00    0,000000000e+00    0,000000000e+00    0,000000000e+00
      688000000   -1,522983797e-02   -1,800885797e-02    5,467507243e-01    3,033995926e-01    0,000000000e+00    0,000000000e+00    0,000000000e+00    0,000000000e+00
      702000000   -1,462509390e-02   -3,388374299e-02    6,190178394e-01   -4,265610874e-02    0,000000000e+00    0,000000000e+00    0,000000000e+00    0,000000000e+00
      716000000   -1,027721167e-02   -4,863423482e-02    4,925835729e-01   -3,686824739e-01    0,000000000e+00    0,000000000e+00    0,000000000e+00    0,000000000e+00
      730000000   -7,068845443e-03   -7,512203604e-02    2,114695609e-01   -5,681754947e-01    0,000000000e+00    0,000000000e+00    0,000000000e+00    0,000000000e+00
      744000000   -2,509391867e-02   -1,110512465e-01   -1,234796047e-01   -5,874017477e-01    0,000000000e+00    0,000000000e+00    0,000000000e+00    0,000000000e+00
      758000000   -7,374998927e-02   -1,329128444e-01   -4,191360176e-01   -4,323620796e-01    0,000000000e+00    0,000000000e+00    0,000000000e+00    0,000000000e+00
      772000000   -1,360004842e-01   -1,158429235e-01   -5,935655236e-01   -1,399129033e-01    0,000000000e+00    0,000000000e+00    0,000000000e+00    0,000000000e+00
      786000000   -1,723080575e-01   -5,895271525e-02   -5,813131332e-01    2,099599093e-01    0,000000000e+00    0,000000000e+00    0,000000000e+00    0,000000000e+00
      800000000   -1,593896151e-01    6,289055571e-03   -3,736129403e-01    4,960799217e-01    0,000000000e+00    0,000000000e+00    0,000000000e+00    0,000000000e+00
      814000000   -1,151820421e-01    4,296213388e-02   -4,565700516e-02    6,145897508e-01    0,000000000e+00    0,000000000e+00    0,000000000e+00    0,000000000e+00
      828000000   -6,840613484e-02    4,421503842e-02    2,869879603e-01    5,400334001e-01    0,000000000e+00    0,000000000e+00    0,000000000e+00    0,000000000e+00
      842000000   -3,877443820e-02    2,867743559e-02    5,213785172e-01    3,058249354e-01    0,000000000e+00    0,000000000e+00    0,000000000e+00    0,000000000e+00
      856000000   -1,791787706e-02    1,194226183e-02    5,940725207e-01   -1,439719740e-02    0,000000000e+00    0,000000000e+00    0,000000000e+00    0,000000000e+00
      870000000    1,347236568e-03   -1,119211316e-02    4,866034985e-01   -3,167460859e-01    0,000000000e+00    0,000000000e+00    0,000000000e+00    0,000000000e+00
      884000000    1,315916982e-02   -5,101656169e-02    2,432951629e-01   -5,121432543e-01    0,000000000e+00    0,000000000e+00    0,000000000e+00    0,000000000e+00
      898000000   -4,113175441e-03   -1,012676880e-01   -6,032207981e-02   -5,539135337e-01    0,000000000e+00    0,000000000e+00    0,000000000e+00    0,000000000e+00
      912000000   -6,255814433e-02   -1,314309984e-01   -3,827936351e-01   -4,237752557e-01    0,000000000e+00    0,000000000e+00    0,000000000e+00    0,000000000e+00
      926000000   -1,252784431e-01   -1,189020500e-01   -5,632683039e-01   -1,473204792e-01    0,000000000e+00    0,000000000e+00    0,000000000e+00    0,000000000e+00
      940000000   -1,615427136e-01   -6,141478196e-02   -5,680739284e-01    1,924469769e-01    0,000000000e+00    0,000000000e+00    0,000000000e+00    0,000000000e+00
      954000000   -1,492462307e-01    2,482009819e-03   -3,777959943e-01    4,846539199e-01    0,000000000e+00    0,000000000e+00    0,000000000e+00    0,000000000e+00
      968000000   -9,605688602e-02    2,363735810e-02   -5,178609490e-02    6,150102615e-01    0,000000000e+00    0,000000000e+00    0,000000000e+00    0,000000000e+00
      982000000   -5,718360096e-02    4,098553210e-03    2,807247341e-01    5,515844822e-01    0,000000000e+00    0,000000000e+00    0,000000000e+00    0,000000000e+00
      996000000   -4,274620861e-02   -3,091780469e-02    5,234047771e-01    3,261097074e-01    0,000000000e+00    0,000000000e+00    0,000000000e+00    0,000000000e+00
     1010000000   -6,362083554e-02   -6,380295008e-02    6,084790826e-01    1,459261682e-02    0,000000000e+00    0,000000000e+00    0,000000000e+00    0,000000000e+00
     1024000000   -9,854892641e-02   -7,931298018e-02    5,162532926e-01   -2,809672654e-01    0,000000000e+00    0,000000000e+00    0,000000000e+00    0,000000000e+00
     1038000000   -1,445484757e-01   -5,852506310e-02    2,949135602e-01   -4,727555513e-01    0,000000000e+00    0,000000000e+00    0,000000000e+00    0,000000000e+00
     1052000000   -1,533718556e-01   -2,528970828e-03    3,528974578e-02   -5,267937779e-01    0,000000000e+00    0,000000000e+00    0,000000000e+00    0,000000000e+00
     1066000000   -1,055944338e-01    4,367190599e-02   -2,146860510e-01   -4,675461054e-01    0,000000000e+00    0,000000000e+00    0,000000000e+00    0,000000000e+00
     1080000000   -5,040303618e-02    2,447355352e-02   -4,169732034e-01   -2,979896665e-01    0,000000000e+00    0,000000000e+00    0,000000000e+00    0,000000000e+00
     1094000000   -3,135530651e-02   -7,117033005e-03   -5,208371282e-01   -2,495238744e-02    0,000000000e+00    0,000000000e+00    0,000000000e+00    0,000000000e+00
     1108000000   -3,485445306e-02   -3,304189816e-02   -4,431662560e-01    2,833975852e-01    0,000000000e+00    0,000000000e+00    0,000000000e+00    0,000000000e+00
     1122000000   -2,961658500e-02   -5,388101563e-02   -1,874474436e-01    4,980234802e-01    0,000000000e+00    0,000000000e+00    0,000000000e+00    0,000000000e+00
     1136000000   -4,575414583e-02   -9,695017338e-02    1,490224749e-01    5,194333196e-01    0,000000000e+00    0,000000000e+00    0,000000000e+00    0,000000000e+00
     1150000000   -8,270686865e-02   -1,209373996e-01    4,546013772e-01    3,466878533e-01    0,000000000e+00    0,000000000e+00    0,000000000e+00    0,000000000e+00
     1164000000   -1,376343817e-01   -1,236615032e-01    6,108576059e-01    1,018473879e-02    0,000000000e+00    0,000000000e+00    0,000000000e+00    0,000000000e+00
     1178000000   -1,793462932e-01   -8,715956658e-02    5,381593704e-01   -3,708600998e-01    0,000000000e+00    0,000000000e+00    0,000000000e+00    0,000000000e+00
     1192000000   -1,782408506e-01   -4,926300049e-02    2,457863241e-01   -6,373465061e-01    0,000000000e+00    0,000000000e+00    0,000000000e+00    0,000000000e+00
     1206000000   -1,901645064e-01   -5,159677565e-02   -1,395717114e-01   -6,623114347e-01    0,000000000e+00    0,000000000e+00    0,000000000e+00    0,000000000e+00
     1220000000   -2,495354116e-01   -1,830752194e-02   -4,196586311e-01   -4,841050506e-01    0,000000000e+00    0,000000000e+00    0,000000000e+00    0,000000000e+00
     1234000000   -2,367228717e-01    1,177013293e-01   -5,574876070e-01   -2,527010441e-01    0,000000000e+00    0,000000000e+00    0,000000000e+00    0,000000000e+00
     1248000000   -1,149929911e-01    1,746243387e-01   -6,018970013e-01    1,843399368e-02    0,000000000e+00    0,000000000e+00    0,000000000e+00    0,000000000e+00
     1262000000   -2,364252461e-03    1,347297877e-01   -5,029900074e-01    2,992427051e-01    0,000000000e+00    0,000000000e+00    0,000000000e+00    0,000000000e+00
     1276000000    6,343822926e-02    4,072007164e-02   -2,740008235e-01    4,878498018e-01    0,000000000e+00    0,000000000e+00    0,000000000e+00    0,000000000e+00
     1290000000    6,845804304e-02   -7,086455822e-02    9,941003285e-03    5,460518599e-01    0,000000000e+00    0,000000000e+00    0,000000000e+00    0,000000000e+00
     1304000000    2,051793039e-02   -1,816737652e-01    2,979093492e-01    4,770481586e-01    0,000000000e+00    0,000000000e+00    0,000000000e+00    0,000000000e+00
     1318000000   -9,309121221e-02   -2,512158453e-01    5,392180085e-01    2,747872472e-01    0,000000000e+00    0,000000000e+00    0,000000000e+00    0,000000000e+00
     1332000000   -2,450319082e-01   -2,468223274e-01    6,484797597e-01   -5,478944257e-02    0,000000000e+00    0,000000000e+00    0,000000000e+00    0,000000000e+00
     1346000000   -3,559574187e-01   -1,399583817e-01    5,613440275e-01   -4,078894556e-01    0,000000000e+00    0,000000000e+00    0,000000000e+00    0,000000000e+00
     1360000000   -3,832294643e-01    5,446494557e-03    2,543080449e-01   -6,403912902e-01    0,000000000e+00    0,000000000e+00    0,000000000e+00    0,000000000e+00
     1374000000   -3,281686902e-01    1,187502816e-01   -1,066831797e-01   -6,227384210e-01    0,000000000e+00    0,000000000e+00    0,000000000e+00    0,000000000e+00
     1388000000   -2,388528585e-01    1,672578752e-01   -3,728136420e-01   -4,214219153e-01    0,000000000e+00    0,000000000e+00    0,000000000e+00    0,000000000e+00
     1402000000   -1,497450471e-01    1,689374447e-01   -4,824884236e-01   -9,980590641e-02    0,000000000e+00    0,000000000e+00    0,000000000e+00    0,000000000e+00
     1416000000   -8,229722828e-02    1,395499259e-01   -3,798834682e-01    2,059184611e-01    0,000000000e+00    0,000000000e+00    0,000000000e+00    0,000000000e+00
     1430000000   -3,253424168e-02    8,829536289e-02   -1,750754714e-01    4,214494824e-01    0,000000000e+00    0,000000000e+00    0,000000000e+00    0,000000000e+00
     1444000000   -1,845401339e-02    9,557164274e-03    1,180131510e-01    5,313968658e-01    0,000000000e+00    0,000000000e+00    0,000000000e+00    0,000000000e+00
     1458000000   -4,481926188e-02   -8,056928962e-02    4,271094501e-01    4,833409786e-01    0,000000000e+00    0,000000000e+00    0,000000000e+00    0,000000000e+00
     1472000000   -1,210896969e-01   -1,386902332e-01    7,350224257e-01    3,071401417e-01    0,000000000e+00    0,000000000e+00    0,000000000e+00    0,000000000e+00
     1486000000   -2,277687341e-01   -1,453691423e-01    9,154004455e-01   -3,041903861e-02    0,000000000e+00    0,000000000e+00    0,000000000e+00    0,000000000e+00
     1500000000   -3,058235347e-01   -6,425717473e-02    8,676636815e-01   -4,093327224e-01    0,000000000e+00    0,000000000e+00    0,000000000e+00    0,000000000e+00
