! NanoVNA-App
! Date: 2025-09-25 14:57:54
! Start: 100MHz Stop: 1,5GHz Points: 101
! S-Parameter data: F S11 S21 S12 S22
# Hz S RI R 50
!     Frequency           S11_Real           S11_Imag           S21_Real           S21_Imag           S12_Real           S12_Imag           S22_Real           S22_Imag
      100000000    3,558167815e-02    2,733884752e-02    4,407374859e-01   -6,694865823e-01    0,000000000e+00    0,000000000e+00    0,000000000e+00    0,000000000e+00
      114000000    6,071162224e-02    2,161206212e-03    1,285431348e-02   -7,951534986e-01    0,000000000e+00    0,000000000e+00    0,000000000e+00    0,000000000e+00
      128000000    6,834889948e-02   -4,227342829e-02   -4,084043205e-01   -6,782577038e-01    0,000000000e+00    0,000000000e+00    0,000000000e+00    0,000000000e+00
      142000000    4,351424426e-02   -8,878906816e-02   -7,050154805e-01   -3,608912528e-01    0,000000000e+00    0,000000000e+00    0,000000000e+00    0,000000000e+00
      156000000   -8,826750331e-03   -1,104611978e-01   -7,935721278e-01    6,854058802e-02    0,000000000e+00    0,000000000e+00    0,000000000e+00    0,000000000e+00
      170000000   -6,264214963e-02   -9,183810651e-02   -6,369411349e-01    4,864297807e-01    0,000000000e+00    0,000000000e+00    0,000000000e+00    0,000000000e+00
      184000000   -8,862771094e-02   -4,766423255e-02   -2,734771073e-01    7,558828592e-01    0,000000000e+00    0,000000000e+00    0,000000000e+00    0,000000000e+00
      198000000   -8,273502439e-02   -6,418283097e-03    1,795286089e-01    7,821290493e-01    0,000000000e+00    0,000000000e+00    0,000000000e+00    0,000000000e+00
      212000000   -6,271450222e-02    1,812150888e-02    5,707386732e-01    5,583874583e-01    0,000000000e+00    0,000000000e+00    0,000000000e+00    0,000000000e+00
      226000000   -4,150643945e-02    3,188395128e-02    7,766093016e-01    1,617995352e-01    0,000000000e+00    0,000000000e+00    0,000000000e+00    0,000000000e+00
      240000000   -1,479379181e-02    4,129421338e-02    7,359681129e-01   -2,786846161e-01    0,000000000e+00    0,000000000e+00    0,000000000e+00    0,000000000e+00
      254000000    2,147151157e-02    3,629027680e-02    4,678074419e-01   -6,218507290e-01    0,000000000e+00    0,000000000e+00    0,000000000e+00    0,000000000e+00
      268000000    5,333308503e-02    4,654756282e-03    6,661180407e-02   -7,672607303e-01    0,000000000e+00    0,000000000e+00    0,000000000e+00    0,000000000e+00
      282000000    5,740254745e-02   -4,499740899e-02   -3,452277184e-01   -6,825165153e-01    0,000000000e+00    0,000000000e+00    0,000000000e+00    0,000000000e+00
      296000000    2,607848868e-02   -8,468097448e-02   -6,548451185e-01   -3,977739811e-01    0,000000000e+00    0,000000000e+00    0,000000000e+00    0,000000000e+00
      310000000   -1,898507960e-02   -8,938202262e-02   -7,744500041e-01    1,058719214e-02    0,000000000e+00    0,000000000e+00    0,000000000e+00    0,000000000e+00
      324000000   -4,664005712e-02   -6,328099966e-02   -6,482121348e-01    4,304352701e-01    0,000000000e+00    0,000000000e+00    0,000000000e+00    0,000000000e+00
      338000000   -4,124316201e-02   -3,800732642e-02   -3,110897541e-01    7,089556456e-01    0,000000000e+00    0,000000000e+00    0,000000000e+00    0,000000000e+00
      352000000   -2,361388877e-02   -3,770281747e-02    1,187432408e-01    7,585496306e-01    0,000000000e+00    0,000000000e+00    0,000000000e+00    0,000000000e+00
      366000000   -2,287149429e-02   -5,616500601e-02    5,034537911e-01    5,718725920e-01    0,000000000e+00    0,000000000e+00    0,000000000e+00    0,000000000e+00
      380000000   -4,471494257e-02   -6,492813677e-02    7,266770601e-01    2,112298310e-01    0,000000000e+00    0,000000000e+00    0,000000000e+00    0,000000000e+00
      394000000   -6,607908010e-02   -5,032400787e-02    7,232376933e-01   -2,128909975e-01    0,000000000e+00    0,000000000e+00    0,000000000e+00    0,000000000e+00
      408000000   -6,720687449e-02   -2,628921531e-02    4,896335900e-01   -5,686629415e-01    0,000000000e+00    0,000000000e+00    0,000000000e+00    0,000000000e+00
      422000000   -5,294841155e-02   -1,527877711e-02    1,056694165e-01   -7,382740974e-01    0,000000000e+00    0,000000000e+00    0,000000000e+00    0,000000000e+00
      436000000   -4,610618204e-02   -1,895254478e-02   -3,054967225e-01   -6,756360531e-01    0,000000000e+00    0,000000000e+00    0,000000000e+00    0,000000000e+00
      450000000   -5,234357342e-02   -1,565201767e-02   -6,188842654e-01   -3,999104798e-01    0,000000000e+00    0,000000000e+00    0,000000000e+00    0,000000000e+00
      464000000   -5,037493631e-02    5,586276297e-03   -7,294270396e-01    3,088556230e-03    0,000000000e+00    0,000000000e+00    0,000000000e+00    0,000000000e+00
      478000000   -2,103753388e-02    2,630513720e-02   -5,987129807e-01    3,970698714e-01    0,000000000e+00    0,000000000e+00    0,000000000e+00    0,000000000e+00
      492000000    2,734726295e-02    1,442059688e-02   -2,812312245e-01    6,437867284e-01    0,000000000e+00    0,000000000e+00    0,000000000e+00    0,000000000e+00
      506000000    5,784398690e-02   -3,663818538e-02    1,035946235e-01    6,802788973e-01    0,000000000e+00    0,000000000e+00    0,000000000e+00    0,000000000e+00
      520000000    4,381895065e-02   -1,013674363e-01    4,421389103e-01    5,186088681e-01    0,000000000e+00    0,000000000e+00    0,000000000e+00    0,000000000e+00
      534000000   -1,177576836e-02   -1,420164406e-01    6,495736241e-01    2,075341940e-01    0,000000000e+00    0,000000000e+00    0,000000000e+00    0,000000000e+00
      548000000   -7,867910713e-02   -1,380013376e-01    6,621398330e-01   -1,735573858e-01    0,000000000e+00    0,000000000e+00    0,000000000e+00    0,000000000e+00
      562000000   -1,256909817e-01   -9,848057479e-02    4,558951259e-01   -5,073331594e-01    0,000000000e+00    0,000000000e+00    0,000000000e+00    0,000000000e+00
      576000000   -1,436938047e-01   -4,568309337e-02    8,941113949e-02   -6,657652855e-01    0,000000000e+00    0,000000000e+00    0,000000000e+00    0,000000000e+00
      590000000   -1,349050701e-01    1,189255808e-02   -2,932795286e-01   -5,846355557e-01    0,000000000e+00    0,000000000e+00    0,000000000e+00    0,000000000e+00
      604000000   -7,465767115e-02    6,741925329e-02   -5,291462541e-01   -2,812451422e-01    0,000000000e+00    0,000000000e+00    0,000000000e+00    0,000000000e+00
      618000000    3,703475744e-02    2,739779837e-02   -5,029035211e-01    1,728821732e-02    0,000000000e+00    0,000000000e+00    0,000000000e+00    0,000000000e+00
      632000000    2,767393307e-04   -1,044000611e-01   -4,621723294e-01    1,719943285e-01    0,000000000e+00    0,000000000e+00    0,000000000e+00    0,000000000e+00
      646000000   -1,032503471e-01   -6,968283653e-02   -3,796568811e-01    4,364898801e-01    0,000000000e+00    0,000000000e+00    0,000000000e+00    0,000000000e+00
      660000000   -8,949380368e-02    2,586947288e-03   -7,064593583e-02    6,168688536e-01    0,000000000e+00    0,000000000e+00    0,000000000e+00    0,000000000e+00
      674000000   -4,103473201e-02    1,292051189e-02    2,862616777e-01    5,582829714e-01    0,000000000e+00    0,000000000e+00    0,000000000e+00    0,000000000e+00
      688000000   -1,645227522e-02   -8,037039079e-03    5,431130528e-01    3,114124238e-01    0,000000000e+00    0,000000000e+00    0,000000000e+00    0,000000000e+00
      702000000   -9,931564331e-03   -2,796384692e-02    6,198232174e-01   -3,369243816e-02    0,000000000e+00    0,000000000e+00    0,000000000e+00    0,000000000e+00
      716000000   -4,461158067e-03   -4,777726904e-02    4,962687492e-01   -3,642532527e-01    0,000000000e+00    0,000000000e+00    0,000000000e+00    0,000000000e+00
      730000000   -3,677894594e-03   -7,665835321e-02    2,179684639e-01   -5,670755506e-01    0,000000000e+00    0,000000000e+00    0,000000000e+00    0,000000000e+00
      744000000   -2,508126944e-02   -1,150211617e-01   -1,196610183e-01   -5,911257863e-01    0,000000000e+00    0,000000000e+00    0,000000000e+00    0,000000000e+00
      758000000   -7,634308934e-02   -1,368935853e-01   -4,186686277e-01   -4,373288453e-01    0,000000000e+00    0,000000000e+00    0,000000000e+00    0,000000000e+00
      772000000   -1,383294165e-01   -1,179599464e-01   -5,965456367e-01   -1,439961046e-01    0,000000000e+00    0,000000000e+00    0,000000000e+00    0,000000000e+00
      786000000   -1,744967997e-01   -5,710745603e-02   -5,857682228e-01    2,089978158e-01    0,000000000e+00    0,000000000e+00    0,000000000e+00    0,000000000e+00
      800000000   -1,602309495e-01    1,020449866e-02   -3,759958446e-01    4,976989329e-01    0,000000000e+00    0,000000000e+00    0,000000000e+00    0,000000000e+00
      814000000   -1,127666309e-01    4,595835507e-02   -4,634426907e-02    6,176037788e-01    0,000000000e+00    0,000000000e+00    0,000000000e+00    0,000000000e+00
      828000000   -6,567875296e-02    4,406788200e-02    2,858794630e-01    5,428287983e-01    0,000000000e+00    0,000000000e+00    0,000000000e+00    0,000000000e+00
      842000000   -3,648563474e-02    2,636049874e-02    5,225315690e-01    3,074461818e-01    0,000000000e+00    0,000000000e+00    0,000000000e+00    0,000000000e+00
      856000000   -1,823091879e-02    8,506133221e-03    5,970418453e-01   -1,347685978e-02    0,000000000e+00    0,000000000e+00    0,000000000e+00    0,000000000e+00
      870000000   -1,279611373e-03   -1,337828860e-02    4,905236661e-01   -3,190877438e-01    0,000000000e+00    0,000000000e+00    0,000000000e+00    0,000000000e+00
      884000000    9,784762748e-03   -5,020117760e-02    2,423489988e-01   -5,153809786e-01    0,000000000e+00    0,000000000e+00    0,000000000e+00    0,000000000e+00
      898000000   -5,104004405e-03   -9,880671650e-02   -5,902151391e-02   -5,580663681e-01    0,000000000e+00    0,000000000e+00    0,000000000e+00    0,000000000e+00
      912000000   -6,082481518e-02   -1,291579753e-01   -3,846837282e-01   -4,152769446e-01    0,000000000e+00    0,000000000e+00    0,000000000e+00    0,000000000e+00
      926000000   -1,230518743e-01   -1,189820319e-01   -5,691658258e-01   -1,503388882e-01    0,000000000e+00    0,000000000e+00    0,000000000e+00    0,000000000e+00
      940000000   -1,594451368e-01   -6,676694751e-02   -5,700157285e-01    1,930707544e-01    0,000000000e+00    0,000000000e+00    0,000000000e+00    0,000000000e+00
      954000000   -1,500833780e-01   -4,858784843e-03   -3,760969043e-01    4,880437851e-01    0,000000000e+00    0,000000000e+00    0,000000000e+00    0,000000000e+00
      968000000   -9,980718791e-02    1,923070289e-02   -4,942306876e-02    6,177248359e-01    0,000000000e+00    0,000000000e+00    0,000000000e+00    0,000000000e+00
      982000000   -6,058229879e-02    7,907093503e-03    2,861404121e-01    5,542780757e-01    0,000000000e+00    0,000000000e+00    0,000000000e+00    0,000000000e+00
      996000000   -4,208821058e-02   -3,038514033e-02    5,271022320e-01    3,247870803e-01    0,000000000e+00    0,000000000e+00    0,000000000e+00    0,000000000e+00
     1010000000   -5,726076290e-02   -6,225346401e-02    6,081982851e-01    9,692009538e-03    0,000000000e+00    0,000000000e+00    0,000000000e+00    0,000000000e+00
     1024000000   -9,338978678e-02   -7,519873977e-02    5,085529089e-01   -2,868457735e-01    0,000000000e+00    0,000000000e+00    0,000000000e+00    0,000000000e+00
     1038000000   -1,386984736e-01   -6,383728981e-02    2,885017097e-01   -4,676424265e-01    0,000000000e+00    0,000000000e+00    0,000000000e+00    0,000000000e+00
     1052000000   -1,513298303e-01   -8,184040897e-03    3,425927460e-02   -5,221686959e-01    0,000000000e+00    0,000000000e+00    0,000000000e+00    0,000000000e+00
     1066000000   -1,083962098e-01    3,726070747e-02   -2,078552097e-01   -4,618659317e-01    0,000000000e+00    0,000000000e+00    0,000000000e+00    0,000000000e+00
     1080000000   -5,453457683e-02    3,145365790e-02   -4,156690538e-01   -2,965900898e-01    0,000000000e+00    0,000000000e+00    0,000000000e+00    0,000000000e+00
     1094000000   -3,597433120e-02   -1,976912143e-03   -5,165834427e-01   -2,023947611e-02    0,000000000e+00    0,000000000e+00    0,000000000e+00    0,000000000e+00
     1108000000   -2,819367312e-02   -3,373202309e-02   -4,411382079e-01    2,817082405e-01    0,000000000e+00    0,000000000e+00    0,000000000e+00    0,000000000e+00
     1122000000   -2,975054272e-02   -5,759502947e-02   -1,871579885e-01    4,908894897e-01    0,000000000e+00    0,000000000e+00    0,000000000e+00    0,000000000e+00
     1136000000   -4,359086975e-02   -9,398348629e-02    1,498801708e-01    5,189557076e-01    0,000000000e+00    0,000000000e+00    0,000000000e+00    0,000000000e+00
     1150000000   -8,756098151e-02   -1,242259964e-01    4,520913959e-01    3,416571915e-01    0,000000000e+00    0,000000000e+00    0,000000000e+00    0,000000000e+00
     1164000000   -1,448251456e-01   -1,225006953e-01    6,072041988e-01    9,549543262e-03    0,000000000e+00    0,000000000e+00    0,000000000e+00    0,000000000e+00
     1178000000   -1,763698906e-01   -8,410944790e-02    5,379859805e-01   -3,691385984e-01    0,000000000e+00    0,000000000e+00    0,000000000e+00    0,000000000e+00
     1192000000   -1,775239110e-01   -5,366835371e-02    2,421288490e-01   -6,335731149e-01    0,000000000e+00    0,000000000e+00    0,000000000e+00    0,000000000e+00
     1206000000   -1,852798462e-01   -5,587112159e-02   -1,364399046e-01   -6,611735821e-01    0,000000000e+00    0,000000000e+00    0,000000000e+00    0,000000000e+00
     1220000000   -2,560791373e-01   -1,830738597e-02   -4,205329120e-01   -4,856913984e-01    0,000000000e+00    0,000000000e+00    0,000000000e+00    0,000000000e+00
     1234000000   -2,438173294e-01    1,162855402e-01   -5,590866804e-01   -2,492651492e-01    0,000000000e+00    0,000000000e+00    0,000000000e+00    0,000000000e+00
     1248000000   -1,145006046e-01    1,731691062e-01   -5,989997983e-01    2,125640772e-02    0,000000000e+00    0,000000000e+00    0,000000000e+00    0,000000000e+00
     1262000000   -5,682832561e-03    1,314066648e-01   -5,101161003e-01    2,927399576e-01    0,000000000e+00    0,000000000e+00    0,000000000e+00    0,000000000e+00
     1276000000    6,175755337e-02    3,963240981e-02   -2,774843872e-01    4,862354994e-01    0,000000000e+00    0,000000000e+00    0,000000000e+00    0,000000000e+00
     1290000000    7,181952894e-02   -6,768424064e-02    1,004490908e-02    5,532989502e-01    0,000000000e+00    0,000000000e+00    0,000000000e+00    0,000000000e+00
     1304000000    2,132959291e-02   -1,784661114e-01    3,013797104e-01    4,764991403e-01    0,000000000e+00    0,000000000e+00    0,000000000e+00    0,000000000e+00
     1318000000   -9,354767948e-02   -2,569514215e-01    5,327024460e-01    2,712610960e-01    0,000000000e+00    0,000000000e+00    0,000000000e+00    0,000000000e+00
     1332000000   -2,398549616e-01   -2,500398755e-01    6,519272327e-01   -5,483132973e-02    0,000000000e+00    0,000000000e+00    0,000000000e+00    0,000000000e+00
     1346000000   -3,618576229e-01   -1,399677992e-01    5,515257716e-01   -4,006968141e-01    0,000000000e+00    0,000000000e+00    0,000000000e+00    0,000000000e+00
     1360000000   -3,884103298e-01    1,343840547e-02    2,447991222e-01   -6,287817955e-01    0,000000000e+00    0,000000000e+00    0,000000000e+00    0,000000000e+00
     1374000000   -3,253896832e-01    1,173649728e-01   -9,697904438e-02   -6,258679628e-01    0,000000000e+00    0,000000000e+00    0,000000000e+00    0,000000000e+00
     1388000000   -2,358654737e-01    1,723148525e-01   -3,801350296e-01   -4,288387001e-01    0,000000000e+00    0,000000000e+00    0,000000000e+00    0,000000000e+00
     1402000000   -1,511257440e-01    1,733395457e-01   -4,745365679e-01   -1,035002992e-01    0,000000000e+00    0,000000000e+00    0,000000000e+00    0,000000000e+00
     1416000000   -8,058799803e-02    1,377448291e-01   -3,926054537e-01    2,020253986e-01    0,000000000e+00    0,000000000e+00    0,000000000e+00    0,000000000e+00
     1430000000   -3,012891486e-02    8,403088152e-02   -1,724074483e-01    4,114159048e-01    0,000000000e+00    0,000000000e+00    0,000000000e+00    0,000000000e+00
     1444000000   -1,122342236e-02    4,764859565e-03    1,169728786e-01    5,233766437e-01    0,000000000e+00    0,000000000e+00    0,000000000e+00    0,000000000e+00
     1458000000   -4,018169269e-02   -8,787849545e-02    4,344051778e-01    4,789968729e-01    0,000000000e+00    0,000000000e+00    0,000000000e+00    0,000000000e+00
     1472000000   -1,249512956e-01   -1,514017284e-01    7,115234137e-01    3,068566918e-01    0,000000000e+00    0,000000000e+00    0,000000000e+00    0,000000000e+00
     1486000000   -2,395095229e-01   -1,514032930e-01    8,931950331e-01   -4,392923787e-02    0,000000000e+00    0,000000000e+00    0,000000000e+00    0,000000000e+00
     1500000000   -3,093433082e-01   -5,765223503e-02    8,287689090e-01   -4,123010635e-01    0,000000000e+00    0,000000000e+00    0,000000000e+00    0,000000000e+00
