! NanoVNA-App
! Date: 2025-09-25 14:57:25
! Start: 100MHz Stop: 1,5GHz Points: 101
! S-Parameter data: F S11 S21 S12 S22
# Hz S RI R 50
!     Frequency           S11_Real           S11_Imag           S21_Real           S21_Imag           S12_Real           S12_Imag           S22_Real           S22_Imag
      100000000    3,561132774e-02    2,733656764e-02    4,406647384e-01   -6,694532633e-01    0,000000000e+00    0,000000000e+00    0,000000000e+00    0,000000000e+00
      114000000    6,070483476e-02    2,145744627e-03    1,274658274e-02   -7,953146696e-01    0,000000000e+00    0,000000000e+00    0,000000000e+00    0,000000000e+00
      128000000    6,839859486e-02   -4,220402613e-02   -4,082907140e-01   -6,781660318e-01    0,000000000e+00    0,000000000e+00    0,000000000e+00    0,000000000e+00
      142000000    4,349902645e-02   -8,879779279e-02   -7,052587271e-01   -3,606823385e-01    0,000000000e+00    0,000000000e+00    0,000000000e+00    0,000000000e+00
      156000000   -8,682882413e-03   -1,104463935e-01   -7,941244841e-01    6,845457852e-02    0,000000000e+00    0,000000000e+00    0,000000000e+00    0,000000000e+00
      170000000   -6,266131997e-02   -9,173449874e-02   -6,368455887e-01    4,864527285e-01    0,000000000e+00    0,000000000e+00    0,000000000e+00    0,000000000e+00
      184000000   -8,859895170e-02   -4,768294469e-02   -2,731185555e-01    7,563131452e-01    0,000000000e+00    0,000000000e+00    0,000000000e+00    0,000000000e+00
      198000000   -8,270443976e-02   -6,401144434e-03    1,794598699e-01    7,821731567e-01    0,000000000e+00    0,000000000e+00    0,000000000e+00    0,000000000e+00
      212000000   -6,262794137e-02    1,811335981e-02    5,707848072e-01    5,582147837e-01    0,000000000e+00    0,000000000e+00    0,000000000e+00    0,000000000e+00
      226000000   -4,138809815e-02    3,182630986e-02    7,766807079e-01    1,620424837e-01    0,000000000e+00    0,000000000e+00    0,000000000e+00    0,000000000e+00
      240000000   -1,479086373e-02    4,134546220e-02    7,358770370e-01   -2,786716223e-01    0,000000000e+00    0,000000000e+00    0,000000000e+00    0,000000000e+00
      254000000    2,148765884e-02    3,624682501e-02    4,675983787e-01   -6,215719581e-01    0,000000000e+00    0,000000000e+00    0,000000000e+00    0,000000000e+00
      268000000    5,338902026e-02    4,608447198e-03    6,707327068e-02   -7,670699358e-01    0,000000000e+00    0,000000000e+00    0,000000000e+00    0,000000000e+00
      282000000    5,746071413e-02   -4,499414191e-02   -3,452486396e-01   -6,826096773e-01    0,000000000e+00    0,000000000e+00    0,000000000e+00    0,000000000e+00
      296000000    2,605161071e-02   -8,486185223e-02   -6,548857093e-01   -3,978392184e-01    0,000000000e+00    0,000000000e+00    0,000000000e+00    0,000000000e+00
      310000000   -1,905240677e-02   -8,941763639e-02   -7,747149467e-01    1,058746781e-02    0,000000000e+00    0,000000000e+00    0,000000000e+00    0,000000000e+00
      324000000   -4,669929668e-02   -6,367081404e-02   -6,482157111e-01    4,298709333e-01    0,000000000e+00    0,000000000e+00    0,000000000e+00    0,000000000e+00
      338000000   -4,121528193e-02   -3,792603686e-02   -3,095869720e-01    7,084562182e-01    0,000000000e+00    0,000000000e+00    0,000000000e+00    0,000000000e+00
      352000000   -2,347411029e-02   -3,771888465e-02    1,202770323e-01    7,579931021e-01    0,000000000e+00    0,000000000e+00    0,000000000e+00    0,000000000e+00
      366000000   -2,308766916e-02   -5,594092980e-02    5,026564002e-01    5,724275708e-01    0,000000000e+00    0,000000000e+00    0,000000000e+00    0,000000000e+00
      380000000   -4,457334429e-02   -6,488499045e-02    7,269447446e-01    2,114510685e-01    0,000000000e+00    0,000000000e+00    0,000000000e+00    0,000000000e+00
      394000000   -6,600937247e-02   -5,049970001e-02    7,228279710e-01   -2,132539749e-01    0,000000000e+00    0,000000000e+00    0,000000000e+00    0,000000000e+00
      408000000   -6,733530760e-02   -2,633744664e-02    4,895904064e-01   -5,669336319e-01    0,000000000e+00    0,000000000e+00    0,000000000e+00    0,000000000e+00
      422000000   -5,296186358e-02   -1,552546956e-02    1,060176492e-01   -7,385799885e-01    0,000000000e+00    0,000000000e+00    0,000000000e+00    0,000000000e+00
      436000000   -4,614496604e-02   -1,865683123e-02   -3,056329787e-01   -6,755706668e-01    0,000000000e+00    0,000000000e+00    0,000000000e+00    0,000000000e+00
      450000000   -5,205187201e-02   -1,536004618e-02   -6,186316013e-01   -3,997821212e-01    0,000000000e+00    0,000000000e+00    0,000000000e+00    0,000000000e+00
      464000000   -5,045410246e-02    5,186377093e-03   -7,295346856e-01    3,190151183e-03    0,000000000e+00    0,000000000e+00    0,000000000e+00    0,000000000e+00
      478000000   -2,114607021e-02    2,617553994e-02   -5,987236500e-01    3,964316547e-01    0,000000000e+00    0,000000000e+00    0,000000000e+00    0,000000000e+00
      492000000    2,722626925e-02    1,462663524e-02   -2,806362212e-01    6,435933113e-01    0,000000000e+00    0,000000000e+00    0,000000000e+00    0,000000000e+00
      506000000    5,797384307e-02   -3,666874766e-02    1,040000692e-01    6,803778410e-01    0,000000000e+00    0,000000000e+00    0,000000000e+00    0,000000000e+00
      520000000    4,405941442e-02   -1,010021642e-01    4,403798282e-01    5,184561610e-01    0,000000000e+00    0,000000000e+00    0,000000000e+00    0,000000000e+00
      534000000   -1,222631801e-02   -1,417908520e-01    6,496008635e-01    2,074249834e-01    0,000000000e+00    0,000000000e+00    0,000000000e+00    0,000000000e+00
      548000000   -7,860887796e-02   -1,380774379e-01    6,611704826e-01   -1,736821234e-01    0,000000000e+00    0,000000000e+00    0,000000000e+00    0,000000000e+00
      562000000   -1,261692941e-01   -9,841967374e-02    4,558556080e-01   -5,073959827e-01    0,000000000e+00    0,000000000e+00    0,000000000e+00    0,000000000e+00
      576000000   -1,440681517e-01   -4,565847293e-02    8,938331157e-02   -6,651301980e-01    0,000000000e+00    0,000000000e+00    0,000000000e+00    0,000000000e+00
      590000000   -1,345212013e-01    1,237081829e-02   -2,966462672e-01   -5,825844407e-01    0,000000000e+00    0,000000000e+00    0,000000000e+00    0,000000000e+00
      604000000   -7,357037812e-02    6,711937487e-02   -5,279002786e-01   -2,811596394e-01    0,000000000e+00    0,000000000e+00    0,000000000e+00    0,000000000e+00
      618000000    3,702586144e-02    2,555331215e-02   -5,019339919e-01    1,479816716e-02    0,000000000e+00    0,000000000e+00    0,000000000e+00    0,000000000e+00
      632000000   -1,594145782e-03   -1,037625372e-01   -4,657603204e-01    1,718498319e-01    0,000000000e+00    0,000000000e+00    0,000000000e+00    0,000000000e+00
      646000000   -1,031122655e-01   -6,696240604e-02   -3,798124492e-01    4,396924973e-01    0,000000000e+00    0,000000000e+00    0,000000000e+00    0,000000000e+00
      660000000   -8,817995340e-02    3,724723356e-03   -7,049081475e-02    6,166955829e-01    0,000000000e+00    0,000000000e+00    0,000000000e+00    0,000000000e+00
      674000000   -4,028461874e-02    1,190776285e-02    2,864227295e-01    5,592517853e-01    0,000000000e+00    0,000000000e+00    0,000000000e+00    0,000000000e+00
      688000000   -1,587178372e-02   -9,053013287e-03    5,437836051e-01    3,109945059e-01    0,000000000e+00    0,000000000e+00    0,000000000e+00    0,000000000e+00
      702000000   -9,607129730e-03   -2,834636718e-02    6,208642125e-01   -3,406572342e-02    0,000000000e+00    0,000000000e+00    0,000000000e+00    0,000000000e+00
      716000000   -4,640684929e-03   -4,821858928e-02    4,967225194e-01   -3,644982576e-01    0,000000000e+00    0,000000000e+00    0,000000000e+00    0,000000000e+00
      730000000   -2,891976386e-03   -7,714427263e-02    2,169672698e-01   -5,681605935e-01    0,000000000e+00    0,000000000e+00    0,000000000e+00    0,000000000e+00
      744000000   -2,508148924e-02   -1,148155555e-01   -1,191146895e-01   -5,914466977e-01    0,000000000e+00    0,000000000e+00    0,000000000e+00    0,000000000e+00
      758000000   -7,623894513e-02   -1,370623857e-01   -4,185649753e-01   -4,378494918e-01    0,000000000e+00    0,000000000e+00    0,000000000e+00    0,000000000e+00
      772000000   -1,384915262e-01   -1,178530455e-01   -5,964674950e-01   -1,435433030e-01    0,000000000e+00    0,000000000e+00    0,000000000e+00    0,000000000e+00
      786000000   -1,756790727e-01   -5,671590939e-02   -5,853123665e-01    2,096275687e-01    0,000000000e+00    0,000000000e+00    0,000000000e+00    0,000000000e+00
      800000000   -1,613448113e-01    1,022603642e-02   -3,765795529e-01    4,981395602e-01    0,000000000e+00    0,000000000e+00    0,000000000e+00    0,000000000e+00
      814000000   -1,120490655e-01    4,602650180e-02   -4,701428488e-02    6,179850698e-01    0,000000000e+00    0,000000000e+00    0,000000000e+00    0,000000000e+00
      828000000   -6,471771747e-02    4,364733025e-02    2,875080705e-01    5,433485508e-01    0,000000000e+00    0,000000000e+00    0,000000000e+00    0,000000000e+00
      842000000   -3,557725251e-02    2,646811493e-02    5,224860907e-01    3,060360551e-01    0,000000000e+00    0,000000000e+00    0,000000000e+00    0,000000000e+00
      856000000   -1,877455972e-02    7,918839343e-03    5,967665911e-01   -1,505354326e-02    0,000000000e+00    0,000000000e+00    0,000000000e+00    0,000000000e+00
      870000000   -1,353568397e-03   -1,370459516e-02    4,881628156e-01   -3,192001283e-01    0,000000000e+00    0,000000000e+00    0,000000000e+00    0,000000000e+00
      884000000    9,247335605e-03   -5,089303851e-02    2,427378595e-01   -5,144245625e-01    0,000000000e+00    0,000000000e+00    0,000000000e+00    0,000000000e+00
      898000000   -7,011921611e-03   -9,788595140e-02   -6,108230725e-02   -5,571721792e-01    0,000000000e+00    0,000000000e+00    0,000000000e+00    0,000000000e+00
      912000000   -6,146556884e-02   -1,275287122e-01   -3,970959485e-01   -4,107624292e-01    0,000000000e+00    0,000000000e+00    0,000000000e+00    0,000000000e+00
      926000000   -1,228286624e-01   -1,175750196e-01   -5,683061481e-01   -1,453153044e-01    0,000000000e+00    0,000000000e+00    0,000000000e+00    0,000000000e+00
      940000000   -1,593190134e-01   -6,654093415e-02   -5,666586161e-01    1,919433773e-01    0,000000000e+00    0,000000000e+00    0,000000000e+00    0,000000000e+00
      954000000   -1,445438266e-01   -8,448451757e-03   -3,732893467e-01    4,827938676e-01    0,000000000e+00    0,000000000e+00    0,000000000e+00    0,000000000e+00
      968000000   -1,023489609e-01    1,972105540e-02   -5,482623726e-02    6,154744029e-01    0,000000000e+00    0,000000000e+00    0,000000000e+00    0,000000000e+00
      982000000   -5,728581548e-02    5,718492903e-03    2,813034356e-01    5,548774600e-01    0,000000000e+00    0,000000000e+00    0,000000000e+00    0,000000000e+00
      996000000   -4,913585633e-02   -3,289856389e-02    5,244662166e-01    3,283712566e-01    0,000000000e+00    0,000000000e+00    0,000000000e+00    0,000000000e+00
     1010000000   -6,628552824e-02   -5,819124728e-02    6,094170809e-01    1,428809855e-02    0,000000000e+00    0,000000000e+00    0,000000000e+00    0,000000000e+00
     1024000000   -9,792032838e-02   -7,365375757e-02    5,157759190e-01   -2,853371203e-01    0,000000000e+00    0,000000000e+00    0,000000000e+00    0,000000000e+00
     1038000000   -1,302191615e-01   -5,629456043e-02    2,943653166e-01   -4,737764895e-01    0,000000000e+00    0,000000000e+00    0,000000000e+00    0,000000000e+00
     1052000000   -1,478288323e-01   -1,143674273e-02    3,089567274e-02   -5,291347504e-01    0,000000000e+00    0,000000000e+00    0,000000000e+00    0,000000000e+00
     1066000000   -1,154642925e-01    2,626040205e-02   -2,177260369e-01   -4,673755169e-01    0,000000000e+00    0,000000000e+00    0,000000000e+00    0,000000000e+00
     1080000000   -6,441859901e-02    2,821967378e-02   -4,224981368e-01   -2,887625992e-01    0,000000000e+00    0,000000000e+00    0,000000000e+00    0,000000000e+00
     1094000000   -3,890892118e-02    3,510471201e-03   -5,133216977e-01   -1,636507921e-02    0,000000000e+00    0,000000000e+00    0,000000000e+00    0,000000000e+00
     1108000000   -2,770000324e-02   -2,890172601e-02   -4,326510429e-01    2,850557864e-01    0,000000000e+00    0,000000000e+00    0,000000000e+00    0,000000000e+00
     1122000000   -2,395352535e-02   -6,059910730e-02   -1,820520312e-01    4,908428788e-01    0,000000000e+00    0,000000000e+00    0,000000000e+00    0,000000000e+00
     1136000000   -3,688759357e-02   -9,834312648e-02    1,488238573e-01    5,129840374e-01    0,000000000e+00    0,000000000e+00    0,000000000e+00    0,000000000e+00
     1150000000   -7,887418568e-02   -1,273974925e-01    4,462531507e-01    3,416849971e-01    0,000000000e+00    0,000000000e+00    0,000000000e+00    0,000000000e+00
     1164000000   -1,377379447e-01   -1,238416731e-01    6,068487763e-01    1,289492194e-02    0,000000000e+00    0,000000000e+00    0,000000000e+00    0,000000000e+00
     1178000000   -1,789079159e-01   -8,655577898e-02    5,358254313e-01   -3,656692505e-01    0,000000000e+00    0,000000000e+00    0,000000000e+00    0,000000000e+00
     1192000000   -1,810037941e-01   -5,742366239e-02    2,447555214e-01   -6,313832402e-01    0,000000000e+00    0,000000000e+00    0,000000000e+00    0,000000000e+00
     1206000000   -1,881785244e-01   -5,253375322e-02   -1,314844191e-01   -6,626535654e-01    0,000000000e+00    0,000000000e+00    0,000000000e+00    0,000000000e+00
     1220000000   -2,546105683e-01   -1,562098321e-02   -4,207402766e-01   -4,867312908e-01    0,000000000e+00    0,000000000e+00    0,000000000e+00    0,000000000e+00
     1234000000   -2,398078591e-01    1,092975736e-01   -5,584256649e-01   -2,473062128e-01    0,000000000e+00    0,000000000e+00    0,000000000e+00    0,000000000e+00
     1248000000   -1,123262644e-01    1,712804735e-01   -6,029812694e-01    1,650467142e-02    0,000000000e+00    0,000000000e+00    0,000000000e+00    0,000000000e+00
     1262000000    3,098200541e-04    1,349880695e-01   -5,039709806e-01    2,915029526e-01    0,000000000e+00    0,000000000e+00    0,000000000e+00    0,000000000e+00
     1276000000    6,183294952e-02    3,606833145e-02   -2,832649648e-01    4,823658764e-01    0,000000000e+00    0,000000000e+00    0,000000000e+00    0,000000000e+00
     1290000000    6,879591197e-02   -6,852453202e-02    3,857400035e-03    5,481661558e-01    0,000000000e+00    0,000000000e+00    0,000000000e+00    0,000000000e+00
     1304000000    1,808130741e-02   -1,868097335e-01    2,961419225e-01    4,772190452e-01    0,000000000e+00    0,000000000e+00    0,000000000e+00    0,000000000e+00
     1318000000   -9,915216267e-02   -2,510910630e-01    5,285165906e-01    2,718822360e-01    0,000000000e+00    0,000000000e+00    0,000000000e+00    0,000000000e+00
     1332000000   -2,463709265e-01   -2,495049238e-01    6,495137811e-01   -5,947319046e-02    0,000000000e+00    0,000000000e+00    0,000000000e+00    0,000000000e+00
     1346000000   -3,611869812e-01   -1,339988858e-01    5,584233403e-01   -4,039262533e-01    0,000000000e+00    0,000000000e+00    0,000000000e+00    0,000000000e+00
     1360000000   -3,865111470e-01    7,651365362e-03    2,515094280e-01   -6,303370595e-01    0,000000000e+00    0,000000000e+00    0,000000000e+00    0,000000000e+00
     1374000000   -3,291706145e-01    1,202853993e-01   -1,133435667e-01   -6,227605939e-01    0,000000000e+00    0,000000000e+00    0,000000000e+00    0,000000000e+00
     1388000000   -2,351726741e-01    1,689372957e-01   -3,685642779e-01   -4,153606594e-01    0,000000000e+00    0,000000000e+00    0,000000000e+00    0,000000000e+00
     1402000000   -1,563167423e-01    1,722949594e-01   -4,780065417e-01   -1,044096500e-01    0,000000000e+00    0,000000000e+00    0,000000000e+00    0,000000000e+00
     1416000000   -8,567768335e-02    1,447001547e-01   -3,941270411e-01    2,039625049e-01    0,000000000e+00    0,000000000e+00    0,000000000e+00    0,000000000e+00
     1430000000   -2,560270764e-02    8,915217966e-02   -1,688458025e-01    4,576548934e-01    0,000000000e+00    0,000000000e+00    0,000000000e+00    0,000000000e+00
     1444000000   -1,057003718e-02    4,279471003e-03    1,223084107e-01    5,232800245e-01    0,000000000e+00    0,000000000e+00    0,000000000e+00    0,000000000e+00
     1458000000   -4,189862683e-02   -8,076315373e-02    4,438713193e-01    4,923771620e-01    0,000000000e+00    0,000000000e+00    0,000000000e+00    0,000000000e+00
     1472000000   -1,260524839e-01   -1,536039114e-01    7,231131196e-01    2,873899639e-01    0,000000000e+00    0,000000000e+00    0,000000000e+00    0,000000000e+00
     1486000000   -2,333029062e-01   -1,414385438e-01    8,909977078e-01   -2,094642259e-02    0,000000000e+00    0,000000000e+00    0,000000000e+00    0,000000000e+00
     1500000000   -3,171450794e-01   -6,787972897e-02    8,261553049e-01   -4,206152260e-01    0,000000000e+00    0,000000000e+00    0,000000000e+00    0,000000000e+00
