! NanoVNA-App
! Date: 2025-09-25 14:55:52
! Start: 100MHz Stop: 1,5GHz Points: 101
! S-Parameter data: F S11 S21 S12 S22
# Hz S RI R 50
!     Frequency           S11_Real           S11_Imag           S21_Real           S21_Imag           S12_Real           S12_Imag           S22_Real           S22_Imag
      100000000    3,560449928e-02    2,697037347e-02    4,407198131e-01   -6,696119905e-01    0,000000000e+00    0,000000000e+00    0,000000000e+00    0,000000000e+00
      114000000    6,051123515e-02    1,718802028e-03    1,264054980e-02   -7,953537107e-01    0,000000000e+00    0,000000000e+00    0,000000000e+00    0,000000000e+00
      128000000    6,788259000e-02   -4,257896915e-02   -4,084297121e-01   -6,780812144e-01    0,000000000e+00    0,000000000e+00    0,000000000e+00    0,000000000e+00
      142000000    4,273423180e-02   -8,886774629e-02   -7,052597404e-01   -3,607667089e-01    0,000000000e+00    0,000000000e+00    0,000000000e+00    0,000000000e+00
      156000000   -9,796781465e-03   -1,100450903e-01   -7,937304378e-01    6,868469715e-02    0,000000000e+00    0,000000000e+00    0,000000000e+00    0,000000000e+00
      170000000   -6,334050745e-02   -9,097346663e-02   -6,371202469e-01    4,869454503e-01    0,000000000e+00    0,000000000e+00    0,000000000e+00    0,000000000e+00
      184000000   -8,868118376e-02   -4,653908312e-02   -2,728501558e-01    7,565695643e-01    0,000000000e+00    0,000000000e+00    0,000000000e+00    0,000000000e+00
      198000000   -8,211913705e-02   -5,386306439e-03    1,799027920e-01    7,825654745e-01    0,000000000e+00    0,000000000e+00    0,000000000e+00    0,000000000e+00
      212000000   -6,147944927e-02    1,869751513e-02    5,707554817e-01    5,578939915e-01    0,000000000e+00    0,000000000e+00    0,000000000e+00    0,000000000e+00
      226000000   -4,007440060e-02    3,171466291e-02    7,768867612e-01    1,616052836e-01    0,000000000e+00    0,000000000e+00    0,000000000e+00    0,000000000e+00
      240000000   -1,371158939e-02    4,036518186e-02    7,360997200e-01   -2,790129483e-01    0,000000000e+00    0,000000000e+00    0,000000000e+00    0,000000000e+00
      254000000    2,193748765e-02    3,474924713e-02    4,680749774e-01   -6,221773028e-01    0,000000000e+00    0,000000000e+00    0,000000000e+00    0,000000000e+00
      268000000    5,293522403e-02    3,071394749e-03    6,642623991e-02   -7,673190236e-01    0,000000000e+00    0,000000000e+00    0,000000000e+00    0,000000000e+00
      282000000    5,611786619e-02   -4,618405178e-02   -3,458211124e-01   -6,826620698e-01    0,000000000e+00    0,000000000e+00    0,000000000e+00    0,000000000e+00
      296000000    2,431267127e-02   -8,527623862e-02   -6,559871435e-01   -3,979653716e-01    0,000000000e+00    0,000000000e+00    0,000000000e+00    0,000000000e+00
      310000000   -2,099930495e-02   -8,860299736e-02   -7,736339569e-01    1,064206474e-02    0,000000000e+00    0,000000000e+00    0,000000000e+00    0,000000000e+00
      324000000   -4,787529260e-02   -6,180483475e-02   -6,472569704e-01    4,297890663e-01    0,000000000e+00    0,000000000e+00    0,000000000e+00    0,000000000e+00
      338000000   -4,143818840e-02   -3,582016379e-02   -3,086417615e-01    7,123581171e-01    0,000000000e+00    0,000000000e+00    0,000000000e+00    0,000000000e+00
      352000000   -2,282858640e-02   -3,581728414e-02    1,204685494e-01    7,582394481e-01    0,000000000e+00    0,000000000e+00    0,000000000e+00    0,000000000e+00
      366000000   -2,123977430e-02   -5,510749295e-02    5,043898225e-01    5,706717968e-01    0,000000000e+00    0,000000000e+00    0,000000000e+00    0,000000000e+00
      380000000   -4,255820066e-02   -6,506258994e-02    7,261604071e-01    2,108711153e-01    0,000000000e+00    0,000000000e+00    0,000000000e+00    0,000000000e+00
      394000000   -6,453452259e-02   -5,145894364e-02    7,228798866e-01   -2,136533111e-01    0,000000000e+00    0,000000000e+00    0,000000000e+00    0,000000000e+00
      408000000   -6,605788320e-02   -2,766863443e-02    4,901962876e-01   -5,677183867e-01    0,000000000e+00    0,000000000e+00    0,000000000e+00    0,000000000e+00
      422000000   -5,291616172e-02   -1,728321798e-02    1,063870415e-01   -7,390334606e-01    0,000000000e+00    0,000000000e+00    0,000000000e+00    0,000000000e+00
      436000000   -4,737744480e-02   -2,077658474e-02   -3,059897125e-01   -6,771341562e-01    0,000000000e+00    0,000000000e+00    0,000000000e+00    0,000000000e+00
      450000000   -5,405855179e-02   -1,593213156e-02   -6,194186807e-01   -3,988988400e-01    0,000000000e+00    0,000000000e+00    0,000000000e+00    0,000000000e+00
      464000000   -5,249427631e-02    5,087203812e-03   -7,300328016e-01    3,058858681e-03    0,000000000e+00    0,000000000e+00    0,000000000e+00    0,000000000e+00
      478000000   -2,247062139e-02    2,726140246e-02   -5,992240310e-01    3,976800144e-01    0,000000000e+00    0,000000000e+00    0,000000000e+00    0,000000000e+00
      492000000    2,655021474e-02    1,655094698e-02   -2,807796299e-01    6,453044415e-01    0,000000000e+00    0,000000000e+00    0,000000000e+00    0,000000000e+00
      506000000    5,857178196e-02   -3,489507735e-02    1,042805836e-01    6,814917922e-01    0,000000000e+00    0,000000000e+00    0,000000000e+00    0,000000000e+00
      520000000    4,547403753e-02   -9,987937659e-02    4,414336085e-01    5,180650353e-01    0,000000000e+00    0,000000000e+00    0,000000000e+00    0,000000000e+00
      534000000   -9,871377610e-03   -1,413146555e-01    6,508163810e-01    2,070610672e-01    0,000000000e+00    0,000000000e+00    0,000000000e+00    0,000000000e+00
      548000000   -7,691166550e-02   -1,395959854e-01    6,636303663e-01   -1,756016761e-01    0,000000000e+00    0,000000000e+00    0,000000000e+00    0,000000000e+00
      562000000   -1,257111579e-01   -1,022453532e-01    4,558773637e-01   -5,110560656e-01    0,000000000e+00    0,000000000e+00    0,000000000e+00    0,000000000e+00
      576000000   -1,485636830e-01   -5,022681504e-02    8,576276898e-02   -6,710075140e-01    0,000000000e+00    0,000000000e+00    0,000000000e+00    0,000000000e+00
      590000000   -1,467987746e-01    1,564049534e-02   -3,087622523e-01   -5,826884508e-01    0,000000000e+00    0,000000000e+00    0,000000000e+00    0,000000000e+00
      604000000   -7,305201888e-02    9,726586938e-02   -5,342500210e-01   -2,456593961e-01    0,000000000e+00    0,000000000e+00    0,000000000e+00    0,000000000e+00
      618000000    9,988402575e-02    7,271758281e-03   -4,257909060e-01    4,523471929e-03    0,000000000e+00    0,000000000e+00    0,000000000e+00    0,000000000e+00
      632000000   -4,829863831e-02   -1,500982493e-01   -5,163155794e-01    1,115091667e-01    0,000000000e+00    0,000000000e+00    0,000000000e+00    0,000000000e+00
      646000000   -1,294619590e-01   -3,911453858e-02   -4,135836363e-01    4,714606106e-01    0,000000000e+00    0,000000000e+00    0,000000000e+00    0,000000000e+00
      660000000   -7,873526961e-02    2,420663089e-02   -6,137210131e-02    6,421499252e-01    0,000000000e+00    0,000000000e+00    0,000000000e+00    0,000000000e+00
      674000000   -2,752107196e-02    1,563381962e-02    3,034962416e-01    5,652281046e-01    0,000000000e+00    0,000000000e+00    0,000000000e+00    0,000000000e+00
      688000000   -9,068086743e-03   -1,431134902e-02    5,567070246e-01    3,073268533e-01    0,000000000e+00    0,000000000e+00    0,000000000e+00    0,000000000e+00
      702000000   -8,249836974e-03   -3,590928391e-02    6,275178790e-01   -4,438559711e-02    0,000000000e+00    0,000000000e+00    0,000000000e+00    0,000000000e+00
      716000000   -7,519303355e-03   -5,189111084e-02    4,973572791e-01   -3,752056062e-01    0,000000000e+00    0,000000000e+00    0,000000000e+00    0,000000000e+00
      730000000   -7,081932854e-03   -7,853828371e-02    2,111789882e-01   -5,762951970e-01    0,000000000e+00    0,000000000e+00    0,000000000e+00    0,000000000e+00
      744000000   -2,918564156e-02   -1,131269261e-01   -1,295796037e-01   -5,953128934e-01    0,000000000e+00    0,000000000e+00    0,000000000e+00    0,000000000e+00
      758000000   -7,892528921e-02   -1,326013058e-01   -4,292057157e-01   -4,354353547e-01    0,000000000e+00    0,000000000e+00    0,000000000e+00    0,000000000e+00
      772000000   -1,387576908e-01   -1,129521728e-01   -6,029033661e-01   -1,363553554e-01    0,000000000e+00    0,000000000e+00    0,000000000e+00    0,000000000e+00
      786000000   -1,728068739e-01   -5,294871703e-02   -5,869513750e-01    2,195320427e-01    0,000000000e+00    0,000000000e+00    0,000000000e+00    0,000000000e+00
      800000000   -1,559640020e-01    1,132427435e-02   -3,705242276e-01    5,069637299e-01    0,000000000e+00    0,000000000e+00    0,000000000e+00    0,000000000e+00
      814000000   -1,077696010e-01    4,412267730e-02   -3,750031814e-02    6,211072803e-01    0,000000000e+00    0,000000000e+00    0,000000000e+00    0,000000000e+00
      828000000   -6,241464242e-02    3,945171088e-02    2,959133685e-01    5,409334898e-01    0,000000000e+00    0,000000000e+00    0,000000000e+00    0,000000000e+00
      842000000   -3,693156689e-02    2,215176448e-02    5,305151939e-01    2,996300161e-01    0,000000000e+00    0,000000000e+00    0,000000000e+00    0,000000000e+00
      856000000   -2,160575613e-02    6,271472201e-03    6,002329588e-01   -2,443814091e-02    0,000000000e+00    0,000000000e+00    0,000000000e+00    0,000000000e+00
      870000000   -4,819849040e-03   -1,370678935e-02    4,844863415e-01   -3,293446898e-01    0,000000000e+00    0,000000000e+00    0,000000000e+00    0,000000000e+00
      884000000    6,660876796e-03   -4,968198389e-02    2,336945981e-01   -5,218133926e-01    0,000000000e+00    0,000000000e+00    0,000000000e+00    0,000000000e+00
      898000000   -8,074833080e-03   -9,686719626e-02   -7,413478941e-02   -5,589926839e-01    0,000000000e+00    0,000000000e+00    0,000000000e+00    0,000000000e+00
      912000000   -6,390817463e-02   -1,260457784e-01   -4,049520791e-01   -4,008180201e-01    0,000000000e+00    0,000000000e+00    0,000000000e+00    0,000000000e+00
      926000000   -1,213915497e-01   -1,144216135e-01   -5,726718903e-01   -1,318926811e-01    0,000000000e+00    0,000000000e+00    0,000000000e+00    0,000000000e+00
      940000000   -1,567987055e-01   -5,974981561e-02   -5,642729998e-01    2,126410156e-01    0,000000000e+00    0,000000000e+00    0,000000000e+00    0,000000000e+00
      954000000   -1,426174641e-01   -9,577292076e-06   -3,565618098e-01    4,986966252e-01    0,000000000e+00    0,000000000e+00    0,000000000e+00    0,000000000e+00
      968000000   -9,580340981e-02    2,100891434e-02   -2,659002319e-02    6,175537109e-01    0,000000000e+00    0,000000000e+00    0,000000000e+00    0,000000000e+00
      982000000   -5,323733389e-02    5,609696265e-03    3,029728234e-01    5,380506516e-01    0,000000000e+00    0,000000000e+00    0,000000000e+00    0,000000000e+00
      996000000   -4,098492116e-02   -3,182668239e-02    5,334574580e-01    2,970253825e-01    0,000000000e+00    0,000000000e+00    0,000000000e+00    0,000000000e+00
     1010000000   -5,443057790e-02   -6,208851561e-02    5,921341777e-01   -1,718036272e-02    0,000000000e+00    0,000000000e+00    0,000000000e+00    0,000000000e+00
     1024000000   -8,846822381e-02   -8,832655102e-02    4,772520065e-01   -2,888129950e-01    0,000000000e+00    0,000000000e+00    0,000000000e+00    0,000000000e+00
     1038000000   -1,458221674e-01   -7,678557187e-02    2,762538195e-01   -4,482089281e-01    0,000000000e+00    0,000000000e+00    0,000000000e+00    0,000000000e+00
     1052000000   -1,670449674e-01   -1,432395726e-02    4,169872776e-02   -5,150458813e-01    0,000000000e+00    0,000000000e+00    0,000000000e+00    0,000000000e+00
     1066000000   -1,305885613e-01    3,597580642e-02   -2,228886485e-01   -4,616863430e-01    0,000000000e+00    0,000000000e+00    0,000000000e+00    0,000000000e+00
     1080000000   -8,089906722e-02    5,060609058e-02   -4,250537753e-01   -2,722097635e-01    0,000000000e+00    0,000000000e+00    0,000000000e+00    0,000000000e+00
     1094000000   -3,079479001e-02    3,477169201e-02   -4,908922613e-01    7,937875576e-03    0,000000000e+00    0,000000000e+00    0,000000000e+00    0,000000000e+00
     1108000000   -3,007157007e-03   -8,477388881e-03   -3,906203508e-01    2,767258286e-01    0,000000000e+00    0,000000000e+00    0,000000000e+00    0,000000000e+00
     1122000000    4,451759625e-03   -6,563916802e-02   -1,674272120e-01    4,458336830e-01    0,000000000e+00    0,000000000e+00    0,000000000e+00    0,000000000e+00
     1136000000   -2,593170106e-02   -1,202610359e-01    1,259540170e-01    4,793665111e-01    0,000000000e+00    0,000000000e+00    0,000000000e+00    0,000000000e+00
     1150000000   -8,002509177e-02   -1,512958705e-01    4,090102613e-01    3,384094834e-01    0,000000000e+00    0,000000000e+00    0,000000000e+00    0,000000000e+00
     1164000000   -1,530957073e-01   -1,435132474e-01    5,845564604e-01    3,563363478e-02    0,000000000e+00    0,000000000e+00    0,000000000e+00    0,000000000e+00
     1178000000   -2,015710473e-01   -1,015917212e-01    5,361354947e-01   -3,390016854e-01    0,000000000e+00    0,000000000e+00    0,000000000e+00    0,000000000e+00
     1192000000   -2,056284845e-01   -5,108441040e-02    2,653070688e-01   -6,226584315e-01    0,000000000e+00    0,000000000e+00    0,000000000e+00    0,000000000e+00
     1206000000   -1,988975108e-01   -2,566038817e-02   -1,181380227e-01   -6,716405749e-01    0,000000000e+00    0,000000000e+00    0,000000000e+00    0,000000000e+00
     1220000000   -2,352669537e-01    3,473498626e-03   -4,323401749e-01   -4,971427023e-01    0,000000000e+00    0,000000000e+00    0,000000000e+00    0,000000000e+00
     1234000000   -2,307517081e-01    1,075137109e-01   -5,638788342e-01   -2,338409722e-01    0,000000000e+00    0,000000000e+00    0,000000000e+00    0,000000000e+00
     1248000000   -1,161614656e-01    1,784317791e-01   -5,889241695e-01    2,919485979e-02    0,000000000e+00    0,000000000e+00    0,000000000e+00    0,000000000e+00
     1262000000   -1,813679701e-03    1,394144595e-01   -4,951815903e-01    2,916310132e-01    0,000000000e+00    0,000000000e+00    0,000000000e+00    0,000000000e+00
     1276000000    7,007708400e-02    4,848851636e-02   -2,720369995e-01    4,778890312e-01    0,000000000e+00    0,000000000e+00    0,000000000e+00    0,000000000e+00
     1290000000    7,795186341e-02   -7,297287881e-02    4,293997306e-03    5,356746316e-01    0,000000000e+00    0,000000000e+00    0,000000000e+00    0,000000000e+00
     1304000000    2,376364358e-02   -1,832559556e-01    2,889877856e-01    4,680412710e-01    0,000000000e+00    0,000000000e+00    0,000000000e+00    0,000000000e+00
     1318000000   -9,163100272e-02   -2,541632950e-01    5,238550901e-01    2,720713913e-01    0,000000000e+00    0,000000000e+00    0,000000000e+00    0,000000000e+00
     1332000000   -2,436172217e-01   -2,567901611e-01    6,333327293e-01   -5,091514811e-02    0,000000000e+00    0,000000000e+00    0,000000000e+00    0,000000000e+00
     1346000000   -3,698520064e-01   -1,470573992e-01    5,520495772e-01   -3,974521756e-01    0,000000000e+00    0,000000000e+00    0,000000000e+00    0,000000000e+00
     1360000000   -3,957101703e-01    4,885663744e-03    2,535780370e-01   -6,261841059e-01    0,000000000e+00    0,000000000e+00    0,000000000e+00    0,000000000e+00
     1374000000   -3,322376311e-01    1,206404120e-01   -9,753403068e-02   -6,120057106e-01    0,000000000e+00    0,000000000e+00    0,000000000e+00    0,000000000e+00
     1388000000   -2,490379214e-01    1,744787544e-01   -3,639036417e-01   -4,095182717e-01    0,000000000e+00    0,000000000e+00    0,000000000e+00    0,000000000e+00
     1402000000   -1,572536528e-01    1,833186150e-01   -4,725175798e-01   -1,097447202e-01    0,000000000e+00    0,000000000e+00    0,000000000e+00    0,000000000e+00
     1416000000   -8,097293973e-02    1,500563920e-01   -3,783401847e-01    1,976754963e-01    0,000000000e+00    0,000000000e+00    0,000000000e+00    0,000000000e+00
     1430000000   -2,842091955e-02    9,150858968e-02   -1,606956869e-01    4,288679659e-01    0,000000000e+00    0,000000000e+00    0,000000000e+00    0,000000000e+00
     1444000000   -5,859098397e-03    7,083884440e-03    1,218893230e-01    5,108287930e-01    0,000000000e+00    0,000000000e+00    0,000000000e+00    0,000000000e+00
     1458000000   -3,314518556e-02   -8,321893215e-02    4,187444746e-01    4,922736287e-01    0,000000000e+00    0,000000000e+00    0,000000000e+00    0,000000000e+00
     1472000000   -1,153335199e-01   -1,491903961e-01    7,155194879e-01    2,973140180e-01    0,000000000e+00    0,000000000e+00    0,000000000e+00    0,000000000e+00
     1486000000   -2,308827639e-01   -1,469109803e-01    8,783383965e-01   -2,204737253e-02    0,000000000e+00    0,000000000e+00    0,000000000e+00    0,000000000e+00
     1500000000   -2,986160219e-01   -7,456191629e-02    8,476454616e-01   -3,984832168e-01    0,000000000e+00    0,000000000e+00    0,000000000e+00    0,000000000e+00
