! NanoVNA-App
! Date: 2025-09-25 15:02:45
! Start: 100MHz Stop: 1,5GHz Points: 101
! S-Parameter data: F S11 S21 S12 S22
# Hz S RI R 50
!     Frequency           S11_Real           S11_Imag           S21_Real           S21_Imag           S12_Real           S12_Imag           S22_Real           S22_Imag
      100000000    3,561192006e-02    2,736621909e-02    4,407734573e-01   -6,695473790e-01    0,000000000e+00    0,000000000e+00    0,000000000e+00    0,000000000e+00
      114000000    6,075059623e-02    2,200045390e-03    1,270952728e-02   -7,953706980e-01    0,000000000e+00    0,000000000e+00    0,000000000e+00    0,000000000e+00
      128000000    6,838503480e-02   -4,224032909e-02   -4,081858695e-01   -6,780617237e-01    0,000000000e+00    0,000000000e+00    0,000000000e+00    0,000000000e+00
      142000000    4,347625375e-02   -8,880271018e-02   -7,052282095e-01   -3,610916138e-01    0,000000000e+00    0,000000000e+00    0,000000000e+00    0,000000000e+00
      156000000   -9,514225647e-03   -1,095174477e-01   -7,929765582e-01    6,688929349e-02    0,000000000e+00    0,000000000e+00    0,000000000e+00    0,000000000e+00
      170000000   -6,264900416e-02   -9,185859561e-02   -6,371847391e-01    4,866247177e-01    0,000000000e+00    0,000000000e+00    0,000000000e+00    0,000000000e+00
      184000000   -8,860445768e-02   -4,767979309e-02   -2,730985582e-01    7,561056018e-01    0,000000000e+00    0,000000000e+00    0,000000000e+00    0,000000000e+00
      198000000   -8,273103833e-02   -6,426993292e-03    1,796163470e-01    7,825459838e-01    0,000000000e+00    0,000000000e+00    0,000000000e+00    0,000000000e+00
      212000000   -6,270480901e-02    1,807340607e-02    5,705879927e-01    5,582379103e-01    0,000000000e+00    0,000000000e+00    0,000000000e+00    0,000000000e+00
      226000000   -4,149042070e-02    3,188038990e-02    7,768084407e-01    1,618937403e-01    0,000000000e+00    0,000000000e+00    0,000000000e+00    0,000000000e+00
      240000000   -1,493855473e-02    4,132295027e-02    7,361321449e-01   -2,787627578e-01    0,000000000e+00    0,000000000e+00    0,000000000e+00    0,000000000e+00
      254000000    2,141587436e-02    3,635482118e-02    4,680103958e-01   -6,219646931e-01    0,000000000e+00    0,000000000e+00    0,000000000e+00    0,000000000e+00
      268000000    5,330903083e-02    4,769015592e-03    6,690043956e-02   -7,677357197e-01    0,000000000e+00    0,000000000e+00    0,000000000e+00    0,000000000e+00
      282000000    5,741413310e-02   -4,493842646e-02   -3,457065225e-01   -6,826491356e-01    0,000000000e+00    0,000000000e+00    0,000000000e+00    0,000000000e+00
      296000000    2,605939098e-02   -8,481927961e-02   -6,546577811e-01   -3,976586759e-01    0,000000000e+00    0,000000000e+00    0,000000000e+00    0,000000000e+00
      310000000   -1,899265498e-02   -8,939100802e-02   -7,740558386e-01    1,151569653e-02    0,000000000e+00    0,000000000e+00    0,000000000e+00    0,000000000e+00
      324000000   -4,643958062e-02   -6,338240206e-02   -6,484109759e-01    4,299120307e-01    0,000000000e+00    0,000000000e+00    0,000000000e+00    0,000000000e+00
      338000000   -4,117679223e-02   -3,769562393e-02   -3,117480576e-01    7,104154229e-01    0,000000000e+00    0,000000000e+00    0,000000000e+00    0,000000000e+00
      352000000   -2,341467515e-02   -3,759114444e-02    1,195165589e-01    7,588385940e-01    0,000000000e+00    0,000000000e+00    0,000000000e+00    0,000000000e+00
      366000000   -2,326137759e-02   -5,612084642e-02    5,027089119e-01    5,722882152e-01    0,000000000e+00    0,000000000e+00    0,000000000e+00    0,000000000e+00
      380000000   -4,465040937e-02   -6,525168568e-02    7,264717221e-01    2,114682794e-01    0,000000000e+00    0,000000000e+00    0,000000000e+00    0,000000000e+00
      394000000   -6,659870595e-02   -5,076235905e-02    7,229914665e-01   -2,133631259e-01    0,000000000e+00    0,000000000e+00    0,000000000e+00    0,000000000e+00
      408000000   -6,745623797e-02   -2,666284703e-02    4,894199967e-01   -5,682452917e-01    0,000000000e+00    0,000000000e+00    0,000000000e+00    0,000000000e+00
      422000000   -5,316544697e-02   -1,534153987e-02    1,056173220e-01   -7,382881641e-01    0,000000000e+00    0,000000000e+00    0,000000000e+00    0,000000000e+00
      436000000   -4,640145972e-02   -1,879887842e-02   -3,062153459e-01   -6,765153408e-01    0,000000000e+00    0,000000000e+00    0,000000000e+00    0,000000000e+00
      450000000   -5,224548653e-02   -1,484523434e-02   -6,201012731e-01   -3,994272053e-01    0,000000000e+00    0,000000000e+00    0,000000000e+00    0,000000000e+00
      464000000   -5,007939786e-02    5,998482462e-03   -7,299032807e-01    3,576230491e-03    0,000000000e+00    0,000000000e+00    0,000000000e+00    0,000000000e+00
      478000000   -2,026795782e-02    2,609538287e-02   -5,992907286e-01    3,973041177e-01    0,000000000e+00    0,000000000e+00    0,000000000e+00    0,000000000e+00
      492000000    2,866890840e-02    1,466785744e-02   -2,800946236e-01    6,435386539e-01    0,000000000e+00    0,000000000e+00    0,000000000e+00    0,000000000e+00
      506000000    5,883928016e-02   -3,747446090e-02    1,052158549e-01    6,802157760e-01    0,000000000e+00    0,000000000e+00    0,000000000e+00    0,000000000e+00
      520000000    4,442071915e-02   -1,026475355e-01    4,417072535e-01    5,202216506e-01    0,000000000e+00    0,000000000e+00    0,000000000e+00    0,000000000e+00
      534000000   -1,273316238e-02   -1,440083832e-01    6,494134665e-01    2,054235637e-01    0,000000000e+00    0,000000000e+00    0,000000000e+00    0,000000000e+00
      548000000   -8,160855621e-02   -1,399714053e-01    6,601064801e-01   -1,765512377e-01    0,000000000e+00    0,000000000e+00    0,000000000e+00    0,000000000e+00
      562000000   -1,320452243e-01   -9,816756845e-02    4,503165781e-01   -5,089264512e-01    0,000000000e+00    0,000000000e+00    0,000000000e+00    0,000000000e+00
      576000000   -1,500915438e-01   -3,833761066e-02    8,143200725e-02   -6,607882977e-01    0,000000000e+00    0,000000000e+00    0,000000000e+00    0,000000000e+00
      590000000   -1,298016608e-01    3,060787171e-02   -2,963552475e-01   -5,624511242e-01    0,000000000e+00    0,000000000e+00    0,000000000e+00    0,000000000e+00
      604000000   -3,554451093e-02    6,807278097e-02   -4,851685464e-01   -2,698456049e-01    0,000000000e+00    0,000000000e+00    0,000000000e+00    0,000000000e+00
      618000000    3,407647461e-02   -3,341906890e-02   -4,942014217e-01   -5,480196700e-02    0,000000000e+00    0,000000000e+00    0,000000000e+00    0,000000000e+00
      632000000   -5,541848019e-02   -9,212812781e-02   -5,287156701e-01    1,784373820e-01    0,000000000e+00    0,000000000e+00    0,000000000e+00    0,000000000e+00
      646000000   -9,976088256e-02   -3,286796063e-02   -3,790515065e-01    4,789469540e-01    0,000000000e+00    0,000000000e+00    0,000000000e+00    0,000000000e+00
      660000000   -6,851686537e-02    9,962900542e-03   -5,040770397e-02    6,254304051e-01    0,000000000e+00    0,000000000e+00    0,000000000e+00    0,000000000e+00
      674000000   -3,001846373e-02    4,015083425e-03    2,983536422e-01    5,535213351e-01    0,000000000e+00    0,000000000e+00    0,000000000e+00    0,000000000e+00
      688000000   -1,485749520e-02   -1,875818893e-02    5,470291972e-01    3,037014306e-01    0,000000000e+00    0,000000000e+00    0,000000000e+00    0,000000000e+00
      702000000   -1,467210334e-02   -3,512979299e-02    6,214650869e-01   -4,035969824e-02    0,000000000e+00    0,000000000e+00    0,000000000e+00    0,000000000e+00
      716000000   -1,012658235e-02   -4,779517278e-02    4,913032651e-01   -3,684898317e-01    0,000000000e+00    0,000000000e+00    0,000000000e+00    0,000000000e+00
      730000000   -7,258690428e-03   -7,500356436e-02    2,108200788e-01   -5,683373213e-01    0,000000000e+00    0,000000000e+00    0,000000000e+00    0,000000000e+00
      744000000   -2,643308043e-02   -1,101028919e-01   -1,238524020e-01   -5,881041288e-01    0,000000000e+00    0,000000000e+00    0,000000000e+00    0,000000000e+00
      758000000   -7,441619039e-02   -1,331920922e-01   -4,190914035e-01   -4,325065017e-01    0,000000000e+00    0,000000000e+00    0,000000000e+00    0,000000000e+00
      772000000   -1,353039593e-01   -1,155555174e-01   -5,938509703e-01   -1,396161765e-01    0,000000000e+00    0,000000000e+00    0,000000000e+00    0,000000000e+00
      786000000   -1,720786989e-01   -5,891123042e-02   -5,814349055e-01    2,095802277e-01    0,000000000e+00    0,000000000e+00    0,000000000e+00    0,000000000e+00
      800000000   -1,594471633e-01    6,865755189e-03   -3,725436032e-01    4,954193830e-01    0,000000000e+00    0,000000000e+00    0,000000000e+00    0,000000000e+00
      814000000   -1,145240068e-01    4,211746529e-02   -4,572609439e-02    6,146389246e-01    0,000000000e+00    0,000000000e+00    0,000000000e+00    0,000000000e+00
      828000000   -6,862709671e-02    4,400775954e-02    2,849036753e-01    5,409290195e-01    0,000000000e+00    0,000000000e+00    0,000000000e+00    0,000000000e+00
      842000000   -3,943173587e-02    2,894000337e-02    5,206925869e-01    3,059580028e-01    0,000000000e+00    0,000000000e+00    0,000000000e+00    0,000000000e+00
      856000000   -1,769590937e-02    1,219103858e-02    5,946771502e-01   -1,366037130e-02    0,000000000e+00    0,000000000e+00    0,000000000e+00    0,000000000e+00
      870000000    1,941378345e-03   -1,122086961e-02    4,864217341e-01   -3,166106939e-01    0,000000000e+00    0,000000000e+00    0,000000000e+00    0,000000000e+00
      884000000    1,364881080e-02   -5,230195075e-02    2,434947044e-01   -5,112073421e-01    0,000000000e+00    0,000000000e+00    0,000000000e+00    0,000000000e+00
      898000000   -3,872057423e-03   -1,028552279e-01   -5,785922334e-02   -5,539515018e-01    0,000000000e+00    0,000000000e+00    0,000000000e+00    0,000000000e+00
      912000000   -6,260000914e-02   -1,327233762e-01   -3,802933693e-01   -4,162916839e-01    0,000000000e+00    0,000000000e+00    0,000000000e+00    0,000000000e+00
      926000000   -1,271958798e-01   -1,202448905e-01   -5,655760765e-01   -1,504115462e-01    0,000000000e+00    0,000000000e+00    0,000000000e+00    0,000000000e+00
      940000000   -1,628326625e-01   -6,369765103e-02   -5,685182214e-01    1,928499788e-01    0,000000000e+00    0,000000000e+00    0,000000000e+00    0,000000000e+00
      954000000   -1,503702402e-01   -1,812456525e-03   -3,765106201e-01    4,828068018e-01    0,000000000e+00    0,000000000e+00    0,000000000e+00    0,000000000e+00
      968000000   -9,746798873e-02    2,149299160e-02   -5,199004337e-02    6,156832576e-01    0,000000000e+00    0,000000000e+00    0,000000000e+00    0,000000000e+00
      982000000   -5,553331226e-02    3,174518002e-03    2,808954120e-01    5,524104834e-01    0,000000000e+00    0,000000000e+00    0,000000000e+00    0,000000000e+00
      996000000   -4,430208728e-02   -3,130781651e-02    5,236346126e-01    3,290135562e-01    0,000000000e+00    0,000000000e+00    0,000000000e+00    0,000000000e+00
     1010000000   -6,050593406e-02   -6,583030522e-02    6,086144447e-01    1,537221856e-02    0,000000000e+00    0,000000000e+00    0,000000000e+00    0,000000000e+00
     1024000000   -1,025042981e-01   -7,497458160e-02    5,145653486e-01   -2,818968594e-01    0,000000000e+00    0,000000000e+00    0,000000000e+00    0,000000000e+00
     1038000000   -1,397141218e-01   -5,630883947e-02    2,959882319e-01   -4,702142775e-01    0,000000000e+00    0,000000000e+00    0,000000000e+00    0,000000000e+00
     1052000000   -1,527535766e-01   -1,623407938e-03    3,872529045e-02   -5,263205171e-01    0,000000000e+00    0,000000000e+00    0,000000000e+00    0,000000000e+00
     1066000000   -1,016875878e-01    4,303644970e-02   -2,088502049e-01   -4,641510844e-01    0,000000000e+00    0,000000000e+00    0,000000000e+00    0,000000000e+00
     1080000000   -5,263400823e-02    2,794480510e-02   -4,207490087e-01   -3,014754951e-01    0,000000000e+00    0,000000000e+00    0,000000000e+00    0,000000000e+00
     1094000000   -3,070514090e-02   -9,678833187e-03   -5,225031376e-01   -2,364366315e-02    0,000000000e+00    0,000000000e+00    0,000000000e+00    0,000000000e+00
     1108000000   -3,538371995e-02   -3,463738412e-02   -4,431476295e-01    2,891795635e-01    0,000000000e+00    0,000000000e+00    0,000000000e+00    0,000000000e+00
     1122000000   -3,145351633e-02   -5,880586430e-02   -1,850227416e-01    4,955463111e-01    0,000000000e+00    0,000000000e+00    0,000000000e+00    0,000000000e+00
     1136000000   -3,976876289e-02   -9,221769124e-02    1,530948877e-01    5,195684433e-01    0,000000000e+00    0,000000000e+00    0,000000000e+00    0,000000000e+00
     1150000000   -8,347854018e-02   -1,211284325e-01    4,513950944e-01    3,425341249e-01    0,000000000e+00    0,000000000e+00    0,000000000e+00    0,000000000e+00
     1164000000   -1,353972107e-01   -1,245796308e-01    6,094714999e-01    1,141020469e-02    0,000000000e+00    0,000000000e+00    0,000000000e+00    0,000000000e+00
     1178000000   -1,730677038e-01   -8,775734901e-02    5,349550247e-01   -3,729109466e-01    0,000000000e+00    0,000000000e+00    0,000000000e+00    0,000000000e+00
     1192000000   -1,787527651e-01   -5,774838105e-02    2,390571386e-01   -6,417716146e-01    0,000000000e+00    0,000000000e+00    0,000000000e+00    0,000000000e+00
     1206000000   -1,949547082e-01   -5,563117564e-02   -1,378402561e-01   -6,599544287e-01    0,000000000e+00    0,000000000e+00    0,000000000e+00    0,000000000e+00
     1220000000   -2,529836297e-01   -1,292947121e-02   -4,194616377e-01   -4,860232472e-01    0,000000000e+00    0,000000000e+00    0,000000000e+00    0,000000000e+00
     1234000000   -2,415895760e-01    1,153224856e-01   -5,611501932e-01   -2,556200027e-01    0,000000000e+00    0,000000000e+00    0,000000000e+00    0,000000000e+00
     1248000000   -1,145513281e-01    1,728556305e-01   -6,040372252e-01    2,332450449e-02    0,000000000e+00    0,000000000e+00    0,000000000e+00    0,000000000e+00
     1262000000   -4,597578663e-03    1,371017843e-01   -5,081449747e-01    3,029669225e-01    0,000000000e+00    0,000000000e+00    0,000000000e+00    0,000000000e+00
     1276000000    6,390129775e-02    4,035289213e-02   -2,757680714e-01    4,921022356e-01    0,000000000e+00    0,000000000e+00    0,000000000e+00    0,000000000e+00
     1290000000    6,826425344e-02   -7,182459533e-02    8,617825806e-03    5,458507538e-01    0,000000000e+00    0,000000000e+00    0,000000000e+00    0,000000000e+00
     1304000000    2,157114819e-02   -1,842832267e-01    2,997341156e-01    4,708441496e-01    0,000000000e+00    0,000000000e+00    0,000000000e+00    0,000000000e+00
     1318000000   -9,724293649e-02   -2,490468472e-01    5,371590853e-01    2,717459202e-01    0,000000000e+00    0,000000000e+00    0,000000000e+00    0,000000000e+00
     1332000000   -2,449219823e-01   -2,463137358e-01    6,470380425e-01   -6,190467253e-02    0,000000000e+00    0,000000000e+00    0,000000000e+00    0,000000000e+00
     1346000000   -3,601634502e-01   -1,409772038e-01    5,613285899e-01   -4,063038826e-01    0,000000000e+00    0,000000000e+00    0,000000000e+00    0,000000000e+00
     1360000000   -3,902150691e-01    3,339031944e-03    2,607229948e-01   -6,314382553e-01    0,000000000e+00    0,000000000e+00    0,000000000e+00    0,000000000e+00
     1374000000   -3,227254748e-01    1,141056195e-01   -9,810887277e-02   -6,263212562e-01    0,000000000e+00    0,000000000e+00    0,000000000e+00    0,000000000e+00
     1388000000   -2,367450744e-01    1,673232466e-01   -3,788627088e-01   -4,172014594e-01    0,000000000e+00    0,000000000e+00    0,000000000e+00    0,000000000e+00
     1402000000   -1,543715000e-01    1,725882590e-01   -4,721070826e-01   -9,764737636e-02    0,000000000e+00    0,000000000e+00    0,000000000e+00    0,000000000e+00
     1416000000   -8,778628707e-02    1,459875703e-01   -3,951352835e-01    1,967502087e-01    0,000000000e+00    0,000000000e+00    0,000000000e+00    0,000000000e+00
     1430000000   -3,715336323e-02    8,676597476e-02   -1,812614501e-01    4,309737682e-01    0,000000000e+00    0,000000000e+00    0,000000000e+00    0,000000000e+00
     1444000000   -1,733454317e-02    5,691824947e-03    1,189309210e-01    5,432093143e-01    0,000000000e+00    0,000000000e+00    0,000000000e+00    0,000000000e+00
     1458000000   -4,308632016e-02   -7,889641821e-02    4,307324886e-01    5,028125644e-01    0,000000000e+00    0,000000000e+00    0,000000000e+00    0,000000000e+00
     1472000000   -1,241308302e-01   -1,421020925e-01    7,222959399e-01    3,011624217e-01    0,000000000e+00    0,000000000e+00    0,000000000e+00    0,000000000e+00
     1486000000   -2,308317125e-01   -1,424747407e-01    9,052677751e-01   -3,577268869e-02    0,000000000e+00    0,000000000e+00    0,000000000e+00    0,000000000e+00
     1500000000   -3,000966311e-01   -6,549974531e-02    8,547682762e-01   -4,333613813e-01    0,000000000e+00    0,000000000e+00    0,000000000e+00    0,000000000e+00
