! NanoVNA-App
! Date: 2025-09-25 15:02:44
! Start: 100MHz Stop: 1,5GHz Points: 101
! S-Parameter data: F S11 S21 S12 S22
# Hz S RI R 50
!     Frequency           S11_Real           S11_Imag           S21_Real           S21_Imag           S12_Real           S12_Imag           S22_Real           S22_Imag
      100000000    3,559218347e-02    2,737508155e-02    4,407734275e-01   -6,695810556e-01    0,000000000e+00    0,000000000e+00    0,000000000e+00    0,000000000e+00
      114000000    6,074177101e-02    2,177821007e-03    1,285227574e-02   -7,952381968e-01    0,000000000e+00    0,000000000e+00    0,000000000e+00    0,000000000e+00
      128000000    6,836703420e-02   -4,228233919e-02   -4,082052708e-01   -6,780678630e-01    0,000000000e+00    0,000000000e+00    0,000000000e+00    0,000000000e+00
      142000000    4,351982847e-02   -8,881361037e-02   -7,051318288e-01   -3,609449863e-01    0,000000000e+00    0,000000000e+00    0,000000000e+00    0,000000000e+00
      156000000   -8,848632686e-03   -1,105002835e-01   -7,937145829e-01    6,848587096e-02    0,000000000e+00    0,000000000e+00    0,000000000e+00    0,000000000e+00
      170000000   -6,267403066e-02   -9,173787385e-02   -6,370371580e-01    4,863589108e-01    0,000000000e+00    0,000000000e+00    0,000000000e+00    0,000000000e+00
      184000000   -8,857489377e-02   -4,772016034e-02   -2,733386755e-01    7,561935186e-01    0,000000000e+00    0,000000000e+00    0,000000000e+00    0,000000000e+00
      198000000   -8,275752515e-02   -6,438486278e-03    1,795961112e-01    7,819992304e-01    0,000000000e+00    0,000000000e+00    0,000000000e+00    0,000000000e+00
      212000000   -6,272453815e-02    1,800597459e-02    5,706028342e-01    5,584691763e-01    0,000000000e+00    0,000000000e+00    0,000000000e+00    0,000000000e+00
      226000000   -4,149432853e-02    3,178297356e-02    7,767705917e-01    1,619605720e-01    0,000000000e+00    0,000000000e+00    0,000000000e+00    0,000000000e+00
      240000000   -1,488534268e-02    4,128171504e-02    7,359405160e-01   -2,786646783e-01    0,000000000e+00    0,000000000e+00    0,000000000e+00    0,000000000e+00
      254000000    2,140019834e-02    3,635837138e-02    4,680608511e-01   -6,224473715e-01    0,000000000e+00    0,000000000e+00    0,000000000e+00    0,000000000e+00
      268000000    5,329459161e-02    4,744461272e-03    6,663256139e-02   -7,670231462e-01    0,000000000e+00    0,000000000e+00    0,000000000e+00    0,000000000e+00
      282000000    5,745104700e-02   -4,503157735e-02   -3,452177942e-01   -6,823339462e-01    0,000000000e+00    0,000000000e+00    0,000000000e+00    0,000000000e+00
      296000000    2,613291889e-02   -8,465721458e-02   -6,554476023e-01   -3,978961110e-01    0,000000000e+00    0,000000000e+00    0,000000000e+00    0,000000000e+00
      310000000   -1,893648133e-02   -8,964802325e-02   -7,749413252e-01    1,075253729e-02    0,000000000e+00    0,000000000e+00    0,000000000e+00    0,000000000e+00
      324000000   -4,638144746e-02   -6,346111000e-02   -6,465715170e-01    4,294784665e-01    0,000000000e+00    0,000000000e+00    0,000000000e+00    0,000000000e+00
      338000000   -4,110059142e-02   -3,792646155e-02   -3,120768368e-01    7,108378410e-01    0,000000000e+00    0,000000000e+00    0,000000000e+00    0,000000000e+00
      352000000   -2,329917997e-02   -3,775246441e-02    1,192726567e-01    7,578175068e-01    0,000000000e+00    0,000000000e+00    0,000000000e+00    0,000000000e+00
      366000000   -2,273942716e-02   -5,627787486e-02    5,027263165e-01    5,714077353e-01    0,000000000e+00    0,000000000e+00    0,000000000e+00    0,000000000e+00
      380000000   -4,480113462e-02   -6,524559855e-02    7,263901234e-01    2,122100443e-01    0,000000000e+00    0,000000000e+00    0,000000000e+00    0,000000000e+00
      394000000   -6,628616899e-02   -5,052734539e-02    7,233357430e-01   -2,134738117e-01    0,000000000e+00    0,000000000e+00    0,000000000e+00    0,000000000e+00
      408000000   -6,764511019e-02   -2,643493935e-02    4,887984991e-01   -5,685728192e-01    0,000000000e+00    0,000000000e+00    0,000000000e+00    0,000000000e+00
      422000000   -5,316329002e-02   -1,541122142e-02    1,061740443e-01   -7,396174669e-01    0,000000000e+00    0,000000000e+00    0,000000000e+00    0,000000000e+00
      436000000   -4,639318585e-02   -1,864627749e-02   -3,057608604e-01   -6,770939827e-01    0,000000000e+00    0,000000000e+00    0,000000000e+00    0,000000000e+00
      450000000   -5,232588947e-02   -1,484872960e-02   -6,196091771e-01   -3,993996382e-01    0,000000000e+00    0,000000000e+00    0,000000000e+00    0,000000000e+00
      464000000   -5,006218329e-02    5,917341448e-03   -7,297346592e-01    3,459938569e-03    0,000000000e+00    0,000000000e+00    0,000000000e+00    0,000000000e+00
      478000000   -2,022827417e-02    2,681513131e-02   -5,987055898e-01    3,975472152e-01    0,000000000e+00    0,000000000e+00    0,000000000e+00    0,000000000e+00
      492000000    2,838282287e-02    1,450765971e-02   -2,801159918e-01    6,445194483e-01    0,000000000e+00    0,000000000e+00    0,000000000e+00    0,000000000e+00
      506000000    5,893512443e-02   -3,731073812e-02    1,053378284e-01    6,795710325e-01    0,000000000e+00    0,000000000e+00    0,000000000e+00    0,000000000e+00
      520000000    4,466475919e-02   -1,022716239e-01    4,417275488e-01    5,210795403e-01    0,000000000e+00    0,000000000e+00    0,000000000e+00    0,000000000e+00
      534000000   -1,267528068e-02   -1,441359967e-01    6,493056417e-01    2,059736252e-01    0,000000000e+00    0,000000000e+00    0,000000000e+00    0,000000000e+00
      548000000   -8,175334334e-02   -1,397723556e-01    6,597799659e-01   -1,760316938e-01    0,000000000e+00    0,000000000e+00    0,000000000e+00    0,000000000e+00
      562000000   -1,315042675e-01   -9,818393737e-02    4,512998164e-01   -5,086497068e-01    0,000000000e+00    0,000000000e+00    0,000000000e+00    0,000000000e+00
      576000000   -1,504364610e-01   -3,830462322e-02    8,131901175e-02   -6,606796980e-01    0,000000000e+00    0,000000000e+00    0,000000000e+00    0,000000000e+00
      590000000   -1,295470148e-01    3,078982048e-02   -2,952197194e-01   -5,635637641e-01    0,000000000e+00    0,000000000e+00    0,000000000e+00    0,000000000e+00
      604000000   -3,544308990e-02    6,838393956e-02   -4,854305983e-01   -2,692100108e-01    0,000000000e+00    0,000000000e+00    0,000000000e+00    0,000000000e+00
      618000000    3,449697793e-02   -3,334948048e-02   -4,938707352e-01   -5,482877046e-02    0,000000000e+00    0,000000000e+00    0,000000000e+00    0,000000000e+00
      632000000   -5,486794934e-02   -9,119491279e-02   -5,284965038e-01    1,778040081e-01    0,000000000e+00    0,000000000e+00    0,000000000e+00    0,000000000e+00
      646000000   -9,971179068e-02   -3,197224438e-02   -3,790705204e-01    4,789515138e-01    0,000000000e+00    0,000000000e+00    0,000000000e+00    0,000000000e+00
      660000000   -6,757041812e-02    1,047982648e-02   -5,003630742e-02    6,257300973e-01    0,000000000e+00    0,000000000e+00    0,000000000e+00    0,000000000e+00
      674000000   -2,974441275e-02    5,255267024e-03    2,991956174e-01    5,521602035e-01    0,000000000e+00    0,000000000e+00    0,000000000e+00    0,000000000e+00
      688000000   -1,580127329e-02   -1,802498288e-02    5,473181605e-01    3,032129407e-01    0,000000000e+00    0,000000000e+00    0,000000000e+00    0,000000000e+00
      702000000   -1,450175699e-02   -3,495820239e-02    6,166424155e-01   -4,327784106e-02    0,000000000e+00    0,000000000e+00    0,000000000e+00    0,000000000e+00
      716000000   -1,044875011e-02   -4,914212599e-02    4,916423857e-01   -3,687777519e-01    0,000000000e+00    0,000000000e+00    0,000000000e+00    0,000000000e+00
      730000000   -6,873077713e-03   -7,494128495e-02    2,114854604e-01   -5,678777695e-01    0,000000000e+00    0,000000000e+00    0,000000000e+00    0,000000000e+00
      744000000   -2,529110946e-02   -1,105635688e-01   -1,240331307e-01   -5,882638693e-01    0,000000000e+00    0,000000000e+00    0,000000000e+00    0,000000000e+00
      758000000   -7,478274405e-02   -1,328656822e-01   -4,194045067e-01   -4,329100549e-01    0,000000000e+00    0,000000000e+00    0,000000000e+00    0,000000000e+00
      772000000   -1,351912022e-01   -1,152485386e-01   -5,934598446e-01   -1,399102956e-01    0,000000000e+00    0,000000000e+00    0,000000000e+00    0,000000000e+00
      786000000   -1,710576117e-01   -5,925514549e-02   -5,816954970e-01    2,099619657e-01    0,000000000e+00    0,000000000e+00    0,000000000e+00    0,000000000e+00
      800000000   -1,592336148e-01    6,748258602e-03   -3,728862405e-01    4,959150255e-01    0,000000000e+00    0,000000000e+00    0,000000000e+00    0,000000000e+00
      814000000   -1,147547364e-01    4,224056751e-02   -4,608269036e-02    6,158370376e-01    0,000000000e+00    0,000000000e+00    0,000000000e+00    0,000000000e+00
      828000000   -6,882944703e-02    4,387824610e-02    2,855902314e-01    5,395572186e-01    0,000000000e+00    0,000000000e+00    0,000000000e+00    0,000000000e+00
      842000000   -3,958062083e-02    2,957398072e-02    5,208307505e-01    3,050588071e-01    0,000000000e+00    0,000000000e+00    0,000000000e+00    0,000000000e+00
      856000000   -1,813384518e-02    1,235973928e-02    5,940560102e-01   -1,369024441e-02    0,000000000e+00    0,000000000e+00    0,000000000e+00    0,000000000e+00
      870000000    2,657606965e-03   -1,128876954e-02    4,860669672e-01   -3,169948161e-01    0,000000000e+00    0,000000000e+00    0,000000000e+00    0,000000000e+00
      884000000    1,336477231e-02   -5,169791728e-02    2,422694713e-01   -5,120803118e-01    0,000000000e+00    0,000000000e+00    0,000000000e+00    0,000000000e+00
      898000000   -3,862502752e-03   -1,030788794e-01   -5,824545026e-02   -5,549497604e-01    0,000000000e+00    0,000000000e+00    0,000000000e+00    0,000000000e+00
      912000000   -6,290455908e-02   -1,324873716e-01   -3,890541494e-01   -4,091391861e-01    0,000000000e+00    0,000000000e+00    0,000000000e+00    0,000000000e+00
      926000000   -1,247699112e-01   -1,199067011e-01   -5,635144114e-01   -1,490055174e-01    0,000000000e+00    0,000000000e+00    0,000000000e+00    0,000000000e+00
      940000000   -1,663415134e-01   -6,279574335e-02   -5,689517260e-01    1,922093928e-01    0,000000000e+00    0,000000000e+00    0,000000000e+00    0,000000000e+00
      954000000   -1,480178684e-01   -3,999420907e-03   -3,755097985e-01    4,824363291e-01    0,000000000e+00    0,000000000e+00    0,000000000e+00    0,000000000e+00
      968000000   -9,959761053e-02    2,496952191e-02   -5,185380206e-02    6,144196391e-01    0,000000000e+00    0,000000000e+00    0,000000000e+00    0,000000000e+00
      982000000   -5,586198717e-02    4,205564037e-03    2,813857198e-01    5,531123281e-01    0,000000000e+00    0,000000000e+00    0,000000000e+00    0,000000000e+00
      996000000   -4,497785866e-02   -3,639138862e-02    5,244591236e-01    3,258345425e-01    0,000000000e+00    0,000000000e+00    0,000000000e+00    0,000000000e+00
     1010000000   -6,497091055e-02   -6,433548778e-02    6,057919860e-01    1,610836387e-02    0,000000000e+00    0,000000000e+00    0,000000000e+00    0,000000000e+00
     1024000000   -9,919744730e-02   -7,567134500e-02    5,149344802e-01   -2,805533409e-01    0,000000000e+00    0,000000000e+00    0,000000000e+00    0,000000000e+00
     1038000000   -1,437456012e-01   -5,217980966e-02    2,972500026e-01   -4,704143405e-01    0,000000000e+00    0,000000000e+00    0,000000000e+00    0,000000000e+00
     1052000000   -1,464708447e-01   -1,232824521e-03    3,882283717e-02   -5,258406401e-01    0,000000000e+00    0,000000000e+00    0,000000000e+00    0,000000000e+00
     1066000000   -9,995408356e-02    4,217115045e-02   -2,081489414e-01   -4,658979475e-01    0,000000000e+00    0,000000000e+00    0,000000000e+00    0,000000000e+00
     1080000000   -5,371385440e-02    2,927420475e-02   -4,189944565e-01   -3,025742769e-01    0,000000000e+00    0,000000000e+00    0,000000000e+00    0,000000000e+00
     1094000000   -3,308906779e-02   -1,150435861e-02   -5,234013200e-01   -2,128169499e-02    0,000000000e+00    0,000000000e+00    0,000000000e+00    0,000000000e+00
     1108000000   -3,624410927e-02   -3,021061234e-02   -4,433941841e-01    2,853628695e-01    0,000000000e+00    0,000000000e+00    0,000000000e+00    0,000000000e+00
     1122000000   -3,438931331e-02   -5,888186395e-02   -1,887431890e-01    4,974440336e-01    0,000000000e+00    0,000000000e+00    0,000000000e+00    0,000000000e+00
     1136000000   -4,264368489e-02   -9,119971097e-02    1,509501636e-01    5,196281075e-01    0,000000000e+00    0,000000000e+00    0,000000000e+00    0,000000000e+00
     1150000000   -8,118283749e-02   -1,226204336e-01    4,542462230e-01    3,450103700e-01    0,000000000e+00    0,000000000e+00    0,000000000e+00    0,000000000e+00
     1164000000   -1,361385584e-01   -1,257499754e-01    6,108796597e-01    1,165732462e-02    0,000000000e+00    0,000000000e+00    0,000000000e+00    0,000000000e+00
     1178000000   -1,710172445e-01   -8,616978675e-02    5,414963961e-01   -3,734598160e-01    0,000000000e+00    0,000000000e+00    0,000000000e+00    0,000000000e+00
     1192000000   -1,789672375e-01   -5,318632722e-02    2,414314598e-01   -6,381194592e-01    0,000000000e+00    0,000000000e+00    0,000000000e+00    0,000000000e+00
     1206000000   -1,952566952e-01   -5,231914297e-02   -1,422973126e-01   -6,580957770e-01    0,000000000e+00    0,000000000e+00    0,000000000e+00    0,000000000e+00
     1220000000   -2,572460175e-01   -1,705583371e-02   -4,181883633e-01   -4,871578217e-01    0,000000000e+00    0,000000000e+00    0,000000000e+00    0,000000000e+00
     1234000000   -2,363709956e-01    1,135615930e-01   -5,588104129e-01   -2,563984692e-01    0,000000000e+00    0,000000000e+00    0,000000000e+00    0,000000000e+00
     1248000000   -1,132205650e-01    1,740641594e-01   -6,028944850e-01    1,973736472e-02    0,000000000e+00    0,000000000e+00    0,000000000e+00    0,000000000e+00
     1262000000   -2,924462082e-03    1,316321939e-01   -5,079816580e-01    2,994768918e-01    0,000000000e+00    0,000000000e+00    0,000000000e+00    0,000000000e+00
     1276000000    6,286122650e-02    4,336360469e-02   -2,779117525e-01    4,883433580e-01    0,000000000e+00    0,000000000e+00    0,000000000e+00    0,000000000e+00
     1290000000    6,970566511e-02   -6,579783559e-02    8,255848661e-03    5,556368828e-01    0,000000000e+00    0,000000000e+00    0,000000000e+00    0,000000000e+00
     1304000000    2,350529470e-02   -1,838737130e-01    2,973312140e-01    4,792658687e-01    0,000000000e+00    0,000000000e+00    0,000000000e+00    0,000000000e+00
     1318000000   -9,085363895e-02   -2,520452440e-01    5,442312360e-01    2,748674750e-01    0,000000000e+00    0,000000000e+00    0,000000000e+00    0,000000000e+00
     1332000000   -2,391988635e-01   -2,493831813e-01    6,588260531e-01   -5,823986977e-02    0,000000000e+00    0,000000000e+00    0,000000000e+00    0,000000000e+00
     1346000000   -3,615916669e-01   -1,422720850e-01    5,543572903e-01   -4,155082703e-01    0,000000000e+00    0,000000000e+00    0,000000000e+00    0,000000000e+00
     1360000000   -3,880047500e-01    1,053840946e-02    2,505829036e-01   -6,351749897e-01    0,000000000e+00    0,000000000e+00    0,000000000e+00    0,000000000e+00
     1374000000   -3,292606175e-01    1,117917076e-01   -1,070912629e-01   -6,270279884e-01    0,000000000e+00    0,000000000e+00    0,000000000e+00    0,000000000e+00
     1388000000   -2,374387681e-01    1,720608175e-01   -3,712385595e-01   -4,136021137e-01    0,000000000e+00    0,000000000e+00    0,000000000e+00    0,000000000e+00
     1402000000   -1,531967074e-01    1,710784286e-01   -4,788907468e-01   -1,097379103e-01    0,000000000e+00    0,000000000e+00    0,000000000e+00    0,000000000e+00
     1416000000   -8,460529894e-02    1,383035928e-01   -3,931809962e-01    2,065918595e-01    0,000000000e+00    0,000000000e+00    0,000000000e+00    0,000000000e+00
     1430000000   -3,706569225e-02    8,956615627e-02   -1,464962214e-01    4,216383994e-01    0,000000000e+00    0,000000000e+00    0,000000000e+00    0,000000000e+00
     1444000000   -1,585244015e-02    1,084688399e-02    1,216828376e-01    5,302507877e-01    0,000000000e+00    0,000000000e+00    0,000000000e+00    0,000000000e+00
     1458000000   -3,906720504e-02   -8,386640996e-02    4,420070350e-01    4,880679846e-01    0,000000000e+00    0,000000000e+00    0,000000000e+00    0,000000000e+00
     1472000000   -1,210412905e-01   -1,415402591e-01    7,406334877e-01    3,135162294e-01    0,000000000e+00    0,000000000e+00    0,000000000e+00    0,000000000e+00
     1486000000   -2,303345799e-01   -1,394182444e-01    9,033248425e-01   -3,977832571e-02    0,000000000e+00    0,000000000e+00    0,000000000e+00    0,000000000e+00
     1500000000   -3,110328019e-01   -6,176263839e-02    8,397198915e-01   -4,282248318e-01    0,000000000e+00    0,000000000e+00    0,000000000e+00    0,000000000e+00
