! NanoVNA-App
! Date: 2025-09-25 15:00:51
! Start: 100MHz Stop: 1,5GHz Points: 101
! S-Parameter data: F S11 S21 S12 S22
# Hz S RI R 50
!     Frequency           S11_Real           S11_Imag           S21_Real           S21_Imag           S12_Real           S12_Imag           S22_Real           S22_Imag
      100000000    3,559049964e-02    2,736420743e-02    4,407444298e-01   -6,695747972e-01    0,000000000e+00    0,000000000e+00    0,000000000e+00    0,000000000e+00
      114000000    6,069552526e-02    2,185546560e-03    1,283071004e-02   -7,954043746e-01    0,000000000e+00    0,000000000e+00    0,000000000e+00    0,000000000e+00
      128000000    6,839068234e-02   -4,222784564e-02   -4,083530903e-01   -6,781867146e-01    0,000000000e+00    0,000000000e+00    0,000000000e+00    0,000000000e+00
      142000000    4,346128181e-02   -8,880978078e-02   -7,053546309e-01   -3,610123098e-01    0,000000000e+00    0,000000000e+00    0,000000000e+00    0,000000000e+00
      156000000   -9,625274688e-03   -1,097169891e-01   -7,925351858e-01    6,760805100e-02    0,000000000e+00    0,000000000e+00    0,000000000e+00    0,000000000e+00
      170000000   -6,271565706e-02   -9,175163507e-02   -6,370633245e-01    4,863810539e-01    0,000000000e+00    0,000000000e+00    0,000000000e+00    0,000000000e+00
      184000000   -8,858949691e-02   -4,767519608e-02   -2,731455266e-01    7,559622526e-01    0,000000000e+00    0,000000000e+00    0,000000000e+00    0,000000000e+00
      198000000   -8,277478814e-02   -6,424475927e-03    1,794461459e-01    7,823187113e-01    0,000000000e+00    0,000000000e+00    0,000000000e+00    0,000000000e+00
      212000000   -6,274326146e-02    1,805429347e-02    5,707466602e-01    5,586121678e-01    0,000000000e+00    0,000000000e+00    0,000000000e+00    0,000000000e+00
      226000000   -4,151955247e-02    3,183981031e-02    7,767951488e-01    1,619260460e-01    0,000000000e+00    0,000000000e+00    0,000000000e+00    0,000000000e+00
      240000000   -1,493551303e-02    4,130344838e-02    7,360888720e-01   -2,787446380e-01    0,000000000e+00    0,000000000e+00    0,000000000e+00    0,000000000e+00
      254000000    2,143328451e-02    3,631338850e-02    4,678012729e-01   -6,219549179e-01    0,000000000e+00    0,000000000e+00    0,000000000e+00    0,000000000e+00
      268000000    5,325771496e-02    4,761471413e-03    6,648409367e-02   -7,674970627e-01    0,000000000e+00    0,000000000e+00    0,000000000e+00    0,000000000e+00
      282000000    5,749559402e-02   -4,488885775e-02   -3,454560041e-01   -6,828381419e-01    0,000000000e+00    0,000000000e+00    0,000000000e+00    0,000000000e+00
      296000000    2,611268312e-02   -8,468317986e-02   -6,552622318e-01   -3,978258967e-01    0,000000000e+00    0,000000000e+00    0,000000000e+00    0,000000000e+00
      310000000   -1,894218102e-02   -8,942007273e-02   -7,735345960e-01    9,615484625e-03    0,000000000e+00    0,000000000e+00    0,000000000e+00    0,000000000e+00
      324000000   -4,656760767e-02   -6,355562806e-02   -6,480340958e-01    4,293244779e-01    0,000000000e+00    0,000000000e+00    0,000000000e+00    0,000000000e+00
      338000000   -4,138036817e-02   -3,775893524e-02   -3,092685044e-01    7,083144188e-01    0,000000000e+00    0,000000000e+00    0,000000000e+00    0,000000000e+00
      352000000   -2,350824140e-02   -3,783589974e-02    1,190703362e-01    7,573553920e-01    0,000000000e+00    0,000000000e+00    0,000000000e+00    0,000000000e+00
      366000000   -2,301090956e-02   -5,606454611e-02    5,029160380e-01    5,713585615e-01    0,000000000e+00    0,000000000e+00    0,000000000e+00    0,000000000e+00
      380000000   -4,490400851e-02   -6,534456462e-02    7,263363004e-01    2,110529095e-01    0,000000000e+00    0,000000000e+00    0,000000000e+00    0,000000000e+00
      394000000   -6,658752263e-02   -5,060738325e-02    7,233221531e-01   -2,138101608e-01    0,000000000e+00    0,000000000e+00    0,000000000e+00    0,000000000e+00
      408000000   -6,732472032e-02   -2,645040862e-02    4,895690978e-01   -5,686801076e-01    0,000000000e+00    0,000000000e+00    0,000000000e+00    0,000000000e+00
      422000000   -5,349819362e-02   -1,533435844e-02    1,056403965e-01   -7,387091517e-01    0,000000000e+00    0,000000000e+00    0,000000000e+00    0,000000000e+00
      436000000   -4,613847658e-02   -1,861229911e-02   -3,054513931e-01   -6,763606071e-01    0,000000000e+00    0,000000000e+00    0,000000000e+00    0,000000000e+00
      450000000   -5,187682435e-02   -1,498185378e-02   -6,189502478e-01   -3,997365236e-01    0,000000000e+00    0,000000000e+00    0,000000000e+00    0,000000000e+00
      464000000   -5,009822920e-02    5,467928946e-03   -7,297250628e-01    3,470207797e-03    0,000000000e+00    0,000000000e+00    0,000000000e+00    0,000000000e+00
      478000000   -2,086539008e-02    2,644200251e-02   -5,986881256e-01    3,973356485e-01    0,000000000e+00    0,000000000e+00    0,000000000e+00    0,000000000e+00
      492000000    2,792369016e-02    1,450703572e-02   -2,806497514e-01    6,445103288e-01    0,000000000e+00    0,000000000e+00    0,000000000e+00    0,000000000e+00
      506000000    5,856410414e-02   -3,728685156e-02    1,040711403e-01    6,804108024e-01    0,000000000e+00    0,000000000e+00    0,000000000e+00    0,000000000e+00
      520000000    4,424405098e-02   -1,029218435e-01    4,432572126e-01    5,181764960e-01    0,000000000e+00    0,000000000e+00    0,000000000e+00    0,000000000e+00
      534000000   -1,250621770e-02   -1,432419419e-01    6,495106220e-01    2,065318376e-01    0,000000000e+00    0,000000000e+00    0,000000000e+00    0,000000000e+00
      548000000   -8,134822547e-02   -1,393208504e-01    6,598854065e-01   -1,756149083e-01    0,000000000e+00    0,000000000e+00    0,000000000e+00    0,000000000e+00
      562000000   -1,295142621e-01   -9,793851525e-02    4,527907968e-01   -5,081913471e-01    0,000000000e+00    0,000000000e+00    0,000000000e+00    0,000000000e+00
      576000000   -1,475400925e-01   -4,109841213e-02    8,385115862e-02   -6,630013585e-01    0,000000000e+00    0,000000000e+00    0,000000000e+00    0,000000000e+00
      590000000   -1,317746788e-01    2,349793725e-02   -2,961218953e-01   -5,703011155e-01    0,000000000e+00    0,000000000e+00    0,000000000e+00    0,000000000e+00
      604000000   -5,033956468e-02    6,927041709e-02   -5,029613972e-01   -2,726107538e-01    0,000000000e+00    0,000000000e+00    0,000000000e+00    0,000000000e+00
      618000000    3,908025846e-02   -1,235485263e-02   -4,922449291e-01   -2,883704752e-02    0,000000000e+00    0,000000000e+00    0,000000000e+00    0,000000000e+00
      632000000   -3,818570450e-02   -9,878298640e-02   -5,081878304e-01    1,727411151e-01    0,000000000e+00    0,000000000e+00    0,000000000e+00    0,000000000e+00
      646000000   -1,012871191e-01   -4,381643236e-02   -3,798935115e-01    4,664216638e-01    0,000000000e+00    0,000000000e+00    0,000000000e+00    0,000000000e+00
      660000000   -7,545602322e-02    7,289326284e-03   -5,722481012e-02    6,220834255e-01    0,000000000e+00    0,000000000e+00    0,000000000e+00    0,000000000e+00
      674000000   -3,372330964e-02    6,707220338e-03    2,949530780e-01    5,554308295e-01    0,000000000e+00    0,000000000e+00    0,000000000e+00    0,000000000e+00
      688000000   -1,590592787e-02   -1,438685693e-02    5,459554195e-01    3,060004115e-01    0,000000000e+00    0,000000000e+00    0,000000000e+00    0,000000000e+00
      702000000   -1,336720865e-02   -3,212656453e-02    6,205514669e-01   -3,788518161e-02    0,000000000e+00    0,000000000e+00    0,000000000e+00    0,000000000e+00
      716000000   -8,772149682e-03   -4,817691073e-02    4,937318861e-01   -3,668554723e-01    0,000000000e+00    0,000000000e+00    0,000000000e+00    0,000000000e+00
      730000000   -6,449974142e-03   -7,584210485e-02    2,132835984e-01   -5,676538944e-01    0,000000000e+00    0,000000000e+00    0,000000000e+00    0,000000000e+00
      744000000   -2,546118200e-02   -1,129457355e-01   -1,220187843e-01   -5,882405043e-01    0,000000000e+00    0,000000000e+00    0,000000000e+00    0,000000000e+00
      758000000   -7,561647147e-02   -1,337257177e-01   -4,193882942e-01   -4,353334606e-01    0,000000000e+00    0,000000000e+00    0,000000000e+00    0,000000000e+00
      772000000   -1,376004517e-01   -1,165649071e-01   -5,942158699e-01   -1,413610876e-01    0,000000000e+00    0,000000000e+00    0,000000000e+00    0,000000000e+00
      786000000   -1,730293185e-01   -5,701206625e-02   -5,834077597e-01    2,093667686e-01    0,000000000e+00    0,000000000e+00    0,000000000e+00    0,000000000e+00
      800000000   -1,597292870e-01    7,733298466e-03   -3,740608692e-01    4,966647327e-01    0,000000000e+00    0,000000000e+00    0,000000000e+00    0,000000000e+00
      814000000   -1,141397730e-01    4,397224635e-02   -4,467782006e-02    6,169546843e-01    0,000000000e+00    0,000000000e+00    0,000000000e+00    0,000000000e+00
      828000000   -6,709020585e-02    4,442575946e-02    2,852742672e-01    5,412986875e-01    0,000000000e+00    0,000000000e+00    0,000000000e+00    0,000000000e+00
      842000000   -3,769852594e-02    2,783980034e-02    5,219020844e-01    3,065480292e-01    0,000000000e+00    0,000000000e+00    0,000000000e+00    0,000000000e+00
      856000000   -1,795289479e-02    1,109081041e-02    5,957829952e-01   -1,413304638e-02    0,000000000e+00    0,000000000e+00    0,000000000e+00    0,000000000e+00
      870000000    6,360961124e-04   -1,236328203e-02    4,876769185e-01   -3,173063695e-01    0,000000000e+00    0,000000000e+00    0,000000000e+00    0,000000000e+00
      884000000    1,170714479e-02   -5,057673529e-02    2,424753755e-01   -5,127514005e-01    0,000000000e+00    0,000000000e+00    0,000000000e+00    0,000000000e+00
      898000000   -4,186895210e-03   -1,002444178e-01   -5,853287131e-02   -5,556827784e-01    0,000000000e+00    0,000000000e+00    0,000000000e+00    0,000000000e+00
      912000000   -6,236571819e-02   -1,314606667e-01   -3,993287385e-01   -4,195800424e-01    0,000000000e+00    0,000000000e+00    0,000000000e+00    0,000000000e+00
      926000000   -1,245257184e-01   -1,176367104e-01   -5,673109293e-01   -1,453942955e-01    0,000000000e+00    0,000000000e+00    0,000000000e+00    0,000000000e+00
      940000000   -1,636849642e-01   -6,271010637e-02   -5,702944398e-01    1,942786127e-01    0,000000000e+00    0,000000000e+00    0,000000000e+00    0,000000000e+00
      954000000   -1,451363117e-01   -2,228445373e-03   -3,736876249e-01    4,821152091e-01    0,000000000e+00    0,000000000e+00    0,000000000e+00    0,000000000e+00
      968000000   -1,009305120e-01    2,293509617e-02   -5,043759570e-02    6,157981753e-01    0,000000000e+00    0,000000000e+00    0,000000000e+00    0,000000000e+00
      982000000   -5,526971444e-02    9,030506946e-03    2,822205722e-01    5,520813465e-01    0,000000000e+00    0,000000000e+00    0,000000000e+00    0,000000000e+00
      996000000   -4,397594184e-02   -3,007736616e-02    5,217384100e-01    3,252962232e-01    0,000000000e+00    0,000000000e+00    0,000000000e+00    0,000000000e+00
     1010000000   -5,913316086e-02   -6,535942852e-02    6,078020334e-01    1,456431858e-02    0,000000000e+00    0,000000000e+00    0,000000000e+00    0,000000000e+00
     1024000000   -9,790899605e-02   -7,675211877e-02    5,139752030e-01   -2,802352607e-01    0,000000000e+00    0,000000000e+00    0,000000000e+00    0,000000000e+00
     1038000000   -1,422110051e-01   -5,922584236e-02    2,937754691e-01   -4,697207212e-01    0,000000000e+00    0,000000000e+00    0,000000000e+00    0,000000000e+00
     1052000000   -1,478533596e-01   -3,208512906e-03    3,605083004e-02   -5,239066482e-01    0,000000000e+00    0,000000000e+00    0,000000000e+00    0,000000000e+00
     1066000000   -1,005479321e-01    3,779703006e-02   -2,085160464e-01   -4,639831483e-01    0,000000000e+00    0,000000000e+00    0,000000000e+00    0,000000000e+00
     1080000000   -5,121057481e-02    3,074063733e-02   -4,176428616e-01   -2,979684472e-01    0,000000000e+00    0,000000000e+00    0,000000000e+00    0,000000000e+00
     1094000000   -3,270177916e-02   -3,888329957e-03   -5,169349313e-01   -2,169803716e-02    0,000000000e+00    0,000000000e+00    0,000000000e+00    0,000000000e+00
     1108000000   -3,111066855e-02   -3,433228657e-02   -4,414701760e-01    2,844059467e-01    0,000000000e+00    0,000000000e+00    0,000000000e+00    0,000000000e+00
     1122000000   -3,503519669e-02   -5,902924389e-02   -1,860222667e-01    4,977037311e-01    0,000000000e+00    0,000000000e+00    0,000000000e+00    0,000000000e+00
     1136000000   -4,642147943e-02   -9,643574804e-02    1,502827555e-01    5,207295418e-01    0,000000000e+00    0,000000000e+00    0,000000000e+00    0,000000000e+00
     1150000000   -8,518911153e-02   -1,280636191e-01    4,529424310e-01    3,415583968e-01    0,000000000e+00    0,000000000e+00    0,000000000e+00    0,000000000e+00
     1164000000   -1,361712962e-01   -1,250984967e-01    6,117277145e-01    1,352484524e-02    0,000000000e+00    0,000000000e+00    0,000000000e+00    0,000000000e+00
     1178000000   -1,741807163e-01   -8,777751774e-02    5,401948094e-01   -3,694667518e-01    0,000000000e+00    0,000000000e+00    0,000000000e+00    0,000000000e+00
     1192000000   -1,827021986e-01   -5,851354077e-02    2,370641381e-01   -6,374015808e-01    0,000000000e+00    0,000000000e+00    0,000000000e+00    0,000000000e+00
     1206000000   -1,902220398e-01   -5,771159753e-02   -1,358768791e-01   -6,639171243e-01    0,000000000e+00    0,000000000e+00    0,000000000e+00    0,000000000e+00
     1220000000   -2,518842816e-01   -1,953287236e-02   -4,167923629e-01   -4,869113863e-01    0,000000000e+00    0,000000000e+00    0,000000000e+00    0,000000000e+00
     1234000000   -2,438949496e-01    1,131328642e-01   -5,600416660e-01   -2,525450885e-01    0,000000000e+00    0,000000000e+00    0,000000000e+00    0,000000000e+00
     1248000000   -1,131784022e-01    1,718057096e-01   -6,090924144e-01    1,522385236e-02    0,000000000e+00    0,000000000e+00    0,000000000e+00    0,000000000e+00
     1262000000   -3,521956271e-03    1,317278743e-01   -5,038515329e-01    2,976264060e-01    0,000000000e+00    0,000000000e+00    0,000000000e+00    0,000000000e+00
     1276000000    6,046736240e-02    4,404083267e-02   -2,791720331e-01    4,894547164e-01    0,000000000e+00    0,000000000e+00    0,000000000e+00    0,000000000e+00
     1290000000    7,476782799e-02   -7,040741295e-02    1,308308635e-02    5,470218658e-01    0,000000000e+00    0,000000000e+00    0,000000000e+00    0,000000000e+00
     1304000000    1,758324169e-02   -1,822491735e-01    3,003607392e-01    4,756145775e-01    0,000000000e+00    0,000000000e+00    0,000000000e+00    0,000000000e+00
     1318000000   -9,877421707e-02   -2,544120252e-01    5,334476829e-01    2,777327895e-01    0,000000000e+00    0,000000000e+00    0,000000000e+00    0,000000000e+00
     1332000000   -2,442624122e-01   -2,488105297e-01    6,503105164e-01   -5,486950278e-02    0,000000000e+00    0,000000000e+00    0,000000000e+00    0,000000000e+00
     1346000000   -3,637393415e-01   -1,406493187e-01    5,536119938e-01   -4,043024480e-01    0,000000000e+00    0,000000000e+00    0,000000000e+00    0,000000000e+00
     1360000000   -3,860838413e-01    8,131563663e-03    2,616348565e-01   -6,370058656e-01    0,000000000e+00    0,000000000e+00    0,000000000e+00    0,000000000e+00
     1374000000   -3,271878660e-01    1,182361394e-01   -1,078837290e-01   -6,303185225e-01    0,000000000e+00    0,000000000e+00    0,000000000e+00    0,000000000e+00
     1388000000   -2,354595512e-01    1,729633063e-01   -3,689176440e-01   -4,118572772e-01    0,000000000e+00    0,000000000e+00    0,000000000e+00    0,000000000e+00
     1402000000   -1,539805382e-01    1,721385121e-01   -4,778739214e-01   -1,101021618e-01    0,000000000e+00    0,000000000e+00    0,000000000e+00    0,000000000e+00
     1416000000   -8,332257718e-02    1,392993778e-01   -3,928027451e-01    1,964574754e-01    0,000000000e+00    0,000000000e+00    0,000000000e+00    0,000000000e+00
     1430000000   -3,452073783e-02    8,573209494e-02   -1,747647375e-01    4,174607992e-01    0,000000000e+00    0,000000000e+00    0,000000000e+00    0,000000000e+00
     1444000000   -1,111063827e-02   -2,689366229e-03    1,234170869e-01    5,218225121e-01    0,000000000e+00    0,000000000e+00    0,000000000e+00    0,000000000e+00
     1458000000   -3,963429481e-02   -8,062877506e-02    4,308139682e-01    4,974554777e-01    0,000000000e+00    0,000000000e+00    0,000000000e+00    0,000000000e+00
     1472000000   -1,219324321e-01   -1,447229236e-01    7,232181430e-01    3,046413958e-01    0,000000000e+00    0,000000000e+00    0,000000000e+00    0,000000000e+00
     1486000000   -2,350455225e-01   -1,482561976e-01    9,058058858e-01   -4,439839348e-02    0,000000000e+00    0,000000000e+00    0,000000000e+00    0,000000000e+00
     1500000000   -3,034742773e-01   -6,759867817e-02    8,545930982e-01   -4,306046069e-01    0,000000000e+00    0,000000000e+00    0,000000000e+00    0,000000000e+00
