! NanoVNA-App
! Date: 2025-09-25 15:02:36
! Start: 100MHz Stop: 1,5GHz Points: 101
! S-Parameter data: F S11 S21 S12 S22
# Hz S RI R 50
!     Frequency           S11_Real           S11_Imag           S21_Real           S21_Imag           S12_Real           S12_Imag           S22_Real           S22_Imag
      100000000    3,559381142e-02    2,736941352e-02    4,407610297e-01   -6,695165038e-01    0,000000000e+00    0,000000000e+00    0,000000000e+00    0,000000000e+00
      114000000    6,073486432e-02    2,207416808e-03    1,278976072e-02   -7,954543829e-01    0,000000000e+00    0,000000000e+00    0,000000000e+00    0,000000000e+00
      128000000    6,840685755e-02   -4,231914133e-02   -4,082311690e-01   -6,781502366e-01    0,000000000e+00    0,000000000e+00    0,000000000e+00    0,000000000e+00
      142000000    4,350630566e-02   -8,886659890e-02   -7,051963210e-01   -3,611210287e-01    0,000000000e+00    0,000000000e+00    0,000000000e+00    0,000000000e+00
      156000000   -9,313354269e-03   -1,103181019e-01   -7,933056355e-01    6,811732799e-02    0,000000000e+00    0,000000000e+00    0,000000000e+00    0,000000000e+00
      170000000   -6,270825118e-02   -9,186840802e-02   -6,370850205e-01    4,865291119e-01    0,000000000e+00    0,000000000e+00    0,000000000e+00    0,000000000e+00
      184000000   -8,858218789e-02   -4,765966535e-02   -2,731900811e-01    7,560202479e-01    0,000000000e+00    0,000000000e+00    0,000000000e+00    0,000000000e+00
      198000000   -8,276307583e-02   -6,406813394e-03    1,796402335e-01    7,827144265e-01    0,000000000e+00    0,000000000e+00    0,000000000e+00    0,000000000e+00
      212000000   -6,272456795e-02    1,799822412e-02    5,704856515e-01    5,585932136e-01    0,000000000e+00    0,000000000e+00    0,000000000e+00    0,000000000e+00
      226000000   -4,148985818e-02    3,189556301e-02    7,767851353e-01    1,619897485e-01    0,000000000e+00    0,000000000e+00    0,000000000e+00    0,000000000e+00
      240000000   -1,491560508e-02    4,131225124e-02    7,361977696e-01   -2,785862982e-01    0,000000000e+00    0,000000000e+00    0,000000000e+00    0,000000000e+00
      254000000    2,137808874e-02    3,632798046e-02    4,679855108e-01   -6,223183274e-01    0,000000000e+00    0,000000000e+00    0,000000000e+00    0,000000000e+00
      268000000    5,328321829e-02    4,770136438e-03    6,668797880e-02   -7,672665119e-01    0,000000000e+00    0,000000000e+00    0,000000000e+00    0,000000000e+00
      282000000    5,752128363e-02   -4,488637671e-02   -3,453904986e-01   -6,819871664e-01    0,000000000e+00    0,000000000e+00    0,000000000e+00    0,000000000e+00
      296000000    2,608182281e-02   -8,469761908e-02   -6,553472877e-01   -3,977804780e-01    0,000000000e+00    0,000000000e+00    0,000000000e+00    0,000000000e+00
      310000000   -1,919443160e-02   -8,944750577e-02   -7,743777633e-01    9,579282254e-03    0,000000000e+00    0,000000000e+00    0,000000000e+00    0,000000000e+00
      324000000   -4,640861973e-02   -6,358797103e-02   -6,486673355e-01    4,297578335e-01    0,000000000e+00    0,000000000e+00    0,000000000e+00    0,000000000e+00
      338000000   -4,126826674e-02   -3,781174496e-02   -3,094552159e-01    7,094335556e-01    0,000000000e+00    0,000000000e+00    0,000000000e+00    0,000000000e+00
      352000000   -2,353880741e-02   -3,765112907e-02    1,196465343e-01    7,591137886e-01    0,000000000e+00    0,000000000e+00    0,000000000e+00    0,000000000e+00
      366000000   -2,303085104e-02   -5,607764423e-02    5,031182170e-01    5,718293190e-01    0,000000000e+00    0,000000000e+00    0,000000000e+00    0,000000000e+00
      380000000   -4,470701888e-02   -6,544391811e-02    7,270771265e-01    2,119734734e-01    0,000000000e+00    0,000000000e+00    0,000000000e+00    0,000000000e+00
      394000000   -6,645460427e-02   -5,052252859e-02    7,229476571e-01   -2,134681791e-01    0,000000000e+00    0,000000000e+00    0,000000000e+00    0,000000000e+00
      408000000   -6,761413068e-02   -2,645805106e-02    4,894039035e-01   -5,671126842e-01    0,000000000e+00    0,000000000e+00    0,000000000e+00    0,000000000e+00
      422000000   -5,333774909e-02   -1,513690967e-02    1,052758768e-01   -7,394909859e-01    0,000000000e+00    0,000000000e+00    0,000000000e+00    0,000000000e+00
      436000000   -4,650717601e-02   -1,856134273e-02   -3,057936132e-01   -6,766216159e-01    0,000000000e+00    0,000000000e+00    0,000000000e+00    0,000000000e+00
      450000000   -5,218506604e-02   -1,520956866e-02   -6,189846992e-01   -4,001065493e-01    0,000000000e+00    0,000000000e+00    0,000000000e+00    0,000000000e+00
      464000000   -5,042375624e-02    5,744086113e-03   -7,302920818e-01    3,246014938e-03    0,000000000e+00    0,000000000e+00    0,000000000e+00    0,000000000e+00
      478000000   -2,063508518e-02    2,686340176e-02   -5,990175009e-01    3,979969323e-01    0,000000000e+00    0,000000000e+00    0,000000000e+00    0,000000000e+00
      492000000    2,821103297e-02    1,471952815e-02   -2,811662555e-01    6,437489390e-01    0,000000000e+00    0,000000000e+00    0,000000000e+00    0,000000000e+00
      506000000    5,895338953e-02   -3,742789477e-02    1,054282039e-01    6,803897619e-01    0,000000000e+00    0,000000000e+00    0,000000000e+00    0,000000000e+00
      520000000    4,403538257e-02   -1,035735235e-01    4,424141347e-01    5,193406940e-01    0,000000000e+00    0,000000000e+00    0,000000000e+00    0,000000000e+00
      534000000   -1,239369996e-02   -1,443964690e-01    6,498495936e-01    2,049540281e-01    0,000000000e+00    0,000000000e+00    0,000000000e+00    0,000000000e+00
      548000000   -8,200870454e-02   -1,398431659e-01    6,595051289e-01   -1,765813977e-01    0,000000000e+00    0,000000000e+00    0,000000000e+00    0,000000000e+00
      562000000   -1,314773113e-01   -9,810694307e-02    4,500735104e-01   -5,085588098e-01    0,000000000e+00    0,000000000e+00    0,000000000e+00    0,000000000e+00
      576000000   -1,498714834e-01   -3,828326985e-02    8,139717579e-02   -6,609740853e-01    0,000000000e+00    0,000000000e+00    0,000000000e+00    0,000000000e+00
      590000000   -1,297386140e-01    3,066755831e-02   -2,935579717e-01   -5,625053048e-01    0,000000000e+00    0,000000000e+00    0,000000000e+00    0,000000000e+00
      604000000   -3,594792634e-02    6,849494576e-02   -4,855317175e-01   -2,694392502e-01    0,000000000e+00    0,000000000e+00    0,000000000e+00    0,000000000e+00
      618000000    3,387182951e-02   -3,380335495e-02   -4,941073954e-01   -5,518573523e-02    0,000000000e+00    0,000000000e+00    0,000000000e+00    0,000000000e+00
      632000000   -5,466042832e-02   -9,207606316e-02   -5,286176801e-01    1,778919548e-01    0,000000000e+00    0,000000000e+00    0,000000000e+00    0,000000000e+00
      646000000   -1,001127660e-01   -3,258435801e-02   -3,795108795e-01    4,789762199e-01    0,000000000e+00    0,000000000e+00    0,000000000e+00    0,000000000e+00
      660000000   -6,809551269e-02    9,425071068e-03   -5,021795630e-02    6,248136759e-01    0,000000000e+00    0,000000000e+00    0,000000000e+00    0,000000000e+00
      674000000   -3,028439544e-02    4,946266301e-03    2,989886403e-01    5,533220768e-01    0,000000000e+00    0,000000000e+00    0,000000000e+00    0,000000000e+00
      688000000   -1,475642715e-02   -1,809218340e-02    5,477028489e-01    3,027784526e-01    0,000000000e+00    0,000000000e+00    0,000000000e+00    0,000000000e+00
      702000000   -1,432037726e-02   -3,555300832e-02    6,168472767e-01   -3,988119215e-02    0,000000000e+00    0,000000000e+00    0,000000000e+00    0,000000000e+00
      716000000   -9,925357997e-03   -4,802990705e-02    4,918275476e-01   -3,683669567e-01    0,000000000e+00    0,000000000e+00    0,000000000e+00    0,000000000e+00
      730000000   -7,252247073e-03   -7,506106794e-02    2,107803226e-01   -5,683253407e-01    0,000000000e+00    0,000000000e+00    0,000000000e+00    0,000000000e+00
      744000000   -2,517939173e-02   -1,102872714e-01   -1,244881898e-01   -5,881648064e-01    0,000000000e+00    0,000000000e+00    0,000000000e+00    0,000000000e+00
      758000000   -7,392467558e-02   -1,321963817e-01   -4,190655947e-01   -4,326098263e-01    0,000000000e+00    0,000000000e+00    0,000000000e+00    0,000000000e+00
      772000000   -1,349671483e-01   -1,164624020e-01   -5,935876966e-01   -1,400761753e-01    0,000000000e+00    0,000000000e+00    0,000000000e+00    0,000000000e+00
      786000000   -1,711766571e-01   -5,904971063e-02   -5,814608335e-01    2,105926871e-01    0,000000000e+00    0,000000000e+00    0,000000000e+00    0,000000000e+00
      800000000   -1,604595780e-01    6,080567371e-03   -3,738481700e-01    4,955782592e-01    0,000000000e+00    0,000000000e+00    0,000000000e+00    0,000000000e+00
      814000000   -1,148502380e-01    4,207931086e-02   -4,566948116e-02    6,142866611e-01    0,000000000e+00    0,000000000e+00    0,000000000e+00    0,000000000e+00
      828000000   -6,919670105e-02    4,462193698e-02    2,855855823e-01    5,413900018e-01    0,000000000e+00    0,000000000e+00    0,000000000e+00    0,000000000e+00
      842000000   -3,963704780e-02    2,942192927e-02    5,208403468e-01    3,053825796e-01    0,000000000e+00    0,000000000e+00    0,000000000e+00    0,000000000e+00
      856000000   -1,802675053e-02    1,243039127e-02    5,939575434e-01   -1,383204665e-02    0,000000000e+00    0,000000000e+00    0,000000000e+00    0,000000000e+00
      870000000    2,544496907e-03   -1,096105482e-02    4,856116176e-01   -3,162465692e-01    0,000000000e+00    0,000000000e+00    0,000000000e+00    0,000000000e+00
      884000000    1,349657867e-02   -5,196183175e-02    2,422305048e-01   -5,115753412e-01    0,000000000e+00    0,000000000e+00    0,000000000e+00    0,000000000e+00
      898000000   -3,443560796e-03   -1,025023013e-01   -5,762218684e-02   -5,550923347e-01    0,000000000e+00    0,000000000e+00    0,000000000e+00    0,000000000e+00
      912000000   -6,240389124e-02   -1,341037303e-01   -3,827570379e-01   -4,122734964e-01    0,000000000e+00    0,000000000e+00    0,000000000e+00    0,000000000e+00
      926000000   -1,263525337e-01   -1,199079454e-01   -5,650652051e-01   -1,499843299e-01    0,000000000e+00    0,000000000e+00    0,000000000e+00    0,000000000e+00
      940000000   -1,649529934e-01   -6,063872948e-02   -5,689102411e-01    1,934672743e-01    0,000000000e+00    0,000000000e+00    0,000000000e+00    0,000000000e+00
      954000000   -1,493891925e-01   -5,368187558e-04   -3,744619191e-01    4,837749600e-01    0,000000000e+00    0,000000000e+00    0,000000000e+00    0,000000000e+00
      968000000   -9,880602360e-02    2,058821358e-02   -5,080183223e-02    6,159535646e-01    0,000000000e+00    0,000000000e+00    0,000000000e+00    0,000000000e+00
      982000000   -5,284383148e-02    2,268721815e-03    2,822121978e-01    5,507007837e-01    0,000000000e+00    0,000000000e+00    0,000000000e+00    0,000000000e+00
      996000000   -4,113141820e-02   -3,444158658e-02    5,237122774e-01    3,267686665e-01    0,000000000e+00    0,000000000e+00    0,000000000e+00    0,000000000e+00
     1010000000   -6,572982669e-02   -6,642922014e-02    6,086133718e-01    1,661614142e-02    0,000000000e+00    0,000000000e+00    0,000000000e+00    0,000000000e+00
     1024000000   -1,043455005e-01   -7,908590138e-02    5,176733136e-01   -2,783401906e-01    0,000000000e+00    0,000000000e+00    0,000000000e+00    0,000000000e+00
     1038000000   -1,445526779e-01   -5,222671479e-02    2,968656123e-01   -4,715208709e-01    0,000000000e+00    0,000000000e+00    0,000000000e+00    0,000000000e+00
     1052000000   -1,524821371e-01    1,698440639e-03    3,750124201e-02   -5,243950486e-01    0,000000000e+00    0,000000000e+00    0,000000000e+00    0,000000000e+00
     1066000000   -1,055791602e-01    3,919390589e-02   -2,130158693e-01   -4,661961198e-01    0,000000000e+00    0,000000000e+00    0,000000000e+00    0,000000000e+00
     1080000000   -5,413065478e-02    2,350013889e-02   -4,186580181e-01   -2,997556329e-01    0,000000000e+00    0,000000000e+00    0,000000000e+00    0,000000000e+00
     1094000000   -3,371776640e-02   -1,166453958e-02   -5,226686001e-01   -2,385645546e-02    0,000000000e+00    0,000000000e+00    0,000000000e+00    0,000000000e+00
     1108000000   -3,109141439e-02   -3,343631327e-02   -4,417640567e-01    2,881672978e-01    0,000000000e+00    0,000000000e+00    0,000000000e+00    0,000000000e+00
     1122000000   -3,444089368e-02   -5,698836967e-02   -1,831970066e-01    4,973407090e-01    0,000000000e+00    0,000000000e+00    0,000000000e+00    0,000000000e+00
     1136000000   -4,575505108e-02   -9,089598060e-02    1,529639363e-01    5,191245675e-01    0,000000000e+00    0,000000000e+00    0,000000000e+00    0,000000000e+00
     1150000000   -8,410692960e-02   -1,224606261e-01    4,535422623e-01    3,426846266e-01    0,000000000e+00    0,000000000e+00    0,000000000e+00    0,000000000e+00
     1164000000   -1,366040111e-01   -1,247979701e-01    6,094322205e-01    8,946531452e-03    0,000000000e+00    0,000000000e+00    0,000000000e+00    0,000000000e+00
     1178000000   -1,745673567e-01   -8,492430300e-02    5,386864543e-01   -3,719174862e-01    0,000000000e+00    0,000000000e+00    0,000000000e+00    0,000000000e+00
     1192000000   -1,808808148e-01   -5,269392580e-02    2,413918227e-01   -6,367317438e-01    0,000000000e+00    0,000000000e+00    0,000000000e+00    0,000000000e+00
     1206000000   -1,897408366e-01   -5,824147910e-02   -1,401510388e-01   -6,585738659e-01    0,000000000e+00    0,000000000e+00    0,000000000e+00    0,000000000e+00
     1220000000   -2,508915067e-01   -1,345341839e-02   -4,221388102e-01   -4,869344831e-01    0,000000000e+00    0,000000000e+00    0,000000000e+00    0,000000000e+00
     1234000000   -2,414773256e-01    1,112748459e-01   -5,638839006e-01   -2,541746199e-01    0,000000000e+00    0,000000000e+00    0,000000000e+00    0,000000000e+00
     1248000000   -1,133780256e-01    1,705257595e-01   -6,075361967e-01    1,587239467e-02    0,000000000e+00    0,000000000e+00    0,000000000e+00    0,000000000e+00
     1262000000   -7,571185008e-03    1,307899952e-01   -5,101729035e-01    2,979623079e-01    0,000000000e+00    0,000000000e+00    0,000000000e+00    0,000000000e+00
     1276000000    6,358852983e-02    4,277937114e-02   -2,748544812e-01    4,881393313e-01    0,000000000e+00    0,000000000e+00    0,000000000e+00    0,000000000e+00
     1290000000    6,797963381e-02   -7,222540677e-02    1,315527782e-02    5,432439446e-01    0,000000000e+00    0,000000000e+00    0,000000000e+00    0,000000000e+00
     1304000000    2,085656300e-02   -1,755960435e-01    3,014467955e-01    4,851427078e-01    0,000000000e+00    0,000000000e+00    0,000000000e+00    0,000000000e+00
     1318000000   -9,320038557e-02   -2,534618974e-01    5,442017913e-01    2,665027380e-01    0,000000000e+00    0,000000000e+00    0,000000000e+00    0,000000000e+00
     1332000000   -2,387914807e-01   -2,453584224e-01    6,548573971e-01   -5,295219272e-02    0,000000000e+00    0,000000000e+00    0,000000000e+00    0,000000000e+00
     1346000000   -3,587002754e-01   -1,422789097e-01    5,595242977e-01   -4,103280902e-01    0,000000000e+00    0,000000000e+00    0,000000000e+00    0,000000000e+00
     1360000000   -3,880915344e-01    9,622536600e-03    2,446874380e-01   -6,280242205e-01    0,000000000e+00    0,000000000e+00    0,000000000e+00    0,000000000e+00
     1374000000   -3,264657259e-01    1,189485639e-01   -9,892291576e-02   -6,226564050e-01    0,000000000e+00    0,000000000e+00    0,000000000e+00    0,000000000e+00
     1388000000   -2,370012999e-01    1,696976274e-01   -3,682761192e-01   -4,129827023e-01    0,000000000e+00    0,000000000e+00    0,000000000e+00    0,000000000e+00
     1402000000   -1,573037058e-01    1,707082987e-01   -4,808652103e-01   -1,010929942e-01    0,000000000e+00    0,000000000e+00    0,000000000e+00    0,000000000e+00
     1416000000   -8,490422368e-02    1,433320791e-01   -3,888208270e-01    1,962133944e-01    0,000000000e+00    0,000000000e+00    0,000000000e+00    0,000000000e+00
     1430000000   -2,824804559e-02    8,930432796e-02   -1,554778516e-01    4,332971573e-01    0,000000000e+00    0,000000000e+00    0,000000000e+00    0,000000000e+00
     1444000000   -1,598168351e-02    7,021131460e-03    1,249517500e-01    5,169742703e-01    0,000000000e+00    0,000000000e+00    0,000000000e+00    0,000000000e+00
     1458000000   -4,067840055e-02   -7,655172795e-02    4,475089908e-01    4,992727041e-01    0,000000000e+00    0,000000000e+00    0,000000000e+00    0,000000000e+00
     1472000000   -1,164544895e-01   -1,494741589e-01    7,369414568e-01    3,032222390e-01    0,000000000e+00    0,000000000e+00    0,000000000e+00    0,000000000e+00
     1486000000   -2,292310447e-01   -1,412561238e-01    9,046093225e-01   -2,283354849e-02    0,000000000e+00    0,000000000e+00    0,000000000e+00    0,000000000e+00
     1500000000   -2,982731164e-01   -5,921215191e-02    8,631714582e-01   -4,080434144e-01    0,000000000e+00    0,000000000e+00    0,000000000e+00    0,000000000e+00
