! NanoVNA-App
! Date: 2025-09-25 15:00:45
! Start: 100MHz Stop: 1,5GHz Points: 101
! S-Parameter data: F S11 S21 S12 S22
# Hz S RI R 50
!     Frequency           S11_Real           S11_Imag           S21_Real           S21_Imag           S12_Real           S12_Imag           S22_Real           S22_Imag
      100000000    3,557729721e-02    2,735497430e-02    4,407683313e-01   -6,696340442e-01    0,000000000e+00    0,000000000e+00    0,000000000e+00    0,000000000e+00
      114000000    6,071863323e-02    2,166257706e-03    1,275753416e-02   -7,955417633e-01    0,000000000e+00    0,000000000e+00    0,000000000e+00    0,000000000e+00
      128000000    6,834648550e-02   -4,225307330e-02   -4,080611169e-01   -6,780325770e-01    0,000000000e+00    0,000000000e+00    0,000000000e+00    0,000000000e+00
      142000000    4,349254072e-02   -8,880810440e-02   -7,054334283e-01   -3,610052466e-01    0,000000000e+00    0,000000000e+00    0,000000000e+00    0,000000000e+00
      156000000   -8,885833435e-03   -1,103956699e-01   -7,936092019e-01    6,840343028e-02    0,000000000e+00    0,000000000e+00    0,000000000e+00    0,000000000e+00
      170000000   -6,260231137e-02   -9,175298363e-02   -6,369671822e-01    4,864992201e-01    0,000000000e+00    0,000000000e+00    0,000000000e+00    0,000000000e+00
      184000000   -8,857352287e-02   -4,769882932e-02   -2,729973197e-01    7,562043667e-01    0,000000000e+00    0,000000000e+00    0,000000000e+00    0,000000000e+00
      198000000   -8,275911957e-02   -6,456558593e-03    1,796754748e-01    7,826747894e-01    0,000000000e+00    0,000000000e+00    0,000000000e+00    0,000000000e+00
      212000000   -6,274619699e-02    1,800221391e-02    5,706397295e-01    5,582342744e-01    0,000000000e+00    0,000000000e+00    0,000000000e+00    0,000000000e+00
      226000000   -4,152910784e-02    3,186712414e-02    7,766536474e-01    1,619970649e-01    0,000000000e+00    0,000000000e+00    0,000000000e+00    0,000000000e+00
      240000000   -1,488445979e-02    4,128078744e-02    7,360801697e-01   -2,786571681e-01    0,000000000e+00    0,000000000e+00    0,000000000e+00    0,000000000e+00
      254000000    2,138546482e-02    3,630069271e-02    4,679209292e-01   -6,222453713e-01    0,000000000e+00    0,000000000e+00    0,000000000e+00    0,000000000e+00
      268000000    5,327522010e-02    4,745187704e-03    6,651663780e-02   -7,672857046e-01    0,000000000e+00    0,000000000e+00    0,000000000e+00    0,000000000e+00
      282000000    5,734237283e-02   -4,495267570e-02   -3,456149101e-01   -6,822316647e-01    0,000000000e+00    0,000000000e+00    0,000000000e+00    0,000000000e+00
      296000000    2,613664791e-02   -8,478685468e-02   -6,553497314e-01   -3,975909054e-01    0,000000000e+00    0,000000000e+00    0,000000000e+00    0,000000000e+00
      310000000   -1,908756793e-02   -8,944532275e-02   -7,731905580e-01    1,074312720e-02    0,000000000e+00    0,000000000e+00    0,000000000e+00    0,000000000e+00
      324000000   -4,654972255e-02   -6,347655505e-02   -6,474993229e-01    4,301852882e-01    0,000000000e+00    0,000000000e+00    0,000000000e+00    0,000000000e+00
      338000000   -4,120162129e-02   -3,778236732e-02   -3,087248206e-01    7,099409103e-01    0,000000000e+00    0,000000000e+00    0,000000000e+00    0,000000000e+00
      352000000   -2,337935753e-02   -3,795241937e-02    1,197182015e-01    7,578297853e-01    0,000000000e+00    0,000000000e+00    0,000000000e+00    0,000000000e+00
      366000000   -2,321275324e-02   -5,583420396e-02    5,024791360e-01    5,726049542e-01    0,000000000e+00    0,000000000e+00    0,000000000e+00    0,000000000e+00
      380000000   -4,443284869e-02   -6,523093581e-02    7,269759178e-01    2,118961066e-01    0,000000000e+00    0,000000000e+00    0,000000000e+00    0,000000000e+00
      394000000   -6,633883715e-02   -5,073099211e-02    7,231073976e-01   -2,134425193e-01    0,000000000e+00    0,000000000e+00    0,000000000e+00    0,000000000e+00
      408000000   -6,746982783e-02   -2,661223710e-02    4,892086685e-01   -5,697620511e-01    0,000000000e+00    0,000000000e+00    0,000000000e+00    0,000000000e+00
      422000000   -5,318546295e-02   -1,535982173e-02    1,051360369e-01   -7,381595969e-01    0,000000000e+00    0,000000000e+00    0,000000000e+00    0,000000000e+00
      436000000   -4,639042914e-02   -1,839151606e-02   -3,063322902e-01   -6,758092642e-01    0,000000000e+00    0,000000000e+00    0,000000000e+00    0,000000000e+00
      450000000   -5,222538859e-02   -1,510939095e-02   -6,188966632e-01   -3,999780715e-01    0,000000000e+00    0,000000000e+00    0,000000000e+00    0,000000000e+00
      464000000   -5,014248937e-02    5,955498200e-03   -7,297315001e-01    3,521500854e-03    0,000000000e+00    0,000000000e+00    0,000000000e+00    0,000000000e+00
      478000000   -2,051369660e-02    2,630854398e-02   -5,983706117e-01    3,971225917e-01    0,000000000e+00    0,000000000e+00    0,000000000e+00    0,000000000e+00
      492000000    2,819070034e-02    1,482235454e-02   -2,807591856e-01    6,447495818e-01    0,000000000e+00    0,000000000e+00    0,000000000e+00    0,000000000e+00
      506000000    5,895745754e-02   -3,745714203e-02    1,055523157e-01    6,801515818e-01    0,000000000e+00    0,000000000e+00    0,000000000e+00    0,000000000e+00
      520000000    4,436929151e-02   -1,028870866e-01    4,419776201e-01    5,192055106e-01    0,000000000e+00    0,000000000e+00    0,000000000e+00    0,000000000e+00
      534000000   -1,265013870e-02   -1,437841803e-01    6,490694284e-01    2,058509141e-01    0,000000000e+00    0,000000000e+00    0,000000000e+00    0,000000000e+00
      548000000   -8,173825592e-02   -1,397289038e-01    6,595835090e-01   -1,758476198e-01    0,000000000e+00    0,000000000e+00    0,000000000e+00    0,000000000e+00
      562000000   -1,310802251e-01   -9,788056463e-02    4,508686066e-01   -5,078676939e-01    0,000000000e+00    0,000000000e+00    0,000000000e+00    0,000000000e+00
      576000000   -1,489460170e-01   -3,880025074e-02    8,301758021e-02   -6,609845757e-01    0,000000000e+00    0,000000000e+00    0,000000000e+00    0,000000000e+00
      590000000   -1,301776767e-01    2,830192074e-02   -2,971687615e-01   -5,645564795e-01    0,000000000e+00    0,000000000e+00    0,000000000e+00    0,000000000e+00
      604000000   -4,075317830e-02    6,833664328e-02   -4,911620021e-01   -2,707999349e-01    0,000000000e+00    0,000000000e+00    0,000000000e+00    0,000000000e+00
      618000000    3,538700566e-02   -2,663367242e-02   -4,936015010e-01   -4,699156433e-02    0,000000000e+00    0,000000000e+00    0,000000000e+00    0,000000000e+00
      632000000   -5,058444664e-02   -9,338910878e-02   -5,224119425e-01    1,766185462e-01    0,000000000e+00    0,000000000e+00    0,000000000e+00    0,000000000e+00
      646000000   -9,968487918e-02   -3,552009538e-02   -3,799778819e-01    4,749572575e-01    0,000000000e+00    0,000000000e+00    0,000000000e+00    0,000000000e+00
      660000000   -7,005476952e-02    9,609930217e-03   -5,223523453e-02    6,249052286e-01    0,000000000e+00    0,000000000e+00    0,000000000e+00    0,000000000e+00
      674000000   -3,096671961e-02    4,458055366e-03    2,974000573e-01    5,536104441e-01    0,000000000e+00    0,000000000e+00    0,000000000e+00    0,000000000e+00
      688000000   -1,512185205e-02   -1,780210249e-02    5,467001796e-01    3,033806384e-01    0,000000000e+00    0,000000000e+00    0,000000000e+00    0,000000000e+00
      702000000   -1,330784615e-02   -3,413262218e-02    6,203128695e-01   -4,223185033e-02    0,000000000e+00    0,000000000e+00    0,000000000e+00    0,000000000e+00
      716000000   -8,902834728e-03   -4,850184545e-02    4,923885465e-01   -3,674435914e-01    0,000000000e+00    0,000000000e+00    0,000000000e+00    0,000000000e+00
      730000000   -7,382911630e-03   -7,520423084e-02    2,117133439e-01   -5,675541759e-01    0,000000000e+00    0,000000000e+00    0,000000000e+00    0,000000000e+00
      744000000   -2,574848197e-02   -1,113216802e-01   -1,238375902e-01   -5,873966813e-01    0,000000000e+00    0,000000000e+00    0,000000000e+00    0,000000000e+00
      758000000   -7,383388281e-02   -1,329260617e-01   -4,193693399e-01   -4,328877628e-01    0,000000000e+00    0,000000000e+00    0,000000000e+00    0,000000000e+00
      772000000   -1,351720840e-01   -1,159933731e-01   -5,938318968e-01   -1,405341923e-01    0,000000000e+00    0,000000000e+00    0,000000000e+00    0,000000000e+00
      786000000   -1,720758826e-01   -5,901098996e-02   -5,817054510e-01    2,099021673e-01    0,000000000e+00    0,000000000e+00    0,000000000e+00    0,000000000e+00
      800000000   -1,601447910e-01    7,513540331e-03   -3,729188740e-01    4,961634874e-01    0,000000000e+00    0,000000000e+00    0,000000000e+00    0,000000000e+00
      814000000   -1,140411645e-01    4,240957275e-02   -4,607446864e-02    6,154519916e-01    0,000000000e+00    0,000000000e+00    0,000000000e+00    0,000000000e+00
      828000000   -6,809469312e-02    4,389819503e-02    2,868453562e-01    5,405862927e-01    0,000000000e+00    0,000000000e+00    0,000000000e+00    0,000000000e+00
      842000000   -3,913788125e-02    2,842258289e-02    5,215196013e-01    3,058083057e-01    0,000000000e+00    0,000000000e+00    0,000000000e+00    0,000000000e+00
      856000000   -1,841272227e-02    1,174924057e-02    5,945823789e-01   -1,398043800e-02    0,000000000e+00    0,000000000e+00    0,000000000e+00    0,000000000e+00
      870000000    1,295498339e-03   -1,111030858e-02    4,869996011e-01   -3,172600865e-01    0,000000000e+00    0,000000000e+00    0,000000000e+00    0,000000000e+00
      884000000    1,318286732e-02   -5,099022016e-02    2,440053821e-01   -5,117277503e-01    0,000000000e+00    0,000000000e+00    0,000000000e+00    0,000000000e+00
      898000000   -4,037001170e-03   -1,013550907e-01   -5,909428746e-02   -5,552201271e-01    0,000000000e+00    0,000000000e+00    0,000000000e+00    0,000000000e+00
      912000000   -6,286107004e-02   -1,318514645e-01   -3,820678294e-01   -4,188297391e-01    0,000000000e+00    0,000000000e+00    0,000000000e+00    0,000000000e+00
      926000000   -1,263524145e-01   -1,200852096e-01   -5,673354268e-01   -1,487247497e-01    0,000000000e+00    0,000000000e+00    0,000000000e+00    0,000000000e+00
      940000000   -1,628097743e-01   -6,540751457e-02   -5,684923530e-01    1,899605989e-01    0,000000000e+00    0,000000000e+00    0,000000000e+00    0,000000000e+00
      954000000   -1,490811259e-01    6,890379009e-04   -3,754865527e-01    4,855209291e-01    0,000000000e+00    0,000000000e+00    0,000000000e+00    0,000000000e+00
      968000000   -9,995298088e-02    2,380907722e-02   -5,267308280e-02    6,140247583e-01    0,000000000e+00    0,000000000e+00    0,000000000e+00    0,000000000e+00
      982000000   -5,724742636e-02    4,255814943e-03    2,801358700e-01    5,504814982e-01    0,000000000e+00    0,000000000e+00    0,000000000e+00    0,000000000e+00
      996000000   -4,447215796e-02   -3,603843600e-02    5,254645944e-01    3,267560005e-01    0,000000000e+00    0,000000000e+00    0,000000000e+00    0,000000000e+00
     1010000000   -6,455725431e-02   -6,357666850e-02    6,075860262e-01    1,571251452e-02    0,000000000e+00    0,000000000e+00    0,000000000e+00    0,000000000e+00
     1024000000   -1,034974530e-01   -7,884117216e-02    5,166622400e-01   -2,820394635e-01    0,000000000e+00    0,000000000e+00    0,000000000e+00    0,000000000e+00
     1038000000   -1,412975490e-01   -5,399494991e-02    2,949968278e-01   -4,692687094e-01    0,000000000e+00    0,000000000e+00    0,000000000e+00    0,000000000e+00
     1052000000   -1,492924988e-01   -4,144677892e-03    3,566196561e-02   -5,212058425e-01    0,000000000e+00    0,000000000e+00    0,000000000e+00    0,000000000e+00
     1066000000   -1,087786406e-01    4,008351266e-02   -2,112870365e-01   -4,672438502e-01    0,000000000e+00    0,000000000e+00    0,000000000e+00    0,000000000e+00
     1080000000   -5,461020768e-02    2,367868833e-02   -4,169430435e-01   -2,994191945e-01    0,000000000e+00    0,000000000e+00    0,000000000e+00    0,000000000e+00
     1094000000   -3,714108467e-02   -5,778376944e-03   -5,205551982e-01   -2,438353002e-02    0,000000000e+00    0,000000000e+00    0,000000000e+00    0,000000000e+00
     1108000000   -2,975064330e-02   -3,396605700e-02   -4,451075196e-01    2,853534520e-01    0,000000000e+00    0,000000000e+00    0,000000000e+00    0,000000000e+00
     1122000000   -3,000419959e-02   -5,556449294e-02   -1,865501553e-01    4,979664981e-01    0,000000000e+00    0,000000000e+00    0,000000000e+00    0,000000000e+00
     1136000000   -4,454625398e-02   -9,204807132e-02    1,530323029e-01    5,176752210e-01    0,000000000e+00    0,000000000e+00    0,000000000e+00    0,000000000e+00
     1150000000   -8,474620432e-02   -1,254157573e-01    4,517048597e-01    3,433791995e-01    0,000000000e+00    0,000000000e+00    0,000000000e+00    0,000000000e+00
     1164000000   -1,370578557e-01   -1,247526258e-01    6,089038849e-01    1,000911929e-02    0,000000000e+00    0,000000000e+00    0,000000000e+00    0,000000000e+00
     1178000000   -1,726603210e-01   -8,517012745e-02    5,387262106e-01   -3,734248281e-01    0,000000000e+00    0,000000000e+00    0,000000000e+00    0,000000000e+00
     1192000000   -1,790456325e-01   -5,926729739e-02    2,388991565e-01   -6,410903335e-01    0,000000000e+00    0,000000000e+00    0,000000000e+00    0,000000000e+00
     1206000000   -1,895640343e-01   -5,567473918e-02   -1,376201212e-01   -6,610641479e-01    0,000000000e+00    0,000000000e+00    0,000000000e+00    0,000000000e+00
     1220000000   -2,570927441e-01   -1,347560156e-02   -4,205403328e-01   -4,851920307e-01    0,000000000e+00    0,000000000e+00    0,000000000e+00    0,000000000e+00
     1234000000   -2,449011356e-01    1,198545396e-01   -5,603300929e-01   -2,508605123e-01    0,000000000e+00    0,000000000e+00    0,000000000e+00    0,000000000e+00
     1248000000   -1,140149534e-01    1,768914461e-01   -6,017575264e-01    2,226360701e-02    0,000000000e+00    0,000000000e+00    0,000000000e+00    0,000000000e+00
     1262000000   -1,253565657e-03    1,347151548e-01   -5,067281723e-01    2,998532653e-01    0,000000000e+00    0,000000000e+00    0,000000000e+00    0,000000000e+00
     1276000000    5,886468291e-02    4,319928959e-02   -2,796922326e-01    4,854295254e-01    0,000000000e+00    0,000000000e+00    0,000000000e+00    0,000000000e+00
     1290000000    7,586196810e-02   -6,560271978e-02    1,006103586e-02    5,490453243e-01    0,000000000e+00    0,000000000e+00    0,000000000e+00    0,000000000e+00
     1304000000    2,067051269e-02   -1,770733744e-01    2,967985272e-01    4,812075496e-01    0,000000000e+00    0,000000000e+00    0,000000000e+00    0,000000000e+00
     1318000000   -9,348984808e-02   -2,536883354e-01    5,459696054e-01    2,673549652e-01    0,000000000e+00    0,000000000e+00    0,000000000e+00    0,000000000e+00
     1332000000   -2,414807677e-01   -2,463270575e-01    6,495613456e-01   -5,635288358e-02    0,000000000e+00    0,000000000e+00    0,000000000e+00    0,000000000e+00
     1346000000   -3,635479212e-01   -1,440680474e-01    5,554199815e-01   -4,186381698e-01    0,000000000e+00    0,000000000e+00    0,000000000e+00    0,000000000e+00
     1360000000   -3,898777664e-01    8,067909628e-03    2,520793378e-01   -6,361833215e-01    0,000000000e+00    0,000000000e+00    0,000000000e+00    0,000000000e+00
     1374000000   -3,256922662e-01    1,220101714e-01   -9,993939847e-02   -6,261891723e-01    0,000000000e+00    0,000000000e+00    0,000000000e+00    0,000000000e+00
     1388000000   -2,427963763e-01    1,666084379e-01   -3,771928847e-01   -4,133596420e-01    0,000000000e+00    0,000000000e+00    0,000000000e+00    0,000000000e+00
     1402000000   -1,538354009e-01    1,710375994e-01   -4,717496336e-01   -1,030205637e-01    0,000000000e+00    0,000000000e+00    0,000000000e+00    0,000000000e+00
     1416000000   -8,766192943e-02    1,418218762e-01   -4,000848234e-01    2,086870223e-01    0,000000000e+00    0,000000000e+00    0,000000000e+00    0,000000000e+00
     1430000000   -2,827208303e-02    8,509749174e-02   -1,475564837e-01    4,284487963e-01    0,000000000e+00    0,000000000e+00    0,000000000e+00    0,000000000e+00
     1444000000   -1,481372863e-02    7,555885240e-03    1,295332611e-01    5,363962054e-01    0,000000000e+00    0,000000000e+00    0,000000000e+00    0,000000000e+00
     1458000000   -3,949579224e-02   -8,384538442e-02    4,454998970e-01    4,856892228e-01    0,000000000e+00    0,000000000e+00    0,000000000e+00    0,000000000e+00
     1472000000   -1,179598048e-01   -1,447177082e-01    7,389269471e-01    3,118749857e-01    0,000000000e+00    0,000000000e+00    0,000000000e+00    0,000000000e+00
     1486000000   -2,313823551e-01   -1,365774274e-01    9,105830193e-01   -3,360695392e-02    0,000000000e+00    0,000000000e+00    0,000000000e+00    0,000000000e+00
     1500000000   -3,115963936e-01   -6,029822677e-02    8,320509791e-01   -4,270604849e-01    0,000000000e+00    0,000000000e+00    0,000000000e+00    0,000000000e+00
