! NanoVNA-App
! Date: 2025-09-25 14:59:50
! Start: 100MHz Stop: 1,5GHz Points: 101
! S-Parameter data: F S11 S21 S12 S22
# Hz S RI R 50
!     Frequency           S11_Real           S11_Imag           S21_Real           S21_Imag           S12_Real           S12_Imag           S22_Real           S22_Imag
      100000000    3,558180109e-02    2,735418826e-02    4,407299161e-01   -6,695026755e-01    0,000000000e+00    0,000000000e+00    0,000000000e+00    0,000000000e+00
      114000000    6,071541086e-02    2,192649990e-03    1,267124992e-02   -7,954469323e-01    0,000000000e+00    0,000000000e+00    0,000000000e+00    0,000000000e+00
      128000000    6,836109608e-02   -4,222328216e-02   -4,082537591e-01   -6,780231595e-01    0,000000000e+00    0,000000000e+00    0,000000000e+00    0,000000000e+00
      142000000    4,346649721e-02   -8,878652751e-02   -7,053321600e-01   -3,610068560e-01    0,000000000e+00    0,000000000e+00    0,000000000e+00    0,000000000e+00
      156000000   -9,303451516e-03   -1,097279787e-01   -7,934467793e-01    6,715128571e-02    0,000000000e+00    0,000000000e+00    0,000000000e+00    0,000000000e+00
      170000000   -6,264419854e-02   -9,172756225e-02   -6,368743777e-01    4,863703549e-01    0,000000000e+00    0,000000000e+00    0,000000000e+00    0,000000000e+00
      184000000   -8,857949078e-02   -4,764562473e-02   -2,733936310e-01    7,564138174e-01    0,000000000e+00    0,000000000e+00    0,000000000e+00    0,000000000e+00
      198000000   -8,274024725e-02   -6,435578689e-03    1,794994622e-01    7,820966840e-01    0,000000000e+00    0,000000000e+00    0,000000000e+00    0,000000000e+00
      212000000   -6,273459643e-02    1,803830266e-02    5,706659555e-01    5,584120750e-01    0,000000000e+00    0,000000000e+00    0,000000000e+00    0,000000000e+00
      226000000   -4,150208086e-02    3,183707967e-02    7,768126130e-01    1,619488299e-01    0,000000000e+00    0,000000000e+00    0,000000000e+00    0,000000000e+00
      240000000   -1,491583325e-02    4,128744081e-02    7,360675931e-01   -2,788468301e-01    0,000000000e+00    0,000000000e+00    0,000000000e+00    0,000000000e+00
      254000000    2,141826227e-02    3,628361598e-02    4,679174721e-01   -6,216785908e-01    0,000000000e+00    0,000000000e+00    0,000000000e+00    0,000000000e+00
      268000000    5,328879505e-02    4,721938632e-03    6,672768295e-02   -7,671400905e-01    0,000000000e+00    0,000000000e+00    0,000000000e+00    0,000000000e+00
      282000000    5,741293728e-02   -4,502665251e-02   -3,459229171e-01   -6,824874282e-01    0,000000000e+00    0,000000000e+00    0,000000000e+00    0,000000000e+00
      296000000    2,615197562e-02   -8,479072899e-02   -6,551175714e-01   -3,975986242e-01    0,000000000e+00    0,000000000e+00    0,000000000e+00    0,000000000e+00
      310000000   -1,889913715e-02   -8,942151070e-02   -7,747399211e-01    1,010385435e-02    0,000000000e+00    0,000000000e+00    0,000000000e+00    0,000000000e+00
      324000000   -4,635614529e-02   -6,340404600e-02   -6,476015449e-01    4,296310842e-01    0,000000000e+00    0,000000000e+00    0,000000000e+00    0,000000000e+00
      338000000   -4,125376046e-02   -3,774346784e-02   -3,116384745e-01    7,121850252e-01    0,000000000e+00    0,000000000e+00    0,000000000e+00    0,000000000e+00
      352000000   -2,346159332e-02   -3,768337891e-02    1,187167615e-01    7,576437593e-01    0,000000000e+00    0,000000000e+00    0,000000000e+00    0,000000000e+00
      366000000   -2,298011258e-02   -5,628905073e-02    5,033025742e-01    5,709056854e-01    0,000000000e+00    0,000000000e+00    0,000000000e+00    0,000000000e+00
      380000000   -4,487837479e-02   -6,528349966e-02    7,265186906e-01    2,117340565e-01    0,000000000e+00    0,000000000e+00    0,000000000e+00    0,000000000e+00
      394000000   -6,662016362e-02   -5,059705675e-02    7,224551439e-01   -2,134165764e-01    0,000000000e+00    0,000000000e+00    0,000000000e+00    0,000000000e+00
      408000000   -6,737060845e-02   -2,625904977e-02    4,901942313e-01   -5,692362785e-01    0,000000000e+00    0,000000000e+00    0,000000000e+00    0,000000000e+00
      422000000   -5,319926888e-02   -1,531732269e-02    1,047693565e-01   -7,389197946e-01    0,000000000e+00    0,000000000e+00    0,000000000e+00    0,000000000e+00
      436000000   -4,653488472e-02   -1,855479740e-02   -3,062111139e-01   -6,750966907e-01    0,000000000e+00    0,000000000e+00    0,000000000e+00    0,000000000e+00
      450000000   -5,190064013e-02   -1,517097559e-02   -6,185751557e-01   -3,996781707e-01    0,000000000e+00    0,000000000e+00    0,000000000e+00    0,000000000e+00
      464000000   -5,023865029e-02    6,135034375e-03   -7,299826741e-01    3,459580941e-03    0,000000000e+00    0,000000000e+00    0,000000000e+00    0,000000000e+00
      478000000   -2,033924870e-02    2,642195672e-02   -5,982431173e-01    3,968796730e-01    0,000000000e+00    0,000000000e+00    0,000000000e+00    0,000000000e+00
      492000000    2,852962539e-02    1,459556073e-02   -2,801473737e-01    6,445006728e-01    0,000000000e+00    0,000000000e+00    0,000000000e+00    0,000000000e+00
      506000000    5,938920379e-02   -3,739279881e-02    1,053361893e-01    6,801051497e-01    0,000000000e+00    0,000000000e+00    0,000000000e+00    0,000000000e+00
      520000000    4,439322278e-02   -1,029138491e-01    4,428907931e-01    5,191618204e-01    0,000000000e+00    0,000000000e+00    0,000000000e+00    0,000000000e+00
      534000000   -1,290516369e-02   -1,442587972e-01    6,493132114e-01    2,053734064e-01    0,000000000e+00    0,000000000e+00    0,000000000e+00    0,000000000e+00
      548000000   -8,187381923e-02   -1,398062259e-01    6,597180963e-01   -1,761573851e-01    0,000000000e+00    0,000000000e+00    0,000000000e+00    0,000000000e+00
      562000000   -1,309062988e-01   -9,792923927e-02    4,512128830e-01   -5,076336861e-01    0,000000000e+00    0,000000000e+00    0,000000000e+00    0,000000000e+00
      576000000   -1,491493583e-01   -3,866119683e-02    8,178736269e-02   -6,601408720e-01    0,000000000e+00    0,000000000e+00    0,000000000e+00    0,000000000e+00
      590000000   -1,300597638e-01    2,901296690e-02   -2,943018079e-01   -5,646073818e-01    0,000000000e+00    0,000000000e+00    0,000000000e+00    0,000000000e+00
      604000000   -3,930878267e-02    6,822969764e-02   -4,892939031e-01   -2,705641687e-01    0,000000000e+00    0,000000000e+00    0,000000000e+00    0,000000000e+00
      618000000    3,512695804e-02   -2,877193317e-02   -4,937666059e-01   -4,907688126e-02    0,000000000e+00    0,000000000e+00    0,000000000e+00    0,000000000e+00
      632000000   -5,125099793e-02   -9,348565340e-02   -5,240223408e-01    1,768597215e-01    0,000000000e+00    0,000000000e+00    0,000000000e+00    0,000000000e+00
      646000000   -9,942706674e-02   -3,495968878e-02   -3,783149719e-01    4,768944085e-01    0,000000000e+00    0,000000000e+00    0,000000000e+00    0,000000000e+00
      660000000   -6,991250813e-02    9,015365504e-03   -5,129358917e-02    6,238538623e-01    0,000000000e+00    0,000000000e+00    0,000000000e+00    0,000000000e+00
      674000000   -3,049958125e-02    5,712218583e-03    2,978779376e-01    5,535877943e-01    0,000000000e+00    0,000000000e+00    0,000000000e+00    0,000000000e+00
      688000000   -1,540372893e-02   -1,802192815e-02    5,469399691e-01    3,038309813e-01    0,000000000e+00    0,000000000e+00    0,000000000e+00    0,000000000e+00
      702000000   -1,502260938e-02   -3,502283990e-02    6,224104166e-01   -4,192774370e-02    0,000000000e+00    0,000000000e+00    0,000000000e+00    0,000000000e+00
      716000000   -1,053111721e-02   -4,871800169e-02    4,919033349e-01   -3,676293790e-01    0,000000000e+00    0,000000000e+00    0,000000000e+00    0,000000000e+00
      730000000   -7,073631510e-03   -7,412966341e-02    2,121577710e-01   -5,679557323e-01    0,000000000e+00    0,000000000e+00    0,000000000e+00    0,000000000e+00
      744000000   -2,535492741e-02   -1,112783104e-01   -1,236028373e-01   -5,880805254e-01    0,000000000e+00    0,000000000e+00    0,000000000e+00    0,000000000e+00
      758000000   -7,395330071e-02   -1,325211972e-01   -4,192990065e-01   -4,329202175e-01    0,000000000e+00    0,000000000e+00    0,000000000e+00    0,000000000e+00
      772000000   -1,352797002e-01   -1,164859980e-01   -5,937987566e-01   -1,399485171e-01    0,000000000e+00    0,000000000e+00    0,000000000e+00    0,000000000e+00
      786000000   -1,724775136e-01   -5,825040117e-02   -5,810800791e-01    2,098818868e-01    0,000000000e+00    0,000000000e+00    0,000000000e+00    0,000000000e+00
      800000000   -1,593764275e-01    7,074668538e-03   -3,736066818e-01    4,964917600e-01    0,000000000e+00    0,000000000e+00    0,000000000e+00    0,000000000e+00
      814000000   -1,145657673e-01    4,226060212e-02   -4,599327967e-02    6,146296859e-01    0,000000000e+00    0,000000000e+00    0,000000000e+00    0,000000000e+00
      828000000   -6,868452579e-02    4,346771911e-02    2,861156762e-01    5,391882658e-01    0,000000000e+00    0,000000000e+00    0,000000000e+00    0,000000000e+00
      842000000   -3,855637088e-02    2,921658941e-02    5,210996866e-01    3,055541813e-01    0,000000000e+00    0,000000000e+00    0,000000000e+00    0,000000000e+00
      856000000   -1,842419989e-02    1,278674044e-02    5,943586826e-01   -1,444061380e-02    0,000000000e+00    0,000000000e+00    0,000000000e+00    0,000000000e+00
      870000000    2,249950310e-03   -1,143088192e-02    4,867447913e-01   -3,169669807e-01    0,000000000e+00    0,000000000e+00    0,000000000e+00    0,000000000e+00
      884000000    1,254969742e-02   -5,160735548e-02    2,427943796e-01   -5,121399760e-01    0,000000000e+00    0,000000000e+00    0,000000000e+00    0,000000000e+00
      898000000   -3,954460379e-03   -1,010835990e-01   -5,836461112e-02   -5,545353889e-01    0,000000000e+00    0,000000000e+00    0,000000000e+00    0,000000000e+00
      912000000   -6,203214079e-02   -1,315589696e-01   -3,814800382e-01   -4,228756130e-01    0,000000000e+00    0,000000000e+00    0,000000000e+00    0,000000000e+00
      926000000   -1,274347305e-01   -1,194231510e-01   -5,679940581e-01   -1,495548487e-01    0,000000000e+00    0,000000000e+00    0,000000000e+00    0,000000000e+00
      940000000   -1,634567827e-01   -6,397225708e-02   -5,688464046e-01    1,900074929e-01    0,000000000e+00    0,000000000e+00    0,000000000e+00    0,000000000e+00
      954000000   -1,481415778e-01    1,448903233e-03   -3,750807047e-01    4,858600199e-01    0,000000000e+00    0,000000000e+00    0,000000000e+00    0,000000000e+00
      968000000   -9,559850395e-02    2,321865037e-02   -4,833541438e-02    6,170082688e-01    0,000000000e+00    0,000000000e+00    0,000000000e+00    0,000000000e+00
      982000000   -5,751335621e-02    4,167573992e-03    2,826389670e-01    5,545139313e-01    0,000000000e+00    0,000000000e+00    0,000000000e+00    0,000000000e+00
      996000000   -4,482105002e-02   -3,600390255e-02    5,236656666e-01    3,272336721e-01    0,000000000e+00    0,000000000e+00    0,000000000e+00    0,000000000e+00
     1010000000   -6,011379883e-02   -6,828110665e-02    6,075593233e-01    1,595411263e-02    0,000000000e+00    0,000000000e+00    0,000000000e+00    0,000000000e+00
     1024000000   -9,821154177e-02   -7,748309523e-02    5,138871074e-01   -2,818171084e-01    0,000000000e+00    0,000000000e+00    0,000000000e+00    0,000000000e+00
     1038000000   -1,413776726e-01   -5,981040746e-02    2,968607545e-01   -4,694979191e-01    0,000000000e+00    0,000000000e+00    0,000000000e+00    0,000000000e+00
     1052000000   -1,489277929e-01   -4,073248245e-03    3,441422433e-02   -5,246096849e-01    0,000000000e+00    0,000000000e+00    0,000000000e+00    0,000000000e+00
     1066000000   -1,017994657e-01    3,969903290e-02   -2,102898955e-01   -4,673589170e-01    0,000000000e+00    0,000000000e+00    0,000000000e+00    0,000000000e+00
     1080000000   -4,961158335e-02    2,745914459e-02   -4,177299738e-01   -2,990941107e-01    0,000000000e+00    0,000000000e+00    0,000000000e+00    0,000000000e+00
     1094000000   -3,470244631e-02   -8,160125464e-03   -5,203469396e-01   -2,419386804e-02    0,000000000e+00    0,000000000e+00    0,000000000e+00    0,000000000e+00
     1108000000   -3,055116720e-02   -3,353876248e-02   -4,419794083e-01    2,858397961e-01    0,000000000e+00    0,000000000e+00    0,000000000e+00    0,000000000e+00
     1122000000   -3,334615752e-02   -5,744202808e-02   -1,853874773e-01    4,943073392e-01    0,000000000e+00    0,000000000e+00    0,000000000e+00    0,000000000e+00
     1136000000   -4,500416666e-02   -9,696386009e-02    1,523316652e-01    5,199956298e-01    0,000000000e+00    0,000000000e+00    0,000000000e+00    0,000000000e+00
     1150000000   -8,187527955e-02   -1,265673339e-01    4,537766576e-01    3,420630693e-01    0,000000000e+00    0,000000000e+00    0,000000000e+00    0,000000000e+00
     1164000000   -1,376362294e-01   -1,240740046e-01    6,112708449e-01    8,661891334e-03    0,000000000e+00    0,000000000e+00    0,000000000e+00    0,000000000e+00
     1178000000   -1,745360196e-01   -8,828239888e-02    5,404675007e-01   -3,710035682e-01    0,000000000e+00    0,000000000e+00    0,000000000e+00    0,000000000e+00
     1192000000   -1,777613610e-01   -5,337157473e-02    2,424476147e-01   -6,395241022e-01    0,000000000e+00    0,000000000e+00    0,000000000e+00    0,000000000e+00
     1206000000   -1,889051199e-01   -4,987407848e-02   -1,406433284e-01   -6,587754488e-01    0,000000000e+00    0,000000000e+00    0,000000000e+00    0,000000000e+00
     1220000000   -2,513428628e-01   -1,822156645e-02   -4,197429121e-01   -4,844824672e-01    0,000000000e+00    0,000000000e+00    0,000000000e+00    0,000000000e+00
     1234000000   -2,374458611e-01    1,170347333e-01   -5,538530946e-01   -2,493342757e-01    0,000000000e+00    0,000000000e+00    0,000000000e+00    0,000000000e+00
     1248000000   -1,177975982e-01    1,728139520e-01   -6,053313613e-01    1,898530684e-02    0,000000000e+00    0,000000000e+00    0,000000000e+00    0,000000000e+00
     1262000000   -3,035205882e-03    1,343291998e-01   -5,076869726e-01    2,994765341e-01    0,000000000e+00    0,000000000e+00    0,000000000e+00    0,000000000e+00
     1276000000    6,403559446e-02    4,153308645e-02   -2,721116245e-01    4,853961170e-01    0,000000000e+00    0,000000000e+00    0,000000000e+00    0,000000000e+00
     1290000000    7,494653016e-02   -6,878556311e-02    1,073089056e-02    5,525453687e-01    0,000000000e+00    0,000000000e+00    0,000000000e+00    0,000000000e+00
     1304000000    1,707835682e-02   -1,824656725e-01    2,986805439e-01    4,722997248e-01    0,000000000e+00    0,000000000e+00    0,000000000e+00    0,000000000e+00
     1318000000   -9,050920606e-02   -2,494978756e-01    5,314162374e-01    2,775324881e-01    0,000000000e+00    0,000000000e+00    0,000000000e+00    0,000000000e+00
     1332000000   -2,431294322e-01   -2,456275225e-01    6,487875581e-01   -5,417218804e-02    0,000000000e+00    0,000000000e+00    0,000000000e+00    0,000000000e+00
     1346000000   -3,644975722e-01   -1,424728930e-01    5,529436469e-01   -4,085750282e-01    0,000000000e+00    0,000000000e+00    0,000000000e+00    0,000000000e+00
     1360000000   -3,945128322e-01    6,327204406e-03    2,470745295e-01   -6,374527216e-01    0,000000000e+00    0,000000000e+00    0,000000000e+00    0,000000000e+00
     1374000000   -3,252280951e-01    1,208669990e-01   -1,084797084e-01   -6,204146743e-01    0,000000000e+00    0,000000000e+00    0,000000000e+00    0,000000000e+00
     1388000000   -2,343422920e-01    1,688384265e-01   -3,732427061e-01   -4,187031686e-01    0,000000000e+00    0,000000000e+00    0,000000000e+00    0,000000000e+00
     1402000000   -1,540903747e-01    1,747187823e-01   -4,696742892e-01   -1,057776362e-01    0,000000000e+00    0,000000000e+00    0,000000000e+00    0,000000000e+00
     1416000000   -8,710184693e-02    1,400522292e-01   -4,009670317e-01    1,985867471e-01    0,000000000e+00    0,000000000e+00    0,000000000e+00    0,000000000e+00
     1430000000   -2,928834222e-02    8,373341709e-02   -1,741625518e-01    4,021219909e-01    0,000000000e+00    0,000000000e+00    0,000000000e+00    0,000000000e+00
     1444000000   -1,093460713e-02    6,611840799e-03    1,314481646e-01    5,258895159e-01    0,000000000e+00    0,000000000e+00    0,000000000e+00    0,000000000e+00
     1458000000   -3,760837391e-02   -7,520292699e-02    4,377804697e-01    5,099282265e-01    0,000000000e+00    0,000000000e+00    0,000000000e+00    0,000000000e+00
     1472000000   -1,253162473e-01   -1,464745402e-01    7,249131799e-01    3,096932173e-01    0,000000000e+00    0,000000000e+00    0,000000000e+00    0,000000000e+00
     1486000000   -2,290997207e-01   -1,435053498e-01    9,045233727e-01   -3,468853235e-02    0,000000000e+00    0,000000000e+00    0,000000000e+00    0,000000000e+00
     1500000000   -3,053283095e-01   -5,444535613e-02    8,568149209e-01   -4,064473212e-01    0,000000000e+00    0,000000000e+00    0,000000000e+00    0,000000000e+00
