! NanoVNA-App
! Date: 2025-09-25 14:57:32
! Start: 100MHz Stop: 1,5GHz Points: 101
! S-Parameter data: F S11 S21 S12 S22
# Hz S RI R 50
!     Frequency           S11_Real           S11_Imag           S21_Real           S21_Imag           S12_Real           S12_Imag           S22_Real           S22_Imag
      100000000    3,558981791e-02    2,734674700e-02    4,407014251e-01   -6,694989800e-01    0,000000000e+00    0,000000000e+00    0,000000000e+00    0,000000000e+00
      114000000    6,071861088e-02    2,178219613e-03    1,269689947e-02   -7,954198122e-01    0,000000000e+00    0,000000000e+00    0,000000000e+00    0,000000000e+00
      128000000    6,833641976e-02   -4,223263636e-02   -4,081657827e-01   -6,780140996e-01    0,000000000e+00    0,000000000e+00    0,000000000e+00    0,000000000e+00
      142000000    4,349970073e-02   -8,880196512e-02   -7,048853636e-01   -3,607606292e-01    0,000000000e+00    0,000000000e+00    0,000000000e+00    0,000000000e+00
      156000000   -8,884553798e-03   -1,099810079e-01   -7,938633561e-01    6,763037294e-02    0,000000000e+00    0,000000000e+00    0,000000000e+00    0,000000000e+00
      170000000   -6,257470697e-02   -9,177245945e-02   -6,370270252e-01    4,864194393e-01    0,000000000e+00    0,000000000e+00    0,000000000e+00    0,000000000e+00
      184000000   -8,863012493e-02   -4,770726338e-02   -2,730256021e-01    7,559853792e-01    0,000000000e+00    0,000000000e+00    0,000000000e+00    0,000000000e+00
      198000000   -8,274505287e-02   -6,433135364e-03    1,794371009e-01    7,822045684e-01    0,000000000e+00    0,000000000e+00    0,000000000e+00    0,000000000e+00
      212000000   -6,270427257e-02    1,806212217e-02    5,708937049e-01    5,583210588e-01    0,000000000e+00    0,000000000e+00    0,000000000e+00    0,000000000e+00
      226000000   -4,142672196e-02    3,193829954e-02    7,766146064e-01    1,618601233e-01    0,000000000e+00    0,000000000e+00    0,000000000e+00    0,000000000e+00
      240000000   -1,479716878e-02    4,129492119e-02    7,359098792e-01   -2,785713077e-01    0,000000000e+00    0,000000000e+00    0,000000000e+00    0,000000000e+00
      254000000    2,146734297e-02    3,626264632e-02    4,681189954e-01   -6,221153140e-01    0,000000000e+00    0,000000000e+00    0,000000000e+00    0,000000000e+00
      268000000    5,336152762e-02    4,621850327e-03    6,691701710e-02   -7,673545480e-01    0,000000000e+00    0,000000000e+00    0,000000000e+00    0,000000000e+00
      282000000    5,748995021e-02   -4,498214647e-02   -3,455800414e-01   -6,821539402e-01    0,000000000e+00    0,000000000e+00    0,000000000e+00    0,000000000e+00
      296000000    2,601665258e-02   -8,480255306e-02   -6,550357938e-01   -3,977821767e-01    0,000000000e+00    0,000000000e+00    0,000000000e+00    0,000000000e+00
      310000000   -1,899107173e-02   -8,946765959e-02   -7,737842202e-01    9,649604559e-03    0,000000000e+00    0,000000000e+00    0,000000000e+00    0,000000000e+00
      324000000   -4,668916389e-02   -6,353465468e-02   -6,481127739e-01    4,287233949e-01    0,000000000e+00    0,000000000e+00    0,000000000e+00    0,000000000e+00
      338000000   -4,168476909e-02   -3,775481507e-02   -3,101317883e-01    7,073991895e-01    0,000000000e+00    0,000000000e+00    0,000000000e+00    0,000000000e+00
      352000000   -2,367645688e-02   -3,783605248e-02    1,190433502e-01    7,578926682e-01    0,000000000e+00    0,000000000e+00    0,000000000e+00    0,000000000e+00
      366000000   -2,298601530e-02   -5,581943691e-02    5,029765964e-01    5,722897053e-01    0,000000000e+00    0,000000000e+00    0,000000000e+00    0,000000000e+00
      380000000   -4,451820999e-02   -6,517633051e-02    7,261518836e-01    2,116306126e-01    0,000000000e+00    0,000000000e+00    0,000000000e+00    0,000000000e+00
      394000000   -6,622260064e-02   -5,038038269e-02    7,227042317e-01   -2,125647068e-01    0,000000000e+00    0,000000000e+00    0,000000000e+00    0,000000000e+00
      408000000   -6,733264029e-02   -2,626299486e-02    4,889482260e-01   -5,674902797e-01    0,000000000e+00    0,000000000e+00    0,000000000e+00    0,000000000e+00
      422000000   -5,299941078e-02   -1,544895582e-02    1,058770195e-01   -7,385097742e-01    0,000000000e+00    0,000000000e+00    0,000000000e+00    0,000000000e+00
      436000000   -4,605197906e-02   -1,892146654e-02   -3,054361641e-01   -6,758235693e-01    0,000000000e+00    0,000000000e+00    0,000000000e+00    0,000000000e+00
      450000000   -5,252799764e-02   -1,525880489e-02   -6,185218692e-01   -3,999081850e-01    0,000000000e+00    0,000000000e+00    0,000000000e+00    0,000000000e+00
      464000000   -5,073235184e-02    5,127232056e-03   -7,299138308e-01    3,231565934e-03    0,000000000e+00    0,000000000e+00    0,000000000e+00    0,000000000e+00
      478000000   -2,051009610e-02    2,626261488e-02   -5,989442468e-01    3,966096342e-01    0,000000000e+00    0,000000000e+00    0,000000000e+00    0,000000000e+00
      492000000    2,752462775e-02    1,488286909e-02   -2,809469700e-01    6,435388327e-01    0,000000000e+00    0,000000000e+00    0,000000000e+00    0,000000000e+00
      506000000    5,788750947e-02   -3,633164614e-02    1,044451296e-01    6,800387502e-01    0,000000000e+00    0,000000000e+00    0,000000000e+00    0,000000000e+00
      520000000    4,294065386e-02   -1,017598212e-01    4,412500262e-01    5,169007182e-01    0,000000000e+00    0,000000000e+00    0,000000000e+00    0,000000000e+00
      534000000   -1,217838190e-02   -1,418863833e-01    6,492176056e-01    2,078534663e-01    0,000000000e+00    0,000000000e+00    0,000000000e+00    0,000000000e+00
      548000000   -7,883119583e-02   -1,377270669e-01    6,614997387e-01   -1,734872311e-01    0,000000000e+00    0,000000000e+00    0,000000000e+00    0,000000000e+00
      562000000   -1,256809384e-01   -9,830809385e-02    4,551551640e-01   -5,067209601e-01    0,000000000e+00    0,000000000e+00    0,000000000e+00    0,000000000e+00
      576000000   -1,437420398e-01   -4,619908333e-02    9,056333452e-02   -6,670060158e-01    0,000000000e+00    0,000000000e+00    0,000000000e+00    0,000000000e+00
      590000000   -1,349193603e-01    1,217906177e-02   -2,964526117e-01   -5,821619034e-01    0,000000000e+00    0,000000000e+00    0,000000000e+00    0,000000000e+00
      604000000   -7,330615819e-02    6,743207574e-02   -5,277643800e-01   -2,805573344e-01    0,000000000e+00    0,000000000e+00    0,000000000e+00    0,000000000e+00
      618000000    3,718583658e-02    2,588905208e-02   -5,021267533e-01    1,547119953e-02    0,000000000e+00    0,000000000e+00    0,000000000e+00    0,000000000e+00
      632000000   -9,304812411e-04   -1,041527465e-01   -4,643430412e-01    1,715503931e-01    0,000000000e+00    0,000000000e+00    0,000000000e+00    0,000000000e+00
      646000000   -1,028714105e-01   -6,775846332e-02   -3,795819879e-01    4,394304752e-01    0,000000000e+00    0,000000000e+00    0,000000000e+00    0,000000000e+00
      660000000   -8,795187622e-02    3,279109951e-03   -7,150144130e-02    6,170377135e-01    0,000000000e+00    0,000000000e+00    0,000000000e+00    0,000000000e+00
      674000000   -4,082200676e-02    1,175594889e-02    2,869857252e-01    5,590293407e-01    0,000000000e+00    0,000000000e+00    0,000000000e+00    0,000000000e+00
      688000000   -1,695602387e-02   -8,456783369e-03    5,435641408e-01    3,114131093e-01    0,000000000e+00    0,000000000e+00    0,000000000e+00    0,000000000e+00
      702000000   -9,584721178e-03   -2,875806019e-02    6,202569008e-01   -3,364884481e-02    0,000000000e+00    0,000000000e+00    0,000000000e+00    0,000000000e+00
      716000000   -4,965764936e-03   -4,785510525e-02    4,959196150e-01   -3,641575575e-01    0,000000000e+00    0,000000000e+00    0,000000000e+00    0,000000000e+00
      730000000   -3,602050943e-03   -7,734975219e-02    2,167878896e-01   -5,681470037e-01    0,000000000e+00    0,000000000e+00    0,000000000e+00    0,000000000e+00
      744000000   -2,396193892e-02   -1,152829006e-01   -1,197157577e-01   -5,907739401e-01    0,000000000e+00    0,000000000e+00    0,000000000e+00    0,000000000e+00
      758000000   -7,690012455e-02   -1,365396380e-01   -4,179674685e-01   -4,377810359e-01    0,000000000e+00    0,000000000e+00    0,000000000e+00    0,000000000e+00
      772000000   -1,395909190e-01   -1,174197569e-01   -5,972155929e-01   -1,433001757e-01    0,000000000e+00    0,000000000e+00    0,000000000e+00    0,000000000e+00
      786000000   -1,748185009e-01   -5,603374541e-02   -5,855508447e-01    2,092606276e-01    0,000000000e+00    0,000000000e+00    0,000000000e+00    0,000000000e+00
      800000000   -1,609509587e-01    1,082905196e-02   -3,755507767e-01    4,979683757e-01    0,000000000e+00    0,000000000e+00    0,000000000e+00    0,000000000e+00
      814000000   -1,127277538e-01    4,613356292e-02   -4,591136426e-02    6,186382771e-01    0,000000000e+00    0,000000000e+00    0,000000000e+00    0,000000000e+00
      828000000   -6,530310214e-02    4,421192780e-02    2,873052061e-01    5,427203178e-01    0,000000000e+00    0,000000000e+00    0,000000000e+00    0,000000000e+00
      842000000   -3,618082404e-02    2,700397372e-02    5,235403180e-01    3,066191077e-01    0,000000000e+00    0,000000000e+00    0,000000000e+00    0,000000000e+00
      856000000   -1,844722033e-02    8,631605655e-03    5,971285701e-01   -1,439271215e-02    0,000000000e+00    0,000000000e+00    0,000000000e+00    0,000000000e+00
      870000000   -1,481892075e-03   -1,413529273e-02    4,882338047e-01   -3,195747435e-01    0,000000000e+00    0,000000000e+00    0,000000000e+00    0,000000000e+00
      884000000    8,861286566e-03   -5,154847726e-02    2,426886559e-01   -5,151398182e-01    0,000000000e+00    0,000000000e+00    0,000000000e+00    0,000000000e+00
      898000000   -6,952324416e-03   -9,822084755e-02   -6,066209078e-02   -5,553165078e-01    0,000000000e+00    0,000000000e+00    0,000000000e+00    0,000000000e+00
      912000000   -6,215884537e-02   -1,278235465e-01   -3,997157216e-01   -4,140596986e-01    0,000000000e+00    0,000000000e+00    0,000000000e+00    0,000000000e+00
      926000000   -1,219365597e-01   -1,159616038e-01   -5,654592514e-01   -1,447273344e-01    0,000000000e+00    0,000000000e+00    0,000000000e+00    0,000000000e+00
      940000000   -1,576595902e-01   -6,180834025e-02   -5,673753023e-01    1,948591918e-01    0,000000000e+00    0,000000000e+00    0,000000000e+00    0,000000000e+00
      954000000   -1,475629956e-01   -3,144166665e-03   -3,731515110e-01    4,845128357e-01    0,000000000e+00    0,000000000e+00    0,000000000e+00    0,000000000e+00
      968000000   -9,662701190e-02    1,888749190e-02   -5,269958079e-02    6,144151688e-01    0,000000000e+00    0,000000000e+00    0,000000000e+00    0,000000000e+00
      982000000   -5,791016668e-02    4,894779995e-03    2,828459144e-01    5,531129837e-01    0,000000000e+00    0,000000000e+00    0,000000000e+00    0,000000000e+00
      996000000   -4,975732416e-02   -2,825811692e-02    5,262532830e-01    3,280663490e-01    0,000000000e+00    0,000000000e+00    0,000000000e+00    0,000000000e+00
     1010000000   -6,590516120e-02   -5,860025808e-02    6,101574898e-01    1,494279876e-02    0,000000000e+00    0,000000000e+00    0,000000000e+00    0,000000000e+00
     1024000000   -9,331079572e-02   -7,026176900e-02    5,154495239e-01   -2,852461636e-01    0,000000000e+00    0,000000000e+00    0,000000000e+00    0,000000000e+00
     1038000000   -1,327870637e-01   -5,862644687e-02    2,962799966e-01   -4,728713632e-01    0,000000000e+00    0,000000000e+00    0,000000000e+00    0,000000000e+00
     1052000000   -1,451310813e-01   -1,434396673e-02    3,067992255e-02   -5,292369127e-01    0,000000000e+00    0,000000000e+00    0,000000000e+00    0,000000000e+00
     1066000000   -1,089813039e-01    2,745926566e-02   -2,179570794e-01   -4,652304053e-01    0,000000000e+00    0,000000000e+00    0,000000000e+00    0,000000000e+00
     1080000000   -6,256721914e-02    3,063263372e-02   -4,221256971e-01   -2,890290022e-01    0,000000000e+00    0,000000000e+00    0,000000000e+00    0,000000000e+00
     1094000000   -3,667920828e-02   -9,600411868e-04   -5,121615529e-01   -1,484103035e-02    0,000000000e+00    0,000000000e+00    0,000000000e+00    0,000000000e+00
     1108000000   -2,724828571e-02   -2,320504561e-02   -4,338988662e-01    2,826045752e-01    0,000000000e+00    0,000000000e+00    0,000000000e+00    0,000000000e+00
     1122000000   -2,728285082e-02   -5,739260837e-02   -1,798097640e-01    4,883713126e-01    0,000000000e+00    0,000000000e+00    0,000000000e+00    0,000000000e+00
     1136000000   -3,637614101e-02   -9,421840310e-02    1,454772204e-01    5,136943460e-01    0,000000000e+00    0,000000000e+00    0,000000000e+00    0,000000000e+00
     1150000000   -8,381216973e-02   -1,259358525e-01    4,458126426e-01    3,411484063e-01    0,000000000e+00    0,000000000e+00    0,000000000e+00    0,000000000e+00
     1164000000   -1,399001330e-01   -1,270646900e-01    6,065208316e-01    1,418442838e-02    0,000000000e+00    0,000000000e+00    0,000000000e+00    0,000000000e+00
     1178000000   -1,780990809e-01   -8,870413899e-02    5,326395631e-01   -3,632447124e-01    0,000000000e+00    0,000000000e+00    0,000000000e+00    0,000000000e+00
     1192000000   -1,861889660e-01   -5,681230128e-02    2,420469373e-01   -6,319407821e-01    0,000000000e+00    0,000000000e+00    0,000000000e+00    0,000000000e+00
     1206000000   -1,920458972e-01   -4,820822552e-02   -1,334274709e-01   -6,567009687e-01    0,000000000e+00    0,000000000e+00    0,000000000e+00    0,000000000e+00
     1220000000   -2,489230931e-01   -1,659652963e-02   -4,198255241e-01   -4,908444285e-01    0,000000000e+00    0,000000000e+00    0,000000000e+00    0,000000000e+00
     1234000000   -2,383446544e-01    1,126513630e-01   -5,594307780e-01   -2,477907836e-01    0,000000000e+00    0,000000000e+00    0,000000000e+00    0,000000000e+00
     1248000000   -1,144911125e-01    1,763654947e-01   -6,016629934e-01    2,163086832e-02    0,000000000e+00    0,000000000e+00    0,000000000e+00    0,000000000e+00
     1262000000   -8,999225684e-04    1,280674934e-01   -5,051202774e-01    2,962812483e-01    0,000000000e+00    0,000000000e+00    0,000000000e+00    0,000000000e+00
     1276000000    6,266871840e-02    4,306555539e-02   -2,791924775e-01    4,858341813e-01    0,000000000e+00    0,000000000e+00    0,000000000e+00    0,000000000e+00
     1290000000    7,011854649e-02   -7,364118099e-02    5,348902196e-03    5,407377481e-01    0,000000000e+00    0,000000000e+00    0,000000000e+00    0,000000000e+00
     1304000000    1,844709180e-02   -1,804747581e-01    2,915409207e-01    4,748229086e-01    0,000000000e+00    0,000000000e+00    0,000000000e+00    0,000000000e+00
     1318000000   -9,332896769e-02   -2,529571056e-01    5,387867093e-01    2,725205719e-01    0,000000000e+00    0,000000000e+00    0,000000000e+00    0,000000000e+00
     1332000000   -2,402748764e-01   -2,474388033e-01    6,547499895e-01   -5,876493081e-02    0,000000000e+00    0,000000000e+00    0,000000000e+00    0,000000000e+00
     1346000000   -3,649333119e-01   -1,412557364e-01    5,488606691e-01   -4,043057263e-01    0,000000000e+00    0,000000000e+00    0,000000000e+00    0,000000000e+00
     1360000000   -3,894623518e-01    3,445527051e-03    2,518987358e-01   -6,392747164e-01    0,000000000e+00    0,000000000e+00    0,000000000e+00    0,000000000e+00
     1374000000   -3,231631815e-01    1,226677448e-01   -1,022299379e-01   -6,267440915e-01    0,000000000e+00    0,000000000e+00    0,000000000e+00    0,000000000e+00
     1388000000   -2,410008460e-01    1,690824628e-01   -3,801926076e-01   -4,196852148e-01    0,000000000e+00    0,000000000e+00    0,000000000e+00    0,000000000e+00
     1402000000   -1,525154114e-01    1,723697335e-01   -4,820919931e-01   -1,089666188e-01    0,000000000e+00    0,000000000e+00    0,000000000e+00    0,000000000e+00
     1416000000   -8,444452286e-02    1,462124735e-01   -3,951660395e-01    2,085308135e-01    0,000000000e+00    0,000000000e+00    0,000000000e+00    0,000000000e+00
     1430000000   -3,191074729e-02    8,960098773e-02   -1,911464334e-01    4,219346941e-01    0,000000000e+00    0,000000000e+00    0,000000000e+00    0,000000000e+00
     1444000000   -9,457103908e-03    7,308760192e-03    1,247532442e-01    5,267708898e-01    0,000000000e+00    0,000000000e+00    0,000000000e+00    0,000000000e+00
     1458000000   -3,487650305e-02   -7,949528098e-02    4,444368780e-01    5,043749213e-01    0,000000000e+00    0,000000000e+00    0,000000000e+00    0,000000000e+00
     1472000000   -1,209021136e-01   -1,495445371e-01    7,290752530e-01    2,974922061e-01    0,000000000e+00    0,000000000e+00    0,000000000e+00    0,000000000e+00
     1486000000   -2,298896313e-01   -1,455602497e-01    9,111120701e-01   -4,186350852e-02    0,000000000e+00    0,000000000e+00    0,000000000e+00    0,000000000e+00
     1500000000   -3,081851304e-01   -6,727600843e-02    8,287263513e-01   -4,353651106e-01    0,000000000e+00    0,000000000e+00    0,000000000e+00    0,000000000e+00
