! NanoVNA-App
! Date: 2025-09-25 14:59:55
! Start: 100MHz Stop: 1,5GHz Points: 101
! S-Parameter data: F S11 S21 S12 S22
# Hz S RI R 50
!     Frequency           S11_Real           S11_Imag           S21_Real           S21_Imag           S12_Real           S12_Imag           S22_Real           S22_Imag
      100000000    3,558361158e-02    2,735510468e-02    4,407864809e-01   -6,695670485e-01    0,000000000e+00    0,000000000e+00    0,000000000e+00    0,000000000e+00
      114000000    6,072947010e-02    2,190064639e-03    1,280647609e-02   -7,954786420e-01    0,000000000e+00    0,000000000e+00    0,000000000e+00    0,000000000e+00
      128000000    6,836304814e-02   -4,224313423e-02   -4,082729518e-01   -6,781405807e-01    0,000000000e+00    0,000000000e+00    0,000000000e+00    0,000000000e+00
      142000000    4,345831648e-02   -8,876018226e-02   -7,054416537e-01   -3,609913588e-01    0,000000000e+00    0,000000000e+00    0,000000000e+00    0,000000000e+00
      156000000   -9,281151928e-03   -1,103286445e-01   -7,933474779e-01    6,821735203e-02    0,000000000e+00    0,000000000e+00    0,000000000e+00    0,000000000e+00
      170000000   -6,266110390e-02   -9,173294902e-02   -6,370935440e-01    4,864803255e-01    0,000000000e+00    0,000000000e+00    0,000000000e+00    0,000000000e+00
      184000000   -8,857475221e-02   -4,766862839e-02   -2,730909884e-01    7,559424043e-01    0,000000000e+00    0,000000000e+00    0,000000000e+00    0,000000000e+00
      198000000   -8,276646584e-02   -6,429980043e-03    1,794489622e-01    7,820481658e-01    0,000000000e+00    0,000000000e+00    0,000000000e+00    0,000000000e+00
      212000000   -6,274233013e-02    1,802041382e-02    5,704547763e-01    5,583602190e-01    0,000000000e+00    0,000000000e+00    0,000000000e+00    0,000000000e+00
      226000000   -4,145647213e-02    3,183948994e-02    7,768741250e-01    1,618880481e-01    0,000000000e+00    0,000000000e+00    0,000000000e+00    0,000000000e+00
      240000000   -1,490796730e-02    4,130330309e-02    7,361646891e-01   -2,786158621e-01    0,000000000e+00    0,000000000e+00    0,000000000e+00    0,000000000e+00
      254000000    2,139487676e-02    3,631682694e-02    4,681268930e-01   -6,218200326e-01    0,000000000e+00    0,000000000e+00    0,000000000e+00    0,000000000e+00
      268000000    5,327862129e-02    4,754511174e-03    6,671272963e-02   -7,674436569e-01    0,000000000e+00    0,000000000e+00    0,000000000e+00    0,000000000e+00
      282000000    5,748417601e-02   -4,494247958e-02   -3,455508947e-01   -6,826232076e-01    0,000000000e+00    0,000000000e+00    0,000000000e+00    0,000000000e+00
      296000000    2,611990273e-02   -8,476110548e-02   -6,550332308e-01   -3,975748718e-01    0,000000000e+00    0,000000000e+00    0,000000000e+00    0,000000000e+00
      310000000   -1,889172196e-02   -8,941636980e-02   -7,731404305e-01    1,012397837e-02    0,000000000e+00    0,000000000e+00    0,000000000e+00    0,000000000e+00
      324000000   -4,637819529e-02   -6,353234500e-02   -6,478246450e-01    4,300342202e-01    0,000000000e+00    0,000000000e+00    0,000000000e+00    0,000000000e+00
      338000000   -4,108842835e-02   -3,795994073e-02   -3,128724992e-01    7,110178471e-01    0,000000000e+00    0,000000000e+00    0,000000000e+00    0,000000000e+00
      352000000   -2,348251082e-02   -3,777739778e-02    1,200851500e-01    7,574301958e-01    0,000000000e+00    0,000000000e+00    0,000000000e+00    0,000000000e+00
      366000000   -2,303202450e-02   -5,624933168e-02    5,033175349e-01    5,713491440e-01    0,000000000e+00    0,000000000e+00    0,000000000e+00    0,000000000e+00
      380000000   -4,485887662e-02   -6,535656750e-02    7,264770269e-01    2,112460583e-01    0,000000000e+00    0,000000000e+00    0,000000000e+00    0,000000000e+00
      394000000   -6,645351648e-02   -5,054740235e-02    7,228473425e-01   -2,131808996e-01    0,000000000e+00    0,000000000e+00    0,000000000e+00    0,000000000e+00
      408000000   -6,768082827e-02   -2,633977309e-02    4,896642268e-01   -5,694157481e-01    0,000000000e+00    0,000000000e+00    0,000000000e+00    0,000000000e+00
      422000000   -5,330975726e-02   -1,550089754e-02    1,061633453e-01   -7,386633158e-01    0,000000000e+00    0,000000000e+00    0,000000000e+00    0,000000000e+00
      436000000   -4,623501748e-02   -1,862165518e-02   -3,055522740e-01   -6,763949394e-01    0,000000000e+00    0,000000000e+00    0,000000000e+00    0,000000000e+00
      450000000   -5,183536187e-02   -1,478283294e-02   -6,183461547e-01   -3,999149501e-01    0,000000000e+00    0,000000000e+00    0,000000000e+00    0,000000000e+00
      464000000   -5,055303127e-02    5,635772832e-03   -7,298546433e-01    3,412247170e-03    0,000000000e+00    0,000000000e+00    0,000000000e+00    0,000000000e+00
      478000000   -2,027425356e-02    2,626727521e-02   -5,986534953e-01    3,971573710e-01    0,000000000e+00    0,000000000e+00    0,000000000e+00    0,000000000e+00
      492000000    2,848796174e-02    1,439542882e-02   -2,793699503e-01    6,446275711e-01    0,000000000e+00    0,000000000e+00    0,000000000e+00    0,000000000e+00
      506000000    5,883917212e-02   -3,712173924e-02    1,051732525e-01    6,799905300e-01    0,000000000e+00    0,000000000e+00    0,000000000e+00    0,000000000e+00
      520000000    4,474255443e-02   -1,017167270e-01    4,416844547e-01    5,200121999e-01    0,000000000e+00    0,000000000e+00    0,000000000e+00    0,000000000e+00
      534000000   -1,287189592e-02   -1,443361938e-01    6,496639252e-01    2,057932764e-01    0,000000000e+00    0,000000000e+00    0,000000000e+00    0,000000000e+00
      548000000   -8,155237883e-02   -1,398773491e-01    6,600122452e-01   -1,762076616e-01    0,000000000e+00    0,000000000e+00    0,000000000e+00    0,000000000e+00
      562000000   -1,308559775e-01   -9,794819355e-02    4,514284730e-01   -5,087150931e-01    0,000000000e+00    0,000000000e+00    0,000000000e+00    0,000000000e+00
      576000000   -1,494774669e-01   -3,849520162e-02    8,256804198e-02   -6,601722836e-01    0,000000000e+00    0,000000000e+00    0,000000000e+00    0,000000000e+00
      590000000   -1,300530136e-01    2,879061364e-02   -2,941843569e-01   -5,647988915e-01    0,000000000e+00    0,000000000e+00    0,000000000e+00    0,000000000e+00
      604000000   -3,924780339e-02    6,863465905e-02   -4,892189801e-01   -2,695709765e-01    0,000000000e+00    0,000000000e+00    0,000000000e+00    0,000000000e+00
      618000000    3,472849727e-02   -2,890969440e-02   -4,938647151e-01   -4,918332770e-02    0,000000000e+00    0,000000000e+00    0,000000000e+00    0,000000000e+00
      632000000   -5,151591450e-02   -9,346358478e-02   -5,242010355e-01    1,769067347e-01    0,000000000e+00    0,000000000e+00    0,000000000e+00    0,000000000e+00
      646000000   -9,962564707e-02   -3,494645655e-02   -3,789542317e-01    4,768119156e-01    0,000000000e+00    0,000000000e+00    0,000000000e+00    0,000000000e+00
      660000000   -6,891142577e-02    9,434005246e-03   -5,029714480e-02    6,255922318e-01    0,000000000e+00    0,000000000e+00    0,000000000e+00    0,000000000e+00
      674000000   -3,003767319e-02    5,437604617e-03    2,984683812e-01    5,533595681e-01    0,000000000e+00    0,000000000e+00    0,000000000e+00    0,000000000e+00
      688000000   -1,556071173e-02   -1,700475439e-02    5,474583507e-01    3,037570119e-01    0,000000000e+00    0,000000000e+00    0,000000000e+00    0,000000000e+00
      702000000   -1,407202892e-02   -3,412209824e-02    6,184163690e-01   -4,382067919e-02    0,000000000e+00    0,000000000e+00    0,000000000e+00    0,000000000e+00
      716000000   -1,054936741e-02   -4,862189293e-02    4,918591380e-01   -3,679360449e-01    0,000000000e+00    0,000000000e+00    0,000000000e+00    0,000000000e+00
      730000000   -7,692951709e-03   -7,488493621e-02    2,113142312e-01   -5,668881536e-01    0,000000000e+00    0,000000000e+00    0,000000000e+00    0,000000000e+00
      744000000   -2,604877576e-02   -1,111638546e-01   -1,234105825e-01   -5,875629187e-01    0,000000000e+00    0,000000000e+00    0,000000000e+00    0,000000000e+00
      758000000   -7,424250245e-02   -1,334246844e-01   -4,198321402e-01   -4,319672883e-01    0,000000000e+00    0,000000000e+00    0,000000000e+00    0,000000000e+00
      772000000   -1,361002326e-01   -1,160886511e-01   -5,940113664e-01   -1,403076202e-01    0,000000000e+00    0,000000000e+00    0,000000000e+00    0,000000000e+00
      786000000   -1,716029793e-01   -5,782859400e-02   -5,817245841e-01    2,098286748e-01    0,000000000e+00    0,000000000e+00    0,000000000e+00    0,000000000e+00
      800000000   -1,595381200e-01    6,403366569e-03   -3,731889427e-01    4,954598844e-01    0,000000000e+00    0,000000000e+00    0,000000000e+00    0,000000000e+00
      814000000   -1,151063815e-01    4,283861443e-02   -4,565960541e-02    6,139920354e-01    0,000000000e+00    0,000000000e+00    0,000000000e+00    0,000000000e+00
      828000000   -6,855493039e-02    4,424383491e-02    2,864075005e-01    5,404927731e-01    0,000000000e+00    0,000000000e+00    0,000000000e+00    0,000000000e+00
      842000000   -3,880220279e-02    2,925211191e-02    5,210459828e-01    3,058903217e-01    0,000000000e+00    0,000000000e+00    0,000000000e+00    0,000000000e+00
      856000000   -1,811554283e-02    1,193933655e-02    5,947057605e-01   -1,411020104e-02    0,000000000e+00    0,000000000e+00    0,000000000e+00    0,000000000e+00
      870000000    2,326844726e-03   -1,140831504e-02    4,861116111e-01   -3,170417547e-01    0,000000000e+00    0,000000000e+00    0,000000000e+00    0,000000000e+00
      884000000    1,273161173e-02   -5,157680809e-02    2,415023446e-01   -5,123055577e-01    0,000000000e+00    0,000000000e+00    0,000000000e+00    0,000000000e+00
      898000000   -3,732280107e-03   -1,023418531e-01   -5,764948577e-02   -5,531826615e-01    0,000000000e+00    0,000000000e+00    0,000000000e+00    0,000000000e+00
      912000000   -6,190855801e-02   -1,317502111e-01   -3,979402184e-01   -4,190691411e-01    0,000000000e+00    0,000000000e+00    0,000000000e+00    0,000000000e+00
      926000000   -1,250014156e-01   -1,177524999e-01   -5,657420158e-01   -1,474108100e-01    0,000000000e+00    0,000000000e+00    0,000000000e+00    0,000000000e+00
      940000000   -1,633377969e-01   -6,113057211e-02   -5,685921907e-01    1,929912418e-01    0,000000000e+00    0,000000000e+00    0,000000000e+00    0,000000000e+00
      954000000   -1,452725381e-01   -2,734771697e-03   -3,726446331e-01    4,841893911e-01    0,000000000e+00    0,000000000e+00    0,000000000e+00    0,000000000e+00
      968000000   -9,564744681e-02    2,260291390e-02   -5,246743187e-02    6,133614779e-01    0,000000000e+00    0,000000000e+00    0,000000000e+00    0,000000000e+00
      982000000   -5,442009121e-02    7,449828554e-03    2,816510797e-01    5,517525673e-01    0,000000000e+00    0,000000000e+00    0,000000000e+00    0,000000000e+00
      996000000   -4,169223085e-02   -3,542881086e-02    5,221847296e-01    3,294248581e-01    0,000000000e+00    0,000000000e+00    0,000000000e+00    0,000000000e+00
     1010000000   -6,010561436e-02   -6,468656659e-02    6,087179184e-01    1,502841245e-02    0,000000000e+00    0,000000000e+00    0,000000000e+00    0,000000000e+00
     1024000000   -9,967075288e-02   -7,564451545e-02    5,160190463e-01   -2,818021178e-01    0,000000000e+00    0,000000000e+00    0,000000000e+00    0,000000000e+00
     1038000000   -1,409160048e-01   -5,897307396e-02    2,964679897e-01   -4,716373086e-01    0,000000000e+00    0,000000000e+00    0,000000000e+00    0,000000000e+00
     1052000000   -1,480199546e-01   -1,407395815e-03    3,588790819e-02   -5,244141221e-01    0,000000000e+00    0,000000000e+00    0,000000000e+00    0,000000000e+00
     1066000000   -1,079146415e-01    3,927951306e-02   -2,105147392e-01   -4,667200148e-01    0,000000000e+00    0,000000000e+00    0,000000000e+00    0,000000000e+00
     1080000000   -5,315813422e-02    2,458452433e-02   -4,180372357e-01   -2,985561192e-01    0,000000000e+00    0,000000000e+00    0,000000000e+00    0,000000000e+00
     1094000000   -3,723121807e-02   -4,431576934e-03   -5,221536756e-01   -2,435996197e-02    0,000000000e+00    0,000000000e+00    0,000000000e+00    0,000000000e+00
     1108000000   -2,817981876e-02   -3,184766695e-02   -4,439942539e-01    2,851036489e-01    0,000000000e+00    0,000000000e+00    0,000000000e+00    0,000000000e+00
     1122000000   -3,103114106e-02   -5,429191515e-02   -1,862812638e-01    4,960934222e-01    0,000000000e+00    0,000000000e+00    0,000000000e+00    0,000000000e+00
     1136000000   -4,463118687e-02   -9,131097049e-02    1,535089314e-01    5,215884447e-01    0,000000000e+00    0,000000000e+00    0,000000000e+00    0,000000000e+00
     1150000000   -7,960328460e-02   -1,233851239e-01    4,512247443e-01    3,429602385e-01    0,000000000e+00    0,000000000e+00    0,000000000e+00    0,000000000e+00
     1164000000   -1,392553151e-01   -1,243236065e-01    6,109297276e-01    1,171414834e-02    0,000000000e+00    0,000000000e+00    0,000000000e+00    0,000000000e+00
     1178000000   -1,798999459e-01   -8,355241269e-02    5,399442911e-01   -3,758457303e-01    0,000000000e+00    0,000000000e+00    0,000000000e+00    0,000000000e+00
     1192000000   -1,814385206e-01   -5,843862519e-02    2,384945303e-01   -6,354795098e-01    0,000000000e+00    0,000000000e+00    0,000000000e+00    0,000000000e+00
     1206000000   -1,918825209e-01   -5,554627255e-02   -1,389413178e-01   -6,623877883e-01    0,000000000e+00    0,000000000e+00    0,000000000e+00    0,000000000e+00
     1220000000   -2,491865903e-01   -1,813050359e-02   -4,250540733e-01   -4,842905402e-01    0,000000000e+00    0,000000000e+00    0,000000000e+00    0,000000000e+00
     1234000000   -2,458993644e-01    1,160479933e-01   -5,597053766e-01   -2,494039088e-01    0,000000000e+00    0,000000000e+00    0,000000000e+00    0,000000000e+00
     1248000000   -1,144366413e-01    1,750795394e-01   -6,025555134e-01    1,894176751e-02    0,000000000e+00    0,000000000e+00    0,000000000e+00    0,000000000e+00
     1262000000   -2,647416899e-03    1,340413839e-01   -5,071673393e-01    2,997791171e-01    0,000000000e+00    0,000000000e+00    0,000000000e+00    0,000000000e+00
     1276000000    6,280003488e-02    4,358490929e-02   -2,759480774e-01    4,871871471e-01    0,000000000e+00    0,000000000e+00    0,000000000e+00    0,000000000e+00
     1290000000    6,738299876e-02   -7,273320854e-02    7,298597600e-03    5,488637090e-01    0,000000000e+00    0,000000000e+00    0,000000000e+00    0,000000000e+00
     1304000000    1,596412808e-02   -1,814936846e-01    2,973471284e-01    4,779149592e-01    0,000000000e+00    0,000000000e+00    0,000000000e+00    0,000000000e+00
     1318000000   -9,556495398e-02   -2,563131154e-01    5,390459299e-01    2,697791159e-01    0,000000000e+00    0,000000000e+00    0,000000000e+00    0,000000000e+00
     1332000000   -2,461622655e-01   -2,427516133e-01    6,527131796e-01   -5,233814940e-02    0,000000000e+00    0,000000000e+00    0,000000000e+00    0,000000000e+00
     1346000000   -3,652569950e-01   -1,395092010e-01    5,498832464e-01   -4,078114033e-01    0,000000000e+00    0,000000000e+00    0,000000000e+00    0,000000000e+00
     1360000000   -3,845571876e-01    8,951132186e-03    2,564330697e-01   -6,264812350e-01    0,000000000e+00    0,000000000e+00    0,000000000e+00    0,000000000e+00
     1374000000   -3,255428672e-01    1,162948757e-01   -1,056692526e-01   -6,271390915e-01    0,000000000e+00    0,000000000e+00    0,000000000e+00    0,000000000e+00
     1388000000   -2,372541279e-01    1,712466031e-01   -3,727611899e-01   -4,175868928e-01    0,000000000e+00    0,000000000e+00    0,000000000e+00    0,000000000e+00
     1402000000   -1,558818966e-01    1,654641330e-01   -4,823968410e-01   -1,119493693e-01    0,000000000e+00    0,000000000e+00    0,000000000e+00    0,000000000e+00
     1416000000   -8,272168040e-02    1,467220336e-01   -3,797291815e-01    2,049449384e-01    0,000000000e+00    0,000000000e+00    0,000000000e+00    0,000000000e+00
     1430000000   -3,480942920e-02    8,374240249e-02   -1,915041953e-01    4,119081795e-01    0,000000000e+00    0,000000000e+00    0,000000000e+00    0,000000000e+00
     1444000000   -1,320261322e-02    6,760768592e-04    1,220973805e-01    5,262035728e-01    0,000000000e+00    0,000000000e+00    0,000000000e+00    0,000000000e+00
     1458000000   -4,362933338e-02   -7,894760370e-02    4,305651188e-01    5,058316588e-01    0,000000000e+00    0,000000000e+00    0,000000000e+00    0,000000000e+00
     1472000000   -1,225761995e-01   -1,464670151e-01    7,312309146e-01    2,950374782e-01    0,000000000e+00    0,000000000e+00    0,000000000e+00    0,000000000e+00
     1486000000   -2,388475984e-01   -1,377507448e-01    8,904603720e-01   -3,286660090e-02    0,000000000e+00    0,000000000e+00    0,000000000e+00    0,000000000e+00
     1500000000   -3,009340167e-01   -7,189366966e-02    8,421034813e-01   -4,444203973e-01    0,000000000e+00    0,000000000e+00    0,000000000e+00    0,000000000e+00
