! NanoVNA-App
! Date: 2025-09-25 15:00:13
! Start: 100MHz Stop: 1,5GHz Points: 101
! S-Parameter data: F S11 S21 S12 S22
# Hz S RI R 50
!     Frequency           S11_Real           S11_Imag           S21_Real           S21_Imag           S12_Real           S12_Imag           S22_Real           S22_Imag
      100000000    3,557927161e-02    2,735969052e-02    4,407492578e-01   -6,695598960e-01    0,000000000e+00    0,000000000e+00    0,000000000e+00    0,000000000e+00
      114000000    6,073130667e-02    2,185360296e-03    1,290928386e-02   -7,955353856e-01    0,000000000e+00    0,000000000e+00    0,000000000e+00    0,000000000e+00
      128000000    6,836510450e-02   -4,222507030e-02   -4,080971181e-01   -6,780749559e-01    0,000000000e+00    0,000000000e+00    0,000000000e+00    0,000000000e+00
      142000000    4,350858927e-02   -8,880053461e-02   -7,052248716e-01   -3,609096110e-01    0,000000000e+00    0,000000000e+00    0,000000000e+00    0,000000000e+00
      156000000   -9,724554606e-03   -1,093576252e-01   -7,925074100e-01    6,694988906e-02    0,000000000e+00    0,000000000e+00    0,000000000e+00    0,000000000e+00
      170000000   -6,263475865e-02   -9,177451581e-02   -6,369309425e-01    4,865779281e-01    0,000000000e+00    0,000000000e+00    0,000000000e+00    0,000000000e+00
      184000000   -8,855824172e-02   -4,769329727e-02   -2,731479406e-01    7,561904788e-01    0,000000000e+00    0,000000000e+00    0,000000000e+00    0,000000000e+00
      198000000   -8,276938647e-02   -6,435192190e-03    1,796348244e-01    7,826291323e-01    0,000000000e+00    0,000000000e+00    0,000000000e+00    0,000000000e+00
      212000000   -6,272763759e-02    1,801386848e-02    5,705404282e-01    5,583831072e-01    0,000000000e+00    0,000000000e+00    0,000000000e+00    0,000000000e+00
      226000000   -4,144714028e-02    3,182090819e-02    7,766860127e-01    1,618274897e-01    0,000000000e+00    0,000000000e+00    0,000000000e+00    0,000000000e+00
      240000000   -1,489031315e-02    4,135306552e-02    7,360176444e-01   -2,788664103e-01    0,000000000e+00    0,000000000e+00    0,000000000e+00    0,000000000e+00
      254000000    2,137866244e-02    3,627477214e-02    4,681285918e-01   -6,222544909e-01    0,000000000e+00    0,000000000e+00    0,000000000e+00    0,000000000e+00
      268000000    5,326707661e-02    4,741522949e-03    6,676916033e-02   -7,674608231e-01    0,000000000e+00    0,000000000e+00    0,000000000e+00    0,000000000e+00
      282000000    5,740580708e-02   -4,498548806e-02   -3,456972539e-01   -6,826115847e-01    0,000000000e+00    0,000000000e+00    0,000000000e+00    0,000000000e+00
      296000000    2,613961697e-02   -8,467631787e-02   -6,549209952e-01   -3,977941275e-01    0,000000000e+00    0,000000000e+00    0,000000000e+00    0,000000000e+00
      310000000   -1,911438443e-02   -8,955317736e-02   -7,734663486e-01    1,152603142e-02    0,000000000e+00    0,000000000e+00    0,000000000e+00    0,000000000e+00
      324000000   -4,659155011e-02   -6,331355125e-02   -6,473389864e-01    4,300678372e-01    0,000000000e+00    0,000000000e+00    0,000000000e+00    0,000000000e+00
      338000000   -4,125385359e-02   -3,795319051e-02   -3,093007505e-01    7,094789147e-01    0,000000000e+00    0,000000000e+00    0,000000000e+00    0,000000000e+00
      352000000   -2,348405495e-02   -3,746057674e-02    1,183917373e-01    7,594033480e-01    0,000000000e+00    0,000000000e+00    0,000000000e+00    0,000000000e+00
      366000000   -2,297729068e-02   -5,633676052e-02    5,030384064e-01    5,717209578e-01    0,000000000e+00    0,000000000e+00    0,000000000e+00    0,000000000e+00
      380000000   -4,484063387e-02   -6,529114395e-02    7,258437276e-01    2,118790001e-01    0,000000000e+00    0,000000000e+00    0,000000000e+00    0,000000000e+00
      394000000   -6,640661508e-02   -5,056950822e-02    7,231572270e-01   -2,131100297e-01    0,000000000e+00    0,000000000e+00    0,000000000e+00    0,000000000e+00
      408000000   -6,744615734e-02   -2,640821598e-02    4,899494350e-01   -5,680902004e-01    0,000000000e+00    0,000000000e+00    0,000000000e+00    0,000000000e+00
      422000000   -5,347271264e-02   -1,510580815e-02    1,056231186e-01   -7,382665873e-01    0,000000000e+00    0,000000000e+00    0,000000000e+00    0,000000000e+00
      436000000   -4,676514491e-02   -1,838148013e-02   -3,060095310e-01   -6,757141352e-01    0,000000000e+00    0,000000000e+00    0,000000000e+00    0,000000000e+00
      450000000   -5,176965520e-02   -1,496912166e-02   -6,191849709e-01   -3,994372487e-01    0,000000000e+00    0,000000000e+00    0,000000000e+00    0,000000000e+00
      464000000   -5,051916465e-02    5,627609324e-03   -7,301862240e-01    3,179180203e-03    0,000000000e+00    0,000000000e+00    0,000000000e+00    0,000000000e+00
      478000000   -2,046800964e-02    2,686248906e-02   -5,981844664e-01    3,976370096e-01    0,000000000e+00    0,000000000e+00    0,000000000e+00    0,000000000e+00
      492000000    2,851687558e-02    1,444312837e-02   -2,794462144e-01    6,440113187e-01    0,000000000e+00    0,000000000e+00    0,000000000e+00    0,000000000e+00
      506000000    5,862542614e-02   -3,731684014e-02    1,050309017e-01    6,803187132e-01    0,000000000e+00    0,000000000e+00    0,000000000e+00    0,000000000e+00
      520000000    4,414073750e-02   -1,031421423e-01    4,446020722e-01    5,135526657e-01    0,000000000e+00    0,000000000e+00    0,000000000e+00    0,000000000e+00
      534000000   -1,257669646e-02   -1,442995071e-01    6,492623091e-01    2,059170753e-01    0,000000000e+00    0,000000000e+00    0,000000000e+00    0,000000000e+00
      548000000   -8,106393367e-02   -1,396144927e-01    6,601917744e-01   -1,760005951e-01    0,000000000e+00    0,000000000e+00    0,000000000e+00    0,000000000e+00
      562000000   -1,310068816e-01   -9,782870114e-02    4,502805769e-01   -5,080392361e-01    0,000000000e+00    0,000000000e+00    0,000000000e+00    0,000000000e+00
      576000000   -1,491813958e-01   -3,861678019e-02    8,248113096e-02   -6,605736613e-01    0,000000000e+00    0,000000000e+00    0,000000000e+00    0,000000000e+00
      590000000   -1,300902814e-01    2,863634564e-02   -2,978532314e-01   -5,637480617e-01    0,000000000e+00    0,000000000e+00    0,000000000e+00    0,000000000e+00
      604000000   -4,023205489e-02    6,856817007e-02   -4,906148612e-01   -2,702561319e-01    0,000000000e+00    0,000000000e+00    0,000000000e+00    0,000000000e+00
      618000000    3,507477418e-02   -2,800113335e-02   -4,938951731e-01   -4,788503051e-02    0,000000000e+00    0,000000000e+00    0,000000000e+00    0,000000000e+00
      632000000   -5,050898716e-02   -9,390595555e-02   -5,233584046e-01    1,768003404e-01    0,000000000e+00    0,000000000e+00    0,000000000e+00    0,000000000e+00
      646000000   -1,007349938e-01   -3,504069895e-02   -3,792361319e-01    4,755958021e-01    0,000000000e+00    0,000000000e+00    0,000000000e+00    0,000000000e+00
      660000000   -7,052113861e-02    9,365250356e-03   -5,280059204e-02    6,243007183e-01    0,000000000e+00    0,000000000e+00    0,000000000e+00    0,000000000e+00
      674000000   -3,050982766e-02    5,353882443e-03    2,977324724e-01    5,535134673e-01    0,000000000e+00    0,000000000e+00    0,000000000e+00    0,000000000e+00
      688000000   -1,517163590e-02   -1,690805517e-02    5,469907522e-01    3,036253750e-01    0,000000000e+00    0,000000000e+00    0,000000000e+00    0,000000000e+00
      702000000   -1,466169953e-02   -3,395823762e-02    6,187431812e-01   -4,026617110e-02    0,000000000e+00    0,000000000e+00    0,000000000e+00    0,000000000e+00
      716000000   -9,114533663e-03   -4,827333242e-02    4,922677875e-01   -3,681921959e-01    0,000000000e+00    0,000000000e+00    0,000000000e+00    0,000000000e+00
      730000000   -7,013743743e-03   -7,444955409e-02    2,128636390e-01   -5,679244399e-01    0,000000000e+00    0,000000000e+00    0,000000000e+00    0,000000000e+00
      744000000   -2,559020184e-02   -1,114126369e-01   -1,235655025e-01   -5,873643160e-01    0,000000000e+00    0,000000000e+00    0,000000000e+00    0,000000000e+00
      758000000   -7,414167374e-02   -1,334683597e-01   -4,192966819e-01   -4,326908290e-01    0,000000000e+00    0,000000000e+00    0,000000000e+00    0,000000000e+00
      772000000   -1,348979324e-01   -1,160394475e-01   -5,932798982e-01   -1,406166852e-01    0,000000000e+00    0,000000000e+00    0,000000000e+00    0,000000000e+00
      786000000   -1,725881994e-01   -5,840774626e-02   -5,819357038e-01    2,098631561e-01    0,000000000e+00    0,000000000e+00    0,000000000e+00    0,000000000e+00
      800000000   -1,595178694e-01    7,250112016e-03   -3,732885420e-01    4,953149259e-01    0,000000000e+00    0,000000000e+00    0,000000000e+00    0,000000000e+00
      814000000   -1,146107316e-01    4,347192869e-02   -4,514363781e-02    6,147466302e-01    0,000000000e+00    0,000000000e+00    0,000000000e+00    0,000000000e+00
      828000000   -6,818048656e-02    4,384121671e-02    2,859685719e-01    5,406774282e-01    0,000000000e+00    0,000000000e+00    0,000000000e+00    0,000000000e+00
      842000000   -3,906672075e-02    2,844981290e-02    5,215722919e-01    3,055755198e-01    0,000000000e+00    0,000000000e+00    0,000000000e+00    0,000000000e+00
      856000000   -1,805299520e-02    1,198772807e-02    5,942935944e-01   -1,421311311e-02    0,000000000e+00    0,000000000e+00    0,000000000e+00    0,000000000e+00
      870000000    1,983922441e-03   -1,125413273e-02    4,859663248e-01   -3,168605268e-01    0,000000000e+00    0,000000000e+00    0,000000000e+00    0,000000000e+00
      884000000    1,337178238e-02   -5,112492293e-02    2,412009090e-01   -5,118029714e-01    0,000000000e+00    0,000000000e+00    0,000000000e+00    0,000000000e+00
      898000000   -4,174386151e-03   -1,019296944e-01   -5,814049393e-02   -5,547472239e-01    0,000000000e+00    0,000000000e+00    0,000000000e+00    0,000000000e+00
      912000000   -6,263003498e-02   -1,318070292e-01   -3,880860806e-01   -4,253957570e-01    0,000000000e+00    0,000000000e+00    0,000000000e+00    0,000000000e+00
      926000000   -1,244759560e-01   -1,197008118e-01   -5,647715330e-01   -1,491292566e-01    0,000000000e+00    0,000000000e+00    0,000000000e+00    0,000000000e+00
      940000000   -1,648530513e-01   -6,295225024e-02   -5,710861683e-01    1,921864599e-01    0,000000000e+00    0,000000000e+00    0,000000000e+00    0,000000000e+00
      954000000   -1,455346048e-01   -5,747383111e-04   -3,741652071e-01    4,813607037e-01    0,000000000e+00    0,000000000e+00    0,000000000e+00    0,000000000e+00
      968000000   -9,886827320e-02    2,691215649e-02   -5,191808194e-02    6,174440384e-01    0,000000000e+00    0,000000000e+00    0,000000000e+00    0,000000000e+00
      982000000   -5,272190645e-02    4,057480022e-03    2,816572189e-01    5,535535216e-01    0,000000000e+00    0,000000000e+00    0,000000000e+00    0,000000000e+00
      996000000   -4,123133048e-02   -3,227686137e-02    5,239228010e-01    3,264782727e-01    0,000000000e+00    0,000000000e+00    0,000000000e+00    0,000000000e+00
     1010000000   -6,357392669e-02   -6,832439452e-02    6,079515815e-01    1,504424773e-02    0,000000000e+00    0,000000000e+00    0,000000000e+00    0,000000000e+00
     1024000000   -9,803579003e-02   -7,985235006e-02    5,145816803e-01   -2,801416814e-01    0,000000000e+00    0,000000000e+00    0,000000000e+00    0,000000000e+00
     1038000000   -1,440827996e-01   -5,728070065e-02    2,960602641e-01   -4,709841907e-01    0,000000000e+00    0,000000000e+00    0,000000000e+00    0,000000000e+00
     1052000000   -1,536196172e-01   -4,946010653e-03    3,570502996e-02   -5,263759494e-01    0,000000000e+00    0,000000000e+00    0,000000000e+00    0,000000000e+00
     1066000000   -1,037743539e-01    3,646690398e-02   -2,103865743e-01   -4,642345309e-01    0,000000000e+00    0,000000000e+00    0,000000000e+00    0,000000000e+00
     1080000000   -5,720732361e-02    2,744492143e-02   -4,169583917e-01   -2,978130281e-01    0,000000000e+00    0,000000000e+00    0,000000000e+00    0,000000000e+00
     1094000000   -3,687603772e-02   -7,875791751e-03   -5,199607015e-01   -2,224804275e-02    0,000000000e+00    0,000000000e+00    0,000000000e+00    0,000000000e+00
     1108000000   -3,371118754e-02   -3,582539782e-02   -4,418046474e-01    2,854342759e-01    0,000000000e+00    0,000000000e+00    0,000000000e+00    0,000000000e+00
     1122000000   -3,291109577e-02   -5,750722438e-02   -1,842469126e-01    4,960794747e-01    0,000000000e+00    0,000000000e+00    0,000000000e+00    0,000000000e+00
     1136000000   -4,671403393e-02   -9,400615841e-02    1,503919661e-01    5,208529234e-01    0,000000000e+00    0,000000000e+00    0,000000000e+00    0,000000000e+00
     1150000000   -7,999158651e-02   -1,229399070e-01    4,547241926e-01    3,470908999e-01    0,000000000e+00    0,000000000e+00    0,000000000e+00    0,000000000e+00
     1164000000   -1,382676810e-01   -1,263440549e-01    6,111455560e-01    1,232785080e-02    0,000000000e+00    0,000000000e+00    0,000000000e+00    0,000000000e+00
     1178000000   -1,746456772e-01   -8,738413453e-02    5,378131270e-01   -3,702817857e-01    0,000000000e+00    0,000000000e+00    0,000000000e+00    0,000000000e+00
     1192000000   -1,822911054e-01   -5,578332022e-02    2,409913838e-01   -6,373416185e-01    0,000000000e+00    0,000000000e+00    0,000000000e+00    0,000000000e+00
     1206000000   -1,895801723e-01   -5,235199258e-02   -1,365389377e-01   -6,615103483e-01    0,000000000e+00    0,000000000e+00    0,000000000e+00    0,000000000e+00
     1220000000   -2,529573441e-01   -2,048611455e-02   -4,195208848e-01   -4,860993922e-01    0,000000000e+00    0,000000000e+00    0,000000000e+00    0,000000000e+00
     1234000000   -2,413787097e-01    1,165926307e-01   -5,562685728e-01   -2,499597073e-01    0,000000000e+00    0,000000000e+00    0,000000000e+00    0,000000000e+00
     1248000000   -1,147457287e-01    1,704090238e-01   -5,990692377e-01    1,783746667e-02    0,000000000e+00    0,000000000e+00    0,000000000e+00    0,000000000e+00
     1262000000   -8,050223114e-04    1,338357925e-01   -5,058974624e-01    3,020924926e-01    0,000000000e+00    0,000000000e+00    0,000000000e+00    0,000000000e+00
     1276000000    6,182450429e-02    4,492394999e-02   -2,720133960e-01    4,867928028e-01    0,000000000e+00    0,000000000e+00    0,000000000e+00    0,000000000e+00
     1290000000    6,797985733e-02   -7,203680277e-02    6,642912049e-03    5,471070409e-01    0,000000000e+00    0,000000000e+00    0,000000000e+00    0,000000000e+00
     1304000000    1,980592310e-02   -1,835333705e-01    3,009254634e-01    4,758873880e-01    0,000000000e+00    0,000000000e+00    0,000000000e+00    0,000000000e+00
     1318000000   -9,299238026e-02   -2,587785423e-01    5,377219319e-01    2,686531544e-01    0,000000000e+00    0,000000000e+00    0,000000000e+00    0,000000000e+00
     1332000000   -2,405224442e-01   -2,392055690e-01    6,568957567e-01   -5,471683666e-02    0,000000000e+00    0,000000000e+00    0,000000000e+00    0,000000000e+00
     1346000000   -3,605347872e-01   -1,392833292e-01    5,558632612e-01   -4,009230435e-01    0,000000000e+00    0,000000000e+00    0,000000000e+00    0,000000000e+00
     1360000000   -3,782632649e-01    4,850719124e-03    2,632807791e-01   -6,335417032e-01    0,000000000e+00    0,000000000e+00    0,000000000e+00    0,000000000e+00
     1374000000   -3,290465772e-01    1,179156154e-01   -1,062321216e-01   -6,275420189e-01    0,000000000e+00    0,000000000e+00    0,000000000e+00    0,000000000e+00
     1388000000   -2,383406907e-01    1,676453054e-01   -3,683659434e-01   -4,149260819e-01    0,000000000e+00    0,000000000e+00    0,000000000e+00    0,000000000e+00
     1402000000   -1,523424089e-01    1,754130721e-01   -4,697340429e-01   -1,076007858e-01    0,000000000e+00    0,000000000e+00    0,000000000e+00    0,000000000e+00
     1416000000   -8,322458714e-02    1,432164907e-01   -3,874356449e-01    2,103085071e-01    0,000000000e+00    0,000000000e+00    0,000000000e+00    0,000000000e+00
     1430000000   -2,796485089e-02    8,665443957e-02   -1,621260196e-01    4,152190387e-01    0,000000000e+00    0,000000000e+00    0,000000000e+00    0,000000000e+00
     1444000000   -8,867615834e-03    7,780201733e-03    1,197331026e-01    5,246353745e-01    0,000000000e+00    0,000000000e+00    0,000000000e+00    0,000000000e+00
     1458000000   -3,897987306e-02   -7,910655439e-02    4,492774904e-01    4,935123324e-01    0,000000000e+00    0,000000000e+00    0,000000000e+00    0,000000000e+00
     1472000000   -1,236210689e-01   -1,418969631e-01    7,301449180e-01    3,101733625e-01    0,000000000e+00    0,000000000e+00    0,000000000e+00    0,000000000e+00
     1486000000   -2,394114286e-01   -1,373538822e-01    8,937681913e-01   -3,167289123e-02    0,000000000e+00    0,000000000e+00    0,000000000e+00    0,000000000e+00
     1500000000   -3,074261546e-01   -6,825730950e-02    8,499651551e-01   -4,369927347e-01    0,000000000e+00    0,000000000e+00    0,000000000e+00    0,000000000e+00
