! NanoVNA-App
! Date: 2025-09-25 15:02:26
! Start: 100MHz Stop: 1,5GHz Points: 101
! S-Parameter data: F S11 S21 S12 S22
# Hz S RI R 50
!     Frequency           S11_Real           S11_Imag           S21_Real           S21_Imag           S12_Real           S12_Imag           S22_Real           S22_Imag
      100000000    3,559869528e-02    2,737372369e-02    4,407380223e-01   -6,695626974e-01    0,000000000e+00    0,000000000e+00    0,000000000e+00    0,000000000e+00
      114000000    6,076651067e-02    2,149766311e-03    1,283016615e-02   -7,954802513e-01    0,000000000e+00    0,000000000e+00    0,000000000e+00    0,000000000e+00
      128000000    6,840679795e-02   -4,225058481e-02   -4,082509577e-01   -6,783093810e-01    0,000000000e+00    0,000000000e+00    0,000000000e+00    0,000000000e+00
      142000000    4,352486879e-02   -8,880779892e-02   -7,050698996e-01   -3,609091043e-01    0,000000000e+00    0,000000000e+00    0,000000000e+00    0,000000000e+00
      156000000   -9,482229128e-03   -1,094718501e-01   -7,929221988e-01    6,685564667e-02    0,000000000e+00    0,000000000e+00    0,000000000e+00    0,000000000e+00
      170000000   -6,265944242e-02   -9,182383120e-02   -6,370992064e-01    4,864733517e-01    0,000000000e+00    0,000000000e+00    0,000000000e+00    0,000000000e+00
      184000000   -8,865606040e-02   -4,768350720e-02   -2,732702196e-01    7,563353181e-01    0,000000000e+00    0,000000000e+00    0,000000000e+00    0,000000000e+00
      198000000   -8,276318014e-02   -6,437597796e-03    1,794155687e-01    7,820823789e-01    0,000000000e+00    0,000000000e+00    0,000000000e+00    0,000000000e+00
      212000000   -6,268975884e-02    1,801652648e-02    5,706095695e-01    5,585760474e-01    0,000000000e+00    0,000000000e+00    0,000000000e+00    0,000000000e+00
      226000000   -4,146442935e-02    3,184252232e-02    7,768440843e-01    1,618413776e-01    0,000000000e+00    0,000000000e+00    0,000000000e+00    0,000000000e+00
      240000000   -1,492623147e-02    4,129560292e-02    7,361529469e-01   -2,785336971e-01    0,000000000e+00    0,000000000e+00    0,000000000e+00    0,000000000e+00
      254000000    2,137563750e-02    3,634515405e-02    4,679367244e-01   -6,223027706e-01    0,000000000e+00    0,000000000e+00    0,000000000e+00    0,000000000e+00
      268000000    5,327727646e-02    4,779214039e-03    6,674725562e-02   -7,681552172e-01    0,000000000e+00    0,000000000e+00    0,000000000e+00    0,000000000e+00
      282000000    5,742951855e-02   -4,499113932e-02   -3,456372321e-01   -6,825604439e-01    0,000000000e+00    0,000000000e+00    0,000000000e+00    0,000000000e+00
      296000000    2,613599040e-02   -8,465654403e-02   -6,546620727e-01   -3,978546560e-01    0,000000000e+00    0,000000000e+00    0,000000000e+00    0,000000000e+00
      310000000   -1,897758804e-02   -8,955199271e-02   -7,749153376e-01    1,100469567e-02    0,000000000e+00    0,000000000e+00    0,000000000e+00    0,000000000e+00
      324000000   -4,643701762e-02   -6,356429309e-02   -6,476575732e-01    4,293095767e-01    0,000000000e+00    0,000000000e+00    0,000000000e+00    0,000000000e+00
      338000000   -4,121245444e-02   -3,794883564e-02   -3,131975830e-01    7,111247182e-01    0,000000000e+00    0,000000000e+00    0,000000000e+00    0,000000000e+00
      352000000   -2,323935367e-02   -3,785261139e-02    1,196333617e-01    7,582626939e-01    0,000000000e+00    0,000000000e+00    0,000000000e+00    0,000000000e+00
      366000000   -2,293604054e-02   -5,630610883e-02    5,039520264e-01    5,715270042e-01    0,000000000e+00    0,000000000e+00    0,000000000e+00    0,000000000e+00
      380000000   -4,466603324e-02   -6,532651186e-02    7,269319296e-01    2,116080225e-01    0,000000000e+00    0,000000000e+00    0,000000000e+00    0,000000000e+00
      394000000   -6,643303484e-02   -5,054597184e-02    7,233588099e-01   -2,132175118e-01    0,000000000e+00    0,000000000e+00    0,000000000e+00    0,000000000e+00
      408000000   -6,773904711e-02   -2,629478462e-02    4,894438386e-01   -5,673236847e-01    0,000000000e+00    0,000000000e+00    0,000000000e+00    0,000000000e+00
      422000000   -5,344887078e-02   -1,519134827e-02    1,049411446e-01   -7,382130623e-01    0,000000000e+00    0,000000000e+00    0,000000000e+00    0,000000000e+00
      436000000   -4,659074172e-02   -1,863311604e-02   -3,062548339e-01   -6,765362620e-01    0,000000000e+00    0,000000000e+00    0,000000000e+00    0,000000000e+00
      450000000   -5,182304978e-02   -1,479382534e-02   -6,183145046e-01   -3,992139101e-01    0,000000000e+00    0,000000000e+00    0,000000000e+00    0,000000000e+00
      464000000   -5,053176731e-02    6,189494859e-03   -7,297262549e-01    3,104777541e-03    0,000000000e+00    0,000000000e+00    0,000000000e+00    0,000000000e+00
      478000000   -2,019895241e-02    2,628131397e-02   -5,980056524e-01    3,969195783e-01    0,000000000e+00    0,000000000e+00    0,000000000e+00    0,000000000e+00
      492000000    2,864908241e-02    1,457652170e-02   -2,800362408e-01    6,444561481e-01    0,000000000e+00    0,000000000e+00    0,000000000e+00    0,000000000e+00
      506000000    5,901811644e-02   -3,744056821e-02    1,049793959e-01    6,797867417e-01    0,000000000e+00    0,000000000e+00    0,000000000e+00    0,000000000e+00
      520000000    4,428834468e-02   -1,024020538e-01    4,405590594e-01    5,156095624e-01    0,000000000e+00    0,000000000e+00    0,000000000e+00    0,000000000e+00
      534000000   -1,322669070e-02   -1,441752464e-01    6,494842768e-01    2,054900080e-01    0,000000000e+00    0,000000000e+00    0,000000000e+00    0,000000000e+00
      548000000   -8,158231527e-02   -1,397533417e-01    6,599208713e-01   -1,760299951e-01    0,000000000e+00    0,000000000e+00    0,000000000e+00    0,000000000e+00
      562000000   -1,318904161e-01   -9,760741144e-02    4,502711892e-01   -5,077569485e-01    0,000000000e+00    0,000000000e+00    0,000000000e+00    0,000000000e+00
      576000000   -1,498237848e-01   -3,841296956e-02    8,127408475e-02   -6,608708501e-01    0,000000000e+00    0,000000000e+00    0,000000000e+00    0,000000000e+00
      590000000   -1,296329796e-01    3,062110022e-02   -2,972739935e-01   -5,609359741e-01    0,000000000e+00    0,000000000e+00    0,000000000e+00    0,000000000e+00
      604000000   -3,587911278e-02    6,851752102e-02   -4,857136607e-01   -2,694570422e-01    0,000000000e+00    0,000000000e+00    0,000000000e+00    0,000000000e+00
      618000000    3,407783434e-02   -3,322889656e-02   -4,940975904e-01   -5,470509082e-02    0,000000000e+00    0,000000000e+00    0,000000000e+00    0,000000000e+00
      632000000   -5,531459674e-02   -9,134060889e-02   -5,291830897e-01    1,782919168e-01    0,000000000e+00    0,000000000e+00    0,000000000e+00    0,000000000e+00
      646000000   -9,913087636e-02   -3,241459280e-02   -3,799787164e-01    4,785713851e-01    0,000000000e+00    0,000000000e+00    0,000000000e+00    0,000000000e+00
      660000000   -6,766321510e-02    1,030971762e-02   -4,999760538e-02    6,254773140e-01    0,000000000e+00    0,000000000e+00    0,000000000e+00    0,000000000e+00
      674000000   -2,983622625e-02    5,153116304e-03    2,988492846e-01    5,539854765e-01    0,000000000e+00    0,000000000e+00    0,000000000e+00    0,000000000e+00
      688000000   -1,485560834e-02   -1,851076446e-02    5,476239324e-01    3,033703864e-01    0,000000000e+00    0,000000000e+00    0,000000000e+00    0,000000000e+00
      702000000   -1,447018050e-02   -3,499996290e-02    6,183131933e-01   -4,134906828e-02    0,000000000e+00    0,000000000e+00    0,000000000e+00    0,000000000e+00
      716000000   -1,021993440e-02   -4,921031743e-02    4,909778237e-01   -3,686797023e-01    0,000000000e+00    0,000000000e+00    0,000000000e+00    0,000000000e+00
      730000000   -7,440991234e-03   -7,494351268e-02    2,114075124e-01   -5,678725839e-01    0,000000000e+00    0,000000000e+00    0,000000000e+00    0,000000000e+00
      744000000   -2,660268545e-02   -1,107712761e-01   -1,239894554e-01   -5,876725316e-01    0,000000000e+00    0,000000000e+00    0,000000000e+00    0,000000000e+00
      758000000   -7,511014491e-02   -1,328542978e-01   -4,189585745e-01   -4,327200651e-01    0,000000000e+00    0,000000000e+00    0,000000000e+00    0,000000000e+00
      772000000   -1,354439557e-01   -1,164181903e-01   -5,931225419e-01   -1,396061927e-01    0,000000000e+00    0,000000000e+00    0,000000000e+00    0,000000000e+00
      786000000   -1,713155210e-01   -5,931220949e-02   -5,813866258e-01    2,101970613e-01    0,000000000e+00    0,000000000e+00    0,000000000e+00    0,000000000e+00
      800000000   -1,602905691e-01    6,263005547e-03   -3,732888103e-01    4,966225028e-01    0,000000000e+00    0,000000000e+00    0,000000000e+00    0,000000000e+00
      814000000   -1,152833328e-01    4,200939462e-02   -4,632368311e-02    6,145070195e-01    0,000000000e+00    0,000000000e+00    0,000000000e+00    0,000000000e+00
      828000000   -6,950040907e-02    4,434973001e-02    2,876660824e-01    5,405837893e-01    0,000000000e+00    0,000000000e+00    0,000000000e+00    0,000000000e+00
      842000000   -3,876134008e-02    2,899477258e-02    5,207471848e-01    3,055137992e-01    0,000000000e+00    0,000000000e+00    0,000000000e+00    0,000000000e+00
      856000000   -1,843162253e-02    1,247608289e-02    5,944035053e-01   -1,403743122e-02    0,000000000e+00    0,000000000e+00    0,000000000e+00    0,000000000e+00
      870000000    2,013002522e-03   -1,131990273e-02    4,863620996e-01   -3,168725669e-01    0,000000000e+00    0,000000000e+00    0,000000000e+00    0,000000000e+00
      884000000    1,342749875e-02   -5,117590725e-02    2,435202301e-01   -5,114269853e-01    0,000000000e+00    0,000000000e+00    0,000000000e+00    0,000000000e+00
      898000000   -3,153773025e-03   -1,028228998e-01   -5,668494850e-02   -5,556647182e-01    0,000000000e+00    0,000000000e+00    0,000000000e+00    0,000000000e+00
      912000000   -6,261807680e-02   -1,323180050e-01   -3,958656788e-01   -4,155166447e-01    0,000000000e+00    0,000000000e+00    0,000000000e+00    0,000000000e+00
      926000000   -1,284351647e-01   -1,189411059e-01   -5,667258501e-01   -1,478395313e-01    0,000000000e+00    0,000000000e+00    0,000000000e+00    0,000000000e+00
      940000000   -1,653221697e-01   -6,394907087e-02   -5,699760914e-01    1,908421069e-01    0,000000000e+00    0,000000000e+00    0,000000000e+00    0,000000000e+00
      954000000   -1,462837011e-01   -3,468657611e-03   -3,734501004e-01    4,837563336e-01    0,000000000e+00    0,000000000e+00    0,000000000e+00    0,000000000e+00
      968000000   -9,466240555e-02    2,215671539e-02   -5,269169435e-02    6,154735088e-01    0,000000000e+00    0,000000000e+00    0,000000000e+00    0,000000000e+00
      982000000   -5,611611530e-02    4,317330662e-03    2,822600305e-01    5,531141758e-01    0,000000000e+00    0,000000000e+00    0,000000000e+00    0,000000000e+00
      996000000   -4,183074087e-02   -3,582354635e-02    5,230029225e-01    3,257977962e-01    0,000000000e+00    0,000000000e+00    0,000000000e+00    0,000000000e+00
     1010000000   -6,022032350e-02   -6,671479344e-02    6,080833077e-01    1,599757932e-02    0,000000000e+00    0,000000000e+00    0,000000000e+00    0,000000000e+00
     1024000000   -9,901138395e-02   -7,603806257e-02    5,187484026e-01   -2,816461325e-01    0,000000000e+00    0,000000000e+00    0,000000000e+00    0,000000000e+00
     1038000000   -1,435870379e-01   -5,687351152e-02    2,974301279e-01   -4,712745249e-01    0,000000000e+00    0,000000000e+00    0,000000000e+00    0,000000000e+00
     1052000000   -1,488711387e-01   -1,556556555e-03    3,513486311e-02   -5,259064436e-01    0,000000000e+00    0,000000000e+00    0,000000000e+00    0,000000000e+00
     1066000000   -1,049911529e-01    4,247745126e-02   -2,076272219e-01   -4,682213068e-01    0,000000000e+00    0,000000000e+00    0,000000000e+00    0,000000000e+00
     1080000000   -5,460143462e-02    2,259538509e-02   -4,172860086e-01   -3,001424074e-01    0,000000000e+00    0,000000000e+00    0,000000000e+00    0,000000000e+00
     1094000000   -3,559819981e-02   -9,655442089e-03   -5,232850909e-01   -2,331620269e-02    0,000000000e+00    0,000000000e+00    0,000000000e+00    0,000000000e+00
     1108000000   -3,109820001e-02   -3,182189167e-02   -4,450451732e-01    2,844923437e-01    0,000000000e+00    0,000000000e+00    0,000000000e+00    0,000000000e+00
     1122000000   -3,415917605e-02   -5,869399756e-02   -1,851698756e-01    4,992503524e-01    0,000000000e+00    0,000000000e+00    0,000000000e+00    0,000000000e+00
     1136000000   -4,166870192e-02   -9,365449101e-02    1,523554623e-01    5,186070204e-01    0,000000000e+00    0,000000000e+00    0,000000000e+00    0,000000000e+00
     1150000000   -8,544971794e-02   -1,223659143e-01    4,552283883e-01    3,431181610e-01    0,000000000e+00    0,000000000e+00    0,000000000e+00    0,000000000e+00
     1164000000   -1,423555762e-01   -1,225233525e-01    6,113133430e-01    9,356960654e-03    0,000000000e+00    0,000000000e+00    0,000000000e+00    0,000000000e+00
     1178000000   -1,781060547e-01   -8,888687938e-02    5,394503474e-01   -3,696032166e-01    0,000000000e+00    0,000000000e+00    0,000000000e+00    0,000000000e+00
     1192000000   -1,787851006e-01   -5,859346688e-02    2,388912886e-01   -6,338991523e-01    0,000000000e+00    0,000000000e+00    0,000000000e+00    0,000000000e+00
     1206000000   -1,910481453e-01   -5,615740642e-02   -1,375697851e-01   -6,614608169e-01    0,000000000e+00    0,000000000e+00    0,000000000e+00    0,000000000e+00
     1220000000   -2,545539737e-01   -1,222763583e-02   -4,186829329e-01   -4,831368923e-01    0,000000000e+00    0,000000000e+00    0,000000000e+00    0,000000000e+00
     1234000000   -2,389817834e-01    1,201735958e-01   -5,624597669e-01   -2,529298961e-01    0,000000000e+00    0,000000000e+00    0,000000000e+00    0,000000000e+00
     1248000000   -1,127878278e-01    1,697993129e-01   -6,057905555e-01    1,562426332e-02    0,000000000e+00    0,000000000e+00    0,000000000e+00    0,000000000e+00
     1262000000   -4,354025703e-03    1,309957802e-01   -5,099640489e-01    2,995663881e-01    0,000000000e+00    0,000000000e+00    0,000000000e+00    0,000000000e+00
     1276000000    6,280050427e-02    4,276975617e-02   -2,736780941e-01    4,936240911e-01    0,000000000e+00    0,000000000e+00    0,000000000e+00    0,000000000e+00
     1290000000    7,007113099e-02   -7,551899552e-02    1,278950647e-02    5,433910489e-01    0,000000000e+00    0,000000000e+00    0,000000000e+00    0,000000000e+00
     1304000000    2,275618911e-02   -1,822640449e-01    3,015392721e-01    4,785335362e-01    0,000000000e+00    0,000000000e+00    0,000000000e+00    0,000000000e+00
     1318000000   -1,003256366e-01   -2,568659186e-01    5,389597416e-01    2,701451480e-01    0,000000000e+00    0,000000000e+00    0,000000000e+00    0,000000000e+00
     1332000000   -2,406372130e-01   -2,457073480e-01    6,563119292e-01   -6,279376149e-02    0,000000000e+00    0,000000000e+00    0,000000000e+00    0,000000000e+00
     1346000000   -3,631139100e-01   -1,393700838e-01    5,583686233e-01   -4,117853045e-01    0,000000000e+00    0,000000000e+00    0,000000000e+00    0,000000000e+00
     1360000000   -3,833242953e-01    4,690910690e-03    2,636144161e-01   -6,421215534e-01    0,000000000e+00    0,000000000e+00    0,000000000e+00    0,000000000e+00
     1374000000   -3,228220344e-01    1,174741611e-01   -1,019548401e-01   -6,298668385e-01    0,000000000e+00    0,000000000e+00    0,000000000e+00    0,000000000e+00
     1388000000   -2,374837399e-01    1,710385382e-01   -3,751752377e-01   -4,219791889e-01    0,000000000e+00    0,000000000e+00    0,000000000e+00    0,000000000e+00
     1402000000   -1,543407142e-01    1,673181504e-01   -4,692308605e-01   -1,087804511e-01    0,000000000e+00    0,000000000e+00    0,000000000e+00    0,000000000e+00
     1416000000   -8,921006322e-02    1,395142525e-01   -3,859146535e-01    2,057508975e-01    0,000000000e+00    0,000000000e+00    0,000000000e+00    0,000000000e+00
     1430000000   -3,584760055e-02    8,583340049e-02   -1,720565408e-01    4,205459356e-01    0,000000000e+00    0,000000000e+00    0,000000000e+00    0,000000000e+00
     1444000000   -7,812492084e-03   -2,851872705e-04    1,260695308e-01    5,246260762e-01    0,000000000e+00    0,000000000e+00    0,000000000e+00    0,000000000e+00
     1458000000   -4,026073590e-02   -7,866472006e-02    4,349125922e-01    4,987683892e-01    0,000000000e+00    0,000000000e+00    0,000000000e+00    0,000000000e+00
     1472000000   -1,224745512e-01   -1,501116902e-01    7,425466776e-01    3,047617078e-01    0,000000000e+00    0,000000000e+00    0,000000000e+00    0,000000000e+00
     1486000000   -2,320773602e-01   -1,445557773e-01    8,886956573e-01   -3,121854551e-02    0,000000000e+00    0,000000000e+00    0,000000000e+00    0,000000000e+00
     1500000000   -3,090794981e-01   -6,584066898e-02    8,407161236e-01   -4,220793843e-01    0,000000000e+00    0,000000000e+00    0,000000000e+00    0,000000000e+00
