! NanoVNA-App
! Date: 2025-09-25 15:00:20
! Start: 100MHz Stop: 1,5GHz Points: 101
! S-Parameter data: F S11 S21 S12 S22
# Hz S RI R 50
!     Frequency           S11_Real           S11_Imag           S21_Real           S21_Imag           S12_Real           S12_Imag           S22_Real           S22_Imag
      100000000    3,558420017e-02    2,735399641e-02    4,407806695e-01   -6,695679426e-01    0,000000000e+00    0,000000000e+00    0,000000000e+00    0,000000000e+00
      114000000    6,071726978e-02    2,182250842e-03    1,277051587e-02   -7,952336669e-01    0,000000000e+00    0,000000000e+00    0,000000000e+00    0,000000000e+00
      128000000    6,840787828e-02   -4,223132879e-02   -4,079995453e-01   -6,781454086e-01    0,000000000e+00    0,000000000e+00    0,000000000e+00    0,000000000e+00
      142000000    4,350187257e-02   -8,879520744e-02   -7,053084373e-01   -3,610181212e-01    0,000000000e+00    0,000000000e+00    0,000000000e+00    0,000000000e+00
      156000000   -8,989256807e-03   -1,100724488e-01   -7,940286994e-01    6,756491959e-02    0,000000000e+00    0,000000000e+00    0,000000000e+00    0,000000000e+00
      170000000   -6,263877451e-02   -9,177029878e-02   -6,370250583e-01    4,863570035e-01    0,000000000e+00    0,000000000e+00    0,000000000e+00    0,000000000e+00
      184000000   -8,857873827e-02   -4,768352583e-02   -2,732527852e-01    7,561760545e-01    0,000000000e+00    0,000000000e+00    0,000000000e+00    0,000000000e+00
      198000000   -8,274483681e-02   -6,411701441e-03    1,796870232e-01    7,823787332e-01    0,000000000e+00    0,000000000e+00    0,000000000e+00    0,000000000e+00
      212000000   -6,273109466e-02    1,805086806e-02    5,709031820e-01    5,586320758e-01    0,000000000e+00    0,000000000e+00    0,000000000e+00    0,000000000e+00
      226000000   -4,149055481e-02    3,180221468e-02    7,766519189e-01    1,619895548e-01    0,000000000e+00    0,000000000e+00    0,000000000e+00    0,000000000e+00
      240000000   -1,495931018e-02    4,132631049e-02    7,362108231e-01   -2,787548900e-01    0,000000000e+00    0,000000000e+00    0,000000000e+00    0,000000000e+00
      254000000    2,138184011e-02    3,635435179e-02    4,679770172e-01   -6,220927835e-01    0,000000000e+00    0,000000000e+00    0,000000000e+00    0,000000000e+00
      268000000    5,331606045e-02    4,766149446e-03    6,657972932e-02   -7,670027614e-01    0,000000000e+00    0,000000000e+00    0,000000000e+00    0,000000000e+00
      282000000    5,744019523e-02   -4,489053041e-02   -3,456473053e-01   -6,824872494e-01    0,000000000e+00    0,000000000e+00    0,000000000e+00    0,000000000e+00
      296000000    2,603714913e-02   -8,463243395e-02   -6,549887657e-01   -3,975526690e-01    0,000000000e+00    0,000000000e+00    0,000000000e+00    0,000000000e+00
      310000000   -1,887723990e-02   -8,931831270e-02   -7,747448683e-01    1,108101662e-02    0,000000000e+00    0,000000000e+00    0,000000000e+00    0,000000000e+00
      324000000   -4,661409929e-02   -6,340058893e-02   -6,477237344e-01    4,301993251e-01    0,000000000e+00    0,000000000e+00    0,000000000e+00    0,000000000e+00
      338000000   -4,130360112e-02   -3,775473684e-02   -3,132465780e-01    7,085475326e-01    0,000000000e+00    0,000000000e+00    0,000000000e+00    0,000000000e+00
      352000000   -2,335086465e-02   -3,779695556e-02    1,190925017e-01    7,579354644e-01    0,000000000e+00    0,000000000e+00    0,000000000e+00    0,000000000e+00
      366000000   -2,286833152e-02   -5,628162995e-02    5,029761195e-01    5,713813305e-01    0,000000000e+00    0,000000000e+00    0,000000000e+00    0,000000000e+00
      380000000   -4,474389181e-02   -6,539872289e-02    7,264763713e-01    2,120302320e-01    0,000000000e+00    0,000000000e+00    0,000000000e+00    0,000000000e+00
      394000000   -6,668770313e-02   -5,087256804e-02    7,224406004e-01   -2,132706195e-01    0,000000000e+00    0,000000000e+00    0,000000000e+00    0,000000000e+00
      408000000   -6,746026874e-02   -2,637171559e-02    4,889610112e-01   -5,685830712e-01    0,000000000e+00    0,000000000e+00    0,000000000e+00    0,000000000e+00
      422000000   -5,300761387e-02   -1,495617907e-02    1,051877439e-01   -7,383053303e-01    0,000000000e+00    0,000000000e+00    0,000000000e+00    0,000000000e+00
      436000000   -4,640393704e-02   -1,845614053e-02   -3,062745035e-01   -6,753651500e-01    0,000000000e+00    0,000000000e+00    0,000000000e+00    0,000000000e+00
      450000000   -5,234123766e-02   -1,490095444e-02   -6,191079021e-01   -3,993846476e-01    0,000000000e+00    0,000000000e+00    0,000000000e+00    0,000000000e+00
      464000000   -5,000727624e-02    5,815773737e-03   -7,299104929e-01    3,626582678e-03    0,000000000e+00    0,000000000e+00    0,000000000e+00    0,000000000e+00
      478000000   -2,036358789e-02    2,699319832e-02   -5,981657505e-01    3,976195455e-01    0,000000000e+00    0,000000000e+00    0,000000000e+00    0,000000000e+00
      492000000    2,825245820e-02    1,473590266e-02   -2,795099318e-01    6,440716386e-01    0,000000000e+00    0,000000000e+00    0,000000000e+00    0,000000000e+00
      506000000    5,881191418e-02   -3,733139858e-02    1,044611037e-01    6,806575656e-01    0,000000000e+00    0,000000000e+00    0,000000000e+00    0,000000000e+00
      520000000    4,510202631e-02   -1,033614054e-01    4,468023181e-01    5,207189918e-01    0,000000000e+00    0,000000000e+00    0,000000000e+00    0,000000000e+00
      534000000   -1,259925310e-02   -1,438983083e-01    6,497722268e-01    2,059193552e-01    0,000000000e+00    0,000000000e+00    0,000000000e+00    0,000000000e+00
      548000000   -8,142334968e-02   -1,395135969e-01    6,597540975e-01   -1,759482920e-01    0,000000000e+00    0,000000000e+00    0,000000000e+00    0,000000000e+00
      562000000   -1,308732778e-01   -9,806024283e-02    4,512292743e-01   -5,086587667e-01    0,000000000e+00    0,000000000e+00    0,000000000e+00    0,000000000e+00
      576000000   -1,491192281e-01   -3,848882020e-02    8,363489807e-02   -6,606339216e-01    0,000000000e+00    0,000000000e+00    0,000000000e+00    0,000000000e+00
      590000000   -1,300980896e-01    2,854331955e-02   -2,945061028e-01   -5,649150610e-01    0,000000000e+00    0,000000000e+00    0,000000000e+00    0,000000000e+00
      604000000   -3,990472108e-02    6,842059642e-02   -4,898929596e-01   -2,703976631e-01    0,000000000e+00    0,000000000e+00    0,000000000e+00    0,000000000e+00
      618000000    3,569335118e-02   -2,773167752e-02   -4,931044877e-01   -4,760331661e-02    0,000000000e+00    0,000000000e+00    0,000000000e+00    0,000000000e+00
      632000000   -5,055971071e-02   -9,285566211e-02   -5,232999325e-01    1,767641455e-01    0,000000000e+00    0,000000000e+00    0,000000000e+00    0,000000000e+00
      646000000   -9,968692064e-02   -3,567336127e-02   -3,796590567e-01    4,749471843e-01    0,000000000e+00    0,000000000e+00    0,000000000e+00    0,000000000e+00
      660000000   -7,033575326e-02    8,881504647e-03   -5,170637742e-02    6,238860488e-01    0,000000000e+00    0,000000000e+00    0,000000000e+00    0,000000000e+00
      674000000   -3,124542534e-02    4,655745812e-03    2,974655628e-01    5,540521145e-01    0,000000000e+00    0,000000000e+00    0,000000000e+00    0,000000000e+00
      688000000   -1,509469841e-02   -1,711182669e-02    5,472933650e-01    3,043693304e-01    0,000000000e+00    0,000000000e+00    0,000000000e+00    0,000000000e+00
      702000000   -1,412017643e-02   -3,389007226e-02    6,176352501e-01   -3,896837682e-02    0,000000000e+00    0,000000000e+00    0,000000000e+00    0,000000000e+00
      716000000   -9,485701099e-03   -4,878298566e-02    4,927020669e-01   -3,681414723e-01    0,000000000e+00    0,000000000e+00    0,000000000e+00    0,000000000e+00
      730000000   -6,425508764e-03   -7,492483407e-02    2,120237797e-01   -5,676819086e-01    0,000000000e+00    0,000000000e+00    0,000000000e+00    0,000000000e+00
      744000000   -2,534644864e-02   -1,107729524e-01   -1,233097315e-01   -5,879604220e-01    0,000000000e+00    0,000000000e+00    0,000000000e+00    0,000000000e+00
      758000000   -7,476179302e-02   -1,336714327e-01   -4,200776815e-01   -4,325956404e-01    0,000000000e+00    0,000000000e+00    0,000000000e+00    0,000000000e+00
      772000000   -1,349577904e-01   -1,162791252e-01   -5,943652987e-01   -1,398179233e-01    0,000000000e+00    0,000000000e+00    0,000000000e+00    0,000000000e+00
      786000000   -1,727624834e-01   -5,868919939e-02   -5,815441012e-01    2,099855542e-01    0,000000000e+00    0,000000000e+00    0,000000000e+00    0,000000000e+00
      800000000   -1,596847028e-01    7,401282899e-03   -3,733996749e-01    4,955478907e-01    0,000000000e+00    0,000000000e+00    0,000000000e+00    0,000000000e+00
      814000000   -1,141202003e-01    4,239450395e-02   -4,510754347e-02    6,154472828e-01    0,000000000e+00    0,000000000e+00    0,000000000e+00    0,000000000e+00
      828000000   -6,910692155e-02    4,369379207e-02    2,854806185e-01    5,401433110e-01    0,000000000e+00    0,000000000e+00    0,000000000e+00    0,000000000e+00
      842000000   -3,859021887e-02    2,827025950e-02    5,210214257e-01    3,058053851e-01    0,000000000e+00    0,000000000e+00    0,000000000e+00    0,000000000e+00
      856000000   -1,777390577e-02    1,223631110e-02    5,944870114e-01   -1,370246243e-02    0,000000000e+00    0,000000000e+00    0,000000000e+00    0,000000000e+00
      870000000    1,408027718e-03   -1,159153506e-02    4,865379930e-01   -3,173806369e-01    0,000000000e+00    0,000000000e+00    0,000000000e+00    0,000000000e+00
      884000000    1,308554504e-02   -5,180180818e-02    2,434250712e-01   -5,134376884e-01    0,000000000e+00    0,000000000e+00    0,000000000e+00    0,000000000e+00
      898000000   -3,436703701e-03   -1,020560339e-01   -5,780153349e-02   -5,547297597e-01    0,000000000e+00    0,000000000e+00    0,000000000e+00    0,000000000e+00
      912000000   -6,228142977e-02   -1,316891462e-01   -3,837349713e-01   -4,230293930e-01    0,000000000e+00    0,000000000e+00    0,000000000e+00    0,000000000e+00
      926000000   -1,281875968e-01   -1,189843640e-01   -5,678707361e-01   -1,490126103e-01    0,000000000e+00    0,000000000e+00    0,000000000e+00    0,000000000e+00
      940000000   -1,648979783e-01   -6,352387369e-02   -5,701494813e-01    1,933271885e-01    0,000000000e+00    0,000000000e+00    0,000000000e+00    0,000000000e+00
      954000000   -1,482110769e-01   -3,610137850e-03   -3,750554323e-01    4,837442338e-01    0,000000000e+00    0,000000000e+00    0,000000000e+00    0,000000000e+00
      968000000   -9,600329399e-02    2,477017790e-02   -5,041190982e-02    6,146912575e-01    0,000000000e+00    0,000000000e+00    0,000000000e+00    0,000000000e+00
      982000000   -5,536098778e-02    7,467508782e-03    2,813486159e-01    5,533429384e-01    0,000000000e+00    0,000000000e+00    0,000000000e+00    0,000000000e+00
      996000000   -4,437693208e-02   -2,945774980e-02    5,257686377e-01    3,279630542e-01    0,000000000e+00    0,000000000e+00    0,000000000e+00    0,000000000e+00
     1010000000   -6,037339941e-02   -6,676736474e-02    6,068971753e-01    1,441537496e-02    0,000000000e+00    0,000000000e+00    0,000000000e+00    0,000000000e+00
     1024000000   -1,033312082e-01   -7,808946818e-02    5,167401433e-01   -2,834734619e-01    0,000000000e+00    0,000000000e+00    0,000000000e+00    0,000000000e+00
     1038000000   -1,403779089e-01   -5,263859779e-02    2,949409187e-01   -4,725007713e-01    0,000000000e+00    0,000000000e+00    0,000000000e+00    0,000000000e+00
     1052000000   -1,542512774e-01    1,627474441e-03    3,339507803e-02   -5,252544284e-01    0,000000000e+00    0,000000000e+00    0,000000000e+00    0,000000000e+00
     1066000000   -1,022748575e-01    4,065037891e-02   -2,086350173e-01   -4,632210732e-01    0,000000000e+00    0,000000000e+00    0,000000000e+00    0,000000000e+00
     1080000000   -5,544565246e-02    2,935026772e-02   -4,170963764e-01   -2,987947166e-01    0,000000000e+00    0,000000000e+00    0,000000000e+00    0,000000000e+00
     1094000000   -3,832271323e-02   -6,596175488e-03   -5,220353603e-01   -2,319684997e-02    0,000000000e+00    0,000000000e+00    0,000000000e+00    0,000000000e+00
     1108000000   -3,033448756e-02   -2,989288047e-02   -4,440026581e-01    2,856897712e-01    0,000000000e+00    0,000000000e+00    0,000000000e+00    0,000000000e+00
     1122000000   -3,210920841e-02   -6,051317230e-02   -1,871784478e-01    4,978699088e-01    0,000000000e+00    0,000000000e+00    0,000000000e+00    0,000000000e+00
     1136000000   -4,607220367e-02   -9,529582411e-02    1,516055763e-01    5,231546164e-01    0,000000000e+00    0,000000000e+00    0,000000000e+00    0,000000000e+00
     1150000000   -8,033990860e-02   -1,254747361e-01    4,529460371e-01    3,467215002e-01    0,000000000e+00    0,000000000e+00    0,000000000e+00    0,000000000e+00
     1164000000   -1,425395608e-01   -1,238632500e-01    6,110109687e-01    1,095776167e-02    0,000000000e+00    0,000000000e+00    0,000000000e+00    0,000000000e+00
     1178000000   -1,735462695e-01   -8,981358260e-02    5,387340188e-01   -3,724126816e-01    0,000000000e+00    0,000000000e+00    0,000000000e+00    0,000000000e+00
     1192000000   -1,779420078e-01   -5,321103707e-02    2,400669456e-01   -6,378896236e-01    0,000000000e+00    0,000000000e+00    0,000000000e+00    0,000000000e+00
     1206000000   -1,916549653e-01   -5,203283206e-02   -1,397033930e-01   -6,587564945e-01    0,000000000e+00    0,000000000e+00    0,000000000e+00    0,000000000e+00
     1220000000   -2,520521283e-01   -1,754267141e-02   -4,145143926e-01   -4,838677645e-01    0,000000000e+00    0,000000000e+00    0,000000000e+00    0,000000000e+00
     1234000000   -2,390429527e-01    1,129972041e-01   -5,545834303e-01   -2,513916194e-01    0,000000000e+00    0,000000000e+00    0,000000000e+00    0,000000000e+00
     1248000000   -1,195479929e-01    1,699347198e-01   -6,093768477e-01    1,456946973e-02    0,000000000e+00    0,000000000e+00    0,000000000e+00    0,000000000e+00
     1262000000   -1,103202929e-03    1,284340471e-01   -5,049629211e-01    2,962733805e-01    0,000000000e+00    0,000000000e+00    0,000000000e+00    0,000000000e+00
     1276000000    6,053375825e-02    4,404435679e-02   -2,802794576e-01    4,891640246e-01    0,000000000e+00    0,000000000e+00    0,000000000e+00    0,000000000e+00
     1290000000    7,275512069e-02   -6,619668752e-02    1,044234540e-02    5,503777266e-01    0,000000000e+00    0,000000000e+00    0,000000000e+00    0,000000000e+00
     1304000000    1,983460598e-02   -1,802256554e-01    2,946652174e-01    4,780998230e-01    0,000000000e+00    0,000000000e+00    0,000000000e+00    0,000000000e+00
     1318000000   -9,708406776e-02   -2,465004474e-01    5,326875448e-01    2,734245062e-01    0,000000000e+00    0,000000000e+00    0,000000000e+00    0,000000000e+00
     1332000000   -2,470396757e-01   -2,473829836e-01    6,492623091e-01   -5,533720553e-02    0,000000000e+00    0,000000000e+00    0,000000000e+00    0,000000000e+00
     1346000000   -3,612908423e-01   -1,369992048e-01    5,561367869e-01   -4,061537087e-01    0,000000000e+00    0,000000000e+00    0,000000000e+00    0,000000000e+00
     1360000000   -3,904803991e-01    7,573604584e-03    2,507291138e-01   -6,335126758e-01    0,000000000e+00    0,000000000e+00    0,000000000e+00    0,000000000e+00
     1374000000   -3,272677660e-01    1,198788807e-01   -1,078814715e-01   -6,306847334e-01    0,000000000e+00    0,000000000e+00    0,000000000e+00    0,000000000e+00
     1388000000   -2,362715602e-01    1,693632454e-01   -3,774736822e-01   -4,149875045e-01    0,000000000e+00    0,000000000e+00    0,000000000e+00    0,000000000e+00
     1402000000   -1,511495113e-01    1,714335978e-01   -4,722286463e-01   -1,031478196e-01    0,000000000e+00    0,000000000e+00    0,000000000e+00    0,000000000e+00
     1416000000   -8,434771746e-02    1,386883706e-01   -3,931943476e-01    1,963587850e-01    0,000000000e+00    0,000000000e+00    0,000000000e+00    0,000000000e+00
     1430000000   -3,230826929e-02    8,098984510e-02   -1,687591821e-01    4,413201213e-01    0,000000000e+00    0,000000000e+00    0,000000000e+00    0,000000000e+00
     1444000000   -8,590696380e-03    5,478410982e-03    1,191060618e-01    5,303578973e-01    0,000000000e+00    0,000000000e+00    0,000000000e+00    0,000000000e+00
     1458000000   -4,333859310e-02   -7,534098625e-02    4,319006801e-01    4,985084236e-01    0,000000000e+00    0,000000000e+00    0,000000000e+00    0,000000000e+00
     1472000000   -1,228727996e-01   -1,426718831e-01    7,310903668e-01    3,170220554e-01    0,000000000e+00    0,000000000e+00    0,000000000e+00    0,000000000e+00
     1486000000   -2,310404778e-01   -1,338422298e-01    9,014251828e-01   -2,812106535e-02    0,000000000e+00    0,000000000e+00    0,000000000e+00    0,000000000e+00
     1500000000   -3,088262677e-01   -6,117587164e-02    8,443000317e-01   -4,275164008e-01    0,000000000e+00    0,000000000e+00    0,000000000e+00    0,000000000e+00
