! NanoVNA-App
! Date: 2025-09-25 14:58:32
! Start: 100MHz Stop: 1,5GHz Points: 101
! S-Parameter data: F S11 S21 S12 S22
# Hz S RI R 50
!     Frequency           S11_Real           S11_Imag           S21_Real           S21_Imag           S12_Real           S12_Imag           S22_Real           S22_Imag
      100000000    3,557613119e-02    2,735760808e-02    4,407526553e-01   -6,695644259e-01    0,000000000e+00    0,000000000e+00    0,000000000e+00    0,000000000e+00
      114000000    6,070280075e-02    2,156471834e-03    1,282661781e-02   -7,953801751e-01    0,000000000e+00    0,000000000e+00    0,000000000e+00    0,000000000e+00
      128000000    6,839708239e-02   -4,223974049e-02   -4,082541466e-01   -6,779459715e-01    0,000000000e+00    0,000000000e+00    0,000000000e+00    0,000000000e+00
      142000000    4,346775264e-02   -8,878000826e-02   -7,053284049e-01   -3,608323634e-01    0,000000000e+00    0,000000000e+00    0,000000000e+00    0,000000000e+00
      156000000   -9,849092923e-03   -1,093680561e-01   -7,925857306e-01    6,699295342e-02    0,000000000e+00    0,000000000e+00    0,000000000e+00    0,000000000e+00
      170000000   -6,269484758e-02   -9,186053276e-02   -6,368759274e-01    4,863969088e-01    0,000000000e+00    0,000000000e+00    0,000000000e+00    0,000000000e+00
      184000000   -8,858282864e-02   -4,769689217e-02   -2,733842731e-01    7,563626170e-01    0,000000000e+00    0,000000000e+00    0,000000000e+00    0,000000000e+00
      198000000   -8,272071183e-02   -6,450413726e-03    1,797025055e-01    7,822968364e-01    0,000000000e+00    0,000000000e+00    0,000000000e+00    0,000000000e+00
      212000000   -6,268390268e-02    1,806317456e-02    5,704552531e-01    5,583099127e-01    0,000000000e+00    0,000000000e+00    0,000000000e+00    0,000000000e+00
      226000000   -4,144484550e-02    3,177834302e-02    7,767606378e-01    1,620250493e-01    0,000000000e+00    0,000000000e+00    0,000000000e+00    0,000000000e+00
      240000000   -1,491600648e-02    4,125019908e-02    7,360210419e-01   -2,785935104e-01    0,000000000e+00    0,000000000e+00    0,000000000e+00    0,000000000e+00
      254000000    2,139665000e-02    3,629911318e-02    4,680663943e-01   -6,219842434e-01    0,000000000e+00    0,000000000e+00    0,000000000e+00    0,000000000e+00
      268000000    5,331258476e-02    4,697160795e-03    6,670963764e-02   -7,676404119e-01    0,000000000e+00    0,000000000e+00    0,000000000e+00    0,000000000e+00
      282000000    5,738950148e-02   -4,491155595e-02   -3,456260562e-01   -6,823021770e-01    0,000000000e+00    0,000000000e+00    0,000000000e+00    0,000000000e+00
      296000000    2,603379264e-02   -8,476186544e-02   -6,548870206e-01   -3,978907466e-01    0,000000000e+00    0,000000000e+00    0,000000000e+00    0,000000000e+00
      310000000   -1,908957027e-02   -8,924741298e-02   -7,729439139e-01    1,071740594e-02    0,000000000e+00    0,000000000e+00    0,000000000e+00    0,000000000e+00
      324000000   -4,678823054e-02   -6,338614225e-02   -6,482430100e-01    4,300306439e-01    0,000000000e+00    0,000000000e+00    0,000000000e+00    0,000000000e+00
      338000000   -4,095217586e-02   -3,798598424e-02   -3,111322820e-01    7,097690701e-01    0,000000000e+00    0,000000000e+00    0,000000000e+00    0,000000000e+00
      352000000   -2,343643270e-02   -3,775211051e-02    1,197998896e-01    7,589616776e-01    0,000000000e+00    0,000000000e+00    0,000000000e+00    0,000000000e+00
      366000000   -2,299454622e-02   -5,624947324e-02    5,031685829e-01    5,717167258e-01    0,000000000e+00    0,000000000e+00    0,000000000e+00    0,000000000e+00
      380000000   -4,454601929e-02   -6,537747383e-02    7,264750004e-01    2,112471908e-01    0,000000000e+00    0,000000000e+00    0,000000000e+00    0,000000000e+00
      394000000   -6,657296419e-02   -5,086175352e-02    7,225860357e-01   -2,137593329e-01    0,000000000e+00    0,000000000e+00    0,000000000e+00    0,000000000e+00
      408000000   -6,751414388e-02   -2,603136189e-02    4,897682071e-01   -5,679513812e-01    0,000000000e+00    0,000000000e+00    0,000000000e+00    0,000000000e+00
      422000000   -5,332720652e-02   -1,554143149e-02    1,060526744e-01   -7,398871183e-01    0,000000000e+00    0,000000000e+00    0,000000000e+00    0,000000000e+00
      436000000   -4,664306715e-02   -1,873952337e-02   -3,061738312e-01   -6,763288975e-01    0,000000000e+00    0,000000000e+00    0,000000000e+00    0,000000000e+00
      450000000   -5,223588273e-02   -1,511534490e-02   -6,191580296e-01   -3,998935223e-01    0,000000000e+00    0,000000000e+00    0,000000000e+00    0,000000000e+00
      464000000   -5,010863394e-02    6,134891883e-03   -7,300214767e-01    3,241044236e-03    0,000000000e+00    0,000000000e+00    0,000000000e+00    0,000000000e+00
      478000000   -2,042962238e-02    2,705091052e-02   -5,983595848e-01    3,972808421e-01    0,000000000e+00    0,000000000e+00    0,000000000e+00    0,000000000e+00
      492000000    2,828338742e-02    1,440170314e-02   -2,806032300e-01    6,433779597e-01    0,000000000e+00    0,000000000e+00    0,000000000e+00    0,000000000e+00
      506000000    5,930196866e-02   -3,747225553e-02    1,054672375e-01    6,798968911e-01    0,000000000e+00    0,000000000e+00    0,000000000e+00    0,000000000e+00
      520000000    4,354269058e-02   -1,034161150e-01    4,440129101e-01    5,173308253e-01    0,000000000e+00    0,000000000e+00    0,000000000e+00    0,000000000e+00
      534000000   -1,270897407e-02   -1,440190971e-01    6,496239305e-01    2,057929784e-01    0,000000000e+00    0,000000000e+00    0,000000000e+00    0,000000000e+00
      548000000   -8,185905218e-02   -1,396552175e-01    6,591771841e-01   -1,761289239e-01    0,000000000e+00    0,000000000e+00    0,000000000e+00    0,000000000e+00
      562000000   -1,311196834e-01   -9,789610654e-02    4,509234726e-01   -5,088285804e-01    0,000000000e+00    0,000000000e+00    0,000000000e+00    0,000000000e+00
      576000000   -1,497523487e-01   -3,799057007e-02    8,151961863e-02   -6,602695584e-01    0,000000000e+00    0,000000000e+00    0,000000000e+00    0,000000000e+00
      590000000   -1,295803189e-01    3,010939434e-02   -2,949512601e-01   -5,635598302e-01    0,000000000e+00    0,000000000e+00    0,000000000e+00    0,000000000e+00
      604000000   -3,646815941e-02    6,816784292e-02   -4,857252538e-01   -2,700738013e-01    0,000000000e+00    0,000000000e+00    0,000000000e+00    0,000000000e+00
      618000000    3,457242996e-02   -3,184939176e-02   -4,940041602e-01   -5,278331414e-02    0,000000000e+00    0,000000000e+00    0,000000000e+00    0,000000000e+00
      632000000   -5,366700888e-02   -9,269931167e-02   -5,273936391e-01    1,774001122e-01    0,000000000e+00    0,000000000e+00    0,000000000e+00    0,000000000e+00
      646000000   -9,984856844e-02   -3,297522292e-02   -3,792493939e-01    4,775858521e-01    0,000000000e+00    0,000000000e+00    0,000000000e+00    0,000000000e+00
      660000000   -6,791090220e-02    9,789412841e-03   -5,061903596e-02    6,247830987e-01    0,000000000e+00    0,000000000e+00    0,000000000e+00    0,000000000e+00
      674000000   -3,047165461e-02    4,315705504e-03    2,984670699e-01    5,531276464e-01    0,000000000e+00    0,000000000e+00    0,000000000e+00    0,000000000e+00
      688000000   -1,595250890e-02   -1,810919307e-02    5,472097397e-01    3,030211031e-01    0,000000000e+00    0,000000000e+00    0,000000000e+00    0,000000000e+00
      702000000   -1,403130405e-02   -3,479575366e-02    6,219384670e-01   -4,219333082e-02    0,000000000e+00    0,000000000e+00    0,000000000e+00    0,000000000e+00
      716000000   -1,054394152e-02   -4,879641160e-02    4,914071858e-01   -3,680216968e-01    0,000000000e+00    0,000000000e+00    0,000000000e+00    0,000000000e+00
      730000000   -7,242295425e-03   -7,508976012e-02    2,121381611e-01   -5,679526925e-01    0,000000000e+00    0,000000000e+00    0,000000000e+00    0,000000000e+00
      744000000   -2,662955970e-02   -1,101808846e-01   -1,234815866e-01   -5,889167786e-01    0,000000000e+00    0,000000000e+00    0,000000000e+00    0,000000000e+00
      758000000   -7,538996637e-02   -1,329368204e-01   -4,189260304e-01   -4,326707721e-01    0,000000000e+00    0,000000000e+00    0,000000000e+00    0,000000000e+00
      772000000   -1,347161680e-01   -1,156317443e-01   -5,937926173e-01   -1,396306157e-01    0,000000000e+00    0,000000000e+00    0,000000000e+00    0,000000000e+00
      786000000   -1,717896312e-01   -5,807385966e-02   -5,811715126e-01    2,096810937e-01    0,000000000e+00    0,000000000e+00    0,000000000e+00    0,000000000e+00
      800000000   -1,590385288e-01    6,664875895e-03   -3,729747832e-01    4,959039688e-01    0,000000000e+00    0,000000000e+00    0,000000000e+00    0,000000000e+00
      814000000   -1,150020361e-01    4,196661338e-02   -4,489803687e-02    6,154432297e-01    0,000000000e+00    0,000000000e+00    0,000000000e+00    0,000000000e+00
      828000000   -6,914165616e-02    4,444541782e-02    2,875474393e-01    5,406110287e-01    0,000000000e+00    0,000000000e+00    0,000000000e+00    0,000000000e+00
      842000000   -3,863342479e-02    2,891863324e-02    5,208997130e-01    3,053799272e-01    0,000000000e+00    0,000000000e+00    0,000000000e+00    0,000000000e+00
      856000000   -1,855804212e-02    1,266126614e-02    5,940578580e-01   -1,359860227e-02    0,000000000e+00    0,000000000e+00    0,000000000e+00    0,000000000e+00
      870000000    2,128166379e-03   -1,134550199e-02    4,857082963e-01   -3,170724511e-01    0,000000000e+00    0,000000000e+00    0,000000000e+00    0,000000000e+00
      884000000    1,338335034e-02   -5,114886537e-02    2,430414259e-01   -5,116287470e-01    0,000000000e+00    0,000000000e+00    0,000000000e+00    0,000000000e+00
      898000000   -3,327032551e-03   -1,021498218e-01   -5,914171040e-02   -5,543605685e-01    0,000000000e+00    0,000000000e+00    0,000000000e+00    0,000000000e+00
      912000000   -6,196236610e-02   -1,325264871e-01   -3,973927498e-01   -4,234357476e-01    0,000000000e+00    0,000000000e+00    0,000000000e+00    0,000000000e+00
      926000000   -1,266975105e-01   -1,163604930e-01   -5,662897229e-01   -1,454949677e-01    0,000000000e+00    0,000000000e+00    0,000000000e+00    0,000000000e+00
      940000000   -1,618909389e-01   -6,400305033e-02   -5,685139894e-01    1,912438124e-01    0,000000000e+00    0,000000000e+00    0,000000000e+00    0,000000000e+00
      954000000   -1,484046429e-01    1,136234147e-03   -3,756505549e-01    4,842544496e-01    0,000000000e+00    0,000000000e+00    0,000000000e+00    0,000000000e+00
      968000000   -9,543038160e-02    2,345361561e-02   -5,271030962e-02    6,149023771e-01    0,000000000e+00    0,000000000e+00    0,000000000e+00    0,000000000e+00
      982000000   -5,286654085e-02    5,566106644e-03    2,826871872e-01    5,508298278e-01    0,000000000e+00    0,000000000e+00    0,000000000e+00    0,000000000e+00
      996000000   -4,107203707e-02   -3,034113720e-02    5,248491168e-01    3,282135129e-01    0,000000000e+00    0,000000000e+00    0,000000000e+00    0,000000000e+00
     1010000000   -6,202819943e-02   -6,357249618e-02    6,069639921e-01    1,328464784e-02    0,000000000e+00    0,000000000e+00    0,000000000e+00    0,000000000e+00
     1024000000   -1,004369780e-01   -8,105342090e-02    5,159901977e-01   -2,808510363e-01    0,000000000e+00    0,000000000e+00    0,000000000e+00    0,000000000e+00
     1038000000   -1,444966197e-01   -5,591487885e-02    2,934035957e-01   -4,737351537e-01    0,000000000e+00    0,000000000e+00    0,000000000e+00    0,000000000e+00
     1052000000   -1,536858231e-01   -3,426785115e-03    3,376964107e-02   -5,258188844e-01    0,000000000e+00    0,000000000e+00    0,000000000e+00    0,000000000e+00
     1066000000   -1,069136932e-01    3,746908903e-02   -2,153460681e-01   -4,632704556e-01    0,000000000e+00    0,000000000e+00    0,000000000e+00    0,000000000e+00
     1080000000   -5,401050672e-02    2,985479496e-02   -4,157739878e-01   -3,009281456e-01    0,000000000e+00    0,000000000e+00    0,000000000e+00    0,000000000e+00
     1094000000   -3,667160496e-02   -3,705743467e-03   -5,199770927e-01   -2,403204143e-02    0,000000000e+00    0,000000000e+00    0,000000000e+00    0,000000000e+00
     1108000000   -2,988983691e-02   -3,327448294e-02   -4,433216751e-01    2,854859531e-01    0,000000000e+00    0,000000000e+00    0,000000000e+00    0,000000000e+00
     1122000000   -3,395852447e-02   -5,765826255e-02   -1,866319776e-01    4,944649041e-01    0,000000000e+00    0,000000000e+00    0,000000000e+00    0,000000000e+00
     1136000000   -4,432005063e-02   -9,704470634e-02    1,484055966e-01    5,188274384e-01    0,000000000e+00    0,000000000e+00    0,000000000e+00    0,000000000e+00
     1150000000   -8,420418203e-02   -1,218172014e-01    4,542670250e-01    3,458166420e-01    0,000000000e+00    0,000000000e+00    0,000000000e+00    0,000000000e+00
     1164000000   -1,380934566e-01   -1,240906939e-01    6,099691391e-01    1,126179378e-02    0,000000000e+00    0,000000000e+00    0,000000000e+00    0,000000000e+00
     1178000000   -1,745418012e-01   -8,782507479e-02    5,399421453e-01   -3,724645376e-01    0,000000000e+00    0,000000000e+00    0,000000000e+00    0,000000000e+00
     1192000000   -1,823778600e-01   -5,668919161e-02    2,373270690e-01   -6,387636065e-01    0,000000000e+00    0,000000000e+00    0,000000000e+00    0,000000000e+00
     1206000000   -1,920028031e-01   -5,578340217e-02   -1,426573396e-01   -6,645861268e-01    0,000000000e+00    0,000000000e+00    0,000000000e+00    0,000000000e+00
     1220000000   -2,508301735e-01   -1,830129139e-02   -4,188044369e-01   -4,832738340e-01    0,000000000e+00    0,000000000e+00    0,000000000e+00    0,000000000e+00
     1234000000   -2,403465211e-01    1,141908243e-01   -5,513213873e-01   -2,535516918e-01    0,000000000e+00    0,000000000e+00    0,000000000e+00    0,000000000e+00
     1248000000   -1,130360067e-01    1,779536158e-01   -6,048593521e-01    2,401724458e-02    0,000000000e+00    0,000000000e+00    0,000000000e+00    0,000000000e+00
     1262000000   -1,073832158e-03    1,359391659e-01   -5,039765239e-01    2,949659824e-01    0,000000000e+00    0,000000000e+00    0,000000000e+00    0,000000000e+00
     1276000000    6,361232698e-02    3,865512833e-02   -2,706004977e-01    4,866856933e-01    0,000000000e+00    0,000000000e+00    0,000000000e+00    0,000000000e+00
     1290000000    7,066262513e-02   -7,071686536e-02    4,768750630e-03    5,466926694e-01    0,000000000e+00    0,000000000e+00    0,000000000e+00    0,000000000e+00
     1304000000    1,990608871e-02   -1,772812605e-01    2,934810221e-01    4,788757265e-01    0,000000000e+00    0,000000000e+00    0,000000000e+00    0,000000000e+00
     1318000000   -8,660534769e-02   -2,504566312e-01    5,439565182e-01    2,666690052e-01    0,000000000e+00    0,000000000e+00    0,000000000e+00    0,000000000e+00
     1332000000   -2,437871248e-01   -2,503398061e-01    6,436452270e-01   -5,547616258e-02    0,000000000e+00    0,000000000e+00    0,000000000e+00    0,000000000e+00
     1346000000   -3,621519804e-01   -1,388858706e-01    5,545063615e-01   -4,024302959e-01    0,000000000e+00    0,000000000e+00    0,000000000e+00    0,000000000e+00
     1360000000   -3,881708384e-01    4,548387136e-03    2,483247519e-01   -6,337660551e-01    0,000000000e+00    0,000000000e+00    0,000000000e+00    0,000000000e+00
     1374000000   -3,272172511e-01    1,187659279e-01   -9,671805799e-02   -6,172437072e-01    0,000000000e+00    0,000000000e+00    0,000000000e+00    0,000000000e+00
     1388000000   -2,370349020e-01    1,715399325e-01   -3,734298050e-01   -4,236246645e-01    0,000000000e+00    0,000000000e+00    0,000000000e+00    0,000000000e+00
     1402000000   -1,576659083e-01    1,716374010e-01   -4,749746323e-01   -1,044033915e-01    0,000000000e+00    0,000000000e+00    0,000000000e+00    0,000000000e+00
     1416000000   -8,468140662e-02    1,412289143e-01   -3,914118707e-01    2,041426450e-01    0,000000000e+00    0,000000000e+00    0,000000000e+00    0,000000000e+00
     1430000000   -3,259594366e-02    8,921010792e-02   -1,513741314e-01    4,160051048e-01    0,000000000e+00    0,000000000e+00    0,000000000e+00    0,000000000e+00
     1444000000   -7,197268773e-03    4,981587175e-03    1,214037016e-01    5,336495042e-01    0,000000000e+00    0,000000000e+00    0,000000000e+00    0,000000000e+00
     1458000000   -3,577664495e-02   -8,678199351e-02    4,394486547e-01    4,878496528e-01    0,000000000e+00    0,000000000e+00    0,000000000e+00    0,000000000e+00
     1472000000   -1,226464063e-01   -1,413139105e-01    7,409439683e-01    3,041228056e-01    0,000000000e+00    0,000000000e+00    0,000000000e+00    0,000000000e+00
     1486000000   -2,284810990e-01   -1,371480227e-01    9,101024866e-01   -1,956875436e-02    0,000000000e+00    0,000000000e+00    0,000000000e+00    0,000000000e+00
     1500000000   -3,073236644e-01   -6,171707064e-02    8,255591989e-01   -4,268525243e-01    0,000000000e+00    0,000000000e+00    0,000000000e+00    0,000000000e+00
