! NanoVNA-App
! Date: 2025-09-25 14:59:40
! Start: 100MHz Stop: 1,5GHz Points: 101
! S-Parameter data: F S11 S21 S12 S22
# Hz S RI R 50
!     Frequency           S11_Real           S11_Imag           S21_Real           S21_Imag           S12_Real           S12_Imag           S22_Real           S22_Imag
      100000000    3,557708859e-02    2,735936455e-02    4,407556057e-01   -6,695660353e-01    0,000000000e+00    0,000000000e+00    0,000000000e+00    0,000000000e+00
      114000000    6,071317941e-02    2,190108644e-03    1,274817530e-02   -7,954200506e-01    0,000000000e+00    0,000000000e+00    0,000000000e+00    0,000000000e+00
      128000000    6,840750575e-02   -4,231037572e-02   -4,081880152e-01   -6,780801415e-01    0,000000000e+00    0,000000000e+00    0,000000000e+00    0,000000000e+00
      142000000    4,344261438e-02   -8,873700351e-02   -7,051895261e-01   -3,609725833e-01    0,000000000e+00    0,000000000e+00    0,000000000e+00    0,000000000e+00
      156000000   -9,778785519e-03   -1,095632017e-01   -7,924199700e-01    6,731364876e-02    0,000000000e+00    0,000000000e+00    0,000000000e+00    0,000000000e+00
      170000000   -6,264808029e-02   -9,174185991e-02   -6,370001435e-01    4,864965677e-01    0,000000000e+00    0,000000000e+00    0,000000000e+00    0,000000000e+00
      184000000   -8,859748393e-02   -4,764182121e-02   -2,731605172e-01    7,561545968e-01    0,000000000e+00    0,000000000e+00    0,000000000e+00    0,000000000e+00
      198000000   -8,276402205e-02   -6,449235138e-03    1,794048250e-01    7,824041247e-01    0,000000000e+00    0,000000000e+00    0,000000000e+00    0,000000000e+00
      212000000   -6,265788525e-02    1,803229563e-02    5,707740188e-01    5,583740473e-01    0,000000000e+00    0,000000000e+00    0,000000000e+00    0,000000000e+00
      226000000   -4,145573825e-02    3,178826347e-02    7,768631577e-01    1,620018035e-01    0,000000000e+00    0,000000000e+00    0,000000000e+00    0,000000000e+00
      240000000   -1,487633307e-02    4,123375192e-02    7,360718846e-01   -2,786048055e-01    0,000000000e+00    0,000000000e+00    0,000000000e+00    0,000000000e+00
      254000000    2,138855308e-02    3,630064428e-02    4,678780437e-01   -6,219524741e-01    0,000000000e+00    0,000000000e+00    0,000000000e+00    0,000000000e+00
      268000000    5,328314006e-02    4,738934338e-03    6,643065065e-02   -7,670857310e-01    0,000000000e+00    0,000000000e+00    0,000000000e+00    0,000000000e+00
      282000000    5,736852065e-02   -4,495283589e-02   -3,453573585e-01   -6,826882958e-01    0,000000000e+00    0,000000000e+00    0,000000000e+00    0,000000000e+00
      296000000    2,608503401e-02   -8,459930867e-02   -6,550101042e-01   -3,977917433e-01    0,000000000e+00    0,000000000e+00    0,000000000e+00    0,000000000e+00
      310000000   -1,896581426e-02   -8,920935541e-02   -7,745678425e-01    1,135182753e-02    0,000000000e+00    0,000000000e+00    0,000000000e+00    0,000000000e+00
      324000000   -4,655364156e-02   -6,346760690e-02   -6,475265622e-01    4,295337796e-01    0,000000000e+00    0,000000000e+00    0,000000000e+00    0,000000000e+00
      338000000   -4,091455787e-02   -3,757116571e-02   -3,113560379e-01    7,091968656e-01    0,000000000e+00    0,000000000e+00    0,000000000e+00    0,000000000e+00
      352000000   -2,345338836e-02   -3,778310493e-02    1,190793887e-01    7,592324018e-01    0,000000000e+00    0,000000000e+00    0,000000000e+00    0,000000000e+00
      366000000   -2,282232419e-02   -5,621769279e-02    5,021743774e-01    5,715775490e-01    0,000000000e+00    0,000000000e+00    0,000000000e+00    0,000000000e+00
      380000000   -4,432198778e-02   -6,527953595e-02    7,266969085e-01    2,113860101e-01    0,000000000e+00    0,000000000e+00    0,000000000e+00    0,000000000e+00
      394000000   -6,645266712e-02   -5,061335862e-02    7,236328721e-01   -2,138763070e-01    0,000000000e+00    0,000000000e+00    0,000000000e+00    0,000000000e+00
      408000000   -6,743968278e-02   -2,641030401e-02    4,894164801e-01   -5,680429339e-01    0,000000000e+00    0,000000000e+00    0,000000000e+00    0,000000000e+00
      422000000   -5,331529304e-02   -1,539326087e-02    1,053533182e-01   -7,391777039e-01    0,000000000e+00    0,000000000e+00    0,000000000e+00    0,000000000e+00
      436000000   -4,654446244e-02   -1,853932254e-02   -3,064507246e-01   -6,762126684e-01    0,000000000e+00    0,000000000e+00    0,000000000e+00    0,000000000e+00
      450000000   -5,207052082e-02   -1,527675893e-02   -6,188592315e-01   -3,995898068e-01    0,000000000e+00    0,000000000e+00    0,000000000e+00    0,000000000e+00
      464000000   -5,055484176e-02    5,850107875e-03   -7,297431827e-01    3,474988742e-03    0,000000000e+00    0,000000000e+00    0,000000000e+00    0,000000000e+00
      478000000   -2,022561803e-02    2,681483142e-02   -5,988739729e-01    3,975370824e-01    0,000000000e+00    0,000000000e+00    0,000000000e+00    0,000000000e+00
      492000000    2,823200822e-02    1,497488376e-02   -2,809613049e-01    6,442487240e-01    0,000000000e+00    0,000000000e+00    0,000000000e+00    0,000000000e+00
      506000000    5,934305862e-02   -3,747013584e-02    1,059175357e-01    6,801919341e-01    0,000000000e+00    0,000000000e+00    0,000000000e+00    0,000000000e+00
      520000000    4,336364940e-02   -1,030203104e-01    4,409978986e-01    5,135414004e-01    0,000000000e+00    0,000000000e+00    0,000000000e+00    0,000000000e+00
      534000000   -1,226820517e-02   -1,443065554e-01    6,492196918e-01    2,056247145e-01    0,000000000e+00    0,000000000e+00    0,000000000e+00    0,000000000e+00
      548000000   -8,152643591e-02   -1,399741322e-01    6,598647833e-01   -1,762559563e-01    0,000000000e+00    0,000000000e+00    0,000000000e+00    0,000000000e+00
      562000000   -1,311620027e-01   -9,790025651e-02    4,510664046e-01   -5,089724064e-01    0,000000000e+00    0,000000000e+00    0,000000000e+00    0,000000000e+00
      576000000   -1,494306177e-01   -3,879561275e-02    8,167897910e-02   -6,610480547e-01    0,000000000e+00    0,000000000e+00    0,000000000e+00    0,000000000e+00
      590000000   -1,298259497e-01    2,938977629e-02   -2,938576043e-01   -5,638320446e-01    0,000000000e+00    0,000000000e+00    0,000000000e+00    0,000000000e+00
      604000000   -3,790092096e-02    6,869124621e-02   -4,878196120e-01   -2,696026862e-01    0,000000000e+00    0,000000000e+00    0,000000000e+00    0,000000000e+00
      618000000    3,500723094e-02   -2,972875349e-02   -4,936114848e-01   -5,059987679e-02    0,000000000e+00    0,000000000e+00    0,000000000e+00    0,000000000e+00
      632000000   -5,311080068e-02   -9,220681340e-02   -5,257180929e-01    1,776392162e-01    0,000000000e+00    0,000000000e+00    0,000000000e+00    0,000000000e+00
      646000000   -1,004864946e-01   -3,445156664e-02   -3,784381449e-01    4,771771431e-01    0,000000000e+00    0,000000000e+00    0,000000000e+00    0,000000000e+00
      660000000   -6,941072643e-02    9,089899249e-03   -5,168636516e-02    6,257581711e-01    0,000000000e+00    0,000000000e+00    0,000000000e+00    0,000000000e+00
      674000000   -3,046958335e-02    5,339482334e-03    2,984172404e-01    5,533520579e-01    0,000000000e+00    0,000000000e+00    0,000000000e+00    0,000000000e+00
      688000000   -1,593999192e-02   -1,754372008e-02    5,468876362e-01    3,035014570e-01    0,000000000e+00    0,000000000e+00    0,000000000e+00    0,000000000e+00
      702000000   -1,454157010e-02   -3,484166786e-02    6,208028197e-01   -4,014146701e-02    0,000000000e+00    0,000000000e+00    0,000000000e+00    0,000000000e+00
      716000000   -1,016371325e-02   -4,773018882e-02    4,916158319e-01   -3,682031035e-01    0,000000000e+00    0,000000000e+00    0,000000000e+00    0,000000000e+00
      730000000   -6,951588672e-03   -7,472651452e-02    2,115893960e-01   -5,671044588e-01    0,000000000e+00    0,000000000e+00    0,000000000e+00    0,000000000e+00
      744000000   -2,626280673e-02   -1,110923365e-01   -1,244107038e-01   -5,879213810e-01    0,000000000e+00    0,000000000e+00    0,000000000e+00    0,000000000e+00
      758000000   -7,448617369e-02   -1,331129819e-01   -4,192463160e-01   -4,323931634e-01    0,000000000e+00    0,000000000e+00    0,000000000e+00    0,000000000e+00
      772000000   -1,358263642e-01   -1,156049371e-01   -5,938040614e-01   -1,398767233e-01    0,000000000e+00    0,000000000e+00    0,000000000e+00    0,000000000e+00
      786000000   -1,724420339e-01   -5,880187824e-02   -5,816656947e-01    2,098848224e-01    0,000000000e+00    0,000000000e+00    0,000000000e+00    0,000000000e+00
      800000000   -1,594773233e-01    7,076715119e-03   -3,736352623e-01    4,960591495e-01    0,000000000e+00    0,000000000e+00    0,000000000e+00    0,000000000e+00
      814000000   -1,150352955e-01    4,286117852e-02   -4,597027972e-02    6,147296429e-01    0,000000000e+00    0,000000000e+00    0,000000000e+00    0,000000000e+00
      828000000   -6,838897616e-02    4,379428551e-02    2,848303318e-01    5,405634046e-01    0,000000000e+00    0,000000000e+00    0,000000000e+00    0,000000000e+00
      842000000   -3,892980516e-02    2,882215939e-02    5,209758282e-01    3,056365252e-01    0,000000000e+00    0,000000000e+00    0,000000000e+00    0,000000000e+00
      856000000   -1,843098179e-02    1,253161673e-02    5,944473743e-01   -1,411205716e-02    0,000000000e+00    0,000000000e+00    0,000000000e+00    0,000000000e+00
      870000000    1,699829823e-03   -1,136269793e-02    4,859674573e-01   -3,168590069e-01    0,000000000e+00    0,000000000e+00    0,000000000e+00    0,000000000e+00
      884000000    1,328491978e-02   -5,110419542e-02    2,428975105e-01   -5,117488503e-01    0,000000000e+00    0,000000000e+00    0,000000000e+00    0,000000000e+00
      898000000   -4,089931492e-03   -1,018624380e-01   -5,849486217e-02   -5,540562272e-01    0,000000000e+00    0,000000000e+00    0,000000000e+00    0,000000000e+00
      912000000   -6,202697381e-02   -1,324574649e-01   -3,853928447e-01   -4,103239179e-01    0,000000000e+00    0,000000000e+00    0,000000000e+00    0,000000000e+00
      926000000   -1,280024052e-01   -1,180462837e-01   -5,661475062e-01   -1,477699727e-01    0,000000000e+00    0,000000000e+00    0,000000000e+00    0,000000000e+00
      940000000   -1,651259959e-01   -6,349227577e-02   -5,694668889e-01    1,916418821e-01    0,000000000e+00    0,000000000e+00    0,000000000e+00    0,000000000e+00
      954000000   -1,476549953e-01    6,668168353e-04   -3,745586276e-01    4,847352505e-01    0,000000000e+00    0,000000000e+00    0,000000000e+00    0,000000000e+00
      968000000   -1,007380113e-01    2,345140465e-02   -5,233892426e-02    6,130195260e-01    0,000000000e+00    0,000000000e+00    0,000000000e+00    0,000000000e+00
      982000000   -5,428006873e-02    7,586166263e-03    2,812098265e-01    5,539128780e-01    0,000000000e+00    0,000000000e+00    0,000000000e+00    0,000000000e+00
      996000000   -4,535950720e-02   -3,104747087e-02    5,229101181e-01    3,281944394e-01    0,000000000e+00    0,000000000e+00    0,000000000e+00    0,000000000e+00
     1010000000   -6,064911559e-02   -6,539152563e-02    6,086257100e-01    1,572317444e-02    0,000000000e+00    0,000000000e+00    0,000000000e+00    0,000000000e+00
     1024000000   -9,866417199e-02   -7,518666983e-02    5,168181062e-01   -2,806861699e-01    0,000000000e+00    0,000000000e+00    0,000000000e+00    0,000000000e+00
     1038000000   -1,400857121e-01   -5,746858940e-02    2,946042418e-01   -4,715960622e-01    0,000000000e+00    0,000000000e+00    0,000000000e+00    0,000000000e+00
     1052000000   -1,491269469e-01    1,984731061e-03    3,513263538e-02   -5,242636204e-01    0,000000000e+00    0,000000000e+00    0,000000000e+00    0,000000000e+00
     1066000000   -1,064341515e-01    4,421359301e-02   -2,149619311e-01   -4,652280509e-01    0,000000000e+00    0,000000000e+00    0,000000000e+00    0,000000000e+00
     1080000000   -5,077094212e-02    2,596770041e-02   -4,189768434e-01   -2,967240512e-01    0,000000000e+00    0,000000000e+00    0,000000000e+00    0,000000000e+00
     1094000000   -3,708613291e-02   -8,111074567e-03   -5,239884853e-01   -2,257815748e-02    0,000000000e+00    0,000000000e+00    0,000000000e+00    0,000000000e+00
     1108000000   -3,355939314e-02   -3,471944481e-02   -4,437767565e-01    2,841243744e-01    0,000000000e+00    0,000000000e+00    0,000000000e+00    0,000000000e+00
     1122000000   -3,347071260e-02   -5,513240397e-02   -1,848483831e-01    4,954083860e-01    0,000000000e+00    0,000000000e+00    0,000000000e+00    0,000000000e+00
     1136000000   -4,168535024e-02   -9,258363396e-02    1,515700519e-01    5,199927092e-01    0,000000000e+00    0,000000000e+00    0,000000000e+00    0,000000000e+00
     1150000000   -8,165898174e-02   -1,244949326e-01    4,513388276e-01    3,436741531e-01    0,000000000e+00    0,000000000e+00    0,000000000e+00    0,000000000e+00
     1164000000   -1,362322718e-01   -1,192034334e-01    6,145226955e-01    1,290140860e-02    0,000000000e+00    0,000000000e+00    0,000000000e+00    0,000000000e+00
     1178000000   -1,752757728e-01   -8,811172843e-02    5,401431322e-01   -3,682453036e-01    0,000000000e+00    0,000000000e+00    0,000000000e+00    0,000000000e+00
     1192000000   -1,772944331e-01   -5,433059856e-02    2,417184711e-01   -6,381153464e-01    0,000000000e+00    0,000000000e+00    0,000000000e+00    0,000000000e+00
     1206000000   -1,871807128e-01   -5,483582616e-02   -1,448753774e-01   -6,606370211e-01    0,000000000e+00    0,000000000e+00    0,000000000e+00    0,000000000e+00
     1220000000   -2,547946870e-01   -1,538594440e-02   -4,222290218e-01   -4,797026813e-01    0,000000000e+00    0,000000000e+00    0,000000000e+00    0,000000000e+00
     1234000000   -2,431854308e-01    1,165024340e-01   -5,553761125e-01   -2,503108680e-01    0,000000000e+00    0,000000000e+00    0,000000000e+00    0,000000000e+00
     1248000000   -1,200038493e-01    1,731229722e-01   -6,079068780e-01    1,529726945e-02    0,000000000e+00    0,000000000e+00    0,000000000e+00    0,000000000e+00
     1262000000   -3,759771818e-03    1,270561367e-01   -5,037245750e-01    2,933771312e-01    0,000000000e+00    0,000000000e+00    0,000000000e+00    0,000000000e+00
     1276000000    6,570336968e-02    4,071706906e-02   -2,763261795e-01    4,865445793e-01    0,000000000e+00    0,000000000e+00    0,000000000e+00    0,000000000e+00
     1290000000    7,130859792e-02   -6,631954759e-02    2,745648846e-03    5,536449552e-01    0,000000000e+00    0,000000000e+00    0,000000000e+00    0,000000000e+00
     1304000000    1,647850871e-02   -1,790880710e-01    2,964991629e-01    4,808735549e-01    0,000000000e+00    0,000000000e+00    0,000000000e+00    0,000000000e+00
     1318000000   -8,983585984e-02   -2,525698841e-01    5,389869809e-01    2,738290727e-01    0,000000000e+00    0,000000000e+00    0,000000000e+00    0,000000000e+00
     1332000000   -2,436607927e-01   -2,451268137e-01    6,507259011e-01   -4,772420973e-02    0,000000000e+00    0,000000000e+00    0,000000000e+00    0,000000000e+00
     1346000000   -3,673518598e-01   -1,395981610e-01    5,491959453e-01   -4,059325755e-01    0,000000000e+00    0,000000000e+00    0,000000000e+00    0,000000000e+00
     1360000000   -3,819362223e-01    7,618478965e-03    2,676827610e-01   -6,340371370e-01    0,000000000e+00    0,000000000e+00    0,000000000e+00    0,000000000e+00
     1374000000   -3,293940127e-01    1,139157340e-01   -1,131188273e-01   -6,328566074e-01    0,000000000e+00    0,000000000e+00    0,000000000e+00    0,000000000e+00
     1388000000   -2,363500446e-01    1,694335639e-01   -3,754523993e-01   -4,147650003e-01    0,000000000e+00    0,000000000e+00    0,000000000e+00    0,000000000e+00
     1402000000   -1,517733335e-01    1,727990061e-01   -4,702285826e-01   -1,071836054e-01    0,000000000e+00    0,000000000e+00    0,000000000e+00    0,000000000e+00
     1416000000   -8,522753417e-02    1,415190697e-01   -3,924503922e-01    2,041459531e-01    0,000000000e+00    0,000000000e+00    0,000000000e+00    0,000000000e+00
     1430000000   -3,629374504e-02    8,863394707e-02   -1,691873223e-01    4,430697858e-01    0,000000000e+00    0,000000000e+00    0,000000000e+00    0,000000000e+00
     1444000000   -1,215321105e-02    8,820959367e-03    1,199513152e-01    5,333473086e-01    0,000000000e+00    0,000000000e+00    0,000000000e+00    0,000000000e+00
     1458000000   -4,455903172e-02   -7,674881071e-02    4,343117476e-01    5,008919835e-01    0,000000000e+00    0,000000000e+00    0,000000000e+00    0,000000000e+00
     1472000000   -1,174613684e-01   -1,488231272e-01    7,377762198e-01    3,055550456e-01    0,000000000e+00    0,000000000e+00    0,000000000e+00    0,000000000e+00
     1486000000   -2,295280844e-01   -1,412312686e-01    8,998371363e-01   -2,320166118e-02    0,000000000e+00    0,000000000e+00    0,000000000e+00    0,000000000e+00
     1500000000   -3,015867472e-01   -5,662179366e-02    8,471702933e-01   -4,166983962e-01    0,000000000e+00    0,000000000e+00    0,000000000e+00    0,000000000e+00
