! NanoVNA-App
! Date: 2025-09-25 14:58:37
! Start: 100MHz Stop: 1,5GHz Points: 101
! S-Parameter data: F S11 S21 S12 S22
# Hz S RI R 50
!     Frequency           S11_Real           S11_Imag           S21_Real           S21_Imag           S12_Real           S12_Imag           S22_Real           S22_Imag
      100000000    3,557564691e-02    2,735206112e-02    4,407361150e-01   -6,695505381e-01    0,000000000e+00    0,000000000e+00    0,000000000e+00    0,000000000e+00
      114000000    6,069679186e-02    2,148176078e-03    1,280349307e-02   -7,953025699e-01    0,000000000e+00    0,000000000e+00    0,000000000e+00    0,000000000e+00
      128000000    6,834498048e-02   -4,223414883e-02   -4,081215262e-01   -6,783055663e-01    0,000000000e+00    0,000000000e+00    0,000000000e+00    0,000000000e+00
      142000000    4,345330596e-02   -8,875083923e-02   -7,051699758e-01   -3,608824015e-01    0,000000000e+00    0,000000000e+00    0,000000000e+00    0,000000000e+00
      156000000   -8,636901155e-03   -1,103409901e-01   -7,942178845e-01    6,836095452e-02    0,000000000e+00    0,000000000e+00    0,000000000e+00    0,000000000e+00
      170000000   -6,260048598e-02   -9,180140495e-02   -6,370318532e-01    4,864894152e-01    0,000000000e+00    0,000000000e+00    0,000000000e+00    0,000000000e+00
      184000000   -8,857562393e-02   -4,768940061e-02   -2,732006013e-01    7,561494708e-01    0,000000000e+00    0,000000000e+00    0,000000000e+00    0,000000000e+00
      198000000   -8,273429424e-02   -6,451681722e-03    1,795827299e-01    7,820277810e-01    0,000000000e+00    0,000000000e+00    0,000000000e+00    0,000000000e+00
      212000000   -6,264600903e-02    1,801383495e-02    5,709117651e-01    5,583942533e-01    0,000000000e+00    0,000000000e+00    0,000000000e+00    0,000000000e+00
      226000000   -4,149571806e-02    3,176439181e-02    7,768154144e-01    1,618973911e-01    0,000000000e+00    0,000000000e+00    0,000000000e+00    0,000000000e+00
      240000000   -1,490471605e-02    4,124959931e-02    7,361272573e-01   -2,786618471e-01    0,000000000e+00    0,000000000e+00    0,000000000e+00    0,000000000e+00
      254000000    2,140532807e-02    3,634181246e-02    4,682142437e-01   -6,222885847e-01    0,000000000e+00    0,000000000e+00    0,000000000e+00    0,000000000e+00
      268000000    5,326268077e-02    4,673138261e-03    6,662219018e-02   -7,674436569e-01    0,000000000e+00    0,000000000e+00    0,000000000e+00    0,000000000e+00
      282000000    5,740787834e-02   -4,489175230e-02   -3,459253013e-01   -6,830208898e-01    0,000000000e+00    0,000000000e+00    0,000000000e+00    0,000000000e+00
      296000000    2,599820495e-02   -8,475276828e-02   -6,550927162e-01   -3,980214298e-01    0,000000000e+00    0,000000000e+00    0,000000000e+00    0,000000000e+00
      310000000   -1,914924011e-02   -8,955793083e-02   -7,730163932e-01    1,099174190e-02    0,000000000e+00    0,000000000e+00    0,000000000e+00    0,000000000e+00
      324000000   -4,640464857e-02   -6,352173537e-02   -6,473920345e-01    4,292159379e-01    0,000000000e+00    0,000000000e+00    0,000000000e+00    0,000000000e+00
      338000000   -4,107352719e-02   -3,788159415e-02   -3,093951046e-01    7,099038959e-01    0,000000000e+00    0,000000000e+00    0,000000000e+00    0,000000000e+00
      352000000   -2,357335389e-02   -3,779969737e-02    1,188267320e-01    7,577306628e-01    0,000000000e+00    0,000000000e+00    0,000000000e+00    0,000000000e+00
      366000000   -2,304899134e-02   -5,638209358e-02    5,037481189e-01    5,708631277e-01    0,000000000e+00    0,000000000e+00    0,000000000e+00    0,000000000e+00
      380000000   -4,474384710e-02   -6,550738215e-02    7,264507413e-01    2,112034261e-01    0,000000000e+00    0,000000000e+00    0,000000000e+00    0,000000000e+00
      394000000   -6,657271087e-02   -5,044014007e-02    7,220060825e-01   -2,136560380e-01    0,000000000e+00    0,000000000e+00    0,000000000e+00    0,000000000e+00
      408000000   -6,758940220e-02   -2,623241022e-02    4,895406365e-01   -5,679369569e-01    0,000000000e+00    0,000000000e+00    0,000000000e+00    0,000000000e+00
      422000000   -5,307533965e-02   -1,520855632e-02    1,057504714e-01   -7,377982140e-01    0,000000000e+00    0,000000000e+00    0,000000000e+00    0,000000000e+00
      436000000   -4,661319032e-02   -1,864301972e-02   -3,065905273e-01   -6,769092679e-01    0,000000000e+00    0,000000000e+00    0,000000000e+00    0,000000000e+00
      450000000   -5,225818232e-02   -1,495267730e-02   -6,189702749e-01   -3,999218047e-01    0,000000000e+00    0,000000000e+00    0,000000000e+00    0,000000000e+00
      464000000   -5,027223006e-02    5,809419323e-03   -7,296816707e-01    3,869893495e-03    0,000000000e+00    0,000000000e+00    0,000000000e+00    0,000000000e+00
      478000000   -2,071497031e-02    2,641416900e-02   -5,985509157e-01    3,974513710e-01    0,000000000e+00    0,000000000e+00    0,000000000e+00    0,000000000e+00
      492000000    2,827601880e-02    1,449475065e-02   -2,802647352e-01    6,437603235e-01    0,000000000e+00    0,000000000e+00    0,000000000e+00    0,000000000e+00
      506000000    5,911569670e-02   -3,783714399e-02    1,052796617e-01    6,799355149e-01    0,000000000e+00    0,000000000e+00    0,000000000e+00    0,000000000e+00
      520000000    4,375047982e-02   -1,024531052e-01    4,432469010e-01    5,167960525e-01    0,000000000e+00    0,000000000e+00    0,000000000e+00    0,000000000e+00
      534000000   -1,256109495e-02   -1,437202394e-01    6,496770978e-01    2,057549655e-01    0,000000000e+00    0,000000000e+00    0,000000000e+00    0,000000000e+00
      548000000   -8,184066415e-02   -1,399253756e-01    6,596650481e-01   -1,764744967e-01    0,000000000e+00    0,000000000e+00    0,000000000e+00    0,000000000e+00
      562000000   -1,316921860e-01   -9,799536318e-02    4,506059587e-01   -5,086200237e-01    0,000000000e+00    0,000000000e+00    0,000000000e+00    0,000000000e+00
      576000000   -1,495840698e-01   -3,868228197e-02    8,214833587e-02   -6,601885557e-01    0,000000000e+00    0,000000000e+00    0,000000000e+00    0,000000000e+00
      590000000   -1,297052205e-01    2,980159596e-02   -2,944129407e-01   -5,629919171e-01    0,000000000e+00    0,000000000e+00    0,000000000e+00    0,000000000e+00
      604000000   -3,688095510e-02    6,857231259e-02   -4,864713550e-01   -2,695737481e-01    0,000000000e+00    0,000000000e+00    0,000000000e+00    0,000000000e+00
      618000000    3,443496674e-02   -3,154628724e-02   -4,940371513e-01   -5,261513591e-02    0,000000000e+00    0,000000000e+00    0,000000000e+00    0,000000000e+00
      632000000   -5,409532040e-02   -9,185564518e-02   -5,272191763e-01    1,778075248e-01    0,000000000e+00    0,000000000e+00    0,000000000e+00    0,000000000e+00
      646000000   -9,920101613e-02   -3,311010450e-02   -3,790217638e-01    4,765743613e-01    0,000000000e+00    0,000000000e+00    0,000000000e+00    0,000000000e+00
      660000000   -6,823661178e-02    1,020136010e-02   -5,051642284e-02    6,269590855e-01    0,000000000e+00    0,000000000e+00    0,000000000e+00    0,000000000e+00
      674000000   -2,968159132e-02    5,257208832e-03    2,989373803e-01    5,535593033e-01    0,000000000e+00    0,000000000e+00    0,000000000e+00    0,000000000e+00
      688000000   -1,573586278e-02   -1,755052246e-02    5,473092794e-01    3,026547730e-01    0,000000000e+00    0,000000000e+00    0,000000000e+00    0,000000000e+00
      702000000   -1,497844793e-02   -3,471660614e-02    6,191023588e-01   -4,289549217e-02    0,000000000e+00    0,000000000e+00    0,000000000e+00    0,000000000e+00
      716000000   -1,040517166e-02   -4,899069667e-02    4,914399087e-01   -3,681255579e-01    0,000000000e+00    0,000000000e+00    0,000000000e+00    0,000000000e+00
      730000000   -7,756163366e-03   -7,413958758e-02    2,113364041e-01   -5,687232614e-01    0,000000000e+00    0,000000000e+00    0,000000000e+00    0,000000000e+00
      744000000   -2,639004774e-02   -1,107392311e-01   -1,240173951e-01   -5,871671438e-01    0,000000000e+00    0,000000000e+00    0,000000000e+00    0,000000000e+00
      758000000   -7,387432456e-02   -1,317929327e-01   -4,191256762e-01   -4,322610199e-01    0,000000000e+00    0,000000000e+00    0,000000000e+00    0,000000000e+00
      772000000   -1,351248175e-01   -1,164692640e-01   -5,939186811e-01   -1,400982589e-01    0,000000000e+00    0,000000000e+00    0,000000000e+00    0,000000000e+00
      786000000   -1,720566303e-01   -5,826751143e-02   -5,815845728e-01    2,099662125e-01    0,000000000e+00    0,000000000e+00    0,000000000e+00    0,000000000e+00
      800000000   -1,600880474e-01    6,712486502e-03   -3,727348447e-01    4,961154461e-01    0,000000000e+00    0,000000000e+00    0,000000000e+00    0,000000000e+00
      814000000   -1,152252480e-01    4,223162681e-02   -4,504551366e-02    6,156493425e-01    0,000000000e+00    0,000000000e+00    0,000000000e+00    0,000000000e+00
      828000000   -6,914228946e-02    4,446323588e-02    2,864187062e-01    5,395280719e-01    0,000000000e+00    0,000000000e+00    0,000000000e+00    0,000000000e+00
      842000000   -3,913621604e-02    2,963730693e-02    5,212735534e-01    3,050910830e-01    0,000000000e+00    0,000000000e+00    0,000000000e+00    0,000000000e+00
      856000000   -1,820601895e-02    1,226521097e-02    5,939126611e-01   -1,403986663e-02    0,000000000e+00    0,000000000e+00    0,000000000e+00    0,000000000e+00
      870000000    2,725731349e-03   -1,106883027e-02    4,867697060e-01   -3,164791167e-01    0,000000000e+00    0,000000000e+00    0,000000000e+00    0,000000000e+00
      884000000    1,363248657e-02   -5,130881444e-02    2,432954013e-01   -5,098891258e-01    0,000000000e+00    0,000000000e+00    0,000000000e+00    0,000000000e+00
      898000000   -3,840132384e-03   -1,016364992e-01   -5,805964768e-02   -5,531884432e-01    0,000000000e+00    0,000000000e+00    0,000000000e+00    0,000000000e+00
      912000000   -6,273712218e-02   -1,332423985e-01   -3,838267028e-01   -4,266731739e-01    0,000000000e+00    0,000000000e+00    0,000000000e+00    0,000000000e+00
      926000000   -1,253196895e-01   -1,197958738e-01   -5,649138689e-01   -1,485318840e-01    0,000000000e+00    0,000000000e+00    0,000000000e+00    0,000000000e+00
      940000000   -1,654096097e-01   -6,178411469e-02   -5,686337948e-01    1,920318305e-01    0,000000000e+00    0,000000000e+00    0,000000000e+00    0,000000000e+00
      954000000   -1,494254768e-01   -1,487073372e-03   -3,733928800e-01    4,818500578e-01    0,000000000e+00    0,000000000e+00    0,000000000e+00    0,000000000e+00
      968000000   -9,770011902e-02    2,177762426e-02   -5,099403113e-02    6,161472201e-01    0,000000000e+00    0,000000000e+00    0,000000000e+00    0,000000000e+00
      982000000   -5,609378964e-02    7,698824164e-03    2,811656594e-01    5,525583029e-01    0,000000000e+00    0,000000000e+00    0,000000000e+00    0,000000000e+00
      996000000   -4,053562880e-02   -3,292829171e-02    5,232922435e-01    3,269524574e-01    0,000000000e+00    0,000000000e+00    0,000000000e+00    0,000000000e+00
     1010000000   -6,515808403e-02   -6,634578109e-02    6,069197655e-01    1,442100480e-02    0,000000000e+00    0,000000000e+00    0,000000000e+00    0,000000000e+00
     1024000000   -9,943433106e-02   -7,513388246e-02    5,159731507e-01   -2,814944088e-01    0,000000000e+00    0,000000000e+00    0,000000000e+00    0,000000000e+00
     1038000000   -1,433920413e-01   -5,421554297e-02    2,930770814e-01   -4,703504145e-01    0,000000000e+00    0,000000000e+00    0,000000000e+00    0,000000000e+00
     1052000000   -1,497740000e-01   -4,157850519e-03    3,540331125e-02   -5,237894058e-01    0,000000000e+00    0,000000000e+00    0,000000000e+00    0,000000000e+00
     1066000000   -1,082042307e-01    3,924373165e-02   -2,068538219e-01   -4,630931318e-01    0,000000000e+00    0,000000000e+00    0,000000000e+00    0,000000000e+00
     1080000000   -5,444873124e-02    2,437462844e-02   -4,179333746e-01   -2,971653342e-01    0,000000000e+00    0,000000000e+00    0,000000000e+00    0,000000000e+00
     1094000000   -3,208025172e-02   -8,759125136e-03   -5,231519341e-01   -2,432908304e-02    0,000000000e+00    0,000000000e+00    0,000000000e+00    0,000000000e+00
     1108000000   -3,488346189e-02   -3,412481397e-02   -4,425628483e-01    2,842248678e-01    0,000000000e+00    0,000000000e+00    0,000000000e+00    0,000000000e+00
     1122000000   -2,760605514e-02   -5,476018786e-02   -1,848201603e-01    4,970638454e-01    0,000000000e+00    0,000000000e+00    0,000000000e+00    0,000000000e+00
     1136000000   -4,371890426e-02   -9,177915007e-02    1,531492323e-01    5,218124986e-01    0,000000000e+00    0,000000000e+00    0,000000000e+00    0,000000000e+00
     1150000000   -8,014637232e-02   -1,269870251e-01    4,537349641e-01    3,449031413e-01    0,000000000e+00    0,000000000e+00    0,000000000e+00    0,000000000e+00
     1164000000   -1,353318244e-01   -1,243180186e-01    6,089126468e-01    1,183042489e-02    0,000000000e+00    0,000000000e+00    0,000000000e+00    0,000000000e+00
     1178000000   -1,745566875e-01   -8,514954150e-02    5,383014083e-01   -3,720446527e-01    0,000000000e+00    0,000000000e+00    0,000000000e+00    0,000000000e+00
     1192000000   -1,778139025e-01   -5,060635507e-02    2,386491448e-01   -6,357925534e-01    0,000000000e+00    0,000000000e+00    0,000000000e+00    0,000000000e+00
     1206000000   -1,922517270e-01   -5,229292437e-02   -1,410697401e-01   -6,599336863e-01    0,000000000e+00    0,000000000e+00    0,000000000e+00    0,000000000e+00
     1220000000   -2,571613491e-01   -1,644077711e-02   -4,222548604e-01   -4,825982451e-01    0,000000000e+00    0,000000000e+00    0,000000000e+00    0,000000000e+00
     1234000000   -2,395412475e-01    1,113462523e-01   -5,529426336e-01   -2,475309819e-01    0,000000000e+00    0,000000000e+00    0,000000000e+00    0,000000000e+00
     1248000000   -1,143008173e-01    1,716701835e-01   -6,017669439e-01    1,660814881e-02    0,000000000e+00    0,000000000e+00    0,000000000e+00    0,000000000e+00
     1262000000   -2,326468239e-03    1,332679242e-01   -5,042970777e-01    2,957676649e-01    0,000000000e+00    0,000000000e+00    0,000000000e+00    0,000000000e+00
     1276000000    5,753101781e-02    4,010539874e-02   -2,822719216e-01    4,840582013e-01    0,000000000e+00    0,000000000e+00    0,000000000e+00    0,000000000e+00
     1290000000    7,025583833e-02   -7,150496542e-02    8,694642223e-03    5,458354354e-01    0,000000000e+00    0,000000000e+00    0,000000000e+00    0,000000000e+00
     1304000000    1,957771741e-02   -1,835498810e-01    2,950145900e-01    4,736467600e-01    0,000000000e+00    0,000000000e+00    0,000000000e+00    0,000000000e+00
     1318000000   -9,610530734e-02   -2,540323734e-01    5,369724035e-01    2,681942582e-01    0,000000000e+00    0,000000000e+00    0,000000000e+00    0,000000000e+00
     1332000000   -2,428799421e-01   -2,454376072e-01    6,588737369e-01   -5,099149048e-02    0,000000000e+00    0,000000000e+00    0,000000000e+00    0,000000000e+00
     1346000000   -3,632546961e-01   -1,399472505e-01    5,603809357e-01   -4,147174060e-01    0,000000000e+00    0,000000000e+00    0,000000000e+00    0,000000000e+00
     1360000000   -3,862972856e-01    6,166238803e-03    2,531235516e-01   -6,332378983e-01    0,000000000e+00    0,000000000e+00    0,000000000e+00    0,000000000e+00
     1374000000   -3,262833357e-01    1,234304905e-01   -1,092535704e-01   -6,222948432e-01    0,000000000e+00    0,000000000e+00    0,000000000e+00    0,000000000e+00
     1388000000   -2,362864763e-01    1,685544103e-01   -3,681797683e-01   -4,190015495e-01    0,000000000e+00    0,000000000e+00    0,000000000e+00    0,000000000e+00
     1402000000   -1,563261598e-01    1,694833487e-01   -4,779132009e-01   -1,034519523e-01    0,000000000e+00    0,000000000e+00    0,000000000e+00    0,000000000e+00
     1416000000   -8,675579727e-02    1,400389820e-01   -3,978685439e-01    2,037916034e-01    0,000000000e+00    0,000000000e+00    0,000000000e+00    0,000000000e+00
     1430000000   -3,725257888e-02    8,682428300e-02   -1,608881205e-01    4,326330721e-01    0,000000000e+00    0,000000000e+00    0,000000000e+00    0,000000000e+00
     1444000000   -1,233625133e-02    1,615961315e-03    1,208627895e-01    5,249807835e-01    0,000000000e+00    0,000000000e+00    0,000000000e+00    0,000000000e+00
     1458000000   -3,417681903e-02   -8,792161196e-02    4,388634861e-01    4,867933095e-01    0,000000000e+00    0,000000000e+00    0,000000000e+00    0,000000000e+00
     1472000000   -1,222234443e-01   -1,460663527e-01    7,413715720e-01    3,109981120e-01    0,000000000e+00    0,000000000e+00    0,000000000e+00    0,000000000e+00
     1486000000   -2,307529747e-01   -1,416747719e-01    9,063214660e-01   -4,380645975e-02    0,000000000e+00    0,000000000e+00    0,000000000e+00    0,000000000e+00
     1500000000   -3,036759496e-01   -6,646882743e-02    8,310330510e-01   -4,204762280e-01    0,000000000e+00    0,000000000e+00    0,000000000e+00    0,000000000e+00
