! NanoVNA-App
! Date: 2025-09-25 14:59:18
! Start: 100MHz Stop: 1,5GHz Points: 101
! S-Parameter data: F S11 S21 S12 S22
# Hz S RI R 50
!     Frequency           S11_Real           S11_Imag           S21_Real           S21_Imag           S12_Real           S12_Imag           S22_Real           S22_Imag
      100000000    3,558392450e-02    2,736591361e-02    4,407401979e-01   -6,695265174e-01    0,000000000e+00    0,000000000e+00    0,000000000e+00    0,000000000e+00
      114000000    6,068067998e-02    2,136721276e-03    1,281104982e-02   -7,953836918e-01    0,000000000e+00    0,000000000e+00    0,000000000e+00    0,000000000e+00
      128000000    6,838756055e-02   -4,221620038e-02   -4,083587825e-01   -6,783242226e-01    0,000000000e+00    0,000000000e+00    0,000000000e+00    0,000000000e+00
      142000000    4,350298643e-02   -8,881913871e-02   -7,053463459e-01   -3,611655235e-01    0,000000000e+00    0,000000000e+00    0,000000000e+00    0,000000000e+00
      156000000   -9,735734202e-03   -1,094063371e-01   -7,925491333e-01    6,698220968e-02    0,000000000e+00    0,000000000e+00    0,000000000e+00    0,000000000e+00
      170000000   -6,268819422e-02   -9,175114334e-02   -6,369100809e-01    4,862672091e-01    0,000000000e+00    0,000000000e+00    0,000000000e+00    0,000000000e+00
      184000000   -8,855445683e-02   -4,770864919e-02   -2,731111050e-01    7,562119961e-01    0,000000000e+00    0,000000000e+00    0,000000000e+00    0,000000000e+00
      198000000   -8,275852352e-02   -6,450638175e-03    1,794682443e-01    7,826017141e-01    0,000000000e+00    0,000000000e+00    0,000000000e+00    0,000000000e+00
      212000000   -6,268267334e-02    1,798036136e-02    5,706679225e-01    5,584203601e-01    0,000000000e+00    0,000000000e+00    0,000000000e+00    0,000000000e+00
      226000000   -4,142950103e-02    3,182871640e-02    7,767091990e-01    1,618030816e-01    0,000000000e+00    0,000000000e+00    0,000000000e+00    0,000000000e+00
      240000000   -1,492057275e-02    4,127677158e-02    7,362007499e-01   -2,787737846e-01    0,000000000e+00    0,000000000e+00    0,000000000e+00    0,000000000e+00
      254000000    2,137655020e-02    3,632947430e-02    4,678430557e-01   -6,222268939e-01    0,000000000e+00    0,000000000e+00    0,000000000e+00    0,000000000e+00
      268000000    5,326686054e-02    4,782598000e-03    6,688962877e-02   -7,672629356e-01    0,000000000e+00    0,000000000e+00    0,000000000e+00    0,000000000e+00
      282000000    5,742860585e-02   -4,488293827e-02   -3,456767499e-01   -6,826853752e-01    0,000000000e+00    0,000000000e+00    0,000000000e+00    0,000000000e+00
      296000000    2,604758367e-02   -8,468110859e-02   -6,551738381e-01   -3,980495334e-01    0,000000000e+00    0,000000000e+00    0,000000000e+00    0,000000000e+00
      310000000   -1,890127920e-02   -8,930164576e-02   -7,745084167e-01    9,859476238e-03    0,000000000e+00    0,000000000e+00    0,000000000e+00    0,000000000e+00
      324000000   -4,644346610e-02   -6,343618780e-02   -6,475529671e-01    4,292445481e-01    0,000000000e+00    0,000000000e+00    0,000000000e+00    0,000000000e+00
      338000000   -4,115614295e-02   -3,755407408e-02   -3,130484223e-01    7,090228796e-01    0,000000000e+00    0,000000000e+00    0,000000000e+00    0,000000000e+00
      352000000   -2,350505255e-02   -3,765075654e-02    1,192069799e-01    7,589107752e-01    0,000000000e+00    0,000000000e+00    0,000000000e+00    0,000000000e+00
      366000000   -2,284023166e-02   -5,611858517e-02    5,028459430e-01    5,717601180e-01    0,000000000e+00    0,000000000e+00    0,000000000e+00    0,000000000e+00
      380000000   -4,479481652e-02   -6,534771621e-02    7,266659141e-01    2,111486197e-01    0,000000000e+00    0,000000000e+00    0,000000000e+00    0,000000000e+00
      394000000   -6,662751734e-02   -5,071210861e-02    7,226240635e-01   -2,122835219e-01    0,000000000e+00    0,000000000e+00    0,000000000e+00    0,000000000e+00
      408000000   -6,770602614e-02   -2,609901875e-02    4,892944396e-01   -5,679180026e-01    0,000000000e+00    0,000000000e+00    0,000000000e+00    0,000000000e+00
      422000000   -5,317592248e-02   -1,535107195e-02    1,058944166e-01   -7,381268740e-01    0,000000000e+00    0,000000000e+00    0,000000000e+00    0,000000000e+00
      436000000   -4,651077837e-02   -1,870288886e-02   -3,067887723e-01   -6,756432056e-01    0,000000000e+00    0,000000000e+00    0,000000000e+00    0,000000000e+00
      450000000   -5,221229047e-02   -1,497823093e-02   -6,188098788e-01   -3,992140293e-01    0,000000000e+00    0,000000000e+00    0,000000000e+00    0,000000000e+00
      464000000   -5,036172643e-02    5,556919612e-03   -7,299185991e-01    3,458696418e-03    0,000000000e+00    0,000000000e+00    0,000000000e+00    0,000000000e+00
      478000000   -2,085601166e-02    2,669851854e-02   -5,989050865e-01    3,978125155e-01    0,000000000e+00    0,000000000e+00    0,000000000e+00    0,000000000e+00
      492000000    2,845899761e-02    1,464617904e-02   -2,801192999e-01    6,450999379e-01    0,000000000e+00    0,000000000e+00    0,000000000e+00    0,000000000e+00
      506000000    5,890327320e-02   -3,770978376e-02    1,051827148e-01    6,794468760e-01    0,000000000e+00    0,000000000e+00    0,000000000e+00    0,000000000e+00
      520000000    4,411862791e-02   -1,024026051e-01    4,415390790e-01    5,208102465e-01    0,000000000e+00    0,000000000e+00    0,000000000e+00    0,000000000e+00
      534000000   -1,289365906e-02   -1,439204365e-01    6,489890218e-01    2,055782825e-01    0,000000000e+00    0,000000000e+00    0,000000000e+00    0,000000000e+00
      548000000   -8,157551289e-02   -1,395412236e-01    6,603207588e-01   -1,760195494e-01    0,000000000e+00    0,000000000e+00    0,000000000e+00    0,000000000e+00
      562000000   -1,313284636e-01   -9,784935415e-02    4,505216777e-01   -5,083691478e-01    0,000000000e+00    0,000000000e+00    0,000000000e+00    0,000000000e+00
      576000000   -1,495475471e-01   -3,849436715e-02    8,188327402e-02   -6,601309776e-01    0,000000000e+00    0,000000000e+00    0,000000000e+00    0,000000000e+00
      590000000   -1,296442002e-01    2,965230495e-02   -2,978580594e-01   -5,627945662e-01    0,000000000e+00    0,000000000e+00    0,000000000e+00    0,000000000e+00
      604000000   -3,746432438e-02    6,856091321e-02   -4,876765013e-01   -2,691803873e-01    0,000000000e+00    0,000000000e+00    0,000000000e+00    0,000000000e+00
      618000000    3,454946727e-02   -3,056283854e-02   -4,937574267e-01   -5,128616467e-02    0,000000000e+00    0,000000000e+00    0,000000000e+00    0,000000000e+00
      632000000   -5,353999138e-02   -9,209262580e-02   -5,264878869e-01    1,775052100e-01    0,000000000e+00    0,000000000e+00    0,000000000e+00    0,000000000e+00
      646000000   -1,003628895e-01   -3,338619322e-02   -3,796609044e-01    4,778152406e-01    0,000000000e+00    0,000000000e+00    0,000000000e+00    0,000000000e+00
      660000000   -6,933832914e-02    9,622712620e-03   -5,174975842e-02    6,253429055e-01    0,000000000e+00    0,000000000e+00    0,000000000e+00    0,000000000e+00
      674000000   -3,015445545e-02    4,978128709e-03    2,985711396e-01    5,535492897e-01    0,000000000e+00    0,000000000e+00    0,000000000e+00    0,000000000e+00
      688000000   -1,518785954e-02   -1,853876561e-02    5,469471216e-01    3,025738299e-01    0,000000000e+00    0,000000000e+00    0,000000000e+00    0,000000000e+00
      702000000   -1,329934970e-02   -3,413216025e-02    6,220170259e-01   -4,467900470e-02    0,000000000e+00    0,000000000e+00    0,000000000e+00    0,000000000e+00
      716000000   -1,055750437e-02   -4,893511906e-02    4,916698933e-01   -3,685823381e-01    0,000000000e+00    0,000000000e+00    0,000000000e+00    0,000000000e+00
      730000000   -7,104225457e-03   -7,504864782e-02    2,107678205e-01   -5,676050782e-01    0,000000000e+00    0,000000000e+00    0,000000000e+00    0,000000000e+00
      744000000   -2,666345797e-02   -1,106613278e-01   -1,241306290e-01   -5,870917439e-01    0,000000000e+00    0,000000000e+00    0,000000000e+00    0,000000000e+00
      758000000   -7,390385121e-02   -1,321413815e-01   -4,204969704e-01   -4,324940443e-01    0,000000000e+00    0,000000000e+00    0,000000000e+00    0,000000000e+00
      772000000   -1,348355263e-01   -1,163031384e-01   -5,938197970e-01   -1,403683275e-01    0,000000000e+00    0,000000000e+00    0,000000000e+00    0,000000000e+00
      786000000   -1,712884903e-01   -5,897612125e-02   -5,813238025e-01    2,099282146e-01    0,000000000e+00    0,000000000e+00    0,000000000e+00    0,000000000e+00
      800000000   -1,602454334e-01    6,385115441e-03   -3,728881478e-01    4,957501292e-01    0,000000000e+00    0,000000000e+00    0,000000000e+00    0,000000000e+00
      814000000   -1,146922335e-01    4,212221876e-02   -4,614122584e-02    6,152685285e-01    0,000000000e+00    0,000000000e+00    0,000000000e+00    0,000000000e+00
      828000000   -6,917779893e-02    4,416162893e-02    2,860869765e-01    5,399651527e-01    0,000000000e+00    0,000000000e+00    0,000000000e+00    0,000000000e+00
      842000000   -3,853281960e-02    2,940529026e-02    5,211799145e-01    3,058669865e-01    0,000000000e+00    0,000000000e+00    0,000000000e+00    0,000000000e+00
      856000000   -1,872992888e-02    1,236437727e-02    5,943828225e-01   -1,367567014e-02    0,000000000e+00    0,000000000e+00    0,000000000e+00    0,000000000e+00
      870000000    1,667327597e-03   -1,081366185e-02    4,864276350e-01   -3,174564242e-01    0,000000000e+00    0,000000000e+00    0,000000000e+00    0,000000000e+00
      884000000    1,385504380e-02   -5,131234974e-02    2,429719865e-01   -5,119944811e-01    0,000000000e+00    0,000000000e+00    0,000000000e+00    0,000000000e+00
      898000000   -3,515913850e-03   -1,017222852e-01   -5,777874216e-02   -5,540295243e-01    0,000000000e+00    0,000000000e+00    0,000000000e+00    0,000000000e+00
      912000000   -6,296109408e-02   -1,331301033e-01   -3,871300220e-01   -4,108027220e-01    0,000000000e+00    0,000000000e+00    0,000000000e+00    0,000000000e+00
      926000000   -1,275411397e-01   -1,182168871e-01   -5,671330690e-01   -1,468287557e-01    0,000000000e+00    0,000000000e+00    0,000000000e+00    0,000000000e+00
      940000000   -1,619925946e-01   -6,365527213e-02   -5,671337247e-01    1,919016093e-01    0,000000000e+00    0,000000000e+00    0,000000000e+00    0,000000000e+00
      954000000   -1,469538808e-01    1,844268292e-03   -3,750775754e-01    4,841575325e-01    0,000000000e+00    0,000000000e+00    0,000000000e+00    0,000000000e+00
      968000000   -9,843350947e-02    2,610845864e-02   -5,257705227e-02    6,153261662e-01    0,000000000e+00    0,000000000e+00    0,000000000e+00    0,000000000e+00
      982000000   -5,287639052e-02    5,253574345e-03    2,812683284e-01    5,519143939e-01    0,000000000e+00    0,000000000e+00    0,000000000e+00    0,000000000e+00
      996000000   -4,111862928e-02   -3,208907694e-02    5,235477686e-01    3,275863826e-01    0,000000000e+00    0,000000000e+00    0,000000000e+00    0,000000000e+00
     1010000000   -6,471639872e-02   -6,277914345e-02    6,093201041e-01    1,522891875e-02    0,000000000e+00    0,000000000e+00    0,000000000e+00    0,000000000e+00
     1024000000   -1,025692523e-01   -7,816787809e-02    5,155982375e-01   -2,844263315e-01    0,000000000e+00    0,000000000e+00    0,000000000e+00    0,000000000e+00
     1038000000   -1,413004845e-01   -5,999040976e-02    2,952798307e-01   -4,718227088e-01    0,000000000e+00    0,000000000e+00    0,000000000e+00    0,000000000e+00
     1052000000   -1,509832293e-01   -3,536145901e-03    3,376294300e-02   -5,217680931e-01    0,000000000e+00    0,000000000e+00    0,000000000e+00    0,000000000e+00
     1066000000   -1,048182026e-01    4,312921688e-02   -2,129054070e-01   -4,654673636e-01    0,000000000e+00    0,000000000e+00    0,000000000e+00    0,000000000e+00
     1080000000   -5,175946280e-02    2,792836912e-02   -4,170894921e-01   -2,990244329e-01    0,000000000e+00    0,000000000e+00    0,000000000e+00    0,000000000e+00
     1094000000   -3,788939863e-02   -7,364646066e-03   -5,194894075e-01   -2,343596518e-02    0,000000000e+00    0,000000000e+00    0,000000000e+00    0,000000000e+00
     1108000000   -3,039521538e-02   -3,004927933e-02   -4,417346120e-01    2,835966349e-01    0,000000000e+00    0,000000000e+00    0,000000000e+00    0,000000000e+00
     1122000000   -2,821679786e-02   -5,946346745e-02   -1,867664754e-01    4,976649284e-01    0,000000000e+00    0,000000000e+00    0,000000000e+00    0,000000000e+00
     1136000000   -4,590542987e-02   -9,299227595e-02    1,519727856e-01    5,217486024e-01    0,000000000e+00    0,000000000e+00    0,000000000e+00    0,000000000e+00
     1150000000   -8,482943475e-02   -1,263552308e-01    4,548424780e-01    3,438810408e-01    0,000000000e+00    0,000000000e+00    0,000000000e+00    0,000000000e+00
     1164000000   -1,397103965e-01   -1,203228086e-01    6,056565642e-01    1,112576947e-02    0,000000000e+00    0,000000000e+00    0,000000000e+00    0,000000000e+00
     1178000000   -1,741713434e-01   -8,951707929e-02    5,426591039e-01   -3,706216812e-01    0,000000000e+00    0,000000000e+00    0,000000000e+00    0,000000000e+00
     1192000000   -1,842460781e-01   -5,481073633e-02    2,384440303e-01   -6,377894282e-01    0,000000000e+00    0,000000000e+00    0,000000000e+00    0,000000000e+00
     1206000000   -1,902086139e-01   -5,232138932e-02   -1,424539685e-01   -6,598882675e-01    0,000000000e+00    0,000000000e+00    0,000000000e+00    0,000000000e+00
     1220000000   -2,496990561e-01   -1,622772031e-02   -4,141340554e-01   -4,809162617e-01    0,000000000e+00    0,000000000e+00    0,000000000e+00    0,000000000e+00
     1234000000   -2,399581969e-01    1,178244203e-01   -5,593110323e-01   -2,477932125e-01    0,000000000e+00    0,000000000e+00    0,000000000e+00    0,000000000e+00
     1248000000   -1,144062951e-01    1,720302254e-01   -6,033864617e-01    1,346208900e-02    0,000000000e+00    0,000000000e+00    0,000000000e+00    0,000000000e+00
     1262000000   -2,654039534e-03    1,302259117e-01   -5,029181838e-01    2,916450799e-01    0,000000000e+00    0,000000000e+00    0,000000000e+00    0,000000000e+00
     1276000000    6,415539980e-02    4,407968745e-02   -2,811487019e-01    4,928371310e-01    0,000000000e+00    0,000000000e+00    0,000000000e+00    0,000000000e+00
     1290000000    6,960316747e-02   -7,318178564e-02    1,128752064e-02    5,438959599e-01    0,000000000e+00    0,000000000e+00    0,000000000e+00    0,000000000e+00
     1304000000    2,261156403e-02   -1,840783805e-01    3,000911176e-01    4,782893658e-01    0,000000000e+00    0,000000000e+00    0,000000000e+00    0,000000000e+00
     1318000000   -9,109237790e-02   -2,513796091e-01    5,400727987e-01    2,730478942e-01    0,000000000e+00    0,000000000e+00    0,000000000e+00    0,000000000e+00
     1332000000   -2,386900485e-01   -2,494650334e-01    6,576939821e-01   -5,454707146e-02    0,000000000e+00    0,000000000e+00    0,000000000e+00    0,000000000e+00
     1346000000   -3,654095829e-01   -1,386489123e-01    5,567008853e-01   -4,035129845e-01    0,000000000e+00    0,000000000e+00    0,000000000e+00    0,000000000e+00
     1360000000   -3,896777034e-01    4,299784545e-03    2,559543848e-01   -6,400966644e-01    0,000000000e+00    0,000000000e+00    0,000000000e+00    0,000000000e+00
     1374000000   -3,287234902e-01    1,251004487e-01   -1,044849455e-01   -6,214312911e-01    0,000000000e+00    0,000000000e+00    0,000000000e+00    0,000000000e+00
     1388000000   -2,357094884e-01    1,689039618e-01   -3,684377968e-01   -4,227692485e-01    0,000000000e+00    0,000000000e+00    0,000000000e+00    0,000000000e+00
     1402000000   -1,511298269e-01    1,761865169e-01   -4,821862876e-01   -1,150821969e-01    0,000000000e+00    0,000000000e+00    0,000000000e+00    0,000000000e+00
     1416000000   -8,347807080e-02    1,409686208e-01   -3,954005837e-01    1,927285939e-01    0,000000000e+00    0,000000000e+00    0,000000000e+00    0,000000000e+00
     1430000000   -3,469931334e-02    8,934190869e-02   -1,850633919e-01    4,230962396e-01    0,000000000e+00    0,000000000e+00    0,000000000e+00    0,000000000e+00
     1444000000   -1,901818998e-02    1,462624758e-03    1,192066222e-01    5,278314352e-01    0,000000000e+00    0,000000000e+00    0,000000000e+00    0,000000000e+00
     1458000000   -4,085514694e-02   -8,229581267e-02    4,364918768e-01    4,874936938e-01    0,000000000e+00    0,000000000e+00    0,000000000e+00    0,000000000e+00
     1472000000   -1,175765395e-01   -1,465552151e-01    7,535718083e-01    3,048225641e-01    0,000000000e+00    0,000000000e+00    0,000000000e+00    0,000000000e+00
     1486000000   -2,299275696e-01   -1,446252614e-01    9,132764339e-01   -4,594060406e-02    0,000000000e+00    0,000000000e+00    0,000000000e+00    0,000000000e+00
     1500000000   -3,075212836e-01   -6,277028471e-02    8,374571204e-01   -4,390061498e-01    0,000000000e+00    0,000000000e+00    0,000000000e+00    0,000000000e+00
