! NanoVNA-App
! Date: 2025-09-25 14:57:41
! Start: 100MHz Stop: 1,5GHz Points: 101
! S-Parameter data: F S11 S21 S12 S22
# Hz S RI R 50
!     Frequency           S11_Real           S11_Imag           S21_Real           S21_Imag           S12_Real           S12_Imag           S22_Real           S22_Imag
      100000000    3,558386862e-02    2,733158693e-02    4,407242239e-01   -6,694918871e-01    0,000000000e+00    0,000000000e+00    0,000000000e+00    0,000000000e+00
      114000000    6,069217250e-02    2,135502873e-03    1,274191495e-02   -7,953000069e-01    0,000000000e+00    0,000000000e+00    0,000000000e+00    0,000000000e+00
      128000000    6,837859005e-02   -4,221248999e-02   -4,083793461e-01   -6,782080531e-01    0,000000000e+00    0,000000000e+00    0,000000000e+00    0,000000000e+00
      142000000    4,350801557e-02   -8,877088875e-02   -7,051113844e-01   -3,609168828e-01    0,000000000e+00    0,000000000e+00    0,000000000e+00    0,000000000e+00
      156000000   -9,513008408e-03   -1,100974381e-01   -7,928199172e-01    6,798180938e-02    0,000000000e+00    0,000000000e+00    0,000000000e+00    0,000000000e+00
      170000000   -6,261715293e-02   -9,184375405e-02   -6,371180415e-01    4,863959551e-01    0,000000000e+00    0,000000000e+00    0,000000000e+00    0,000000000e+00
      184000000   -8,858313411e-02   -4,768671095e-02   -2,729338109e-01    7,561049461e-01    0,000000000e+00    0,000000000e+00    0,000000000e+00    0,000000000e+00
      198000000   -8,274830133e-02   -6,396021228e-03    1,797153056e-01    7,821774483e-01    0,000000000e+00    0,000000000e+00    0,000000000e+00    0,000000000e+00
      212000000   -6,273142248e-02    1,809981652e-02    5,706402063e-01    5,583282709e-01    0,000000000e+00    0,000000000e+00    0,000000000e+00    0,000000000e+00
      226000000   -4,147790372e-02    3,185215220e-02    7,766106725e-01    1,618591845e-01    0,000000000e+00    0,000000000e+00    0,000000000e+00    0,000000000e+00
      240000000   -1,484292373e-02    4,131265730e-02    7,360088229e-01   -2,787829638e-01    0,000000000e+00    0,000000000e+00    0,000000000e+00    0,000000000e+00
      254000000    2,148418501e-02    3,628740832e-02    4,677847326e-01   -6,218705177e-01    0,000000000e+00    0,000000000e+00    0,000000000e+00    0,000000000e+00
      268000000    5,337519944e-02    4,695819691e-03    6,683030725e-02   -7,673503160e-01    0,000000000e+00    0,000000000e+00    0,000000000e+00    0,000000000e+00
      282000000    5,748789385e-02   -4,498182610e-02   -3,456084430e-01   -6,825605035e-01    0,000000000e+00    0,000000000e+00    0,000000000e+00    0,000000000e+00
      296000000    2,606091462e-02   -8,468230069e-02   -6,550807357e-01   -3,977190256e-01    0,000000000e+00    0,000000000e+00    0,000000000e+00    0,000000000e+00
      310000000   -1,882585883e-02   -8,961272985e-02   -7,742204070e-01    1,124283392e-02    0,000000000e+00    0,000000000e+00    0,000000000e+00    0,000000000e+00
      324000000   -4,659621045e-02   -6,346469373e-02   -6,472044587e-01    4,292972684e-01    0,000000000e+00    0,000000000e+00    0,000000000e+00    0,000000000e+00
      338000000   -4,121003672e-02   -3,788943589e-02   -3,104455471e-01    7,079873085e-01    0,000000000e+00    0,000000000e+00    0,000000000e+00    0,000000000e+00
      352000000   -2,371088788e-02   -3,770457208e-02    1,185615510e-01    7,585520148e-01    0,000000000e+00    0,000000000e+00    0,000000000e+00    0,000000000e+00
      366000000   -2,322283015e-02   -5,607911199e-02    5,021916628e-01    5,720947385e-01    0,000000000e+00    0,000000000e+00    0,000000000e+00    0,000000000e+00
      380000000   -4,473884031e-02   -6,511031836e-02    7,262033820e-01    2,112825811e-01    0,000000000e+00    0,000000000e+00    0,000000000e+00    0,000000000e+00
      394000000   -6,632899493e-02   -5,051319301e-02    7,220600247e-01   -2,133975923e-01    0,000000000e+00    0,000000000e+00    0,000000000e+00    0,000000000e+00
      408000000   -6,733456254e-02   -2,639500611e-02    4,889761508e-01   -5,678707361e-01    0,000000000e+00    0,000000000e+00    0,000000000e+00    0,000000000e+00
      422000000   -5,285989121e-02   -1,537930407e-02    1,055217534e-01   -7,382439375e-01    0,000000000e+00    0,000000000e+00    0,000000000e+00    0,000000000e+00
      436000000   -4,578813165e-02   -1,888830774e-02   -3,055381179e-01   -6,759149432e-01    0,000000000e+00    0,000000000e+00    0,000000000e+00    0,000000000e+00
      450000000   -5,214964226e-02   -1,545693818e-02   -6,193058491e-01   -3,997432888e-01    0,000000000e+00    0,000000000e+00    0,000000000e+00    0,000000000e+00
      464000000   -5,085270852e-02    5,619793665e-03   -7,298462391e-01    3,205010900e-03    0,000000000e+00    0,000000000e+00    0,000000000e+00    0,000000000e+00
      478000000   -2,130510285e-02    2,578042261e-02   -5,989232063e-01    3,964233100e-01    0,000000000e+00    0,000000000e+00    0,000000000e+00    0,000000000e+00
      492000000    2,756034210e-02    1,452092919e-02   -2,806835473e-01    6,432479024e-01    0,000000000e+00    0,000000000e+00    0,000000000e+00    0,000000000e+00
      506000000    5,772964656e-02   -3,632321954e-02    1,031510755e-01    6,806302071e-01    0,000000000e+00    0,000000000e+00    0,000000000e+00    0,000000000e+00
      520000000    4,376691580e-02   -1,012972668e-01    4,399619401e-01    5,178053975e-01    0,000000000e+00    0,000000000e+00    0,000000000e+00    0,000000000e+00
      534000000   -1,229307707e-02   -1,417519450e-01    6,495214105e-01    2,076377124e-01    0,000000000e+00    0,000000000e+00    0,000000000e+00    0,000000000e+00
      548000000   -7,865426689e-02   -1,379197985e-01    6,619157791e-01   -1,736943424e-01    0,000000000e+00    0,000000000e+00    0,000000000e+00    0,000000000e+00
      562000000   -1,259825826e-01   -9,871238470e-02    4,559713304e-01   -5,082889795e-01    0,000000000e+00    0,000000000e+00    0,000000000e+00    0,000000000e+00
      576000000   -1,435075402e-01   -4,572267085e-02    9,052371979e-02   -6,661998034e-01    0,000000000e+00    0,000000000e+00    0,000000000e+00    0,000000000e+00
      590000000   -1,347905099e-01    1,199959498e-02   -2,963854969e-01   -5,816348791e-01    0,000000000e+00    0,000000000e+00    0,000000000e+00    0,000000000e+00
      604000000   -7,368965447e-02    6,730008125e-02   -5,279176831e-01   -2,804722786e-01    0,000000000e+00    0,000000000e+00    0,000000000e+00    0,000000000e+00
      618000000    3,702957556e-02    2,661645971e-02   -5,023217797e-01    1,636672765e-02    0,000000000e+00    0,000000000e+00    0,000000000e+00    0,000000000e+00
      632000000   -2,336688776e-04   -1,042543203e-01   -4,632532597e-01    1,717698425e-01    0,000000000e+00    0,000000000e+00    0,000000000e+00    0,000000000e+00
      646000000   -1,040591896e-01   -6,818228215e-02   -3,803243935e-01    4,387149215e-01    0,000000000e+00    0,000000000e+00    0,000000000e+00    0,000000000e+00
      660000000   -8,845180273e-02    3,090090118e-03   -7,123051584e-02    6,165543199e-01    0,000000000e+00    0,000000000e+00    0,000000000e+00    0,000000000e+00
      674000000   -4,113636166e-02    1,196950395e-02    2,861858904e-01    5,600176454e-01    0,000000000e+00    0,000000000e+00    0,000000000e+00    0,000000000e+00
      688000000   -1,645855792e-02   -9,291847236e-03    5,436965227e-01    3,117396533e-01    0,000000000e+00    0,000000000e+00    0,000000000e+00    0,000000000e+00
      702000000   -1,004376076e-02   -2,881912142e-02    6,214702129e-01   -3,575160354e-02    0,000000000e+00    0,000000000e+00    0,000000000e+00    0,000000000e+00
      716000000   -5,170912948e-03   -4,781961441e-02    4,960195720e-01   -3,645750582e-01    0,000000000e+00    0,000000000e+00    0,000000000e+00    0,000000000e+00
      730000000   -2,881000983e-03   -7,754871994e-02    2,169012427e-01   -5,679400563e-01    0,000000000e+00    0,000000000e+00    0,000000000e+00    0,000000000e+00
      744000000   -2,507787943e-02   -1,143821552e-01   -1,197518855e-01   -5,907093883e-01    0,000000000e+00    0,000000000e+00    0,000000000e+00    0,000000000e+00
      758000000   -7,656656206e-02   -1,367858797e-01   -4,185977280e-01   -4,380612373e-01    0,000000000e+00    0,000000000e+00    0,000000000e+00    0,000000000e+00
      772000000   -1,391453147e-01   -1,165575981e-01   -5,962318778e-01   -1,437385380e-01    0,000000000e+00    0,000000000e+00    0,000000000e+00    0,000000000e+00
      786000000   -1,758647710e-01   -5,714562535e-02   -5,859807134e-01    2,093478888e-01    0,000000000e+00    0,000000000e+00    0,000000000e+00    0,000000000e+00
      800000000   -1,609764695e-01    9,951027110e-03   -3,762239218e-01    4,979124963e-01    0,000000000e+00    0,000000000e+00    0,000000000e+00    0,000000000e+00
      814000000   -1,124785021e-01    4,625052214e-02   -4,607221484e-02    6,179509163e-01    0,000000000e+00    0,000000000e+00    0,000000000e+00    0,000000000e+00
      828000000   -6,438195705e-02    4,450843483e-02    2,877957225e-01    5,432368517e-01    0,000000000e+00    0,000000000e+00    0,000000000e+00    0,000000000e+00
      842000000   -3,579276800e-02    2,682547830e-02    5,226151943e-01    3,068209887e-01    0,000000000e+00    0,000000000e+00    0,000000000e+00    0,000000000e+00
      856000000   -1,806356385e-02    7,889956236e-03    5,969786048e-01   -1,410931163e-02    0,000000000e+00    0,000000000e+00    0,000000000e+00    0,000000000e+00
      870000000   -9,292884497e-04   -1,379774977e-02    4,887237549e-01   -3,186389804e-01    0,000000000e+00    0,000000000e+00    0,000000000e+00    0,000000000e+00
      884000000    9,108813480e-03   -5,071398243e-02    2,412580997e-01   -5,143342614e-01    0,000000000e+00    0,000000000e+00    0,000000000e+00    0,000000000e+00
      898000000   -6,659044884e-03   -9,864798933e-02   -6,022372469e-02   -5,585342646e-01    0,000000000e+00    0,000000000e+00    0,000000000e+00    0,000000000e+00
      912000000   -6,119924411e-02   -1,291355193e-01   -3,903478980e-01   -4,120360613e-01    0,000000000e+00    0,000000000e+00    0,000000000e+00    0,000000000e+00
      926000000   -1,241016015e-01   -1,150104702e-01   -5,701162219e-01   -1,461252719e-01    0,000000000e+00    0,000000000e+00    0,000000000e+00    0,000000000e+00
      940000000   -1,571322083e-01   -6,475367397e-02   -5,691930056e-01    1,929463148e-01    0,000000000e+00    0,000000000e+00    0,000000000e+00    0,000000000e+00
      954000000   -1,437158138e-01   -2,670474118e-03   -3,740269542e-01    4,839515090e-01    0,000000000e+00    0,000000000e+00    0,000000000e+00    0,000000000e+00
      968000000   -1,012798920e-01    2,214749902e-02   -5,080499873e-02    6,173427105e-01    0,000000000e+00    0,000000000e+00    0,000000000e+00    0,000000000e+00
      982000000   -6,062021852e-02    6,364991423e-03    2,824570835e-01    5,538089871e-01    0,000000000e+00    0,000000000e+00    0,000000000e+00    0,000000000e+00
      996000000   -4,525712505e-02   -3,100755997e-02    5,254585147e-01    3,282798827e-01    0,000000000e+00    0,000000000e+00    0,000000000e+00    0,000000000e+00
     1010000000   -6,264093518e-02   -5,826154724e-02    6,077935696e-01    1,281266101e-02    0,000000000e+00    0,000000000e+00    0,000000000e+00    0,000000000e+00
     1024000000   -9,734593332e-02   -7,064229995e-02    5,122501254e-01   -2,865700126e-01    0,000000000e+00    0,000000000e+00    0,000000000e+00    0,000000000e+00
     1038000000   -1,322511584e-01   -5,713942274e-02    2,918062508e-01   -4,716037214e-01    0,000000000e+00    0,000000000e+00    0,000000000e+00    0,000000000e+00
     1052000000   -1,496954560e-01   -9,211747907e-03    3,220309317e-02   -5,271477699e-01    0,000000000e+00    0,000000000e+00    0,000000000e+00    0,000000000e+00
     1066000000   -1,153868064e-01    3,050674126e-02   -2,190089673e-01   -4,638417959e-01    0,000000000e+00    0,000000000e+00    0,000000000e+00    0,000000000e+00
     1080000000   -6,230684742e-02    3,346160427e-02   -4,199784994e-01   -2,922548950e-01    0,000000000e+00    0,000000000e+00    0,000000000e+00    0,000000000e+00
     1094000000   -3,705501556e-02    4,694583360e-03   -5,142899752e-01   -1,919801347e-02    0,000000000e+00    0,000000000e+00    0,000000000e+00    0,000000000e+00
     1108000000   -2,536916919e-02   -2,699465491e-02   -4,356994629e-01    2,837013304e-01    0,000000000e+00    0,000000000e+00    0,000000000e+00    0,000000000e+00
     1122000000   -2,428703941e-02   -5,534822866e-02   -1,828159094e-01    4,890635610e-01    0,000000000e+00    0,000000000e+00    0,000000000e+00    0,000000000e+00
     1136000000   -4,201382026e-02   -1,003224999e-01    1,493366957e-01    5,168526173e-01    0,000000000e+00    0,000000000e+00    0,000000000e+00    0,000000000e+00
     1150000000   -8,300109953e-02   -1,287844926e-01    4,465920031e-01    3,402345479e-01    0,000000000e+00    0,000000000e+00    0,000000000e+00    0,000000000e+00
     1164000000   -1,433841735e-01   -1,257352531e-01    6,077056527e-01    1,289717387e-02    0,000000000e+00    0,000000000e+00    0,000000000e+00    0,000000000e+00
     1178000000   -1,791613698e-01   -8,351687342e-02    5,388408303e-01   -3,679697514e-01    0,000000000e+00    0,000000000e+00    0,000000000e+00    0,000000000e+00
     1192000000   -1,838166565e-01   -5,013978481e-02    2,432363629e-01   -6,285355687e-01    0,000000000e+00    0,000000000e+00    0,000000000e+00    0,000000000e+00
     1206000000   -1,900772899e-01   -5,146563798e-02   -1,321116686e-01   -6,613156796e-01    0,000000000e+00    0,000000000e+00    0,000000000e+00    0,000000000e+00
     1220000000   -2,522929311e-01   -9,529335424e-03   -4,157614112e-01   -4,847482145e-01    0,000000000e+00    0,000000000e+00    0,000000000e+00    0,000000000e+00
     1234000000   -2,427592874e-01    1,151071340e-01   -5,623679757e-01   -2,500394881e-01    0,000000000e+00    0,000000000e+00    0,000000000e+00    0,000000000e+00
     1248000000   -1,204900667e-01    1,738297939e-01   -6,082365513e-01    1,757835969e-02    0,000000000e+00    0,000000000e+00    0,000000000e+00    0,000000000e+00
     1262000000   -3,554911818e-03    1,290756017e-01   -5,031622052e-01    2,927711308e-01    0,000000000e+00    0,000000000e+00    0,000000000e+00    0,000000000e+00
     1276000000    6,291879714e-02    3,936196119e-02   -2,745100558e-01    4,840350449e-01    0,000000000e+00    0,000000000e+00    0,000000000e+00    0,000000000e+00
     1290000000    7,043273002e-02   -7,447931916e-02    4,697702359e-03    5,439313650e-01    0,000000000e+00    0,000000000e+00    0,000000000e+00    0,000000000e+00
     1304000000    2,095480077e-02   -1,841228008e-01    2,979179621e-01    4,754275680e-01    0,000000000e+00    0,000000000e+00    0,000000000e+00    0,000000000e+00
     1318000000   -9,308764338e-02   -2,524151504e-01    5,392444730e-01    2,713213861e-01    0,000000000e+00    0,000000000e+00    0,000000000e+00    0,000000000e+00
     1332000000   -2,439716458e-01   -2,389032245e-01    6,513528228e-01   -4,825409129e-02    0,000000000e+00    0,000000000e+00    0,000000000e+00    0,000000000e+00
     1346000000   -3,601491451e-01   -1,403208971e-01    5,533030033e-01   -4,054462016e-01    0,000000000e+00    0,000000000e+00    0,000000000e+00    0,000000000e+00
     1360000000   -3,859792948e-01    8,166776039e-03    2,605578899e-01   -6,374799609e-01    0,000000000e+00    0,000000000e+00    0,000000000e+00    0,000000000e+00
     1374000000   -3,268790245e-01    1,222204939e-01   -1,010750607e-01   -6,160454750e-01    0,000000000e+00    0,000000000e+00    0,000000000e+00    0,000000000e+00
     1388000000   -2,378181070e-01    1,712085754e-01   -3,814058602e-01   -4,152316749e-01    0,000000000e+00    0,000000000e+00    0,000000000e+00    0,000000000e+00
     1402000000   -1,535815448e-01    1,772504002e-01   -4,707269669e-01   -9,965697676e-02    0,000000000e+00    0,000000000e+00    0,000000000e+00    0,000000000e+00
     1416000000   -8,008707315e-02    1,444094926e-01   -3,976068199e-01    2,018832862e-01    0,000000000e+00    0,000000000e+00    0,000000000e+00    0,000000000e+00
     1430000000   -2,856848948e-02    8,540176600e-02   -1,803236455e-01    4,052797854e-01    0,000000000e+00    0,000000000e+00    0,000000000e+00    0,000000000e+00
     1444000000   -7,834101096e-03    4,881035071e-03    1,269272417e-01    5,233121514e-01    0,000000000e+00    0,000000000e+00    0,000000000e+00    0,000000000e+00
     1458000000   -3,731219098e-02   -8,658574522e-02    4,429272711e-01    4,859392643e-01    0,000000000e+00    0,000000000e+00    0,000000000e+00    0,000000000e+00
     1472000000   -1,192519590e-01   -1,503230780e-01    7,206690311e-01    2,995598018e-01    0,000000000e+00    0,000000000e+00    0,000000000e+00    0,000000000e+00
     1486000000   -2,327252477e-01   -1,381604075e-01    8,891997337e-01   -2,363050915e-02    0,000000000e+00    0,000000000e+00    0,000000000e+00    0,000000000e+00
     1500000000   -3,085373938e-01   -6,696089357e-02    8,350125551e-01   -4,199482501e-01    0,000000000e+00    0,000000000e+00    0,000000000e+00    0,000000000e+00
