! NanoVNA-App
! Date: 2025-09-25 14:57:24
! Start: 100MHz Stop: 1,5GHz Points: 101
! S-Parameter data: F S11 S21 S12 S22
# Hz S RI R 50
!     Frequency           S11_Real           S11_Imag           S21_Real           S21_Imag           S12_Real           S12_Imag           S22_Real           S22_Imag
      100000000    3,563050926e-02    2,732577547e-02    4,406677186e-01   -6,695039868e-01    0,000000000e+00    0,000000000e+00    0,000000000e+00    0,000000000e+00
      114000000    6,074671820e-02    2,166833030e-03    1,282435469e-02   -7,953906655e-01    0,000000000e+00    0,000000000e+00    0,000000000e+00    0,000000000e+00
      128000000    6,834004074e-02   -4,222395644e-02   -4,080765545e-01   -6,779296398e-01    0,000000000e+00    0,000000000e+00    0,000000000e+00    0,000000000e+00
      142000000    4,348566011e-02   -8,872468024e-02   -7,051268816e-01   -3,606411517e-01    0,000000000e+00    0,000000000e+00    0,000000000e+00    0,000000000e+00
      156000000   -9,491620585e-03   -1,094433144e-01   -7,928274870e-01    6,696844101e-02    0,000000000e+00    0,000000000e+00    0,000000000e+00    0,000000000e+00
      170000000   -6,259191781e-02   -9,173310548e-02   -6,368494034e-01    4,863134623e-01    0,000000000e+00    0,000000000e+00    0,000000000e+00    0,000000000e+00
      184000000   -8,848239481e-02   -4,762291536e-02   -2,732097208e-01    7,560119033e-01    0,000000000e+00    0,000000000e+00    0,000000000e+00    0,000000000e+00
      198000000   -8,267287165e-02   -6,379514467e-03    1,796927005e-01    7,825049758e-01    0,000000000e+00    0,000000000e+00    0,000000000e+00    0,000000000e+00
      212000000   -6,262068450e-02    1,813342609e-02    5,705908537e-01    5,580186844e-01    0,000000000e+00    0,000000000e+00    0,000000000e+00    0,000000000e+00
      226000000   -4,132596776e-02    3,189602494e-02    7,766809464e-01    1,617244929e-01    0,000000000e+00    0,000000000e+00    0,000000000e+00    0,000000000e+00
      240000000   -1,476312894e-02    4,129050672e-02    7,359272242e-01   -2,787816823e-01    0,000000000e+00    0,000000000e+00    0,000000000e+00    0,000000000e+00
      254000000    2,151144296e-02    3,620710596e-02    4,679009020e-01   -6,220028400e-01    0,000000000e+00    0,000000000e+00    0,000000000e+00    0,000000000e+00
      268000000    5,340417475e-02    4,579748958e-03    6,673727185e-02   -7,665516734e-01    0,000000000e+00    0,000000000e+00    0,000000000e+00    0,000000000e+00
      282000000    5,745999888e-02   -4,509275034e-02   -3,456063569e-01   -6,828536391e-01    0,000000000e+00    0,000000000e+00    0,000000000e+00    0,000000000e+00
      296000000    2,607733011e-02   -8,482580632e-02   -6,546809673e-01   -3,974163830e-01    0,000000000e+00    0,000000000e+00    0,000000000e+00    0,000000000e+00
      310000000   -1,904690266e-02   -8,940903842e-02   -7,728635669e-01    1,014604792e-02    0,000000000e+00    0,000000000e+00    0,000000000e+00    0,000000000e+00
      324000000   -4,655821994e-02   -6,348107010e-02   -6,471086144e-01    4,297268987e-01    0,000000000e+00    0,000000000e+00    0,000000000e+00    0,000000000e+00
      338000000   -4,143192992e-02   -3,767374903e-02   -3,102776110e-01    7,076609731e-01    0,000000000e+00    0,000000000e+00    0,000000000e+00    0,000000000e+00
      352000000   -2,341219410e-02   -3,779590875e-02    1,195893660e-01    7,579672337e-01    0,000000000e+00    0,000000000e+00    0,000000000e+00    0,000000000e+00
      366000000   -2,291205525e-02   -5,566119775e-02    5,029240251e-01    5,721538067e-01    0,000000000e+00    0,000000000e+00    0,000000000e+00    0,000000000e+00
      380000000   -4,449604079e-02   -6,481302530e-02    7,256831527e-01    2,112631947e-01    0,000000000e+00    0,000000000e+00    0,000000000e+00    0,000000000e+00
      394000000   -6,612252444e-02   -5,053422973e-02    7,234051228e-01   -2,133933455e-01    0,000000000e+00    0,000000000e+00    0,000000000e+00    0,000000000e+00
      408000000   -6,688224524e-02   -2,641266212e-02    4,903990328e-01   -5,683069229e-01    0,000000000e+00    0,000000000e+00    0,000000000e+00    0,000000000e+00
      422000000   -5,303942785e-02   -1,560303662e-02    1,065025553e-01   -7,379311919e-01    0,000000000e+00    0,000000000e+00    0,000000000e+00    0,000000000e+00
      436000000   -4,583358392e-02   -1,873184182e-02   -3,048119247e-01   -6,756900549e-01    0,000000000e+00    0,000000000e+00    0,000000000e+00    0,000000000e+00
      450000000   -5,204609782e-02   -1,538579911e-02   -6,191356182e-01   -3,994619548e-01    0,000000000e+00    0,000000000e+00    0,000000000e+00    0,000000000e+00
      464000000   -5,027151853e-02    4,985502921e-03   -7,293249369e-01    2,864205744e-03    0,000000000e+00    0,000000000e+00    0,000000000e+00    0,000000000e+00
      478000000   -2,072026208e-02    2,594477497e-02   -5,986793041e-01    3,963318765e-01    0,000000000e+00    0,000000000e+00    0,000000000e+00    0,000000000e+00
      492000000    2,715307660e-02    1,459289156e-02   -2,808198631e-01    6,439903378e-01    0,000000000e+00    0,000000000e+00    0,000000000e+00    0,000000000e+00
      506000000    5,771091580e-02   -3,656909987e-02    1,036021337e-01    6,805610061e-01    0,000000000e+00    0,000000000e+00    0,000000000e+00    0,000000000e+00
      520000000    4,295849055e-02   -1,014813706e-01    4,400123954e-01    5,141592622e-01    0,000000000e+00    0,000000000e+00    0,000000000e+00    0,000000000e+00
      534000000   -1,195333339e-02   -1,420692652e-01    6,497414708e-01    2,071809769e-01    0,000000000e+00    0,000000000e+00    0,000000000e+00    0,000000000e+00
      548000000   -7,923457772e-02   -1,379643828e-01    6,612902284e-01   -1,737011373e-01    0,000000000e+00    0,000000000e+00    0,000000000e+00    0,000000000e+00
      562000000   -1,261000931e-01   -9,885427356e-02    4,556433260e-01   -5,078141689e-01    0,000000000e+00    0,000000000e+00    0,000000000e+00    0,000000000e+00
      576000000   -1,438546479e-01   -4,602834955e-02    8,986639977e-02   -6,657314301e-01    0,000000000e+00    0,000000000e+00    0,000000000e+00    0,000000000e+00
      590000000   -1,345590949e-01    1,235761680e-02   -2,953217030e-01   -5,804128647e-01    0,000000000e+00    0,000000000e+00    0,000000000e+00    0,000000000e+00
      604000000   -7,346314937e-02    6,754181534e-02   -5,278457403e-01   -2,807811797e-01    0,000000000e+00    0,000000000e+00    0,000000000e+00    0,000000000e+00
      618000000    3,680828586e-02    2,525619604e-02   -5,019761324e-01    1,443488803e-02    0,000000000e+00    0,000000000e+00    0,000000000e+00    0,000000000e+00
      632000000   -2,001728863e-03   -1,035323441e-01   -4,660273790e-01    1,718547493e-01    0,000000000e+00    0,000000000e+00    0,000000000e+00    0,000000000e+00
      646000000   -1,033283249e-01   -6,647969782e-02   -3,793371022e-01    4,399544895e-01    0,000000000e+00    0,000000000e+00    0,000000000e+00    0,000000000e+00
      660000000   -8,821777999e-02    2,589225303e-03   -7,121075690e-02    6,150737405e-01    0,000000000e+00    0,000000000e+00    0,000000000e+00    0,000000000e+00
      674000000   -4,088856652e-02    1,252934244e-02    2,870304883e-01    5,591125488e-01    0,000000000e+00    0,000000000e+00    0,000000000e+00    0,000000000e+00
      688000000   -1,705467887e-02   -9,074970149e-03    5,443872213e-01    3,112873733e-01    0,000000000e+00    0,000000000e+00    0,000000000e+00    0,000000000e+00
      702000000   -1,090108883e-02   -2,922384813e-02    6,237102151e-01   -3,517569974e-02    0,000000000e+00    0,000000000e+00    0,000000000e+00    0,000000000e+00
      716000000   -4,809925798e-03   -4,805797338e-02    4,960239530e-01   -3,648723960e-01    0,000000000e+00    0,000000000e+00    0,000000000e+00    0,000000000e+00
      730000000   -3,779447870e-03   -7,649642229e-02    2,166995555e-01   -5,677016973e-01    0,000000000e+00    0,000000000e+00    0,000000000e+00    0,000000000e+00
      744000000   -2,536789887e-02   -1,147470623e-01   -1,188614517e-01   -5,908519626e-01    0,000000000e+00    0,000000000e+00    0,000000000e+00    0,000000000e+00
      758000000   -7,659580559e-02   -1,367866695e-01   -4,197019041e-01   -4,374828637e-01    0,000000000e+00    0,000000000e+00    0,000000000e+00    0,000000000e+00
      772000000   -1,387265921e-01   -1,166161373e-01   -5,967035890e-01   -1,434401423e-01    0,000000000e+00    0,000000000e+00    0,000000000e+00    0,000000000e+00
      786000000   -1,757467389e-01   -5,647871643e-02   -5,855828524e-01    2,096304595e-01    0,000000000e+00    0,000000000e+00    0,000000000e+00    0,000000000e+00
      800000000   -1,609213203e-01    1,051271427e-02   -3,760717809e-01    4,978123307e-01    0,000000000e+00    0,000000000e+00    0,000000000e+00    0,000000000e+00
      814000000   -1,119291186e-01    4,648035765e-02   -4,653395712e-02    6,178044081e-01    0,000000000e+00    0,000000000e+00    0,000000000e+00    0,000000000e+00
      828000000   -6,481909007e-02    4,444961622e-02    2,870000303e-01    5,427244902e-01    0,000000000e+00    0,000000000e+00    0,000000000e+00    0,000000000e+00
      842000000   -3,551877663e-02    2,621387132e-02    5,233628154e-01    3,069511354e-01    0,000000000e+00    0,000000000e+00    0,000000000e+00    0,000000000e+00
      856000000   -1,809602045e-02    8,228503168e-03    5,970138907e-01   -1,515073609e-02    0,000000000e+00    0,000000000e+00    0,000000000e+00    0,000000000e+00
      870000000   -9,722093819e-04   -1,374922693e-02    4,881706238e-01   -3,192561269e-01    0,000000000e+00    0,000000000e+00    0,000000000e+00    0,000000000e+00
      884000000    8,985456079e-03   -5,155348778e-02    2,423853725e-01   -5,152501464e-01    0,000000000e+00    0,000000000e+00    0,000000000e+00    0,000000000e+00
      898000000   -6,385004614e-03   -9,836594015e-02   -6,130312756e-02   -5,552248955e-01    0,000000000e+00    0,000000000e+00    0,000000000e+00    0,000000000e+00
      912000000   -6,237462536e-02   -1,270475835e-01   -3,835856616e-01   -4,195161760e-01    0,000000000e+00    0,000000000e+00    0,000000000e+00    0,000000000e+00
      926000000   -1,214631647e-01   -1,153316274e-01   -5,658049583e-01   -1,434011906e-01    0,000000000e+00    0,000000000e+00    0,000000000e+00    0,000000000e+00
      940000000   -1,596840322e-01   -6,542593241e-02   -5,675032735e-01    1,935921609e-01    0,000000000e+00    0,000000000e+00    0,000000000e+00    0,000000000e+00
      954000000   -1,436672956e-01   -8,051747456e-03   -3,722734153e-01    4,817698300e-01    0,000000000e+00    0,000000000e+00    0,000000000e+00    0,000000000e+00
      968000000   -9,772823751e-02    2,061379701e-02   -5,205781385e-02    6,167476177e-01    0,000000000e+00    0,000000000e+00    0,000000000e+00    0,000000000e+00
      982000000   -5,857546628e-02    5,136240274e-03    2,806053460e-01    5,541033149e-01    0,000000000e+00    0,000000000e+00    0,000000000e+00    0,000000000e+00
      996000000   -4,984024167e-02   -2,872475609e-02    5,282740593e-01    3,294924498e-01    0,000000000e+00    0,000000000e+00    0,000000000e+00    0,000000000e+00
     1010000000   -6,704558432e-02   -5,876973271e-02    6,111041307e-01    1,589439809e-02    0,000000000e+00    0,000000000e+00    0,000000000e+00    0,000000000e+00
     1024000000   -9,847262502e-02   -7,183950394e-02    5,133832693e-01   -2,844730616e-01    0,000000000e+00    0,000000000e+00    0,000000000e+00    0,000000000e+00
     1038000000   -1,317177117e-01   -5,867760256e-02    2,954938710e-01   -4,769792557e-01    0,000000000e+00    0,000000000e+00    0,000000000e+00    0,000000000e+00
     1052000000   -1,476595402e-01   -8,870664053e-03    2,990193106e-02   -5,324385762e-01    0,000000000e+00    0,000000000e+00    0,000000000e+00    0,000000000e+00
     1066000000   -1,116382554e-01    2,669504844e-02   -2,202962339e-01   -4,643747509e-01    0,000000000e+00    0,000000000e+00    0,000000000e+00    0,000000000e+00
     1080000000   -6,214435399e-02    3,023606539e-02   -4,228314757e-01   -2,883758843e-01    0,000000000e+00    0,000000000e+00    0,000000000e+00    0,000000000e+00
     1094000000   -3,921162710e-02    1,874991111e-03   -5,118764043e-01   -1,587485336e-02    0,000000000e+00    0,000000000e+00    0,000000000e+00    0,000000000e+00
     1108000000   -2,545600757e-02   -2,315780334e-02   -4,310988188e-01    2,817876935e-01    0,000000000e+00    0,000000000e+00    0,000000000e+00    0,000000000e+00
     1122000000   -2,359168231e-02   -6,050966680e-02   -1,816083789e-01    4,864601791e-01    0,000000000e+00    0,000000000e+00    0,000000000e+00    0,000000000e+00
     1136000000   -3,648404405e-02   -9,760069847e-02    1,472206414e-01    5,118814707e-01    0,000000000e+00    0,000000000e+00    0,000000000e+00    0,000000000e+00
     1150000000   -8,277101070e-02   -1,263861060e-01    4,446677268e-01    3,422552347e-01    0,000000000e+00    0,000000000e+00    0,000000000e+00    0,000000000e+00
     1164000000   -1,410528123e-01   -1,270705312e-01    6,085279584e-01    1,319267321e-02    0,000000000e+00    0,000000000e+00    0,000000000e+00    0,000000000e+00
     1178000000   -1,776456833e-01   -8,908364922e-02    5,365439653e-01   -3,658980727e-01    0,000000000e+00    0,000000000e+00    0,000000000e+00    0,000000000e+00
     1192000000   -1,872558296e-01   -5,288694054e-02    2,420645058e-01   -6,298878789e-01    0,000000000e+00    0,000000000e+00    0,000000000e+00    0,000000000e+00
     1206000000   -1,884223372e-01   -4,774477333e-02   -1,366282254e-01   -6,600153446e-01    0,000000000e+00    0,000000000e+00    0,000000000e+00    0,000000000e+00
     1220000000   -2,491686940e-01   -1,027085539e-02   -4,159922302e-01   -4,860916436e-01    0,000000000e+00    0,000000000e+00    0,000000000e+00    0,000000000e+00
     1234000000   -2,392427027e-01    1,098311543e-01   -5,598389506e-01   -2,522427440e-01    0,000000000e+00    0,000000000e+00    0,000000000e+00    0,000000000e+00
     1248000000   -1,172911450e-01    1,763372570e-01   -6,076554060e-01    2,245130017e-02    0,000000000e+00    0,000000000e+00    0,000000000e+00    0,000000000e+00
     1262000000   -3,986962140e-03    1,344118863e-01   -5,072035789e-01    2,948216498e-01    0,000000000e+00    0,000000000e+00    0,000000000e+00    0,000000000e+00
     1276000000    5,887419358e-02    4,063452780e-02   -2,784660757e-01    4,836583138e-01    0,000000000e+00    0,000000000e+00    0,000000000e+00    0,000000000e+00
     1290000000    7,122273743e-02   -6,824962795e-02    1,020348072e-02    5,522292256e-01    0,000000000e+00    0,000000000e+00    0,000000000e+00    0,000000000e+00
     1304000000    2,220517397e-02   -1,799430400e-01    2,923105359e-01    4,810009599e-01    0,000000000e+00    0,000000000e+00    0,000000000e+00    0,000000000e+00
     1318000000   -9,489671141e-02   -2,547942698e-01    5,329203010e-01    2,711282074e-01    0,000000000e+00    0,000000000e+00    0,000000000e+00    0,000000000e+00
     1332000000   -2,427404672e-01   -2,445771694e-01    6,491613984e-01   -5,175650865e-02    0,000000000e+00    0,000000000e+00    0,000000000e+00    0,000000000e+00
     1346000000   -3,626199067e-01   -1,460551322e-01    5,511339903e-01   -4,148590565e-01    0,000000000e+00    0,000000000e+00    0,000000000e+00    0,000000000e+00
     1360000000   -3,876677454e-01    9,930471890e-03    2,534336746e-01   -6,269161105e-01    0,000000000e+00    0,000000000e+00    0,000000000e+00    0,000000000e+00
     1374000000   -3,269774318e-01    1,180039719e-01   -1,086250469e-01   -6,204540730e-01    0,000000000e+00    0,000000000e+00    0,000000000e+00    0,000000000e+00
     1388000000   -2,368154824e-01    1,672060937e-01   -3,800165355e-01   -4,195867777e-01    0,000000000e+00    0,000000000e+00    0,000000000e+00    0,000000000e+00
     1402000000   -1,587744057e-01    1,760910004e-01   -4,749149978e-01   -9,943363070e-02    0,000000000e+00    0,000000000e+00    0,000000000e+00    0,000000000e+00
     1416000000   -8,508197218e-02    1,478762180e-01   -3,893630803e-01    2,037095577e-01    0,000000000e+00    0,000000000e+00    0,000000000e+00    0,000000000e+00
     1430000000   -3,012040257e-02    8,869011700e-02   -2,001206130e-01    4,289856553e-01    0,000000000e+00    0,000000000e+00    0,000000000e+00    0,000000000e+00
     1444000000   -1,720654964e-02    7,317950483e-03    1,155586913e-01    5,311045647e-01    0,000000000e+00    0,000000000e+00    0,000000000e+00    0,000000000e+00
     1458000000   -3,316506743e-02   -8,333003521e-02    4,420423210e-01    4,918086529e-01    0,000000000e+00    0,000000000e+00    0,000000000e+00    0,000000000e+00
     1472000000   -1,213503107e-01   -1,431684792e-01    7,315007448e-01    3,185100853e-01    0,000000000e+00    0,000000000e+00    0,000000000e+00    0,000000000e+00
     1486000000   -2,271204740e-01   -1,490563303e-01    8,987494707e-01   -3,530604020e-02    0,000000000e+00    0,000000000e+00    0,000000000e+00    0,000000000e+00
     1500000000   -3,046427667e-01   -5,459310859e-02    8,607042432e-01   -4,038261175e-01    0,000000000e+00    0,000000000e+00    0,000000000e+00    0,000000000e+00
