! NanoVNA-App
! Date: 2025-09-25 14:58:19
! Start: 100MHz Stop: 1,5GHz Points: 101
! S-Parameter data: F S11 S21 S12 S22
# Hz S RI R 50
!     Frequency           S11_Real           S11_Imag           S21_Real           S21_Imag           S12_Real           S12_Imag           S22_Real           S22_Imag
      100000000    3,562195972e-02    2,735895105e-02    4,406777918e-01   -6,695600152e-01    0,000000000e+00    0,000000000e+00    0,000000000e+00    0,000000000e+00
      114000000    6,078095734e-02    2,194259316e-03    1,289004926e-02   -7,954535484e-01    0,000000000e+00    0,000000000e+00    0,000000000e+00    0,000000000e+00
      128000000    6,841968745e-02   -4,227057844e-02   -4,082912803e-01   -6,780253053e-01    0,000000000e+00    0,000000000e+00    0,000000000e+00    0,000000000e+00
      142000000    4,352324083e-02   -8,876947314e-02   -7,053017616e-01   -3,609485626e-01    0,000000000e+00    0,000000000e+00    0,000000000e+00    0,000000000e+00
      156000000   -8,979033679e-03   -1,102826372e-01   -7,935581803e-01    6,836034358e-02    0,000000000e+00    0,000000000e+00    0,000000000e+00    0,000000000e+00
      170000000   -6,259451807e-02   -9,184349328e-02   -6,369929910e-01    4,866320491e-01    0,000000000e+00    0,000000000e+00    0,000000000e+00    0,000000000e+00
      184000000   -8,850041777e-02   -4,761200398e-02   -2,730611563e-01    7,560687065e-01    0,000000000e+00    0,000000000e+00    0,000000000e+00    0,000000000e+00
      198000000   -8,265677840e-02   -6,412716582e-03    1,797138751e-01    7,825006247e-01    0,000000000e+00    0,000000000e+00    0,000000000e+00    0,000000000e+00
      212000000   -6,262420863e-02    1,798227802e-02    5,707527995e-01    5,582789183e-01    0,000000000e+00    0,000000000e+00    0,000000000e+00    0,000000000e+00
      226000000   -4,138793796e-02    3,184791654e-02    7,767437100e-01    1,618806571e-01    0,000000000e+00    0,000000000e+00    0,000000000e+00    0,000000000e+00
      240000000   -1,481287554e-02    4,126413912e-02    7,360454798e-01   -2,786582708e-01    0,000000000e+00    0,000000000e+00    0,000000000e+00    0,000000000e+00
      254000000    2,147144452e-02    3,625198454e-02    4,679637253e-01   -6,220787168e-01    0,000000000e+00    0,000000000e+00    0,000000000e+00    0,000000000e+00
      268000000    5,334593728e-02    4,708709661e-03    6,677535921e-02   -7,669010162e-01    0,000000000e+00    0,000000000e+00    0,000000000e+00    0,000000000e+00
      282000000    5,746301636e-02   -4,495596513e-02   -3,456034064e-01   -6,826428771e-01    0,000000000e+00    0,000000000e+00    0,000000000e+00    0,000000000e+00
      296000000    2,619488537e-02   -8,475035429e-02   -6,547057629e-01   -3,975479901e-01    0,000000000e+00    0,000000000e+00    0,000000000e+00    0,000000000e+00
      310000000   -1,900810748e-02   -8,945932984e-02   -7,745224237e-01    1,115661021e-02    0,000000000e+00    0,000000000e+00    0,000000000e+00    0,000000000e+00
      324000000   -4,651322588e-02   -6,331536174e-02   -6,484955549e-01    4,302854538e-01    0,000000000e+00    0,000000000e+00    0,000000000e+00    0,000000000e+00
      338000000   -4,114900902e-02   -3,767185286e-02   -3,089095652e-01    7,077895999e-01    0,000000000e+00    0,000000000e+00    0,000000000e+00    0,000000000e+00
      352000000   -2,352050692e-02   -3,786315024e-02    1,199641079e-01    7,578032613e-01    0,000000000e+00    0,000000000e+00    0,000000000e+00    0,000000000e+00
      366000000   -2,257415466e-02   -5,621402338e-02    5,039231181e-01    5,711691380e-01    0,000000000e+00    0,000000000e+00    0,000000000e+00    0,000000000e+00
      380000000   -4,468047619e-02   -6,526068598e-02    7,261812091e-01    2,113346159e-01    0,000000000e+00    0,000000000e+00    0,000000000e+00    0,000000000e+00
      394000000   -6,647816300e-02   -5,047734827e-02    7,224438190e-01   -2,132264227e-01    0,000000000e+00    0,000000000e+00    0,000000000e+00    0,000000000e+00
      408000000   -6,747160107e-02   -2,630749345e-02    4,899632931e-01   -5,684230328e-01    0,000000000e+00    0,000000000e+00    0,000000000e+00    0,000000000e+00
      422000000   -5,304994434e-02   -1,534092613e-02    1,056389809e-01   -7,391927838e-01    0,000000000e+00    0,000000000e+00    0,000000000e+00    0,000000000e+00
      436000000   -4,641588405e-02   -1,875997148e-02   -3,063698113e-01   -6,759271622e-01    0,000000000e+00    0,000000000e+00    0,000000000e+00    0,000000000e+00
      450000000   -5,197108537e-02   -1,498062536e-02   -6,189659834e-01   -3,988392949e-01    0,000000000e+00    0,000000000e+00    0,000000000e+00    0,000000000e+00
      464000000   -5,062196776e-02    5,848522764e-03   -7,296538353e-01    4,010108765e-03    0,000000000e+00    0,000000000e+00    0,000000000e+00    0,000000000e+00
      478000000   -2,017067932e-02    2,655237541e-02   -5,982246995e-01    3,975538909e-01    0,000000000e+00    0,000000000e+00    0,000000000e+00    0,000000000e+00
      492000000    2,841562964e-02    1,508707181e-02   -2,800629139e-01    6,438175440e-01    0,000000000e+00    0,000000000e+00    0,000000000e+00    0,000000000e+00
      506000000    5,920903757e-02   -3,782532364e-02    1,053700373e-01    6,799035072e-01    0,000000000e+00    0,000000000e+00    0,000000000e+00    0,000000000e+00
      520000000    4,443820193e-02   -1,026311591e-01    4,425427318e-01    5,165244341e-01    0,000000000e+00    0,000000000e+00    0,000000000e+00    0,000000000e+00
      534000000   -1,304043457e-02   -1,439595073e-01    6,492712498e-01    2,054566145e-01    0,000000000e+00    0,000000000e+00    0,000000000e+00    0,000000000e+00
      548000000   -8,187044412e-02   -1,404152662e-01    6,596000195e-01   -1,763881743e-01    0,000000000e+00    0,000000000e+00    0,000000000e+00    0,000000000e+00
      562000000   -1,317071319e-01   -9,768354893e-02    4,509869516e-01   -5,086709261e-01    0,000000000e+00    0,000000000e+00    0,000000000e+00    0,000000000e+00
      576000000   -1,499885023e-01   -3,809415549e-02    8,088473231e-02   -6,590300798e-01    0,000000000e+00    0,000000000e+00    0,000000000e+00    0,000000000e+00
      590000000   -1,295650005e-01    3,017680719e-02   -2,961231172e-01   -5,611215234e-01    0,000000000e+00    0,000000000e+00    0,000000000e+00    0,000000000e+00
      604000000   -3,675957769e-02    6,834173948e-02   -4,864064157e-01   -2,695525885e-01    0,000000000e+00    0,000000000e+00    0,000000000e+00    0,000000000e+00
      618000000    3,443521261e-02   -3,221275657e-02   -4,937385917e-01   -5,323595554e-02    0,000000000e+00    0,000000000e+00    0,000000000e+00    0,000000000e+00
      632000000   -5,370852351e-02   -9,154972434e-02   -5,270393491e-01    1,776303351e-01    0,000000000e+00    0,000000000e+00    0,000000000e+00    0,000000000e+00
      646000000   -9,992934763e-02   -3,248676658e-02   -3,793956637e-01    4,780977070e-01    0,000000000e+00    0,000000000e+00    0,000000000e+00    0,000000000e+00
      660000000   -6,783440709e-02    9,077801369e-03   -5,161380395e-02    6,258779168e-01    0,000000000e+00    0,000000000e+00    0,000000000e+00    0,000000000e+00
      674000000   -2,917508222e-02    4,525532480e-03    2,993399799e-01    5,523605943e-01    0,000000000e+00    0,000000000e+00    0,000000000e+00    0,000000000e+00
      688000000   -1,567333937e-02   -1,845678128e-02    5,472757816e-01    3,034189641e-01    0,000000000e+00    0,000000000e+00    0,000000000e+00    0,000000000e+00
      702000000   -1,403632760e-02   -3,513579816e-02    6,206186414e-01   -3,958187625e-02    0,000000000e+00    0,000000000e+00    0,000000000e+00    0,000000000e+00
      716000000   -9,774062783e-03   -4,908966646e-02    4,910945594e-01   -3,686529994e-01    0,000000000e+00    0,000000000e+00    0,000000000e+00    0,000000000e+00
      730000000   -8,050991222e-03   -7,465077937e-02    2,112543881e-01   -5,677392483e-01    0,000000000e+00    0,000000000e+00    0,000000000e+00    0,000000000e+00
      744000000   -2,545357123e-02   -1,103049219e-01   -1,245951205e-01   -5,878350735e-01    0,000000000e+00    0,000000000e+00    0,000000000e+00    0,000000000e+00
      758000000   -7,387524098e-02   -1,321823895e-01   -4,200208783e-01   -4,316582680e-01    0,000000000e+00    0,000000000e+00    0,000000000e+00    0,000000000e+00
      772000000   -1,351481229e-01   -1,164532900e-01   -5,934324265e-01   -1,399818361e-01    0,000000000e+00    0,000000000e+00    0,000000000e+00    0,000000000e+00
      786000000   -1,721875668e-01   -5,839376152e-02   -5,809056759e-01    2,094491720e-01    0,000000000e+00    0,000000000e+00    0,000000000e+00    0,000000000e+00
      800000000   -1,603790522e-01    6,562258583e-03   -3,720670640e-01    4,953752160e-01    0,000000000e+00    0,000000000e+00    0,000000000e+00    0,000000000e+00
      814000000   -1,140621528e-01    4,249425605e-02   -4,539318010e-02    6,152572632e-01    0,000000000e+00    0,000000000e+00    0,000000000e+00    0,000000000e+00
      828000000   -6,875436753e-02    4,422001913e-02    2,855417132e-01    5,390048027e-01    0,000000000e+00    0,000000000e+00    0,000000000e+00    0,000000000e+00
      842000000   -3,939867765e-02    2,900161594e-02    5,208094716e-01    3,057237864e-01    0,000000000e+00    0,000000000e+00    0,000000000e+00    0,000000000e+00
      856000000   -1,808816753e-02    1,288627647e-02    5,942570567e-01   -1,385581773e-02    0,000000000e+00    0,000000000e+00    0,000000000e+00    0,000000000e+00
      870000000    2,299640793e-03   -1,106159575e-02    4,861372113e-01   -3,169997036e-01    0,000000000e+00    0,000000000e+00    0,000000000e+00    0,000000000e+00
      884000000    1,361063868e-02   -5,086894706e-02    2,419470251e-01   -5,107328296e-01    0,000000000e+00    0,000000000e+00    0,000000000e+00    0,000000000e+00
      898000000   -4,097038414e-03   -1,020654738e-01   -5,936813727e-02   -5,539964437e-01    0,000000000e+00    0,000000000e+00    0,000000000e+00    0,000000000e+00
      912000000   -6,293724477e-02   -1,322433800e-01   -3,956039548e-01   -4,124324620e-01    0,000000000e+00    0,000000000e+00    0,000000000e+00    0,000000000e+00
      926000000   -1,254963279e-01   -1,195538118e-01   -5,643193126e-01   -1,492549181e-01    0,000000000e+00    0,000000000e+00    0,000000000e+00    0,000000000e+00
      940000000   -1,613280773e-01   -6,143256649e-02   -5,680927038e-01    1,934359819e-01    0,000000000e+00    0,000000000e+00    0,000000000e+00    0,000000000e+00
      954000000   -1,465031207e-01    2,018986503e-03   -3,738110662e-01    4,838578105e-01    0,000000000e+00    0,000000000e+00    0,000000000e+00    0,000000000e+00
      968000000   -9,648537636e-02    2,120508626e-02   -5,184869096e-02    6,147882938e-01    0,000000000e+00    0,000000000e+00    0,000000000e+00    0,000000000e+00
      982000000   -5,692107975e-02    5,732396152e-03    2,811996639e-01    5,523162484e-01    0,000000000e+00    0,000000000e+00    0,000000000e+00    0,000000000e+00
      996000000   -4,136274382e-02   -3,288652003e-02    5,240928531e-01    3,274068534e-01    0,000000000e+00    0,000000000e+00    0,000000000e+00    0,000000000e+00
     1010000000   -6,230958179e-02   -6,274317205e-02    6,088567376e-01    1,533981971e-02    0,000000000e+00    0,000000000e+00    0,000000000e+00    0,000000000e+00
     1024000000   -1,010655463e-01   -7,535268366e-02    5,140579939e-01   -2,826737761e-01    0,000000000e+00    0,000000000e+00    0,000000000e+00    0,000000000e+00
     1038000000   -1,394334882e-01   -5,856290832e-02    2,944400311e-01   -4,708957672e-01    0,000000000e+00    0,000000000e+00    0,000000000e+00    0,000000000e+00
     1052000000   -1,548492014e-01   -3,015903058e-03    3,379321098e-02   -5,238045454e-01    0,000000000e+00    0,000000000e+00    0,000000000e+00    0,000000000e+00
     1066000000   -1,068912894e-01    3,887510300e-02   -2,145464867e-01   -4,634238780e-01    0,000000000e+00    0,000000000e+00    0,000000000e+00    0,000000000e+00
     1080000000   -5,310345441e-02    3,166694939e-02   -4,150207043e-01   -2,986936271e-01    0,000000000e+00    0,000000000e+00    0,000000000e+00    0,000000000e+00
     1094000000   -3,143404797e-02   -8,390032686e-03   -5,207175016e-01   -2,524827793e-02    0,000000000e+00    0,000000000e+00    0,000000000e+00    0,000000000e+00
     1108000000   -2,899528667e-02   -3,072323836e-02   -4,425149262e-01    2,823698819e-01    0,000000000e+00    0,000000000e+00    0,000000000e+00    0,000000000e+00
     1122000000   -3,123913333e-02   -6,101652235e-02   -1,874506474e-01    4,980512559e-01    0,000000000e+00    0,000000000e+00    0,000000000e+00    0,000000000e+00
     1136000000   -4,202256724e-02   -9,150580317e-02    1,515078545e-01    5,192857981e-01    0,000000000e+00    0,000000000e+00    0,000000000e+00    0,000000000e+00
     1150000000   -8,153244853e-02   -1,280455291e-01    4,519142509e-01    3,452693224e-01    0,000000000e+00    0,000000000e+00    0,000000000e+00    0,000000000e+00
     1164000000   -1,365959346e-01   -1,227358729e-01    6,091918945e-01    1,243707351e-02    0,000000000e+00    0,000000000e+00    0,000000000e+00    0,000000000e+00
     1178000000   -1,775083393e-01   -8,431232721e-02    5,360729694e-01   -3,712111712e-01    0,000000000e+00    0,000000000e+00    0,000000000e+00    0,000000000e+00
     1192000000   -1,815270036e-01   -5,127217248e-02    2,417034358e-01   -6,376561522e-01    0,000000000e+00    0,000000000e+00    0,000000000e+00    0,000000000e+00
     1206000000   -1,891355217e-01   -5,487259477e-02   -1,387230754e-01   -6,633953452e-01    0,000000000e+00    0,000000000e+00    0,000000000e+00    0,000000000e+00
     1220000000   -2,506581843e-01   -1,186000463e-02   -4,199817479e-01   -4,830461144e-01    0,000000000e+00    0,000000000e+00    0,000000000e+00    0,000000000e+00
     1234000000   -2,400248796e-01    1,173838377e-01   -5,587114692e-01   -2,432008237e-01    0,000000000e+00    0,000000000e+00    0,000000000e+00    0,000000000e+00
     1248000000   -1,152412221e-01    1,717059314e-01   -6,062819958e-01    2,085556835e-02    0,000000000e+00    0,000000000e+00    0,000000000e+00    0,000000000e+00
     1262000000   -4,672540352e-03    1,307852864e-01   -5,093984604e-01    2,989225388e-01    0,000000000e+00    0,000000000e+00    0,000000000e+00    0,000000000e+00
     1276000000    6,151634455e-02    4,441922531e-02   -2,726576030e-01    4,905041754e-01    0,000000000e+00    0,000000000e+00    0,000000000e+00    0,000000000e+00
     1290000000    7,163760066e-02   -6,715862453e-02    1,069384906e-02    5,496665835e-01    0,000000000e+00    0,000000000e+00    0,000000000e+00    0,000000000e+00
     1304000000    2,141082473e-02   -1,792981029e-01    3,018564582e-01    4,730238616e-01    0,000000000e+00    0,000000000e+00    0,000000000e+00    0,000000000e+00
     1318000000   -9,690711647e-02   -2,526886761e-01    5,355668068e-01    2,674732804e-01    0,000000000e+00    0,000000000e+00    0,000000000e+00    0,000000000e+00
     1332000000   -2,394161224e-01   -2,416163683e-01    6,562517285e-01   -5,033624172e-02    0,000000000e+00    0,000000000e+00    0,000000000e+00    0,000000000e+00
     1346000000   -3,662090302e-01   -1,356147379e-01    5,582725406e-01   -4,027229249e-01    0,000000000e+00    0,000000000e+00    0,000000000e+00    0,000000000e+00
     1360000000   -3,836961091e-01    7,962289266e-03    2,604730725e-01   -6,379630566e-01    0,000000000e+00    0,000000000e+00    0,000000000e+00    0,000000000e+00
     1374000000   -3,266207278e-01    1,161965206e-01   -1,005840078e-01   -6,233251095e-01    0,000000000e+00    0,000000000e+00    0,000000000e+00    0,000000000e+00
     1388000000   -2,395470142e-01    1,724933982e-01   -3,734679520e-01   -4,134771526e-01    0,000000000e+00    0,000000000e+00    0,000000000e+00    0,000000000e+00
     1402000000   -1,512375176e-01    1,704213768e-01   -4,831759930e-01   -1,074844897e-01    0,000000000e+00    0,000000000e+00    0,000000000e+00    0,000000000e+00
     1416000000   -8,686771244e-02    1,402108818e-01   -4,026618898e-01    1,966786236e-01    0,000000000e+00    0,000000000e+00    0,000000000e+00    0,000000000e+00
     1430000000   -3,412800282e-02    8,569601923e-02   -1,944754571e-01    4,344053268e-01    0,000000000e+00    0,000000000e+00    0,000000000e+00    0,000000000e+00
     1444000000   -1,699132100e-02    9,005611762e-03    1,065716743e-01    5,332568288e-01    0,000000000e+00    0,000000000e+00    0,000000000e+00    0,000000000e+00
     1458000000   -4,565810040e-02   -8,763919026e-02    4,299843609e-01    4,873313606e-01    0,000000000e+00    0,000000000e+00    0,000000000e+00    0,000000000e+00
     1472000000   -1,212477833e-01   -1,517152488e-01    7,273199558e-01    2,989249229e-01    0,000000000e+00    0,000000000e+00    0,000000000e+00    0,000000000e+00
     1486000000   -2,363571823e-01   -1,376183778e-01    8,835917115e-01   -2,741060965e-02    0,000000000e+00    0,000000000e+00    0,000000000e+00    0,000000000e+00
     1500000000   -3,112568557e-01   -6,236022711e-02    8,329700828e-01   -4,183017015e-01    0,000000000e+00    0,000000000e+00    0,000000000e+00    0,000000000e+00
