! NanoVNA-App
! Date: 2025-09-25 14:58:14
! Start: 100MHz Stop: 1,5GHz Points: 101
! S-Parameter data: F S11 S21 S12 S22
# Hz S RI R 50
!     Frequency           S11_Real           S11_Imag           S21_Real           S21_Imag           S12_Real           S12_Imag           S22_Real           S22_Imag
      100000000    3,557699546e-02    2,736643143e-02    4,407882690e-01   -6,694711447e-01    0,000000000e+00    0,000000000e+00    0,000000000e+00    0,000000000e+00
      114000000    6,067042798e-02    2,191500273e-03    1,291597728e-02   -7,953222990e-01    0,000000000e+00    0,000000000e+00    0,000000000e+00    0,000000000e+00
      128000000    6,834213436e-02   -4,227749631e-02   -4,082789123e-01   -6,780690551e-01    0,000000000e+00    0,000000000e+00    0,000000000e+00    0,000000000e+00
      142000000    4,349859059e-02   -8,876228333e-02   -7,053632140e-01   -3,609512448e-01    0,000000000e+00    0,000000000e+00    0,000000000e+00    0,000000000e+00
      156000000   -9,236246347e-03   -1,101875901e-01   -7,933595777e-01    6,813847274e-02    0,000000000e+00    0,000000000e+00    0,000000000e+00    0,000000000e+00
      170000000   -6,261873990e-02   -9,182302654e-02   -6,367995143e-01    4,865602851e-01    0,000000000e+00    0,000000000e+00    0,000000000e+00    0,000000000e+00
      184000000   -8,852820843e-02   -4,765118286e-02   -2,730846107e-01    7,561677694e-01    0,000000000e+00    0,000000000e+00    0,000000000e+00    0,000000000e+00
      198000000   -8,273662627e-02   -6,411107723e-03    1,796182841e-01    7,822573185e-01    0,000000000e+00    0,000000000e+00    0,000000000e+00    0,000000000e+00
      212000000   -6,270479411e-02    1,805669069e-02    5,705774426e-01    5,583732128e-01    0,000000000e+00    0,000000000e+00    0,000000000e+00    0,000000000e+00
      226000000   -4,146216810e-02    3,177450225e-02    7,767918706e-01    1,619038880e-01    0,000000000e+00    0,000000000e+00    0,000000000e+00    0,000000000e+00
      240000000   -1,488822419e-02    4,133621603e-02    7,359865904e-01   -2,787606716e-01    0,000000000e+00    0,000000000e+00    0,000000000e+00    0,000000000e+00
      254000000    2,140768617e-02    3,627503291e-02    4,678862095e-01   -6,219780445e-01    0,000000000e+00    0,000000000e+00    0,000000000e+00    0,000000000e+00
      268000000    5,327521637e-02    4,723776132e-03    6,668553501e-02   -7,676723599e-01    0,000000000e+00    0,000000000e+00    0,000000000e+00    0,000000000e+00
      282000000    5,747490004e-02   -4,489214718e-02   -3,452734649e-01   -6,831973791e-01    0,000000000e+00    0,000000000e+00    0,000000000e+00    0,000000000e+00
      296000000    2,598890290e-02   -8,473881334e-02   -6,549699903e-01   -3,975550532e-01    0,000000000e+00    0,000000000e+00    0,000000000e+00    0,000000000e+00
      310000000   -1,903455891e-02   -8,933372796e-02   -7,747471929e-01    1,071674656e-02    0,000000000e+00    0,000000000e+00    0,000000000e+00    0,000000000e+00
      324000000   -4,638468847e-02   -6,345804781e-02   -6,473234892e-01    4,295497537e-01    0,000000000e+00    0,000000000e+00    0,000000000e+00    0,000000000e+00
      338000000   -4,132178426e-02   -3,783313930e-02   -3,092407286e-01    7,094259262e-01    0,000000000e+00    0,000000000e+00    0,000000000e+00    0,000000000e+00
      352000000   -2,332928590e-02   -3,774349391e-02    1,199142560e-01    7,584292889e-01    0,000000000e+00    0,000000000e+00    0,000000000e+00    0,000000000e+00
      366000000   -2,299087867e-02   -5,614968017e-02    5,024951100e-01    5,712786913e-01    0,000000000e+00    0,000000000e+00    0,000000000e+00    0,000000000e+00
      380000000   -4,453390092e-02   -6,541469693e-02    7,264999747e-01    2,116575241e-01    0,000000000e+00    0,000000000e+00    0,000000000e+00    0,000000000e+00
      394000000   -6,639198959e-02   -5,072626472e-02    7,226094604e-01   -2,132275552e-01    0,000000000e+00    0,000000000e+00    0,000000000e+00    0,000000000e+00
      408000000   -6,760891527e-02   -2,645361982e-02    4,903299212e-01   -5,680836439e-01    0,000000000e+00    0,000000000e+00    0,000000000e+00    0,000000000e+00
      422000000   -5,342707410e-02   -1,503104810e-02    1,051134393e-01   -7,386534214e-01    0,000000000e+00    0,000000000e+00    0,000000000e+00    0,000000000e+00
      436000000   -4,640981182e-02   -1,890048385e-02   -3,064152300e-01   -6,763060689e-01    0,000000000e+00    0,000000000e+00    0,000000000e+00    0,000000000e+00
      450000000   -5,197728798e-02   -1,475831214e-02   -6,186559796e-01   -3,991615474e-01    0,000000000e+00    0,000000000e+00    0,000000000e+00    0,000000000e+00
      464000000   -5,032465234e-02    5,730389617e-03   -7,298665643e-01    3,225130728e-03    0,000000000e+00    0,000000000e+00    0,000000000e+00    0,000000000e+00
      478000000   -2,031742036e-02    2,664493769e-02   -5,985032320e-01    3,970361948e-01    0,000000000e+00    0,000000000e+00    0,000000000e+00    0,000000000e+00
      492000000    2,857010812e-02    1,497600321e-02   -2,793935537e-01    6,450852156e-01    0,000000000e+00    0,000000000e+00    0,000000000e+00    0,000000000e+00
      506000000    5,923256278e-02   -3,787508607e-02    1,051299199e-01    6,800071001e-01    0,000000000e+00    0,000000000e+00    0,000000000e+00    0,000000000e+00
      520000000    4,469674826e-02   -1,027662680e-01    4,430925250e-01    5,208380818e-01    0,000000000e+00    0,000000000e+00    0,000000000e+00    0,000000000e+00
      534000000   -1,275680494e-02   -1,442055702e-01    6,492797136e-01    2,053141892e-01    0,000000000e+00    0,000000000e+00    0,000000000e+00    0,000000000e+00
      548000000   -8,182729036e-02   -1,402459145e-01    6,596622467e-01   -1,764504910e-01    0,000000000e+00    0,000000000e+00    0,000000000e+00    0,000000000e+00
      562000000   -1,311898082e-01   -9,833121300e-02    4,505311847e-01   -5,091071725e-01    0,000000000e+00    0,000000000e+00    0,000000000e+00    0,000000000e+00
      576000000   -1,500349045e-01   -3,826440498e-02    8,177012950e-02   -6,608439684e-01    0,000000000e+00    0,000000000e+00    0,000000000e+00    0,000000000e+00
      590000000   -1,295379400e-01    3,032086976e-02   -2,960789502e-01   -5,620986223e-01    0,000000000e+00    0,000000000e+00    0,000000000e+00    0,000000000e+00
      604000000   -3,633384034e-02    6,850237399e-02   -4,854561985e-01   -2,696243227e-01    0,000000000e+00    0,000000000e+00    0,000000000e+00    0,000000000e+00
      618000000    3,408212960e-02   -3,282866627e-02   -4,938838780e-01   -5,323306471e-02    0,000000000e+00    0,000000000e+00    0,000000000e+00    0,000000000e+00
      632000000   -5,457841232e-02   -9,194231033e-02   -5,276224613e-01    1,780658811e-01    0,000000000e+00    0,000000000e+00    0,000000000e+00    0,000000000e+00
      646000000   -9,918926656e-02   -3,318231180e-02   -3,792499900e-01    4,783796072e-01    0,000000000e+00    0,000000000e+00    0,000000000e+00    0,000000000e+00
      660000000   -6,794753671e-02    1,014013588e-02   -5,217938498e-02    6,253861785e-01    0,000000000e+00    0,000000000e+00    0,000000000e+00    0,000000000e+00
      674000000   -2,983678132e-02    5,078133196e-03    2,986373007e-01    5,529961586e-01    0,000000000e+00    0,000000000e+00    0,000000000e+00    0,000000000e+00
      688000000   -1,559208985e-02   -1,764901727e-02    5,478753448e-01    3,031192720e-01    0,000000000e+00    0,000000000e+00    0,000000000e+00    0,000000000e+00
      702000000   -1,334617659e-02   -3,469596431e-02    6,224539280e-01   -4,296173900e-02    0,000000000e+00    0,000000000e+00    0,000000000e+00    0,000000000e+00
      716000000   -1,092046872e-02   -4,862837121e-02    4,920177758e-01   -3,682817817e-01    0,000000000e+00    0,000000000e+00    0,000000000e+00    0,000000000e+00
      730000000   -7,472654805e-03   -7,389822602e-02    2,110400200e-01   -5,681971908e-01    0,000000000e+00    0,000000000e+00    0,000000000e+00    0,000000000e+00
      744000000   -2,599511109e-02   -1,114264503e-01   -1,226762533e-01   -5,878446698e-01    0,000000000e+00    0,000000000e+00    0,000000000e+00    0,000000000e+00
      758000000   -7,491320372e-02   -1,318690479e-01   -4,194404185e-01   -4,326456189e-01    0,000000000e+00    0,000000000e+00    0,000000000e+00    0,000000000e+00
      772000000   -1,346525848e-01   -1,156770363e-01   -5,937459469e-01   -1,396554261e-01    0,000000000e+00    0,000000000e+00    0,000000000e+00    0,000000000e+00
      786000000   -1,717709601e-01   -5,825292692e-02   -5,813102126e-01    2,093234211e-01    0,000000000e+00    0,000000000e+00    0,000000000e+00    0,000000000e+00
      800000000   -1,589790136e-01    6,119598635e-03   -3,724727929e-01    4,952362180e-01    0,000000000e+00    0,000000000e+00    0,000000000e+00    0,000000000e+00
      814000000   -1,141858399e-01    4,259734228e-02   -4,574840888e-02    6,140429974e-01    0,000000000e+00    0,000000000e+00    0,000000000e+00    0,000000000e+00
      828000000   -6,940354407e-02    4,339091107e-02    2,854866683e-01    5,397637486e-01    0,000000000e+00    0,000000000e+00    0,000000000e+00    0,000000000e+00
      842000000   -3,879813850e-02    2,895699441e-02    5,208103657e-01    3,057555854e-01    0,000000000e+00    0,000000000e+00    0,000000000e+00    0,000000000e+00
      856000000   -1,761889271e-02    1,253499556e-02    5,939102769e-01   -1,374061778e-02    0,000000000e+00    0,000000000e+00    0,000000000e+00    0,000000000e+00
      870000000    2,481278963e-03   -1,083960850e-02    4,854743481e-01   -3,167464733e-01    0,000000000e+00    0,000000000e+00    0,000000000e+00    0,000000000e+00
      884000000    1,382287964e-02   -5,186562985e-02    2,433560342e-01   -5,118215680e-01    0,000000000e+00    0,000000000e+00    0,000000000e+00    0,000000000e+00
      898000000   -4,238707013e-03   -1,022563949e-01   -5,711730942e-02   -5,542555451e-01    0,000000000e+00    0,000000000e+00    0,000000000e+00    0,000000000e+00
      912000000   -6,317366660e-02   -1,325077415e-01   -3,894559741e-01   -4,100243151e-01    0,000000000e+00    0,000000000e+00    0,000000000e+00    0,000000000e+00
      926000000   -1,280929595e-01   -1,174510643e-01   -5,658807158e-01   -1,456214786e-01    0,000000000e+00    0,000000000e+00    0,000000000e+00    0,000000000e+00
      940000000   -1,655663401e-01   -6,268214434e-02   -5,674381256e-01    1,929580867e-01    0,000000000e+00    0,000000000e+00    0,000000000e+00    0,000000000e+00
      954000000   -1,498001665e-01   -3,159460379e-03   -3,741009831e-01    4,814532697e-01    0,000000000e+00    0,000000000e+00    0,000000000e+00    0,000000000e+00
      968000000   -9,617020190e-02    2,101430669e-02   -4,897995293e-02    6,131933331e-01    0,000000000e+00    0,000000000e+00    0,000000000e+00    0,000000000e+00
      982000000   -5,685449392e-02    5,989653058e-03    2,829754651e-01    5,519807339e-01    0,000000000e+00    0,000000000e+00    0,000000000e+00    0,000000000e+00
      996000000   -4,163979739e-02   -3,256773949e-02    5,247420073e-01    3,293032050e-01    0,000000000e+00    0,000000000e+00    0,000000000e+00    0,000000000e+00
     1010000000   -6,136653945e-02   -6,866362691e-02    6,063572764e-01    1,494226325e-02    0,000000000e+00    0,000000000e+00    0,000000000e+00    0,000000000e+00
     1024000000   -9,740555286e-02   -7,724538445e-02    5,157058239e-01   -2,810683548e-01    0,000000000e+00    0,000000000e+00    0,000000000e+00    0,000000000e+00
     1038000000   -1,439084262e-01   -5,883676931e-02    2,960718572e-01   -4,691641927e-01    0,000000000e+00    0,000000000e+00    0,000000000e+00    0,000000000e+00
     1052000000   -1,530600041e-01    3,152987221e-03    3,515084833e-02   -5,263154507e-01    0,000000000e+00    0,000000000e+00    0,000000000e+00    0,000000000e+00
     1066000000   -1,031395122e-01    3,913352266e-02   -2,082948834e-01   -4,642809629e-01    0,000000000e+00    0,000000000e+00    0,000000000e+00    0,000000000e+00
     1080000000   -5,696647987e-02    2,621104755e-02   -4,154206514e-01   -2,993984222e-01    0,000000000e+00    0,000000000e+00    0,000000000e+00    0,000000000e+00
     1094000000   -3,594311699e-02   -9,297166951e-03   -5,217412710e-01   -2,554368973e-02    0,000000000e+00    0,000000000e+00    0,000000000e+00    0,000000000e+00
     1108000000   -2,930266224e-02   -3,344342113e-02   -4,438395202e-01    2,852969766e-01    0,000000000e+00    0,000000000e+00    0,000000000e+00    0,000000000e+00
     1122000000   -3,452849016e-02   -5,911513790e-02   -1,895526350e-01    4,963207543e-01    0,000000000e+00    0,000000000e+00    0,000000000e+00    0,000000000e+00
     1136000000   -4,170174524e-02   -9,066380560e-02    1,500346065e-01    5,174998641e-01    0,000000000e+00    0,000000000e+00    0,000000000e+00    0,000000000e+00
     1150000000   -8,217284828e-02   -1,205010042e-01    4,533193111e-01    3,443631530e-01    0,000000000e+00    0,000000000e+00    0,000000000e+00    0,000000000e+00
     1164000000   -1,421417892e-01   -1,225479320e-01    6,080263853e-01    1,138242148e-02    0,000000000e+00    0,000000000e+00    0,000000000e+00    0,000000000e+00
     1178000000   -1,785513014e-01   -9,035532922e-02    5,380866528e-01   -3,709246516e-01    0,000000000e+00    0,000000000e+00    0,000000000e+00    0,000000000e+00
     1192000000   -1,767150015e-01   -5,857641995e-02    2,375852019e-01   -6,361069679e-01    0,000000000e+00    0,000000000e+00    0,000000000e+00    0,000000000e+00
     1206000000   -1,879306138e-01   -5,215654895e-02   -1,364615113e-01   -6,626827121e-01    0,000000000e+00    0,000000000e+00    0,000000000e+00    0,000000000e+00
     1220000000   -2,540118694e-01   -1,642303914e-02   -4,179945588e-01   -4,842943251e-01    0,000000000e+00    0,000000000e+00    0,000000000e+00    0,000000000e+00
     1234000000   -2,408061475e-01    1,082941368e-01   -5,591297746e-01   -2,525127530e-01    0,000000000e+00    0,000000000e+00    0,000000000e+00    0,000000000e+00
     1248000000   -1,111368835e-01    1,735310405e-01   -5,991895199e-01    2,268379554e-02    0,000000000e+00    0,000000000e+00    0,000000000e+00    0,000000000e+00
     1262000000   -3,546703374e-03    1,285376549e-01   -5,069860220e-01    2,935022116e-01    0,000000000e+00    0,000000000e+00    0,000000000e+00    0,000000000e+00
     1276000000    6,492257118e-02    4,173555970e-02   -2,772746086e-01    4,843065143e-01    0,000000000e+00    0,000000000e+00    0,000000000e+00    0,000000000e+00
     1290000000    7,068706304e-02   -6,863378733e-02    9,522964247e-03    5,459091067e-01    0,000000000e+00    0,000000000e+00    0,000000000e+00    0,000000000e+00
     1304000000    1,923980750e-02   -1,775128990e-01    2,955103219e-01    4,739412069e-01    0,000000000e+00    0,000000000e+00    0,000000000e+00    0,000000000e+00
     1318000000   -9,873215109e-02   -2,545154393e-01    5,310358405e-01    2,665741146e-01    0,000000000e+00    0,000000000e+00    0,000000000e+00    0,000000000e+00
     1332000000   -2,461414635e-01   -2,493622303e-01    6,544945240e-01   -6,245482713e-02    0,000000000e+00    0,000000000e+00    0,000000000e+00    0,000000000e+00
     1346000000   -3,606925905e-01   -1,387352794e-01    5,530242920e-01   -4,055796266e-01    0,000000000e+00    0,000000000e+00    0,000000000e+00    0,000000000e+00
     1360000000   -3,849174082e-01    1,056621131e-02    2,569687366e-01   -6,321619749e-01    0,000000000e+00    0,000000000e+00    0,000000000e+00    0,000000000e+00
     1374000000   -3,271144032e-01    1,188959330e-01   -9,199640900e-02   -6,374228597e-01    0,000000000e+00    0,000000000e+00    0,000000000e+00    0,000000000e+00
     1388000000   -2,377566844e-01    1,647535414e-01   -3,791143298e-01   -4,193736613e-01    0,000000000e+00    0,000000000e+00    0,000000000e+00    0,000000000e+00
     1402000000   -1,526720822e-01    1,725664288e-01   -4,770532250e-01   -9,726249427e-02    0,000000000e+00    0,000000000e+00    0,000000000e+00    0,000000000e+00
     1416000000   -8,452247828e-02    1,461375952e-01   -3,995974958e-01    2,048178166e-01    0,000000000e+00    0,000000000e+00    0,000000000e+00    0,000000000e+00
     1430000000   -3,673880920e-02    8,643778414e-02   -1,970505118e-01    4,323793948e-01    0,000000000e+00    0,000000000e+00    0,000000000e+00    0,000000000e+00
     1444000000   -1,252083480e-02    6,707322318e-03    1,236378700e-01    5,247753263e-01    0,000000000e+00    0,000000000e+00    0,000000000e+00    0,000000000e+00
     1458000000   -3,739795461e-02   -8,738761395e-02    4,501921833e-01    4,908179343e-01    0,000000000e+00    0,000000000e+00    0,000000000e+00    0,000000000e+00
     1472000000   -1,184110716e-01   -1,378723979e-01    7,331725955e-01    3,133647144e-01    0,000000000e+00    0,000000000e+00    0,000000000e+00    0,000000000e+00
     1486000000   -2,250986248e-01   -1,446691602e-01    9,163739085e-01   -2,902307920e-02    0,000000000e+00    0,000000000e+00    0,000000000e+00    0,000000000e+00
     1500000000   -3,037095666e-01   -7,169432938e-02    8,323132396e-01   -4,332357645e-01    0,000000000e+00    0,000000000e+00    0,000000000e+00    0,000000000e+00
