! NanoVNA-App
! Date: 2025-09-25 15:00:19
! Start: 100MHz Stop: 1,5GHz Points: 101
! S-Parameter data: F S11 S21 S12 S22
# Hz S RI R 50
!     Frequency           S11_Real           S11_Imag           S21_Real           S21_Imag           S12_Real           S12_Imag           S22_Real           S22_Imag
      100000000    3,557519987e-02    2,736077085e-02    4,407347143e-01   -6,695252061e-01    0,000000000e+00    0,000000000e+00    0,000000000e+00    0,000000000e+00
      114000000    6,070430577e-02    2,189022489e-03    1,283995900e-02   -7,954440117e-01    0,000000000e+00    0,000000000e+00    0,000000000e+00    0,000000000e+00
      128000000    6,842382997e-02   -4,228852317e-02   -4,082769454e-01   -6,783220768e-01    0,000000000e+00    0,000000000e+00    0,000000000e+00    0,000000000e+00
      142000000    4,347591847e-02   -8,876864612e-02   -7,051666975e-01   -3,608441353e-01    0,000000000e+00    0,000000000e+00    0,000000000e+00    0,000000000e+00
      156000000   -8,940738626e-03   -1,099466383e-01   -7,939980030e-01    6,761528552e-02    0,000000000e+00    0,000000000e+00    0,000000000e+00    0,000000000e+00
      170000000   -6,272185594e-02   -9,178793430e-02   -6,369899511e-01    4,864290655e-01    0,000000000e+00    0,000000000e+00    0,000000000e+00    0,000000000e+00
      184000000   -8,859745413e-02   -4,771131277e-02   -2,729814947e-01    7,560819387e-01    0,000000000e+00    0,000000000e+00    0,000000000e+00    0,000000000e+00
      198000000   -8,276700228e-02   -6,448923610e-03    1,796614081e-01    7,824288607e-01    0,000000000e+00    0,000000000e+00    0,000000000e+00    0,000000000e+00
      212000000   -6,269286573e-02    1,803807542e-02    5,706530809e-01    5,585017800e-01    0,000000000e+00    0,000000000e+00    0,000000000e+00    0,000000000e+00
      226000000   -4,147413746e-02    3,186585382e-02    7,768095136e-01    1,618028581e-01    0,000000000e+00    0,000000000e+00    0,000000000e+00    0,000000000e+00
      240000000   -1,495283190e-02    4,132276773e-02    7,359933853e-01   -2,788248956e-01    0,000000000e+00    0,000000000e+00    0,000000000e+00    0,000000000e+00
      254000000    2,137837186e-02    3,627502546e-02    4,677991271e-01   -6,219483018e-01    0,000000000e+00    0,000000000e+00    0,000000000e+00    0,000000000e+00
      268000000    5,328895152e-02    4,749620333e-03    6,659089774e-02   -7,674139738e-01    0,000000000e+00    0,000000000e+00    0,000000000e+00    0,000000000e+00
      282000000    5,744922534e-02   -4,486267641e-02   -3,457750380e-01   -6,827053428e-01    0,000000000e+00    0,000000000e+00    0,000000000e+00    0,000000000e+00
      296000000    2,605217695e-02   -8,463240415e-02   -6,547701955e-01   -3,977353573e-01    0,000000000e+00    0,000000000e+00    0,000000000e+00    0,000000000e+00
      310000000   -1,891006157e-02   -8,928450942e-02   -7,746655941e-01    9,772474878e-03    0,000000000e+00    0,000000000e+00    0,000000000e+00    0,000000000e+00
      324000000   -4,657467455e-02   -6,339103729e-02   -6,471654773e-01    4,300280511e-01    0,000000000e+00    0,000000000e+00    0,000000000e+00    0,000000000e+00
      338000000   -4,092970118e-02   -3,767041489e-02   -3,128018379e-01    7,076920271e-01    0,000000000e+00    0,000000000e+00    0,000000000e+00    0,000000000e+00
      352000000   -2,347675338e-02   -3,781426698e-02    1,202153713e-01    7,590212226e-01    0,000000000e+00    0,000000000e+00    0,000000000e+00    0,000000000e+00
      366000000   -2,287495509e-02   -5,603903532e-02    5,031900406e-01    5,719661117e-01    0,000000000e+00    0,000000000e+00    0,000000000e+00    0,000000000e+00
      380000000   -4,451014102e-02   -6,534829736e-02    7,266107202e-01    2,115187049e-01    0,000000000e+00    0,000000000e+00    0,000000000e+00    0,000000000e+00
      394000000   -6,663373113e-02   -5,067117140e-02    7,230533957e-01   -2,133847773e-01    0,000000000e+00    0,000000000e+00    0,000000000e+00    0,000000000e+00
      408000000   -6,749483943e-02   -2,644352429e-02    4,902873337e-01   -5,683411360e-01    0,000000000e+00    0,000000000e+00    0,000000000e+00    0,000000000e+00
      422000000   -5,336285010e-02   -1,548054069e-02    1,050477549e-01   -7,391591072e-01    0,000000000e+00    0,000000000e+00    0,000000000e+00    0,000000000e+00
      436000000   -4,678939655e-02   -1,834673621e-02   -3,062364459e-01   -6,757914424e-01    0,000000000e+00    0,000000000e+00    0,000000000e+00    0,000000000e+00
      450000000   -5,233182013e-02   -1,505743060e-02   -6,190558672e-01   -3,995652795e-01    0,000000000e+00    0,000000000e+00    0,000000000e+00    0,000000000e+00
      464000000   -5,062576383e-02    5,557195283e-03   -7,303212285e-01    3,470889525e-03    0,000000000e+00    0,000000000e+00    0,000000000e+00    0,000000000e+00
      478000000   -2,011615224e-02    2,694282681e-02   -5,985250473e-01    3,977932334e-01    0,000000000e+00    0,000000000e+00    0,000000000e+00    0,000000000e+00
      492000000    2,853064239e-02    1,457401551e-02   -2,804937661e-01    6,442517042e-01    0,000000000e+00    0,000000000e+00    0,000000000e+00    0,000000000e+00
      506000000    5,933905393e-02   -3,766434640e-02    1,052588001e-01    6,798576713e-01    0,000000000e+00    0,000000000e+00    0,000000000e+00    0,000000000e+00
      520000000    4,341805354e-02   -1,025166512e-01    4,384263456e-01    5,157802105e-01    0,000000000e+00    0,000000000e+00    0,000000000e+00    0,000000000e+00
      534000000   -1,303250063e-02   -1,435097307e-01    6,493462324e-01    2,059239596e-01    0,000000000e+00    0,000000000e+00    0,000000000e+00    0,000000000e+00
      548000000   -8,134526759e-02   -1,393344104e-01    6,599155664e-01   -1,763711423e-01    0,000000000e+00    0,000000000e+00    0,000000000e+00    0,000000000e+00
      562000000   -1,313282102e-01   -9,806331992e-02    4,504729807e-01   -5,085973144e-01    0,000000000e+00    0,000000000e+00    0,000000000e+00    0,000000000e+00
      576000000   -1,491759121e-01   -3,917712718e-02    8,257263154e-02   -6,608489752e-01    0,000000000e+00    0,000000000e+00    0,000000000e+00    0,000000000e+00
      590000000   -1,300043017e-01    2,843094990e-02   -2,934656143e-01   -5,633283854e-01    0,000000000e+00    0,000000000e+00    0,000000000e+00    0,000000000e+00
      604000000   -4,006658122e-02    6,884167343e-02   -4,898623824e-01   -2,702036500e-01    0,000000000e+00    0,000000000e+00    0,000000000e+00    0,000000000e+00
      618000000    3,542292491e-02   -2,826504596e-02   -4,937058687e-01   -4,783749953e-02    0,000000000e+00    0,000000000e+00    0,000000000e+00    0,000000000e+00
      632000000   -5,006143823e-02   -9,405490011e-02   -5,228608251e-01    1,767802536e-01    0,000000000e+00    0,000000000e+00    0,000000000e+00    0,000000000e+00
      646000000   -1,007213742e-01   -3,550038487e-02   -3,799132705e-01    4,755555391e-01    0,000000000e+00    0,000000000e+00    0,000000000e+00    0,000000000e+00
      660000000   -6,936126947e-02    9,948724881e-03   -5,299160630e-02    6,235778928e-01    0,000000000e+00    0,000000000e+00    0,000000000e+00    0,000000000e+00
      674000000   -3,093734011e-02    5,710904486e-03    2,976393700e-01    5,534479618e-01    0,000000000e+00    0,000000000e+00    0,000000000e+00    0,000000000e+00
      688000000   -1,518330723e-02   -1,796495914e-02    5,465035439e-01    3,034306169e-01    0,000000000e+00    0,000000000e+00    0,000000000e+00    0,000000000e+00
      702000000   -1,440308988e-02   -3,512925282e-02    6,223797798e-01   -3,996734321e-02    0,000000000e+00    0,000000000e+00    0,000000000e+00    0,000000000e+00
      716000000   -9,387237951e-03   -4,904695973e-02    4,920515418e-01   -3,681604862e-01    0,000000000e+00    0,000000000e+00    0,000000000e+00    0,000000000e+00
      730000000   -7,609896827e-03   -7,450085878e-02    2,120872736e-01   -5,683611035e-01    0,000000000e+00    0,000000000e+00    0,000000000e+00    0,000000000e+00
      744000000   -2,520356327e-02   -1,109834760e-01   -1,232369468e-01   -5,892943740e-01    0,000000000e+00    0,000000000e+00    0,000000000e+00    0,000000000e+00
      758000000   -7,478410751e-02   -1,336167306e-01   -4,197911322e-01   -4,330081344e-01    0,000000000e+00    0,000000000e+00    0,000000000e+00    0,000000000e+00
      772000000   -1,348566860e-01   -1,164681688e-01   -5,940165520e-01   -1,401085556e-01    0,000000000e+00    0,000000000e+00    0,000000000e+00    0,000000000e+00
      786000000   -1,715237051e-01   -5,829331279e-02   -5,822993517e-01    2,095054984e-01    0,000000000e+00    0,000000000e+00    0,000000000e+00    0,000000000e+00
      800000000   -1,594646573e-01    7,258497179e-03   -3,739814460e-01    4,959740043e-01    0,000000000e+00    0,000000000e+00    0,000000000e+00    0,000000000e+00
      814000000   -1,146581173e-01    4,257285967e-02   -4,652571678e-02    6,156514883e-01    0,000000000e+00    0,000000000e+00    0,000000000e+00    0,000000000e+00
      828000000   -6,864517182e-02    4,345986620e-02    2,866666317e-01    5,404321551e-01    0,000000000e+00    0,000000000e+00    0,000000000e+00    0,000000000e+00
      842000000   -3,862794861e-02    2,870610543e-02    5,217798352e-01    3,061520755e-01    0,000000000e+00    0,000000000e+00    0,000000000e+00    0,000000000e+00
      856000000   -1,814613491e-02    1,204762422e-02    5,942195058e-01   -1,407926343e-02    0,000000000e+00    0,000000000e+00    0,000000000e+00    0,000000000e+00
      870000000    1,483598608e-03   -1,135006268e-02    4,862946868e-01   -3,174068332e-01    0,000000000e+00    0,000000000e+00    0,000000000e+00    0,000000000e+00
      884000000    1,276937407e-02   -5,075753480e-02    2,429291457e-01   -5,117631555e-01    0,000000000e+00    0,000000000e+00    0,000000000e+00    0,000000000e+00
      898000000   -3,524441971e-03   -1,017823368e-01   -5,769273639e-02   -5,562664270e-01    0,000000000e+00    0,000000000e+00    0,000000000e+00    0,000000000e+00
      912000000   -6,291206926e-02   -1,324537992e-01   -3,866974115e-01   -4,106515050e-01    0,000000000e+00    0,000000000e+00    0,000000000e+00    0,000000000e+00
      926000000   -1,271327585e-01   -1,180648133e-01   -5,673771501e-01   -1,474877447e-01    0,000000000e+00    0,000000000e+00    0,000000000e+00    0,000000000e+00
      940000000   -1,616724581e-01   -6,390371174e-02   -5,667033792e-01    1,926524937e-01    0,000000000e+00    0,000000000e+00    0,000000000e+00    0,000000000e+00
      954000000   -1,487014592e-01   -2,690749243e-03   -3,742023408e-01    4,832142889e-01    0,000000000e+00    0,000000000e+00    0,000000000e+00    0,000000000e+00
      968000000   -9,646341950e-02    2,556867711e-02   -5,150343850e-02    6,146867275e-01    0,000000000e+00    0,000000000e+00    0,000000000e+00    0,000000000e+00
      982000000   -5,779121816e-02    7,547754329e-03    2,803471386e-01    5,540078282e-01    0,000000000e+00    0,000000000e+00    0,000000000e+00    0,000000000e+00
      996000000   -4,098762572e-02   -3,289812058e-02    5,230914950e-01    3,289043307e-01    0,000000000e+00    0,000000000e+00    0,000000000e+00    0,000000000e+00
     1010000000   -6,120666116e-02   -6,272653490e-02    6,092779636e-01    1,480639167e-02    0,000000000e+00    0,000000000e+00    0,000000000e+00    0,000000000e+00
     1024000000   -1,013433114e-01   -7,559120655e-02    5,136805177e-01   -2,809497416e-01    0,000000000e+00    0,000000000e+00    0,000000000e+00    0,000000000e+00
     1038000000   -1,447409242e-01   -5,615688860e-02    2,947358787e-01   -4,701991975e-01    0,000000000e+00    0,000000000e+00    0,000000000e+00    0,000000000e+00
     1052000000   -1,482812166e-01    2,879493695e-04    3,579902649e-02   -5,262590051e-01    0,000000000e+00    0,000000000e+00    0,000000000e+00    0,000000000e+00
     1066000000   -1,062042415e-01    3,828063607e-02   -2,145743072e-01   -4,644897282e-01    0,000000000e+00    0,000000000e+00    0,000000000e+00    0,000000000e+00
     1080000000   -5,134317279e-02    3,037698008e-02   -4,167162478e-01   -2,989176512e-01    0,000000000e+00    0,000000000e+00    0,000000000e+00    0,000000000e+00
     1094000000   -3,232680634e-02   -9,414494969e-03   -5,204329491e-01   -2,076444961e-02    0,000000000e+00    0,000000000e+00    0,000000000e+00    0,000000000e+00
     1108000000   -3,503363207e-02   -3,344032168e-02   -4,429781437e-01    2,870168686e-01    0,000000000e+00    0,000000000e+00    0,000000000e+00    0,000000000e+00
     1122000000   -3,109619766e-02   -5,212383345e-02   -1,847788990e-01    4,976947010e-01    0,000000000e+00    0,000000000e+00    0,000000000e+00    0,000000000e+00
     1136000000   -4,389645532e-02   -9,147427976e-02    1,518959701e-01    5,188301802e-01    0,000000000e+00    0,000000000e+00    0,000000000e+00    0,000000000e+00
     1150000000   -8,700446039e-02   -1,242358983e-01    4,538463354e-01    3,436449468e-01    0,000000000e+00    0,000000000e+00    0,000000000e+00    0,000000000e+00
     1164000000   -1,364684850e-01   -1,223376766e-01    6,119845510e-01    1,196299121e-02    0,000000000e+00    0,000000000e+00    0,000000000e+00    0,000000000e+00
     1178000000   -1,735156924e-01   -8,511406183e-02    5,373458862e-01   -3,736595213e-01    0,000000000e+00    0,000000000e+00    0,000000000e+00    0,000000000e+00
     1192000000   -1,803831756e-01   -5,249587446e-02    2,414606363e-01   -6,337367892e-01    0,000000000e+00    0,000000000e+00    0,000000000e+00    0,000000000e+00
     1206000000   -1,948901564e-01   -5,393655598e-02   -1,376543194e-01   -6,598762870e-01    0,000000000e+00    0,000000000e+00    0,000000000e+00    0,000000000e+00
     1220000000   -2,501818836e-01   -1,368774008e-02   -4,200291932e-01   -4,819727242e-01    0,000000000e+00    0,000000000e+00    0,000000000e+00    0,000000000e+00
     1234000000   -2,410346866e-01    1,160033345e-01   -5,570033193e-01   -2,525241673e-01    0,000000000e+00    0,000000000e+00    0,000000000e+00    0,000000000e+00
     1248000000   -1,169925705e-01    1,781311333e-01   -6,025680900e-01    2,159395441e-02    0,000000000e+00    0,000000000e+00    0,000000000e+00    0,000000000e+00
     1262000000   -7,056581322e-03    1,336454749e-01   -5,076709390e-01    2,951842844e-01    0,000000000e+00    0,000000000e+00    0,000000000e+00    0,000000000e+00
     1276000000    6,447783858e-02    4,018653184e-02   -2,770777345e-01    4,899706542e-01    0,000000000e+00    0,000000000e+00    0,000000000e+00    0,000000000e+00
     1290000000    7,121415436e-02   -7,397353649e-02    8,140054531e-03    5,425385833e-01    0,000000000e+00    0,000000000e+00    0,000000000e+00    0,000000000e+00
     1304000000    2,045547403e-02   -1,824732423e-01    2,984938323e-01    4,785394669e-01    0,000000000e+00    0,000000000e+00    0,000000000e+00    0,000000000e+00
     1318000000   -9,076341987e-02   -2,530359626e-01    5,441622734e-01    2,740665972e-01    0,000000000e+00    0,000000000e+00    0,000000000e+00    0,000000000e+00
     1332000000   -2,432169169e-01   -2,446013242e-01    6,527759433e-01   -5,454445258e-02    0,000000000e+00    0,000000000e+00    0,000000000e+00    0,000000000e+00
     1346000000   -3,627621830e-01   -1,421670616e-01    5,511673093e-01   -4,068210125e-01    0,000000000e+00    0,000000000e+00    0,000000000e+00    0,000000000e+00
     1360000000   -3,850021064e-01    1,166615821e-02    2,475709468e-01   -6,334858537e-01    0,000000000e+00    0,000000000e+00    0,000000000e+00    0,000000000e+00
     1374000000   -3,226488233e-01    1,209760234e-01   -1,054441929e-01   -6,213573813e-01    0,000000000e+00    0,000000000e+00    0,000000000e+00    0,000000000e+00
     1388000000   -2,372414768e-01    1,672844142e-01   -3,765933514e-01   -4,218794703e-01    0,000000000e+00    0,000000000e+00    0,000000000e+00    0,000000000e+00
     1402000000   -1,553711444e-01    1,662461311e-01   -4,660819769e-01   -1,129203886e-01    0,000000000e+00    0,000000000e+00    0,000000000e+00    0,000000000e+00
     1416000000   -7,850649208e-02    1,387654394e-01   -3,950281739e-01    2,058984786e-01    0,000000000e+00    0,000000000e+00    0,000000000e+00    0,000000000e+00
     1430000000   -3,588632122e-02    8,761946857e-02   -1,925292909e-01    4,328028560e-01    0,000000000e+00    0,000000000e+00    0,000000000e+00    0,000000000e+00
     1444000000   -9,064048529e-03    7,737500593e-03    1,238423362e-01    5,237886906e-01    0,000000000e+00    0,000000000e+00    0,000000000e+00    0,000000000e+00
     1458000000   -4,184802994e-02   -8,592505008e-02    4,400744438e-01    4,871607721e-01    0,000000000e+00    0,000000000e+00    0,000000000e+00    0,000000000e+00
     1472000000   -1,166622043e-01   -1,445783079e-01    7,335611582e-01    3,062895834e-01    0,000000000e+00    0,000000000e+00    0,000000000e+00    0,000000000e+00
     1486000000   -2,333884239e-01   -1,432346404e-01    8,933541179e-01   -4,674724489e-02    0,000000000e+00    0,000000000e+00    0,000000000e+00    0,000000000e+00
     1500000000   -3,040720820e-01   -6,978549063e-02    8,426899910e-01   -4,486739933e-01    0,000000000e+00    0,000000000e+00    0,000000000e+00    0,000000000e+00
