! NanoVNA-App
! Date: 2025-09-25 14:59:47
! Start: 100MHz Stop: 1,5GHz Points: 101
! S-Parameter data: F S11 S21 S12 S22
# Hz S RI R 50
!     Frequency           S11_Real           S11_Imag           S21_Real           S21_Imag           S12_Real           S12_Imag           S22_Real           S22_Imag
      100000000    3,558728471e-02    2,735835500e-02    4,407248199e-01   -6,695675254e-01    0,000000000e+00    0,000000000e+00    0,000000000e+00    0,000000000e+00
      114000000    6,073243544e-02    2,202196280e-03    1,301937271e-02   -7,953907847e-01    0,000000000e+00    0,000000000e+00    0,000000000e+00    0,000000000e+00
      128000000    6,834840775e-02   -4,228046909e-02   -4,082351625e-01   -6,779265404e-01    0,000000000e+00    0,000000000e+00    0,000000000e+00    0,000000000e+00
      142000000    4,345533997e-02   -8,879541606e-02   -7,054083943e-01   -3,611030579e-01    0,000000000e+00    0,000000000e+00    0,000000000e+00    0,000000000e+00
      156000000   -9,238092229e-03   -1,102306172e-01   -7,933162451e-01    6,815124303e-02    0,000000000e+00    0,000000000e+00    0,000000000e+00    0,000000000e+00
      170000000   -6,263791025e-02   -9,169046581e-02   -6,370401978e-01    4,864839017e-01    0,000000000e+00    0,000000000e+00    0,000000000e+00    0,000000000e+00
      184000000   -8,854301274e-02   -4,765278473e-02   -2,733297050e-01    7,563077807e-01    0,000000000e+00    0,000000000e+00    0,000000000e+00    0,000000000e+00
      198000000   -8,268877864e-02   -6,405466236e-03    1,793382317e-01    7,824146748e-01    0,000000000e+00    0,000000000e+00    0,000000000e+00    0,000000000e+00
      212000000   -6,262846291e-02    1,804303937e-02    5,705673695e-01    5,580574870e-01    0,000000000e+00    0,000000000e+00    0,000000000e+00    0,000000000e+00
      226000000   -4,143553227e-02    3,175745159e-02    7,767364979e-01    1,619832367e-01    0,000000000e+00    0,000000000e+00    0,000000000e+00    0,000000000e+00
      240000000   -1,485146023e-02    4,134518281e-02    7,359730005e-01   -2,787068486e-01    0,000000000e+00    0,000000000e+00    0,000000000e+00    0,000000000e+00
      254000000    2,142162435e-02    3,628482297e-02    4,679870009e-01   -6,222661138e-01    0,000000000e+00    0,000000000e+00    0,000000000e+00    0,000000000e+00
      268000000    5,327973515e-02    4,696336109e-03    6,666216999e-02   -7,672586441e-01    0,000000000e+00    0,000000000e+00    0,000000000e+00    0,000000000e+00
      282000000    5,745761842e-02   -4,491464421e-02   -3,461233079e-01   -6,827563643e-01    0,000000000e+00    0,000000000e+00    0,000000000e+00    0,000000000e+00
      296000000    2,608982660e-02   -8,477059007e-02   -6,545000076e-01   -3,977524638e-01    0,000000000e+00    0,000000000e+00    0,000000000e+00    0,000000000e+00
      310000000   -1,896362193e-02   -8,929655701e-02   -7,735037804e-01    9,428224526e-03    0,000000000e+00    0,000000000e+00    0,000000000e+00    0,000000000e+00
      324000000   -4,645249248e-02   -6,340275705e-02   -6,478046775e-01    4,299781024e-01    0,000000000e+00    0,000000000e+00    0,000000000e+00    0,000000000e+00
      338000000   -4,093000293e-02   -3,762984276e-02   -3,089568615e-01    7,102291584e-01    0,000000000e+00    0,000000000e+00    0,000000000e+00    0,000000000e+00
      352000000   -2,340766415e-02   -3,752278164e-02    1,197738871e-01    7,588319182e-01    0,000000000e+00    0,000000000e+00    0,000000000e+00    0,000000000e+00
      366000000   -2,309588529e-02   -5,599150434e-02    5,025357604e-01    5,713579655e-01    0,000000000e+00    0,000000000e+00    0,000000000e+00    0,000000000e+00
      380000000   -4,442348331e-02   -6,517183036e-02    7,270321846e-01    2,118609697e-01    0,000000000e+00    0,000000000e+00    0,000000000e+00    0,000000000e+00
      394000000   -6,650404632e-02   -5,101920292e-02    7,227554917e-01   -2,134968340e-01    0,000000000e+00    0,000000000e+00    0,000000000e+00    0,000000000e+00
      408000000   -6,763262302e-02   -2,625050209e-02    4,906809032e-01   -5,674074888e-01    0,000000000e+00    0,000000000e+00    0,000000000e+00    0,000000000e+00
      422000000   -5,321002007e-02   -1,531245001e-02    1,060580984e-01   -7,391364574e-01    0,000000000e+00    0,000000000e+00    0,000000000e+00    0,000000000e+00
      436000000   -4,651675746e-02   -1,874965429e-02   -3,062101007e-01   -6,761192679e-01    0,000000000e+00    0,000000000e+00    0,000000000e+00    0,000000000e+00
      450000000   -5,198404565e-02   -1,471023541e-02   -6,191374063e-01   -3,992184699e-01    0,000000000e+00    0,000000000e+00    0,000000000e+00    0,000000000e+00
      464000000   -5,068903044e-02    5,933135748e-03   -7,297663093e-01    3,612253116e-03    0,000000000e+00    0,000000000e+00    0,000000000e+00    0,000000000e+00
      478000000   -2,002786472e-02    2,652918361e-02   -5,989852548e-01    3,975045979e-01    0,000000000e+00    0,000000000e+00    0,000000000e+00    0,000000000e+00
      492000000    2,857168578e-02    1,494411752e-02   -2,792228162e-01    6,445444226e-01    0,000000000e+00    0,000000000e+00    0,000000000e+00    0,000000000e+00
      506000000    5,911977217e-02   -3,727945313e-02    1,053597927e-01    6,803207994e-01    0,000000000e+00    0,000000000e+00    0,000000000e+00    0,000000000e+00
      520000000    4,427601025e-02   -1,027718112e-01    4,417792261e-01    5,158230662e-01    0,000000000e+00    0,000000000e+00    0,000000000e+00    0,000000000e+00
      534000000   -1,244535111e-02   -1,441396028e-01    6,499503255e-01    2,053660750e-01    0,000000000e+00    0,000000000e+00    0,000000000e+00    0,000000000e+00
      548000000   -8,223841339e-02   -1,398174465e-01    6,600062847e-01   -1,767744273e-01    0,000000000e+00    0,000000000e+00    0,000000000e+00    0,000000000e+00
      562000000   -1,313757449e-01   -9,767863154e-02    4,512529969e-01   -5,092507601e-01    0,000000000e+00    0,000000000e+00    0,000000000e+00    0,000000000e+00
      576000000   -1,487282962e-01   -3,836665303e-02    8,192941546e-02   -6,607836485e-01    0,000000000e+00    0,000000000e+00    0,000000000e+00    0,000000000e+00
      590000000   -1,297614723e-01    2,907861397e-02   -2,946333289e-01   -5,656493902e-01    0,000000000e+00    0,000000000e+00    0,000000000e+00    0,000000000e+00
      604000000   -3,867407516e-02    6,836128235e-02   -4,893476963e-01   -2,697907984e-01    0,000000000e+00    0,000000000e+00    0,000000000e+00    0,000000000e+00
      618000000    3,457839042e-02   -2,908279002e-02   -4,938539565e-01   -4,892832041e-02    0,000000000e+00    0,000000000e+00    0,000000000e+00    0,000000000e+00
      632000000   -5,185376108e-02   -9,353879839e-02   -5,241737366e-01    1,770757884e-01    0,000000000e+00    0,000000000e+00    0,000000000e+00    0,000000000e+00
      646000000   -9,980197996e-02   -3,500694782e-02   -3,783646822e-01    4,765050113e-01    0,000000000e+00    0,000000000e+00    0,000000000e+00    0,000000000e+00
      660000000   -6,975252926e-02    1,013415307e-02   -5,076101795e-02    6,249722242e-01    0,000000000e+00    0,000000000e+00    0,000000000e+00    0,000000000e+00
      674000000   -3,118711337e-02    4,614338744e-03    2,980535626e-01    5,528622270e-01    0,000000000e+00    0,000000000e+00    0,000000000e+00    0,000000000e+00
      688000000   -1,576569863e-02   -1,815057732e-02    5,472145081e-01    3,037264645e-01    0,000000000e+00    0,000000000e+00    0,000000000e+00    0,000000000e+00
      702000000   -1,420662925e-02   -3,349246457e-02    6,181261539e-01   -4,028527066e-02    0,000000000e+00    0,000000000e+00    0,000000000e+00    0,000000000e+00
      716000000   -9,462436661e-03   -4,892478511e-02    4,923664629e-01   -3,679658771e-01    0,000000000e+00    0,000000000e+00    0,000000000e+00    0,000000000e+00
      730000000   -6,736226846e-03   -7,500939071e-02    2,112854868e-01   -5,681030154e-01    0,000000000e+00    0,000000000e+00    0,000000000e+00    0,000000000e+00
      744000000   -2,521044575e-02   -1,104394644e-01   -1,236323714e-01   -5,870804787e-01    0,000000000e+00    0,000000000e+00    0,000000000e+00    0,000000000e+00
      758000000   -7,459265739e-02   -1,334577501e-01   -4,202166498e-01   -4,328439236e-01    0,000000000e+00    0,000000000e+00    0,000000000e+00    0,000000000e+00
      772000000   -1,358029991e-01   -1,156781763e-01   -5,940103531e-01   -1,400580704e-01    0,000000000e+00    0,000000000e+00    0,000000000e+00    0,000000000e+00
      786000000   -1,714244634e-01   -5,784323439e-02   -5,814737678e-01    2,097971439e-01    0,000000000e+00    0,000000000e+00    0,000000000e+00    0,000000000e+00
      800000000   -1,594559699e-01    7,252715528e-03   -3,734284937e-01    4,964360595e-01    0,000000000e+00    0,000000000e+00    0,000000000e+00    0,000000000e+00
      814000000   -1,148899794e-01    4,296496138e-02   -4,469574615e-02    6,139342785e-01    0,000000000e+00    0,000000000e+00    0,000000000e+00    0,000000000e+00
      828000000   -6,795365363e-02    4,389112815e-02    2,856896818e-01    5,402030945e-01    0,000000000e+00    0,000000000e+00    0,000000000e+00    0,000000000e+00
      842000000   -3,867676482e-02    2,959840000e-02    5,213158131e-01    3,050715625e-01    0,000000000e+00    0,000000000e+00    0,000000000e+00    0,000000000e+00
      856000000   -1,802611165e-02    1,189926919e-02    5,947448611e-01   -1,372150984e-02    0,000000000e+00    0,000000000e+00    0,000000000e+00    0,000000000e+00
      870000000    2,160412027e-03   -1,135317143e-02    4,861631691e-01   -3,172743320e-01    0,000000000e+00    0,000000000e+00    0,000000000e+00    0,000000000e+00
      884000000    1,353319641e-02   -5,123972148e-02    2,419649512e-01   -5,109854341e-01    0,000000000e+00    0,000000000e+00    0,000000000e+00    0,000000000e+00
      898000000   -3,674474545e-03   -1,021206751e-01   -5,755638331e-02   -5,550066233e-01    0,000000000e+00    0,000000000e+00    0,000000000e+00    0,000000000e+00
      912000000   -6,317650527e-02   -1,320676357e-01   -3,965296447e-01   -4,226458371e-01    0,000000000e+00    0,000000000e+00    0,000000000e+00    0,000000000e+00
      926000000   -1,269862503e-01   -1,173698008e-01   -5,669462085e-01   -1,474551708e-01    0,000000000e+00    0,000000000e+00    0,000000000e+00    0,000000000e+00
      940000000   -1,630192250e-01   -6,446271390e-02   -5,677120686e-01    1,899359226e-01    0,000000000e+00    0,000000000e+00    0,000000000e+00    0,000000000e+00
      954000000   -1,504114717e-01    2,215840796e-04   -3,743202388e-01    4,844464958e-01    0,000000000e+00    0,000000000e+00    0,000000000e+00    0,000000000e+00
      968000000   -9,570842981e-02    2,458377555e-02   -5,147502199e-02    6,153718233e-01    0,000000000e+00    0,000000000e+00    0,000000000e+00    0,000000000e+00
      982000000   -5,700536445e-02    3,945477773e-03    2,816415131e-01    5,533738136e-01    0,000000000e+00    0,000000000e+00    0,000000000e+00    0,000000000e+00
      996000000   -4,213237762e-02   -3,504141793e-02    5,236502290e-01    3,260465860e-01    0,000000000e+00    0,000000000e+00    0,000000000e+00    0,000000000e+00
     1010000000   -6,493578106e-02   -6,490635872e-02    6,080146432e-01    1,473003626e-02    0,000000000e+00    0,000000000e+00    0,000000000e+00    0,000000000e+00
     1024000000   -1,026140153e-01   -8,044658601e-02    5,141093135e-01   -2,804820538e-01    0,000000000e+00    0,000000000e+00    0,000000000e+00    0,000000000e+00
     1038000000   -1,406518370e-01   -6,029523909e-02    2,952950895e-01   -4,736753106e-01    0,000000000e+00    0,000000000e+00    0,000000000e+00    0,000000000e+00
     1052000000   -1,543906480e-01   -2,695131843e-05    3,114970960e-02   -5,227223039e-01    0,000000000e+00    0,000000000e+00    0,000000000e+00    0,000000000e+00
     1066000000   -1,022392735e-01    3,897424787e-02   -2,067103237e-01   -4,678743482e-01    0,000000000e+00    0,000000000e+00    0,000000000e+00    0,000000000e+00
     1080000000   -5,131871998e-02    2,987195924e-02   -4,156790376e-01   -2,972524762e-01    0,000000000e+00    0,000000000e+00    0,000000000e+00    0,000000000e+00
     1094000000   -3,237462789e-02   -9,254327975e-03   -5,201041698e-01   -2,540721558e-02    0,000000000e+00    0,000000000e+00    0,000000000e+00    0,000000000e+00
     1108000000   -3,495470434e-02   -3,106246330e-02   -4,406408966e-01    2,820358276e-01    0,000000000e+00    0,000000000e+00    0,000000000e+00    0,000000000e+00
     1122000000   -2,800010704e-02   -5,668867007e-02   -1,869092882e-01    4,959836602e-01    0,000000000e+00    0,000000000e+00    0,000000000e+00    0,000000000e+00
     1136000000   -4,413930327e-02   -9,751130641e-02    1,496158838e-01    5,185921788e-01    0,000000000e+00    0,000000000e+00    0,000000000e+00    0,000000000e+00
     1150000000   -8,684946597e-02   -1,240112558e-01    4,536880553e-01    3,440253437e-01    0,000000000e+00    0,000000000e+00    0,000000000e+00    0,000000000e+00
     1164000000   -1,432701647e-01   -1,225921065e-01    6,097567677e-01    1,043873187e-02    0,000000000e+00    0,000000000e+00    0,000000000e+00    0,000000000e+00
     1178000000   -1,764135808e-01   -9,121210128e-02    5,411330462e-01   -3,689071536e-01    0,000000000e+00    0,000000000e+00    0,000000000e+00    0,000000000e+00
     1192000000   -1,755359322e-01   -5,403456837e-02    2,426161915e-01   -6,380371451e-01    0,000000000e+00    0,000000000e+00    0,000000000e+00    0,000000000e+00
     1206000000   -1,889439672e-01   -5,284941569e-02   -1,411445439e-01   -6,609500051e-01    0,000000000e+00    0,000000000e+00    0,000000000e+00    0,000000000e+00
     1220000000   -2,533568144e-01   -1,732719690e-02   -4,165345430e-01   -4,850568175e-01    0,000000000e+00    0,000000000e+00    0,000000000e+00    0,000000000e+00
     1234000000   -2,379754037e-01    1,160781160e-01   -5,552139878e-01   -2,489680201e-01    0,000000000e+00    0,000000000e+00    0,000000000e+00    0,000000000e+00
     1248000000   -1,144327074e-01    1,759157330e-01   -6,046860218e-01    2,096033469e-02    0,000000000e+00    0,000000000e+00    0,000000000e+00    0,000000000e+00
     1262000000   -8,000621456e-04    1,301752925e-01   -5,048693419e-01    2,988886833e-01    0,000000000e+00    0,000000000e+00    0,000000000e+00    0,000000000e+00
     1276000000    6,085769087e-02    3,846150637e-02   -2,788650692e-01    4,853592813e-01    0,000000000e+00    0,000000000e+00    0,000000000e+00    0,000000000e+00
     1290000000    6,911063194e-02   -6,969945878e-02    8,069035597e-03    5,475482345e-01    0,000000000e+00    0,000000000e+00    0,000000000e+00    0,000000000e+00
     1304000000    1,838301867e-02   -1,779969186e-01    2,948891819e-01    4,770751595e-01    0,000000000e+00    0,000000000e+00    0,000000000e+00    0,000000000e+00
     1318000000   -9,398032725e-02   -2,485263050e-01    5,370304585e-01    2,777067721e-01    0,000000000e+00    0,000000000e+00    0,000000000e+00    0,000000000e+00
     1332000000   -2,409675717e-01   -2,473134995e-01    6,543713212e-01   -5,294588208e-02    0,000000000e+00    0,000000000e+00    0,000000000e+00    0,000000000e+00
     1346000000   -3,652153313e-01   -1,422213614e-01    5,582522154e-01   -4,089662731e-01    0,000000000e+00    0,000000000e+00    0,000000000e+00    0,000000000e+00
     1360000000   -3,842633963e-01    1,059383061e-02    2,605719268e-01   -6,283387542e-01    0,000000000e+00    0,000000000e+00    0,000000000e+00    0,000000000e+00
     1374000000   -3,259398937e-01    1,231047660e-01   -1,012642384e-01   -6,170527935e-01    0,000000000e+00    0,000000000e+00    0,000000000e+00    0,000000000e+00
     1388000000   -2,391327024e-01    1,696820110e-01   -3,782444894e-01   -4,220934808e-01    0,000000000e+00    0,000000000e+00    0,000000000e+00    0,000000000e+00
     1402000000   -1,527762115e-01    1,650393903e-01   -4,741762280e-01   -1,050110459e-01    0,000000000e+00    0,000000000e+00    0,000000000e+00    0,000000000e+00
     1416000000   -8,377666771e-02    1,407527030e-01   -4,031550586e-01    1,987520158e-01    0,000000000e+00    0,000000000e+00    0,000000000e+00    0,000000000e+00
     1430000000   -3,486629575e-02    8,677779138e-02   -1,896300912e-01    4,082044661e-01    0,000000000e+00    0,000000000e+00    0,000000000e+00    0,000000000e+00
     1444000000   -1,520496607e-02    3,477979684e-03    1,250889599e-01    5,172013640e-01    0,000000000e+00    0,000000000e+00    0,000000000e+00    0,000000000e+00
     1458000000   -3,458509222e-02   -8,053578436e-02    4,445413947e-01    4,997056425e-01    0,000000000e+00    0,000000000e+00    0,000000000e+00    0,000000000e+00
     1472000000   -1,211085096e-01   -1,420153528e-01    7,258254290e-01    3,207578361e-01    0,000000000e+00    0,000000000e+00    0,000000000e+00    0,000000000e+00
     1486000000   -2,319358289e-01   -1,434448510e-01    8,928124309e-01   -3,549902886e-02    0,000000000e+00    0,000000000e+00    0,000000000e+00    0,000000000e+00
     1500000000   -3,025935292e-01   -6,157947332e-02    8,408790231e-01   -4,040339589e-01    0,000000000e+00    0,000000000e+00    0,000000000e+00    0,000000000e+00
