! NanoVNA-App
! Date: 2025-09-25 15:01:55
! Start: 100MHz Stop: 1,5GHz Points: 101
! S-Parameter data: F S11 S21 S12 S22
# Hz S RI R 50
!     Frequency           S11_Real           S11_Imag           S21_Real           S21_Imag           S12_Real           S12_Imag           S22_Real           S22_Imag
      100000000    3,557148948e-02    2,735759318e-02    4,407893419e-01   -6,695452332e-01    0,000000000e+00    0,000000000e+00    0,000000000e+00    0,000000000e+00
      114000000    6,073454767e-02    2,162933117e-03    1,280094218e-02   -7,955119610e-01    0,000000000e+00    0,000000000e+00    0,000000000e+00    0,000000000e+00
      128000000    6,839186698e-02   -4,224416241e-02   -4,082046449e-01   -6,779636741e-01    0,000000000e+00    0,000000000e+00    0,000000000e+00    0,000000000e+00
      142000000    4,348981753e-02   -8,877588809e-02   -7,054488063e-01   -3,610687256e-01    0,000000000e+00    0,000000000e+00    0,000000000e+00    0,000000000e+00
      156000000   -8,839768358e-03   -1,103531793e-01   -7,942639589e-01    6,804127246e-02    0,000000000e+00    0,000000000e+00    0,000000000e+00    0,000000000e+00
      170000000   -6,267409772e-02   -9,185122699e-02   -6,370766759e-01    4,863324463e-01    0,000000000e+00    0,000000000e+00    0,000000000e+00    0,000000000e+00
      184000000   -8,858426660e-02   -4,768943787e-02   -2,730412781e-01    7,563734055e-01    0,000000000e+00    0,000000000e+00    0,000000000e+00    0,000000000e+00
      198000000   -8,277294040e-02   -6,416470278e-03    1,795862317e-01    7,821414471e-01    0,000000000e+00    0,000000000e+00    0,000000000e+00    0,000000000e+00
      212000000   -6,268367171e-02    1,801239140e-02    5,706787705e-01    5,584482551e-01    0,000000000e+00    0,000000000e+00    0,000000000e+00    0,000000000e+00
      226000000   -4,144987091e-02    3,180367872e-02    7,767584920e-01    1,619496346e-01    0,000000000e+00    0,000000000e+00    0,000000000e+00    0,000000000e+00
      240000000   -1,487025619e-02    4,126680642e-02    7,360023260e-01   -2,787835598e-01    0,000000000e+00    0,000000000e+00    0,000000000e+00    0,000000000e+00
      254000000    2,141210996e-02    3,633145243e-02    4,680496156e-01   -6,220725179e-01    0,000000000e+00    0,000000000e+00    0,000000000e+00    0,000000000e+00
      268000000    5,334618688e-02    4,764206242e-03    6,660709530e-02   -7,672974467e-01    0,000000000e+00    0,000000000e+00    0,000000000e+00    0,000000000e+00
      282000000    5,743572861e-02   -4,502599686e-02   -3,457000554e-01   -6,826108098e-01    0,000000000e+00    0,000000000e+00    0,000000000e+00    0,000000000e+00
      296000000    2,616113797e-02   -8,466359228e-02   -6,550316215e-01   -3,980243504e-01    0,000000000e+00    0,000000000e+00    0,000000000e+00    0,000000000e+00
      310000000   -1,912218891e-02   -8,969248086e-02   -7,745946050e-01    1,088653412e-02    0,000000000e+00    0,000000000e+00    0,000000000e+00    0,000000000e+00
      324000000   -4,660645500e-02   -6,349851191e-02   -6,487615108e-01    4,296396971e-01    0,000000000e+00    0,000000000e+00    0,000000000e+00    0,000000000e+00
      338000000   -4,125605524e-02   -3,759203106e-02   -3,089219630e-01    7,098276019e-01    0,000000000e+00    0,000000000e+00    0,000000000e+00    0,000000000e+00
      352000000   -2,367193811e-02   -3,782848641e-02    1,198141128e-01    7,588694692e-01    0,000000000e+00    0,000000000e+00    0,000000000e+00    0,000000000e+00
      366000000   -2,288336121e-02   -5,626033992e-02    5,030930042e-01    5,713668466e-01    0,000000000e+00    0,000000000e+00    0,000000000e+00    0,000000000e+00
      380000000   -4,481496289e-02   -6,540322304e-02    7,263243198e-01    2,114713341e-01    0,000000000e+00    0,000000000e+00    0,000000000e+00    0,000000000e+00
      394000000   -6,644485146e-02   -5,094383284e-02    7,224121094e-01   -2,132761925e-01    0,000000000e+00    0,000000000e+00    0,000000000e+00    0,000000000e+00
      408000000   -6,751168519e-02   -2,641946450e-02    4,902658761e-01   -5,684434772e-01    0,000000000e+00    0,000000000e+00    0,000000000e+00    0,000000000e+00
      422000000   -5,343111977e-02   -1,501635369e-02    1,055222824e-01   -7,387424111e-01    0,000000000e+00    0,000000000e+00    0,000000000e+00    0,000000000e+00
      436000000   -4,653074592e-02   -1,841192879e-02   -3,061400354e-01   -6,754480600e-01    0,000000000e+00    0,000000000e+00    0,000000000e+00    0,000000000e+00
      450000000   -5,199906230e-02   -1,493594795e-02   -6,191259027e-01   -4,001048803e-01    0,000000000e+00    0,000000000e+00    0,000000000e+00    0,000000000e+00
      464000000   -5,048412085e-02    5,504808389e-03   -7,299226522e-01    3,338088281e-03    0,000000000e+00    0,000000000e+00    0,000000000e+00    0,000000000e+00
      478000000   -2,065270580e-02    2,626651712e-02   -5,984883308e-01    3,967442811e-01    0,000000000e+00    0,000000000e+00    0,000000000e+00    0,000000000e+00
      492000000    2,827323973e-02    1,465119608e-02   -2,803431153e-01    6,447965503e-01    0,000000000e+00    0,000000000e+00    0,000000000e+00    0,000000000e+00
      506000000    5,840918422e-02   -3,711857274e-02    1,043502167e-01    6,807987690e-01    0,000000000e+00    0,000000000e+00    0,000000000e+00    0,000000000e+00
      520000000    4,480966926e-02   -1,020369455e-01    4,430469275e-01    5,203830004e-01    0,000000000e+00    0,000000000e+00    0,000000000e+00    0,000000000e+00
      534000000   -1,246134378e-02   -1,436853260e-01    6,492982507e-01    2,060401291e-01    0,000000000e+00    0,000000000e+00    0,000000000e+00    0,000000000e+00
      548000000   -8,117549121e-02   -1,388715059e-01    6,600235701e-01   -1,755918413e-01    0,000000000e+00    0,000000000e+00    0,000000000e+00    0,000000000e+00
      562000000   -1,297354847e-01   -9,814573824e-02    4,528526068e-01   -5,083903670e-01    0,000000000e+00    0,000000000e+00    0,000000000e+00    0,000000000e+00
      576000000   -1,476603150e-01   -4,145682231e-02    8,448234200e-02   -6,639148593e-01    0,000000000e+00    0,000000000e+00    0,000000000e+00    0,000000000e+00
      590000000   -1,320345253e-01    2,325679362e-02   -2,944938838e-01   -5,699512959e-01    0,000000000e+00    0,000000000e+00    0,000000000e+00    0,000000000e+00
      604000000   -5,091705546e-02    6,987743825e-02   -5,037555099e-01   -2,714682817e-01    0,000000000e+00    0,000000000e+00    0,000000000e+00    0,000000000e+00
      618000000    4,009297118e-02   -1,129703503e-02   -4,917559624e-01   -2,750158682e-02    0,000000000e+00    0,000000000e+00    0,000000000e+00    0,000000000e+00
      632000000   -3,769121319e-02   -9,864047170e-02   -5,066433549e-01    1,726331562e-01    0,000000000e+00    0,000000000e+00    0,000000000e+00    0,000000000e+00
      646000000   -1,027966291e-01   -4,426563531e-02   -3,806100190e-01    4,646078944e-01    0,000000000e+00    0,000000000e+00    0,000000000e+00    0,000000000e+00
      660000000   -7,565569133e-02    7,222393062e-03   -5,738344043e-02    6,221815348e-01    0,000000000e+00    0,000000000e+00    0,000000000e+00    0,000000000e+00
      674000000   -3,356302530e-02    7,135688793e-03    2,942751944e-01    5,545395613e-01    0,000000000e+00    0,000000000e+00    0,000000000e+00    0,000000000e+00
      688000000   -1,502917334e-02   -1,403058786e-02    5,457343459e-01    3,062729836e-01    0,000000000e+00    0,000000000e+00    0,000000000e+00    0,000000000e+00
      702000000   -1,253233943e-02   -3,231002390e-02    6,200135946e-01   -3,660973161e-02    0,000000000e+00    0,000000000e+00    0,000000000e+00    0,000000000e+00
      716000000   -7,780152839e-03   -4,870348051e-02    4,938192964e-01   -3,665450513e-01    0,000000000e+00    0,000000000e+00    0,000000000e+00    0,000000000e+00
      730000000   -5,338064395e-03   -7,617913932e-02    2,134606242e-01   -5,675553083e-01    0,000000000e+00    0,000000000e+00    0,000000000e+00    0,000000000e+00
      744000000   -2,600125410e-02   -1,120076850e-01   -1,224379465e-01   -5,886222720e-01    0,000000000e+00    0,000000000e+00    0,000000000e+00    0,000000000e+00
      758000000   -7,563660294e-02   -1,348280013e-01   -4,187481403e-01   -4,342306256e-01    0,000000000e+00    0,000000000e+00    0,000000000e+00    0,000000000e+00
      772000000   -1,372343898e-01   -1,161136404e-01   -5,949501991e-01   -1,414967179e-01    0,000000000e+00    0,000000000e+00    0,000000000e+00    0,000000000e+00
      786000000   -1,738121510e-01   -5,799090490e-02   -5,833746791e-01    2,096664160e-01    0,000000000e+00    0,000000000e+00    0,000000000e+00    0,000000000e+00
      800000000   -1,597974747e-01    8,796938695e-03   -3,742019236e-01    4,970034659e-01    0,000000000e+00    0,000000000e+00    0,000000000e+00    0,000000000e+00
      814000000   -1,135352179e-01    4,428527504e-02   -4,533986375e-02    6,155954599e-01    0,000000000e+00    0,000000000e+00    0,000000000e+00    0,000000000e+00
      828000000   -6,764981151e-02    4,423123226e-02    2,879342139e-01    5,419340134e-01    0,000000000e+00    0,000000000e+00    0,000000000e+00    0,000000000e+00
      842000000   -3,731638566e-02    2,802539431e-02    5,215070844e-01    3,069811463e-01    0,000000000e+00    0,000000000e+00    0,000000000e+00    0,000000000e+00
      856000000   -1,833555661e-02    1,121722627e-02    5,955878496e-01   -1,393280458e-02    0,000000000e+00    0,000000000e+00    0,000000000e+00    0,000000000e+00
      870000000    2,137376141e-04   -1,186929364e-02    4,877686203e-01   -3,179949522e-01    0,000000000e+00    0,000000000e+00    0,000000000e+00    0,000000000e+00
      884000000    1,209757477e-02   -5,093858764e-02    2,429074794e-01   -5,127267241e-01    0,000000000e+00    0,000000000e+00    0,000000000e+00    0,000000000e+00
      898000000   -4,296931438e-03   -1,007344648e-01   -5,917996913e-02   -5,563799143e-01    0,000000000e+00    0,000000000e+00    0,000000000e+00    0,000000000e+00
      912000000   -6,207905337e-02   -1,313524842e-01   -3,949784338e-01   -4,133411944e-01    0,000000000e+00    0,000000000e+00    0,000000000e+00    0,000000000e+00
      926000000   -1,266822517e-01   -1,194934770e-01   -5,690850616e-01   -1,485905051e-01    0,000000000e+00    0,000000000e+00    0,000000000e+00    0,000000000e+00
      940000000   -1,618725210e-01   -6,285610795e-02   -5,690031052e-01    1,948028505e-01    0,000000000e+00    0,000000000e+00    0,000000000e+00    0,000000000e+00
      954000000   -1,480041593e-01   -2,083489817e-04   -3,731717169e-01    4,838194549e-01    0,000000000e+00    0,000000000e+00    0,000000000e+00    0,000000000e+00
      968000000   -1,004443169e-01    2,480359003e-02   -5,048859119e-02    6,134257913e-01    0,000000000e+00    0,000000000e+00    0,000000000e+00    0,000000000e+00
      982000000   -5,392966047e-02    4,704814870e-03    2,841685116e-01    5,502321124e-01    0,000000000e+00    0,000000000e+00    0,000000000e+00    0,000000000e+00
      996000000   -4,524019361e-02   -3,336709738e-02    5,236340761e-01    3,267572522e-01    0,000000000e+00    0,000000000e+00    0,000000000e+00    0,000000000e+00
     1010000000   -6,027265638e-02   -6,762294471e-02    6,083488464e-01    1,268200204e-02    0,000000000e+00    0,000000000e+00    0,000000000e+00    0,000000000e+00
     1024000000   -9,852310270e-02   -7,785008103e-02    5,136415958e-01   -2,798246741e-01    0,000000000e+00    0,000000000e+00    0,000000000e+00    0,000000000e+00
     1038000000   -1,426785141e-01   -5,888876319e-02    2,949480414e-01   -4,708528519e-01    0,000000000e+00    0,000000000e+00    0,000000000e+00    0,000000000e+00
     1052000000   -1,475058496e-01   -3,123610746e-03    3,444986790e-02   -5,251584649e-01    0,000000000e+00    0,000000000e+00    0,000000000e+00    0,000000000e+00
     1066000000   -1,079487130e-01    3,772787750e-02   -2,037482858e-01   -4,652158320e-01    0,000000000e+00    0,000000000e+00    0,000000000e+00    0,000000000e+00
     1080000000   -5,151830986e-02    2,496788278e-02   -4,166179299e-01   -2,981519997e-01    0,000000000e+00    0,000000000e+00    0,000000000e+00    0,000000000e+00
     1094000000   -2,983343787e-02   -6,153437775e-03   -5,205990672e-01   -2,423266880e-02    0,000000000e+00    0,000000000e+00    0,000000000e+00    0,000000000e+00
     1108000000   -3,109951690e-02   -2,812214196e-02   -4,437288642e-01    2,846090794e-01    0,000000000e+00    0,000000000e+00    0,000000000e+00    0,000000000e+00
     1122000000   -2,780913748e-02   -5,966192111e-02   -1,862265170e-01    4,962014854e-01    0,000000000e+00    0,000000000e+00    0,000000000e+00    0,000000000e+00
     1136000000   -4,118200019e-02   -9,142281860e-02    1,510599256e-01    5,206089020e-01    0,000000000e+00    0,000000000e+00    0,000000000e+00    0,000000000e+00
     1150000000   -8,389499784e-02   -1,260144562e-01    4,527231753e-01    3,415091336e-01    0,000000000e+00    0,000000000e+00    0,000000000e+00    0,000000000e+00
     1164000000   -1,412926614e-01   -1,196403652e-01    6,136851907e-01    1,358717494e-02    0,000000000e+00    0,000000000e+00    0,000000000e+00    0,000000000e+00
     1178000000   -1,719362438e-01   -8,513288200e-02    5,379076600e-01   -3,733388782e-01    0,000000000e+00    0,000000000e+00    0,000000000e+00    0,000000000e+00
     1192000000   -1,774527580e-01   -5,251741037e-02    2,420799732e-01   -6,392422915e-01    0,000000000e+00    0,000000000e+00    0,000000000e+00    0,000000000e+00
     1206000000   -1,949472278e-01   -5,280045420e-02   -1,339366734e-01   -6,601169109e-01    0,000000000e+00    0,000000000e+00    0,000000000e+00    0,000000000e+00
     1220000000   -2,513481677e-01   -1,445110608e-02   -4,200423360e-01   -4,810546637e-01    0,000000000e+00    0,000000000e+00    0,000000000e+00    0,000000000e+00
     1234000000   -2,416535914e-01    1,177989021e-01   -5,606908798e-01   -2,463067025e-01    0,000000000e+00    0,000000000e+00    0,000000000e+00    0,000000000e+00
     1248000000   -1,169529483e-01    1,770862341e-01   -6,037396193e-01    2,084082738e-02    0,000000000e+00    0,000000000e+00    0,000000000e+00    0,000000000e+00
     1262000000   -1,643712982e-03    1,323947459e-01   -5,061243176e-01    2,948027551e-01    0,000000000e+00    0,000000000e+00    0,000000000e+00    0,000000000e+00
     1276000000    5,779522657e-02    3,953831270e-02   -2,791641951e-01    4,903838038e-01    0,000000000e+00    0,000000000e+00    0,000000000e+00    0,000000000e+00
     1290000000    7,420997322e-02   -7,280083001e-02    1,114755962e-02    5,459838510e-01    0,000000000e+00    0,000000000e+00    0,000000000e+00    0,000000000e+00
     1304000000    1,734864525e-02   -1,793759167e-01    2,991082072e-01    4,747180045e-01    0,000000000e+00    0,000000000e+00    0,000000000e+00    0,000000000e+00
     1318000000   -9,873057902e-02   -2,526467144e-01    5,370799899e-01    2,728440166e-01    0,000000000e+00    0,000000000e+00    0,000000000e+00    0,000000000e+00
     1332000000   -2,438320965e-01   -2,444799989e-01    6,513563395e-01   -4,893127456e-02    0,000000000e+00    0,000000000e+00    0,000000000e+00    0,000000000e+00
     1346000000   -3,589192629e-01   -1,483347565e-01    5,558130741e-01   -4,181565046e-01    0,000000000e+00    0,000000000e+00    0,000000000e+00    0,000000000e+00
     1360000000   -3,873417377e-01    6,575577427e-03    2,496503592e-01   -6,323206425e-01    0,000000000e+00    0,000000000e+00    0,000000000e+00    0,000000000e+00
     1374000000   -3,265672326e-01    1,185564846e-01   -1,133557260e-01   -6,295344830e-01    0,000000000e+00    0,000000000e+00    0,000000000e+00    0,000000000e+00
     1388000000   -2,365480959e-01    1,732429266e-01   -3,739366233e-01   -4,087118208e-01    0,000000000e+00    0,000000000e+00    0,000000000e+00    0,000000000e+00
     1402000000   -1,547885090e-01    1,720547080e-01   -4,838968217e-01   -9,872224182e-02    0,000000000e+00    0,000000000e+00    0,000000000e+00    0,000000000e+00
     1416000000   -8,409899473e-02    1,393425316e-01   -4,039069712e-01    1,936974525e-01    0,000000000e+00    0,000000000e+00    0,000000000e+00    0,000000000e+00
     1430000000   -3,328140453e-02    8,942412585e-02   -1,605845243e-01    4,499062598e-01    0,000000000e+00    0,000000000e+00    0,000000000e+00    0,000000000e+00
     1444000000   -6,648161449e-03    8,195113391e-03    1,187186912e-01    5,228698254e-01    0,000000000e+00    0,000000000e+00    0,000000000e+00    0,000000000e+00
     1458000000   -4,013666138e-02   -8,114189655e-02    4,241506159e-01    4,905672669e-01    0,000000000e+00    0,000000000e+00    0,000000000e+00    0,000000000e+00
     1472000000   -1,230946481e-01   -1,505322456e-01    7,363122106e-01    3,087744117e-01    0,000000000e+00    0,000000000e+00    0,000000000e+00    0,000000000e+00
     1486000000   -2,269028574e-01   -1,405266374e-01    9,077408314e-01   -3,931709379e-02    0,000000000e+00    0,000000000e+00    0,000000000e+00    0,000000000e+00
     1500000000   -3,079390526e-01   -6,257769465e-02    8,552457094e-01   -4,241745770e-01    0,000000000e+00    0,000000000e+00    0,000000000e+00    0,000000000e+00
