! NanoVNA-App
! Date: 2025-09-25 15:02:05
! Start: 100MHz Stop: 1,5GHz Points: 101
! S-Parameter data: F S11 S21 S12 S22
# Hz S RI R 50
!     Frequency           S11_Real           S11_Imag           S21_Real           S21_Imag           S12_Real           S12_Imag           S22_Real           S22_Imag
      100000000    3,557464480e-02    2,735436708e-02    4,407649934e-01   -6,695285439e-01    0,000000000e+00    0,000000000e+00    0,000000000e+00    0,000000000e+00
      114000000    6,071057171e-02    2,190281404e-03    1,297459379e-02   -7,952555418e-01    0,000000000e+00    0,000000000e+00    0,000000000e+00    0,000000000e+00
      128000000    6,839138269e-02   -4,225777090e-02   -4,082662761e-01   -6,780518889e-01    0,000000000e+00    0,000000000e+00    0,000000000e+00    0,000000000e+00
      142000000    4,347798228e-02   -8,878123760e-02   -7,050257921e-01   -3,607503474e-01    0,000000000e+00    0,000000000e+00    0,000000000e+00    0,000000000e+00
      156000000   -9,469767101e-03   -1,094659418e-01   -7,929000854e-01    6,687629968e-02    0,000000000e+00    0,000000000e+00    0,000000000e+00    0,000000000e+00
      170000000   -6,271871179e-02   -9,177750349e-02   -6,369516253e-01    4,862007201e-01    0,000000000e+00    0,000000000e+00    0,000000000e+00    0,000000000e+00
      184000000   -8,858863264e-02   -4,765153676e-02   -2,731737494e-01    7,563821077e-01    0,000000000e+00    0,000000000e+00    0,000000000e+00    0,000000000e+00
      198000000   -8,278911561e-02   -6,445158739e-03    1,795597523e-01    7,821681499e-01    0,000000000e+00    0,000000000e+00    0,000000000e+00    0,000000000e+00
      212000000   -6,274767220e-02    1,800015382e-02    5,708183646e-01    5,585913062e-01    0,000000000e+00    0,000000000e+00    0,000000000e+00    0,000000000e+00
      226000000   -4,151882231e-02    3,188336268e-02    7,766708732e-01    1,619918942e-01    0,000000000e+00    0,000000000e+00    0,000000000e+00    0,000000000e+00
      240000000   -1,494629309e-02    4,128941894e-02    7,361319661e-01   -2,787293792e-01    0,000000000e+00    0,000000000e+00    0,000000000e+00    0,000000000e+00
      254000000    2,139851078e-02    3,631758317e-02    4,679301083e-01   -6,220421791e-01    0,000000000e+00    0,000000000e+00    0,000000000e+00    0,000000000e+00
      268000000    5,329244584e-02    4,725625739e-03    6,667301059e-02   -7,673118711e-01    0,000000000e+00    0,000000000e+00    0,000000000e+00    0,000000000e+00
      282000000    5,746853724e-02   -4,498457536e-02   -3,458727300e-01   -6,828566790e-01    0,000000000e+00    0,000000000e+00    0,000000000e+00    0,000000000e+00
      296000000    2,609743737e-02   -8,471634239e-02   -6,554540396e-01   -3,977655768e-01    0,000000000e+00    0,000000000e+00    0,000000000e+00    0,000000000e+00
      310000000   -1,915769652e-02   -8,948603272e-02   -7,747333646e-01    1,022896171e-02    0,000000000e+00    0,000000000e+00    0,000000000e+00    0,000000000e+00
      324000000   -4,656722769e-02   -6,347438693e-02   -6,487067938e-01    4,289288521e-01    0,000000000e+00    0,000000000e+00    0,000000000e+00    0,000000000e+00
      338000000   -4,122515395e-02   -3,793733194e-02   -3,096144497e-01    7,087535858e-01    0,000000000e+00    0,000000000e+00    0,000000000e+00    0,000000000e+00
      352000000   -2,373107150e-02   -3,768382594e-02    1,195555776e-01    7,587696314e-01    0,000000000e+00    0,000000000e+00    0,000000000e+00    0,000000000e+00
      366000000   -2,284209989e-02   -5,623171479e-02    5,033248663e-01    5,717810392e-01    0,000000000e+00    0,000000000e+00    0,000000000e+00    0,000000000e+00
      380000000   -4,484804720e-02   -6,510734558e-02    7,259309888e-01    2,114463449e-01    0,000000000e+00    0,000000000e+00    0,000000000e+00    0,000000000e+00
      394000000   -6,657033414e-02   -5,032218993e-02    7,230752110e-01   -2,127569616e-01    0,000000000e+00    0,000000000e+00    0,000000000e+00    0,000000000e+00
      408000000   -6,751560420e-02   -2,622314729e-02    4,904094338e-01   -5,671836138e-01    0,000000000e+00    0,000000000e+00    0,000000000e+00    0,000000000e+00
      422000000   -5,309725180e-02   -1,514814235e-02    1,053677648e-01   -7,378381491e-01    0,000000000e+00    0,000000000e+00    0,000000000e+00    0,000000000e+00
      436000000   -4,611503333e-02   -1,862541214e-02   -3,053733706e-01   -6,764996052e-01    0,000000000e+00    0,000000000e+00    0,000000000e+00    0,000000000e+00
      450000000   -5,212692916e-02   -1,513256505e-02   -6,188836694e-01   -3,994882107e-01    0,000000000e+00    0,000000000e+00    0,000000000e+00    0,000000000e+00
      464000000   -5,060057342e-02    5,903824698e-03   -7,299650311e-01    3,486410249e-03    0,000000000e+00    0,000000000e+00    0,000000000e+00    0,000000000e+00
      478000000   -2,060217597e-02    2,664470673e-02   -5,988728404e-01    3,972994387e-01    0,000000000e+00    0,000000000e+00    0,000000000e+00    0,000000000e+00
      492000000    2,809113078e-02    1,430496853e-02   -2,803713083e-01    6,437854767e-01    0,000000000e+00    0,000000000e+00    0,000000000e+00    0,000000000e+00
      506000000    5,871516094e-02   -3,754604235e-02    1,045569181e-01    6,798070073e-01    0,000000000e+00    0,000000000e+00    0,000000000e+00    0,000000000e+00
      520000000    4,365801066e-02   -1,035132557e-01    4,443595707e-01    5,165852904e-01    0,000000000e+00    0,000000000e+00    0,000000000e+00    0,000000000e+00
      534000000   -1,256020367e-02   -1,431137323e-01    6,488988400e-01    2,066323608e-01    0,000000000e+00    0,000000000e+00    0,000000000e+00    0,000000000e+00
      548000000   -8,080554754e-02   -1,389357001e-01    6,606553793e-01   -1,750880182e-01    0,000000000e+00    0,000000000e+00    0,000000000e+00    0,000000000e+00
      562000000   -1,294371039e-01   -9,798902273e-02    4,522834718e-01   -5,078998804e-01    0,000000000e+00    0,000000000e+00    0,000000000e+00    0,000000000e+00
      576000000   -1,477275044e-01   -4,094919935e-02    8,503234386e-02   -6,615121365e-01    0,000000000e+00    0,000000000e+00    0,000000000e+00    0,000000000e+00
      590000000   -1,318877935e-01    2,297106758e-02   -2,950339317e-01   -5,716919303e-01    0,000000000e+00    0,000000000e+00    0,000000000e+00    0,000000000e+00
      604000000   -5,163780600e-02    6,984502822e-02   -5,038843751e-01   -2,725212574e-01    0,000000000e+00    0,000000000e+00    0,000000000e+00    0,000000000e+00
      618000000    3,937612846e-02   -1,121389028e-02   -4,922848642e-01   -2,729367837e-02    0,000000000e+00    0,000000000e+00    0,000000000e+00    0,000000000e+00
      632000000   -3,675044328e-02   -9,911289811e-02   -5,065972805e-01    1,721971780e-01    0,000000000e+00    0,000000000e+00    0,000000000e+00    0,000000000e+00
      646000000   -1,023373455e-01   -4,512443393e-02   -3,804512620e-01    4,648031592e-01    0,000000000e+00    0,000000000e+00    0,000000000e+00    0,000000000e+00
      660000000   -7,537412643e-02    7,365496829e-03   -5,748989433e-02    6,219569445e-01    0,000000000e+00    0,000000000e+00    0,000000000e+00    0,000000000e+00
      674000000   -3,327239677e-02    7,549548056e-03    2,946263850e-01    5,542721152e-01    0,000000000e+00    0,000000000e+00    0,000000000e+00    0,000000000e+00
      688000000   -1,626360975e-02   -1,488624047e-02    5,457375050e-01    3,060275316e-01    0,000000000e+00    0,000000000e+00    0,000000000e+00    0,000000000e+00
      702000000   -1,295757852e-02   -3,309741244e-02    6,187465191e-01   -3,795073926e-02    0,000000000e+00    0,000000000e+00    0,000000000e+00    0,000000000e+00
      716000000   -8,344482630e-03   -4,778670892e-02    4,940615594e-01   -3,666392267e-01    0,000000000e+00    0,000000000e+00    0,000000000e+00    0,000000000e+00
      730000000   -6,316001527e-03   -7,593706995e-02    2,140629292e-01   -5,672793388e-01    0,000000000e+00    0,000000000e+00    0,000000000e+00    0,000000000e+00
      744000000   -2,609681524e-02   -1,125919893e-01   -1,218097284e-01   -5,887268186e-01    0,000000000e+00    0,000000000e+00    0,000000000e+00    0,000000000e+00
      758000000   -7,564307004e-02   -1,349161863e-01   -4,191791117e-01   -4,344230592e-01    0,000000000e+00    0,000000000e+00    0,000000000e+00    0,000000000e+00
      772000000   -1,370320022e-01   -1,168094128e-01   -5,943424702e-01   -1,418982148e-01    0,000000000e+00    0,000000000e+00    0,000000000e+00    0,000000000e+00
      786000000   -1,727728546e-01   -5,777557939e-02   -5,840264559e-01    2,096903324e-01    0,000000000e+00    0,000000000e+00    0,000000000e+00    0,000000000e+00
      800000000   -1,604539007e-01    8,730764501e-03   -3,746109605e-01    4,973178804e-01    0,000000000e+00    0,000000000e+00    0,000000000e+00    0,000000000e+00
      814000000   -1,131070554e-01    4,414066300e-02   -4,672299325e-02    6,162028313e-01    0,000000000e+00    0,000000000e+00    0,000000000e+00    0,000000000e+00
      828000000   -6,677161157e-02    4,423311353e-02    2,862150371e-01    5,409426093e-01    0,000000000e+00    0,000000000e+00    0,000000000e+00    0,000000000e+00
      842000000   -3,787894547e-02    2,848585881e-02    5,221020579e-01    3,060702682e-01    0,000000000e+00    0,000000000e+00    0,000000000e+00    0,000000000e+00
      856000000   -1,877182163e-02    1,115574781e-02    5,958536863e-01   -1,401963830e-02    0,000000000e+00    0,000000000e+00    0,000000000e+00    0,000000000e+00
      870000000   -2,405813211e-05   -1,201089472e-02    4,874907136e-01   -3,174546957e-01    0,000000000e+00    0,000000000e+00    0,000000000e+00    0,000000000e+00
      884000000    1,185622253e-02   -5,058003217e-02    2,421455681e-01   -5,136383772e-01    0,000000000e+00    0,000000000e+00    0,000000000e+00    0,000000000e+00
      898000000   -4,642263055e-03   -9,971001744e-02   -6,032978743e-02   -5,556223392e-01    0,000000000e+00    0,000000000e+00    0,000000000e+00    0,000000000e+00
      912000000   -6,169455871e-02   -1,310772300e-01   -3,866681755e-01   -4,132300615e-01    0,000000000e+00    0,000000000e+00    0,000000000e+00    0,000000000e+00
      926000000   -1,258122325e-01   -1,182242930e-01   -5,702610016e-01   -1,464277953e-01    0,000000000e+00    0,000000000e+00    0,000000000e+00    0,000000000e+00
      940000000   -1,596582532e-01   -6,381861120e-02   -5,675655603e-01    1,936838627e-01    0,000000000e+00    0,000000000e+00    0,000000000e+00    0,000000000e+00
      954000000   -1,455290169e-01   -1,187511138e-03   -3,718671501e-01    4,843753576e-01    0,000000000e+00    0,000000000e+00    0,000000000e+00    0,000000000e+00
      968000000   -1,012122557e-01    2,264779620e-02   -4,984961078e-02    6,154264808e-01    0,000000000e+00    0,000000000e+00    0,000000000e+00    0,000000000e+00
      982000000   -5,673997477e-02    3,023977391e-03    2,821258008e-01    5,501255393e-01    0,000000000e+00    0,000000000e+00    0,000000000e+00    0,000000000e+00
      996000000   -4,614569619e-02   -3,086879663e-02    5,251954794e-01    3,253114522e-01    0,000000000e+00    0,000000000e+00    0,000000000e+00    0,000000000e+00
     1010000000   -6,335024536e-02   -6,772243232e-02    6,059733629e-01    1,343197748e-02    0,000000000e+00    0,000000000e+00    0,000000000e+00    0,000000000e+00
     1024000000   -9,759141505e-02   -7,988341153e-02    5,137849450e-01   -2,804719806e-01    0,000000000e+00    0,000000000e+00    0,000000000e+00    0,000000000e+00
     1038000000   -1,452167630e-01   -5,622528121e-02    2,938992977e-01   -4,698279202e-01    0,000000000e+00    0,000000000e+00    0,000000000e+00    0,000000000e+00
     1052000000   -1,541361809e-01   -2,592967357e-03    3,970714286e-02   -5,248875618e-01    0,000000000e+00    0,000000000e+00    0,000000000e+00    0,000000000e+00
     1066000000   -1,022865176e-01    4,270132631e-02   -2,103438973e-01   -4,640055001e-01    0,000000000e+00    0,000000000e+00    0,000000000e+00    0,000000000e+00
     1080000000   -5,265341327e-02    2,482323721e-02   -4,179807901e-01   -2,984345257e-01    0,000000000e+00    0,000000000e+00    0,000000000e+00    0,000000000e+00
     1094000000   -3,772311658e-02   -5,765375681e-03   -5,197054148e-01   -2,181698754e-02    0,000000000e+00    0,000000000e+00    0,000000000e+00    0,000000000e+00
     1108000000   -3,131903335e-02   -2,969853021e-02   -4,397659302e-01    2,840512991e-01    0,000000000e+00    0,000000000e+00    0,000000000e+00    0,000000000e+00
     1122000000   -3,231514990e-02   -5,639161915e-02   -1,869861633e-01    4,967955649e-01    0,000000000e+00    0,000000000e+00    0,000000000e+00    0,000000000e+00
     1136000000   -4,116304591e-02   -9,377992153e-02    1,518820971e-01    5,163381100e-01    0,000000000e+00    0,000000000e+00    0,000000000e+00    0,000000000e+00
     1150000000   -8,440527320e-02   -1,286845952e-01    4,533045888e-01    3,443589509e-01    0,000000000e+00    0,000000000e+00    0,000000000e+00    0,000000000e+00
     1164000000   -1,381191909e-01   -1,214786097e-01    6,094021201e-01    1,153251063e-02    0,000000000e+00    0,000000000e+00    0,000000000e+00    0,000000000e+00
     1178000000   -1,753406674e-01   -8,880557865e-02    5,371672511e-01   -3,716040552e-01    0,000000000e+00    0,000000000e+00    0,000000000e+00    0,000000000e+00
     1192000000   -1,778015792e-01   -5,705935135e-02    2,428863794e-01   -6,370829344e-01    0,000000000e+00    0,000000000e+00    0,000000000e+00    0,000000000e+00
     1206000000   -1,881181598e-01   -5,547737703e-02   -1,380109936e-01   -6,616333723e-01    0,000000000e+00    0,000000000e+00    0,000000000e+00    0,000000000e+00
     1220000000   -2,533213496e-01   -1,851474866e-02   -4,188685715e-01   -4,857845604e-01    0,000000000e+00    0,000000000e+00    0,000000000e+00    0,000000000e+00
     1234000000   -2,463835180e-01    1,139120013e-01   -5,600695610e-01   -2,497741431e-01    0,000000000e+00    0,000000000e+00    0,000000000e+00    0,000000000e+00
     1248000000   -1,197700873e-01    1,702774465e-01   -6,039189100e-01    1,969517022e-02    0,000000000e+00    0,000000000e+00    0,000000000e+00    0,000000000e+00
     1262000000    1,899513183e-03    1,300415844e-01   -5,028773546e-01    2,936924100e-01    0,000000000e+00    0,000000000e+00    0,000000000e+00    0,000000000e+00
     1276000000    6,097324938e-02    3,931146115e-02   -2,741631269e-01    4,884118736e-01    0,000000000e+00    0,000000000e+00    0,000000000e+00    0,000000000e+00
     1290000000    7,103624940e-02   -6,700630486e-02    1,345480233e-02    5,516580343e-01    0,000000000e+00    0,000000000e+00    0,000000000e+00    0,000000000e+00
     1304000000    1,861904562e-02   -1,776803732e-01    2,932544947e-01    4,794453084e-01    0,000000000e+00    0,000000000e+00    0,000000000e+00    0,000000000e+00
     1318000000   -9,724165499e-02   -2,509141564e-01    5,309207439e-01    2,653011978e-01    0,000000000e+00    0,000000000e+00    0,000000000e+00    0,000000000e+00
     1332000000   -2,415885478e-01   -2,495899796e-01    6,508176327e-01   -5,717137456e-02    0,000000000e+00    0,000000000e+00    0,000000000e+00    0,000000000e+00
     1346000000   -3,604590893e-01   -1,445684433e-01    5,612984896e-01   -4,116619229e-01    0,000000000e+00    0,000000000e+00    0,000000000e+00    0,000000000e+00
     1360000000   -3,817080557e-01    6,061155815e-03    2,605039775e-01   -6,317299604e-01    0,000000000e+00    0,000000000e+00    0,000000000e+00    0,000000000e+00
     1374000000   -3,212210834e-01    1,154402047e-01   -1,039406136e-01   -6,314570904e-01    0,000000000e+00    0,000000000e+00    0,000000000e+00    0,000000000e+00
     1388000000   -2,364644706e-01    1,720693558e-01   -3,733415604e-01   -4,138156772e-01    0,000000000e+00    0,000000000e+00    0,000000000e+00    0,000000000e+00
     1402000000   -1,587461829e-01    1,727759391e-01   -4,844373167e-01   -9,808679670e-02    0,000000000e+00    0,000000000e+00    0,000000000e+00    0,000000000e+00
     1416000000   -8,277615160e-02    1,409812272e-01   -3,878678083e-01    2,059312314e-01    0,000000000e+00    0,000000000e+00    0,000000000e+00    0,000000000e+00
     1430000000   -3,019042872e-02    8,884891868e-02   -1,593474746e-01    4,153131247e-01    0,000000000e+00    0,000000000e+00    0,000000000e+00    0,000000000e+00
     1444000000   -9,377344511e-03    5,944260396e-03    1,309183091e-01    5,269282460e-01    0,000000000e+00    0,000000000e+00    0,000000000e+00    0,000000000e+00
     1458000000   -3,614855558e-02   -7,948467135e-02    4,451606274e-01    4,986001253e-01    0,000000000e+00    0,000000000e+00    0,000000000e+00    0,000000000e+00
     1472000000   -1,180051789e-01   -1,401319504e-01    7,399713397e-01    3,186489046e-01    0,000000000e+00    0,000000000e+00    0,000000000e+00    0,000000000e+00
     1486000000   -2,424517274e-01   -1,412500441e-01    8,958405256e-01   -3,012588620e-02    0,000000000e+00    0,000000000e+00    0,000000000e+00    0,000000000e+00
     1500000000   -3,018123209e-01   -6,486685574e-02    8,340296149e-01   -4,344498813e-01    0,000000000e+00    0,000000000e+00    0,000000000e+00    0,000000000e+00
