! NanoVNA-App
! Date: 2025-09-25 14:56:02
! Start: 100MHz Stop: 1,5GHz Points: 101
! S-Parameter data: F S11 S21 S12 S22
# Hz S RI R 50
!     Frequency           S11_Real           S11_Imag           S21_Real           S21_Imag           S12_Real           S12_Imag           S22_Real           S22_Imag
      100000000    3,560375795e-02    2,696909942e-02    4,406913817e-01   -6,696002483e-01    0,000000000e+00    0,000000000e+00    0,000000000e+00    0,000000000e+00
      114000000    6,049149856e-02    1,732115867e-03    1,271161716e-02   -7,954989076e-01    0,000000000e+00    0,000000000e+00    0,000000000e+00    0,000000000e+00
      128000000    6,791866571e-02   -4,263958335e-02   -4,084405899e-01   -6,782320142e-01    0,000000000e+00    0,000000000e+00    0,000000000e+00    0,000000000e+00
      142000000    4,276961461e-02   -8,888386935e-02   -7,053236961e-01   -3,607636392e-01    0,000000000e+00    0,000000000e+00    0,000000000e+00    0,000000000e+00
      156000000   -9,752744809e-03   -1,095913127e-01   -7,941799164e-01    6,782671064e-02    0,000000000e+00    0,000000000e+00    0,000000000e+00    0,000000000e+00
      170000000   -6,325010955e-02   -9,105115384e-02   -6,368533373e-01    4,865908325e-01    0,000000000e+00    0,000000000e+00    0,000000000e+00    0,000000000e+00
      184000000   -8,861833066e-02   -4,651525617e-02   -2,728233039e-01    7,564663291e-01    0,000000000e+00    0,000000000e+00    0,000000000e+00    0,000000000e+00
      198000000   -8,212116361e-02   -5,366437137e-03    1,799561828e-01    7,820624709e-01    0,000000000e+00    0,000000000e+00    0,000000000e+00    0,000000000e+00
      212000000   -6,152584404e-02    1,861260086e-02    5,709536672e-01    5,581011772e-01    0,000000000e+00    0,000000000e+00    0,000000000e+00    0,000000000e+00
      226000000   -4,008343816e-02    3,165088221e-02    7,767241597e-01    1,616672426e-01    0,000000000e+00    0,000000000e+00    0,000000000e+00    0,000000000e+00
      240000000   -1,370695792e-02    4,031066224e-02    7,360205650e-01   -2,787362337e-01    0,000000000e+00    0,000000000e+00    0,000000000e+00    0,000000000e+00
      254000000    2,194356173e-02    3,477443755e-02    4,676941335e-01   -6,221116185e-01    0,000000000e+00    0,000000000e+00    0,000000000e+00    0,000000000e+00
      268000000    5,297660455e-02    3,082466545e-03    6,671544909e-02   -7,674725056e-01    0,000000000e+00    0,000000000e+00    0,000000000e+00    0,000000000e+00
      282000000    5,621325597e-02   -4,625112563e-02   -3,459989429e-01   -6,827799678e-01    0,000000000e+00    0,000000000e+00    0,000000000e+00    0,000000000e+00
      296000000    2,416771837e-02   -8,520963788e-02   -6,556013823e-01   -3,975670934e-01    0,000000000e+00    0,000000000e+00    0,000000000e+00    0,000000000e+00
      310000000   -2,088885568e-02   -8,883307874e-02   -7,751410007e-01    1,025088411e-02    0,000000000e+00    0,000000000e+00    0,000000000e+00    0,000000000e+00
      324000000   -4,804302752e-02   -6,180312112e-02   -6,476928592e-01    4,300922751e-01    0,000000000e+00    0,000000000e+00    0,000000000e+00    0,000000000e+00
      338000000   -4,149559885e-02   -3,549176827e-02   -3,102636337e-01    7,104309797e-01    0,000000000e+00    0,000000000e+00    0,000000000e+00    0,000000000e+00
      352000000   -2,249296941e-02   -3,588441759e-02    1,209893078e-01    7,584938407e-01    0,000000000e+00    0,000000000e+00    0,000000000e+00    0,000000000e+00
      366000000   -2,148433961e-02   -5,478636548e-02    5,027680397e-01    5,717970729e-01    0,000000000e+00    0,000000000e+00    0,000000000e+00    0,000000000e+00
      380000000   -4,250199720e-02   -6,493729353e-02    7,266690731e-01    2,110786736e-01    0,000000000e+00    0,000000000e+00    0,000000000e+00    0,000000000e+00
      394000000   -6,457377225e-02   -5,172062665e-02    7,225776911e-01   -2,135156542e-01    0,000000000e+00    0,000000000e+00    0,000000000e+00    0,000000000e+00
      408000000   -6,653387100e-02   -2,810991183e-02    4,894493520e-01   -5,691664219e-01    0,000000000e+00    0,000000000e+00    0,000000000e+00    0,000000000e+00
      422000000   -5,311166868e-02   -1,703430898e-02    1,054537147e-01   -7,384781837e-01    0,000000000e+00    0,000000000e+00    0,000000000e+00    0,000000000e+00
      436000000   -4,702544212e-02   -2,073197998e-02   -3,054730296e-01   -6,770440340e-01    0,000000000e+00    0,000000000e+00    0,000000000e+00    0,000000000e+00
      450000000   -5,357661098e-02   -1,572214626e-02   -6,193411946e-01   -3,995455503e-01    0,000000000e+00    0,000000000e+00    0,000000000e+00    0,000000000e+00
      464000000   -5,256573483e-02    5,750092212e-03   -7,303183079e-01    3,498849226e-03    0,000000000e+00    0,000000000e+00    0,000000000e+00    0,000000000e+00
      478000000   -2,292518318e-02    2,777727693e-02   -5,993661284e-01    3,973724544e-01    0,000000000e+00    0,000000000e+00    0,000000000e+00    0,000000000e+00
      492000000    2,691690624e-02    1,649086550e-02   -2,808651626e-01    6,454449296e-01    0,000000000e+00    0,000000000e+00    0,000000000e+00    0,000000000e+00
      506000000    5,829553306e-02   -3,488777205e-02    1,047652513e-01    6,807006598e-01    0,000000000e+00    0,000000000e+00    0,000000000e+00    0,000000000e+00
      520000000    4,424276575e-02   -9,939163923e-02    4,428413808e-01    5,176905990e-01    0,000000000e+00    0,000000000e+00    0,000000000e+00    0,000000000e+00
      534000000   -9,455003776e-03   -1,416352391e-01    6,513627768e-01    2,070228159e-01    0,000000000e+00    0,000000000e+00    0,000000000e+00    0,000000000e+00
      548000000   -7,635024190e-02   -1,396517158e-01    6,633078456e-01   -1,757141948e-01    0,000000000e+00    0,000000000e+00    0,000000000e+00    0,000000000e+00
      562000000   -1,251949370e-01   -1,020550206e-01    4,561698139e-01   -5,113387704e-01    0,000000000e+00    0,000000000e+00    0,000000000e+00    0,000000000e+00
      576000000   -1,481615007e-01   -5,056054518e-02    8,489332348e-02   -6,710108519e-01    0,000000000e+00    0,000000000e+00    0,000000000e+00    0,000000000e+00
      590000000   -1,468779892e-01    1,555956062e-02   -3,109192550e-01   -5,814847350e-01    0,000000000e+00    0,000000000e+00    0,000000000e+00    0,000000000e+00
      604000000   -7,358022779e-02    9,733072668e-02   -5,351388454e-01   -2,455909848e-01    0,000000000e+00    0,000000000e+00    0,000000000e+00    0,000000000e+00
      618000000    9,982270002e-02    9,254937991e-03   -4,257269800e-01    6,108434405e-03    0,000000000e+00    0,000000000e+00    0,000000000e+00    0,000000000e+00
      632000000   -4,723025113e-02   -1,504745334e-01   -5,145126581e-01    1,116676927e-01    0,000000000e+00    0,000000000e+00    0,000000000e+00    0,000000000e+00
      646000000   -1,304822415e-01   -3,956775367e-02   -4,140991271e-01    4,707498550e-01    0,000000000e+00    0,000000000e+00    0,000000000e+00    0,000000000e+00
      660000000   -7,884413749e-02    2,354491316e-02   -6,203363463e-02    6,411893368e-01    0,000000000e+00    0,000000000e+00    0,000000000e+00    0,000000000e+00
      674000000   -2,668930218e-02    1,564960741e-02    3,027524650e-01    5,654125214e-01    0,000000000e+00    0,000000000e+00    0,000000000e+00    0,000000000e+00
      688000000   -8,429697715e-03   -1,370868552e-02    5,560367107e-01    3,079075217e-01    0,000000000e+00    0,000000000e+00    0,000000000e+00    0,000000000e+00
      702000000   -8,999865502e-03   -3,670137376e-02    6,268340945e-01   -4,242593050e-02    0,000000000e+00    0,000000000e+00    0,000000000e+00    0,000000000e+00
      716000000   -7,247075438e-03   -5,300549790e-02    4,964662790e-01   -3,744457662e-01    0,000000000e+00    0,000000000e+00    0,000000000e+00    0,000000000e+00
      730000000   -8,069328032e-03   -7,853852957e-02    2,122545242e-01   -5,764317513e-01    0,000000000e+00    0,000000000e+00    0,000000000e+00    0,000000000e+00
      744000000   -2,879529819e-02   -1,131717190e-01   -1,288150102e-01   -5,949414372e-01    0,000000000e+00    0,000000000e+00    0,000000000e+00    0,000000000e+00
      758000000   -7,830282301e-02   -1,335932612e-01   -4,282639325e-01   -4,348766208e-01    0,000000000e+00    0,000000000e+00    0,000000000e+00    0,000000000e+00
      772000000   -1,394026726e-01   -1,128425673e-01   -6,027970314e-01   -1,365864724e-01    0,000000000e+00    0,000000000e+00    0,000000000e+00    0,000000000e+00
      786000000   -1,723508686e-01   -5,375918373e-02   -5,863103867e-01    2,185205072e-01    0,000000000e+00    0,000000000e+00    0,000000000e+00    0,000000000e+00
      800000000   -1,558382064e-01    1,206396800e-02   -3,710814118e-01    5,066437125e-01    0,000000000e+00    0,000000000e+00    0,000000000e+00    0,000000000e+00
      814000000   -1,081461236e-01    4,378423095e-02   -3,778459132e-02    6,213105321e-01    0,000000000e+00    0,000000000e+00    0,000000000e+00    0,000000000e+00
      828000000   -6,266880035e-02    3,977518529e-02    2,961310744e-01    5,406616330e-01    0,000000000e+00    0,000000000e+00    0,000000000e+00    0,000000000e+00
      842000000   -3,757649660e-02    2,200882509e-02    5,304478407e-01    3,010810018e-01    0,000000000e+00    0,000000000e+00    0,000000000e+00    0,000000000e+00
      856000000   -2,142281644e-02    6,542053074e-03    6,002730727e-01   -2,387559414e-02    0,000000000e+00    0,000000000e+00    0,000000000e+00    0,000000000e+00
      870000000   -3,901492339e-03   -1,397311501e-02    4,856584072e-01   -3,293612897e-01    0,000000000e+00    0,000000000e+00    0,000000000e+00    0,000000000e+00
      884000000    7,445868570e-03   -4,972263426e-02    2,349470258e-01   -5,231754780e-01    0,000000000e+00    0,000000000e+00    0,000000000e+00    0,000000000e+00
      898000000   -7,574985735e-03   -9,693862498e-02   -7,337571681e-02   -5,584861636e-01    0,000000000e+00    0,000000000e+00    0,000000000e+00    0,000000000e+00
      912000000   -6,352975219e-02   -1,266093105e-01   -3,974576294e-01   -4,166502059e-01    0,000000000e+00    0,000000000e+00    0,000000000e+00    0,000000000e+00
      926000000   -1,228835806e-01   -1,138116792e-01   -5,753291845e-01   -1,305805296e-01    0,000000000e+00    0,000000000e+00    0,000000000e+00    0,000000000e+00
      940000000   -1,591213644e-01   -5,871174112e-02   -5,663902164e-01    2,153241634e-01    0,000000000e+00    0,000000000e+00    0,000000000e+00    0,000000000e+00
      954000000   -1,451832056e-01    8,144360036e-04   -3,582788408e-01    5,011608601e-01    0,000000000e+00    0,000000000e+00    0,000000000e+00    0,000000000e+00
      968000000   -1,001775786e-01    2,310492471e-02   -2,819261141e-02    6,204441786e-01    0,000000000e+00    0,000000000e+00    0,000000000e+00    0,000000000e+00
      982000000   -5,160552636e-02    6,567959208e-03    3,076801002e-01    5,374873877e-01    0,000000000e+00    0,000000000e+00    0,000000000e+00    0,000000000e+00
      996000000   -4,169999063e-02   -3,171281889e-02    5,355594754e-01    2,936133444e-01    0,000000000e+00    0,000000000e+00    0,000000000e+00    0,000000000e+00
     1010000000   -5,236440524e-02   -7,066039741e-02    5,882866383e-01   -1,846087538e-02    0,000000000e+00    0,000000000e+00    0,000000000e+00    0,000000000e+00
     1024000000   -9,521029145e-02   -8,957654983e-02    4,739808440e-01   -2,878268957e-01    0,000000000e+00    0,000000000e+00    0,000000000e+00    0,000000000e+00
     1038000000   -1,520180255e-01   -7,678875327e-02    2,737595141e-01   -4,407965839e-01    0,000000000e+00    0,000000000e+00    0,000000000e+00    0,000000000e+00
     1052000000   -1,710507721e-01   -1,339494903e-02    4,403209686e-02   -5,120269656e-01    0,000000000e+00    0,000000000e+00    0,000000000e+00    0,000000000e+00
     1066000000   -1,289350539e-01    4,113256559e-02   -2,174124867e-01   -4,671337605e-01    0,000000000e+00    0,000000000e+00    0,000000000e+00    0,000000000e+00
     1080000000   -7,421181351e-02    5,388024822e-02   -4,258362651e-01   -2,749590576e-01    0,000000000e+00    0,000000000e+00    0,000000000e+00    0,000000000e+00
     1094000000   -3,057328612e-02    2,604192309e-02   -4,943065047e-01    5,910057109e-03    0,000000000e+00    0,000000000e+00    0,000000000e+00    0,000000000e+00
     1108000000   -1,252470538e-03   -1,245892420e-02   -3,968431354e-01    2,734539807e-01    0,000000000e+00    0,000000000e+00    0,000000000e+00    0,000000000e+00
     1122000000   -3,559609177e-03   -6,395800412e-02   -1,680128127e-01    4,489307702e-01    0,000000000e+00    0,000000000e+00    0,000000000e+00    0,000000000e+00
     1136000000   -2,732532658e-02   -1,152347848e-01    1,249653921e-01    4,819648862e-01    0,000000000e+00    0,000000000e+00    0,000000000e+00    0,000000000e+00
     1150000000   -8,343936503e-02   -1,424410641e-01    4,116951823e-01    3,397726715e-01    0,000000000e+00    0,000000000e+00    0,000000000e+00    0,000000000e+00
     1164000000   -1,471503973e-01   -1,410177797e-01    5,865883231e-01    3,418815136e-02    0,000000000e+00    0,000000000e+00    0,000000000e+00    0,000000000e+00
     1178000000   -1,988743842e-01   -9,912499785e-02    5,407592058e-01   -3,427593112e-01    0,000000000e+00    0,000000000e+00    0,000000000e+00    0,000000000e+00
     1192000000   -2,033215016e-01   -4,640269279e-02    2,595057786e-01   -6,197546721e-01    0,000000000e+00    0,000000000e+00    0,000000000e+00    0,000000000e+00
     1206000000   -2,041627020e-01   -3,065773100e-02   -1,190957949e-01   -6,676025391e-01    0,000000000e+00    0,000000000e+00    0,000000000e+00    0,000000000e+00
     1220000000   -2,347785830e-01   -4,175458569e-03   -4,292609990e-01   -4,923695922e-01    0,000000000e+00    0,000000000e+00    0,000000000e+00    0,000000000e+00
     1234000000   -2,351605743e-01    1,111944690e-01   -5,606617332e-01   -2,357131988e-01    0,000000000e+00    0,000000000e+00    0,000000000e+00    0,000000000e+00
     1248000000   -1,167313829e-01    1,730212718e-01   -5,926817060e-01    2,020772174e-02    0,000000000e+00    0,000000000e+00    0,000000000e+00    0,000000000e+00
     1262000000    8,474858478e-04    1,331242621e-01   -4,942098260e-01    2,846920192e-01    0,000000000e+00    0,000000000e+00    0,000000000e+00    0,000000000e+00
     1276000000    7,078917325e-02    4,368204623e-02   -2,742322683e-01    4,738327861e-01    0,000000000e+00    0,000000000e+00    0,000000000e+00    0,000000000e+00
     1290000000    7,615885884e-02   -7,364327461e-02    4,230785184e-03    5,360144377e-01    0,000000000e+00    0,000000000e+00    0,000000000e+00    0,000000000e+00
     1304000000    2,691796795e-02   -1,856836081e-01    2,871877551e-01    4,675263166e-01    0,000000000e+00    0,000000000e+00    0,000000000e+00    0,000000000e+00
     1318000000   -9,254452586e-02   -2,593239546e-01    5,254147649e-01    2,713523805e-01    0,000000000e+00    0,000000000e+00    0,000000000e+00    0,000000000e+00
     1332000000   -2,442220449e-01   -2,543715537e-01    6,385541558e-01   -4,743813351e-02    0,000000000e+00    0,000000000e+00    0,000000000e+00    0,000000000e+00
     1346000000   -3,728557229e-01   -1,500873715e-01    5,472203493e-01   -3,986720145e-01    0,000000000e+00    0,000000000e+00    0,000000000e+00    0,000000000e+00
     1360000000   -3,978254497e-01    1,849537133e-03    2,553178966e-01   -6,272541285e-01    0,000000000e+00    0,000000000e+00    0,000000000e+00    0,000000000e+00
     1374000000   -3,371202648e-01    1,248780489e-01   -9,798871726e-02   -6,218330264e-01    0,000000000e+00    0,000000000e+00    0,000000000e+00    0,000000000e+00
     1388000000   -2,447439134e-01    1,765840948e-01   -3,719932735e-01   -4,163584411e-01    0,000000000e+00    0,000000000e+00    0,000000000e+00    0,000000000e+00
     1402000000   -1,578001380e-01    1,787374467e-01   -4,647832513e-01   -1,057296693e-01    0,000000000e+00    0,000000000e+00    0,000000000e+00    0,000000000e+00
     1416000000   -8,334954083e-02    1,490291357e-01   -3,867392838e-01    1,941615641e-01    0,000000000e+00    0,000000000e+00    0,000000000e+00    0,000000000e+00
     1430000000   -2,882540971e-02    9,296188504e-02   -2,075590342e-01    4,258457720e-01    0,000000000e+00    0,000000000e+00    0,000000000e+00    0,000000000e+00
     1444000000   -1,385536627e-03    1,414702740e-02    1,069807708e-01    5,239299536e-01    0,000000000e+00    0,000000000e+00    0,000000000e+00    0,000000000e+00
     1458000000   -3,366364166e-02   -8,349190652e-02    4,264038801e-01    4,789536595e-01    0,000000000e+00    0,000000000e+00    0,000000000e+00    0,000000000e+00
     1472000000   -1,185206473e-01   -1,448259652e-01    7,017947435e-01    2,976755500e-01    0,000000000e+00    0,000000000e+00    0,000000000e+00    0,000000000e+00
     1486000000   -2,215175629e-01   -1,466674656e-01    8,814588785e-01   -1,078420691e-02    0,000000000e+00    0,000000000e+00    0,000000000e+00    0,000000000e+00
     1500000000   -2,964595556e-01   -7,648300380e-02    8,555363417e-01   -4,146266878e-01    0,000000000e+00    0,000000000e+00    0,000000000e+00    0,000000000e+00
