! NanoVNA-App
! Date: 2025-09-25 15:02:52
! Start: 100MHz Stop: 1,5GHz Points: 101
! S-Parameter data: F S11 S21 S12 S22
# Hz S RI R 50
!     Frequency           S11_Real           S11_Imag           S21_Real           S21_Imag           S12_Real           S12_Imag           S22_Real           S22_Imag
      100000000    3,559910879e-02    2,738486417e-02    4,407479465e-01   -6,695206165e-01    0,000000000e+00    0,000000000e+00    0,000000000e+00    0,000000000e+00
      114000000    6,074333936e-02    2,203052398e-03    1,280611847e-02   -7,954558730e-01    0,000000000e+00    0,000000000e+00    0,000000000e+00    0,000000000e+00
      128000000    6,835339218e-02   -4,224439338e-02   -4,082465470e-01   -6,782904267e-01    0,000000000e+00    0,000000000e+00    0,000000000e+00    0,000000000e+00
      142000000    4,345948249e-02   -8,880393207e-02   -7,052139044e-01   -3,610440195e-01    0,000000000e+00    0,000000000e+00    0,000000000e+00    0,000000000e+00
      156000000   -9,536218829e-03   -1,101692468e-01   -7,929067612e-01    6,792523712e-02    0,000000000e+00    0,000000000e+00    0,000000000e+00    0,000000000e+00
      170000000   -6,268716604e-02   -9,178727120e-02   -6,370898485e-01    4,864262938e-01    0,000000000e+00    0,000000000e+00    0,000000000e+00    0,000000000e+00
      184000000   -8,858406544e-02   -4,770474136e-02   -2,732032537e-01    7,561891675e-01    0,000000000e+00    0,000000000e+00    0,000000000e+00    0,000000000e+00
      198000000   -8,275413513e-02   -6,433615927e-03    1,797323227e-01    7,825273275e-01    0,000000000e+00    0,000000000e+00    0,000000000e+00    0,000000000e+00
      212000000   -6,276483089e-02    1,806295104e-02    5,705742240e-01    5,585595965e-01    0,000000000e+00    0,000000000e+00    0,000000000e+00    0,000000000e+00
      226000000   -4,145326838e-02    3,179690614e-02    7,767097950e-01    1,619484574e-01    0,000000000e+00    0,000000000e+00    0,000000000e+00    0,000000000e+00
      240000000   -1,488121785e-02    4,134264961e-02    7,359950542e-01   -2,786856890e-01    0,000000000e+00    0,000000000e+00    0,000000000e+00    0,000000000e+00
      254000000    2,138503268e-02    3,633040935e-02    4,680208564e-01   -6,223993897e-01    0,000000000e+00    0,000000000e+00    0,000000000e+00    0,000000000e+00
      268000000    5,329975858e-02    4,724521656e-03    6,699221581e-02   -7,675625086e-01    0,000000000e+00    0,000000000e+00    0,000000000e+00    0,000000000e+00
      282000000    5,747523159e-02   -4,487262666e-02   -3,457025290e-01   -6,830071807e-01    0,000000000e+00    0,000000000e+00    0,000000000e+00    0,000000000e+00
      296000000    2,624576725e-02   -8,475735039e-02   -6,547242403e-01   -3,976168633e-01    0,000000000e+00    0,000000000e+00    0,000000000e+00    0,000000000e+00
      310000000   -1,887408830e-02   -8,958812803e-02   -7,729722857e-01    9,933284484e-03    0,000000000e+00    0,000000000e+00    0,000000000e+00    0,000000000e+00
      324000000   -4,644675925e-02   -6,342580169e-02   -6,487805247e-01    4,294533134e-01    0,000000000e+00    0,000000000e+00    0,000000000e+00    0,000000000e+00
      338000000   -4,100065678e-02   -3,768553212e-02   -3,129565418e-01    7,079330683e-01    0,000000000e+00    0,000000000e+00    0,000000000e+00    0,000000000e+00
      352000000   -2,349897474e-02   -3,777344525e-02    1,191944033e-01    7,582400441e-01    0,000000000e+00    0,000000000e+00    0,000000000e+00    0,000000000e+00
      366000000   -2,276758850e-02   -5,637712032e-02    5,032548308e-01    5,704570413e-01    0,000000000e+00    0,000000000e+00    0,000000000e+00    0,000000000e+00
      380000000   -4,467898980e-02   -6,555667520e-02    7,264910936e-01    2,113748342e-01    0,000000000e+00    0,000000000e+00    0,000000000e+00    0,000000000e+00
      394000000   -6,648839265e-02   -5,074414238e-02    7,232435942e-01   -2,134873718e-01    0,000000000e+00    0,000000000e+00    0,000000000e+00    0,000000000e+00
      408000000   -6,787780672e-02   -2,641810104e-02    4,892047346e-01   -5,678852201e-01    0,000000000e+00    0,000000000e+00    0,000000000e+00    0,000000000e+00
      422000000   -5,332586169e-02   -1,534875482e-02    1,051351801e-01   -7,385276556e-01    0,000000000e+00    0,000000000e+00    0,000000000e+00    0,000000000e+00
      436000000   -4,659092426e-02   -1,868052222e-02   -3,058077395e-01   -6,757549047e-01    0,000000000e+00    0,000000000e+00    0,000000000e+00    0,000000000e+00
      450000000   -5,175179616e-02   -1,508798450e-02   -6,183099747e-01   -3,999306560e-01    0,000000000e+00    0,000000000e+00    0,000000000e+00    0,000000000e+00
      464000000   -5,049249157e-02    6,080175284e-03   -7,295660377e-01    3,480542218e-03    0,000000000e+00    0,000000000e+00    0,000000000e+00    0,000000000e+00
      478000000   -2,027806081e-02    2,693335339e-02   -5,982885361e-01    3,976482153e-01    0,000000000e+00    0,000000000e+00    0,000000000e+00    0,000000000e+00
      492000000    2,829195559e-02    1,497329306e-02   -2,803654075e-01    6,443787813e-01    0,000000000e+00    0,000000000e+00    0,000000000e+00    0,000000000e+00
      506000000    5,929077044e-02   -3,748281673e-02    1,049394086e-01    6,803170443e-01    0,000000000e+00    0,000000000e+00    0,000000000e+00    0,000000000e+00
      520000000    4,351546988e-02   -1,026191786e-01    4,396688640e-01    5,156142116e-01    0,000000000e+00    0,000000000e+00    0,000000000e+00    0,000000000e+00
      534000000   -1,258033421e-02   -1,437357664e-01    6,497095227e-01    2,056747079e-01    0,000000000e+00    0,000000000e+00    0,000000000e+00    0,000000000e+00
      548000000   -8,169457316e-02   -1,403916925e-01    6,595075727e-01   -1,765054166e-01    0,000000000e+00    0,000000000e+00    0,000000000e+00    0,000000000e+00
      562000000   -1,313008964e-01   -9,793137014e-02    4,510767162e-01   -5,091424584e-01    0,000000000e+00    0,000000000e+00    0,000000000e+00    0,000000000e+00
      576000000   -1,499075741e-01   -3,799964488e-02    8,089646697e-02   -6,594805121e-01    0,000000000e+00    0,000000000e+00    0,000000000e+00    0,000000000e+00
      590000000   -1,298021227e-01    3,059146367e-02   -2,978866100e-01   -5,617746115e-01    0,000000000e+00    0,000000000e+00    0,000000000e+00    0,000000000e+00
      604000000   -3,599299490e-02    6,839513779e-02   -4,855393469e-01   -2,701904178e-01    0,000000000e+00    0,000000000e+00    0,000000000e+00    0,000000000e+00
      618000000    3,423543647e-02   -3,387311846e-02   -4,938229024e-01   -5,499637872e-02    0,000000000e+00    0,000000000e+00    0,000000000e+00    0,000000000e+00
      632000000   -5,522648245e-02   -9,169573337e-02   -5,286948681e-01    1,777287424e-01    0,000000000e+00    0,000000000e+00    0,000000000e+00    0,000000000e+00
      646000000   -9,940683097e-02   -3,209485859e-02   -3,795049787e-01    4,789161086e-01    0,000000000e+00    0,000000000e+00    0,000000000e+00    0,000000000e+00
      660000000   -6,802704185e-02    1,057314314e-02   -5,079584569e-02    6,261119843e-01    0,000000000e+00    0,000000000e+00    0,000000000e+00    0,000000000e+00
      674000000   -3,022294492e-02    4,713507369e-03    2,992255688e-01    5,525195003e-01    0,000000000e+00    0,000000000e+00    0,000000000e+00    0,000000000e+00
      688000000   -1,558359899e-02   -1,845522970e-02    5,481376052e-01    3,028280735e-01    0,000000000e+00    0,000000000e+00    0,000000000e+00    0,000000000e+00
      702000000   -1,394957118e-02   -3,386683390e-02    6,183790565e-01   -4,318486154e-02    0,000000000e+00    0,000000000e+00    0,000000000e+00    0,000000000e+00
      716000000   -1,061635464e-02   -4,790375754e-02    4,913610518e-01   -3,681916893e-01    0,000000000e+00    0,000000000e+00    0,000000000e+00    0,000000000e+00
      730000000   -7,771397475e-03   -7,489019632e-02    2,110450417e-01   -5,678473115e-01    0,000000000e+00    0,000000000e+00    0,000000000e+00    0,000000000e+00
      744000000   -2,581585012e-02   -1,113695279e-01   -1,249347478e-01   -5,885398388e-01    0,000000000e+00    0,000000000e+00    0,000000000e+00    0,000000000e+00
      758000000   -7,377423346e-02   -1,329688728e-01   -4,196351767e-01   -4,333877563e-01    0,000000000e+00    0,000000000e+00    0,000000000e+00    0,000000000e+00
      772000000   -1,355060339e-01   -1,158712432e-01   -5,931275487e-01   -1,395049691e-01    0,000000000e+00    0,000000000e+00    0,000000000e+00    0,000000000e+00
      786000000   -1,718090475e-01   -5,913542956e-02   -5,811100006e-01    2,099913210e-01    0,000000000e+00    0,000000000e+00    0,000000000e+00    0,000000000e+00
      800000000   -1,591340005e-01    5,871791393e-03   -3,733912408e-01    4,961878359e-01    0,000000000e+00    0,000000000e+00    0,000000000e+00    0,000000000e+00
      814000000   -1,142420247e-01    4,248746485e-02   -4,574380443e-02    6,156420112e-01    0,000000000e+00    0,000000000e+00    0,000000000e+00    0,000000000e+00
      828000000   -6,903240830e-02    4,346951842e-02    2,856658101e-01    5,407177806e-01    0,000000000e+00    0,000000000e+00    0,000000000e+00    0,000000000e+00
      842000000   -3,841820732e-02    2,935081720e-02    5,211048126e-01    3,064183593e-01    0,000000000e+00    0,000000000e+00    0,000000000e+00    0,000000000e+00
      856000000   -1,773285307e-02    1,305520348e-02    5,945462584e-01   -1,372228935e-02    0,000000000e+00    0,000000000e+00    0,000000000e+00    0,000000000e+00
      870000000    2,381332684e-03   -1,148947049e-02    4,861234128e-01   -3,172068894e-01    0,000000000e+00    0,000000000e+00    0,000000000e+00    0,000000000e+00
      884000000    1,330279652e-02   -5,206457898e-02    2,436046004e-01   -5,120885372e-01    0,000000000e+00    0,000000000e+00    0,000000000e+00    0,000000000e+00
      898000000   -3,653048305e-03   -1,021346301e-01   -5,791583285e-02   -5,546861291e-01    0,000000000e+00    0,000000000e+00    0,000000000e+00    0,000000000e+00
      912000000   -6,293183565e-02   -1,326168776e-01   -3,939118683e-01   -4,137719274e-01    0,000000000e+00    0,000000000e+00    0,000000000e+00    0,000000000e+00
      926000000   -1,257251203e-01   -1,191949472e-01   -5,652106404e-01   -1,500399113e-01    0,000000000e+00    0,000000000e+00    0,000000000e+00    0,000000000e+00
      940000000   -1,650100201e-01   -6,113549694e-02   -5,700566769e-01    1,930403262e-01    0,000000000e+00    0,000000000e+00    0,000000000e+00    0,000000000e+00
      954000000   -1,450253576e-01    2,017611871e-03   -3,738527000e-01    4,858547747e-01    0,000000000e+00    0,000000000e+00    0,000000000e+00    0,000000000e+00
      968000000   -9,679960459e-02    2,158707380e-02   -5,218973383e-02    6,136062145e-01    0,000000000e+00    0,000000000e+00    0,000000000e+00    0,000000000e+00
      982000000   -5,230185017e-02    3,396787914e-03    2,810569406e-01    5,492619276e-01    0,000000000e+00    0,000000000e+00    0,000000000e+00    0,000000000e+00
      996000000   -4,556973651e-02   -3,296380118e-02    5,220721364e-01    3,282760382e-01    0,000000000e+00    0,000000000e+00    0,000000000e+00    0,000000000e+00
     1010000000   -6,340835243e-02   -6,407959014e-02    6,066694856e-01    1,608067937e-02    0,000000000e+00    0,000000000e+00    0,000000000e+00    0,000000000e+00
     1024000000   -9,985579550e-02   -7,822548598e-02    5,152032971e-01   -2,781645954e-01    0,000000000e+00    0,000000000e+00    0,000000000e+00    0,000000000e+00
     1038000000   -1,433989257e-01   -5,849878117e-02    2,964221835e-01   -4,685264230e-01    0,000000000e+00    0,000000000e+00    0,000000000e+00    0,000000000e+00
     1052000000   -1,496794820e-01   -5,137292901e-04    3,625291213e-02   -5,254859328e-01    0,000000000e+00    0,000000000e+00    0,000000000e+00    0,000000000e+00
     1066000000   -1,061758250e-01    4,010718688e-02   -2,085305303e-01   -4,664907455e-01    0,000000000e+00    0,000000000e+00    0,000000000e+00    0,000000000e+00
     1080000000   -5,370153487e-02    2,315455489e-02   -4,190718532e-01   -2,992251813e-01    0,000000000e+00    0,000000000e+00    0,000000000e+00    0,000000000e+00
     1094000000   -3,587318584e-02   -4,630591255e-03   -5,230857134e-01   -2,375631407e-02    0,000000000e+00    0,000000000e+00    0,000000000e+00    0,000000000e+00
     1108000000   -3,662116081e-02   -3,113046475e-02   -4,410845637e-01    2,854762375e-01    0,000000000e+00    0,000000000e+00    0,000000000e+00    0,000000000e+00
     1122000000   -3,366402537e-02   -5,883667991e-02   -1,883259416e-01    4,986443818e-01    0,000000000e+00    0,000000000e+00    0,000000000e+00    0,000000000e+00
     1136000000   -3,994346410e-02   -9,340211749e-02    1,543903500e-01    5,232252479e-01    0,000000000e+00    0,000000000e+00    0,000000000e+00    0,000000000e+00
     1150000000   -8,319330215e-02   -1,267326623e-01    4,528755844e-01    3,445955813e-01    0,000000000e+00    0,000000000e+00    0,000000000e+00    0,000000000e+00
     1164000000   -1,371512562e-01   -1,263841093e-01    6,112254858e-01    7,504296489e-03    0,000000000e+00    0,000000000e+00    0,000000000e+00    0,000000000e+00
     1178000000   -1,790944338e-01   -8,480226249e-02    5,394242406e-01   -3,702443242e-01    0,000000000e+00    0,000000000e+00    0,000000000e+00    0,000000000e+00
     1192000000   -1,765087992e-01   -5,851346999e-02    2,380369753e-01   -6,343560219e-01    0,000000000e+00    0,000000000e+00    0,000000000e+00    0,000000000e+00
     1206000000   -1,904838383e-01   -5,217783526e-02   -1,380781233e-01   -6,614392400e-01    0,000000000e+00    0,000000000e+00    0,000000000e+00    0,000000000e+00
     1220000000   -2,560414374e-01   -1,264737360e-02   -4,175205827e-01   -4,831239283e-01    0,000000000e+00    0,000000000e+00    0,000000000e+00    0,000000000e+00
     1234000000   -2,422422022e-01    1,185170189e-01   -5,593172312e-01   -2,491986752e-01    0,000000000e+00    0,000000000e+00    0,000000000e+00    0,000000000e+00
     1248000000   -1,118010804e-01    1,719827205e-01   -6,005024910e-01    1,591501758e-02    0,000000000e+00    0,000000000e+00    0,000000000e+00    0,000000000e+00
     1262000000   -7,804205175e-03    1,308275908e-01   -5,099184513e-01    2,954945266e-01    0,000000000e+00    0,000000000e+00    0,000000000e+00    0,000000000e+00
     1276000000    5,904020369e-02    3,877130151e-02   -2,816401422e-01    4,896487892e-01    0,000000000e+00    0,000000000e+00    0,000000000e+00    0,000000000e+00
     1290000000    7,279482484e-02   -7,202909887e-02    1,363272406e-02    5,493158102e-01    0,000000000e+00    0,000000000e+00    0,000000000e+00    0,000000000e+00
     1304000000    1,699814573e-02   -1,813662052e-01    2,970747650e-01    4,733226001e-01    0,000000000e+00    0,000000000e+00    0,000000000e+00    0,000000000e+00
     1318000000   -8,920358121e-02   -2,520543337e-01    5,394656062e-01    2,713475823e-01    0,000000000e+00    0,000000000e+00    0,000000000e+00    0,000000000e+00
     1332000000   -2,457168251e-01   -2,453291565e-01    6,534550786e-01   -5,516535044e-02    0,000000000e+00    0,000000000e+00    0,000000000e+00    0,000000000e+00
     1346000000   -3,601645231e-01   -1,394418329e-01    5,537871718e-01   -4,053723216e-01    0,000000000e+00    0,000000000e+00    0,000000000e+00    0,000000000e+00
     1360000000   -3,846993446e-01    1,000890229e-02    2,523742616e-01   -6,292885542e-01    0,000000000e+00    0,000000000e+00    0,000000000e+00    0,000000000e+00
     1374000000   -3,265971839e-01    1,200534701e-01   -1,015237495e-01   -6,318318248e-01    0,000000000e+00    0,000000000e+00    0,000000000e+00    0,000000000e+00
     1388000000   -2,404826730e-01    1,702181548e-01   -3,836622834e-01   -4,222870469e-01    0,000000000e+00    0,000000000e+00    0,000000000e+00    0,000000000e+00
     1402000000   -1,495738775e-01    1,695215851e-01   -4,779048860e-01   -1,026968285e-01    0,000000000e+00    0,000000000e+00    0,000000000e+00    0,000000000e+00
     1416000000   -8,215827495e-02    1,443965137e-01   -3,961118758e-01    2,139314264e-01    0,000000000e+00    0,000000000e+00    0,000000000e+00    0,000000000e+00
     1430000000   -3,735897318e-02    8,631651103e-02   -1,820740402e-01    4,217357635e-01    0,000000000e+00    0,000000000e+00    0,000000000e+00    0,000000000e+00
     1444000000   -1,696064509e-02    4,838878289e-03    1,177153662e-01    5,279815197e-01    0,000000000e+00    0,000000000e+00    0,000000000e+00    0,000000000e+00
     1458000000   -4,099119455e-02   -7,896685600e-02    4,344802201e-01    5,001028776e-01    0,000000000e+00    0,000000000e+00    0,000000000e+00    0,000000000e+00
     1472000000   -1,247262806e-01   -1,447221041e-01    7,264209390e-01    2,984625995e-01    0,000000000e+00    0,000000000e+00    0,000000000e+00    0,000000000e+00
     1486000000   -2,280485332e-01   -1,464434564e-01    8,983198404e-01   -3,390461579e-02    0,000000000e+00    0,000000000e+00    0,000000000e+00    0,000000000e+00
     1500000000   -2,955394983e-01   -5,466370285e-02    8,569295406e-01   -4,153659642e-01    0,000000000e+00    0,000000000e+00    0,000000000e+00    0,000000000e+00
