! NanoVNA-App
! Date: 2025-09-26 09:39:01
! Start: 100MHz Stop: 1,5GHz Points: 101
! S-Parameter data: F S11 S21 S12 S22
# Hz S RI R 50
!     Frequency           S11_Real           S11_Imag           S21_Real           S21_Imag           S12_Real           S12_Imag           S22_Real           S22_Imag
      100000000   -2,877114527e-02   -4,431725945e-03    3,735227585e-01   -7,233783603e-01    0,000000000e+00    0,000000000e+00    0,000000000e+00    0,000000000e+00
      114000000   -1,662996970e-02    1,119045075e-02   -9,046887606e-02   -8,065600395e-01    0,000000000e+00    0,000000000e+00    0,000000000e+00    0,000000000e+00
      128000000    3,023045836e-03    1,042719930e-02   -5,162401795e-01   -6,209072471e-01    0,000000000e+00    0,000000000e+00    0,000000000e+00    0,000000000e+00
      142000000    1,414099801e-02   -2,957871649e-03   -7,688187361e-01   -2,358293086e-01    0,000000000e+00    0,000000000e+00    0,000000000e+00    0,000000000e+00
      156000000    1,587908156e-02   -1,501585077e-02   -7,725278139e-01    2,257814854e-01    0,000000000e+00    0,000000000e+00    0,000000000e+00    0,000000000e+00
      170000000    1,680283248e-02   -2,233459055e-02   -5,174674392e-01    6,067883372e-01    0,000000000e+00    0,000000000e+00    0,000000000e+00    0,000000000e+00
      184000000    2,095345780e-02   -3,727980703e-02   -9,982922673e-02    7,875491381e-01    0,000000000e+00    0,000000000e+00    0,000000000e+00    0,000000000e+00
      198000000    1,267589442e-02   -6,250439584e-02    3,453421891e-01    7,134634256e-01    0,000000000e+00    0,000000000e+00    0,000000000e+00    0,000000000e+00
      212000000   -1,911464334e-02   -8,096566051e-02    6,815072894e-01    4,090507925e-01    0,000000000e+00    0,000000000e+00    0,000000000e+00    0,000000000e+00
      226000000   -6,167582795e-02   -6,849209219e-02    7,979969382e-01   -3,297396377e-02    0,000000000e+00    0,000000000e+00    0,000000000e+00    0,000000000e+00
      240000000   -8,203145117e-02   -2,533122152e-02    6,456670761e-01   -4,703648388e-01    0,000000000e+00    0,000000000e+00    0,000000000e+00    0,000000000e+00
      254000000   -6,294671446e-02    1,725587435e-02    2,755575180e-01   -7,431689501e-01    0,000000000e+00    0,000000000e+00    0,000000000e+00    0,000000000e+00
      268000000   -2,312992886e-02    2,836507000e-02   -1,765467227e-01   -7,646864057e-01    0,000000000e+00    0,000000000e+00    0,000000000e+00    0,000000000e+00
      282000000    3,850810928e-03    1,132949907e-02   -5,619386435e-01   -5,387730002e-01    0,000000000e+00    0,000000000e+00    0,000000000e+00    0,000000000e+00
      296000000    9,376996197e-03   -7,974306121e-03   -7,626768351e-01   -1,402181685e-01    0,000000000e+00    0,000000000e+00    0,000000000e+00    0,000000000e+00
      310000000    1,084018406e-02   -1,598557457e-02   -7,124497294e-01    3,021719754e-01    0,000000000e+00    0,000000000e+00    0,000000000e+00    0,000000000e+00
      324000000    2,012315765e-02   -2,649973333e-02   -4,262648821e-01    6,398885250e-01    0,000000000e+00    0,000000000e+00    0,000000000e+00    0,000000000e+00
      338000000    2,545179240e-02   -5,273961276e-02   -5,582557060e-03    7,653583288e-01    0,000000000e+00    0,000000000e+00    0,000000000e+00    0,000000000e+00
      352000000    6,947581191e-03   -8,518357575e-02    4,081964195e-01    6,396008730e-01    0,000000000e+00    0,000000000e+00    0,000000000e+00    0,000000000e+00
      366000000   -3,529802710e-02   -9,584438801e-02    6,929457188e-01    3,092680275e-01    0,000000000e+00    0,000000000e+00    0,000000000e+00    0,000000000e+00
      380000000   -7,117820531e-02   -7,055953890e-02    7,495276928e-01   -1,298172027e-01    0,000000000e+00    0,000000000e+00    0,000000000e+00    0,000000000e+00
      394000000   -7,170352340e-02   -3,193916753e-02    5,460001826e-01   -5,263429880e-01    0,000000000e+00    0,000000000e+00    0,000000000e+00    0,000000000e+00
      408000000   -4,602064937e-02   -1,753369533e-02    1,568388045e-01   -7,361379862e-01    0,000000000e+00    0,000000000e+00    0,000000000e+00    0,000000000e+00
      422000000   -2,957107499e-02   -3,305604681e-02   -2,741004229e-01   -6,940897703e-01    0,000000000e+00    0,000000000e+00    0,000000000e+00    0,000000000e+00
      436000000   -4,325284436e-02   -5,120596662e-02   -6,100314856e-01   -4,271516800e-01    0,000000000e+00    0,000000000e+00    0,000000000e+00    0,000000000e+00
      450000000   -6,887681782e-02   -4,135886952e-02   -7,396319509e-01   -1,541753951e-02    0,000000000e+00    0,000000000e+00    0,000000000e+00    0,000000000e+00
      464000000   -7,180707157e-02   -7,982757874e-03   -6,152630448e-01    4,014996290e-01    0,000000000e+00    0,000000000e+00    0,000000000e+00    0,000000000e+00
      478000000   -4,307157546e-02    1,389399543e-02   -2,764504552e-01    6,701607108e-01    0,000000000e+00    0,000000000e+00    0,000000000e+00    0,000000000e+00
      492000000   -1,046343520e-02    4,494494293e-03    1,447491497e-01    7,012302876e-01    0,000000000e+00    0,000000000e+00    0,000000000e+00    0,000000000e+00
      506000000    1,069535501e-03   -2,125186473e-02    5,056374073e-01    4,968374670e-01    0,000000000e+00    0,000000000e+00    0,000000000e+00    0,000000000e+00
      520000000   -4,925126676e-03   -3,898243606e-02    6,941466928e-01    1,302174032e-01    0,000000000e+00    0,000000000e+00    0,000000000e+00    0,000000000e+00
      534000000   -7,465166040e-03   -4,481061175e-02    6,393167377e-01   -2,759439349e-01    0,000000000e+00    0,000000000e+00    0,000000000e+00    0,000000000e+00
      548000000   -2,745003672e-03   -5,957963318e-02    3,677719831e-01   -5,771029592e-01    0,000000000e+00    0,000000000e+00    0,000000000e+00    0,000000000e+00
      562000000   -1,078574639e-02   -8,930962533e-02   -1,919542626e-02   -6,756270528e-01    0,000000000e+00    0,000000000e+00    0,000000000e+00    0,000000000e+00
      576000000   -4,889925197e-02   -1,116366312e-01   -3,952264190e-01   -5,464945436e-01    0,000000000e+00    0,000000000e+00    0,000000000e+00    0,000000000e+00
      590000000   -9,981585294e-02   -9,619155526e-02   -6,377829313e-01   -2,296931297e-01    0,000000000e+00    0,000000000e+00    0,000000000e+00    0,000000000e+00
      604000000   -1,186007783e-01   -4,380194470e-02   -6,545332670e-01    1,885445565e-01    0,000000000e+00    0,000000000e+00    0,000000000e+00    0,000000000e+00
      618000000   -8,372490108e-02   -2,695324831e-03   -4,146215022e-01    5,319271684e-01    0,000000000e+00    0,000000000e+00    0,000000000e+00    0,000000000e+00
      632000000   -3,772445396e-02   -1,864097826e-02   -2,546948753e-02    6,591796875e-01    0,000000000e+00    0,000000000e+00    0,000000000e+00    0,000000000e+00
      646000000   -4,153704271e-02   -7,154561579e-02    3,563846946e-01    5,396106243e-01    0,000000000e+00    0,000000000e+00    0,000000000e+00    0,000000000e+00
      660000000   -1,111347899e-01   -9,582773596e-02    5,998481512e-01    2,113040090e-01    0,000000000e+00    0,000000000e+00    0,000000000e+00    0,000000000e+00
      674000000   -1,946313679e-01   -2,902207896e-02    5,812402368e-01   -2,206897587e-01    0,000000000e+00    0,000000000e+00    0,000000000e+00    0,000000000e+00
      688000000   -1,839294285e-01    1,254225522e-01    2,464037836e-01   -5,235465169e-01    0,000000000e+00    0,000000000e+00    0,000000000e+00    0,000000000e+00
      702000000   -4,404167179e-03    2,333355546e-01   -1,749674082e-01   -4,502921700e-01    0,000000000e+00    0,000000000e+00    0,000000000e+00    0,000000000e+00
      716000000    2,339951545e-01    1,328512430e-01   -3,141901195e-01   -1,209006980e-01    0,000000000e+00    0,000000000e+00    0,000000000e+00    0,000000000e+00
      730000000    3,074154556e-01   -1,538732201e-01   -1,547696739e-01    5,490956828e-02    0,000000000e+00    0,000000000e+00    0,000000000e+00    0,000000000e+00
      744000000    1,202953234e-01   -4,173139930e-01   -4,371126369e-02   -1,759038307e-02    0,000000000e+00    0,000000000e+00    0,000000000e+00    0,000000000e+00
      758000000   -2,366323322e-01   -4,506722689e-01   -1,377980411e-01   -1,036043093e-01    0,000000000e+00    0,000000000e+00    0,000000000e+00    0,000000000e+00
      772000000   -4,973498285e-01   -1,525065601e-01   -3,021581173e-01    1,623005420e-02    0,000000000e+00    0,000000000e+00    0,000000000e+00    0,000000000e+00
      786000000   -3,783716857e-01    2,141694576e-01   -2,653105259e-01    2,843151093e-01    0,000000000e+00    0,000000000e+00    0,000000000e+00    0,000000000e+00
      800000000   -6,383877248e-02    2,963874936e-01   -1,725202240e-02    4,224063158e-01    0,000000000e+00    0,000000000e+00    0,000000000e+00    0,000000000e+00
      814000000    1,414283365e-01    1,457903832e-01    2,464004308e-01    3,606317043e-01    0,000000000e+00    0,000000000e+00    0,000000000e+00    0,000000000e+00
      828000000    1,750394702e-01   -6,079086289e-02    4,214568436e-01    1,653797776e-01    0,000000000e+00    0,000000000e+00    0,000000000e+00    0,000000000e+00
      842000000    7,445202768e-02   -2,205072939e-01    4,607990980e-01   -1,088533923e-01    0,000000000e+00    0,000000000e+00    0,000000000e+00    0,000000000e+00
      856000000   -1,062327996e-01   -2,724528611e-01    3,211242855e-01   -3,816285729e-01    0,000000000e+00    0,000000000e+00    0,000000000e+00    0,000000000e+00
      870000000   -2,844836712e-01   -1,791967452e-01    6,638079416e-03   -5,179089308e-01    0,000000000e+00    0,000000000e+00    0,000000000e+00    0,000000000e+00
      884000000   -3,389920294e-01    3,007175215e-02   -3,370643258e-01   -3,930262029e-01    0,000000000e+00    0,000000000e+00    0,000000000e+00    0,000000000e+00
      898000000   -2,121287435e-01    2,117666155e-01   -4,817900360e-01   -7,226741314e-02    0,000000000e+00    0,000000000e+00    0,000000000e+00    0,000000000e+00
      912000000   -6,058420986e-03    2,349500656e-01   -3,970015347e-01    2,646687329e-01    0,000000000e+00    0,000000000e+00    0,000000000e+00    0,000000000e+00
      926000000    1,485162675e-01    1,295998394e-01   -1,750333309e-01    4,095223248e-01    0,000000000e+00    0,000000000e+00    0,000000000e+00    0,000000000e+00
      940000000    2,039360255e-01   -3,417629004e-02    5,478928238e-02    4,204044938e-01    0,000000000e+00    0,000000000e+00    0,000000000e+00    0,000000000e+00
      954000000    1,564635634e-01   -2,003876716e-01    2,539657354e-01    3,425773084e-01    0,000000000e+00    0,000000000e+00    0,000000000e+00    0,000000000e+00
      968000000    2,580009028e-02   -3,178776205e-01    4,038484395e-01    1,809893101e-01    0,000000000e+00    0,000000000e+00    0,000000000e+00    0,000000000e+00
      982000000   -1,631478816e-01   -3,367446959e-01    4,694885015e-01   -6,398770958e-02    0,000000000e+00    0,000000000e+00    0,000000000e+00    0,000000000e+00
      996000000   -3,264299631e-01   -2,136234343e-01    3,606088758e-01   -3,537679017e-01    0,000000000e+00    0,000000000e+00    0,000000000e+00    0,000000000e+00
     1010000000   -3,336880207e-01   -1,781394519e-02    2,401792258e-02   -5,195801258e-01    0,000000000e+00    0,000000000e+00    0,000000000e+00    0,000000000e+00
     1024000000   -2,040023357e-01    5,197425559e-02   -3,749199212e-01   -3,392401040e-01    0,000000000e+00    0,000000000e+00    0,000000000e+00    0,000000000e+00
     1038000000   -2,266952246e-01   -3,230752423e-02   -4,124237299e-01    1,551257968e-01    0,000000000e+00    0,000000000e+00    0,000000000e+00    0,000000000e+00
     1052000000   -3,373134732e-01    1,696553826e-01    8,371427539e-04    2,581163347e-01    0,000000000e+00    0,000000000e+00    0,000000000e+00    0,000000000e+00
     1066000000   -9,854402393e-02    3,330940604e-01    7,170695066e-02    7,205469161e-02    0,000000000e+00    0,000000000e+00    0,000000000e+00    0,000000000e+00
     1080000000    1,230488494e-01    2,453769892e-01    3,587587923e-02    3,519700840e-02    0,000000000e+00    0,000000000e+00    0,000000000e+00    0,000000000e+00
     1094000000    2,317861915e-01    8,327384293e-02    4,236350581e-02    3,867801651e-02    0,000000000e+00    0,000000000e+00    0,000000000e+00    0,000000000e+00
     1108000000    2,451982349e-01   -9,934382886e-02    7,292406261e-02    3,289827332e-02    0,000000000e+00    0,000000000e+00    0,000000000e+00    0,000000000e+00
     1122000000    1,820479184e-01   -2,628117502e-01    1,094688028e-01    5,675604101e-03    0,000000000e+00    0,000000000e+00    0,000000000e+00    0,000000000e+00
     1136000000    3,524266928e-02   -3,876741827e-01    1,476096511e-01   -4,947621003e-02    0,000000000e+00    0,000000000e+00    0,000000000e+00    0,000000000e+00
     1150000000   -1,743091494e-01   -4,209581614e-01    1,661603898e-01   -1,446718872e-01    0,000000000e+00    0,000000000e+00    0,000000000e+00    0,000000000e+00
     1164000000   -3,981149495e-01   -3,129630685e-01    1,195847765e-01   -2,885630131e-01    0,000000000e+00    0,000000000e+00    0,000000000e+00    0,000000000e+00
     1178000000   -4,643957317e-01   -7,471015304e-02   -1,041838750e-01   -4,166468978e-01    0,000000000e+00    0,000000000e+00    0,000000000e+00    0,000000000e+00
     1192000000   -3,666916490e-01    4,267573357e-02   -4,580777586e-01   -2,007876188e-01    0,000000000e+00    0,000000000e+00    0,000000000e+00    0,000000000e+00
     1206000000   -4,174760282e-01    1,192515567e-01   -2,788131833e-01    2,412217110e-01    0,000000000e+00    0,000000000e+00    0,000000000e+00    0,000000000e+00
     1220000000   -2,962749898e-01    3,255181313e-01    1,104037184e-02    1,737116277e-01    0,000000000e+00    0,000000000e+00    0,000000000e+00    0,000000000e+00
     1234000000   -7,096896321e-02    3,628138304e-01    3,631003201e-02    5,109018087e-02    0,000000000e+00    0,000000000e+00    0,000000000e+00    0,000000000e+00
     1248000000    1,078803316e-01    2,669233084e-01    3,780400846e-03    1,488919184e-02    0,000000000e+00    0,000000000e+00    0,000000000e+00    0,000000000e+00
     1262000000    2,092734128e-01    1,256449670e-01    2,515335102e-03    2,588663436e-02    0,000000000e+00    0,000000000e+00    0,000000000e+00    0,000000000e+00
     1276000000    2,421731353e-01   -4,304275289e-02    2,088859677e-02    2,801055461e-02    0,000000000e+00    0,000000000e+00    0,000000000e+00    0,000000000e+00
     1290000000    2,047088146e-01   -2,059623450e-01    5,126114935e-02    2,398388833e-02    0,000000000e+00    0,000000000e+00    0,000000000e+00    0,000000000e+00
     1304000000    8,844141662e-02   -3,564790487e-01    6,754018366e-02    1,201149821e-02    0,000000000e+00    0,000000000e+00    0,000000000e+00    0,000000000e+00
     1318000000   -1,007416323e-01   -4,480993450e-01    7,830573618e-02   -4,621455912e-03    0,000000000e+00    0,000000000e+00    0,000000000e+00    0,000000000e+00
     1332000000   -3,611744940e-01   -4,323534667e-01    8,506865054e-02   -1,004016958e-02    0,000000000e+00    0,000000000e+00    0,000000000e+00    0,000000000e+00
     1346000000   -5,898954272e-01   -2,435794026e-01    1,059963852e-01   -5,762153305e-03    0,000000000e+00    0,000000000e+00    0,000000000e+00    0,000000000e+00
     1360000000   -6,436436176e-01    7,045620680e-02    1,380783319e-01   -1,052992325e-02    0,000000000e+00    0,000000000e+00    0,000000000e+00    0,000000000e+00
     1374000000   -4,966929555e-01    3,292043507e-01    1,493278444e-01   -4,940678179e-02    0,000000000e+00    0,000000000e+00    0,000000000e+00    0,000000000e+00
     1388000000   -2,683905959e-01    4,281834066e-01    1,569613665e-01   -8,737763762e-02    0,000000000e+00    0,000000000e+00    0,000000000e+00    0,000000000e+00
     1402000000   -5,956114084e-02    3,968503773e-01    1,328845918e-01   -1,045128554e-01    0,000000000e+00    0,000000000e+00    0,000000000e+00    0,000000000e+00
     1416000000    8,632517606e-02    3,082912862e-01    1,026011035e-01   -9,599884599e-02    0,000000000e+00    0,000000000e+00    0,000000000e+00    0,000000000e+00
     1430000000    1,824193448e-01    1,686163545e-01    9,041205049e-02   -7,842613012e-02    0,000000000e+00    0,000000000e+00    0,000000000e+00    0,000000000e+00
     1444000000    2,214428335e-01    1,372593362e-02    8,945210278e-02   -2,844562754e-02    0,000000000e+00    0,000000000e+00    0,000000000e+00    0,000000000e+00
     1458000000    1,902952641e-01   -1,658439934e-01    1,179431230e-01    3,836916294e-03    0,000000000e+00    0,000000000e+00    0,000000000e+00    0,000000000e+00
     1472000000    7,688694447e-02   -3,387831151e-01    1,774499714e-01    5,051672086e-02    0,000000000e+00    0,000000000e+00    0,000000000e+00    0,000000000e+00
     1486000000   -1,327605844e-01   -4,611871839e-01    2,702169120e-01    7,781621069e-02    0,000000000e+00    0,000000000e+00    0,000000000e+00    0,000000000e+00
     1500000000   -4,383580089e-01   -4,511752427e-01    3,816179335e-01    3,059245646e-02    0,000000000e+00    0,000000000e+00    0,000000000e+00    0,000000000e+00
