! NanoVNA-App
! Date: 2025-09-26 09:39:08
! Start: 100MHz Stop: 1,5GHz Points: 101
! S-Parameter data: F S11 S21 S12 S22
# Hz S RI R 50
!     Frequency           S11_Real           S11_Imag           S21_Real           S21_Imag           S12_Real           S12_Imag           S22_Real           S22_Imag
      100000000   -2,878097817e-02   -4,430291709e-03    3,735391796e-01   -7,233837247e-01    0,000000000e+00    0,000000000e+00    0,000000000e+00    0,000000000e+00
      114000000   -1,664462499e-02    1,120781712e-02   -9,060839564e-02   -8,063110113e-01    0,000000000e+00    0,000000000e+00    0,000000000e+00    0,000000000e+00
      128000000    3,086213721e-03    1,040821709e-02   -5,160833001e-01   -6,209036112e-01    0,000000000e+00    0,000000000e+00    0,000000000e+00    0,000000000e+00
      142000000    1,414583623e-02   -2,981156344e-03   -7,688101530e-01   -2,358002365e-01    0,000000000e+00    0,000000000e+00    0,000000000e+00    0,000000000e+00
      156000000    1,418543234e-02   -1,408728585e-02   -7,661173940e-01    2,199424952e-01    0,000000000e+00    0,000000000e+00    0,000000000e+00    0,000000000e+00
      170000000    1,673209481e-02   -2,235775813e-02   -5,174368620e-01    6,066523194e-01    0,000000000e+00    0,000000000e+00    0,000000000e+00    0,000000000e+00
      184000000    2,096618898e-02   -3,734849393e-02   -9,964184463e-02    7,875932455e-01    0,000000000e+00    0,000000000e+00    0,000000000e+00    0,000000000e+00
      198000000    1,269074064e-02   -6,253863871e-02    3,454822302e-01    7,130737305e-01    0,000000000e+00    0,000000000e+00    0,000000000e+00    0,000000000e+00
      212000000   -1,912329532e-02   -8,095891774e-02    6,814159751e-01    4,090233445e-01    0,000000000e+00    0,000000000e+00    0,000000000e+00    0,000000000e+00
      226000000   -6,163751334e-02   -6,852658093e-02    7,979170084e-01   -3,298203275e-02    0,000000000e+00    0,000000000e+00    0,000000000e+00    0,000000000e+00
      240000000   -8,206635714e-02   -2,534642443e-02    6,459586024e-01   -4,704699218e-01    0,000000000e+00    0,000000000e+00    0,000000000e+00    0,000000000e+00
      254000000   -6,296405941e-02    1,729058847e-02    2,760059237e-01   -7,432191372e-01    0,000000000e+00    0,000000000e+00    0,000000000e+00    0,000000000e+00
      268000000   -2,320501767e-02    2,845748328e-02   -1,764083654e-01   -7,645369172e-01    0,000000000e+00    0,000000000e+00    0,000000000e+00    0,000000000e+00
      282000000    3,976186737e-03    1,129904855e-02   -5,619666576e-01   -5,384811759e-01    0,000000000e+00    0,000000000e+00    0,000000000e+00    0,000000000e+00
      296000000    9,406797588e-03   -8,114161901e-03   -7,626822591e-01   -1,401695907e-01    0,000000000e+00    0,000000000e+00    0,000000000e+00    0,000000000e+00
      310000000    1,094611268e-02   -1,591631398e-02   -7,129085660e-01    3,026897609e-01    0,000000000e+00    0,000000000e+00    0,000000000e+00    0,000000000e+00
      324000000    1,984514482e-02   -2,666091919e-02   -4,273124635e-01    6,395818591e-01    0,000000000e+00    0,000000000e+00    0,000000000e+00    0,000000000e+00
      338000000    2,537327819e-02   -5,260986462e-02   -8,196151815e-03    7,615863085e-01    0,000000000e+00    0,000000000e+00    0,000000000e+00    0,000000000e+00
      352000000    6,831013598e-03   -8,517885953e-02    4,088224769e-01    6,396061182e-01    0,000000000e+00    0,000000000e+00    0,000000000e+00    0,000000000e+00
      366000000   -3,533186764e-02   -9,558086842e-02    6,932983398e-01    3,098635972e-01    0,000000000e+00    0,000000000e+00    0,000000000e+00    0,000000000e+00
      380000000   -7,115941495e-02   -7,057258487e-02    7,491557598e-01   -1,295861304e-01    0,000000000e+00    0,000000000e+00    0,000000000e+00    0,000000000e+00
      394000000   -7,168635726e-02   -3,198308498e-02    5,464915037e-01   -5,244812369e-01    0,000000000e+00    0,000000000e+00    0,000000000e+00    0,000000000e+00
      408000000   -4,591154307e-02   -1,735847816e-02    1,574968100e-01   -7,366157770e-01    0,000000000e+00    0,000000000e+00    0,000000000e+00    0,000000000e+00
      422000000   -2,946260944e-02   -3,320332617e-02   -2,740978599e-01   -6,958162785e-01    0,000000000e+00    0,000000000e+00    0,000000000e+00    0,000000000e+00
      436000000   -4,316212609e-02   -5,097057670e-02   -6,092797518e-01   -4,267589450e-01    0,000000000e+00    0,000000000e+00    0,000000000e+00    0,000000000e+00
      450000000   -6,881741434e-02   -4,103651643e-02   -7,399028540e-01   -1,520827692e-02    0,000000000e+00    0,000000000e+00    0,000000000e+00    0,000000000e+00
      464000000   -7,174572349e-02   -7,988221012e-03   -6,148853302e-01    4,016624987e-01    0,000000000e+00    0,000000000e+00    0,000000000e+00    0,000000000e+00
      478000000   -4,302292690e-02    1,362450980e-02   -2,763147354e-01    6,707648635e-01    0,000000000e+00    0,000000000e+00    0,000000000e+00    0,000000000e+00
      492000000   -1,027705055e-02    4,302657675e-03    1,446044594e-01    7,011078596e-01    0,000000000e+00    0,000000000e+00    0,000000000e+00    0,000000000e+00
      506000000    1,052608946e-03   -2,149344981e-02    5,057443976e-01    4,960233271e-01    0,000000000e+00    0,000000000e+00    0,000000000e+00    0,000000000e+00
      520000000   -5,450340454e-03   -3,855984285e-02    6,909486651e-01    1,294442564e-01    0,000000000e+00    0,000000000e+00    0,000000000e+00    0,000000000e+00
      534000000   -7,553439122e-03   -4,493200034e-02    6,384231448e-01   -2,766831219e-01    0,000000000e+00    0,000000000e+00    0,000000000e+00    0,000000000e+00
      548000000   -3,047595965e-03   -5,946387351e-02    3,678731620e-01   -5,773359537e-01    0,000000000e+00    0,000000000e+00    0,000000000e+00    0,000000000e+00
      562000000   -1,081015449e-02   -8,960426599e-02   -1,917321980e-02   -6,754266620e-01    0,000000000e+00    0,000000000e+00    0,000000000e+00    0,000000000e+00
      576000000   -4,889485240e-02   -1,117913723e-01   -3,948560953e-01   -5,453600287e-01    0,000000000e+00    0,000000000e+00    0,000000000e+00    0,000000000e+00
      590000000   -9,979820997e-02   -9,615017474e-02   -6,381899714e-01   -2,277735621e-01    0,000000000e+00    0,000000000e+00    0,000000000e+00    0,000000000e+00
      604000000   -1,181611344e-01   -4,337160662e-02   -6,539318562e-01    1,884856671e-01    0,000000000e+00    0,000000000e+00    0,000000000e+00    0,000000000e+00
      618000000   -8,427140862e-02   -2,818754641e-03   -4,143421948e-01    5,315045714e-01    0,000000000e+00    0,000000000e+00    0,000000000e+00    0,000000000e+00
      632000000   -3,715886921e-02   -1,881910115e-02   -2,528344654e-02    6,585037112e-01    0,000000000e+00    0,000000000e+00    0,000000000e+00    0,000000000e+00
      646000000   -4,148747772e-02   -7,163239270e-02    3,558543324e-01    5,394377708e-01    0,000000000e+00    0,000000000e+00    0,000000000e+00    0,000000000e+00
      660000000   -1,113059297e-01   -9,633787721e-02    6,002178192e-01    2,113850266e-01    0,000000000e+00    0,000000000e+00    0,000000000e+00    0,000000000e+00
      674000000   -1,947733164e-01   -2,863823436e-02    5,804469585e-01   -2,200598419e-01    0,000000000e+00    0,000000000e+00    0,000000000e+00    0,000000000e+00
      688000000   -1,823776960e-01    1,261265129e-01    2,465831339e-01   -5,236917138e-01    0,000000000e+00    0,000000000e+00    0,000000000e+00    0,000000000e+00
      702000000   -4,151345231e-03    2,337438166e-01   -1,757193655e-01   -4,459496737e-01    0,000000000e+00    0,000000000e+00    0,000000000e+00    0,000000000e+00
      716000000    2,344149798e-01    1,336611658e-01   -3,142712712e-01   -1,209954098e-01    0,000000000e+00    0,000000000e+00    0,000000000e+00    0,000000000e+00
      730000000    3,074256182e-01   -1,538951993e-01   -1,543736607e-01    5,455008149e-02    0,000000000e+00    0,000000000e+00    0,000000000e+00    0,000000000e+00
      744000000    1,205388457e-01   -4,174062908e-01   -4,342456162e-02   -1,804644242e-02    0,000000000e+00    0,000000000e+00    0,000000000e+00    0,000000000e+00
      758000000   -2,381878793e-01   -4,523752928e-01   -1,381113529e-01   -1,039658338e-01    0,000000000e+00    0,000000000e+00    0,000000000e+00    0,000000000e+00
      772000000   -4,979824424e-01   -1,538543999e-01   -3,026724756e-01    1,663716882e-02    0,000000000e+00    0,000000000e+00    0,000000000e+00    0,000000000e+00
      786000000   -3,785910606e-01    2,158516347e-01   -2,644556463e-01    2,838301659e-01    0,000000000e+00    0,000000000e+00    0,000000000e+00    0,000000000e+00
      800000000   -6,424221396e-02    2,965768576e-01   -1,662497409e-02    4,229240119e-01    0,000000000e+00    0,000000000e+00    0,000000000e+00    0,000000000e+00
      814000000    1,417745799e-01    1,456931531e-01    2,455537468e-01    3,607236743e-01    0,000000000e+00    0,000000000e+00    0,000000000e+00    0,000000000e+00
      828000000    1,749965250e-01   -6,063356996e-02    4,213752449e-01    1,647605747e-01    0,000000000e+00    0,000000000e+00    0,000000000e+00    0,000000000e+00
      842000000    7,410477102e-02   -2,195658386e-01    4,610891640e-01   -1,086260602e-01    0,000000000e+00    0,000000000e+00    0,000000000e+00    0,000000000e+00
      856000000   -1,060603857e-01   -2,729172111e-01    3,206615448e-01   -3,819620013e-01    0,000000000e+00    0,000000000e+00    0,000000000e+00    0,000000000e+00
      870000000   -2,833099961e-01   -1,788139194e-01    7,987261750e-03   -5,181089640e-01    0,000000000e+00    0,000000000e+00    0,000000000e+00    0,000000000e+00
      884000000   -3,385728300e-01    3,047257662e-02   -3,363188803e-01   -3,931812048e-01    0,000000000e+00    0,000000000e+00    0,000000000e+00    0,000000000e+00
      898000000   -2,122665942e-01    2,126077414e-01   -4,811744988e-01   -7,092063129e-02    0,000000000e+00    0,000000000e+00    0,000000000e+00    0,000000000e+00
      912000000   -6,315342616e-03    2,342304289e-01   -4,039428532e-01    2,686595023e-01    0,000000000e+00    0,000000000e+00    0,000000000e+00    0,000000000e+00
      926000000    1,481011659e-01    1,276393533e-01   -1,759566963e-01    4,051611423e-01    0,000000000e+00    0,000000000e+00    0,000000000e+00    0,000000000e+00
      940000000    2,022846639e-01   -3,438653797e-02    5,527187511e-02    4,231358171e-01    0,000000000e+00    0,000000000e+00    0,000000000e+00    0,000000000e+00
      954000000    1,575076729e-01   -1,978240311e-01    2,515341043e-01    3,420256376e-01    0,000000000e+00    0,000000000e+00    0,000000000e+00    0,000000000e+00
      968000000    2,613101900e-02   -3,141741455e-01    4,046820998e-01    1,824019849e-01    0,000000000e+00    0,000000000e+00    0,000000000e+00    0,000000000e+00
      982000000   -1,654675454e-01   -3,333816528e-01    4,676652849e-01   -6,457170099e-02    0,000000000e+00    0,000000000e+00    0,000000000e+00    0,000000000e+00
      996000000   -3,281968534e-01   -2,116315216e-01    3,602717519e-01   -3,551604450e-01    0,000000000e+00    0,000000000e+00    0,000000000e+00    0,000000000e+00
     1010000000   -3,320130408e-01   -1,439231914e-02    2,255842835e-02   -5,185654163e-01    0,000000000e+00    0,000000000e+00    0,000000000e+00    0,000000000e+00
     1024000000   -2,023249418e-01    5,574291572e-02   -3,767698109e-01   -3,387781978e-01    0,000000000e+00    0,000000000e+00    0,000000000e+00    0,000000000e+00
     1038000000   -2,266752869e-01   -3,634762764e-02   -4,098438025e-01    1,541812271e-01    0,000000000e+00    0,000000000e+00    0,000000000e+00    0,000000000e+00
     1052000000   -3,414657712e-01    1,673471034e-01    1,505171647e-03    2,570736706e-01    0,000000000e+00    0,000000000e+00    0,000000000e+00    0,000000000e+00
     1066000000   -9,733077139e-02    3,281854093e-01    7,089606673e-02    7,094199955e-02    0,000000000e+00    0,000000000e+00    0,000000000e+00    0,000000000e+00
     1080000000    1,254088730e-01    2,484672517e-01    3,378897160e-02    3,442445770e-02    0,000000000e+00    0,000000000e+00    0,000000000e+00    0,000000000e+00
     1094000000    2,292929441e-01    8,456084877e-02    4,368899763e-02    3,925941512e-02    0,000000000e+00    0,000000000e+00    0,000000000e+00    0,000000000e+00
     1108000000    2,467228174e-01   -9,823951125e-02    7,391934097e-02    3,359740600e-02    0,000000000e+00    0,000000000e+00    0,000000000e+00    0,000000000e+00
     1122000000    1,799985617e-01   -2,603447735e-01    1,119797602e-01    2,964464482e-03    0,000000000e+00    0,000000000e+00    0,000000000e+00    0,000000000e+00
     1136000000    3,693770617e-02   -3,881088495e-01    1,495499760e-01   -4,799152538e-02    0,000000000e+00    0,000000000e+00    0,000000000e+00    0,000000000e+00
     1150000000   -1,783432066e-01   -4,217007458e-01    1,630135179e-01   -1,468583196e-01    0,000000000e+00    0,000000000e+00    0,000000000e+00    0,000000000e+00
     1164000000   -3,911265135e-01   -3,103618324e-01    1,173217595e-01   -2,878946662e-01    0,000000000e+00    0,000000000e+00    0,000000000e+00    0,000000000e+00
     1178000000   -4,614051580e-01   -7,037667930e-02   -1,034378484e-01   -4,155500531e-01    0,000000000e+00    0,000000000e+00    0,000000000e+00    0,000000000e+00
     1192000000   -3,700904250e-01    3,850676492e-02   -4,647397399e-01   -2,012655139e-01    0,000000000e+00    0,000000000e+00    0,000000000e+00    0,000000000e+00
     1206000000   -4,187250435e-01    1,187178567e-01   -2,822731733e-01    2,411094755e-01    0,000000000e+00    0,000000000e+00    0,000000000e+00    0,000000000e+00
     1220000000   -3,039129674e-01    3,281692863e-01    8,775838651e-03    1,714269519e-01    0,000000000e+00    0,000000000e+00    0,000000000e+00    0,000000000e+00
     1234000000   -6,762222946e-02    3,657311797e-01    4,190078378e-02    5,204360187e-02    0,000000000e+00    0,000000000e+00    0,000000000e+00    0,000000000e+00
     1248000000    1,105994582e-01    2,732163072e-01    1,018935442e-02    2,013005689e-02    0,000000000e+00    0,000000000e+00    0,000000000e+00    0,000000000e+00
     1262000000    2,133140713e-01    1,212665737e-01    4,876871593e-03    2,186507359e-02    0,000000000e+00    0,000000000e+00    0,000000000e+00    0,000000000e+00
     1276000000    2,356023788e-01   -3,933585063e-02    1,875876635e-02    3,167797998e-02    0,000000000e+00    0,000000000e+00    0,000000000e+00    0,000000000e+00
     1290000000    1,988117397e-01   -2,110511363e-01    4,617365450e-02    2,308353782e-02    0,000000000e+00    0,000000000e+00    0,000000000e+00    0,000000000e+00
     1304000000    8,804127574e-02   -3,554351032e-01    7,051077485e-02    7,793191355e-03    0,000000000e+00    0,000000000e+00    0,000000000e+00    0,000000000e+00
     1318000000   -1,009106264e-01   -4,495541751e-01    8,412740380e-02   -9,075547569e-03    0,000000000e+00    0,000000000e+00    0,000000000e+00    0,000000000e+00
     1332000000   -3,525518477e-01   -4,306860566e-01    9,064240754e-02   -1,652969234e-02    0,000000000e+00    0,000000000e+00    0,000000000e+00    0,000000000e+00
     1346000000   -5,908504725e-01   -2,413558513e-01    1,123760045e-01   -5,860846024e-03    0,000000000e+00    0,000000000e+00    0,000000000e+00    0,000000000e+00
     1360000000   -6,437043548e-01    6,958104670e-02    1,428195685e-01   -2,577828802e-02    0,000000000e+00    0,000000000e+00    0,000000000e+00    0,000000000e+00
     1374000000   -5,021035671e-01    3,304588497e-01    1,588405967e-01   -4,855183885e-02    0,000000000e+00    0,000000000e+00    0,000000000e+00    0,000000000e+00
     1388000000   -2,629528046e-01    4,268075228e-01    1,568842828e-01   -9,061966836e-02    0,000000000e+00    0,000000000e+00    0,000000000e+00    0,000000000e+00
     1402000000   -5,755161121e-02    3,977543712e-01    1,338529587e-01   -1,086424068e-01    0,000000000e+00    0,000000000e+00    0,000000000e+00    0,000000000e+00
     1416000000    8,885562420e-02    3,061808944e-01    9,689872712e-02   -9,551706165e-02    0,000000000e+00    0,000000000e+00    0,000000000e+00    0,000000000e+00
     1430000000    1,832052022e-01    1,688065231e-01    7,826829702e-02   -7,516996562e-02    0,000000000e+00    0,000000000e+00    0,000000000e+00    0,000000000e+00
     1444000000    2,231493294e-01    1,038120408e-02    9,095254540e-02   -2,327664010e-02    0,000000000e+00    0,000000000e+00    0,000000000e+00    0,000000000e+00
     1458000000    1,881190687e-01   -1,612095386e-01    1,225836426e-01    2,489893511e-02    0,000000000e+00    0,000000000e+00    0,000000000e+00    0,000000000e+00
     1472000000    7,995206863e-02   -3,337888122e-01    1,902580261e-01    5,618206784e-02    0,000000000e+00    0,000000000e+00    0,000000000e+00    0,000000000e+00
     1486000000   -1,407296509e-01   -4,644433856e-01    2,745027244e-01    8,086128533e-02    0,000000000e+00    0,000000000e+00    0,000000000e+00    0,000000000e+00
     1500000000   -4,382411838e-01   -4,450683594e-01    3,931477666e-01    4,687473178e-02    0,000000000e+00    0,000000000e+00    0,000000000e+00    0,000000000e+00
