! NanoVNA-App
! Date: 2025-09-26 09:39:01
! Start: 100MHz Stop: 1,5GHz Points: 101
! S-Parameter data: F S11 S21 S12 S22
# Hz S RI R 50
!     Frequency           S11_Real           S11_Imag           S21_Real           S21_Imag           S12_Real           S12_Imag           S22_Real           S22_Imag
      100000000   -2,877721936e-02   -4,418463446e-03    3,735327125e-01   -7,233818173e-01    0,000000000e+00    0,000000000e+00    0,000000000e+00    0,000000000e+00
      114000000   -1,668255217e-02    1,121895202e-02   -9,058132768e-02   -8,065190911e-01    0,000000000e+00    0,000000000e+00    0,000000000e+00    0,000000000e+00
      128000000    3,087240271e-03    1,045535505e-02   -5,161242485e-01   -6,206426620e-01    0,000000000e+00    0,000000000e+00    0,000000000e+00    0,000000000e+00
      142000000    1,413262170e-02   -2,968591871e-03   -7,687407136e-01   -2,358546555e-01    0,000000000e+00    0,000000000e+00    0,000000000e+00    0,000000000e+00
      156000000    1,421418972e-02   -1,399482228e-02   -7,661980391e-01    2,199608088e-01    0,000000000e+00    0,000000000e+00    0,000000000e+00    0,000000000e+00
      170000000    1,675938070e-02   -2,230874263e-02   -5,175139308e-01    6,064634919e-01    0,000000000e+00    0,000000000e+00    0,000000000e+00    0,000000000e+00
      184000000    2,101697586e-02   -3,732079640e-02   -9,955200553e-02    7,873988152e-01    0,000000000e+00    0,000000000e+00    0,000000000e+00    0,000000000e+00
      198000000    1,267552190e-02   -6,255406886e-02    3,454258144e-01    7,132227421e-01    0,000000000e+00    0,000000000e+00    0,000000000e+00    0,000000000e+00
      212000000   -1,912303828e-02   -8,097715676e-02    6,815690994e-01    4,087291360e-01    0,000000000e+00    0,000000000e+00    0,000000000e+00    0,000000000e+00
      226000000   -6,169246882e-02   -6,855349243e-02    7,980582714e-01   -3,288979828e-02    0,000000000e+00    0,000000000e+00    0,000000000e+00    0,000000000e+00
      240000000   -8,203235269e-02   -2,523466758e-02    6,457504630e-01   -4,704428911e-01    0,000000000e+00    0,000000000e+00    0,000000000e+00    0,000000000e+00
      254000000   -6,295047700e-02    1,731039770e-02    2,757175863e-01   -7,428802848e-01    0,000000000e+00    0,000000000e+00    0,000000000e+00    0,000000000e+00
      268000000   -2,317094058e-02    2,847548574e-02   -1,766163558e-01   -7,643552423e-01    0,000000000e+00    0,000000000e+00    0,000000000e+00    0,000000000e+00
      282000000    3,921885975e-03    1,135862432e-02   -5,615127087e-01   -5,380266905e-01    0,000000000e+00    0,000000000e+00    0,000000000e+00    0,000000000e+00
      296000000    9,391026571e-03   -8,221843280e-03   -7,626357675e-01   -1,401845813e-01    0,000000000e+00    0,000000000e+00    0,000000000e+00    0,000000000e+00
      310000000    1,082279440e-02   -1,607678644e-02   -7,134755850e-01    3,025297225e-01    0,000000000e+00    0,000000000e+00    0,000000000e+00    0,000000000e+00
      324000000    2,001836151e-02   -2,636908181e-02   -4,265392423e-01    6,401703954e-01    0,000000000e+00    0,000000000e+00    0,000000000e+00    0,000000000e+00
      338000000    2,575134672e-02   -5,301111564e-02   -9,326990694e-03    7,639175653e-01    0,000000000e+00    0,000000000e+00    0,000000000e+00    0,000000000e+00
      352000000    7,283748593e-03   -8,529270440e-02    4,081288278e-01    6,398848295e-01    0,000000000e+00    0,000000000e+00    0,000000000e+00    0,000000000e+00
      366000000   -3,547443449e-02   -9,560110420e-02    6,938118339e-01    3,093888164e-01    0,000000000e+00    0,000000000e+00    0,000000000e+00    0,000000000e+00
      380000000   -7,108147442e-02   -7,044441998e-02    7,488815784e-01   -1,288098395e-01    0,000000000e+00    0,000000000e+00    0,000000000e+00    0,000000000e+00
      394000000   -7,209469378e-02   -3,209906444e-02    5,464843512e-01   -5,259316564e-01    0,000000000e+00    0,000000000e+00    0,000000000e+00    0,000000000e+00
      408000000   -4,585804418e-02   -1,732669398e-02    1,559266448e-01   -7,357470989e-01    0,000000000e+00    0,000000000e+00    0,000000000e+00    0,000000000e+00
      422000000   -2,960822918e-02   -3,307620436e-02   -2,745910883e-01   -6,951265335e-01    0,000000000e+00    0,000000000e+00    0,000000000e+00    0,000000000e+00
      436000000   -4,298989102e-02   -5,135205016e-02   -6,093526483e-01   -4,276656210e-01    0,000000000e+00    0,000000000e+00    0,000000000e+00    0,000000000e+00
      450000000   -6,864613295e-02   -4,119526595e-02   -7,398114204e-01   -1,508828625e-02    0,000000000e+00    0,000000000e+00    0,000000000e+00    0,000000000e+00
      464000000   -7,201314718e-02   -8,156735450e-03   -6,153405905e-01    4,019218087e-01    0,000000000e+00    0,000000000e+00    0,000000000e+00    0,000000000e+00
      478000000   -4,351584241e-02    1,391986478e-02   -2,772373557e-01    6,703645587e-01    0,000000000e+00    0,000000000e+00    0,000000000e+00    0,000000000e+00
      492000000   -9,934170172e-03    4,605368711e-03    1,442909837e-01    7,011877298e-01    0,000000000e+00    0,000000000e+00    0,000000000e+00    0,000000000e+00
      506000000    1,080853515e-03   -2,161701024e-02    5,049687028e-01    4,968947172e-01    0,000000000e+00    0,000000000e+00    0,000000000e+00    0,000000000e+00
      520000000   -5,284335930e-03   -3,852328658e-02    6,911831498e-01    1,293672323e-01    0,000000000e+00    0,000000000e+00    0,000000000e+00    0,000000000e+00
      534000000   -7,662577089e-03   -4,444162548e-02    6,386821270e-01   -2,765140831e-01    0,000000000e+00    0,000000000e+00    0,000000000e+00    0,000000000e+00
      548000000   -2,736031776e-03   -5,924460292e-02    3,670852184e-01   -5,772721171e-01    0,000000000e+00    0,000000000e+00    0,000000000e+00    0,000000000e+00
      562000000   -1,101425104e-02   -8,986275643e-02   -1,863582991e-02   -6,764196754e-01    0,000000000e+00    0,000000000e+00    0,000000000e+00    0,000000000e+00
      576000000   -4,898909107e-02   -1,117866039e-01   -3,951479197e-01   -5,453300476e-01    0,000000000e+00    0,000000000e+00    0,000000000e+00    0,000000000e+00
      590000000   -1,000139788e-01   -9,632994235e-02   -6,397457123e-01   -2,272046804e-01    0,000000000e+00    0,000000000e+00    0,000000000e+00    0,000000000e+00
      604000000   -1,186865866e-01   -4,335334525e-02   -6,540262699e-01    1,884422451e-01    0,000000000e+00    0,000000000e+00    0,000000000e+00    0,000000000e+00
      618000000   -8,387672156e-02   -3,451643279e-03   -4,143458903e-01    5,311766863e-01    0,000000000e+00    0,000000000e+00    0,000000000e+00    0,000000000e+00
      632000000   -3,803781047e-02   -1,828577928e-02   -2,580057643e-02    6,594952941e-01    0,000000000e+00    0,000000000e+00    0,000000000e+00    0,000000000e+00
      646000000   -4,182155430e-02   -7,152378559e-02    3,569650948e-01    5,402103066e-01    0,000000000e+00    0,000000000e+00    0,000000000e+00    0,000000000e+00
      660000000   -1,108354181e-01   -9,596951306e-02    5,996577740e-01    2,114524692e-01    0,000000000e+00    0,000000000e+00    0,000000000e+00    0,000000000e+00
      674000000   -1,936255991e-01   -2,879755571e-02    5,804895759e-01   -2,198675573e-01    0,000000000e+00    0,000000000e+00    0,000000000e+00    0,000000000e+00
      688000000   -1,826939285e-01    1,252052337e-01    2,464100718e-01   -5,244113803e-01    0,000000000e+00    0,000000000e+00    0,000000000e+00    0,000000000e+00
      702000000   -6,541712210e-03    2,358572632e-01   -1,853189468e-01   -4,523545206e-01    0,000000000e+00    0,000000000e+00    0,000000000e+00    0,000000000e+00
      716000000    2,344065160e-01    1,330370754e-01   -3,147077858e-01   -1,207931042e-01    0,000000000e+00    0,000000000e+00    0,000000000e+00    0,000000000e+00
      730000000    3,071099520e-01   -1,530204862e-01   -1,546072960e-01    5,474225432e-02    0,000000000e+00    0,000000000e+00    0,000000000e+00    0,000000000e+00
      744000000    1,206720248e-01   -4,179130197e-01   -4,368087277e-02   -1,756214723e-02    0,000000000e+00    0,000000000e+00    0,000000000e+00    0,000000000e+00
      758000000   -2,378113717e-01   -4,505348504e-01   -1,375198364e-01   -1,034750268e-01    0,000000000e+00    0,000000000e+00    0,000000000e+00    0,000000000e+00
      772000000   -4,988316894e-01   -1,534605771e-01   -3,022506237e-01    1,643301547e-02    0,000000000e+00    0,000000000e+00    0,000000000e+00    0,000000000e+00
      786000000   -3,791118264e-01    2,144824415e-01   -2,645999789e-01    2,837459743e-01    0,000000000e+00    0,000000000e+00    0,000000000e+00    0,000000000e+00
      800000000   -6,383420527e-02    2,964936197e-01   -1,717956178e-02    4,223974943e-01    0,000000000e+00    0,000000000e+00    0,000000000e+00    0,000000000e+00
      814000000    1,413528919e-01    1,459136009e-01    2,465901077e-01    3,595685363e-01    0,000000000e+00    0,000000000e+00    0,000000000e+00    0,000000000e+00
      828000000    1,751918495e-01   -6,105575711e-02    4,212674201e-01    1,652152240e-01    0,000000000e+00    0,000000000e+00    0,000000000e+00    0,000000000e+00
      842000000    7,468479127e-02   -2,201376557e-01    4,608596563e-01   -1,083242372e-01    0,000000000e+00    0,000000000e+00    0,000000000e+00    0,000000000e+00
      856000000   -1,063589677e-01   -2,729711533e-01    3,205464184e-01   -3,815000951e-01    0,000000000e+00    0,000000000e+00    0,000000000e+00    0,000000000e+00
      870000000   -2,846634686e-01   -1,779701561e-01    7,472932339e-03   -5,177751780e-01    0,000000000e+00    0,000000000e+00    0,000000000e+00    0,000000000e+00
      884000000   -3,376313150e-01    3,066325374e-02   -3,354819119e-01   -3,926595747e-01    0,000000000e+00    0,000000000e+00    0,000000000e+00    0,000000000e+00
      898000000   -2,127459943e-01    2,117713839e-01   -4,823242724e-01   -7,164070755e-02    0,000000000e+00    0,000000000e+00    0,000000000e+00    0,000000000e+00
      912000000   -6,166054867e-03    2,332895249e-01   -4,007099569e-01    2,674328387e-01    0,000000000e+00    0,000000000e+00    0,000000000e+00    0,000000000e+00
      926000000    1,468143463e-01    1,276930571e-01   -1,774092168e-01    4,077717364e-01    0,000000000e+00    0,000000000e+00    0,000000000e+00    0,000000000e+00
      940000000    2,031679600e-01   -3,454772756e-02    5,478034914e-02    4,218408465e-01    0,000000000e+00    0,000000000e+00    0,000000000e+00    0,000000000e+00
      954000000    1,559350491e-01   -1,996421069e-01    2,531152964e-01    3,417506218e-01    0,000000000e+00    0,000000000e+00    0,000000000e+00    0,000000000e+00
      968000000    2,735553123e-02   -3,146947920e-01    4,041046500e-01    1,808313280e-01    0,000000000e+00    0,000000000e+00    0,000000000e+00    0,000000000e+00
      982000000   -1,635953039e-01   -3,358120620e-01    4,686495662e-01   -6,357261539e-02    0,000000000e+00    0,000000000e+00    0,000000000e+00    0,000000000e+00
      996000000   -3,244532049e-01   -2,090744376e-01    3,602691293e-01   -3,564702272e-01    0,000000000e+00    0,000000000e+00    0,000000000e+00    0,000000000e+00
     1010000000   -3,344750702e-01   -1,761280932e-02    2,438382618e-02   -5,197271109e-01    0,000000000e+00    0,000000000e+00    0,000000000e+00    0,000000000e+00
     1024000000   -2,050609440e-01    5,198922008e-02   -3,760974109e-01   -3,390290737e-01    0,000000000e+00    0,000000000e+00    0,000000000e+00    0,000000000e+00
     1038000000   -2,255737782e-01   -3,175472468e-02   -4,133202732e-01    1,538533419e-01    0,000000000e+00    0,000000000e+00    0,000000000e+00    0,000000000e+00
     1052000000   -3,401655555e-01    1,734389812e-01    9,661082877e-04    2,563185096e-01    0,000000000e+00    0,000000000e+00    0,000000000e+00    0,000000000e+00
     1066000000   -9,790126234e-02    3,337531388e-01    7,007728517e-02    6,787534803e-02    0,000000000e+00    0,000000000e+00    0,000000000e+00    0,000000000e+00
     1080000000    1,279686391e-01    2,452343851e-01    3,478740528e-02    3,407407179e-02    0,000000000e+00    0,000000000e+00    0,000000000e+00    0,000000000e+00
     1094000000    2,337312549e-01    7,992772758e-02    4,249450192e-02    4,214265570e-02    0,000000000e+00    0,000000000e+00    0,000000000e+00    0,000000000e+00
     1108000000    2,482153028e-01   -9,587743133e-02    7,437206060e-02    3,197292611e-02    0,000000000e+00    0,000000000e+00    0,000000000e+00    0,000000000e+00
     1122000000    1,796308905e-01   -2,635312676e-01    1,102188081e-01    2,838733606e-03    0,000000000e+00    0,000000000e+00    0,000000000e+00    0,000000000e+00
     1136000000    3,932540864e-02   -3,857833147e-01    1,472350955e-01   -5,025628954e-02    0,000000000e+00    0,000000000e+00    0,000000000e+00    0,000000000e+00
     1150000000   -1,766511947e-01   -4,253195226e-01    1,659865081e-01   -1,444416195e-01    0,000000000e+00    0,000000000e+00    0,000000000e+00    0,000000000e+00
     1164000000   -3,929254115e-01   -3,067241609e-01    1,151152477e-01   -2,877290547e-01    0,000000000e+00    0,000000000e+00    0,000000000e+00    0,000000000e+00
     1178000000   -4,657031000e-01   -6,841356307e-02   -1,042548195e-01   -4,146145582e-01    0,000000000e+00    0,000000000e+00    0,000000000e+00    0,000000000e+00
     1192000000   -3,681729734e-01    4,379292578e-02   -4,662234485e-01   -1,974374205e-01    0,000000000e+00    0,000000000e+00    0,000000000e+00    0,000000000e+00
     1206000000   -4,150103331e-01    1,200663149e-01   -2,781116068e-01    2,402758747e-01    0,000000000e+00    0,000000000e+00    0,000000000e+00    0,000000000e+00
     1220000000   -2,971222401e-01    3,236707747e-01    1,220950484e-02    1,738543510e-01    0,000000000e+00    0,000000000e+00    0,000000000e+00    0,000000000e+00
     1234000000   -7,033881545e-02    3,675338030e-01    3,770976141e-02    5,238951743e-02    0,000000000e+00    0,000000000e+00    0,000000000e+00    0,000000000e+00
     1248000000    1,054570079e-01    2,734840810e-01    7,785149850e-03    1,647173055e-02    0,000000000e+00    0,000000000e+00    0,000000000e+00    0,000000000e+00
     1262000000    2,072625309e-01    1,232348382e-01    1,292700646e-03    2,230017073e-02    0,000000000e+00    0,000000000e+00    0,000000000e+00    0,000000000e+00
     1276000000    2,391247004e-01   -4,361954331e-02    1,671310700e-02    3,078204207e-02    0,000000000e+00    0,000000000e+00    0,000000000e+00    0,000000000e+00
     1290000000    2,011721730e-01   -2,099424303e-01    4,431565851e-02    2,410315350e-02    0,000000000e+00    0,000000000e+00    0,000000000e+00    0,000000000e+00
     1304000000    9,046158195e-02   -3,557551205e-01    6,888333708e-02    1,068278216e-02    0,000000000e+00    0,000000000e+00    0,000000000e+00    0,000000000e+00
     1318000000   -1,023139954e-01   -4,462884068e-01    8,165912330e-02    2,670280868e-03    0,000000000e+00    0,000000000e+00    0,000000000e+00    0,000000000e+00
     1332000000   -3,585809469e-01   -4,320081770e-01    8,951982856e-02   -8,795053698e-03    0,000000000e+00    0,000000000e+00    0,000000000e+00    0,000000000e+00
     1346000000   -5,962353349e-01   -2,431300581e-01    1,036686972e-01   -1,139791030e-02    0,000000000e+00    0,000000000e+00    0,000000000e+00    0,000000000e+00
     1360000000   -6,446786523e-01    7,361231744e-02    1,418680996e-01   -1,922924072e-02    0,000000000e+00    0,000000000e+00    0,000000000e+00    0,000000000e+00
     1374000000   -4,945711195e-01    3,287374377e-01    1,568410546e-01   -5,467926338e-02    0,000000000e+00    0,000000000e+00    0,000000000e+00    0,000000000e+00
     1388000000   -2,672302425e-01    4,234990180e-01    1,526942849e-01   -9,295324981e-02    0,000000000e+00    0,000000000e+00    0,000000000e+00    0,000000000e+00
     1402000000   -6,126175076e-02    3,971297741e-01    1,213363484e-01   -1,091531739e-01    0,000000000e+00    0,000000000e+00    0,000000000e+00    0,000000000e+00
     1416000000    8,975014836e-02    3,116962314e-01    1,082641035e-01   -8,698573709e-02    0,000000000e+00    0,000000000e+00    0,000000000e+00    0,000000000e+00
     1430000000    1,909332573e-01    1,714360565e-01    8,953073621e-02   -7,560976595e-02    0,000000000e+00    0,000000000e+00    0,000000000e+00    0,000000000e+00
     1444000000    2,214858830e-01    9,588926099e-03    1,019689441e-01   -3,366697952e-02    0,000000000e+00    0,000000000e+00    0,000000000e+00    0,000000000e+00
     1458000000    1,928805411e-01   -1,666334271e-01    1,311235428e-01    1,210214291e-02    0,000000000e+00    0,000000000e+00    0,000000000e+00    0,000000000e+00
     1472000000    7,255607843e-02   -3,392598629e-01    1,692513824e-01    6,075317040e-02    0,000000000e+00    0,000000000e+00    0,000000000e+00    0,000000000e+00
     1486000000   -1,302578747e-01   -4,548183382e-01    2,769528031e-01    9,356899559e-02    0,000000000e+00    0,000000000e+00    0,000000000e+00    0,000000000e+00
     1500000000   -4,476152360e-01   -4,624412954e-01    3,941095471e-01    2,209734730e-02    0,000000000e+00    0,000000000e+00    0,000000000e+00    0,000000000e+00
