! NanoVNA-App
! Date: 2025-09-26 09:39:17
! Start: 100MHz Stop: 1,5GHz Points: 101
! S-Parameter data: F S11 S21 S12 S22
# Hz S RI R 50
!     Frequency           S11_Real           S11_Imag           S21_Real           S21_Imag           S12_Real           S12_Imag           S22_Real           S22_Imag
      100000000   -2,877129801e-02   -4,419296049e-03    3,735643327e-01   -7,233351469e-01    0,000000000e+00    0,000000000e+00    0,000000000e+00    0,000000000e+00
      114000000   -1,664354280e-02    1,120960526e-02   -9,043119848e-02   -8,064308763e-01    0,000000000e+00    0,000000000e+00    0,000000000e+00    0,000000000e+00
      128000000    3,062824253e-03    1,044203155e-02   -5,162391663e-01   -6,209466457e-01    0,000000000e+00    0,000000000e+00    0,000000000e+00    0,000000000e+00
      142000000    1,413780358e-02   -2,981527243e-03   -7,687194943e-01   -2,356681079e-01    0,000000000e+00    0,000000000e+00    0,000000000e+00    0,000000000e+00
      156000000    1,641752012e-02   -1,500886679e-02   -7,699060440e-01    2,267270088e-01    0,000000000e+00    0,000000000e+00    0,000000000e+00    0,000000000e+00
      170000000    1,679116674e-02   -2,234029397e-02   -5,173875093e-01    6,066557169e-01    0,000000000e+00    0,000000000e+00    0,000000000e+00    0,000000000e+00
      184000000    2,095481008e-02   -3,732188419e-02   -9,967610985e-02    7,875680327e-01    0,000000000e+00    0,000000000e+00    0,000000000e+00    0,000000000e+00
      198000000    1,269304939e-02   -6,252615899e-02    3,456422985e-01    7,134383321e-01    0,000000000e+00    0,000000000e+00    0,000000000e+00    0,000000000e+00
      212000000   -1,917674392e-02   -8,096513897e-02    6,814454794e-01    4,089290202e-01    0,000000000e+00    0,000000000e+00    0,000000000e+00    0,000000000e+00
      226000000   -6,170572713e-02   -6,857398152e-02    7,979654670e-01   -3,293588012e-02    0,000000000e+00    0,000000000e+00    0,000000000e+00    0,000000000e+00
      240000000   -8,214360476e-02   -2,533525787e-02    6,459383965e-01   -4,706423283e-01    0,000000000e+00    0,000000000e+00    0,000000000e+00    0,000000000e+00
      254000000   -6,293468177e-02    1,729748584e-02    2,757379413e-01   -7,426996231e-01    0,000000000e+00    0,000000000e+00    0,000000000e+00    0,000000000e+00
      268000000   -2,322975546e-02    2,849996276e-02   -1,766518205e-01   -7,641310692e-01    0,000000000e+00    0,000000000e+00    0,000000000e+00    0,000000000e+00
      282000000    3,981265705e-03    1,117104478e-02   -5,616448522e-01   -5,385385156e-01    0,000000000e+00    0,000000000e+00    0,000000000e+00    0,000000000e+00
      296000000    9,350331500e-03   -8,132833056e-03   -7,628805041e-01   -1,402217746e-01    0,000000000e+00    0,000000000e+00    0,000000000e+00    0,000000000e+00
      310000000    1,080823131e-02   -1,615372673e-02   -7,126799822e-01    3,023422658e-01    0,000000000e+00    0,000000000e+00    0,000000000e+00    0,000000000e+00
      324000000    2,005686425e-02   -2,651504055e-02   -4,260938764e-01    6,405429244e-01    0,000000000e+00    0,000000000e+00    0,000000000e+00    0,000000000e+00
      338000000    2,568860911e-02   -5,298559368e-02   -8,877728134e-03    7,646946311e-01    0,000000000e+00    0,000000000e+00    0,000000000e+00    0,000000000e+00
      352000000    6,998247933e-03   -8,548006415e-02    4,084404409e-01    6,396913528e-01    0,000000000e+00    0,000000000e+00    0,000000000e+00    0,000000000e+00
      366000000   -3,549426794e-02   -9,581203759e-02    6,933485866e-01    3,094224632e-01    0,000000000e+00    0,000000000e+00    0,000000000e+00    0,000000000e+00
      380000000   -7,116329670e-02   -7,067474723e-02    7,487959862e-01   -1,294895858e-01    0,000000000e+00    0,000000000e+00    0,000000000e+00    0,000000000e+00
      394000000   -7,140286267e-02   -3,211042285e-02    5,461856723e-01   -5,251880884e-01    0,000000000e+00    0,000000000e+00    0,000000000e+00    0,000000000e+00
      408000000   -4,614418373e-02   -1,739171334e-02    1,568415910e-01   -7,359181643e-01    0,000000000e+00    0,000000000e+00    0,000000000e+00    0,000000000e+00
      422000000   -2,970948629e-02   -3,309606016e-02   -2,746793926e-01   -6,952447295e-01    0,000000000e+00    0,000000000e+00    0,000000000e+00    0,000000000e+00
      436000000   -4,316148907e-02   -5,114289373e-02   -6,097017527e-01   -4,278797805e-01    0,000000000e+00    0,000000000e+00    0,000000000e+00    0,000000000e+00
      450000000   -6,894738227e-02   -4,119628668e-02   -7,398735881e-01   -1,513702422e-02    0,000000000e+00    0,000000000e+00    0,000000000e+00    0,000000000e+00
      464000000   -7,214049250e-02   -8,204596117e-03   -6,149770021e-01    4,011794031e-01    0,000000000e+00    0,000000000e+00    0,000000000e+00    0,000000000e+00
      478000000   -4,307122901e-02    1,404525153e-02   -2,767066956e-01    6,705442071e-01    0,000000000e+00    0,000000000e+00    0,000000000e+00    0,000000000e+00
      492000000   -1,041235123e-02    4,546986893e-03    1,450806707e-01    7,005726099e-01    0,000000000e+00    0,000000000e+00    0,000000000e+00    0,000000000e+00
      506000000    1,357272384e-03   -2,158630267e-02    5,057824254e-01    4,959107637e-01    0,000000000e+00    0,000000000e+00    0,000000000e+00    0,000000000e+00
      520000000   -5,304672755e-03   -3,889380768e-02    6,915573478e-01    1,301099658e-01    0,000000000e+00    0,000000000e+00    0,000000000e+00    0,000000000e+00
      534000000   -7,533766329e-03   -4,498104379e-02    6,393543482e-01   -2,768994570e-01    0,000000000e+00    0,000000000e+00    0,000000000e+00    0,000000000e+00
      548000000   -2,316510538e-03   -5,972566828e-02    3,679386079e-01   -5,777471066e-01    0,000000000e+00    0,000000000e+00    0,000000000e+00    0,000000000e+00
      562000000   -1,162504684e-02   -8,968115598e-02   -1,869657449e-02   -6,756557822e-01    0,000000000e+00    0,000000000e+00    0,000000000e+00    0,000000000e+00
      576000000   -4,927401245e-02   -1,116519421e-01   -3,951365054e-01   -5,455875993e-01    0,000000000e+00    0,000000000e+00    0,000000000e+00    0,000000000e+00
      590000000   -9,977056831e-02   -9,582814574e-02   -6,415233016e-01   -2,294836044e-01    0,000000000e+00    0,000000000e+00    0,000000000e+00    0,000000000e+00
      604000000   -1,179810464e-01   -4,356162623e-02   -6,540912390e-01    1,878982633e-01    0,000000000e+00    0,000000000e+00    0,000000000e+00    0,000000000e+00
      618000000   -8,420064300e-02   -2,968131565e-03   -4,146826863e-01    5,317756534e-01    0,000000000e+00    0,000000000e+00    0,000000000e+00    0,000000000e+00
      632000000   -3,799637035e-02   -1,936936751e-02   -2,556420676e-02    6,588371396e-01    0,000000000e+00    0,000000000e+00    0,000000000e+00    0,000000000e+00
      646000000   -4,134547710e-02   -7,199604809e-02    3,561651409e-01    5,393430591e-01    0,000000000e+00    0,000000000e+00    0,000000000e+00    0,000000000e+00
      660000000   -1,111229956e-01   -9,523619711e-02    6,000950933e-01    2,113048434e-01    0,000000000e+00    0,000000000e+00    0,000000000e+00    0,000000000e+00
      674000000   -1,938953400e-01   -2,708007209e-02    5,806747675e-01   -2,202948779e-01    0,000000000e+00    0,000000000e+00    0,000000000e+00    0,000000000e+00
      688000000   -1,826490611e-01    1,250612736e-01    2,463585436e-01   -5,236143470e-01    0,000000000e+00    0,000000000e+00    0,000000000e+00    0,000000000e+00
      702000000   -5,239012185e-03    2,332667708e-01   -1,728828400e-01   -4,505290389e-01    0,000000000e+00    0,000000000e+00    0,000000000e+00    0,000000000e+00
      716000000    2,340095788e-01    1,339312643e-01   -3,140720427e-01   -1,208078936e-01    0,000000000e+00    0,000000000e+00    0,000000000e+00    0,000000000e+00
      730000000    3,073544502e-01   -1,529621780e-01   -1,541196555e-01    5,443276465e-02    0,000000000e+00    0,000000000e+00    0,000000000e+00    0,000000000e+00
      744000000    1,203863993e-01   -4,177453518e-01   -4,319041967e-02   -1,794201881e-02    0,000000000e+00    0,000000000e+00    0,000000000e+00    0,000000000e+00
      758000000   -2,393088937e-01   -4,518926442e-01   -1,377430409e-01   -1,038560718e-01    0,000000000e+00    0,000000000e+00    0,000000000e+00    0,000000000e+00
      772000000   -4,988301992e-01   -1,520715952e-01   -3,024913967e-01    1,609730534e-02    0,000000000e+00    0,000000000e+00    0,000000000e+00    0,000000000e+00
      786000000   -3,774936497e-01    2,141880691e-01   -2,650462985e-01    2,836562991e-01    0,000000000e+00    0,000000000e+00    0,000000000e+00    0,000000000e+00
      800000000   -6,346010417e-02    2,957398295e-01   -1,695176400e-02    4,220871031e-01    0,000000000e+00    0,000000000e+00    0,000000000e+00    0,000000000e+00
      814000000    1,415257156e-01    1,454923451e-01    2,458915114e-01    3,608519733e-01    0,000000000e+00    0,000000000e+00    0,000000000e+00    0,000000000e+00
      828000000    1,748790145e-01   -6,018186361e-02    4,217803478e-01    1,650458574e-01    0,000000000e+00    0,000000000e+00    0,000000000e+00    0,000000000e+00
      842000000    7,392109931e-02   -2,198871821e-01    4,606308639e-01   -1,089686379e-01    0,000000000e+00    0,000000000e+00    0,000000000e+00    0,000000000e+00
      856000000   -1,053923592e-01   -2,728644609e-01    3,203838766e-01   -3,808967471e-01    0,000000000e+00    0,000000000e+00    0,000000000e+00    0,000000000e+00
      870000000   -2,837662399e-01   -1,785735041e-01    7,254834753e-03   -5,167079568e-01    0,000000000e+00    0,000000000e+00    0,000000000e+00    0,000000000e+00
      884000000   -3,380082250e-01    3,093772568e-02   -3,349280953e-01   -3,931490481e-01    0,000000000e+00    0,000000000e+00    0,000000000e+00    0,000000000e+00
      898000000   -2,125321627e-01    2,120756805e-01   -4,819240570e-01   -7,140584290e-02    0,000000000e+00    0,000000000e+00    0,000000000e+00    0,000000000e+00
      912000000   -5,468288902e-03    2,347687632e-01   -3,941501081e-01    2,598308027e-01    0,000000000e+00    0,000000000e+00    0,000000000e+00    0,000000000e+00
      926000000    1,481436491e-01    1,281972975e-01   -1,747691333e-01    4,099688828e-01    0,000000000e+00    0,000000000e+00    0,000000000e+00    0,000000000e+00
      940000000    2,040633857e-01   -3,497496620e-02    5,490058661e-02    4,210167825e-01    0,000000000e+00    0,000000000e+00    0,000000000e+00    0,000000000e+00
      954000000    1,573241502e-01   -2,012810558e-01    2,549274266e-01    3,409006298e-01    0,000000000e+00    0,000000000e+00    0,000000000e+00    0,000000000e+00
      968000000    2,560018003e-02   -3,195314109e-01    4,037016928e-01    1,810077578e-01    0,000000000e+00    0,000000000e+00    0,000000000e+00    0,000000000e+00
      982000000   -1,638794243e-01   -3,345230818e-01    4,671285748e-01   -6,401387602e-02    0,000000000e+00    0,000000000e+00    0,000000000e+00    0,000000000e+00
      996000000   -3,243158758e-01   -2,125898898e-01    3,598772585e-01   -3,552429378e-01    0,000000000e+00    0,000000000e+00    0,000000000e+00    0,000000000e+00
     1010000000   -3,380255401e-01   -1,528583746e-02    2,199363150e-02   -5,206344724e-01    0,000000000e+00    0,000000000e+00    0,000000000e+00    0,000000000e+00
     1024000000   -2,029273659e-01    5,365396664e-02   -3,762067854e-01   -3,391712606e-01    0,000000000e+00    0,000000000e+00    0,000000000e+00    0,000000000e+00
     1038000000   -2,270901203e-01   -3,303537145e-02   -4,103442132e-01    1,554299146e-01    0,000000000e+00    0,000000000e+00    0,000000000e+00    0,000000000e+00
     1052000000   -3,418246508e-01    1,677420139e-01    3,173624864e-03    2,571231425e-01    0,000000000e+00    0,000000000e+00    0,000000000e+00    0,000000000e+00
     1066000000   -9,413874149e-02    3,362033665e-01    6,882656366e-02    6,827782840e-02    0,000000000e+00    0,000000000e+00    0,000000000e+00    0,000000000e+00
     1080000000    1,253330112e-01    2,439631671e-01    3,704796731e-02    3,586294875e-02    0,000000000e+00    0,000000000e+00    0,000000000e+00    0,000000000e+00
     1094000000    2,301744968e-01    8,366478980e-02    4,215138406e-02    3,926127031e-02    0,000000000e+00    0,000000000e+00    0,000000000e+00    0,000000000e+00
     1108000000    2,460044771e-01   -9,849665314e-02    7,399182767e-02    3,198002279e-02    0,000000000e+00    0,000000000e+00    0,000000000e+00    0,000000000e+00
     1122000000    1,793230176e-01   -2,606537938e-01    1,111871749e-01    4,530819133e-03    0,000000000e+00    0,000000000e+00    0,000000000e+00    0,000000000e+00
     1136000000    3,818201274e-02   -3,885468841e-01    1,497536451e-01   -5,278944597e-02    0,000000000e+00    0,000000000e+00    0,000000000e+00    0,000000000e+00
     1150000000   -1,722685993e-01   -4,259855449e-01    1,656962633e-01   -1,453444660e-01    0,000000000e+00    0,000000000e+00    0,000000000e+00    0,000000000e+00
     1164000000   -3,968783915e-01   -3,093829155e-01    1,175079569e-01   -2,864315808e-01    0,000000000e+00    0,000000000e+00    0,000000000e+00    0,000000000e+00
     1178000000   -4,678651392e-01   -7,017350197e-02   -1,047766507e-01   -4,151527286e-01    0,000000000e+00    0,000000000e+00    0,000000000e+00    0,000000000e+00
     1192000000   -3,637870252e-01    4,174095392e-02   -4,620951414e-01   -2,029611319e-01    0,000000000e+00    0,000000000e+00    0,000000000e+00    0,000000000e+00
     1206000000   -4,197777808e-01    1,193018332e-01   -2,804219127e-01    2,396514565e-01    0,000000000e+00    0,000000000e+00    0,000000000e+00    0,000000000e+00
     1220000000   -3,028357923e-01    3,263253272e-01    1,087183971e-02    1,703976542e-01    0,000000000e+00    0,000000000e+00    0,000000000e+00    0,000000000e+00
     1234000000   -6,475214660e-02    3,655774891e-01    3,984585777e-02    5,228202417e-02    0,000000000e+00    0,000000000e+00    0,000000000e+00    0,000000000e+00
     1248000000    1,088855118e-01    2,682204247e-01    7,507422939e-03    1,295381878e-02    0,000000000e+00    0,000000000e+00    0,000000000e+00    0,000000000e+00
     1262000000    2,104776502e-01    1,283921897e-01    1,674840576e-03    2,449596673e-02    0,000000000e+00    0,000000000e+00    0,000000000e+00    0,000000000e+00
     1276000000    2,434364855e-01   -4,280052707e-02    2,160508186e-02    2,705857158e-02    0,000000000e+00    0,000000000e+00    0,000000000e+00    0,000000000e+00
     1290000000    1,996377259e-01   -2,074141651e-01    4,931611195e-02    2,757751383e-02    0,000000000e+00    0,000000000e+00    0,000000000e+00    0,000000000e+00
     1304000000    8,952774107e-02   -3,525937796e-01    6,985709816e-02    1,297841128e-02    0,000000000e+00    0,000000000e+00    0,000000000e+00    0,000000000e+00
     1318000000   -1,037110463e-01   -4,458062053e-01    8,320865780e-02   -3,729960416e-03    0,000000000e+00    0,000000000e+00    0,000000000e+00    0,000000000e+00
     1332000000   -3,615586758e-01   -4,311828613e-01    8,793220669e-02   -8,626006544e-03    0,000000000e+00    0,000000000e+00    0,000000000e+00    0,000000000e+00
     1346000000   -5,873621702e-01   -2,432770580e-01    1,003706008e-01   -1,163489744e-02    0,000000000e+00    0,000000000e+00    0,000000000e+00    0,000000000e+00
     1360000000   -6,470068097e-01    7,481344044e-02    1,416747123e-01   -1,735075749e-02    0,000000000e+00    0,000000000e+00    0,000000000e+00    0,000000000e+00
     1374000000   -4,928413928e-01    3,251635134e-01    1,623855233e-01   -5,760933831e-02    0,000000000e+00    0,000000000e+00    0,000000000e+00    0,000000000e+00
     1388000000   -2,639211118e-01    4,288654625e-01    1,583716273e-01   -8,661873639e-02    0,000000000e+00    0,000000000e+00    0,000000000e+00    0,000000000e+00
     1402000000   -5,761216953e-02    4,015235007e-01    1,262475401e-01   -9,894974530e-02    0,000000000e+00    0,000000000e+00    0,000000000e+00    0,000000000e+00
     1416000000    9,096780419e-02    3,067978919e-01    1,120888740e-01   -9,795279056e-02    0,000000000e+00    0,000000000e+00    0,000000000e+00    0,000000000e+00
     1430000000    1,812435240e-01    1,640181839e-01    8,464897424e-02   -5,849971250e-02    0,000000000e+00    0,000000000e+00    0,000000000e+00    0,000000000e+00
     1444000000    2,211054564e-01    9,287605993e-03    9,735369682e-02   -3,402824700e-02    0,000000000e+00    0,000000000e+00    0,000000000e+00    0,000000000e+00
     1458000000    1,885417551e-01   -1,654985994e-01    1,201089770e-01    1,693479717e-02    0,000000000e+00    0,000000000e+00    0,000000000e+00    0,000000000e+00
     1472000000    7,607337832e-02   -3,361520469e-01    1,729041189e-01    7,325586677e-02    0,000000000e+00    0,000000000e+00    0,000000000e+00    0,000000000e+00
     1486000000   -1,454156190e-01   -4,544431567e-01    2,775084972e-01    9,166716039e-02    0,000000000e+00    0,000000000e+00    0,000000000e+00    0,000000000e+00
     1500000000   -4,421698451e-01   -4,443905354e-01    3,762939870e-01    4,718704149e-02    0,000000000e+00    0,000000000e+00    0,000000000e+00    0,000000000e+00
