! NanoVNA-App
! Date: 2025-09-26 09:39:27
! Start: 100MHz Stop: 1,5GHz Points: 101
! S-Parameter data: F S11 S21 S12 S22
# Hz S RI R 50
!     Frequency           S11_Real           S11_Imag           S21_Real           S21_Imag           S12_Real           S12_Imag           S22_Real           S22_Imag
      100000000   -2,878514305e-02   -4,414151888e-03    3,735638559e-01   -7,233231664e-01    0,000000000e+00    0,000000000e+00    0,000000000e+00    0,000000000e+00
      114000000   -1,669195481e-02    1,118310541e-02   -9,053897113e-02   -8,064437509e-01    0,000000000e+00    0,000000000e+00    0,000000000e+00    0,000000000e+00
      128000000    3,062116913e-03    1,046708971e-02   -5,162162185e-01   -6,207169890e-01    0,000000000e+00    0,000000000e+00    0,000000000e+00    0,000000000e+00
      142000000    1,413596328e-02   -2,989069792e-03   -7,689451575e-01   -2,358372211e-01    0,000000000e+00    0,000000000e+00    0,000000000e+00    0,000000000e+00
      156000000    1,653785072e-02   -1,497212704e-02   -7,700913548e-01    2,266840339e-01    0,000000000e+00    0,000000000e+00    0,000000000e+00    0,000000000e+00
      170000000    1,671474427e-02   -2,234572358e-02   -5,174566507e-01    6,067863107e-01    0,000000000e+00    0,000000000e+00    0,000000000e+00    0,000000000e+00
      184000000    2,095348574e-02   -3,733123466e-02   -9,973761439e-02    7,874303460e-01    0,000000000e+00    0,000000000e+00    0,000000000e+00    0,000000000e+00
      198000000    1,264938153e-02   -6,252499670e-02    3,453783989e-01    7,129575610e-01    0,000000000e+00    0,000000000e+00    0,000000000e+00    0,000000000e+00
      212000000   -1,913140528e-02   -8,094789088e-02    6,813805699e-01    4,088687003e-01    0,000000000e+00    0,000000000e+00    0,000000000e+00    0,000000000e+00
      226000000   -6,167684868e-02   -6,855270267e-02    7,977898717e-01   -3,285930678e-02    0,000000000e+00    0,000000000e+00    0,000000000e+00    0,000000000e+00
      240000000   -8,207665384e-02   -2,539679036e-02    6,458706260e-01   -4,705593288e-01    0,000000000e+00    0,000000000e+00    0,000000000e+00    0,000000000e+00
      254000000   -6,293024123e-02    1,723199897e-02    2,758599520e-01   -7,433865666e-01    0,000000000e+00    0,000000000e+00    0,000000000e+00    0,000000000e+00
      268000000   -2,329466119e-02    2,845671214e-02   -1,767882407e-01   -7,642684579e-01    0,000000000e+00    0,000000000e+00    0,000000000e+00    0,000000000e+00
      282000000    3,991842270e-03    1,132288948e-02   -5,621461868e-01   -5,386022925e-01    0,000000000e+00    0,000000000e+00    0,000000000e+00    0,000000000e+00
      296000000    9,387263097e-03   -8,076196536e-03   -7,625184059e-01   -1,403201073e-01    0,000000000e+00    0,000000000e+00    0,000000000e+00    0,000000000e+00
      310000000    1,087405160e-02   -1,630263031e-02   -7,134527564e-01    3,014088273e-01    0,000000000e+00    0,000000000e+00    0,000000000e+00    0,000000000e+00
      324000000    2,012242004e-02   -2,629911527e-02   -4,264757931e-01    6,396510005e-01    0,000000000e+00    0,000000000e+00    0,000000000e+00    0,000000000e+00
      338000000    2,553018928e-02   -5,263084546e-02   -7,993395440e-03    7,622532845e-01    0,000000000e+00    0,000000000e+00    0,000000000e+00    0,000000000e+00
      352000000    6,969191600e-03   -8,515028656e-02    4,096396863e-01    6,387356520e-01    0,000000000e+00    0,000000000e+00    0,000000000e+00    0,000000000e+00
      366000000   -3,511478379e-02   -9,592874348e-02    6,935395598e-01    3,095712066e-01    0,000000000e+00    0,000000000e+00    0,000000000e+00    0,000000000e+00
      380000000   -7,095393538e-02   -7,052043080e-02    7,496273518e-01   -1,298664361e-01    0,000000000e+00    0,000000000e+00    0,000000000e+00    0,000000000e+00
      394000000   -7,178258896e-02   -3,235545382e-02    5,450094938e-01   -5,259115696e-01    0,000000000e+00    0,000000000e+00    0,000000000e+00    0,000000000e+00
      408000000   -4,602712020e-02   -1,724412665e-02    1,570390314e-01   -7,354912758e-01    0,000000000e+00    0,000000000e+00    0,000000000e+00    0,000000000e+00
      422000000   -2,954798006e-02   -3,334522992e-02   -2,741227746e-01   -6,954445243e-01    0,000000000e+00    0,000000000e+00    0,000000000e+00    0,000000000e+00
      436000000   -4,306362942e-02   -5,103821307e-02   -6,097732186e-01   -4,274316132e-01    0,000000000e+00    0,000000000e+00    0,000000000e+00    0,000000000e+00
      450000000   -6,891628355e-02   -4,110467806e-02   -7,398229837e-01   -1,516180206e-02    0,000000000e+00    0,000000000e+00    0,000000000e+00    0,000000000e+00
      464000000   -7,222791761e-02   -8,374946192e-03   -6,152318120e-01    4,017359316e-01    0,000000000e+00    0,000000000e+00    0,000000000e+00    0,000000000e+00
      478000000   -4,298756644e-02    1,410258003e-02   -2,768563330e-01    6,710124016e-01    0,000000000e+00    0,000000000e+00    0,000000000e+00    0,000000000e+00
      492000000   -1,042165048e-02    4,503294826e-03    1,455821693e-01    7,009705305e-01    0,000000000e+00    0,000000000e+00    0,000000000e+00    0,000000000e+00
      506000000    1,463780529e-03   -2,151670679e-02    5,063475370e-01    4,965142906e-01    0,000000000e+00    0,000000000e+00    0,000000000e+00    0,000000000e+00
      520000000   -5,363249220e-03   -3,886773065e-02    6,914821863e-01    1,282906979e-01    0,000000000e+00    0,000000000e+00    0,000000000e+00    0,000000000e+00
      534000000   -7,576866075e-03   -4,508250579e-02    6,388057470e-01   -2,769038379e-01    0,000000000e+00    0,000000000e+00    0,000000000e+00    0,000000000e+00
      548000000   -2,382612089e-03   -5,970161036e-02    3,684108555e-01   -5,778924823e-01    0,000000000e+00    0,000000000e+00    0,000000000e+00    0,000000000e+00
      562000000   -1,145176776e-02   -8,952043951e-02   -1,918149181e-02   -6,760627031e-01    0,000000000e+00    0,000000000e+00    0,000000000e+00    0,000000000e+00
      576000000   -4,905798286e-02   -1,116008013e-01   -3,954065442e-01   -5,466321707e-01    0,000000000e+00    0,000000000e+00    0,000000000e+00    0,000000000e+00
      590000000   -9,963905066e-02   -9,614200890e-02   -6,411603689e-01   -2,282113284e-01    0,000000000e+00    0,000000000e+00    0,000000000e+00    0,000000000e+00
      604000000   -1,181151122e-01   -4,370848835e-02   -6,539003253e-01    1,886042804e-01    0,000000000e+00    0,000000000e+00    0,000000000e+00    0,000000000e+00
      618000000   -8,421831578e-02   -3,199274885e-03   -4,133179784e-01    5,317594409e-01    0,000000000e+00    0,000000000e+00    0,000000000e+00    0,000000000e+00
      632000000   -3,815880790e-02   -1,945848204e-02   -2,530669607e-02    6,580976248e-01    0,000000000e+00    0,000000000e+00    0,000000000e+00    0,000000000e+00
      646000000   -4,224550352e-02   -7,229812443e-02    3,563866615e-01    5,396394730e-01    0,000000000e+00    0,000000000e+00    0,000000000e+00    0,000000000e+00
      660000000   -1,105266660e-01   -9,505968541e-02    6,001268625e-01    2,114858478e-01    0,000000000e+00    0,000000000e+00    0,000000000e+00    0,000000000e+00
      674000000   -1,937499493e-01   -2,771435678e-02    5,805674791e-01   -2,202340513e-01    0,000000000e+00    0,000000000e+00    0,000000000e+00    0,000000000e+00
      688000000   -1,822207570e-01    1,259074211e-01    2,462752461e-01   -5,238761902e-01    0,000000000e+00    0,000000000e+00    0,000000000e+00    0,000000000e+00
      702000000   -5,580800585e-03    2,353354394e-01   -1,824650019e-01   -4,542870224e-01    0,000000000e+00    0,000000000e+00    0,000000000e+00    0,000000000e+00
      716000000    2,347341478e-01    1,334873885e-01   -3,136890233e-01   -1,205578670e-01    0,000000000e+00    0,000000000e+00    0,000000000e+00    0,000000000e+00
      730000000    3,072009087e-01   -1,540729105e-01   -1,539277285e-01    5,467604473e-02    0,000000000e+00    0,000000000e+00    0,000000000e+00    0,000000000e+00
      744000000    1,191795245e-01   -4,181330800e-01   -4,368708655e-02   -1,819571480e-02    0,000000000e+00    0,000000000e+00    0,000000000e+00    0,000000000e+00
      758000000   -2,381861210e-01   -4,496665299e-01   -1,383691430e-01   -1,036398113e-01    0,000000000e+00    0,000000000e+00    0,000000000e+00    0,000000000e+00
      772000000   -4,977373481e-01   -1,538156718e-01   -3,029544652e-01    1,673943736e-02    0,000000000e+00    0,000000000e+00    0,000000000e+00    0,000000000e+00
      786000000   -3,786592185e-01    2,159502059e-01   -2,650571465e-01    2,839588523e-01    0,000000000e+00    0,000000000e+00    0,000000000e+00    0,000000000e+00
      800000000   -6,418827176e-02    2,961975038e-01   -1,683468185e-02    4,223120809e-01    0,000000000e+00    0,000000000e+00    0,000000000e+00    0,000000000e+00
      814000000    1,416538507e-01    1,455786973e-01    2,457486987e-01    3,602166474e-01    0,000000000e+00    0,000000000e+00    0,000000000e+00    0,000000000e+00
      828000000    1,752281636e-01   -6,042714790e-02    4,217037559e-01    1,651496738e-01    0,000000000e+00    0,000000000e+00    0,000000000e+00    0,000000000e+00
      842000000    7,390174270e-02   -2,201523036e-01    4,608214498e-01   -1,088096872e-01    0,000000000e+00    0,000000000e+00    0,000000000e+00    0,000000000e+00
      856000000   -1,057141721e-01   -2,732968926e-01    3,210572302e-01   -3,822729290e-01    0,000000000e+00    0,000000000e+00    0,000000000e+00    0,000000000e+00
      870000000   -2,836092710e-01   -1,780345291e-01    7,414958440e-03   -5,168529153e-01    0,000000000e+00    0,000000000e+00    0,000000000e+00    0,000000000e+00
      884000000   -3,380542994e-01    3,090224788e-02   -3,357596397e-01   -3,923378885e-01    0,000000000e+00    0,000000000e+00    0,000000000e+00    0,000000000e+00
      898000000   -2,118966430e-01    2,117947042e-01   -4,817132354e-01   -7,164521515e-02    0,000000000e+00    0,000000000e+00    0,000000000e+00    0,000000000e+00
      912000000   -5,407841410e-03    2,334946692e-01   -4,079595506e-01    2,677503526e-01    0,000000000e+00    0,000000000e+00    0,000000000e+00    0,000000000e+00
      926000000    1,485584229e-01    1,275581121e-01   -1,730429232e-01    4,073643088e-01    0,000000000e+00    0,000000000e+00    0,000000000e+00    0,000000000e+00
      940000000    2,009907365e-01   -3,562820330e-02    5,387705937e-02    4,216159284e-01    0,000000000e+00    0,000000000e+00    0,000000000e+00    0,000000000e+00
      954000000    1,613328904e-01   -1,995509565e-01    2,544015646e-01    3,427228928e-01    0,000000000e+00    0,000000000e+00    0,000000000e+00    0,000000000e+00
      968000000    2,959459834e-02   -3,167273700e-01    4,044877291e-01    1,821277142e-01    0,000000000e+00    0,000000000e+00    0,000000000e+00    0,000000000e+00
      982000000   -1,650053114e-01   -3,325947523e-01    4,698462188e-01   -6,434606761e-02    0,000000000e+00    0,000000000e+00    0,000000000e+00    0,000000000e+00
      996000000   -3,240175843e-01   -2,109956294e-01    3,606429994e-01   -3,561545908e-01    0,000000000e+00    0,000000000e+00    0,000000000e+00    0,000000000e+00
     1010000000   -3,362763226e-01   -1,687897369e-02    2,468718402e-02   -5,205373764e-01    0,000000000e+00    0,000000000e+00    0,000000000e+00    0,000000000e+00
     1024000000   -2,069729269e-01    5,230034143e-02   -3,742377162e-01   -3,403159380e-01    0,000000000e+00    0,000000000e+00    0,000000000e+00    0,000000000e+00
     1038000000   -2,243414074e-01   -3,663038462e-02   -4,121025503e-01    1,552447379e-01    0,000000000e+00    0,000000000e+00    0,000000000e+00    0,000000000e+00
     1052000000   -3,376755118e-01    1,668598056e-01    1,892946661e-03    2,574512959e-01    0,000000000e+00    0,000000000e+00    0,000000000e+00    0,000000000e+00
     1066000000   -9,556476027e-02    3,291607499e-01    6,936689466e-02    6,980064511e-02    0,000000000e+00    0,000000000e+00    0,000000000e+00    0,000000000e+00
     1080000000    1,218606308e-01    2,463849783e-01    3,659775108e-02    3,541914746e-02    0,000000000e+00    0,000000000e+00    0,000000000e+00    0,000000000e+00
     1094000000    2,334592491e-01    8,173944056e-02    4,328747094e-02    4,170820862e-02    0,000000000e+00    0,000000000e+00    0,000000000e+00    0,000000000e+00
     1108000000    2,412998825e-01   -9,710565209e-02    7,336955518e-02    3,384711966e-02    0,000000000e+00    0,000000000e+00    0,000000000e+00    0,000000000e+00
     1122000000    1,814511716e-01   -2,600069344e-01    1,101067662e-01    3,264759900e-03    0,000000000e+00    0,000000000e+00    0,000000000e+00    0,000000000e+00
     1136000000    3,657649457e-02   -3,845147192e-01    1,497616917e-01   -5,105014890e-02    0,000000000e+00    0,000000000e+00    0,000000000e+00    0,000000000e+00
     1150000000   -1,780338883e-01   -4,255036414e-01    1,647916883e-01   -1,463559419e-01    0,000000000e+00    0,000000000e+00    0,000000000e+00    0,000000000e+00
     1164000000   -3,962163329e-01   -3,076203763e-01    1,189222485e-01   -2,893230915e-01    0,000000000e+00    0,000000000e+00    0,000000000e+00    0,000000000e+00
     1178000000   -4,648378789e-01   -7,592238486e-02   -1,040107757e-01   -4,158700705e-01    0,000000000e+00    0,000000000e+00    0,000000000e+00    0,000000000e+00
     1192000000   -3,694311082e-01    3,859072924e-02   -4,627078474e-01   -1,990316063e-01    0,000000000e+00    0,000000000e+00    0,000000000e+00    0,000000000e+00
     1206000000   -4,187002778e-01    1,172635183e-01   -2,782135010e-01    2,403937280e-01    0,000000000e+00    0,000000000e+00    0,000000000e+00    0,000000000e+00
     1220000000   -2,956561744e-01    3,231526613e-01    1,184454747e-02    1,715755463e-01    0,000000000e+00    0,000000000e+00    0,000000000e+00    0,000000000e+00
     1234000000   -6,619355828e-02    3,606970310e-01    3,977394477e-02    4,622444138e-02    0,000000000e+00    0,000000000e+00    0,000000000e+00    0,000000000e+00
     1248000000    1,137594432e-01    2,698999047e-01    1,367796771e-02    1,557986252e-02    0,000000000e+00    0,000000000e+00    0,000000000e+00    0,000000000e+00
     1262000000    2,081887871e-01    1,236852631e-01   -9,763608250e-05    2,449386753e-02    0,000000000e+00    0,000000000e+00    0,000000000e+00    0,000000000e+00
     1276000000    2,382825315e-01   -4,343407601e-02    1,802188158e-02    3,109137714e-02    0,000000000e+00    0,000000000e+00    0,000000000e+00    0,000000000e+00
     1290000000    2,054541707e-01   -2,069042325e-01    4,952408746e-02    2,460705303e-02    0,000000000e+00    0,000000000e+00    0,000000000e+00    0,000000000e+00
     1304000000    9,282188863e-02   -3,534314036e-01    7,041227818e-02    1,205325965e-02    0,000000000e+00    0,000000000e+00    0,000000000e+00    0,000000000e+00
     1318000000   -1,002383605e-01   -4,494144619e-01    8,144752681e-02   -6,381614134e-03    0,000000000e+00    0,000000000e+00    0,000000000e+00    0,000000000e+00
     1332000000   -3,572779298e-01   -4,314590991e-01    8,370394260e-02   -5,209477618e-03    0,000000000e+00    0,000000000e+00    0,000000000e+00    0,000000000e+00
     1346000000   -5,855267048e-01   -2,402789742e-01    1,087886542e-01   -1,248258166e-02    0,000000000e+00    0,000000000e+00    0,000000000e+00    0,000000000e+00
     1360000000   -6,461130381e-01    7,705137879e-02    1,309696436e-01   -1,419776864e-02    0,000000000e+00    0,000000000e+00    0,000000000e+00    0,000000000e+00
     1374000000   -4,944599867e-01    3,264606893e-01    1,609860808e-01   -4,971007258e-02    0,000000000e+00    0,000000000e+00    0,000000000e+00    0,000000000e+00
     1388000000   -2,665269673e-01    4,216216207e-01    1,593447775e-01   -9,439814091e-02    0,000000000e+00    0,000000000e+00    0,000000000e+00    0,000000000e+00
     1402000000   -6,111558899e-02    4,016138315e-01    1,249056980e-01   -1,056039184e-01    0,000000000e+00    0,000000000e+00    0,000000000e+00    0,000000000e+00
     1416000000    9,220533818e-02    3,041788638e-01    1,004633158e-01   -9,490364045e-02    0,000000000e+00    0,000000000e+00    0,000000000e+00    0,000000000e+00
     1430000000    1,878042221e-01    1,701608896e-01    9,402665496e-02   -5,851773918e-02    0,000000000e+00    0,000000000e+00    0,000000000e+00    0,000000000e+00
     1444000000    2,223090976e-01    1,061830111e-02    9,061956406e-02   -2,419439144e-02    0,000000000e+00    0,000000000e+00    0,000000000e+00    0,000000000e+00
     1458000000    1,940235645e-01   -1,672507674e-01    1,319078505e-01    1,248892490e-02    0,000000000e+00    0,000000000e+00    0,000000000e+00    0,000000000e+00
     1472000000    8,125113696e-02   -3,350431025e-01    1,883804351e-01    5,899465457e-02    0,000000000e+00    0,000000000e+00    0,000000000e+00    0,000000000e+00
     1486000000   -1,285619736e-01   -4,565226138e-01    2,837339640e-01    8,138622344e-02    0,000000000e+00    0,000000000e+00    0,000000000e+00    0,000000000e+00
     1500000000   -4,450301528e-01   -4,597253203e-01    3,849884272e-01    2,775925025e-02    0,000000000e+00    0,000000000e+00    0,000000000e+00    0,000000000e+00
