! NanoVNA-App
! Date: 2025-09-26 09:39:12
! Start: 100MHz Stop: 1,5GHz Points: 101
! S-Parameter data: F S11 S21 S12 S22
# Hz S RI R 50
!     Frequency           S11_Real           S11_Imag           S21_Real           S21_Imag           S12_Real           S12_Imag           S22_Real           S22_Imag
      100000000   -2,877483331e-02   -4,422189668e-03    3,735517263e-01   -7,233366966e-01    0,000000000e+00    0,000000000e+00    0,000000000e+00    0,000000000e+00
      114000000   -1,667395607e-02    1,119667199e-02   -9,061326087e-02   -8,064377308e-01    0,000000000e+00    0,000000000e+00    0,000000000e+00    0,000000000e+00
      128000000    3,054918256e-03    1,036896650e-02   -5,162476301e-01   -6,206981540e-01    0,000000000e+00    0,000000000e+00    0,000000000e+00    0,000000000e+00
      142000000    1,415003650e-02   -2,957032761e-03   -7,688086629e-01   -2,356587946e-01    0,000000000e+00    0,000000000e+00    0,000000000e+00    0,000000000e+00
      156000000    1,597241499e-02   -1,449532341e-02   -7,680637836e-01    2,256499827e-01    0,000000000e+00    0,000000000e+00    0,000000000e+00    0,000000000e+00
      170000000    1,680806093e-02   -2,230854519e-02   -5,175393224e-01    6,069146395e-01    0,000000000e+00    0,000000000e+00    0,000000000e+00    0,000000000e+00
      184000000    2,103052102e-02   -3,731152788e-02   -9,965080768e-02    7,875145078e-01    0,000000000e+00    0,000000000e+00    0,000000000e+00    0,000000000e+00
      198000000    1,271620486e-02   -6,254096329e-02    3,455028534e-01    7,131184340e-01    0,000000000e+00    0,000000000e+00    0,000000000e+00    0,000000000e+00
      212000000   -1,916801743e-02   -8,095503598e-02    6,812228560e-01    4,087852538e-01    0,000000000e+00    0,000000000e+00    0,000000000e+00    0,000000000e+00
      226000000   -6,168544665e-02   -6,854618341e-02    7,979819775e-01   -3,295242414e-02    0,000000000e+00    0,000000000e+00    0,000000000e+00    0,000000000e+00
      240000000   -8,212942630e-02   -2,523710579e-02    6,458737850e-01   -4,706585109e-01    0,000000000e+00    0,000000000e+00    0,000000000e+00    0,000000000e+00
      254000000   -6,292270124e-02    1,725894958e-02    2,758112252e-01   -7,432141304e-01    0,000000000e+00    0,000000000e+00    0,000000000e+00    0,000000000e+00
      268000000   -2,326113358e-02    2,842761204e-02   -1,766791642e-01   -7,647308707e-01    0,000000000e+00    0,000000000e+00    0,000000000e+00    0,000000000e+00
      282000000    3,942638636e-03    1,134215295e-02   -5,617131591e-01   -5,385476351e-01    0,000000000e+00    0,000000000e+00    0,000000000e+00    0,000000000e+00
      296000000    9,328640997e-03   -8,069503121e-03   -7,627891898e-01   -1,402711123e-01    0,000000000e+00    0,000000000e+00    0,000000000e+00    0,000000000e+00
      310000000    1,085158810e-02   -1,597736403e-02   -7,133259177e-01    3,024224341e-01    0,000000000e+00    0,000000000e+00    0,000000000e+00    0,000000000e+00
      324000000    2,012526989e-02   -2,658717334e-02   -4,269193113e-01    6,392800808e-01    0,000000000e+00    0,000000000e+00    0,000000000e+00    0,000000000e+00
      338000000    2,550376579e-02   -5,272883177e-02   -7,586972788e-03    7,647973299e-01    0,000000000e+00    0,000000000e+00    0,000000000e+00    0,000000000e+00
      352000000    6,999722216e-03   -8,509162068e-02    4,083161354e-01    6,402683854e-01    0,000000000e+00    0,000000000e+00    0,000000000e+00    0,000000000e+00
      366000000   -3,512817994e-02   -9,563948214e-02    6,936293244e-01    3,092501462e-01    0,000000000e+00    0,000000000e+00    0,000000000e+00    0,000000000e+00
      380000000   -7,101002336e-02   -7,061623782e-02    7,496161461e-01   -1,296817064e-01    0,000000000e+00    0,000000000e+00    0,000000000e+00    0,000000000e+00
      394000000   -7,172624022e-02   -3,217248991e-02    5,468001366e-01   -5,260989070e-01    0,000000000e+00    0,000000000e+00    0,000000000e+00    0,000000000e+00
      408000000   -4,607178271e-02   -1,742978394e-02    1,573670954e-01   -7,361568213e-01    0,000000000e+00    0,000000000e+00    0,000000000e+00    0,000000000e+00
      422000000   -2,957055904e-02   -3,317523748e-02   -2,743158340e-01   -6,956124902e-01    0,000000000e+00    0,000000000e+00    0,000000000e+00    0,000000000e+00
      436000000   -4,306407273e-02   -5,118016899e-02   -6,089786291e-01   -4,272703230e-01    0,000000000e+00    0,000000000e+00    0,000000000e+00    0,000000000e+00
      450000000   -6,887652725e-02   -4,131639004e-02   -7,402118444e-01   -1,544272434e-02    0,000000000e+00    0,000000000e+00    0,000000000e+00    0,000000000e+00
      464000000   -7,171782851e-02   -7,904655300e-03   -6,149637699e-01    4,013862312e-01    0,000000000e+00    0,000000000e+00    0,000000000e+00    0,000000000e+00
      478000000   -4,349745438e-02    1,419360656e-02   -2,768496573e-01    6,704473495e-01    0,000000000e+00    0,000000000e+00    0,000000000e+00    0,000000000e+00
      492000000   -1,033784077e-02    4,533575848e-03    1,440976709e-01    7,006006837e-01    0,000000000e+00    0,000000000e+00    0,000000000e+00    0,000000000e+00
      506000000    1,230288297e-03   -2,164145000e-02    5,060123205e-01    4,964701235e-01    0,000000000e+00    0,000000000e+00    0,000000000e+00    0,000000000e+00
      520000000   -5,255045835e-03   -3,819607198e-02    6,903481483e-01    1,303818226e-01    0,000000000e+00    0,000000000e+00    0,000000000e+00    0,000000000e+00
      534000000   -7,926396094e-03   -4,480195045e-02    6,380173564e-01   -2,768058777e-01    0,000000000e+00    0,000000000e+00    0,000000000e+00    0,000000000e+00
      548000000   -2,213056898e-03   -5,955533311e-02    3,685747385e-01   -5,775561333e-01    0,000000000e+00    0,000000000e+00    0,000000000e+00    0,000000000e+00
      562000000   -1,130908076e-02   -8,954608440e-02   -1,904416643e-02   -6,757635474e-01    0,000000000e+00    0,000000000e+00    0,000000000e+00    0,000000000e+00
      576000000   -4,945267737e-02   -1,117088869e-01   -3,958333135e-01   -5,459859371e-01    0,000000000e+00    0,000000000e+00    0,000000000e+00    0,000000000e+00
      590000000   -9,974524379e-02   -9,632840008e-02   -6,390880346e-01   -2,304773927e-01    0,000000000e+00    0,000000000e+00    0,000000000e+00    0,000000000e+00
      604000000   -1,183678210e-01   -4,387834668e-02   -6,539226174e-01    1,878451258e-01    0,000000000e+00    0,000000000e+00    0,000000000e+00    0,000000000e+00
      618000000   -8,395811170e-02   -3,346356796e-03   -4,151561856e-01    5,314642787e-01    0,000000000e+00    0,000000000e+00    0,000000000e+00    0,000000000e+00
      632000000   -3,753766418e-02   -1,923365146e-02   -2,518684231e-02    6,587952375e-01    0,000000000e+00    0,000000000e+00    0,000000000e+00    0,000000000e+00
      646000000   -4,114037007e-02   -7,230759412e-02    3,570072353e-01    5,387274027e-01    0,000000000e+00    0,000000000e+00    0,000000000e+00    0,000000000e+00
      660000000   -1,116912216e-01   -9,561555088e-02    5,998256207e-01    2,109943479e-01    0,000000000e+00    0,000000000e+00    0,000000000e+00    0,000000000e+00
      674000000   -1,949134618e-01   -2,846870758e-02    5,811007023e-01   -2,200267166e-01    0,000000000e+00    0,000000000e+00    0,000000000e+00    0,000000000e+00
      688000000   -1,824865490e-01    1,261860728e-01    2,462287098e-01   -5,227463245e-01    0,000000000e+00    0,000000000e+00    0,000000000e+00    0,000000000e+00
      702000000   -6,139908917e-03    2,345238775e-01   -1,725468040e-01   -4,529511631e-01    0,000000000e+00    0,000000000e+00    0,000000000e+00    0,000000000e+00
      716000000    2,344468981e-01    1,339418739e-01   -3,141675889e-01   -1,207829788e-01    0,000000000e+00    0,000000000e+00    0,000000000e+00    0,000000000e+00
      730000000    3,072254360e-01   -1,529142857e-01   -1,542550474e-01    5,452137440e-02    0,000000000e+00    0,000000000e+00    0,000000000e+00    0,000000000e+00
      744000000    1,204848886e-01   -4,171896279e-01   -4,326793551e-02   -1,816326194e-02    0,000000000e+00    0,000000000e+00    0,000000000e+00    0,000000000e+00
      758000000   -2,377628684e-01   -4,511714578e-01   -1,377270520e-01   -1,038618535e-01    0,000000000e+00    0,000000000e+00    0,000000000e+00    0,000000000e+00
      772000000   -4,978209138e-01   -1,527452469e-01   -3,027464747e-01    1,646235026e-02    0,000000000e+00    0,000000000e+00    0,000000000e+00    0,000000000e+00
      786000000   -3,791533113e-01    2,148360461e-01   -2,649524510e-01    2,839688659e-01    0,000000000e+00    0,000000000e+00    0,000000000e+00    0,000000000e+00
      800000000   -6,444175541e-02    2,950170934e-01   -1,741243526e-02    4,228777289e-01    0,000000000e+00    0,000000000e+00    0,000000000e+00    0,000000000e+00
      814000000    1,414523125e-01    1,448833495e-01    2,460913807e-01    3,601044118e-01    0,000000000e+00    0,000000000e+00    0,000000000e+00    0,000000000e+00
      828000000    1,746918708e-01   -6,023916602e-02    4,213762283e-01    1,648126394e-01    0,000000000e+00    0,000000000e+00    0,000000000e+00    0,000000000e+00
      842000000    7,444612682e-02   -2,196177095e-01    4,608885944e-01   -1,084715873e-01    0,000000000e+00    0,000000000e+00    0,000000000e+00    0,000000000e+00
      856000000   -1,054664701e-01   -2,733961344e-01    3,212058842e-01   -3,813958466e-01    0,000000000e+00    0,000000000e+00    0,000000000e+00    0,000000000e+00
      870000000   -2,842734754e-01   -1,797648817e-01    7,607962005e-03   -5,184831023e-01    0,000000000e+00    0,000000000e+00    0,000000000e+00    0,000000000e+00
      884000000   -3,382164538e-01    3,007050045e-02   -3,359083831e-01   -3,926133513e-01    0,000000000e+00    0,000000000e+00    0,000000000e+00    0,000000000e+00
      898000000   -2,122826725e-01    2,128084004e-01   -4,811433256e-01   -7,082554698e-02    0,000000000e+00    0,000000000e+00    0,000000000e+00    0,000000000e+00
      912000000   -4,964466207e-03    2,345067263e-01   -3,942149878e-01    2,625843585e-01    0,000000000e+00    0,000000000e+00    0,000000000e+00    0,000000000e+00
      926000000    1,464323252e-01    1,288161278e-01   -1,764591634e-01    4,074603617e-01    0,000000000e+00    0,000000000e+00    0,000000000e+00    0,000000000e+00
      940000000    2,043044567e-01   -3,506832942e-02    5,591384694e-02    4,219131172e-01    0,000000000e+00    0,000000000e+00    0,000000000e+00    0,000000000e+00
      954000000    1,572318524e-01   -2,001812905e-01    2,525677383e-01    3,420296013e-01    0,000000000e+00    0,000000000e+00    0,000000000e+00    0,000000000e+00
      968000000    2,531734668e-02   -3,163772821e-01    4,034472406e-01    1,804577112e-01    0,000000000e+00    0,000000000e+00    0,000000000e+00    0,000000000e+00
      982000000   -1,646286249e-01   -3,346517980e-01    4,683068097e-01   -6,445696950e-02    0,000000000e+00    0,000000000e+00    0,000000000e+00    0,000000000e+00
      996000000   -3,281683624e-01   -2,119842023e-01    3,600602448e-01   -3,527546823e-01    0,000000000e+00    0,000000000e+00    0,000000000e+00    0,000000000e+00
     1010000000   -3,341014683e-01   -1,201291382e-02    2,230387181e-02   -5,198746920e-01    0,000000000e+00    0,000000000e+00    0,000000000e+00    0,000000000e+00
     1024000000   -2,055446208e-01    5,157842860e-02   -3,763154149e-01   -3,387107253e-01    0,000000000e+00    0,000000000e+00    0,000000000e+00    0,000000000e+00
     1038000000   -2,260642946e-01   -3,141598031e-02   -4,139591455e-01    1,535100639e-01    0,000000000e+00    0,000000000e+00    0,000000000e+00    0,000000000e+00
     1052000000   -3,421314955e-01    1,715047807e-01    1,995906932e-03    2,583053708e-01    0,000000000e+00    0,000000000e+00    0,000000000e+00    0,000000000e+00
     1066000000   -9,379282594e-02    3,289864659e-01    7,322075963e-02    7,098620385e-02    0,000000000e+00    0,000000000e+00    0,000000000e+00    0,000000000e+00
     1080000000    1,234737113e-01    2,474817336e-01    3,698692471e-02    3,386789933e-02    0,000000000e+00    0,000000000e+00    0,000000000e+00    0,000000000e+00
     1094000000    2,267016470e-01    8,195630461e-02    4,287966341e-02    3,986617178e-02    0,000000000e+00    0,000000000e+00    0,000000000e+00    0,000000000e+00
     1108000000    2,424062639e-01   -9,501975775e-02    7,352288067e-02    3,356172517e-02    0,000000000e+00    0,000000000e+00    0,000000000e+00    0,000000000e+00
     1122000000    1,826796979e-01   -2,624774277e-01    1,134604290e-01    4,871841054e-03    0,000000000e+00    0,000000000e+00    0,000000000e+00    0,000000000e+00
     1136000000    3,428331763e-02   -3,857229054e-01    1,479137540e-01   -5,109233782e-02    0,000000000e+00    0,000000000e+00    0,000000000e+00    0,000000000e+00
     1150000000   -1,745970249e-01   -4,240073264e-01    1,647914797e-01   -1,450726092e-01    0,000000000e+00    0,000000000e+00    0,000000000e+00    0,000000000e+00
     1164000000   -3,899164498e-01   -3,118568957e-01    1,178547591e-01   -2,907841206e-01    0,000000000e+00    0,000000000e+00    0,000000000e+00    0,000000000e+00
     1178000000   -4,640619755e-01   -7,020099461e-02   -1,033989489e-01   -4,164251685e-01    0,000000000e+00    0,000000000e+00    0,000000000e+00    0,000000000e+00
     1192000000   -3,681379855e-01    3,863652423e-02   -4,628991485e-01   -2,012464106e-01    0,000000000e+00    0,000000000e+00    0,000000000e+00    0,000000000e+00
     1206000000   -4,147572219e-01    1,169913188e-01   -2,804355621e-01    2,436306924e-01    0,000000000e+00    0,000000000e+00    0,000000000e+00    0,000000000e+00
     1220000000   -3,015034795e-01    3,233631253e-01    6,728372071e-03    1,748067886e-01    0,000000000e+00    0,000000000e+00    0,000000000e+00    0,000000000e+00
     1234000000   -6,616645306e-02    3,680563271e-01    4,041713849e-02    5,365565419e-02    0,000000000e+00    0,000000000e+00    0,000000000e+00    0,000000000e+00
     1248000000    1,078896597e-01    2,741080225e-01    1,281302981e-02    1,608478092e-02    0,000000000e+00    0,000000000e+00    0,000000000e+00    0,000000000e+00
     1262000000    2,087301612e-01    1,224873289e-01   -7,350372471e-06    1,805852540e-02    0,000000000e+00    0,000000000e+00    0,000000000e+00    0,000000000e+00
     1276000000    2,404230833e-01   -4,318712652e-02    2,162492834e-02    2,984130569e-02    0,000000000e+00    0,000000000e+00    0,000000000e+00    0,000000000e+00
     1290000000    2,047081292e-01   -2,098844647e-01    4,767296091e-02    2,469796687e-02    0,000000000e+00    0,000000000e+00    0,000000000e+00    0,000000000e+00
     1304000000    8,872981369e-02   -3,553451598e-01    6,745698303e-02    1,254115347e-02    0,000000000e+00    0,000000000e+00    0,000000000e+00    0,000000000e+00
     1318000000   -1,021079272e-01   -4,480516016e-01    8,100862056e-02   -5,687440746e-03    0,000000000e+00    0,000000000e+00    0,000000000e+00    0,000000000e+00
     1332000000   -3,523025215e-01   -4,331248403e-01    8,926996589e-02   -1,370658074e-02    0,000000000e+00    0,000000000e+00    0,000000000e+00    0,000000000e+00
     1346000000   -5,903802514e-01   -2,394269258e-01    1,044286191e-01   -1,178013720e-02    0,000000000e+00    0,000000000e+00    0,000000000e+00    0,000000000e+00
     1360000000   -6,408570409e-01    7,556059211e-02    1,410697550e-01   -1,676864922e-02    0,000000000e+00    0,000000000e+00    0,000000000e+00    0,000000000e+00
     1374000000   -4,920103550e-01    3,202971816e-01    1,615182012e-01   -5,500039831e-02    0,000000000e+00    0,000000000e+00    0,000000000e+00    0,000000000e+00
     1388000000   -2,642391622e-01    4,222734869e-01    1,560403705e-01   -9,094072878e-02    0,000000000e+00    0,000000000e+00    0,000000000e+00    0,000000000e+00
     1402000000   -6,312513351e-02    4,022730291e-01    1,242220029e-01   -9,863404930e-02    0,000000000e+00    0,000000000e+00    0,000000000e+00    0,000000000e+00
     1416000000    8,509385586e-02    3,038424850e-01    1,003600731e-01   -9,805526584e-02    0,000000000e+00    0,000000000e+00    0,000000000e+00    0,000000000e+00
     1430000000    1,888896823e-01    1,627822071e-01    7,896371186e-02   -9,343309700e-02    0,000000000e+00    0,000000000e+00    0,000000000e+00    0,000000000e+00
     1444000000    2,228482962e-01    1,163564902e-02    9,537407756e-02   -3,334408626e-02    0,000000000e+00    0,000000000e+00    0,000000000e+00    0,000000000e+00
     1458000000    1,924879700e-01   -1,645444334e-01    1,257322282e-01    8,627787232e-03    0,000000000e+00    0,000000000e+00    0,000000000e+00    0,000000000e+00
     1472000000    7,818667591e-02   -3,322784007e-01    1,732115299e-01    6,998421997e-02    0,000000000e+00    0,000000000e+00    0,000000000e+00    0,000000000e+00
     1486000000   -1,363544911e-01   -4,626744986e-01    2,819086611e-01    8,701305836e-02    0,000000000e+00    0,000000000e+00    0,000000000e+00    0,000000000e+00
     1500000000   -4,456518590e-01   -4,495996535e-01    3,771201372e-01    5,413188040e-02    0,000000000e+00    0,000000000e+00    0,000000000e+00    0,000000000e+00
