! NanoVNA-App
! Date: 2025-09-26 09:39:25
! Start: 100MHz Stop: 1,5GHz Points: 101
! S-Parameter data: F S11 S21 S12 S22
# Hz S RI R 50
!     Frequency           S11_Real           S11_Imag           S21_Real           S21_Imag           S12_Real           S12_Imag           S22_Real           S22_Imag
      100000000   -2,877121232e-02   -4,418893717e-03    3,736415505e-01   -7,234143019e-01    0,000000000e+00    0,000000000e+00    0,000000000e+00    0,000000000e+00
      114000000   -1,665374637e-02    1,122713368e-02   -9,064871818e-02   -8,065035939e-01    0,000000000e+00    0,000000000e+00    0,000000000e+00    0,000000000e+00
      128000000    3,012363799e-03    1,048116293e-02   -5,161700845e-01   -6,207833886e-01    0,000000000e+00    0,000000000e+00    0,000000000e+00    0,000000000e+00
      142000000    1,414546557e-02   -2,972972812e-03   -7,689356208e-01   -2,359984666e-01    0,000000000e+00    0,000000000e+00    0,000000000e+00    0,000000000e+00
      156000000    1,402560994e-02   -1,462268177e-02   -7,702915668e-01    2,205775529e-01    0,000000000e+00    0,000000000e+00    0,000000000e+00    0,000000000e+00
      170000000    1,676238887e-02   -2,228505909e-02   -5,173922181e-01    6,065145135e-01    0,000000000e+00    0,000000000e+00    0,000000000e+00    0,000000000e+00
      184000000    2,096895687e-02   -3,730629012e-02   -9,981720895e-02    7,874485254e-01    0,000000000e+00    0,000000000e+00    0,000000000e+00    0,000000000e+00
      198000000    1,268154569e-02   -6,249190494e-02    3,455043137e-01    7,130643725e-01    0,000000000e+00    0,000000000e+00    0,000000000e+00    0,000000000e+00
      212000000   -1,912159473e-02   -8,101272583e-02    6,811416149e-01    4,089474678e-01    0,000000000e+00    0,000000000e+00    0,000000000e+00    0,000000000e+00
      226000000   -6,173103303e-02   -6,857854128e-02    7,979118824e-01   -3,280753270e-02    0,000000000e+00    0,000000000e+00    0,000000000e+00    0,000000000e+00
      240000000   -8,207144588e-02   -2,537937090e-02    6,457991004e-01   -4,701984227e-01    0,000000000e+00    0,000000000e+00    0,000000000e+00    0,000000000e+00
      254000000   -6,293013692e-02    1,727812551e-02    2,756466269e-01   -7,429870963e-01    0,000000000e+00    0,000000000e+00    0,000000000e+00    0,000000000e+00
      268000000   -2,335084602e-02    2,846059389e-02   -1,768182069e-01   -7,646023631e-01    0,000000000e+00    0,000000000e+00    0,000000000e+00    0,000000000e+00
      282000000    4,015857819e-03    1,137725823e-02   -5,618144274e-01   -5,380069017e-01    0,000000000e+00    0,000000000e+00    0,000000000e+00    0,000000000e+00
      296000000    9,374883026e-03   -8,153034374e-03   -7,626971006e-01   -1,403441578e-01    0,000000000e+00    0,000000000e+00    0,000000000e+00    0,000000000e+00
      310000000    1,097968128e-02   -1,607983001e-02   -7,131912112e-01    3,008476198e-01    0,000000000e+00    0,000000000e+00    0,000000000e+00    0,000000000e+00
      324000000    1,999507099e-02   -2,669204958e-02   -4,268320203e-01    6,388657093e-01    0,000000000e+00    0,000000000e+00    0,000000000e+00    0,000000000e+00
      338000000    2,579296008e-02   -5,311238393e-02   -6,519000977e-03    7,625879049e-01    0,000000000e+00    0,000000000e+00    0,000000000e+00    0,000000000e+00
      352000000    6,714133546e-03   -8,513077348e-02    4,085139930e-01    6,400327682e-01    0,000000000e+00    0,000000000e+00    0,000000000e+00    0,000000000e+00
      366000000   -3,519228101e-02   -9,568265826e-02    6,937476397e-01    3,100339174e-01    0,000000000e+00    0,000000000e+00    0,000000000e+00    0,000000000e+00
      380000000   -7,113043219e-02   -7,031954080e-02    7,488554120e-01   -1,293245405e-01    0,000000000e+00    0,000000000e+00    0,000000000e+00    0,000000000e+00
      394000000   -7,183092088e-02   -3,228506446e-02    5,451549888e-01   -5,265505910e-01    0,000000000e+00    0,000000000e+00    0,000000000e+00    0,000000000e+00
      408000000   -4,577847943e-02   -1,753632538e-02    1,573808491e-01   -7,361969948e-01    0,000000000e+00    0,000000000e+00    0,000000000e+00    0,000000000e+00
      422000000   -2,978967503e-02   -3,310545161e-02   -2,742602229e-01   -6,957384348e-01    0,000000000e+00    0,000000000e+00    0,000000000e+00    0,000000000e+00
      436000000   -4,308250919e-02   -5,131625384e-02   -6,092636585e-01   -4,272215664e-01    0,000000000e+00    0,000000000e+00    0,000000000e+00    0,000000000e+00
      450000000   -6,878516078e-02   -4,104939103e-02   -7,401167154e-01   -1,498361398e-02    0,000000000e+00    0,000000000e+00    0,000000000e+00    0,000000000e+00
      464000000   -7,179576904e-02   -8,080596104e-03   -6,151903868e-01    4,017012417e-01    0,000000000e+00    0,000000000e+00    0,000000000e+00    0,000000000e+00
      478000000   -4,361355677e-02    1,410377491e-02   -2,764084339e-01    6,700901389e-01    0,000000000e+00    0,000000000e+00    0,000000000e+00    0,000000000e+00
      492000000   -1,002410427e-02    4,306431860e-03    1,445066184e-01    7,006659508e-01    0,000000000e+00    0,000000000e+00    0,000000000e+00    0,000000000e+00
      506000000    1,049999613e-03   -2,123399265e-02    5,048148632e-01    4,969282746e-01    0,000000000e+00    0,000000000e+00    0,000000000e+00    0,000000000e+00
      520000000   -4,730289802e-03   -3,909841925e-02    6,940816045e-01    1,299744099e-01    0,000000000e+00    0,000000000e+00    0,000000000e+00    0,000000000e+00
      534000000   -7,582162507e-03   -4,475387558e-02    6,392925382e-01   -2,766149640e-01    0,000000000e+00    0,000000000e+00    0,000000000e+00    0,000000000e+00
      548000000   -2,718796488e-03   -5,990635976e-02    3,670411706e-01   -5,780937076e-01    0,000000000e+00    0,000000000e+00    0,000000000e+00    0,000000000e+00
      562000000   -1,122816838e-02   -8,969996125e-02   -1,934865490e-02   -6,757535934e-01    0,000000000e+00    0,000000000e+00    0,000000000e+00    0,000000000e+00
      576000000   -4,929815978e-02   -1,113777980e-01   -3,962668478e-01   -5,461370945e-01    0,000000000e+00    0,000000000e+00    0,000000000e+00    0,000000000e+00
      590000000   -9,968183935e-02   -9,594303370e-02   -6,402935982e-01   -2,298378795e-01    0,000000000e+00    0,000000000e+00    0,000000000e+00    0,000000000e+00
      604000000   -1,180913523e-01   -4,345451295e-02   -6,539456248e-01    1,884419471e-01    0,000000000e+00    0,000000000e+00    0,000000000e+00    0,000000000e+00
      618000000   -8,384003490e-02   -3,456436796e-03   -4,133001566e-01    5,316809416e-01    0,000000000e+00    0,000000000e+00    0,000000000e+00    0,000000000e+00
      632000000   -3,780347854e-02   -1,953879371e-02   -2,611612715e-02    6,593340039e-01    0,000000000e+00    0,000000000e+00    0,000000000e+00    0,000000000e+00
      646000000   -4,145323858e-02   -7,257184386e-02    3,565002084e-01    5,400613546e-01    0,000000000e+00    0,000000000e+00    0,000000000e+00    0,000000000e+00
      660000000   -1,115778759e-01   -9,574250877e-02    6,001853347e-01    2,114050686e-01    0,000000000e+00    0,000000000e+00    0,000000000e+00    0,000000000e+00
      674000000   -1,945617050e-01   -2,831246331e-02    5,809917450e-01   -2,198844850e-01    0,000000000e+00    0,000000000e+00    0,000000000e+00    0,000000000e+00
      688000000   -1,824596673e-01    1,259175837e-01    2,465316504e-01   -5,242251158e-01    0,000000000e+00    0,000000000e+00    0,000000000e+00    0,000000000e+00
      702000000   -5,078538321e-03    2,350024134e-01   -1,842021495e-01   -4,532884359e-01    0,000000000e+00    0,000000000e+00    0,000000000e+00    0,000000000e+00
      716000000    2,340449095e-01    1,325787753e-01   -3,140309155e-01   -1,206606328e-01    0,000000000e+00    0,000000000e+00    0,000000000e+00    0,000000000e+00
      730000000    3,075281382e-01   -1,530243754e-01   -1,541627944e-01    5,439451337e-02    0,000000000e+00    0,000000000e+00    0,000000000e+00    0,000000000e+00
      744000000    1,203989163e-01   -4,186502397e-01   -4,343562946e-02   -1,838186011e-02    0,000000000e+00    0,000000000e+00    0,000000000e+00    0,000000000e+00
      758000000   -2,395947874e-01   -4,497393668e-01   -1,378408372e-01   -1,036739424e-01    0,000000000e+00    0,000000000e+00    0,000000000e+00    0,000000000e+00
      772000000   -4,974021018e-01   -1,534397304e-01   -3,025070429e-01    1,708611287e-02    0,000000000e+00    0,000000000e+00    0,000000000e+00    0,000000000e+00
      786000000   -3,770588636e-01    2,147170156e-01   -2,648528516e-01    2,843704224e-01    0,000000000e+00    0,000000000e+00    0,000000000e+00    0,000000000e+00
      800000000   -6,487486511e-02    2,956399918e-01   -1,663716137e-02    4,231598973e-01    0,000000000e+00    0,000000000e+00    0,000000000e+00    0,000000000e+00
      814000000    1,411759555e-01    1,456650347e-01    2,462842762e-01    3,605278730e-01    0,000000000e+00    0,000000000e+00    0,000000000e+00    0,000000000e+00
      828000000    1,750033796e-01   -6,057093292e-02    4,215518832e-01    1,649593264e-01    0,000000000e+00    0,000000000e+00    0,000000000e+00    0,000000000e+00
      842000000    7,403445244e-02   -2,196430415e-01    4,610487223e-01   -1,086833552e-01    0,000000000e+00    0,000000000e+00    0,000000000e+00    0,000000000e+00
      856000000   -1,060969606e-01   -2,734882534e-01    3,216379583e-01   -3,819944859e-01    0,000000000e+00    0,000000000e+00    0,000000000e+00    0,000000000e+00
      870000000   -2,837631106e-01   -1,783682406e-01    8,105504327e-03   -5,179207921e-01    0,000000000e+00    0,000000000e+00    0,000000000e+00    0,000000000e+00
      884000000   -3,380813897e-01    3,133875132e-02   -3,355383873e-01   -3,924879432e-01    0,000000000e+00    0,000000000e+00    0,000000000e+00    0,000000000e+00
      898000000   -2,120673954e-01    2,118891031e-01   -4,811323583e-01   -7,172299922e-02    0,000000000e+00    0,000000000e+00    0,000000000e+00    0,000000000e+00
      912000000   -5,722209346e-03    2,342663705e-01   -4,037916362e-01    2,669558823e-01    0,000000000e+00    0,000000000e+00    0,000000000e+00    0,000000000e+00
      926000000    1,469893008e-01    1,304373741e-01   -1,759514511e-01    4,075033963e-01    0,000000000e+00    0,000000000e+00    0,000000000e+00    0,000000000e+00
      940000000    2,049172223e-01   -3,592308983e-02    5,587809905e-02    4,197798967e-01    0,000000000e+00    0,000000000e+00    0,000000000e+00    0,000000000e+00
      954000000    1,600306034e-01   -1,974747032e-01    2,542554438e-01    3,408594131e-01    0,000000000e+00    0,000000000e+00    0,000000000e+00    0,000000000e+00
      968000000    2,674530447e-02   -3,138259649e-01    4,038900137e-01    1,809156835e-01    0,000000000e+00    0,000000000e+00    0,000000000e+00    0,000000000e+00
      982000000   -1,634891778e-01   -3,359542489e-01    4,671967626e-01   -6,439895183e-02    0,000000000e+00    0,000000000e+00    0,000000000e+00    0,000000000e+00
      996000000   -3,242250681e-01   -2,128680050e-01    3,613412678e-01   -3,558962047e-01    0,000000000e+00    0,000000000e+00    0,000000000e+00    0,000000000e+00
     1010000000   -3,333340287e-01   -1,674872451e-02    2,320035733e-02   -5,208876133e-01    0,000000000e+00    0,000000000e+00    0,000000000e+00    0,000000000e+00
     1024000000   -2,068617493e-01    5,527253449e-02   -3,746877313e-01   -3,395045102e-01    0,000000000e+00    0,000000000e+00    0,000000000e+00    0,000000000e+00
     1038000000   -2,222124189e-01   -3,446959332e-02   -4,129046500e-01    1,538316607e-01    0,000000000e+00    0,000000000e+00    0,000000000e+00    0,000000000e+00
     1052000000   -3,424074948e-01    1,693546772e-01    1,615432557e-03    2,584083974e-01    0,000000000e+00    0,000000000e+00    0,000000000e+00    0,000000000e+00
     1066000000   -9,571498632e-02    3,350968957e-01    7,090695202e-02    6,975763291e-02    0,000000000e+00    0,000000000e+00    0,000000000e+00    0,000000000e+00
     1080000000    1,250329614e-01    2,423923314e-01    3,880363330e-02    3,625562787e-02    0,000000000e+00    0,000000000e+00    0,000000000e+00    0,000000000e+00
     1094000000    2,294864804e-01    7,913546264e-02    4,211053997e-02    4,101023078e-02    0,000000000e+00    0,000000000e+00    0,000000000e+00    0,000000000e+00
     1108000000    2,464796603e-01   -9,695900977e-02    7,304330170e-02    3,244648129e-02    0,000000000e+00    0,000000000e+00    0,000000000e+00    0,000000000e+00
     1122000000    1,776784956e-01   -2,603463233e-01    1,121077314e-01    6,257987116e-03    0,000000000e+00    0,000000000e+00    0,000000000e+00    0,000000000e+00
     1136000000    3,369659558e-02   -3,883063197e-01    1,483273506e-01   -5,184668675e-02    0,000000000e+00    0,000000000e+00    0,000000000e+00    0,000000000e+00
     1150000000   -1,765776277e-01   -4,217818975e-01    1,644807458e-01   -1,461052746e-01    0,000000000e+00    0,000000000e+00    0,000000000e+00    0,000000000e+00
     1164000000   -3,949065208e-01   -3,129009008e-01    1,202438474e-01   -2,915948331e-01    0,000000000e+00    0,000000000e+00    0,000000000e+00    0,000000000e+00
     1178000000   -4,665254653e-01   -6,840144843e-02   -1,050218567e-01   -4,192581475e-01    0,000000000e+00    0,000000000e+00    0,000000000e+00    0,000000000e+00
     1192000000   -3,692277670e-01    4,455260187e-02   -4,644656479e-01   -1,996183246e-01    0,000000000e+00    0,000000000e+00    0,000000000e+00    0,000000000e+00
     1206000000   -4,172408581e-01    1,223332584e-01   -2,832241654e-01    2,469068319e-01    0,000000000e+00    0,000000000e+00    0,000000000e+00    0,000000000e+00
     1220000000   -2,955144644e-01    3,252375722e-01    6,803419907e-03    1,700609326e-01    0,000000000e+00    0,000000000e+00    0,000000000e+00    0,000000000e+00
     1234000000   -6,569799036e-02    3,611463606e-01    4,130896553e-02    4,844717309e-02    0,000000000e+00    0,000000000e+00    0,000000000e+00    0,000000000e+00
     1248000000    1,082309932e-01    2,690772712e-01    4,375908989e-03    2,100341208e-02    0,000000000e+00    0,000000000e+00    0,000000000e+00    0,000000000e+00
     1262000000    2,139367610e-01    1,253068894e-01    2,885746304e-03    2,338559367e-02    0,000000000e+00    0,000000000e+00    0,000000000e+00    0,000000000e+00
     1276000000    2,379390448e-01   -4,211668670e-02    1,872917451e-02    2,876261622e-02    0,000000000e+00    0,000000000e+00    0,000000000e+00    0,000000000e+00
     1290000000    2,021563500e-01   -2,054059654e-01    4,810896143e-02    3,040502034e-02    0,000000000e+00    0,000000000e+00    0,000000000e+00    0,000000000e+00
     1304000000    9,139576554e-02   -3,579409719e-01    6,862016767e-02    9,572107345e-03    0,000000000e+00    0,000000000e+00    0,000000000e+00    0,000000000e+00
     1318000000   -9,990316629e-02   -4,498979747e-01    8,671940863e-02   -4,934144206e-03    0,000000000e+00    0,000000000e+00    0,000000000e+00    0,000000000e+00
     1332000000   -3,606469035e-01   -4,343942106e-01    8,804976195e-02   -1,193036232e-02    0,000000000e+00    0,000000000e+00    0,000000000e+00    0,000000000e+00
     1346000000   -5,891902447e-01   -2,409827113e-01    1,100324094e-01   -2,722508973e-03    0,000000000e+00    0,000000000e+00    0,000000000e+00    0,000000000e+00
     1360000000   -6,430310011e-01    6,868664175e-02    1,349846423e-01   -1,127767842e-02    0,000000000e+00    0,000000000e+00    0,000000000e+00    0,000000000e+00
     1374000000   -4,977580011e-01    3,279752135e-01    1,586769819e-01   -5,710712820e-02    0,000000000e+00    0,000000000e+00    0,000000000e+00    0,000000000e+00
     1388000000   -2,670343816e-01    4,275036454e-01    1,464938521e-01   -9,179386497e-02    0,000000000e+00    0,000000000e+00    0,000000000e+00    0,000000000e+00
     1402000000   -5,734325945e-02    4,024055898e-01    1,256814003e-01   -1,088056564e-01    0,000000000e+00    0,000000000e+00    0,000000000e+00    0,000000000e+00
     1416000000    8,962903172e-02    3,089318871e-01    1,076322123e-01   -9,564011544e-02    0,000000000e+00    0,000000000e+00    0,000000000e+00    0,000000000e+00
     1430000000    1,816654354e-01    1,740969568e-01    8,276782930e-02   -6,750129163e-02    0,000000000e+00    0,000000000e+00    0,000000000e+00    0,000000000e+00
     1444000000    2,195689082e-01    8,300869726e-03    9,208820015e-02   -2,796974964e-02    0,000000000e+00    0,000000000e+00    0,000000000e+00    0,000000000e+00
     1458000000    1,870725602e-01   -1,661079973e-01    1,143789738e-01    1,109371334e-02    0,000000000e+00    0,000000000e+00    0,000000000e+00    0,000000000e+00
     1472000000    7,538117468e-02   -3,423306644e-01    1,764718443e-01    5,087124929e-02    0,000000000e+00    0,000000000e+00    0,000000000e+00    0,000000000e+00
     1486000000   -1,425160170e-01   -4,590853453e-01    2,737041712e-01    7,602869719e-02    0,000000000e+00    0,000000000e+00    0,000000000e+00    0,000000000e+00
     1500000000   -4,461126029e-01   -4,572856724e-01    3,829385638e-01    3,010156564e-02    0,000000000e+00    0,000000000e+00    0,000000000e+00    0,000000000e+00
