! NanoVNA-App
! Date: 2025-09-26 09:38:54
! Start: 100MHz Stop: 1,5GHz Points: 101
! S-Parameter data: F S11 S21 S12 S22
# Hz S RI R 50
!     Frequency           S11_Real           S11_Imag           S21_Real           S21_Imag           S12_Real           S12_Imag           S22_Real           S22_Imag
      100000000   -2,877941541e-02   -4,433997907e-03    3,735365868e-01   -7,233231664e-01    0,000000000e+00    0,000000000e+00    0,000000000e+00    0,000000000e+00
      114000000   -1,666367985e-02    1,117833611e-02   -9,066144377e-02   -8,064695001e-01    0,000000000e+00    0,000000000e+00    0,000000000e+00    0,000000000e+00
      128000000    3,045627149e-03    1,038956083e-02   -5,163925886e-01   -6,208685040e-01    0,000000000e+00    0,000000000e+00    0,000000000e+00    0,000000000e+00
      142000000    1,414972637e-02   -2,969836118e-03   -7,689118981e-01   -2,358629405e-01    0,000000000e+00    0,000000000e+00    0,000000000e+00    0,000000000e+00
      156000000    1,551778708e-02   -1,411029045e-02   -7,669059634e-01    2,243568301e-01    0,000000000e+00    0,000000000e+00    0,000000000e+00    0,000000000e+00
      170000000    1,673014276e-02   -2,233959176e-02   -5,174573660e-01    6,066592932e-01    0,000000000e+00    0,000000000e+00    0,000000000e+00    0,000000000e+00
      184000000    2,100149728e-02   -3,730641305e-02   -9,981007874e-02    7,874658704e-01    0,000000000e+00    0,000000000e+00    0,000000000e+00    0,000000000e+00
      198000000    1,268007327e-02   -6,251443923e-02    3,457241058e-01    7,131339908e-01    0,000000000e+00    0,000000000e+00    0,000000000e+00    0,000000000e+00
      212000000   -1,912014186e-02   -8,098506927e-02    6,814792752e-01    4,090552330e-01    0,000000000e+00    0,000000000e+00    0,000000000e+00    0,000000000e+00
      226000000   -6,165372953e-02   -6,846196949e-02    7,979226112e-01   -3,290636837e-02    0,000000000e+00    0,000000000e+00    0,000000000e+00    0,000000000e+00
      240000000   -8,204612136e-02   -2,528892457e-02    6,458967924e-01   -4,706202745e-01    0,000000000e+00    0,000000000e+00    0,000000000e+00    0,000000000e+00
      254000000   -6,286183745e-02    1,723241061e-02    2,757896185e-01   -7,430735230e-01    0,000000000e+00    0,000000000e+00    0,000000000e+00    0,000000000e+00
      268000000   -2,327651717e-02    2,825674973e-02   -1,767803282e-01   -7,645137906e-01    0,000000000e+00    0,000000000e+00    0,000000000e+00    0,000000000e+00
      282000000    3,889088752e-03    1,137406565e-02   -5,618108511e-01   -5,386508107e-01    0,000000000e+00    0,000000000e+00    0,000000000e+00    0,000000000e+00
      296000000    9,333808906e-03   -8,036882617e-03   -7,626282573e-01   -1,400192380e-01    0,000000000e+00    0,000000000e+00    0,000000000e+00    0,000000000e+00
      310000000    1,091438811e-02   -1,626947522e-02   -7,125626206e-01    3,026327491e-01    0,000000000e+00    0,000000000e+00    0,000000000e+00    0,000000000e+00
      324000000    1,996608824e-02   -2,658110298e-02   -4,269173741e-01    6,401324868e-01    0,000000000e+00    0,000000000e+00    0,000000000e+00    0,000000000e+00
      338000000    2,581129782e-02   -5,286606029e-02   -7,803445682e-03    7,639644742e-01    0,000000000e+00    0,000000000e+00    0,000000000e+00    0,000000000e+00
      352000000    6,855301093e-03   -8,514645696e-02    4,091723561e-01    6,399980187e-01    0,000000000e+00    0,000000000e+00    0,000000000e+00    0,000000000e+00
      366000000   -3,532039374e-02   -9,567296505e-02    6,935322881e-01    3,093571663e-01    0,000000000e+00    0,000000000e+00    0,000000000e+00    0,000000000e+00
      380000000   -7,114941627e-02   -7,054513693e-02    7,497154474e-01   -1,293598115e-01    0,000000000e+00    0,000000000e+00    0,000000000e+00    0,000000000e+00
      394000000   -7,192212343e-02   -3,221085295e-02    5,452148914e-01   -5,267383456e-01    0,000000000e+00    0,000000000e+00    0,000000000e+00    0,000000000e+00
      408000000   -4,600907862e-02   -1,767122373e-02    1,563318968e-01   -7,370387912e-01    0,000000000e+00    0,000000000e+00    0,000000000e+00    0,000000000e+00
      422000000   -2,946544439e-02   -3,300407156e-02   -2,740348577e-01   -6,956958771e-01    0,000000000e+00    0,000000000e+00    0,000000000e+00    0,000000000e+00
      436000000   -4,320552945e-02   -5,117541552e-02   -6,096658707e-01   -4,270302057e-01    0,000000000e+00    0,000000000e+00    0,000000000e+00    0,000000000e+00
      450000000   -6,896949559e-02   -4,107746482e-02   -7,401694655e-01   -1,525536552e-02    0,000000000e+00    0,000000000e+00    0,000000000e+00    0,000000000e+00
      464000000   -7,155075669e-02   -8,315871470e-03   -6,149684191e-01    4,010065198e-01    0,000000000e+00    0,000000000e+00    0,000000000e+00    0,000000000e+00
      478000000   -4,355904832e-02    1,364792045e-02   -2,770538330e-01    6,703724265e-01    0,000000000e+00    0,000000000e+00    0,000000000e+00    0,000000000e+00
      492000000   -1,066463720e-02    4,504987039e-03    1,443781108e-01    7,001627088e-01    0,000000000e+00    0,000000000e+00    0,000000000e+00    0,000000000e+00
      506000000    1,364267198e-03   -2,137097344e-02    5,058342814e-01    4,966821074e-01    0,000000000e+00    0,000000000e+00    0,000000000e+00    0,000000000e+00
      520000000   -5,360126495e-03   -3,868598118e-02    6,922617555e-01    1,286574453e-01    0,000000000e+00    0,000000000e+00    0,000000000e+00    0,000000000e+00
      534000000   -7,789786905e-03   -4,497598857e-02    6,389741898e-01   -2,769564688e-01    0,000000000e+00    0,000000000e+00    0,000000000e+00    0,000000000e+00
      548000000   -2,438446740e-03   -5,944047496e-02    3,678562045e-01   -5,778915882e-01    0,000000000e+00    0,000000000e+00    0,000000000e+00    0,000000000e+00
      562000000   -1,117034256e-02   -8,982153982e-02   -1,862865128e-02   -6,759609580e-01    0,000000000e+00    0,000000000e+00    0,000000000e+00    0,000000000e+00
      576000000   -4,950475693e-02   -1,113957167e-01   -3,955964446e-01   -5,458045602e-01    0,000000000e+00    0,000000000e+00    0,000000000e+00    0,000000000e+00
      590000000   -9,939744323e-02   -9,597091377e-02   -6,393228769e-01   -2,272849828e-01    0,000000000e+00    0,000000000e+00    0,000000000e+00    0,000000000e+00
      604000000   -1,182006970e-01   -4,382609576e-02   -6,541194916e-01    1,877125204e-01    0,000000000e+00    0,000000000e+00    0,000000000e+00    0,000000000e+00
      618000000   -8,399920166e-02   -2,728720894e-03   -4,138329029e-01    5,320502520e-01    0,000000000e+00    0,000000000e+00    0,000000000e+00    0,000000000e+00
      632000000   -3,743976727e-02   -1,872600056e-02   -2,636269480e-02    6,586191654e-01    0,000000000e+00    0,000000000e+00    0,000000000e+00    0,000000000e+00
      646000000   -4,165367782e-02   -7,295995951e-02    3,565326929e-01    5,395271182e-01    0,000000000e+00    0,000000000e+00    0,000000000e+00    0,000000000e+00
      660000000   -1,120479181e-01   -9,478896856e-02    5,999656320e-01    2,113243192e-01    0,000000000e+00    0,000000000e+00    0,000000000e+00    0,000000000e+00
      674000000   -1,936458498e-01   -2,849617787e-02    5,806815624e-01   -2,199035585e-01    0,000000000e+00    0,000000000e+00    0,000000000e+00    0,000000000e+00
      688000000   -1,831323653e-01    1,256574243e-01    2,481331229e-01   -5,235828757e-01    0,000000000e+00    0,000000000e+00    0,000000000e+00    0,000000000e+00
      702000000   -7,325948216e-03    2,350431532e-01   -1,766811758e-01   -4,573602974e-01    0,000000000e+00    0,000000000e+00    0,000000000e+00    0,000000000e+00
      716000000    2,333859652e-01    1,334762126e-01   -3,141304553e-01   -1,213633642e-01    0,000000000e+00    0,000000000e+00    0,000000000e+00    0,000000000e+00
      730000000    3,080830276e-01   -1,534358114e-01   -1,548705846e-01    5,474715680e-02    0,000000000e+00    0,000000000e+00    0,000000000e+00    0,000000000e+00
      744000000    1,205950826e-01   -4,173356593e-01   -4,378328472e-02   -1,770325750e-02    0,000000000e+00    0,000000000e+00    0,000000000e+00    0,000000000e+00
      758000000   -2,376680970e-01   -4,504534006e-01   -1,374644637e-01   -1,033774987e-01    0,000000000e+00    0,000000000e+00    0,000000000e+00    0,000000000e+00
      772000000   -4,974581301e-01   -1,528827548e-01   -3,028401136e-01    1,664058864e-02    0,000000000e+00    0,000000000e+00    0,000000000e+00    0,000000000e+00
      786000000   -3,778066933e-01    2,153927833e-01   -2,643747032e-01    2,833884656e-01    0,000000000e+00    0,000000000e+00    0,000000000e+00    0,000000000e+00
      800000000   -6,392856687e-02    2,963045835e-01   -1,768139564e-02    4,220910966e-01    0,000000000e+00    0,000000000e+00    0,000000000e+00    0,000000000e+00
      814000000    1,410509199e-01    1,458193660e-01    2,455911189e-01    3,608478904e-01    0,000000000e+00    0,000000000e+00    0,000000000e+00    0,000000000e+00
      828000000    1,749675870e-01   -6,021091342e-02    4,208093584e-01    1,651611626e-01    0,000000000e+00    0,000000000e+00    0,000000000e+00    0,000000000e+00
      842000000    7,448497415e-02   -2,199993730e-01    4,608456492e-01   -1,087110043e-01    0,000000000e+00    0,000000000e+00    0,000000000e+00    0,000000000e+00
      856000000   -1,054964662e-01   -2,738648355e-01    3,206719756e-01   -3,814146519e-01    0,000000000e+00    0,000000000e+00    0,000000000e+00    0,000000000e+00
      870000000   -2,842465937e-01   -1,785764247e-01    7,421640679e-03   -5,171418786e-01    0,000000000e+00    0,000000000e+00    0,000000000e+00    0,000000000e+00
      884000000   -3,384296596e-01    3,042477928e-02   -3,352833092e-01   -3,926644921e-01    0,000000000e+00    0,000000000e+00    0,000000000e+00    0,000000000e+00
      898000000   -2,119946033e-01    2,126334012e-01   -4,811595678e-01   -7,175274193e-02    0,000000000e+00    0,000000000e+00    0,000000000e+00    0,000000000e+00
      912000000   -5,367724691e-03    2,341013402e-01   -4,045703709e-01    2,517671585e-01    0,000000000e+00    0,000000000e+00    0,000000000e+00    0,000000000e+00
      926000000    1,479006708e-01    1,301198453e-01   -1,763048172e-01    4,097804129e-01    0,000000000e+00    0,000000000e+00    0,000000000e+00    0,000000000e+00
      940000000    2,028033882e-01   -3,781778365e-02    5,382974818e-02    4,204103649e-01    0,000000000e+00    0,000000000e+00    0,000000000e+00    0,000000000e+00
      954000000    1,585666537e-01   -1,964537650e-01    2,534064353e-01    3,418579102e-01    0,000000000e+00    0,000000000e+00    0,000000000e+00    0,000000000e+00
      968000000    2,769069374e-02   -3,180650175e-01    4,037820399e-01    1,814246178e-01    0,000000000e+00    0,000000000e+00    0,000000000e+00    0,000000000e+00
      982000000   -1,628229022e-01   -3,307575881e-01    4,698739350e-01   -6,553164870e-02    0,000000000e+00    0,000000000e+00    0,000000000e+00    0,000000000e+00
      996000000   -3,242122233e-01   -2,140621990e-01    3,601385653e-01   -3,517678380e-01    0,000000000e+00    0,000000000e+00    0,000000000e+00    0,000000000e+00
     1010000000   -3,377629220e-01   -1,290819515e-02    2,699541859e-02   -5,199795961e-01    0,000000000e+00    0,000000000e+00    0,000000000e+00    0,000000000e+00
     1024000000   -2,035731673e-01    5,732550099e-02   -3,732416034e-01   -3,427622318e-01    0,000000000e+00    0,000000000e+00    0,000000000e+00    0,000000000e+00
     1038000000   -2,158780247e-01   -3,230970725e-02   -4,180460274e-01    1,490350664e-01    0,000000000e+00    0,000000000e+00    0,000000000e+00    0,000000000e+00
     1052000000   -3,360115886e-01    1,633303165e-01   -1,090468373e-03    2,636591792e-01    0,000000000e+00    0,000000000e+00    0,000000000e+00    0,000000000e+00
     1066000000   -1,037105247e-01    3,302718699e-01    7,859683037e-02    7,410531491e-02    0,000000000e+00    0,000000000e+00    0,000000000e+00    0,000000000e+00
     1080000000    1,260786802e-01    2,485772073e-01    3,705673665e-02    3,428851813e-02    0,000000000e+00    0,000000000e+00    0,000000000e+00    0,000000000e+00
     1094000000    2,278541625e-01    8,004234731e-02    4,539272189e-02    3,953193128e-02    0,000000000e+00    0,000000000e+00    0,000000000e+00    0,000000000e+00
     1108000000    2,442253977e-01   -9,622141719e-02    7,385562360e-02    3,343965113e-02    0,000000000e+00    0,000000000e+00    0,000000000e+00    0,000000000e+00
     1122000000    1,825802028e-01   -2,594031394e-01    1,112561151e-01    3,719953587e-03    0,000000000e+00    0,000000000e+00    0,000000000e+00    0,000000000e+00
     1136000000    3,529726714e-02   -3,833338618e-01    1,483996660e-01   -4,952208698e-02    0,000000000e+00    0,000000000e+00    0,000000000e+00    0,000000000e+00
     1150000000   -1,738319695e-01   -4,273688495e-01    1,635465324e-01   -1,456611902e-01    0,000000000e+00    0,000000000e+00    0,000000000e+00    0,000000000e+00
     1164000000   -3,957971334e-01   -3,107574582e-01    1,188963652e-01   -2,900840044e-01    0,000000000e+00    0,000000000e+00    0,000000000e+00    0,000000000e+00
     1178000000   -4,673354626e-01   -7,475483418e-02   -1,061425731e-01   -4,144634902e-01    0,000000000e+00    0,000000000e+00    0,000000000e+00    0,000000000e+00
     1192000000   -3,666958809e-01    4,414079338e-02   -4,635276794e-01   -1,960414797e-01    0,000000000e+00    0,000000000e+00    0,000000000e+00    0,000000000e+00
     1206000000   -4,219452441e-01    1,177463904e-01   -2,780202031e-01    2,433556765e-01    0,000000000e+00    0,000000000e+00    0,000000000e+00    0,000000000e+00
     1220000000   -3,001406789e-01    3,303151727e-01    1,125004888e-02    1,768179834e-01    0,000000000e+00    0,000000000e+00    0,000000000e+00    0,000000000e+00
     1234000000   -6,758365780e-02    3,650897741e-01    4,167036712e-02    5,002825335e-02    0,000000000e+00    0,000000000e+00    0,000000000e+00    0,000000000e+00
     1248000000    1,062737852e-01    2,721202672e-01    5,198879167e-03    1,767823659e-02    0,000000000e+00    0,000000000e+00    0,000000000e+00    0,000000000e+00
     1262000000    2,073408514e-01    1,216417998e-01   -1,049330342e-03    1,988954097e-02    0,000000000e+00    0,000000000e+00    0,000000000e+00    0,000000000e+00
     1276000000    2,359899879e-01   -4,268552363e-02    1,547535695e-02    2,805581875e-02    0,000000000e+00    0,000000000e+00    0,000000000e+00    0,000000000e+00
     1290000000    2,038026005e-01   -2,052755058e-01    4,920369759e-02    2,872024290e-02    0,000000000e+00    0,000000000e+00    0,000000000e+00    0,000000000e+00
     1304000000    8,934110403e-02   -3,582589626e-01    6,823720038e-02    5,947887432e-03    0,000000000e+00    0,000000000e+00    0,000000000e+00    0,000000000e+00
     1318000000   -1,020900458e-01   -4,503686130e-01    8,303195983e-02   -2,777313581e-03    0,000000000e+00    0,000000000e+00    0,000000000e+00    0,000000000e+00
     1332000000   -3,573187590e-01   -4,365968406e-01    8,846729994e-02   -1,199766435e-02    0,000000000e+00    0,000000000e+00    0,000000000e+00    0,000000000e+00
     1346000000   -5,898136497e-01   -2,411993295e-01    1,117158905e-01   -6,695511285e-03    0,000000000e+00    0,000000000e+00    0,000000000e+00    0,000000000e+00
     1360000000   -6,469904780e-01    6,660589576e-02    1,383348554e-01   -2,482030541e-02    0,000000000e+00    0,000000000e+00    0,000000000e+00    0,000000000e+00
     1374000000   -4,992658496e-01    3,199695945e-01    1,629184037e-01   -6,166729331e-02    0,000000000e+00    0,000000000e+00    0,000000000e+00    0,000000000e+00
     1388000000   -2,678182423e-01    4,205951393e-01    1,650054455e-01   -9,177637845e-02    0,000000000e+00    0,000000000e+00    0,000000000e+00    0,000000000e+00
     1402000000   -6,537215412e-02    4,018149972e-01    1,298696399e-01   -1,038165689e-01    0,000000000e+00    0,000000000e+00    0,000000000e+00    0,000000000e+00
     1416000000    8,497451246e-02    3,012003005e-01    1,047549322e-01   -9,654216468e-02    0,000000000e+00    0,000000000e+00    0,000000000e+00    0,000000000e+00
     1430000000    1,903937012e-01    1,777553111e-01    9,234535694e-02   -5,784897134e-02    0,000000000e+00    0,000000000e+00    0,000000000e+00    0,000000000e+00
     1444000000    2,206518799e-01    1,131002884e-02    9,965454787e-02   -2,332552336e-02    0,000000000e+00    0,000000000e+00    0,000000000e+00    0,000000000e+00
     1458000000    1,943485588e-01   -1,615930349e-01    1,145111546e-01    2,315011993e-02    0,000000000e+00    0,000000000e+00    0,000000000e+00    0,000000000e+00
     1472000000    8,354531229e-02   -3,401736915e-01    1,787422746e-01    5,263197422e-02    0,000000000e+00    0,000000000e+00    0,000000000e+00    0,000000000e+00
     1486000000   -1,432206631e-01   -4,573002458e-01    2,649960816e-01    9,169006348e-02    0,000000000e+00    0,000000000e+00    0,000000000e+00    0,000000000e+00
     1500000000   -4,399636388e-01   -4,516680241e-01    3,655454516e-01    3,330717981e-02    0,000000000e+00    0,000000000e+00    0,000000000e+00    0,000000000e+00
