! NanoVNA-App
! Date: 2025-09-26 09:39:34
! Start: 100MHz Stop: 1,5GHz Points: 101
! S-Parameter data: F S11 S21 S12 S22
# Hz S RI R 50
!     Frequency           S11_Real           S11_Imag           S21_Real           S21_Imag           S12_Real           S12_Imag           S22_Real           S22_Imag
      100000000   -2,877760492e-02   -4,426864907e-03    3,735366166e-01   -7,233650684e-01    0,000000000e+00    0,000000000e+00    0,000000000e+00    0,000000000e+00
      114000000   -1,664109342e-02    1,117416471e-02   -9,060439467e-02   -8,065480590e-01    0,000000000e+00    0,000000000e+00    0,000000000e+00    0,000000000e+00
      128000000    3,005277365e-03    1,044224575e-02   -5,160590410e-01   -6,207314730e-01    0,000000000e+00    0,000000000e+00    0,000000000e+00    0,000000000e+00
      142000000    1,414144784e-02   -2,984964289e-03   -7,688781619e-01   -2,357205749e-01    0,000000000e+00    0,000000000e+00    0,000000000e+00    0,000000000e+00
      156000000    1,574801840e-02   -1,503492799e-02   -7,722501755e-01    2,259373665e-01    0,000000000e+00    0,000000000e+00    0,000000000e+00    0,000000000e+00
      170000000    1,674118638e-02   -2,230505645e-02   -5,172462463e-01    6,068173051e-01    0,000000000e+00    0,000000000e+00    0,000000000e+00    0,000000000e+00
      184000000    2,101305500e-02   -3,732925653e-02   -9,978297353e-02    7,878175378e-01    0,000000000e+00    0,000000000e+00    0,000000000e+00    0,000000000e+00
      198000000    1,269005984e-02   -6,252831966e-02    3,454657495e-01    7,134533525e-01    0,000000000e+00    0,000000000e+00    0,000000000e+00    0,000000000e+00
      212000000   -1,912999898e-02   -8,106073737e-02    6,814887524e-01    4,089604914e-01    0,000000000e+00    0,000000000e+00    0,000000000e+00    0,000000000e+00
      226000000   -6,166613474e-02   -6,856147945e-02    7,978711724e-01   -3,284197673e-02    0,000000000e+00    0,000000000e+00    0,000000000e+00    0,000000000e+00
      240000000   -8,203215152e-02   -2,540651523e-02    6,458959579e-01   -4,705403447e-01    0,000000000e+00    0,000000000e+00    0,000000000e+00    0,000000000e+00
      254000000   -6,293604523e-02    1,725911349e-02    2,757750750e-01   -7,430070043e-01    0,000000000e+00    0,000000000e+00    0,000000000e+00    0,000000000e+00
      268000000   -2,323333174e-02    2,845332585e-02   -1,769114137e-01   -7,646514177e-01    0,000000000e+00    0,000000000e+00    0,000000000e+00    0,000000000e+00
      282000000    3,955874126e-03    1,131899748e-02   -5,617708564e-01   -5,384188294e-01    0,000000000e+00    0,000000000e+00    0,000000000e+00    0,000000000e+00
      296000000    9,339189157e-03   -8,036691695e-03   -7,624848485e-01   -1,401412040e-01    0,000000000e+00    0,000000000e+00    0,000000000e+00    0,000000000e+00
      310000000    1,081655081e-02   -1,595810987e-02   -7,138779163e-01    3,023744822e-01    0,000000000e+00    0,000000000e+00    0,000000000e+00    0,000000000e+00
      324000000    1,973162964e-02   -2,662189864e-02   -4,263929427e-01    6,393232346e-01    0,000000000e+00    0,000000000e+00    0,000000000e+00    0,000000000e+00
      338000000    2,549253032e-02   -5,288117751e-02   -8,280145936e-03    7,625083923e-01    0,000000000e+00    0,000000000e+00    0,000000000e+00    0,000000000e+00
      352000000    6,931853946e-03   -8,512280136e-02    4,087303877e-01    6,403094530e-01    0,000000000e+00    0,000000000e+00    0,000000000e+00    0,000000000e+00
      366000000   -3,511427343e-02   -9,554413706e-02    6,938047409e-01    3,098172545e-01    0,000000000e+00    0,000000000e+00    0,000000000e+00    0,000000000e+00
      380000000   -7,130372524e-02   -7,039736956e-02    7,487745285e-01   -1,294511408e-01    0,000000000e+00    0,000000000e+00    0,000000000e+00    0,000000000e+00
      394000000   -7,162188739e-02   -3,176244348e-02    5,450189710e-01   -5,256937146e-01    0,000000000e+00    0,000000000e+00    0,000000000e+00    0,000000000e+00
      408000000   -4,597335309e-02   -1,747162081e-02    1,581904292e-01   -7,366440892e-01    0,000000000e+00    0,000000000e+00    0,000000000e+00    0,000000000e+00
      422000000   -2,968857251e-02   -3,326344490e-02   -2,742880285e-01   -6,939128041e-01    0,000000000e+00    0,000000000e+00    0,000000000e+00    0,000000000e+00
      436000000   -4,297214374e-02   -5,096696690e-02   -6,097131371e-01   -4,262634814e-01    0,000000000e+00    0,000000000e+00    0,000000000e+00    0,000000000e+00
      450000000   -6,883806735e-02   -4,107584432e-02   -7,399488688e-01   -1,512814593e-02    0,000000000e+00    0,000000000e+00    0,000000000e+00    0,000000000e+00
      464000000   -7,170525938e-02   -8,504410274e-03   -6,147343516e-01    4,013742208e-01    0,000000000e+00    0,000000000e+00    0,000000000e+00    0,000000000e+00
      478000000   -4,319872707e-02    1,375597063e-02   -2,760224044e-01    6,705355048e-01    0,000000000e+00    0,000000000e+00    0,000000000e+00    0,000000000e+00
      492000000   -1,039179694e-02    4,702923354e-03    1,452284306e-01    7,005982995e-01    0,000000000e+00    0,000000000e+00    0,000000000e+00    0,000000000e+00
      506000000    1,158626983e-03   -2,153990045e-02    5,050371289e-01    4,966528416e-01    0,000000000e+00    0,000000000e+00    0,000000000e+00    0,000000000e+00
      520000000   -5,230352748e-03   -3,869260475e-02    6,922169328e-01    1,292639524e-01    0,000000000e+00    0,000000000e+00    0,000000000e+00    0,000000000e+00
      534000000   -7,614000235e-03   -4,513568431e-02    6,389151216e-01   -2,766523957e-01    0,000000000e+00    0,000000000e+00    0,000000000e+00    0,000000000e+00
      548000000   -2,387477551e-03   -5,942878872e-02    3,685486317e-01   -5,774779916e-01    0,000000000e+00    0,000000000e+00    0,000000000e+00    0,000000000e+00
      562000000   -1,149285957e-02   -8,960787207e-02   -1,828421466e-02   -6,750402451e-01    0,000000000e+00    0,000000000e+00    0,000000000e+00    0,000000000e+00
      576000000   -4,928191751e-02   -1,117247120e-01   -3,955906332e-01   -5,458843708e-01    0,000000000e+00    0,000000000e+00    0,000000000e+00    0,000000000e+00
      590000000   -9,992904961e-02   -9,620960057e-02   -6,377472281e-01   -2,291520089e-01    0,000000000e+00    0,000000000e+00    0,000000000e+00    0,000000000e+00
      604000000   -1,178780645e-01   -4,357103258e-02   -6,536026597e-01    1,888128370e-01    0,000000000e+00    0,000000000e+00    0,000000000e+00    0,000000000e+00
      618000000   -8,387354016e-02   -2,566372277e-03   -4,143020213e-01    5,315294266e-01    0,000000000e+00    0,000000000e+00    0,000000000e+00    0,000000000e+00
      632000000   -3,810723126e-02   -1,869218238e-02   -2,545615844e-02    6,597655416e-01    0,000000000e+00    0,000000000e+00    0,000000000e+00    0,000000000e+00
      646000000   -4,125734419e-02   -7,203879952e-02    3,572059572e-01    5,392777324e-01    0,000000000e+00    0,000000000e+00    0,000000000e+00    0,000000000e+00
      660000000   -1,116400287e-01   -9,564264864e-02    5,997781157e-01    2,113797665e-01    0,000000000e+00    0,000000000e+00    0,000000000e+00    0,000000000e+00
      674000000   -1,940487176e-01   -2,739961818e-02    5,805938244e-01   -2,201365530e-01    0,000000000e+00    0,000000000e+00    0,000000000e+00    0,000000000e+00
      688000000   -1,826957762e-01    1,264214665e-01    2,463532537e-01   -5,233733058e-01    0,000000000e+00    0,000000000e+00    0,000000000e+00    0,000000000e+00
      702000000   -3,378559602e-03    2,342167646e-01   -1,814522594e-01   -4,462443590e-01    0,000000000e+00    0,000000000e+00    0,000000000e+00    0,000000000e+00
      716000000    2,340897769e-01    1,336396337e-01   -3,136573732e-01   -1,206450090e-01    0,000000000e+00    0,000000000e+00    0,000000000e+00    0,000000000e+00
      730000000    3,077402413e-01   -1,539059579e-01   -1,540415585e-01    5,468236282e-02    0,000000000e+00    0,000000000e+00    0,000000000e+00    0,000000000e+00
      744000000    1,196341664e-01   -4,171321094e-01   -4,340302944e-02   -1,823556423e-02    0,000000000e+00    0,000000000e+00    0,000000000e+00    0,000000000e+00
      758000000   -2,397899628e-01   -4,506634772e-01   -1,376662701e-01   -1,040207073e-01    0,000000000e+00    0,000000000e+00    0,000000000e+00    0,000000000e+00
      772000000   -4,978193343e-01   -1,520978212e-01   -3,031244278e-01    1,637247391e-02    0,000000000e+00    0,000000000e+00    0,000000000e+00    0,000000000e+00
      786000000   -3,774449527e-01    2,156826258e-01   -2,652606070e-01    2,840199172e-01    0,000000000e+00    0,000000000e+00    0,000000000e+00    0,000000000e+00
      800000000   -6,325399876e-02    2,959569097e-01   -1,708752848e-02    4,229073822e-01    0,000000000e+00    0,000000000e+00    0,000000000e+00    0,000000000e+00
      814000000    1,413177699e-01    1,458557546e-01    2,454321831e-01    3,606316447e-01    0,000000000e+00    0,000000000e+00    0,000000000e+00    0,000000000e+00
      828000000    1,746974289e-01   -6,075316668e-02    4,214448929e-01    1,653361320e-01    0,000000000e+00    0,000000000e+00    0,000000000e+00    0,000000000e+00
      842000000    7,419958711e-02   -2,196777612e-01    4,608305991e-01   -1,083793640e-01    0,000000000e+00    0,000000000e+00    0,000000000e+00    0,000000000e+00
      856000000   -1,059166119e-01   -2,728231847e-01    3,213433325e-01   -3,810407519e-01    0,000000000e+00    0,000000000e+00    0,000000000e+00    0,000000000e+00
      870000000   -2,847522497e-01   -1,786115766e-01    6,649037823e-03   -5,184963346e-01    0,000000000e+00    0,000000000e+00    0,000000000e+00    0,000000000e+00
      884000000   -3,375892639e-01    3,093674779e-02   -3,345768452e-01   -3,927872181e-01    0,000000000e+00    0,000000000e+00    0,000000000e+00    0,000000000e+00
      898000000   -2,115993202e-01    2,116528600e-01   -4,816628695e-01   -7,230815291e-02    0,000000000e+00    0,000000000e+00    0,000000000e+00    0,000000000e+00
      912000000   -6,283221301e-03    2,339395136e-01   -3,951410651e-01    2,576546371e-01    0,000000000e+00    0,000000000e+00    0,000000000e+00    0,000000000e+00
      926000000    1,480483264e-01    1,299622059e-01   -1,741432697e-01    4,098950922e-01    0,000000000e+00    0,000000000e+00    0,000000000e+00    0,000000000e+00
      940000000    2,029098719e-01   -3,370496631e-02    5,580814183e-02    4,217244685e-01    0,000000000e+00    0,000000000e+00    0,000000000e+00    0,000000000e+00
      954000000    1,568107158e-01   -2,006659806e-01    2,525370717e-01    3,429856896e-01    0,000000000e+00    0,000000000e+00    0,000000000e+00    0,000000000e+00
      968000000    2,713837475e-02   -3,135003448e-01    4,035491645e-01    1,814110875e-01    0,000000000e+00    0,000000000e+00    0,000000000e+00    0,000000000e+00
      982000000   -1,632166803e-01   -3,307481408e-01    4,691037834e-01   -6,407772750e-02    0,000000000e+00    0,000000000e+00    0,000000000e+00    0,000000000e+00
      996000000   -3,262257576e-01   -2,082272917e-01    3,600716889e-01   -3,545361459e-01    0,000000000e+00    0,000000000e+00    0,000000000e+00    0,000000000e+00
     1010000000   -3,334421813e-01   -1,674375124e-02    2,415419370e-02   -5,207825303e-01    0,000000000e+00    0,000000000e+00    0,000000000e+00    0,000000000e+00
     1024000000   -2,043557912e-01    5,302051827e-02   -3,740965128e-01   -3,402929008e-01    0,000000000e+00    0,000000000e+00    0,000000000e+00    0,000000000e+00
     1038000000   -2,202111334e-01   -3,284904733e-02   -4,148780704e-01    1,542647481e-01    0,000000000e+00    0,000000000e+00    0,000000000e+00    0,000000000e+00
     1052000000   -3,360252082e-01    1,705183536e-01    1,184261171e-03    2,577868402e-01    0,000000000e+00    0,000000000e+00    0,000000000e+00    0,000000000e+00
     1066000000   -9,561734647e-02    3,370926082e-01    7,334140688e-02    6,836309284e-02    0,000000000e+00    0,000000000e+00    0,000000000e+00    0,000000000e+00
     1080000000    1,251830459e-01    2,435835153e-01    3,582614660e-02    3,474003822e-02    0,000000000e+00    0,000000000e+00    0,000000000e+00    0,000000000e+00
     1094000000    2,335728407e-01    7,935099304e-02    4,258996621e-02    4,014465585e-02    0,000000000e+00    0,000000000e+00    0,000000000e+00    0,000000000e+00
     1108000000    2,419675291e-01   -9,503108263e-02    7,264492661e-02    3,270321339e-02    0,000000000e+00    0,000000000e+00    0,000000000e+00    0,000000000e+00
     1122000000    1,814049631e-01   -2,605294287e-01    1,122415364e-01    3,813043470e-03    0,000000000e+00    0,000000000e+00    0,000000000e+00    0,000000000e+00
     1136000000    3,797517717e-02   -3,832991421e-01    1,479448527e-01   -5,030196905e-02    0,000000000e+00    0,000000000e+00    0,000000000e+00    0,000000000e+00
     1150000000   -1,756945997e-01   -4,214094281e-01    1,651128531e-01   -1,439309567e-01    0,000000000e+00    0,000000000e+00    0,000000000e+00    0,000000000e+00
     1164000000   -3,964228928e-01   -3,122122288e-01    1,176373139e-01   -2,894085646e-01    0,000000000e+00    0,000000000e+00    0,000000000e+00    0,000000000e+00
     1178000000   -4,636261165e-01   -6,866391748e-02   -1,037247032e-01   -4,183022678e-01    0,000000000e+00    0,000000000e+00    0,000000000e+00    0,000000000e+00
     1192000000   -3,664502501e-01    3,507965058e-02   -4,621890783e-01   -2,005666345e-01    0,000000000e+00    0,000000000e+00    0,000000000e+00    0,000000000e+00
     1206000000   -4,211541116e-01    1,249048039e-01   -2,776944637e-01    2,451594472e-01    0,000000000e+00    0,000000000e+00    0,000000000e+00    0,000000000e+00
     1220000000   -3,012531996e-01    3,299806416e-01    9,841364808e-03    1,749236882e-01    0,000000000e+00    0,000000000e+00    0,000000000e+00    0,000000000e+00
     1234000000   -6,855012476e-02    3,663156331e-01    3,579477966e-02    5,354275182e-02    0,000000000e+00    0,000000000e+00    0,000000000e+00    0,000000000e+00
     1248000000    1,080601066e-01    2,694586217e-01    6,183288060e-03    1,590901427e-02    0,000000000e+00    0,000000000e+00    0,000000000e+00    0,000000000e+00
     1262000000    2,124112397e-01    1,184382290e-01    9,912190726e-04    1,753255539e-02    0,000000000e+00    0,000000000e+00    0,000000000e+00    0,000000000e+00
     1276000000    2,435643971e-01   -4,317404330e-02    2,168798260e-02    2,525475621e-02    0,000000000e+00    0,000000000e+00    0,000000000e+00    0,000000000e+00
     1290000000    2,031099945e-01   -2,093090713e-01    5,259250849e-02    2,469985373e-02    0,000000000e+00    0,000000000e+00    0,000000000e+00    0,000000000e+00
     1304000000    8,842615038e-02   -3,535484374e-01    6,972053647e-02    1,622590050e-02    0,000000000e+00    0,000000000e+00    0,000000000e+00    0,000000000e+00
     1318000000   -9,929928929e-02   -4,489890039e-01    8,455304801e-02   -4,975075833e-03    0,000000000e+00    0,000000000e+00    0,000000000e+00    0,000000000e+00
     1332000000   -3,577507734e-01   -4,340184033e-01    9,164690971e-02   -8,870004676e-03    0,000000000e+00    0,000000000e+00    0,000000000e+00    0,000000000e+00
     1346000000   -5,857836604e-01   -2,497467548e-01    1,095488742e-01   -1,345653087e-02    0,000000000e+00    0,000000000e+00    0,000000000e+00    0,000000000e+00
     1360000000   -6,478448510e-01    7,720685750e-02    1,432070434e-01   -2,080458030e-02    0,000000000e+00    0,000000000e+00    0,000000000e+00    0,000000000e+00
     1374000000   -4,923571944e-01    3,254852295e-01    1,639287472e-01   -5,430768058e-02    0,000000000e+00    0,000000000e+00    0,000000000e+00    0,000000000e+00
     1388000000   -2,716655433e-01    4,241032898e-01    1,433688104e-01   -9,140250087e-02    0,000000000e+00    0,000000000e+00    0,000000000e+00    0,000000000e+00
     1402000000   -6,165949628e-02    3,958142698e-01    1,234853268e-01   -1,096757129e-01    0,000000000e+00    0,000000000e+00    0,000000000e+00    0,000000000e+00
     1416000000    9,138647467e-02    3,077639341e-01    1,086499095e-01   -8,571109921e-02    0,000000000e+00    0,000000000e+00    0,000000000e+00    0,000000000e+00
     1430000000    1,863434166e-01    1,755717844e-01    1,125382558e-01   -5,931794643e-02    0,000000000e+00    0,000000000e+00    0,000000000e+00    0,000000000e+00
     1444000000    2,219055891e-01    1,093372051e-02    1,066073030e-01   -3,373511881e-02    0,000000000e+00    0,000000000e+00    0,000000000e+00    0,000000000e+00
     1458000000    1,889206916e-01   -1,648166776e-01    1,158805564e-01    1,152737625e-02    0,000000000e+00    0,000000000e+00    0,000000000e+00    0,000000000e+00
     1472000000    7,249311358e-02   -3,390980959e-01    1,769265383e-01    5,653530359e-02    0,000000000e+00    0,000000000e+00    0,000000000e+00    0,000000000e+00
     1486000000   -1,407717168e-01   -4,569449127e-01    2,737602592e-01    9,286881983e-02    0,000000000e+00    0,000000000e+00    0,000000000e+00    0,000000000e+00
     1500000000   -4,438245296e-01   -4,476536810e-01    3,846445382e-01    4,842434451e-02    0,000000000e+00    0,000000000e+00    0,000000000e+00    0,000000000e+00
