! NanoVNA-App
! Date: 2025-09-26 09:39:30
! Start: 100MHz Stop: 1,5GHz Points: 101
! S-Parameter data: F S11 S21 S12 S22
# Hz S RI R 50
!     Frequency           S11_Real           S11_Imag           S21_Real           S21_Imag           S12_Real           S12_Imag           S22_Real           S22_Imag
      100000000   -2,879418433e-02   -4,438580479e-03    3,736143410e-01   -7,233732939e-01    0,000000000e+00    0,000000000e+00    0,000000000e+00    0,000000000e+00
      114000000   -1,666176878e-02    1,121294778e-02   -9,044896066e-02   -8,064723611e-01    0,000000000e+00    0,000000000e+00    0,000000000e+00    0,000000000e+00
      128000000    2,986045089e-03    1,045164373e-02   -5,160347223e-01   -6,207255721e-01    0,000000000e+00    0,000000000e+00    0,000000000e+00    0,000000000e+00
      142000000    1,412946638e-02   -2,993371105e-03   -7,687237263e-01   -2,359875441e-01    0,000000000e+00    0,000000000e+00    0,000000000e+00    0,000000000e+00
      156000000    1,629186422e-02   -1,480056532e-02   -7,691380978e-01    2,264082879e-01    0,000000000e+00    0,000000000e+00    0,000000000e+00    0,000000000e+00
      170000000    1,677392609e-02   -2,232578211e-02   -5,174917579e-01    6,067994237e-01    0,000000000e+00    0,000000000e+00    0,000000000e+00    0,000000000e+00
      184000000    2,099578083e-02   -3,733376786e-02   -9,993615001e-02    7,879314423e-01    0,000000000e+00    0,000000000e+00    0,000000000e+00    0,000000000e+00
      198000000    1,265178528e-02   -6,250760704e-02    3,453126252e-01    7,132433653e-01    0,000000000e+00    0,000000000e+00    0,000000000e+00    0,000000000e+00
      212000000   -1,914036274e-02   -8,098890632e-02    6,812483072e-01    4,088407457e-01    0,000000000e+00    0,000000000e+00    0,000000000e+00    0,000000000e+00
      226000000   -6,170509383e-02   -6,852462143e-02    7,978877425e-01   -3,283065557e-02    0,000000000e+00    0,000000000e+00    0,000000000e+00    0,000000000e+00
      240000000   -8,211582899e-02   -2,529769205e-02    6,459222436e-01   -4,706468284e-01    0,000000000e+00    0,000000000e+00    0,000000000e+00    0,000000000e+00
      254000000   -6,297183782e-02    1,724859141e-02    2,757810652e-01   -7,429589629e-01    0,000000000e+00    0,000000000e+00    0,000000000e+00    0,000000000e+00
      268000000   -2,335767820e-02    2,851949632e-02   -1,768290699e-01   -7,640919685e-01    0,000000000e+00    0,000000000e+00    0,000000000e+00    0,000000000e+00
      282000000    3,959395923e-03    1,134949829e-02   -5,618612766e-01   -5,382759571e-01    0,000000000e+00    0,000000000e+00    0,000000000e+00    0,000000000e+00
      296000000    9,462297894e-03   -8,188925683e-03   -7,625890970e-01   -1,401754916e-01    0,000000000e+00    0,000000000e+00    0,000000000e+00    0,000000000e+00
      310000000    1,089986414e-02   -1,607766934e-02   -7,126500607e-01    3,025614023e-01    0,000000000e+00    0,000000000e+00    0,000000000e+00    0,000000000e+00
      324000000    1,998193003e-02   -2,672053874e-02   -4,275341928e-01    6,393292546e-01    0,000000000e+00    0,000000000e+00    0,000000000e+00    0,000000000e+00
      338000000    2,557929978e-02   -5,291498825e-02   -9,345352650e-03    7,613931298e-01    0,000000000e+00    0,000000000e+00    0,000000000e+00    0,000000000e+00
      352000000    6,936173886e-03   -8,507400006e-02    4,075875580e-01    6,406352520e-01    0,000000000e+00    0,000000000e+00    0,000000000e+00    0,000000000e+00
      366000000   -3,530866280e-02   -9,582347423e-02    6,936964989e-01    3,093832731e-01    0,000000000e+00    0,000000000e+00    0,000000000e+00    0,000000000e+00
      380000000   -7,117108256e-02   -7,027588785e-02    7,490390539e-01   -1,291092038e-01    0,000000000e+00    0,000000000e+00    0,000000000e+00    0,000000000e+00
      394000000   -7,191345096e-02   -3,232835606e-02    5,450776219e-01   -5,249628425e-01    0,000000000e+00    0,000000000e+00    0,000000000e+00    0,000000000e+00
      408000000   -4,609304294e-02   -1,753469370e-02    1,572407484e-01   -7,347913384e-01    0,000000000e+00    0,000000000e+00    0,000000000e+00    0,000000000e+00
      422000000   -2,950862050e-02   -3,333070874e-02   -2,740988433e-01   -6,952695847e-01    0,000000000e+00    0,000000000e+00    0,000000000e+00    0,000000000e+00
      436000000   -4,309110716e-02   -5,093117803e-02   -6,092877388e-01   -4,271314740e-01    0,000000000e+00    0,000000000e+00    0,000000000e+00    0,000000000e+00
      450000000   -6,843931228e-02   -4,100711644e-02   -7,395076752e-01   -1,539423130e-02    0,000000000e+00    0,000000000e+00    0,000000000e+00    0,000000000e+00
      464000000   -7,192850113e-02   -8,366362192e-03   -6,148791313e-01    4,011746049e-01    0,000000000e+00    0,000000000e+00    0,000000000e+00    0,000000000e+00
      478000000   -4,324820265e-02    1,390016358e-02   -2,769850194e-01    6,693828702e-01    0,000000000e+00    0,000000000e+00    0,000000000e+00    0,000000000e+00
      492000000   -1,043863967e-02    4,829935730e-03    1,451066434e-01    7,011674643e-01    0,000000000e+00    0,000000000e+00    0,000000000e+00    0,000000000e+00
      506000000    1,209899550e-03   -2,161333710e-02    5,052167177e-01    4,966849089e-01    0,000000000e+00    0,000000000e+00    0,000000000e+00    0,000000000e+00
      520000000   -5,299893208e-03   -3,879791871e-02    6,911498904e-01    1,298172474e-01    0,000000000e+00    0,000000000e+00    0,000000000e+00    0,000000000e+00
      534000000   -7,828756236e-03   -4,469027743e-02    6,383528113e-01   -2,768461704e-01    0,000000000e+00    0,000000000e+00    0,000000000e+00    0,000000000e+00
      548000000   -2,428713022e-03   -5,929360539e-02    3,682648838e-01   -5,777706504e-01    0,000000000e+00    0,000000000e+00    0,000000000e+00    0,000000000e+00
      562000000   -1,101223286e-02   -8,959697187e-02   -1,883412153e-02   -6,765719652e-01    0,000000000e+00    0,000000000e+00    0,000000000e+00    0,000000000e+00
      576000000   -4,947562888e-02   -1,118977591e-01   -3,963777125e-01   -5,457896590e-01    0,000000000e+00    0,000000000e+00    0,000000000e+00    0,000000000e+00
      590000000   -9,995745122e-02   -9,613130242e-02   -6,414362192e-01   -2,275729179e-01    0,000000000e+00    0,000000000e+00    0,000000000e+00    0,000000000e+00
      604000000   -1,181209311e-01   -4,359344766e-02   -6,541912556e-01    1,883093417e-01    0,000000000e+00    0,000000000e+00    0,000000000e+00    0,000000000e+00
      618000000   -8,434658498e-02   -3,445381997e-03   -4,137756526e-01    5,314419866e-01    0,000000000e+00    0,000000000e+00    0,000000000e+00    0,000000000e+00
      632000000   -3,809133545e-02   -1,956654154e-02   -2,600243688e-02    6,589447260e-01    0,000000000e+00    0,000000000e+00    0,000000000e+00    0,000000000e+00
      646000000   -4,220069572e-02   -7,252454758e-02    3,558410108e-01    5,393317938e-01    0,000000000e+00    0,000000000e+00    0,000000000e+00    0,000000000e+00
      660000000   -1,103127226e-01   -9,465427697e-02    5,999833941e-01    2,106092572e-01    0,000000000e+00    0,000000000e+00    0,000000000e+00    0,000000000e+00
      674000000   -1,939550191e-01   -2,755401842e-02    5,804988742e-01   -2,201285511e-01    0,000000000e+00    0,000000000e+00    0,000000000e+00    0,000000000e+00
      688000000   -1,825725138e-01    1,263655871e-01    2,459586561e-01   -5,227402449e-01    0,000000000e+00    0,000000000e+00    0,000000000e+00    0,000000000e+00
      702000000   -3,302013502e-03    2,342726737e-01   -1,819682717e-01   -4,464520514e-01    0,000000000e+00    0,000000000e+00    0,000000000e+00    0,000000000e+00
      716000000    2,342934161e-01    1,333881170e-01   -3,136370778e-01   -1,203353852e-01    0,000000000e+00    0,000000000e+00    0,000000000e+00    0,000000000e+00
      730000000    3,070390821e-01   -1,534974426e-01   -1,542495638e-01    5,437815189e-02    0,000000000e+00    0,000000000e+00    0,000000000e+00    0,000000000e+00
      744000000    1,205087006e-01   -4,174587429e-01   -4,361966625e-02   -1,816347614e-02    0,000000000e+00    0,000000000e+00    0,000000000e+00    0,000000000e+00
      758000000   -2,397947162e-01   -4,506647289e-01   -1,380992383e-01   -1,034407541e-01    0,000000000e+00    0,000000000e+00    0,000000000e+00    0,000000000e+00
      772000000   -4,991199672e-01   -1,530265212e-01   -3,025157452e-01    1,657037437e-02    0,000000000e+00    0,000000000e+00    0,000000000e+00    0,000000000e+00
      786000000   -3,787176907e-01    2,146566808e-01   -2,647884786e-01    2,839691639e-01    0,000000000e+00    0,000000000e+00    0,000000000e+00    0,000000000e+00
      800000000   -6,374584138e-02    2,961979806e-01   -1,639912650e-02    4,228188694e-01    0,000000000e+00    0,000000000e+00    0,000000000e+00    0,000000000e+00
      814000000    1,411799937e-01    1,457707733e-01    2,463929504e-01    3,606093228e-01    0,000000000e+00    0,000000000e+00    0,000000000e+00    0,000000000e+00
      828000000    1,750531793e-01   -6,044007465e-02    4,211995006e-01    1,646411419e-01    0,000000000e+00    0,000000000e+00    0,000000000e+00    0,000000000e+00
      842000000    7,408992201e-02   -2,195999324e-01    4,612829685e-01   -1,085142270e-01    0,000000000e+00    0,000000000e+00    0,000000000e+00    0,000000000e+00
      856000000   -1,060570106e-01   -2,731671035e-01    3,209896386e-01   -3,813717067e-01    0,000000000e+00    0,000000000e+00    0,000000000e+00    0,000000000e+00
      870000000   -2,846007049e-01   -1,792950183e-01    7,640617434e-03   -5,177134275e-01    0,000000000e+00    0,000000000e+00    0,000000000e+00    0,000000000e+00
      884000000   -3,383762836e-01    3,030922636e-02   -3,365292847e-01   -3,932355046e-01    0,000000000e+00    0,000000000e+00    0,000000000e+00    0,000000000e+00
      898000000   -2,123624682e-01    2,125210613e-01   -4,816553295e-01   -7,060907036e-02    0,000000000e+00    0,000000000e+00    0,000000000e+00    0,000000000e+00
      912000000   -6,845570635e-03    2,333126962e-01   -4,013228714e-01    2,689493299e-01    0,000000000e+00    0,000000000e+00    0,000000000e+00    0,000000000e+00
      926000000    1,479312032e-01    1,274071038e-01   -1,763403863e-01    4,070122838e-01    0,000000000e+00    0,000000000e+00    0,000000000e+00    0,000000000e+00
      940000000    2,016801089e-01   -3,503107280e-02    5,541082099e-02    4,204229414e-01    0,000000000e+00    0,000000000e+00    0,000000000e+00    0,000000000e+00
      954000000    1,606026441e-01   -2,003252059e-01    2,536331117e-01    3,414835632e-01    0,000000000e+00    0,000000000e+00    0,000000000e+00    0,000000000e+00
      968000000    2,868670784e-02   -3,172350824e-01    4,038173556e-01    1,821243167e-01    0,000000000e+00    0,000000000e+00    0,000000000e+00    0,000000000e+00
      982000000   -1,645530611e-01   -3,330775499e-01    4,686492383e-01   -6,579197198e-02    0,000000000e+00    0,000000000e+00    0,000000000e+00    0,000000000e+00
      996000000   -3,280591369e-01   -2,109771669e-01    3,581706583e-01   -3,553668261e-01    0,000000000e+00    0,000000000e+00    0,000000000e+00    0,000000000e+00
     1010000000   -3,321747184e-01   -1,528734528e-02    2,267617732e-02   -5,189958811e-01    0,000000000e+00    0,000000000e+00    0,000000000e+00    0,000000000e+00
     1024000000   -2,078770548e-01    5,292003229e-02   -3,761157691e-01   -3,384985030e-01    0,000000000e+00    0,000000000e+00    0,000000000e+00    0,000000000e+00
     1038000000   -2,264071852e-01   -3,568321839e-02   -4,135399163e-01    1,554300338e-01    0,000000000e+00    0,000000000e+00    0,000000000e+00    0,000000000e+00
     1052000000   -3,424068987e-01    1,667405814e-01    3,245882457e-03    2,604807913e-01    0,000000000e+00    0,000000000e+00    0,000000000e+00    0,000000000e+00
     1066000000   -9,397318959e-02    3,355309963e-01    6,803731620e-02    6,881935894e-02    0,000000000e+00    0,000000000e+00    0,000000000e+00    0,000000000e+00
     1080000000    1,224259511e-01    2,447560728e-01    3,728251904e-02    3,355955333e-02    0,000000000e+00    0,000000000e+00    0,000000000e+00    0,000000000e+00
     1094000000    2,307160199e-01    8,413726836e-02    4,166371003e-02    4,126142338e-02    0,000000000e+00    0,000000000e+00    0,000000000e+00    0,000000000e+00
     1108000000    2,455718368e-01   -9,858487546e-02    7,385887951e-02    3,553813696e-02    0,000000000e+00    0,000000000e+00    0,000000000e+00    0,000000000e+00
     1122000000    1,813479513e-01   -2,622061074e-01    1,124847755e-01    4,744117148e-03    0,000000000e+00    0,000000000e+00    0,000000000e+00    0,000000000e+00
     1136000000    3,938876837e-02   -3,876354694e-01    1,474858075e-01   -5,185225233e-02    0,000000000e+00    0,000000000e+00    0,000000000e+00    0,000000000e+00
     1150000000   -1,777533591e-01   -4,230792224e-01    1,649195701e-01   -1,474722326e-01    0,000000000e+00    0,000000000e+00    0,000000000e+00    0,000000000e+00
     1164000000   -3,908805251e-01   -3,128227592e-01    1,170457900e-01   -2,889980376e-01    0,000000000e+00    0,000000000e+00    0,000000000e+00    0,000000000e+00
     1178000000   -4,687619507e-01   -7,234816253e-02   -1,030709445e-01   -4,193176925e-01    0,000000000e+00    0,000000000e+00    0,000000000e+00    0,000000000e+00
     1192000000   -3,683957458e-01    4,566412792e-02   -4,657565951e-01   -1,973984241e-01    0,000000000e+00    0,000000000e+00    0,000000000e+00    0,000000000e+00
     1206000000   -4,203895330e-01    1,226252317e-01   -2,820428908e-01    2,465493083e-01    0,000000000e+00    0,000000000e+00    0,000000000e+00    0,000000000e+00
     1220000000   -2,999421358e-01    3,272772729e-01    1,003987994e-02    1,725877523e-01    0,000000000e+00    0,000000000e+00    0,000000000e+00    0,000000000e+00
     1234000000   -7,181777805e-02    3,624485433e-01    3,423589841e-02    4,930733517e-02    0,000000000e+00    0,000000000e+00    0,000000000e+00    0,000000000e+00
     1248000000    1,048885509e-01    2,690921128e-01    1,234495360e-02    1,717172004e-02    0,000000000e+00    0,000000000e+00    0,000000000e+00    0,000000000e+00
     1262000000    2,110785842e-01    1,259403825e-01   -4,994744450e-05    2,516585775e-02    0,000000000e+00    0,000000000e+00    0,000000000e+00    0,000000000e+00
     1276000000    2,411169559e-01   -4,046811908e-02    1,722323708e-02    3,347823024e-02    0,000000000e+00    0,000000000e+00    0,000000000e+00    0,000000000e+00
     1290000000    2,009142488e-01   -2,072309703e-01    4,447678477e-02    3,011783585e-02    0,000000000e+00    0,000000000e+00    0,000000000e+00    0,000000000e+00
     1304000000    8,991203457e-02   -3,544814885e-01    7,015255094e-02    1,411484368e-02    0,000000000e+00    0,000000000e+00    0,000000000e+00    0,000000000e+00
     1318000000   -1,042909175e-01   -4,490914643e-01    7,776024938e-02   -2,606099937e-03    0,000000000e+00    0,000000000e+00    0,000000000e+00    0,000000000e+00
     1332000000   -3,616878092e-01   -4,293308258e-01    8,677531779e-02   -1,073325612e-02    0,000000000e+00    0,000000000e+00    0,000000000e+00    0,000000000e+00
     1346000000   -5,898484588e-01   -2,414962351e-01    9,719347954e-02   -1,058635395e-02    0,000000000e+00    0,000000000e+00    0,000000000e+00    0,000000000e+00
     1360000000   -6,449160576e-01    7,631324977e-02    1,373640597e-01   -1,471865363e-02    0,000000000e+00    0,000000000e+00    0,000000000e+00    0,000000000e+00
     1374000000   -4,928950965e-01    3,286294937e-01    1,621148437e-01   -5,247028172e-02    0,000000000e+00    0,000000000e+00    0,000000000e+00    0,000000000e+00
     1388000000   -2,677952647e-01    4,274314940e-01    1,565751284e-01   -8,563065529e-02    0,000000000e+00    0,000000000e+00    0,000000000e+00    0,000000000e+00
     1402000000   -6,241695210e-02    4,038258493e-01    1,248931065e-01   -9,722502530e-02    0,000000000e+00    0,000000000e+00    0,000000000e+00    0,000000000e+00
     1416000000    9,551067650e-02    3,084104359e-01    1,083855256e-01   -8,922885358e-02    0,000000000e+00    0,000000000e+00    0,000000000e+00    0,000000000e+00
     1430000000    1,889780015e-01    1,646030545e-01    8,885769546e-02   -9,479333460e-02    0,000000000e+00    0,000000000e+00    0,000000000e+00    0,000000000e+00
     1444000000    2,220029235e-01    8,060859516e-03    1,027587876e-01   -3,107803874e-02    0,000000000e+00    0,000000000e+00    0,000000000e+00    0,000000000e+00
     1458000000    1,946561635e-01   -1,632097512e-01    1,320587844e-01    2,423153631e-02    0,000000000e+00    0,000000000e+00    0,000000000e+00    0,000000000e+00
     1472000000    7,758508623e-02   -3,412255347e-01    1,850467920e-01    5,652977899e-02    0,000000000e+00    0,000000000e+00    0,000000000e+00    0,000000000e+00
     1486000000   -1,429638267e-01   -4,607181549e-01    2,703624964e-01    8,847686648e-02    0,000000000e+00    0,000000000e+00    0,000000000e+00    0,000000000e+00
     1500000000   -4,470997751e-01   -4,584358335e-01    3,805701435e-01    4,090492800e-02    0,000000000e+00    0,000000000e+00    0,000000000e+00    0,000000000e+00
