! NanoVNA-App
! Date: 2025-09-26 09:39:32
! Start: 100MHz Stop: 1,5GHz Points: 101
! S-Parameter data: F S11 S21 S12 S22
# Hz S RI R 50
!     Frequency           S11_Real           S11_Imag           S21_Real           S21_Imag           S12_Real           S12_Imag           S22_Real           S22_Imag
      100000000   -2,877662331e-02   -4,417853430e-03    3,736316264e-01   -7,233437300e-01    0,000000000e+00    0,000000000e+00    0,000000000e+00    0,000000000e+00
      114000000   -1,664984785e-02    1,122538839e-02   -9,065593034e-02   -8,065048456e-01    0,000000000e+00    0,000000000e+00    0,000000000e+00    0,000000000e+00
      128000000    2,977235010e-03    1,045735274e-02   -5,163211226e-01   -6,209465861e-01    0,000000000e+00    0,000000000e+00    0,000000000e+00    0,000000000e+00
      142000000    1,415283512e-02   -2,983435523e-03   -7,687770128e-01   -2,358289063e-01    0,000000000e+00    0,000000000e+00    0,000000000e+00    0,000000000e+00
      156000000    1,515553892e-02   -1,389167178e-02   -7,655980587e-01    2,227045298e-01    0,000000000e+00    0,000000000e+00    0,000000000e+00    0,000000000e+00
      170000000    1,676915586e-02   -2,234274335e-02   -5,173811913e-01    6,069369316e-01    0,000000000e+00    0,000000000e+00    0,000000000e+00    0,000000000e+00
      184000000    2,097546868e-02   -3,727472201e-02   -9,984719753e-02    7,872995734e-01    0,000000000e+00    0,000000000e+00    0,000000000e+00    0,000000000e+00
      198000000    1,269650087e-02   -6,254344434e-02    3,452227414e-01    7,128466368e-01    0,000000000e+00    0,000000000e+00    0,000000000e+00    0,000000000e+00
      212000000   -1,914572716e-02   -8,096574247e-02    6,813358068e-01    4,089501202e-01    0,000000000e+00    0,000000000e+00    0,000000000e+00    0,000000000e+00
      226000000   -6,167807803e-02   -6,855281442e-02    7,978811860e-01   -3,280742466e-02    0,000000000e+00    0,000000000e+00    0,000000000e+00    0,000000000e+00
      240000000   -8,207651228e-02   -2,534060180e-02    6,459118128e-01   -4,704706371e-01    0,000000000e+00    0,000000000e+00    0,000000000e+00    0,000000000e+00
      254000000   -6,293675303e-02    1,730008982e-02    2,754009962e-01   -7,430197597e-01    0,000000000e+00    0,000000000e+00    0,000000000e+00    0,000000000e+00
      268000000   -2,328906022e-02    2,849312685e-02   -1,765662283e-01   -7,644233108e-01    0,000000000e+00    0,000000000e+00    0,000000000e+00    0,000000000e+00
      282000000    3,960832022e-03    1,132794935e-02   -5,619589090e-01   -5,384464264e-01    0,000000000e+00    0,000000000e+00    0,000000000e+00    0,000000000e+00
      296000000    9,425562806e-03   -8,124479093e-03   -7,627962828e-01   -1,402184963e-01    0,000000000e+00    0,000000000e+00    0,000000000e+00    0,000000000e+00
      310000000    1,110971533e-02   -1,610381715e-02   -7,124791741e-01    3,025615513e-01    0,000000000e+00    0,000000000e+00    0,000000000e+00    0,000000000e+00
      324000000    1,991439238e-02   -2,634208649e-02   -4,273163080e-01    6,397883892e-01    0,000000000e+00    0,000000000e+00    0,000000000e+00    0,000000000e+00
      338000000    2,570180409e-02   -5,279333144e-02   -8,999025449e-03    7,640422583e-01    0,000000000e+00    0,000000000e+00    0,000000000e+00    0,000000000e+00
      352000000    6,768212654e-03   -8,527892828e-02    4,084084630e-01    6,395608783e-01    0,000000000e+00    0,000000000e+00    0,000000000e+00    0,000000000e+00
      366000000   -3,532628715e-02   -9,591551870e-02    6,934436560e-01    3,098469079e-01    0,000000000e+00    0,000000000e+00    0,000000000e+00    0,000000000e+00
      380000000   -7,112213224e-02   -7,037501782e-02    7,486345172e-01   -1,293737143e-01    0,000000000e+00    0,000000000e+00    0,000000000e+00    0,000000000e+00
      394000000   -7,162892818e-02   -3,206791356e-02    5,464915633e-01   -5,256643295e-01    0,000000000e+00    0,000000000e+00    0,000000000e+00    0,000000000e+00
      408000000   -4,593507946e-02   -1,735530049e-02    1,565660387e-01   -7,352186441e-01    0,000000000e+00    0,000000000e+00    0,000000000e+00    0,000000000e+00
      422000000   -2,960632369e-02   -3,321181983e-02   -2,743550837e-01   -6,953418255e-01    0,000000000e+00    0,000000000e+00    0,000000000e+00    0,000000000e+00
      436000000   -4,321328178e-02   -5,122375861e-02   -6,094124913e-01   -4,270943701e-01    0,000000000e+00    0,000000000e+00    0,000000000e+00    0,000000000e+00
      450000000   -6,888829917e-02   -4,126752540e-02   -7,399070263e-01   -1,531171612e-02    0,000000000e+00    0,000000000e+00    0,000000000e+00    0,000000000e+00
      464000000   -7,183247060e-02   -8,228511550e-03   -6,144545674e-01    4,012825191e-01    0,000000000e+00    0,000000000e+00    0,000000000e+00    0,000000000e+00
      478000000   -4,322747886e-02    1,383831259e-02   -2,760709822e-01    6,702652574e-01    0,000000000e+00    0,000000000e+00    0,000000000e+00    0,000000000e+00
      492000000   -1,018723194e-02    4,653681070e-03    1,446854472e-01    7,005705237e-01    0,000000000e+00    0,000000000e+00    0,000000000e+00    0,000000000e+00
      506000000    1,220618142e-03   -2,150716633e-02    5,052664280e-01    4,963008463e-01    0,000000000e+00    0,000000000e+00    0,000000000e+00    0,000000000e+00
      520000000   -5,448756274e-03   -3,874023259e-02    6,919622421e-01    1,283423752e-01    0,000000000e+00    0,000000000e+00    0,000000000e+00    0,000000000e+00
      534000000   -7,586417720e-03   -4,501927271e-02    6,387743950e-01   -2,766652405e-01    0,000000000e+00    0,000000000e+00    0,000000000e+00    0,000000000e+00
      548000000   -2,815317130e-03   -5,937915295e-02    3,675615788e-01   -5,782997608e-01    0,000000000e+00    0,000000000e+00    0,000000000e+00    0,000000000e+00
      562000000   -1,109662652e-02   -8,964438736e-02   -1,822806336e-02   -6,757253408e-01    0,000000000e+00    0,000000000e+00    0,000000000e+00    0,000000000e+00
      576000000   -4,967383295e-02   -1,117470637e-01   -3,955112398e-01   -5,460382700e-01    0,000000000e+00    0,000000000e+00    0,000000000e+00    0,000000000e+00
      590000000   -9,978185594e-02   -9,630744159e-02   -6,388556361e-01   -2,302420139e-01    0,000000000e+00    0,000000000e+00    0,000000000e+00    0,000000000e+00
      604000000   -1,184716672e-01   -4,331749678e-02   -6,540836692e-01    1,883650124e-01    0,000000000e+00    0,000000000e+00    0,000000000e+00    0,000000000e+00
      618000000   -8,366999030e-02   -3,353925189e-03   -4,144842923e-01    5,323114991e-01    0,000000000e+00    0,000000000e+00    0,000000000e+00    0,000000000e+00
      632000000   -3,726693988e-02   -1,907195523e-02   -2,455314621e-02    6,600669622e-01    0,000000000e+00    0,000000000e+00    0,000000000e+00    0,000000000e+00
      646000000   -4,235998541e-02   -7,202866673e-02    3,565860987e-01    5,404130220e-01    0,000000000e+00    0,000000000e+00    0,000000000e+00    0,000000000e+00
      660000000   -1,107719839e-01   -9,529479593e-02    6,003710628e-01    2,118715048e-01    0,000000000e+00    0,000000000e+00    0,000000000e+00    0,000000000e+00
      674000000   -1,947673410e-01   -2,837392129e-02    5,806536078e-01   -2,197609991e-01    0,000000000e+00    0,000000000e+00    0,000000000e+00    0,000000000e+00
      688000000   -1,832988709e-01    1,249607876e-01    2,470646352e-01   -5,233353376e-01    0,000000000e+00    0,000000000e+00    0,000000000e+00    0,000000000e+00
      702000000   -5,605255254e-03    2,317201197e-01   -1,741922498e-01   -4,513365626e-01    0,000000000e+00    0,000000000e+00    0,000000000e+00    0,000000000e+00
      716000000    2,343303710e-01    1,338262558e-01   -3,140149117e-01   -1,202921644e-01    0,000000000e+00    0,000000000e+00    0,000000000e+00    0,000000000e+00
      730000000    3,075132966e-01   -1,541044861e-01   -1,537621319e-01    5,461518094e-02    0,000000000e+00    0,000000000e+00    0,000000000e+00    0,000000000e+00
      744000000    1,192121953e-01   -4,175130725e-01   -4,339175671e-02   -1,864539646e-02    0,000000000e+00    0,000000000e+00    0,000000000e+00    0,000000000e+00
      758000000   -2,376959324e-01   -4,501309395e-01   -1,383448541e-01   -1,037546992e-01    0,000000000e+00    0,000000000e+00    0,000000000e+00    0,000000000e+00
      772000000   -4,975005388e-01   -1,523449570e-01   -3,030837774e-01    1,612481289e-02    0,000000000e+00    0,000000000e+00    0,000000000e+00    0,000000000e+00
      786000000   -3,777917624e-01    2,154940367e-01   -2,644538283e-01    2,839387953e-01    0,000000000e+00    0,000000000e+00    0,000000000e+00    0,000000000e+00
      800000000   -6,376874447e-02    2,948983014e-01   -1,660439372e-02    4,226238132e-01    0,000000000e+00    0,000000000e+00    0,000000000e+00    0,000000000e+00
      814000000    1,413063258e-01    1,460818052e-01    2,456102222e-01    3,609930873e-01    0,000000000e+00    0,000000000e+00    0,000000000e+00    0,000000000e+00
      828000000    1,747124940e-01   -6,040879339e-02    4,218577743e-01    1,650036722e-01    0,000000000e+00    0,000000000e+00    0,000000000e+00    0,000000000e+00
      842000000    7,449869812e-02   -2,197366208e-01    4,610638320e-01   -1,091285273e-01    0,000000000e+00    0,000000000e+00    0,000000000e+00    0,000000000e+00
      856000000   -1,052350402e-01   -2,734912634e-01    3,212833405e-01   -3,820119500e-01    0,000000000e+00    0,000000000e+00    0,000000000e+00    0,000000000e+00
      870000000   -2,841818333e-01   -1,780507714e-01    7,222590037e-03   -5,176450610e-01    0,000000000e+00    0,000000000e+00    0,000000000e+00    0,000000000e+00
      884000000   -3,384002149e-01    2,996054292e-02   -3,357398212e-01   -3,927271366e-01    0,000000000e+00    0,000000000e+00    0,000000000e+00    0,000000000e+00
      898000000   -2,119280845e-01    2,121694684e-01   -4,818636179e-01   -7,196876407e-02    0,000000000e+00    0,000000000e+00    0,000000000e+00    0,000000000e+00
      912000000   -6,253563333e-03    2,352661043e-01   -4,082247019e-01    2,668748498e-01    0,000000000e+00    0,000000000e+00    0,000000000e+00    0,000000000e+00
      926000000    1,482792497e-01    1,267484128e-01   -1,761826724e-01    4,078740776e-01    0,000000000e+00    0,000000000e+00    0,000000000e+00    0,000000000e+00
      940000000    2,021660805e-01   -3,351623192e-02    5,502859503e-02    4,208095074e-01    0,000000000e+00    0,000000000e+00    0,000000000e+00    0,000000000e+00
      954000000    1,564232558e-01   -1,982562244e-01    2,521425188e-01    3,421015441e-01    0,000000000e+00    0,000000000e+00    0,000000000e+00    0,000000000e+00
      968000000    2,963964641e-02   -3,145346642e-01    4,028871655e-01    1,804164350e-01    0,000000000e+00    0,000000000e+00    0,000000000e+00    0,000000000e+00
      982000000   -1,633584499e-01   -3,355938494e-01    4,701896608e-01   -6,389284134e-02    0,000000000e+00    0,000000000e+00    0,000000000e+00    0,000000000e+00
      996000000   -3,252351880e-01   -2,078478336e-01    3,609667718e-01   -3,561181128e-01    0,000000000e+00    0,000000000e+00    0,000000000e+00    0,000000000e+00
     1010000000   -3,330979645e-01   -1,763275638e-02    2,194199711e-02   -5,182387829e-01    0,000000000e+00    0,000000000e+00    0,000000000e+00    0,000000000e+00
     1024000000   -2,060163915e-01    5,152517185e-02   -3,754784465e-01   -3,389846087e-01    0,000000000e+00    0,000000000e+00    0,000000000e+00    0,000000000e+00
     1038000000   -2,257529050e-01   -3,615744039e-02   -4,132403731e-01    1,552695781e-01    0,000000000e+00    0,000000000e+00    0,000000000e+00    0,000000000e+00
     1052000000   -3,420460820e-01    1,679455042e-01    4,120000172e-03    2,595611811e-01    0,000000000e+00    0,000000000e+00    0,000000000e+00    0,000000000e+00
     1066000000   -9,824647009e-02    3,287056386e-01    7,334937155e-02    6,991040707e-02    0,000000000e+00    0,000000000e+00    0,000000000e+00    0,000000000e+00
     1080000000    1,219702363e-01    2,481325120e-01    3,619645163e-02    3,368152678e-02    0,000000000e+00    0,000000000e+00    0,000000000e+00    0,000000000e+00
     1094000000    2,311254591e-01    7,880359143e-02    4,186243936e-02    4,027417675e-02    0,000000000e+00    0,000000000e+00    0,000000000e+00    0,000000000e+00
     1108000000    2,455697805e-01   -9,809722006e-02    7,325125486e-02    3,330094367e-02    0,000000000e+00    0,000000000e+00    0,000000000e+00    0,000000000e+00
     1122000000    1,822568774e-01   -2,638677061e-01    1,134588569e-01    4,897013307e-03    0,000000000e+00    0,000000000e+00    0,000000000e+00    0,000000000e+00
     1136000000    3,751387075e-02   -3,853111863e-01    1,495739818e-01   -5,032151192e-02    0,000000000e+00    0,000000000e+00    0,000000000e+00    0,000000000e+00
     1150000000   -1,735136062e-01   -4,231666923e-01    1,660325080e-01   -1,434139758e-01    0,000000000e+00    0,000000000e+00    0,000000000e+00    0,000000000e+00
     1164000000   -3,935669661e-01   -3,072367013e-01    1,160959378e-01   -2,919538021e-01    0,000000000e+00    0,000000000e+00    0,000000000e+00    0,000000000e+00
     1178000000   -4,670410454e-01   -7,328001410e-02   -1,065806076e-01   -4,178994000e-01    0,000000000e+00    0,000000000e+00    0,000000000e+00    0,000000000e+00
     1192000000   -3,698236644e-01    4,390073568e-02   -4,634573460e-01   -1,991806477e-01    0,000000000e+00    0,000000000e+00    0,000000000e+00    0,000000000e+00
     1206000000   -4,162704349e-01    1,181283221e-01   -2,775856256e-01    2,413126379e-01    0,000000000e+00    0,000000000e+00    0,000000000e+00    0,000000000e+00
     1220000000   -2,982305884e-01    3,272793889e-01    8,174973540e-03    1,746319234e-01    0,000000000e+00    0,000000000e+00    0,000000000e+00    0,000000000e+00
     1234000000   -7,232817262e-02    3,632778227e-01    3,676994890e-02    5,131667480e-02    0,000000000e+00    0,000000000e+00    0,000000000e+00    0,000000000e+00
     1248000000    1,067899168e-01    2,703624070e-01    3,250147915e-03    1,391599141e-02    0,000000000e+00    0,000000000e+00    0,000000000e+00    0,000000000e+00
     1262000000    2,084621191e-01    1,226727813e-01    3,853913629e-03    1,984393597e-02    0,000000000e+00    0,000000000e+00    0,000000000e+00    0,000000000e+00
     1276000000    2,372982204e-01   -4,618898779e-02    2,108426578e-02    2,761437930e-02    0,000000000e+00    0,000000000e+00    0,000000000e+00    0,000000000e+00
     1290000000    2,034906447e-01   -2,081603706e-01    4,829854518e-02    2,094719000e-02    0,000000000e+00    0,000000000e+00    0,000000000e+00    0,000000000e+00
     1304000000    9,064552188e-02   -3,530301452e-01    6,886982173e-02    1,141742617e-02    0,000000000e+00    0,000000000e+00    0,000000000e+00    0,000000000e+00
     1318000000   -1,031183824e-01   -4,478061199e-01    7,699401677e-02   -1,675609616e-03    0,000000000e+00    0,000000000e+00    0,000000000e+00    0,000000000e+00
     1332000000   -3,533745706e-01   -4,324930906e-01    9,426335990e-02   -1,245753467e-02    0,000000000e+00    0,000000000e+00    0,000000000e+00    0,000000000e+00
     1346000000   -5,897313356e-01   -2,355034798e-01    1,044919267e-01   -1,413604617e-02    0,000000000e+00    0,000000000e+00    0,000000000e+00    0,000000000e+00
     1360000000   -6,468017697e-01    7,391407341e-02    1,381782591e-01   -2,537727915e-02    0,000000000e+00    0,000000000e+00    0,000000000e+00    0,000000000e+00
     1374000000   -4,962194860e-01    3,252999783e-01    1,541391313e-01   -5,544944853e-02    0,000000000e+00    0,000000000e+00    0,000000000e+00    0,000000000e+00
     1388000000   -2,641609907e-01    4,299902022e-01    1,535751224e-01   -7,899745554e-02    0,000000000e+00    0,000000000e+00    0,000000000e+00    0,000000000e+00
     1402000000   -6,440480798e-02    4,007817507e-01    1,294339746e-01   -1,028486341e-01    0,000000000e+00    0,000000000e+00    0,000000000e+00    0,000000000e+00
     1416000000    8,700470626e-02    3,047439754e-01    9,941527247e-02   -9,516020864e-02    0,000000000e+00    0,000000000e+00    0,000000000e+00    0,000000000e+00
     1430000000    1,822435707e-01    1,726958156e-01    8,673471957e-02   -5,285278708e-02    0,000000000e+00    0,000000000e+00    0,000000000e+00    0,000000000e+00
     1444000000    2,201720178e-01    1,610349491e-02    9,517828375e-02   -2,814273909e-02    0,000000000e+00    0,000000000e+00    0,000000000e+00    0,000000000e+00
     1458000000    1,942597032e-01   -1,656674743e-01    1,330017149e-01    1,395849045e-02    0,000000000e+00    0,000000000e+00    0,000000000e+00    0,000000000e+00
     1472000000    8,355212212e-02   -3,325253427e-01    1,827014387e-01    6,167747453e-02    0,000000000e+00    0,000000000e+00    0,000000000e+00    0,000000000e+00
     1486000000   -1,387297958e-01   -4,638753831e-01    2,804974318e-01    7,824648172e-02    0,000000000e+00    0,000000000e+00    0,000000000e+00    0,000000000e+00
     1500000000   -4,506970644e-01   -4,418309629e-01    3,768863976e-01    5,434500054e-02    0,000000000e+00    0,000000000e+00    0,000000000e+00    0,000000000e+00
