! NanoVNA-App
! Date: 2025-09-26 09:39:09
! Start: 100MHz Stop: 1,5GHz Points: 101
! S-Parameter data: F S11 S21 S12 S22
# Hz S RI R 50
!     Frequency           S11_Real           S11_Imag           S21_Real           S21_Imag           S12_Real           S12_Imag           S22_Real           S22_Imag
      100000000   -2,877683006e-02   -4,420391750e-03    3,735551834e-01   -7,233778834e-01    0,000000000e+00    0,000000000e+00    0,000000000e+00    0,000000000e+00
      114000000   -1,662625559e-02    1,117982995e-02   -9,058891982e-02   -8,065830469e-01    0,000000000e+00    0,000000000e+00    0,000000000e+00    0,000000000e+00
      128000000    3,061562777e-03    1,043329481e-02   -5,162546635e-01   -6,210094094e-01    0,000000000e+00    0,000000000e+00    0,000000000e+00    0,000000000e+00
      142000000    1,414139569e-02   -2,963382518e-03   -7,689310908e-01   -2,357521504e-01    0,000000000e+00    0,000000000e+00    0,000000000e+00    0,000000000e+00
      156000000    1,587831602e-02   -1,460989099e-02   -7,680963278e-01    2,255862802e-01    0,000000000e+00    0,000000000e+00    0,000000000e+00    0,000000000e+00
      170000000    1,680563204e-02   -2,233326063e-02   -5,173729658e-01    6,068304777e-01    0,000000000e+00    0,000000000e+00    0,000000000e+00    0,000000000e+00
      184000000    2,100340277e-02   -3,734416142e-02   -9,969286621e-02    7,878180742e-01    0,000000000e+00    0,000000000e+00    0,000000000e+00    0,000000000e+00
      198000000    1,269794721e-02   -6,255570799e-02    3,455381691e-01    7,133277655e-01    0,000000000e+00    0,000000000e+00    0,000000000e+00    0,000000000e+00
      212000000   -1,909591071e-02   -8,097781986e-02    6,811316013e-01    4,089164436e-01    0,000000000e+00    0,000000000e+00    0,000000000e+00    0,000000000e+00
      226000000   -6,166861951e-02   -6,851662695e-02    7,979733348e-01   -3,295846656e-02    0,000000000e+00    0,000000000e+00    0,000000000e+00    0,000000000e+00
      240000000   -8,204963803e-02   -2,535249852e-02    6,457808614e-01   -4,703164697e-01    0,000000000e+00    0,000000000e+00    0,000000000e+00    0,000000000e+00
      254000000   -6,294048578e-02    1,723489538e-02    2,758835852e-01   -7,433688641e-01    0,000000000e+00    0,000000000e+00    0,000000000e+00    0,000000000e+00
      268000000   -2,324473113e-02    2,845176868e-02   -1,769234836e-01   -7,642388940e-01    0,000000000e+00    0,000000000e+00    0,000000000e+00    0,000000000e+00
      282000000    3,907453734e-03    1,138652116e-02   -5,617119074e-01   -5,387906432e-01    0,000000000e+00    0,000000000e+00    0,000000000e+00    0,000000000e+00
      296000000    9,385420941e-03   -8,257183246e-03   -7,627835274e-01   -1,402448118e-01    0,000000000e+00    0,000000000e+00    0,000000000e+00    0,000000000e+00
      310000000    1,076777466e-02   -1,609741338e-02   -7,128816247e-01    3,010110557e-01    0,000000000e+00    0,000000000e+00    0,000000000e+00    0,000000000e+00
      324000000    2,010621503e-02   -2,649152093e-02   -4,265459776e-01    6,392573118e-01    0,000000000e+00    0,000000000e+00    0,000000000e+00    0,000000000e+00
      338000000    2,563609928e-02   -5,269235373e-02   -5,853916518e-03    7,627785206e-01    0,000000000e+00    0,000000000e+00    0,000000000e+00    0,000000000e+00
      352000000    6,734583527e-03   -8,499079198e-02    4,086190164e-01    6,402991414e-01    0,000000000e+00    0,000000000e+00    0,000000000e+00    0,000000000e+00
      366000000   -3,508817777e-02   -9,589427710e-02    6,936761141e-01    3,098641038e-01    0,000000000e+00    0,000000000e+00    0,000000000e+00    0,000000000e+00
      380000000   -7,095763832e-02   -7,055592537e-02    7,491692901e-01   -1,294266880e-01    0,000000000e+00    0,000000000e+00    0,000000000e+00    0,000000000e+00
      394000000   -7,193770260e-02   -3,222128004e-02    5,452674031e-01   -5,251527429e-01    0,000000000e+00    0,000000000e+00    0,000000000e+00    0,000000000e+00
      408000000   -4,597254470e-02   -1,764160953e-02    1,571593583e-01   -7,369476557e-01    0,000000000e+00    0,000000000e+00    0,000000000e+00    0,000000000e+00
      422000000   -2,987141535e-02   -3,311774507e-02   -2,737651467e-01   -6,959630251e-01    0,000000000e+00    0,000000000e+00    0,000000000e+00    0,000000000e+00
      436000000   -4,307357967e-02   -5,107674003e-02   -6,093698740e-01   -4,271050096e-01    0,000000000e+00    0,000000000e+00    0,000000000e+00    0,000000000e+00
      450000000   -6,898941845e-02   -4,103863984e-02   -7,399544716e-01   -1,530223154e-02    0,000000000e+00    0,000000000e+00    0,000000000e+00    0,000000000e+00
      464000000   -7,169573754e-02   -8,467742242e-03   -6,148485541e-01    4,011714458e-01    0,000000000e+00    0,000000000e+00    0,000000000e+00    0,000000000e+00
      478000000   -4,328493029e-02    1,423428115e-02   -2,772028446e-01    6,701809168e-01    0,000000000e+00    0,000000000e+00    0,000000000e+00    0,000000000e+00
      492000000   -1,018096320e-02    4,377095960e-03    1,453036517e-01    7,012509108e-01    0,000000000e+00    0,000000000e+00    0,000000000e+00    0,000000000e+00
      506000000    1,162362634e-03   -2,126622014e-02    5,053144097e-01    4,969015419e-01    0,000000000e+00    0,000000000e+00    0,000000000e+00    0,000000000e+00
      520000000   -5,043039564e-03   -3,875922784e-02    6,919089556e-01    1,292455941e-01    0,000000000e+00    0,000000000e+00    0,000000000e+00    0,000000000e+00
      534000000   -8,136045188e-03   -4,498050734e-02    6,388550997e-01   -2,765136361e-01    0,000000000e+00    0,000000000e+00    0,000000000e+00    0,000000000e+00
      548000000   -2,469754079e-03   -5,931645259e-02    3,679102361e-01   -5,775650144e-01    0,000000000e+00    0,000000000e+00    0,000000000e+00    0,000000000e+00
      562000000   -1,116918959e-02   -8,934531361e-02   -1,825336367e-02   -6,757435799e-01    0,000000000e+00    0,000000000e+00    0,000000000e+00    0,000000000e+00
      576000000   -4,917559773e-02   -1,120405197e-01   -3,959949911e-01   -5,461525917e-01    0,000000000e+00    0,000000000e+00    0,000000000e+00    0,000000000e+00
      590000000   -9,978168458e-02   -9,626745433e-02   -6,380417943e-01   -2,281483859e-01    0,000000000e+00    0,000000000e+00    0,000000000e+00    0,000000000e+00
      604000000   -1,186122298e-01   -4,353336245e-02   -6,548646092e-01    1,883179247e-01    0,000000000e+00    0,000000000e+00    0,000000000e+00    0,000000000e+00
      618000000   -8,426002413e-02   -2,867673757e-03   -4,139916301e-01    5,317358375e-01    0,000000000e+00    0,000000000e+00    0,000000000e+00    0,000000000e+00
      632000000   -3,831987455e-02   -1,888686791e-02   -2,607329749e-02    6,588003039e-01    0,000000000e+00    0,000000000e+00    0,000000000e+00    0,000000000e+00
      646000000   -4,188042879e-02   -7,237195969e-02    3,566087484e-01    5,394434929e-01    0,000000000e+00    0,000000000e+00    0,000000000e+00    0,000000000e+00
      660000000   -1,113196611e-01   -9,620789438e-02    5,995818377e-01    2,113154083e-01    0,000000000e+00    0,000000000e+00    0,000000000e+00    0,000000000e+00
      674000000   -1,941759586e-01   -2,751302533e-02    5,804904103e-01   -2,199677080e-01    0,000000000e+00    0,000000000e+00    0,000000000e+00    0,000000000e+00
      688000000   -1,831375808e-01    1,264317036e-01    2,467265725e-01   -5,232707262e-01    0,000000000e+00    0,000000000e+00    0,000000000e+00    0,000000000e+00
      702000000   -4,597720224e-03    2,327948511e-01   -1,747587472e-01   -4,514063001e-01    0,000000000e+00    0,000000000e+00    0,000000000e+00    0,000000000e+00
      716000000    2,344405353e-01    1,329375952e-01   -3,139444590e-01   -1,209982038e-01    0,000000000e+00    0,000000000e+00    0,000000000e+00    0,000000000e+00
      730000000    3,077976406e-01   -1,539866626e-01   -1,545412987e-01    5,466678366e-02    0,000000000e+00    0,000000000e+00    0,000000000e+00    0,000000000e+00
      744000000    1,193190515e-01   -4,172770679e-01   -4,302987456e-02   -1,825709641e-02    0,000000000e+00    0,000000000e+00    0,000000000e+00    0,000000000e+00
      758000000   -2,381445616e-01   -4,501246810e-01   -1,378965527e-01   -1,034963056e-01    0,000000000e+00    0,000000000e+00    0,000000000e+00    0,000000000e+00
      772000000   -4,981325865e-01   -1,521185786e-01   -3,026208580e-01    1,641657017e-02    0,000000000e+00    0,000000000e+00    0,000000000e+00    0,000000000e+00
      786000000   -3,782780766e-01    2,143091261e-01   -2,645478845e-01    2,840301096e-01    0,000000000e+00    0,000000000e+00    0,000000000e+00    0,000000000e+00
      800000000   -6,374545395e-02    2,951353490e-01   -1,730311848e-02    4,227311611e-01    0,000000000e+00    0,000000000e+00    0,000000000e+00    0,000000000e+00
      814000000    1,414561272e-01    1,457154453e-01    2,454566509e-01    3,614659905e-01    0,000000000e+00    0,000000000e+00    0,000000000e+00    0,000000000e+00
      828000000    1,744648814e-01   -6,064019725e-02    4,211779833e-01    1,649235487e-01    0,000000000e+00    0,000000000e+00    0,000000000e+00    0,000000000e+00
      842000000    7,444936782e-02   -2,200777382e-01    4,605002701e-01   -1,090382114e-01    0,000000000e+00    0,000000000e+00    0,000000000e+00    0,000000000e+00
      856000000   -1,060473174e-01   -2,729834616e-01    3,211708069e-01   -3,817800581e-01    0,000000000e+00    0,000000000e+00    0,000000000e+00    0,000000000e+00
      870000000   -2,842911184e-01   -1,783502102e-01    7,224048488e-03   -5,183476806e-01    0,000000000e+00    0,000000000e+00    0,000000000e+00    0,000000000e+00
      884000000   -3,382953107e-01    2,985366434e-02   -3,353321552e-01   -3,934161663e-01    0,000000000e+00    0,000000000e+00    0,000000000e+00    0,000000000e+00
      898000000   -2,132623494e-01    2,126244903e-01   -4,823826849e-01   -7,084308565e-02    0,000000000e+00    0,000000000e+00    0,000000000e+00    0,000000000e+00
      912000000   -5,954179913e-03    2,345823199e-01   -3,997597992e-01    2,521417141e-01    0,000000000e+00    0,000000000e+00    0,000000000e+00    0,000000000e+00
      926000000    1,493662894e-01    1,281539649e-01   -1,750279516e-01    4,059095681e-01    0,000000000e+00    0,000000000e+00    0,000000000e+00    0,000000000e+00
      940000000    2,018146664e-01   -3,578417376e-02    5,551592261e-02    4,221112132e-01    0,000000000e+00    0,000000000e+00    0,000000000e+00    0,000000000e+00
      954000000    1,576721817e-01   -1,997603774e-01    2,526681423e-01    3,415075541e-01    0,000000000e+00    0,000000000e+00    0,000000000e+00    0,000000000e+00
      968000000    2,654470690e-02   -3,174761236e-01    4,037908316e-01    1,822815984e-01    0,000000000e+00    0,000000000e+00    0,000000000e+00    0,000000000e+00
      982000000   -1,626369655e-01   -3,326244652e-01    4,666857719e-01   -6,423117220e-02    0,000000000e+00    0,000000000e+00    0,000000000e+00    0,000000000e+00
      996000000   -3,271704912e-01   -2,076704800e-01    3,605567515e-01   -3,543119431e-01    0,000000000e+00    0,000000000e+00    0,000000000e+00    0,000000000e+00
     1010000000   -3,323987126e-01   -1,735536195e-02    2,310433425e-02   -5,204235315e-01    0,000000000e+00    0,000000000e+00    0,000000000e+00    0,000000000e+00
     1024000000   -2,021116167e-01    5,304653943e-02   -3,768415153e-01   -3,388153315e-01    0,000000000e+00    0,000000000e+00    0,000000000e+00    0,000000000e+00
     1038000000   -2,260593325e-01   -3,352369741e-02   -4,115010500e-01    1,528189480e-01    0,000000000e+00    0,000000000e+00    0,000000000e+00    0,000000000e+00
     1052000000   -3,415896893e-01    1,669906825e-01    2,853926504e-03    2,579844594e-01    0,000000000e+00    0,000000000e+00    0,000000000e+00    0,000000000e+00
     1066000000   -9,346676618e-02    3,351310790e-01    7,315222919e-02    6,892484426e-02    0,000000000e+00    0,000000000e+00    0,000000000e+00    0,000000000e+00
     1080000000    1,243199781e-01    2,438692003e-01    3,598413616e-02    3,544470668e-02    0,000000000e+00    0,000000000e+00    0,000000000e+00    0,000000000e+00
     1094000000    2,325130254e-01    7,955891639e-02    4,237205535e-02    3,968365863e-02    0,000000000e+00    0,000000000e+00    0,000000000e+00    0,000000000e+00
     1108000000    2,473250926e-01   -9,683829546e-02    7,363134623e-02    3,303348273e-02    0,000000000e+00    0,000000000e+00    0,000000000e+00    0,000000000e+00
     1122000000    1,817487031e-01   -2,597358525e-01    1,116753370e-01    3,018527757e-03    0,000000000e+00    0,000000000e+00    0,000000000e+00    0,000000000e+00
     1136000000    3,694170713e-02   -3,830352128e-01    1,482122988e-01   -5,001969635e-02    0,000000000e+00    0,000000000e+00    0,000000000e+00    0,000000000e+00
     1150000000   -1,788213104e-01   -4,218426943e-01    1,662370414e-01   -1,434660107e-01    0,000000000e+00    0,000000000e+00    0,000000000e+00    0,000000000e+00
     1164000000   -3,955478072e-01   -3,076938987e-01    1,164375544e-01   -2,869934440e-01    0,000000000e+00    0,000000000e+00    0,000000000e+00    0,000000000e+00
     1178000000   -4,679123163e-01   -7,329703867e-02   -1,045391038e-01   -4,151816368e-01    0,000000000e+00    0,000000000e+00    0,000000000e+00    0,000000000e+00
     1192000000   -3,649714589e-01    4,112024233e-02   -4,606093466e-01   -2,035152316e-01    0,000000000e+00    0,000000000e+00    0,000000000e+00    0,000000000e+00
     1206000000   -4,185940325e-01    1,201263219e-01   -2,840773165e-01    2,436889857e-01    0,000000000e+00    0,000000000e+00    0,000000000e+00    0,000000000e+00
     1220000000   -2,927714288e-01    3,288359642e-01    8,211036213e-03    1,731074154e-01    0,000000000e+00    0,000000000e+00    0,000000000e+00    0,000000000e+00
     1234000000   -6,563185900e-02    3,611319661e-01    3,993835673e-02    4,686569050e-02    0,000000000e+00    0,000000000e+00    0,000000000e+00    0,000000000e+00
     1248000000    1,095004007e-01    2,748006880e-01    1,414154284e-02    1,594349928e-02    0,000000000e+00    0,000000000e+00    0,000000000e+00    0,000000000e+00
     1262000000    2,082622051e-01    1,259766519e-01   -1,832745911e-04    2,197638154e-02    0,000000000e+00    0,000000000e+00    0,000000000e+00    0,000000000e+00
     1276000000    2,428759336e-01   -4,213923216e-02    2,145891264e-02    2,977789007e-02    0,000000000e+00    0,000000000e+00    0,000000000e+00    0,000000000e+00
     1290000000    2,051145285e-01   -2,055864781e-01    4,939381778e-02    2,397980541e-02    0,000000000e+00    0,000000000e+00    0,000000000e+00    0,000000000e+00
     1304000000    9,145081043e-02   -3,518915772e-01    7,068370283e-02    1,093365438e-02    0,000000000e+00    0,000000000e+00    0,000000000e+00    0,000000000e+00
     1318000000   -9,926366061e-02   -4,468058050e-01    8,412509412e-02    3,887231462e-03    0,000000000e+00    0,000000000e+00    0,000000000e+00    0,000000000e+00
     1332000000   -3,584464192e-01   -4,363392293e-01    9,152516723e-02   -1,232543308e-02    0,000000000e+00    0,000000000e+00    0,000000000e+00    0,000000000e+00
     1346000000   -5,849397779e-01   -2,392952293e-01    1,027786657e-01   -3,177276812e-03    0,000000000e+00    0,000000000e+00    0,000000000e+00    0,000000000e+00
     1360000000   -6,489204168e-01    7,375153899e-02    1,298510432e-01   -2,046189643e-02    0,000000000e+00    0,000000000e+00    0,000000000e+00    0,000000000e+00
     1374000000   -4,960247576e-01    3,272336721e-01    1,546253115e-01   -5,190743133e-02    0,000000000e+00    0,000000000e+00    0,000000000e+00    0,000000000e+00
     1388000000   -2,677838206e-01    4,275350571e-01    1,462915093e-01   -8,786518127e-02    0,000000000e+00    0,000000000e+00    0,000000000e+00    0,000000000e+00
     1402000000   -6,683954597e-02    3,978103995e-01    1,269270480e-01   -1,075197980e-01    0,000000000e+00    0,000000000e+00    0,000000000e+00    0,000000000e+00
     1416000000    9,082081914e-02    3,061260283e-01    1,067790240e-01   -9,214065969e-02    0,000000000e+00    0,000000000e+00    0,000000000e+00    0,000000000e+00
     1430000000    1,874650270e-01    1,718149334e-01    1,143958569e-01   -8,602252603e-02    0,000000000e+00    0,000000000e+00    0,000000000e+00    0,000000000e+00
     1444000000    2,201456726e-01    1,247633994e-02    1,006741971e-01   -2,930952050e-02    0,000000000e+00    0,000000000e+00    0,000000000e+00    0,000000000e+00
     1458000000    1,964620352e-01   -1,672579795e-01    1,324635148e-01    1,463636570e-02    0,000000000e+00    0,000000000e+00    0,000000000e+00    0,000000000e+00
     1472000000    8,449798077e-02   -3,294864297e-01    1,896952689e-01    6,931759417e-02    0,000000000e+00    0,000000000e+00    0,000000000e+00    0,000000000e+00
     1486000000   -1,394208670e-01   -4,641017616e-01    2,822860181e-01    7,995606214e-02    0,000000000e+00    0,000000000e+00    0,000000000e+00    0,000000000e+00
     1500000000   -4,403443038e-01   -4,609340131e-01    4,007288814e-01    3,462282196e-02    0,000000000e+00    0,000000000e+00    0,000000000e+00    0,000000000e+00
