! NanoVNA-App
! Date: 2025-09-26 09:55:51
! Start: 100MHz Stop: 1,5GHz Points: 101
! S-Parameter data: F S11 S21 S12 S22
# Hz S RI R 50
!     Frequency           S11_Real           S11_Imag           S21_Real           S21_Imag           S12_Real           S12_Imag           S22_Real           S22_Imag
      100000000   -2,907003649e-02   -4,466854502e-03    3,741180003e-01   -7,226918340e-01    0,000000000e+00    0,000000000e+00    0,000000000e+00    0,000000000e+00
      114000000   -1,692961529e-02    1,125244424e-02   -8,950250596e-02   -8,063620329e-01    0,000000000e+00    0,000000000e+00    0,000000000e+00    0,000000000e+00
      128000000    2,775173401e-03    1,052862685e-02   -5,153694749e-01   -6,208724380e-01    0,000000000e+00    0,000000000e+00    0,000000000e+00    0,000000000e+00
      142000000    1,390636247e-02   -2,556206658e-03   -7,682120204e-01   -2,362802327e-01    0,000000000e+00    0,000000000e+00    0,000000000e+00    0,000000000e+00
      156000000    1,575216465e-02   -1,363549568e-02   -7,729948759e-01    2,252125740e-01    0,000000000e+00    0,000000000e+00    0,000000000e+00    0,000000000e+00
      170000000    1,682347432e-02   -2,205601707e-02   -5,182679892e-01    6,056844592e-01    0,000000000e+00    0,000000000e+00    0,000000000e+00    0,000000000e+00
      184000000    2,127429843e-02   -3,692062199e-02   -1,009947062e-01    7,871468067e-01    0,000000000e+00    0,000000000e+00    0,000000000e+00    0,000000000e+00
      198000000    1,313660294e-02   -6,248890981e-02    3,443166018e-01    7,129746675e-01    0,000000000e+00    0,000000000e+00    0,000000000e+00    0,000000000e+00
      212000000   -1,872865669e-02   -8,123759925e-02    6,792930961e-01    4,098508358e-01    0,000000000e+00    0,000000000e+00    0,000000000e+00    0,000000000e+00
      226000000   -6,160982326e-02   -6,900570542e-02    7,969212532e-01   -3,068701737e-02    0,000000000e+00    0,000000000e+00    0,000000000e+00    0,000000000e+00
      240000000   -8,231264353e-02   -2,574568428e-02    6,473348141e-01   -4,675891995e-01    0,000000000e+00    0,000000000e+00    0,000000000e+00    0,000000000e+00
      254000000   -6,343869865e-02    1,704799198e-02    2,767525911e-01   -7,441567779e-01    0,000000000e+00    0,000000000e+00    0,000000000e+00    0,000000000e+00
      268000000   -2,336818725e-02    2,869352512e-02   -1,764010340e-01   -7,653959990e-01    0,000000000e+00    0,000000000e+00    0,000000000e+00    0,000000000e+00
      282000000    3,730779281e-03    1,120667811e-02   -5,629039407e-01   -5,381253362e-01    0,000000000e+00    0,000000000e+00    0,000000000e+00    0,000000000e+00
      296000000    9,124196135e-03   -7,750970777e-03   -7,618200183e-01   -1,399024427e-01    0,000000000e+00    0,000000000e+00    0,000000000e+00    0,000000000e+00
      310000000    1,120423153e-02   -1,588242687e-02   -7,130079865e-01    2,993641794e-01    0,000000000e+00    0,000000000e+00    0,000000000e+00    0,000000000e+00
      324000000    1,983217895e-02   -2,666999772e-02   -4,279352427e-01    6,382904053e-01    0,000000000e+00    0,000000000e+00    0,000000000e+00    0,000000000e+00
      338000000    2,553804033e-02   -5,282141641e-02   -7,080184296e-03    7,634498477e-01    0,000000000e+00    0,000000000e+00    0,000000000e+00    0,000000000e+00
      352000000    6,749361288e-03   -8,539461344e-02    4,062445462e-01    6,413587928e-01    0,000000000e+00    0,000000000e+00    0,000000000e+00    0,000000000e+00
      366000000   -3,570338711e-02   -9,534368664e-02    6,916338205e-01    3,126127124e-01    0,000000000e+00    0,000000000e+00    0,000000000e+00    0,000000000e+00
      380000000   -7,138496637e-02   -6,995365769e-02    7,492377758e-01   -1,248267069e-01    0,000000000e+00    0,000000000e+00    0,000000000e+00    0,000000000e+00
      394000000   -7,242896408e-02   -3,154640272e-02    5,474267006e-01   -5,225349069e-01    0,000000000e+00    0,000000000e+00    0,000000000e+00    0,000000000e+00
      408000000   -4,583651945e-02   -1,557236910e-02    1,623474956e-01   -7,343293428e-01    0,000000000e+00    0,000000000e+00    0,000000000e+00    0,000000000e+00
      422000000   -2,788840234e-02   -3,179882839e-02   -2,659622729e-01   -6,968327761e-01    0,000000000e+00    0,000000000e+00    0,000000000e+00    0,000000000e+00
      436000000   -3,999688104e-02   -5,228414387e-02   -6,042703390e-01   -4,338467419e-01    0,000000000e+00    0,000000000e+00    0,000000000e+00    0,000000000e+00
      450000000   -6,714881212e-02   -4,440752789e-02   -7,412208319e-01   -2,467873506e-02    0,000000000e+00    0,000000000e+00    0,000000000e+00    0,000000000e+00
      464000000   -7,325328141e-02   -1,259156503e-02   -6,222935915e-01    3,951535523e-01    0,000000000e+00    0,000000000e+00    0,000000000e+00    0,000000000e+00
      478000000   -4,800899327e-02    1,056251489e-02   -2,872406542e-01    6,683494449e-01    0,000000000e+00    0,000000000e+00    0,000000000e+00    0,000000000e+00
      492000000   -1,673705317e-02    5,083046388e-03    1,345500797e-01    7,049410343e-01    0,000000000e+00    0,000000000e+00    0,000000000e+00    0,000000000e+00
      506000000   -4,165561870e-03   -1,620880328e-02    4,980196357e-01    5,065933466e-01    0,000000000e+00    0,000000000e+00    0,000000000e+00    0,000000000e+00
      520000000   -6,935630459e-03   -2,977558039e-02    6,912400126e-01    1,448096335e-01    0,000000000e+00    0,000000000e+00    0,000000000e+00    0,000000000e+00
      534000000   -3,828080138e-03   -3,532858938e-02    6,455057263e-01   -2,606229186e-01    0,000000000e+00    0,000000000e+00    0,000000000e+00    0,000000000e+00
      548000000    8,187071420e-03   -5,244196951e-02    3,850775659e-01   -5,644136667e-01    0,000000000e+00    0,000000000e+00    0,000000000e+00    0,000000000e+00
      562000000    5,505397916e-03   -8,987817168e-02    7,975474931e-03   -6,727669239e-01    0,000000000e+00    0,000000000e+00    0,000000000e+00    0,000000000e+00
      576000000   -3,198339045e-02   -1,263563186e-01   -3,626739383e-01   -5,615370274e-01    0,000000000e+00    0,000000000e+00    0,000000000e+00    0,000000000e+00
      590000000   -9,529484063e-02   -1,274162084e-01   -6,188672781e-01   -2,741673887e-01    0,000000000e+00    0,000000000e+00    0,000000000e+00    0,000000000e+00
      604000000   -1,426914781e-01   -7,716560364e-02   -6,686990261e-01    1,264308244e-01    0,000000000e+00    0,000000000e+00    0,000000000e+00    0,000000000e+00
      618000000   -1,366637051e-01   -1,082657557e-02   -4,762381017e-01    4,868938327e-01    0,000000000e+00    0,000000000e+00    0,000000000e+00    0,000000000e+00
      632000000   -9,227662534e-02    2,160340548e-02   -1,142245531e-01    6,638385057e-01    0,000000000e+00    0,000000000e+00    0,000000000e+00    0,000000000e+00
      646000000   -5,509322509e-02    1,089269854e-02    2,741525173e-01    6,040048003e-01    0,000000000e+00    0,000000000e+00    0,000000000e+00    0,000000000e+00
      660000000   -4,845780134e-02   -9,127260186e-03    5,588909388e-01    3,401733935e-01    0,000000000e+00    0,000000000e+00    0,000000000e+00    0,000000000e+00
      674000000   -5,609584600e-02   -9,587923065e-03    6,445603371e-01   -4,117687419e-02    0,000000000e+00    0,000000000e+00    0,000000000e+00    0,000000000e+00
      688000000   -4,949867725e-02    4,276700318e-03    4,925594926e-01   -4,022718668e-01    0,000000000e+00    0,000000000e+00    0,000000000e+00    0,000000000e+00
      702000000   -2,390513942e-02    6,106514949e-03    1,595848054e-01   -6,014093757e-01    0,000000000e+00    0,000000000e+00    0,000000000e+00    0,000000000e+00
      716000000   -1,189342118e-03   -1,051267050e-02   -2,180935591e-01   -5,759999156e-01    0,000000000e+00    0,000000000e+00    0,000000000e+00    0,000000000e+00
      730000000    9,254422970e-03   -3,518914804e-02   -5,100307465e-01   -3,340414166e-01    0,000000000e+00    0,000000000e+00    0,000000000e+00    0,000000000e+00
      744000000    1,598309539e-02   -6,176671758e-02   -6,016482115e-01    3,363277018e-02    0,000000000e+00    0,000000000e+00    0,000000000e+00    0,000000000e+00
      758000000    2,266096324e-02   -1,039969176e-01   -4,542046785e-01    3,786001503e-01    0,000000000e+00    0,000000000e+00    0,000000000e+00    0,000000000e+00
      772000000   -5,437789019e-03   -1,743249297e-01   -1,381024122e-01    5,582678318e-01    0,000000000e+00    0,000000000e+00    0,000000000e+00    0,000000000e+00
      786000000   -1,054493114e-01   -2,332560122e-01    2,125907689e-01    5,188964605e-01    0,000000000e+00    0,000000000e+00    0,000000000e+00    0,000000000e+00
      800000000   -2,679800689e-01   -1,939766854e-01    4,720931947e-01    2,744078040e-01    0,000000000e+00    0,000000000e+00    0,000000000e+00    0,000000000e+00
      814000000   -3,666678071e-01    6,101565901e-03    5,072729588e-01   -9,108053148e-02    0,000000000e+00    0,000000000e+00    0,000000000e+00    0,000000000e+00
      828000000   -2,459529042e-01    2,362504750e-01    2,784979641e-01   -3,535073996e-01    0,000000000e+00    0,000000000e+00    0,000000000e+00    0,000000000e+00
      842000000    1,558107138e-02    2,793413699e-01   -1,904495060e-02   -3,627287745e-01    0,000000000e+00    0,000000000e+00    0,000000000e+00    0,000000000e+00
      856000000    2,149901390e-01    1,147148907e-01   -1,896444857e-01   -2,024621665e-01    0,000000000e+00    0,000000000e+00    0,000000000e+00    0,000000000e+00
      870000000    2,407294810e-01   -1,510932893e-01   -2,006547749e-01   -2,376629785e-02    0,000000000e+00    0,000000000e+00    0,000000000e+00    0,000000000e+00
      884000000    3,866370022e-02   -3,890608251e-01   -1,021560654e-01    7,214963436e-02    0,000000000e+00    0,000000000e+00    0,000000000e+00    0,000000000e+00
      898000000   -3,717833459e-01   -3,438979983e-01   -1,468240377e-02    2,755946107e-02    0,000000000e+00    0,000000000e+00    0,000000000e+00    0,000000000e+00
      912000000   -4,705133140e-01    1,387467086e-01   -1,205604821e-01    3,281372413e-02    0,000000000e+00    0,000000000e+00    0,000000000e+00    0,000000000e+00
      926000000   -9,675826132e-02    3,529760838e-01   -1,308940649e-01    1,308767796e-01    0,000000000e+00    0,000000000e+00    0,000000000e+00    0,000000000e+00
      940000000    1,857908070e-01    1,964674890e-01   -4,227277264e-02    2,132222056e-01    0,000000000e+00    0,000000000e+00    0,000000000e+00    0,000000000e+00
      954000000    2,576076686e-01   -5,051540211e-02    7,592719793e-02    2,272259146e-01    0,000000000e+00    0,000000000e+00    0,000000000e+00    0,000000000e+00
      968000000    1,754506528e-01   -2,649404407e-01    1,881803423e-01    1,826272756e-01    0,000000000e+00    0,000000000e+00    0,000000000e+00    0,000000000e+00
      982000000   -1,951190643e-02   -3,974360824e-01    2,769711614e-01    8,102403581e-02    0,000000000e+00    0,000000000e+00    0,000000000e+00    0,000000000e+00
      996000000   -2,786840498e-01   -3,805219531e-01    3,088152409e-01   -7,477057725e-02    0,000000000e+00    0,000000000e+00    0,000000000e+00    0,000000000e+00
     1010000000   -4,752660990e-01   -1,708456278e-01    2,210468799e-01   -2,508920431e-01    0,000000000e+00    0,000000000e+00    0,000000000e+00    0,000000000e+00
     1024000000   -4,663119912e-01    1,201474965e-01    2,155594528e-02   -3,313119411e-01    0,000000000e+00    0,000000000e+00    0,000000000e+00    0,000000000e+00
     1038000000   -2,609155178e-01    3,037260175e-01   -1,747688055e-01   -2,467053086e-01    0,000000000e+00    0,000000000e+00    0,000000000e+00    0,000000000e+00
     1052000000   -3,745292500e-02    3,119492531e-01   -2,580627203e-01   -7,691926509e-02    0,000000000e+00    0,000000000e+00    0,000000000e+00    0,000000000e+00
     1066000000    1,289070696e-01    2,048868835e-01   -2,243945748e-01    8,702091128e-02    0,000000000e+00    0,000000000e+00    0,000000000e+00    0,000000000e+00
     1080000000    2,128611803e-01    4,559269175e-02   -1,229924634e-01    1,927824318e-01    0,000000000e+00    0,000000000e+00    0,000000000e+00    0,000000000e+00
     1094000000    2,029674947e-01   -1,322332770e-01    1,432077587e-02    2,338774353e-01    0,000000000e+00    0,000000000e+00    0,000000000e+00    0,000000000e+00
     1108000000    1,017284989e-01   -2,934541702e-01    1,629996747e-01    2,087164670e-01    0,000000000e+00    0,000000000e+00    0,000000000e+00    0,000000000e+00
     1122000000   -1,041347384e-01   -3,726082146e-01    3,142733872e-01    9,755802155e-02    0,000000000e+00    0,000000000e+00    0,000000000e+00    0,000000000e+00
     1136000000   -3,540258706e-01   -2,740553617e-01    3,920378387e-01   -1,444290429e-01    0,000000000e+00    0,000000000e+00    0,000000000e+00    0,000000000e+00
     1150000000   -4,134168923e-01    3,272126988e-02    2,464019954e-01   -4,255460799e-01    0,000000000e+00    0,000000000e+00    0,000000000e+00    0,000000000e+00
     1164000000   -1,639719307e-01    2,224260271e-01   -8,786202967e-02   -5,087643862e-01    0,000000000e+00    0,000000000e+00    0,000000000e+00    0,000000000e+00
     1178000000    7,830676436e-02    8,483052254e-02   -3,461543918e-01   -3,450605571e-01    0,000000000e+00    0,000000000e+00    0,000000000e+00    0,000000000e+00
     1192000000    7,574965060e-02   -1,751778871e-01   -4,462468326e-01   -8,578251302e-02    0,000000000e+00    0,000000000e+00    0,000000000e+00    0,000000000e+00
     1206000000   -1,601207852e-01   -3,304054141e-01   -3,627735376e-01    1,839853674e-01    0,000000000e+00    0,000000000e+00    0,000000000e+00    0,000000000e+00
     1220000000   -4,602114260e-01   -1,778799593e-01   -1,039154232e-01    3,219152391e-01    0,000000000e+00    0,000000000e+00    0,000000000e+00    0,000000000e+00
     1234000000   -4,723743200e-01    1,677286029e-01    1,427543312e-01    2,175614685e-01    0,000000000e+00    0,000000000e+00    0,000000000e+00    0,000000000e+00
     1248000000   -2,392416149e-01    3,579315543e-01    1,895048767e-01    3,040950559e-02    0,000000000e+00    0,000000000e+00    0,000000000e+00    0,000000000e+00
     1262000000    9,949798696e-03    3,328838050e-01    1,273508072e-01   -6,927533448e-02    0,000000000e+00    0,000000000e+00    0,000000000e+00    0,000000000e+00
     1276000000    1,567883343e-01    1,965152174e-01    5,161110312e-02   -9,728349000e-02    0,000000000e+00    0,000000000e+00    0,000000000e+00    0,000000000e+00
     1290000000    2,213770300e-01    3,411960602e-02    5,044281483e-03   -6,886113435e-02    0,000000000e+00    0,000000000e+00    0,000000000e+00    0,000000000e+00
     1304000000    2,084549516e-01   -1,499180496e-01   -1,515753753e-02   -2,937463671e-02    0,000000000e+00    0,000000000e+00    0,000000000e+00    0,000000000e+00
     1318000000    1,153058708e-01   -3,149196506e-01   -5,129407160e-03    2,445332147e-02    0,000000000e+00    0,000000000e+00    0,000000000e+00    0,000000000e+00
     1332000000   -6,689608842e-02   -4,377536774e-01    5,045894533e-02    5,765238032e-02    0,000000000e+00    0,000000000e+00    0,000000000e+00    0,000000000e+00
     1346000000   -3,259581029e-01   -4,420041740e-01    1,422358304e-01    4,470067844e-02    0,000000000e+00    0,000000000e+00    0,000000000e+00    0,000000000e+00
     1360000000   -5,604802370e-01   -2,459706962e-01    1,093873307e-01   -7,803332061e-02    0,000000000e+00    0,000000000e+00    0,000000000e+00    0,000000000e+00
     1374000000   -6,292318702e-01    3,502274677e-02    9,248556942e-02    5,911829695e-02    0,000000000e+00    0,000000000e+00    0,000000000e+00    0,000000000e+00
     1388000000   -5,115884542e-01    2,947198749e-01    2,180671692e-01    9,750761674e-04    0,000000000e+00    0,000000000e+00    0,000000000e+00    0,000000000e+00
     1402000000   -3,049218059e-01    4,233503044e-01    2,108952701e-01   -8,667390794e-02    0,000000000e+00    0,000000000e+00    0,000000000e+00    0,000000000e+00
     1416000000   -9,023234993e-02    4,186192155e-01    1,787621230e-01   -1,221995577e-01    0,000000000e+00    0,000000000e+00    0,000000000e+00    0,000000000e+00
     1430000000    8,290153742e-02    3,342214227e-01    1,509742290e-01   -1,249871850e-01    0,000000000e+00    0,000000000e+00    0,000000000e+00    0,000000000e+00
     1444000000    1,855271161e-01    1,971482337e-01    1,526654363e-01   -9,915616363e-02    0,000000000e+00    0,000000000e+00    0,000000000e+00    0,000000000e+00
     1458000000    2,280270606e-01    3,138888627e-02    1,467233598e-01   -9,361667186e-02    0,000000000e+00    0,000000000e+00    0,000000000e+00    0,000000000e+00
     1472000000    2,127599567e-01   -1,535569876e-01    1,516826302e-01   -5,744497851e-02    0,000000000e+00    0,000000000e+00    0,000000000e+00    0,000000000e+00
     1486000000    1,041422337e-01   -3,312987089e-01    1,490001529e-01   -1,495029125e-02    0,000000000e+00    0,000000000e+00    0,000000000e+00    0,000000000e+00
     1500000000   -9,460455179e-02   -4,601823986e-01    2,045719773e-01    5,682994425e-02    0,000000000e+00    0,000000000e+00    0,000000000e+00    0,000000000e+00
