! NanoVNA-App
! Date: 2025-09-26 09:56:11
! Start: 100MHz Stop: 1,5GHz Points: 101
! S-Parameter data: F S11 S21 S12 S22
# Hz S RI R 50
!     Frequency           S11_Real           S11_Imag           S21_Real           S21_Imag           S12_Real           S12_Imag           S22_Real           S22_Imag
      100000000   -2,906062081e-02   -4,469611682e-03    3,741060197e-01   -7,226688862e-01    0,000000000e+00    0,000000000e+00    0,000000000e+00    0,000000000e+00
      114000000   -1,693852618e-02    1,124083716e-02   -8,967285603e-02   -8,063142896e-01    0,000000000e+00    0,000000000e+00    0,000000000e+00    0,000000000e+00
      128000000    2,733039204e-03    1,052946132e-02   -5,154373050e-01   -6,210708022e-01    0,000000000e+00    0,000000000e+00    0,000000000e+00    0,000000000e+00
      142000000    1,391292643e-02   -2,562532900e-03   -7,683254480e-01   -2,363657057e-01    0,000000000e+00    0,000000000e+00    0,000000000e+00    0,000000000e+00
      156000000    1,458851714e-02   -1,427388564e-02   -7,665585876e-01    2,224662006e-01    0,000000000e+00    0,000000000e+00    0,000000000e+00    0,000000000e+00
      170000000    1,680165716e-02   -2,208029293e-02   -5,183431506e-01    6,060945392e-01    0,000000000e+00    0,000000000e+00    0,000000000e+00    0,000000000e+00
      184000000    2,128006145e-02   -3,691418096e-02   -1,008985043e-01    7,870708108e-01    0,000000000e+00    0,000000000e+00    0,000000000e+00    0,000000000e+00
      198000000    1,307531446e-02   -6,248403713e-02    3,443349302e-01    7,132100463e-01    0,000000000e+00    0,000000000e+00    0,000000000e+00    0,000000000e+00
      212000000   -1,879156381e-02   -8,120129257e-02    6,793366671e-01    4,097588658e-01    0,000000000e+00    0,000000000e+00    0,000000000e+00    0,000000000e+00
      226000000   -6,156429648e-02   -6,887453049e-02    7,968274355e-01   -3,066765517e-02    0,000000000e+00    0,000000000e+00    0,000000000e+00    0,000000000e+00
      240000000   -8,215889335e-02   -2,567030117e-02    6,472479105e-01   -4,674706757e-01    0,000000000e+00    0,000000000e+00    0,000000000e+00    0,000000000e+00
      254000000   -6,327343732e-02    1,680935733e-02    2,772922218e-01   -7,444897890e-01    0,000000000e+00    0,000000000e+00    0,000000000e+00    0,000000000e+00
      268000000   -2,378430963e-02    2,859581634e-02   -1,777630001e-01   -7,658440471e-01    0,000000000e+00    0,000000000e+00    0,000000000e+00    0,000000000e+00
      282000000    4,083979409e-03    1,126567833e-02   -5,627617836e-01   -5,377029777e-01    0,000000000e+00    0,000000000e+00    0,000000000e+00    0,000000000e+00
      296000000    9,085633792e-03   -7,732400205e-03   -7,619312406e-01   -1,399148256e-01    0,000000000e+00    0,000000000e+00    0,000000000e+00    0,000000000e+00
      310000000    1,128633320e-02   -1,602808945e-02   -7,145312428e-01    2,980530858e-01    0,000000000e+00    0,000000000e+00    0,000000000e+00    0,000000000e+00
      324000000    2,009146661e-02   -2,672869526e-02   -4,277001917e-01    6,391562819e-01    0,000000000e+00    0,000000000e+00    0,000000000e+00    0,000000000e+00
      338000000    2,521875314e-02   -5,274345726e-02   -1,113211643e-02    7,640311718e-01    0,000000000e+00    0,000000000e+00    0,000000000e+00    0,000000000e+00
      352000000    6,770725828e-03   -8,519491553e-02    4,068111777e-01    6,416256428e-01    0,000000000e+00    0,000000000e+00    0,000000000e+00    0,000000000e+00
      366000000   -3,561566025e-02   -9,548058361e-02    6,923705339e-01    3,122947812e-01    0,000000000e+00    0,000000000e+00    0,000000000e+00    0,000000000e+00
      380000000   -7,130277157e-02   -6,987831742e-02    7,493399978e-01   -1,250602305e-01    0,000000000e+00    0,000000000e+00    0,000000000e+00    0,000000000e+00
      394000000   -7,256075740e-02   -3,151017055e-02    5,482444167e-01   -5,211645365e-01    0,000000000e+00    0,000000000e+00    0,000000000e+00    0,000000000e+00
      408000000   -4,565135017e-02   -1,581405289e-02    1,627871543e-01   -7,331103683e-01    0,000000000e+00    0,000000000e+00    0,000000000e+00    0,000000000e+00
      422000000   -2,755237184e-02   -3,209900483e-02   -2,655668557e-01   -6,969361305e-01    0,000000000e+00    0,000000000e+00    0,000000000e+00    0,000000000e+00
      436000000   -3,990970552e-02   -5,212839320e-02   -6,036452651e-01   -4,343785644e-01    0,000000000e+00    0,000000000e+00    0,000000000e+00    0,000000000e+00
      450000000   -6,716105342e-02   -4,489610344e-02   -7,415674925e-01   -2,508375794e-02    0,000000000e+00    0,000000000e+00    0,000000000e+00    0,000000000e+00
      464000000   -7,322025299e-02   -1,224270929e-02   -6,220545173e-01    3,955523372e-01    0,000000000e+00    0,000000000e+00    0,000000000e+00    0,000000000e+00
      478000000   -4,794937000e-02    1,105290931e-02   -2,871081829e-01    6,684150696e-01    0,000000000e+00    0,000000000e+00    0,000000000e+00    0,000000000e+00
      492000000   -1,689959504e-02    5,357320420e-03    1,343773156e-01    7,060008049e-01    0,000000000e+00    0,000000000e+00    0,000000000e+00    0,000000000e+00
      506000000   -4,314111080e-03   -1,629749313e-02    4,985612035e-01    5,075339675e-01    0,000000000e+00    0,000000000e+00    0,000000000e+00    0,000000000e+00
      520000000   -7,150929887e-03   -2,989892848e-02    6,897905469e-01    1,438896656e-01    0,000000000e+00    0,000000000e+00    0,000000000e+00    0,000000000e+00
      534000000   -3,331159241e-03   -3,564766422e-02    6,453953981e-01   -2,611404061e-01    0,000000000e+00    0,000000000e+00    0,000000000e+00    0,000000000e+00
      548000000    8,702772669e-03   -5,284405500e-02    3,855815232e-01   -5,649874210e-01    0,000000000e+00    0,000000000e+00    0,000000000e+00    0,000000000e+00
      562000000    5,558170844e-03   -8,961843699e-02    8,207393810e-03   -6,724978685e-01    0,000000000e+00    0,000000000e+00    0,000000000e+00    0,000000000e+00
      576000000   -3,214430809e-02   -1,265310794e-01   -3,623544276e-01   -5,617182255e-01    0,000000000e+00    0,000000000e+00    0,000000000e+00    0,000000000e+00
      590000000   -9,555599093e-02   -1,274561137e-01   -6,190356612e-01   -2,743192017e-01    0,000000000e+00    0,000000000e+00    0,000000000e+00    0,000000000e+00
      604000000   -1,431609094e-01   -7,733117044e-02   -6,688498855e-01    1,261307150e-01    0,000000000e+00    0,000000000e+00    0,000000000e+00    0,000000000e+00
      618000000   -1,372178495e-01   -1,028428972e-02   -4,770461321e-01    4,870493710e-01    0,000000000e+00    0,000000000e+00    0,000000000e+00    0,000000000e+00
      632000000   -9,197126329e-02    2,088294737e-02   -1,136529520e-01    6,634450555e-01    0,000000000e+00    0,000000000e+00    0,000000000e+00    0,000000000e+00
      646000000   -5,432027578e-02    1,109685935e-02    2,741675675e-01    6,038524508e-01    0,000000000e+00    0,000000000e+00    0,000000000e+00    0,000000000e+00
      660000000   -4,854252189e-02   -9,880372323e-03    5,583419800e-01    3,402457833e-01    0,000000000e+00    0,000000000e+00    0,000000000e+00    0,000000000e+00
      674000000   -5,571874231e-02   -1,065256912e-02    6,442891955e-01   -4,103242233e-02    0,000000000e+00    0,000000000e+00    0,000000000e+00    0,000000000e+00
      688000000   -4,908581823e-02    2,939536003e-03    4,930529296e-01   -4,022634625e-01    0,000000000e+00    0,000000000e+00    0,000000000e+00    0,000000000e+00
      702000000   -2,529656328e-02    6,928661838e-03    1,588637531e-01   -6,069270372e-01    0,000000000e+00    0,000000000e+00    0,000000000e+00    0,000000000e+00
      716000000   -2,400907455e-03   -1,034888998e-02   -2,188010663e-01   -5,754913688e-01    0,000000000e+00    0,000000000e+00    0,000000000e+00    0,000000000e+00
      730000000    9,530692361e-03   -3,517953679e-02   -5,099403262e-01   -3,338520527e-01    0,000000000e+00    0,000000000e+00    0,000000000e+00    0,000000000e+00
      744000000    1,639299840e-02   -6,189551204e-02   -6,017030478e-01    3,353211284e-02    0,000000000e+00    0,000000000e+00    0,000000000e+00    0,000000000e+00
      758000000    2,186741680e-02   -1,034892425e-01   -4,545708299e-01    3,784090877e-01    0,000000000e+00    0,000000000e+00    0,000000000e+00    0,000000000e+00
      772000000   -4,320216365e-03   -1,746909171e-01   -1,390556991e-01    5,587426424e-01    0,000000000e+00    0,000000000e+00    0,000000000e+00    0,000000000e+00
      786000000   -1,051955521e-01   -2,341516465e-01    2,117113173e-01    5,190935731e-01    0,000000000e+00    0,000000000e+00    0,000000000e+00    0,000000000e+00
      800000000   -2,686389089e-01   -1,926491261e-01    4,727504551e-01    2,744268179e-01    0,000000000e+00    0,000000000e+00    0,000000000e+00    0,000000000e+00
      814000000   -3,663467169e-01    4,645112436e-03    5,071524382e-01   -9,072620422e-02    0,000000000e+00    0,000000000e+00    0,000000000e+00    0,000000000e+00
      828000000   -2,467888892e-01    2,370058745e-01    2,789853215e-01   -3,539054096e-01    0,000000000e+00    0,000000000e+00    0,000000000e+00    0,000000000e+00
      842000000    1,575620845e-02    2,789956927e-01   -1,901573874e-02   -3,625839949e-01    0,000000000e+00    0,000000000e+00    0,000000000e+00    0,000000000e+00
      856000000    2,152508944e-01    1,141506806e-01   -1,892030537e-01   -2,028767318e-01    0,000000000e+00    0,000000000e+00    0,000000000e+00    0,000000000e+00
      870000000    2,407194376e-01   -1,511015594e-01   -2,004454434e-01   -2,336875722e-02    0,000000000e+00    0,000000000e+00    0,000000000e+00    0,000000000e+00
      884000000    3,788011894e-02   -3,894823194e-01   -1,020710394e-01    7,201027870e-02    0,000000000e+00    0,000000000e+00    0,000000000e+00    0,000000000e+00
      898000000   -3,721371293e-01   -3,444830179e-01   -1,599028893e-02    2,749250084e-02    0,000000000e+00    0,000000000e+00    0,000000000e+00    0,000000000e+00
      912000000   -4,699520171e-01    1,405045241e-01   -1,131369695e-01    1,979487762e-02    0,000000000e+00    0,000000000e+00    0,000000000e+00    0,000000000e+00
      926000000   -9,465257078e-02    3,548110425e-01   -1,291939765e-01    1,324491799e-01    0,000000000e+00    0,000000000e+00    0,000000000e+00    0,000000000e+00
      940000000    1,879859269e-01    1,942464709e-01   -4,036997631e-02    2,131529599e-01    0,000000000e+00    0,000000000e+00    0,000000000e+00    0,000000000e+00
      954000000    2,593691051e-01   -4,980453849e-02    7,567290217e-02    2,257796377e-01    0,000000000e+00    0,000000000e+00    0,000000000e+00    0,000000000e+00
      968000000    1,756227762e-01   -2,646626830e-01    1,883153021e-01    1,816319227e-01    0,000000000e+00    0,000000000e+00    0,000000000e+00    0,000000000e+00
      982000000   -1,437387429e-02   -3,970539272e-01    2,794970572e-01    8,306720853e-02    0,000000000e+00    0,000000000e+00    0,000000000e+00    0,000000000e+00
      996000000   -2,743938565e-01   -3,786663711e-01    3,073609173e-01   -7,579781860e-02    0,000000000e+00    0,000000000e+00    0,000000000e+00    0,000000000e+00
     1010000000   -4,754323661e-01   -1,749634445e-01    2,228039056e-01   -2,498446852e-01    0,000000000e+00    0,000000000e+00    0,000000000e+00    0,000000000e+00
     1024000000   -4,636875093e-01    1,243245229e-01    2,145081572e-02   -3,315368891e-01    0,000000000e+00    0,000000000e+00    0,000000000e+00    0,000000000e+00
     1038000000   -2,622680366e-01    2,995852232e-01   -1,729364246e-01   -2,463285029e-01    0,000000000e+00    0,000000000e+00    0,000000000e+00    0,000000000e+00
     1052000000   -3,191276267e-02    3,106826544e-01   -2,577928603e-01   -7,646664232e-02    0,000000000e+00    0,000000000e+00    0,000000000e+00    0,000000000e+00
     1066000000    1,324737519e-01    2,070305496e-01   -2,243901640e-01    8,725502342e-02    0,000000000e+00    0,000000000e+00    0,000000000e+00    0,000000000e+00
     1080000000    2,130546421e-01    4,763882235e-02   -1,223559529e-01    1,916080713e-01    0,000000000e+00    0,000000000e+00    0,000000000e+00    0,000000000e+00
     1094000000    2,058589906e-01   -1,300787181e-01    1,319607813e-02    2,363827974e-01    0,000000000e+00    0,000000000e+00    0,000000000e+00    0,000000000e+00
     1108000000    1,053596437e-01   -2,936861217e-01    1,648202538e-01    2,100069970e-01    0,000000000e+00    0,000000000e+00    0,000000000e+00    0,000000000e+00
     1122000000   -1,031894609e-01   -3,752003908e-01    3,135489523e-01    9,489147365e-02    0,000000000e+00    0,000000000e+00    0,000000000e+00    0,000000000e+00
     1136000000   -3,470630050e-01   -2,714636028e-01    3,909540772e-01   -1,426886916e-01    0,000000000e+00    0,000000000e+00    0,000000000e+00    0,000000000e+00
     1150000000   -4,158193171e-01    3,457230330e-02    2,437291592e-01   -4,336021841e-01    0,000000000e+00    0,000000000e+00    0,000000000e+00    0,000000000e+00
     1164000000   -1,577862352e-01    2,209447175e-01   -8,760614693e-02   -5,107212067e-01    0,000000000e+00    0,000000000e+00    0,000000000e+00    0,000000000e+00
     1178000000    7,335448265e-02    8,061288297e-02   -3,486202061e-01   -3,480422795e-01    0,000000000e+00    0,000000000e+00    0,000000000e+00    0,000000000e+00
     1192000000    7,766203582e-02   -1,763795018e-01   -4,451912045e-01   -8,773300797e-02    0,000000000e+00    0,000000000e+00    0,000000000e+00    0,000000000e+00
     1206000000   -1,610907763e-01   -3,310039341e-01   -3,624814153e-01    1,848703474e-01    0,000000000e+00    0,000000000e+00    0,000000000e+00    0,000000000e+00
     1220000000   -4,611970782e-01   -1,810445786e-01   -1,040648669e-01    3,268773556e-01    0,000000000e+00    0,000000000e+00    0,000000000e+00    0,000000000e+00
     1234000000   -4,727165103e-01    1,650840938e-01    1,416966170e-01    2,141108215e-01    0,000000000e+00    0,000000000e+00    0,000000000e+00    0,000000000e+00
     1248000000   -2,353018075e-01    3,636849523e-01    1,961287856e-01    3,688846901e-02    0,000000000e+00    0,000000000e+00    0,000000000e+00    0,000000000e+00
     1262000000    7,599924225e-03    3,285220861e-01    1,271265149e-01   -7,309456170e-02    0,000000000e+00    0,000000000e+00    0,000000000e+00    0,000000000e+00
     1276000000    1,606179625e-01    1,966366917e-01    5,767866224e-02   -9,600989521e-02    0,000000000e+00    0,000000000e+00    0,000000000e+00    0,000000000e+00
     1290000000    2,265561223e-01    2,976708114e-02    3,978759516e-03   -7,222584635e-02    0,000000000e+00    0,000000000e+00    0,000000000e+00    0,000000000e+00
     1304000000    2,068791687e-01   -1,478645653e-01   -2,298698016e-02   -3,040022403e-02    0,000000000e+00    0,000000000e+00    0,000000000e+00    0,000000000e+00
     1318000000    1,195374280e-01   -3,135252595e-01   -8,513608482e-04    1,962229051e-02    0,000000000e+00    0,000000000e+00    0,000000000e+00    0,000000000e+00
     1332000000   -6,945562363e-02   -4,410670102e-01    4,415520653e-02    5,946942419e-02    0,000000000e+00    0,000000000e+00    0,000000000e+00    0,000000000e+00
     1346000000   -3,272417486e-01   -4,396547079e-01    1,372367740e-01    4,127719253e-02    0,000000000e+00    0,000000000e+00    0,000000000e+00    0,000000000e+00
     1360000000   -5,542907715e-01   -2,462450117e-01    1,144557893e-01   -8,405039459e-02    0,000000000e+00    0,000000000e+00    0,000000000e+00    0,000000000e+00
     1374000000   -6,274560094e-01    2,666061744e-02    9,043706208e-02    5,450773612e-02    0,000000000e+00    0,000000000e+00    0,000000000e+00    0,000000000e+00
     1388000000   -5,185526013e-01    2,924014330e-01    2,197383195e-01    9,293137118e-04    0,000000000e+00    0,000000000e+00    0,000000000e+00    0,000000000e+00
     1402000000   -3,006184399e-01    4,241249859e-01    2,174691111e-01   -7,166223228e-02    0,000000000e+00    0,000000000e+00    0,000000000e+00    0,000000000e+00
     1416000000   -8,642037213e-02    4,206240177e-01    1,796063483e-01   -1,236347556e-01    0,000000000e+00    0,000000000e+00    0,000000000e+00    0,000000000e+00
     1430000000    7,810314745e-02    3,411283791e-01    1,807300448e-01   -1,191594452e-01    0,000000000e+00    0,000000000e+00    0,000000000e+00    0,000000000e+00
     1444000000    1,849809736e-01    1,979653090e-01    1,495257169e-01   -1,029422656e-01    0,000000000e+00    0,000000000e+00    0,000000000e+00    0,000000000e+00
     1458000000    2,314080894e-01    3,312278166e-02    1,456489861e-01   -7,872100174e-02    0,000000000e+00    0,000000000e+00    0,000000000e+00    0,000000000e+00
     1472000000    2,073467523e-01   -1,554667652e-01    1,546335965e-01   -5,327969417e-02    0,000000000e+00    0,000000000e+00    0,000000000e+00    0,000000000e+00
     1486000000    1,087627262e-01   -3,288291991e-01    1,706789434e-01    2,171317348e-03    0,000000000e+00    0,000000000e+00    0,000000000e+00    0,000000000e+00
     1500000000   -9,584448487e-02   -4,549108148e-01    2,107487023e-01    5,699653551e-02    0,000000000e+00    0,000000000e+00    0,000000000e+00    0,000000000e+00
