! NanoVNA-App
! Date: 2025-09-25 17:39:11
! Start: 100MHz Stop: 1,5GHz Points: 101
! S-Parameter data: F S11 S21 S12 S22
# Hz S RI R 50
!     Frequency           S11_Real           S11_Imag           S21_Real           S21_Imag           S12_Real           S12_Imag           S22_Real           S22_Imag
      100000000   -2,886815183e-02   -4,294419196e-03    3,741478026e-01   -7,218312621e-01    0,000000000e+00    0,000000000e+00    0,000000000e+00    0,000000000e+00
      114000000   -1,662844978e-02    1,136502996e-02   -8,907839656e-02   -8,056728244e-01    0,000000000e+00    0,000000000e+00    0,000000000e+00    0,000000000e+00
      128000000    3,151126904e-03    1,050553005e-02   -5,148187280e-01   -6,207098961e-01    0,000000000e+00    0,000000000e+00    0,000000000e+00    0,000000000e+00
      142000000    1,423720457e-02   -2,781938529e-03   -7,673506141e-01   -2,363163680e-01    0,000000000e+00    0,000000000e+00    0,000000000e+00    0,000000000e+00
      156000000    1,444836427e-02   -1,464331150e-02   -7,643913627e-01    2,205088139e-01    0,000000000e+00    0,000000000e+00    0,000000000e+00    0,000000000e+00
      170000000    1,684931107e-02   -2,223868854e-02   -5,178385973e-01    6,048361659e-01    0,000000000e+00    0,000000000e+00    0,000000000e+00    0,000000000e+00
      184000000    2,123660780e-02   -3,697694838e-02   -1,012566015e-01    7,863194942e-01    0,000000000e+00    0,000000000e+00    0,000000000e+00    0,000000000e+00
      198000000    1,302570011e-02   -6,250981987e-02    3,431809545e-01    7,124866843e-01    0,000000000e+00    0,000000000e+00    0,000000000e+00    0,000000000e+00
      212000000   -1,871814765e-02   -8,126740903e-02    6,783056259e-01    4,097115397e-01    0,000000000e+00    0,000000000e+00    0,000000000e+00    0,000000000e+00
      226000000   -6,165723503e-02   -6,908950955e-02    7,956563830e-01   -3,029199131e-02    0,000000000e+00    0,000000000e+00    0,000000000e+00    0,000000000e+00
      240000000   -8,219514042e-02   -2,571843751e-02    6,462422609e-01   -4,663834274e-01    0,000000000e+00    0,000000000e+00    0,000000000e+00    0,000000000e+00
      254000000   -6,325288117e-02    1,680417173e-02    2,766274810e-01   -7,428415418e-01    0,000000000e+00    0,000000000e+00    0,000000000e+00    0,000000000e+00
      268000000   -2,383456007e-02    2,843077481e-02   -1,768242568e-01   -7,644379735e-01    0,000000000e+00    0,000000000e+00    0,000000000e+00    0,000000000e+00
      282000000    3,765624482e-03    1,151396334e-02   -5,626578331e-01   -5,368772745e-01    0,000000000e+00    0,000000000e+00    0,000000000e+00    0,000000000e+00
      296000000    9,210912511e-03   -7,509000134e-03   -7,608835697e-01   -1,389983892e-01    0,000000000e+00    0,000000000e+00    0,000000000e+00    0,000000000e+00
      310000000    1,092256419e-02   -1,574225351e-02   -7,134001851e-01    2,983162403e-01    0,000000000e+00    0,000000000e+00    0,000000000e+00    0,000000000e+00
      324000000    1,999439858e-02   -2,628830075e-02   -4,277394414e-01    6,386370659e-01    0,000000000e+00    0,000000000e+00    0,000000000e+00    0,000000000e+00
      338000000    2,529597841e-02   -5,231779069e-02   -9,711964056e-03    7,592729330e-01    0,000000000e+00    0,000000000e+00    0,000000000e+00    0,000000000e+00
      352000000    7,135620341e-03   -8,508271724e-02    4,062443376e-01    6,399888992e-01    0,000000000e+00    0,000000000e+00    0,000000000e+00    0,000000000e+00
      366000000   -3,492937237e-02   -9,542119503e-02    6,911963224e-01    3,111067414e-01    0,000000000e+00    0,000000000e+00    0,000000000e+00    0,000000000e+00
      380000000   -7,105506212e-02   -7,027519494e-02    7,476644516e-01   -1,248414218e-01    0,000000000e+00    0,000000000e+00    0,000000000e+00    0,000000000e+00
      394000000   -7,229313999e-02   -3,234940767e-02    5,474885702e-01   -5,212135911e-01    0,000000000e+00    0,000000000e+00    0,000000000e+00    0,000000000e+00
      408000000   -4,643050581e-02   -1,632611640e-02    1,620818675e-01   -7,313503623e-01    0,000000000e+00    0,000000000e+00    0,000000000e+00    0,000000000e+00
      422000000   -2,835482918e-02   -3,198963031e-02   -2,657651603e-01   -6,957218051e-01    0,000000000e+00    0,000000000e+00    0,000000000e+00    0,000000000e+00
      436000000   -4,034693167e-02   -5,205817148e-02   -6,027499437e-01   -4,331411421e-01    0,000000000e+00    0,000000000e+00    0,000000000e+00    0,000000000e+00
      450000000   -6,742057204e-02   -4,409609362e-02   -7,400271297e-01   -2,412942424e-02    0,000000000e+00    0,000000000e+00    0,000000000e+00    0,000000000e+00
      464000000   -7,319831103e-02   -1,155328006e-02   -6,204057336e-01    3,952034712e-01    0,000000000e+00    0,000000000e+00    0,000000000e+00    0,000000000e+00
      478000000   -4,775222391e-02    1,082555111e-02   -2,856295109e-01    6,674618721e-01    0,000000000e+00    0,000000000e+00    0,000000000e+00    0,000000000e+00
      492000000   -1,644606888e-02    5,041393451e-03    1,347098351e-01    7,031823397e-01    0,000000000e+00    0,000000000e+00    0,000000000e+00    0,000000000e+00
      506000000   -4,241795745e-03   -1,568319649e-02    4,977514744e-01    5,055063367e-01    0,000000000e+00    0,000000000e+00    0,000000000e+00    0,000000000e+00
      520000000   -6,493606605e-03   -2,926169895e-02    6,891939044e-01    1,424989104e-01    0,000000000e+00    0,000000000e+00    0,000000000e+00    0,000000000e+00
      534000000   -3,363056108e-03   -3,557512909e-02    6,437762380e-01   -2,603010833e-01    0,000000000e+00    0,000000000e+00    0,000000000e+00    0,000000000e+00
      548000000    8,128223941e-03   -5,247579142e-02    3,842719197e-01   -5,650743842e-01    0,000000000e+00    0,000000000e+00    0,000000000e+00    0,000000000e+00
      562000000    5,624046549e-03   -8,985817432e-02    7,697377820e-03   -6,713640094e-01    0,000000000e+00    0,000000000e+00    0,000000000e+00    0,000000000e+00
      576000000   -3,136442602e-02   -1,259554476e-01   -3,633435071e-01   -5,613859892e-01    0,000000000e+00    0,000000000e+00    0,000000000e+00    0,000000000e+00
      590000000   -9,531796724e-02   -1,270116419e-01   -6,159769893e-01   -2,707565129e-01    0,000000000e+00    0,000000000e+00    0,000000000e+00    0,000000000e+00
      604000000   -1,426205784e-01   -7,667909563e-02   -6,672635078e-01    1,271555126e-01    0,000000000e+00    0,000000000e+00    0,000000000e+00    0,000000000e+00
      618000000   -1,371026635e-01   -1,077273767e-02   -4,742558599e-01    4,860372543e-01    0,000000000e+00    0,000000000e+00    0,000000000e+00    0,000000000e+00
      632000000   -9,243838489e-02    2,067028731e-02   -1,120159626e-01    6,624919176e-01    0,000000000e+00    0,000000000e+00    0,000000000e+00    0,000000000e+00
      646000000   -5,528176948e-02    1,024432480e-02    2,740269005e-01    6,032923460e-01    0,000000000e+00    0,000000000e+00    0,000000000e+00    0,000000000e+00
      660000000   -4,934281483e-02   -8,916695602e-03    5,572315454e-01    3,393318057e-01    0,000000000e+00    0,000000000e+00    0,000000000e+00    0,000000000e+00
      674000000   -5,648736656e-02   -1,048511174e-02    6,441099644e-01   -4,037695751e-02    0,000000000e+00    0,000000000e+00    0,000000000e+00    0,000000000e+00
      688000000   -4,950573295e-02    2,820303896e-03    4,921908975e-01   -4,023328125e-01    0,000000000e+00    0,000000000e+00    0,000000000e+00    0,000000000e+00
      702000000   -2,422888950e-02    6,994094700e-03    1,574984193e-01   -6,011451483e-01    0,000000000e+00    0,000000000e+00    0,000000000e+00    0,000000000e+00
      716000000   -1,243889332e-03   -9,547882713e-03   -2,197414786e-01   -5,755043626e-01    0,000000000e+00    0,000000000e+00    0,000000000e+00    0,000000000e+00
      730000000    9,170316160e-03   -3,448055685e-02   -5,091934800e-01   -3,334237635e-01    0,000000000e+00    0,000000000e+00    0,000000000e+00    0,000000000e+00
      744000000    1,587992348e-02   -6,039346755e-02   -6,009724140e-01    3,390802070e-02    0,000000000e+00    0,000000000e+00    0,000000000e+00    0,000000000e+00
      758000000    2,164741233e-02   -1,034734547e-01   -4,530685544e-01    3,781824112e-01    0,000000000e+00    0,000000000e+00    0,000000000e+00    0,000000000e+00
      772000000   -3,940512892e-03   -1,741680503e-01   -1,386065036e-01    5,582621694e-01    0,000000000e+00    0,000000000e+00    0,000000000e+00    0,000000000e+00
      786000000   -1,053384393e-01   -2,335729748e-01    2,114873081e-01    5,197719336e-01    0,000000000e+00    0,000000000e+00    0,000000000e+00    0,000000000e+00
      800000000   -2,654471397e-01   -1,926966161e-01    4,713333845e-01    2,747350633e-01    0,000000000e+00    0,000000000e+00    0,000000000e+00    0,000000000e+00
      814000000   -3,649694920e-01    3,950482234e-03    5,078631043e-01   -8,897662908e-02    0,000000000e+00    0,000000000e+00    0,000000000e+00    0,000000000e+00
      828000000   -2,457014918e-01    2,342401445e-01    2,801316381e-01   -3,534198701e-01    0,000000000e+00    0,000000000e+00    0,000000000e+00    0,000000000e+00
      842000000    1,426466834e-02    2,774891555e-01   -1,638559438e-02   -3,622555435e-01    0,000000000e+00    0,000000000e+00    0,000000000e+00    0,000000000e+00
      856000000    2,133227736e-01    1,145336851e-01   -1,885742098e-01   -2,045007944e-01    0,000000000e+00    0,000000000e+00    0,000000000e+00    0,000000000e+00
      870000000    2,397677153e-01   -1,495249569e-01   -1,993862838e-01   -2,485533990e-02    0,000000000e+00    0,000000000e+00    0,000000000e+00    0,000000000e+00
      884000000    3,814426437e-02   -3,878972232e-01   -1,030523330e-01    7,082308084e-02    0,000000000e+00    0,000000000e+00    0,000000000e+00    0,000000000e+00
      898000000   -3,688505590e-01   -3,436382115e-01   -1,611725427e-02    2,669364773e-02    0,000000000e+00    0,000000000e+00    0,000000000e+00    0,000000000e+00
      912000000   -4,677706957e-01    1,370388716e-01   -1,055361852e-01    3,253623098e-02    0,000000000e+00    0,000000000e+00    0,000000000e+00    0,000000000e+00
      926000000   -9,447900951e-02    3,523320258e-01   -1,273657531e-01    1,351613849e-01    0,000000000e+00    0,000000000e+00    0,000000000e+00    0,000000000e+00
      940000000    1,828493029e-01    1,964780837e-01   -3,976007178e-02    2,162293196e-01    0,000000000e+00    0,000000000e+00    0,000000000e+00    0,000000000e+00
      954000000    2,576291859e-01   -4,915635660e-02    7,876417786e-02    2,272174358e-01    0,000000000e+00    0,000000000e+00    0,000000000e+00    0,000000000e+00
      968000000    1,751826257e-01   -2,643157244e-01    1,907976568e-01    1,799663007e-01    0,000000000e+00    0,000000000e+00    0,000000000e+00    0,000000000e+00
      982000000   -1,706082001e-02   -3,910568655e-01    2,794084549e-01    8,023317903e-02    0,000000000e+00    0,000000000e+00    0,000000000e+00    0,000000000e+00
      996000000   -2,763815522e-01   -3,761711419e-01    3,113791347e-01   -8,027794957e-02    0,000000000e+00    0,000000000e+00    0,000000000e+00    0,000000000e+00
     1010000000   -4,739846885e-01   -1,731421947e-01    2,241224051e-01   -2,510216832e-01    0,000000000e+00    0,000000000e+00    0,000000000e+00    0,000000000e+00
     1024000000   -4,574000537e-01    1,200013682e-01    1,902662963e-02   -3,311120570e-01    0,000000000e+00    0,000000000e+00    0,000000000e+00    0,000000000e+00
     1038000000   -2,642019689e-01    2,983905673e-01   -1,760157645e-01   -2,473013997e-01    0,000000000e+00    0,000000000e+00    0,000000000e+00    0,000000000e+00
     1052000000   -3,787589818e-02    3,083888292e-01   -2,577762604e-01   -7,396026701e-02    0,000000000e+00    0,000000000e+00    0,000000000e+00    0,000000000e+00
     1066000000    1,287727356e-01    2,034972310e-01   -2,248650342e-01    8,769838512e-02    0,000000000e+00    0,000000000e+00    0,000000000e+00    0,000000000e+00
     1080000000    2,118676305e-01    4,885873571e-02   -1,198682636e-01    1,924249381e-01    0,000000000e+00    0,000000000e+00    0,000000000e+00    0,000000000e+00
     1094000000    2,047517449e-01   -1,313896626e-01    1,783712767e-02    2,331261188e-01    0,000000000e+00    0,000000000e+00    0,000000000e+00    0,000000000e+00
     1108000000    1,046727896e-01   -2,881087363e-01    1,678268313e-01    2,069026232e-01    0,000000000e+00    0,000000000e+00    0,000000000e+00    0,000000000e+00
     1122000000   -9,627557546e-02   -3,694070578e-01    3,170492351e-01    8,883380890e-02    0,000000000e+00    0,000000000e+00    0,000000000e+00    0,000000000e+00
     1136000000   -3,444552720e-01   -2,672406435e-01    3,927534223e-01   -1,483368278e-01    0,000000000e+00    0,000000000e+00    0,000000000e+00    0,000000000e+00
     1150000000   -4,144020081e-01    3,783084452e-02    2,440401763e-01   -4,377763271e-01    0,000000000e+00    0,000000000e+00    0,000000000e+00    0,000000000e+00
     1164000000   -1,632164866e-01    2,158050537e-01   -9,110167623e-02   -5,153769851e-01    0,000000000e+00    0,000000000e+00    0,000000000e+00    0,000000000e+00
     1178000000    7,622274011e-02    8,211677521e-02   -3,550471067e-01   -3,462448120e-01    0,000000000e+00    0,000000000e+00    0,000000000e+00    0,000000000e+00
     1192000000    8,099313080e-02   -1,710498482e-01   -4,513339400e-01   -8,529075235e-02    0,000000000e+00    0,000000000e+00    0,000000000e+00    0,000000000e+00
     1206000000   -1,592720151e-01   -3,230457008e-01   -3,679986596e-01    1,919052154e-01    0,000000000e+00    0,000000000e+00    0,000000000e+00    0,000000000e+00
     1220000000   -4,565632641e-01   -1,825805902e-01   -1,051228791e-01    3,280385435e-01    0,000000000e+00    0,000000000e+00    0,000000000e+00    0,000000000e+00
     1234000000   -4,722063243e-01    1,658743322e-01    1,441915184e-01    2,236784101e-01    0,000000000e+00    0,000000000e+00    0,000000000e+00    0,000000000e+00
     1248000000   -2,335371375e-01    3,580215573e-01    1,912659109e-01    3,439312428e-02    0,000000000e+00    0,000000000e+00    0,000000000e+00    0,000000000e+00
     1262000000    6,320508197e-03    3,339430690e-01    1,310430020e-01   -7,349266112e-02    0,000000000e+00    0,000000000e+00    0,000000000e+00    0,000000000e+00
     1276000000    1,567329466e-01    1,985619813e-01    5,192284286e-02   -9,796482325e-02    0,000000000e+00    0,000000000e+00    0,000000000e+00    0,000000000e+00
     1290000000    2,244785428e-01    3,068901971e-02    1,535903313e-03   -7,287152112e-02    0,000000000e+00    0,000000000e+00    0,000000000e+00    0,000000000e+00
     1304000000    2,049540877e-01   -1,492777914e-01   -1,952851191e-02   -3,324265033e-02    0,000000000e+00    0,000000000e+00    0,000000000e+00    0,000000000e+00
     1318000000    1,175944880e-01   -3,136663437e-01   -9,727166966e-03    2,548239939e-02    0,000000000e+00    0,000000000e+00    0,000000000e+00    0,000000000e+00
     1332000000   -6,694782525e-02   -4,366056025e-01    4,353569821e-02    6,144699454e-02    0,000000000e+00    0,000000000e+00    0,000000000e+00    0,000000000e+00
     1346000000   -3,271285295e-01   -4,405854940e-01    1,486156136e-01    3,867939860e-02    0,000000000e+00    0,000000000e+00    0,000000000e+00    0,000000000e+00
     1360000000   -5,596159697e-01   -2,435369641e-01    1,233203635e-01   -8,446228504e-02    0,000000000e+00    0,000000000e+00    0,000000000e+00    0,000000000e+00
     1374000000   -6,215139031e-01    3,318275139e-02    1,089411676e-01    7,313184440e-02    0,000000000e+00    0,000000000e+00    0,000000000e+00    0,000000000e+00
     1388000000   -5,147054195e-01    3,045368493e-01    2,211953998e-01    1,054670196e-02    0,000000000e+00    0,000000000e+00    0,000000000e+00    0,000000000e+00
     1402000000   -3,102741539e-01    4,266692102e-01    2,213307470e-01   -7,791311294e-02    0,000000000e+00    0,000000000e+00    0,000000000e+00    0,000000000e+00
     1416000000   -8,617877215e-02    4,257609248e-01    1,934865564e-01   -1,170107424e-01    0,000000000e+00    0,000000000e+00    0,000000000e+00    0,000000000e+00
     1430000000    8,515902609e-02    3,381201327e-01    1,649263352e-01   -1,590086520e-01    0,000000000e+00    0,000000000e+00    0,000000000e+00    0,000000000e+00
     1444000000    1,817577928e-01    1,976674199e-01    1,508187801e-01   -1,010484397e-01    0,000000000e+00    0,000000000e+00    0,000000000e+00    0,000000000e+00
     1458000000    2,292699963e-01    3,516053781e-02    1,483911723e-01   -8,375900984e-02    0,000000000e+00    0,000000000e+00    0,000000000e+00    0,000000000e+00
     1472000000    2,090085894e-01   -1,448374689e-01    1,488518566e-01   -3,561396897e-02    0,000000000e+00    0,000000000e+00    0,000000000e+00    0,000000000e+00
     1486000000    1,091709360e-01   -3,297297955e-01    1,725421995e-01   -8,437608369e-03    0,000000000e+00    0,000000000e+00    0,000000000e+00    0,000000000e+00
     1500000000   -9,480196238e-02   -4,625526965e-01    2,023538053e-01    5,854960158e-02    0,000000000e+00    0,000000000e+00    0,000000000e+00    0,000000000e+00
