! NanoVNA-App
! Date: 2025-09-26 09:56:10
! Start: 100MHz Stop: 1,5GHz Points: 101
! S-Parameter data: F S11 S21 S12 S22
# Hz S RI R 50
!     Frequency           S11_Real           S11_Imag           S21_Real           S21_Imag           S12_Real           S12_Imag           S22_Real           S22_Imag
      100000000   -2,905479632e-02   -4,474395886e-03    3,741268814e-01   -7,226807475e-01    0,000000000e+00    0,000000000e+00    0,000000000e+00    0,000000000e+00
      114000000   -1,693795994e-02    1,126496587e-02   -8,965682238e-02   -8,062574863e-01    0,000000000e+00    0,000000000e+00    0,000000000e+00    0,000000000e+00
      128000000    2,799904207e-03    1,049174089e-02   -5,155352950e-01   -6,210643649e-01    0,000000000e+00    0,000000000e+00    0,000000000e+00    0,000000000e+00
      142000000    1,392910350e-02   -2,561311238e-03   -7,683420777e-01   -2,363248765e-01    0,000000000e+00    0,000000000e+00    0,000000000e+00    0,000000000e+00
      156000000    1,459349040e-02   -1,439357363e-02   -7,663245201e-01    2,223557383e-01    0,000000000e+00    0,000000000e+00    0,000000000e+00    0,000000000e+00
      170000000    1,685478352e-02   -2,198145725e-02   -5,183864236e-01    6,058601141e-01    0,000000000e+00    0,000000000e+00    0,000000000e+00    0,000000000e+00
      184000000    2,128899470e-02   -3,689825162e-02   -1,006376445e-01    7,873239517e-01    0,000000000e+00    0,000000000e+00    0,000000000e+00    0,000000000e+00
      198000000    1,312928367e-02   -6,248863786e-02    3,442133963e-01    7,129314542e-01    0,000000000e+00    0,000000000e+00    0,000000000e+00    0,000000000e+00
      212000000   -1,881152578e-02   -8,121360838e-02    6,794703007e-01    4,098862112e-01    0,000000000e+00    0,000000000e+00    0,000000000e+00    0,000000000e+00
      226000000   -6,151636690e-02   -6,893818825e-02    7,967602015e-01   -3,071071208e-02    0,000000000e+00    0,000000000e+00    0,000000000e+00    0,000000000e+00
      240000000   -8,217531443e-02   -2,567560598e-02    6,472676396e-01   -4,671753943e-01    0,000000000e+00    0,000000000e+00    0,000000000e+00    0,000000000e+00
      254000000   -6,324715912e-02    1,688380539e-02    2,769924104e-01   -7,439776063e-01    0,000000000e+00    0,000000000e+00    0,000000000e+00    0,000000000e+00
      268000000   -2,365270630e-02    2,862440608e-02   -1,772322804e-01   -7,656354308e-01    0,000000000e+00    0,000000000e+00    0,000000000e+00    0,000000000e+00
      282000000    3,883986501e-03    1,121772267e-02   -5,628657341e-01   -5,380401611e-01    0,000000000e+00    0,000000000e+00    0,000000000e+00    0,000000000e+00
      296000000    9,082531556e-03   -7,705422584e-03   -7,619951963e-01   -1,399450749e-01    0,000000000e+00    0,000000000e+00    0,000000000e+00    0,000000000e+00
      310000000    1,099420153e-02   -1,593213156e-02   -7,138714790e-01    2,993897498e-01    0,000000000e+00    0,000000000e+00    0,000000000e+00    0,000000000e+00
      324000000    1,995866001e-02   -2,664390020e-02   -4,280450940e-01    6,377518177e-01    0,000000000e+00    0,000000000e+00    0,000000000e+00    0,000000000e+00
      338000000    2,522005141e-02   -5,259625241e-02   -9,793817066e-03    7,606490254e-01    0,000000000e+00    0,000000000e+00    0,000000000e+00    0,000000000e+00
      352000000    6,702102255e-03   -8,525447547e-02    4,059807360e-01    6,407340169e-01    0,000000000e+00    0,000000000e+00    0,000000000e+00    0,000000000e+00
      366000000   -3,556540236e-02   -9,571258724e-02    6,920787096e-01    3,118916154e-01    0,000000000e+00    0,000000000e+00    0,000000000e+00    0,000000000e+00
      380000000   -7,150731981e-02   -6,999692321e-02    7,488892674e-01   -1,248727292e-01    0,000000000e+00    0,000000000e+00    0,000000000e+00    0,000000000e+00
      394000000   -7,242844254e-02   -3,148052096e-02    5,487575531e-01   -5,214770436e-01    0,000000000e+00    0,000000000e+00    0,000000000e+00    0,000000000e+00
      408000000   -4,562502727e-02   -1,577353477e-02    1,636822820e-01   -7,341331244e-01    0,000000000e+00    0,000000000e+00    0,000000000e+00    0,000000000e+00
      422000000   -2,779179998e-02   -3,200822696e-02   -2,659596503e-01   -6,967054009e-01    0,000000000e+00    0,000000000e+00    0,000000000e+00    0,000000000e+00
      436000000   -3,988258168e-02   -5,239306018e-02   -6,033922434e-01   -4,339820147e-01    0,000000000e+00    0,000000000e+00    0,000000000e+00    0,000000000e+00
      450000000   -6,731837243e-02   -4,444389045e-02   -7,414009571e-01   -2,506948635e-02    0,000000000e+00    0,000000000e+00    0,000000000e+00    0,000000000e+00
      464000000   -7,312823832e-02   -1,219968218e-02   -6,216781735e-01    3,949657977e-01    0,000000000e+00    0,000000000e+00    0,000000000e+00    0,000000000e+00
      478000000   -4,807843640e-02    1,049842313e-02   -2,868259549e-01    6,684588790e-01    0,000000000e+00    0,000000000e+00    0,000000000e+00    0,000000000e+00
      492000000   -1,672601327e-02    4,869384691e-03    1,340639144e-01    7,047152519e-01    0,000000000e+00    0,000000000e+00    0,000000000e+00    0,000000000e+00
      506000000   -4,327556118e-03   -1,626723818e-02    4,986575544e-01    5,067634583e-01    0,000000000e+00    0,000000000e+00    0,000000000e+00    0,000000000e+00
      520000000   -6,979400292e-03   -3,001586720e-02    6,896554828e-01    1,438167691e-01    0,000000000e+00    0,000000000e+00    0,000000000e+00    0,000000000e+00
      534000000   -3,558672732e-03   -3,534498811e-02    6,460094452e-01   -2,602934539e-01    0,000000000e+00    0,000000000e+00    0,000000000e+00    0,000000000e+00
      548000000    8,583243936e-03   -5,289250240e-02    3,860689700e-01   -5,651064515e-01    0,000000000e+00    0,000000000e+00    0,000000000e+00    0,000000000e+00
      562000000    5,923891906e-03   -8,984078467e-02    7,517905440e-03   -6,724891067e-01    0,000000000e+00    0,000000000e+00    0,000000000e+00    0,000000000e+00
      576000000   -3,141294792e-02   -1,262002438e-01   -3,625639975e-01   -5,613715649e-01    0,000000000e+00    0,000000000e+00    0,000000000e+00    0,000000000e+00
      590000000   -9,562876821e-02   -1,271661073e-01   -6,192577481e-01   -2,712111473e-01    0,000000000e+00    0,000000000e+00    0,000000000e+00    0,000000000e+00
      604000000   -1,426576227e-01   -7,699356228e-02   -6,683572531e-01    1,265215725e-01    0,000000000e+00    0,000000000e+00    0,000000000e+00    0,000000000e+00
      618000000   -1,368422806e-01   -1,052291691e-02   -4,753560722e-01    4,876627028e-01    0,000000000e+00    0,000000000e+00    0,000000000e+00    0,000000000e+00
      632000000   -9,139756858e-02    2,165811881e-02   -1,134085730e-01    6,646488309e-01    0,000000000e+00    0,000000000e+00    0,000000000e+00    0,000000000e+00
      646000000   -5,461144075e-02    1,137374993e-02    2,752805650e-01    6,041158438e-01    0,000000000e+00    0,000000000e+00    0,000000000e+00    0,000000000e+00
      660000000   -4,894474894e-02   -8,682589047e-03    5,592125654e-01    3,404668868e-01    0,000000000e+00    0,000000000e+00    0,000000000e+00    0,000000000e+00
      674000000   -5,646390468e-02   -9,778729640e-03    6,446066499e-01   -4,050561786e-02    0,000000000e+00    0,000000000e+00    0,000000000e+00    0,000000000e+00
      688000000   -4,999945313e-02    3,578674980e-03    4,929999411e-01   -4,023038447e-01    0,000000000e+00    0,000000000e+00    0,000000000e+00    0,000000000e+00
      702000000   -2,483463101e-02    6,052934099e-03    1,600848734e-01   -6,019295454e-01    0,000000000e+00    0,000000000e+00    0,000000000e+00    0,000000000e+00
      716000000   -1,310543157e-03   -9,776817635e-03   -2,196068019e-01   -5,754917860e-01    0,000000000e+00    0,000000000e+00    0,000000000e+00    0,000000000e+00
      730000000    9,530954994e-03   -3,626835346e-02   -5,098741651e-01   -3,335077465e-01    0,000000000e+00    0,000000000e+00    0,000000000e+00    0,000000000e+00
      744000000    1,534342486e-02   -6,119560823e-02   -6,015624404e-01    3,397250548e-02    0,000000000e+00    0,000000000e+00    0,000000000e+00    0,000000000e+00
      758000000    2,290921658e-02   -1,041196808e-01   -4,544359148e-01    3,782890141e-01    0,000000000e+00    0,000000000e+00    0,000000000e+00    0,000000000e+00
      772000000   -5,434863269e-03   -1,749702692e-01   -1,382381469e-01    5,590786934e-01    0,000000000e+00    0,000000000e+00    0,000000000e+00    0,000000000e+00
      786000000   -1,062234268e-01   -2,343978286e-01    2,127431184e-01    5,192019939e-01    0,000000000e+00    0,000000000e+00    0,000000000e+00    0,000000000e+00
      800000000   -2,677648067e-01   -1,922542304e-01    4,716832340e-01    2,737413049e-01    0,000000000e+00    0,000000000e+00    0,000000000e+00    0,000000000e+00
      814000000   -3,658272326e-01    4,932548385e-03    5,076986551e-01   -9,080918133e-02    0,000000000e+00    0,000000000e+00    0,000000000e+00    0,000000000e+00
      828000000   -2,474247217e-01    2,356119603e-01    2,783903182e-01   -3,537894785e-01    0,000000000e+00    0,000000000e+00    0,000000000e+00    0,000000000e+00
      842000000    1,588838175e-02    2,791673541e-01   -1,875771210e-02   -3,622432053e-01    0,000000000e+00    0,000000000e+00    0,000000000e+00    0,000000000e+00
      856000000    2,157217115e-01    1,141212657e-01   -1,891796738e-01   -2,031692863e-01    0,000000000e+00    0,000000000e+00    0,000000000e+00    0,000000000e+00
      870000000    2,407361865e-01   -1,511441916e-01   -2,000612617e-01   -2,371437103e-02    0,000000000e+00    0,000000000e+00    0,000000000e+00    0,000000000e+00
      884000000    3,740257770e-02   -3,891346753e-01   -1,026696935e-01    7,203580439e-02    0,000000000e+00    0,000000000e+00    0,000000000e+00    0,000000000e+00
      898000000   -3,722142279e-01   -3,441422582e-01   -1,554524526e-02    2,803998627e-02    0,000000000e+00    0,000000000e+00    0,000000000e+00    0,000000000e+00
      912000000   -4,711931050e-01    1,411297917e-01   -1,032754928e-01    2,916810289e-02    0,000000000e+00    0,000000000e+00    0,000000000e+00    0,000000000e+00
      926000000   -9,565740824e-02    3,516108096e-01   -1,305409372e-01    1,292169094e-01    0,000000000e+00    0,000000000e+00    0,000000000e+00    0,000000000e+00
      940000000    1,849928349e-01    1,964177936e-01   -4,116396233e-02    2,137436718e-01    0,000000000e+00    0,000000000e+00    0,000000000e+00    0,000000000e+00
      954000000    2,551150620e-01   -4,814533517e-02    7,468011230e-02    2,268415093e-01    0,000000000e+00    0,000000000e+00    0,000000000e+00    0,000000000e+00
      968000000    1,755004376e-01   -2,666034400e-01    1,879030019e-01    1,821332425e-01    0,000000000e+00    0,000000000e+00    0,000000000e+00    0,000000000e+00
      982000000   -1,852319017e-02   -4,004091024e-01    2,769360244e-01    8,487909287e-02    0,000000000e+00    0,000000000e+00    0,000000000e+00    0,000000000e+00
      996000000   -2,762917876e-01   -3,832422793e-01    3,077073693e-01   -7,701992244e-02    0,000000000e+00    0,000000000e+00    0,000000000e+00    0,000000000e+00
     1010000000   -4,743566811e-01   -1,702694893e-01    2,201377004e-01   -2,533193231e-01    0,000000000e+00    0,000000000e+00    0,000000000e+00    0,000000000e+00
     1024000000   -4,614655972e-01    1,174938381e-01    2,220070735e-02   -3,284465075e-01    0,000000000e+00    0,000000000e+00    0,000000000e+00    0,000000000e+00
     1038000000   -2,669672072e-01    3,022433221e-01   -1,729010046e-01   -2,478397489e-01    0,000000000e+00    0,000000000e+00    0,000000000e+00    0,000000000e+00
     1052000000   -3,238328919e-02    3,117186129e-01   -2,577505410e-01   -7,658924162e-02    0,000000000e+00    0,000000000e+00    0,000000000e+00    0,000000000e+00
     1066000000    1,290230751e-01    2,050658017e-01   -2,229700983e-01    8,450099081e-02    0,000000000e+00    0,000000000e+00    0,000000000e+00    0,000000000e+00
     1080000000    2,137973905e-01    4,794701934e-02   -1,223471835e-01    1,922970116e-01    0,000000000e+00    0,000000000e+00    0,000000000e+00    0,000000000e+00
     1094000000    2,032217681e-01   -1,289575547e-01    1,416541263e-02    2,355667800e-01    0,000000000e+00    0,000000000e+00    0,000000000e+00    0,000000000e+00
     1108000000    1,038768739e-01   -2,923411429e-01    1,659419239e-01    2,107320279e-01    0,000000000e+00    0,000000000e+00    0,000000000e+00    0,000000000e+00
     1122000000   -1,038530692e-01   -3,750902414e-01    3,123544157e-01    9,621533751e-02    0,000000000e+00    0,000000000e+00    0,000000000e+00    0,000000000e+00
     1136000000   -3,482784033e-01   -2,688849866e-01    3,913684785e-01   -1,412338018e-01    0,000000000e+00    0,000000000e+00    0,000000000e+00    0,000000000e+00
     1150000000   -4,120416641e-01    3,159977123e-02    2,462706417e-01   -4,306378365e-01    0,000000000e+00    0,000000000e+00    0,000000000e+00    0,000000000e+00
     1164000000   -1,592048705e-01    2,231789380e-01   -8,766268939e-02   -5,106577277e-01    0,000000000e+00    0,000000000e+00    0,000000000e+00    0,000000000e+00
     1178000000    7,607143372e-02    8,762483299e-02   -3,477384448e-01   -3,447423279e-01    0,000000000e+00    0,000000000e+00    0,000000000e+00    0,000000000e+00
     1192000000    7,933835685e-02   -1,749254167e-01   -4,447820187e-01   -8,411882818e-02    0,000000000e+00    0,000000000e+00    0,000000000e+00    0,000000000e+00
     1206000000   -1,601380855e-01   -3,320661783e-01   -3,631324172e-01    1,825422943e-01    0,000000000e+00    0,000000000e+00    0,000000000e+00    0,000000000e+00
     1220000000   -4,547653496e-01   -1,831364185e-01   -1,015375704e-01    3,262938559e-01    0,000000000e+00    0,000000000e+00    0,000000000e+00    0,000000000e+00
     1234000000   -4,737696648e-01    1,679657996e-01    1,417985559e-01    2,164501995e-01    0,000000000e+00    0,000000000e+00    0,000000000e+00    0,000000000e+00
     1248000000   -2,392628789e-01    3,560018539e-01    1,841798723e-01    3,593188152e-02    0,000000000e+00    0,000000000e+00    0,000000000e+00    0,000000000e+00
     1262000000    5,375030916e-03    3,312414885e-01    1,275178939e-01   -7,265339047e-02    0,000000000e+00    0,000000000e+00    0,000000000e+00    0,000000000e+00
     1276000000    1,595818996e-01    1,964984685e-01    5,107972771e-02   -9,651852399e-02    0,000000000e+00    0,000000000e+00    0,000000000e+00    0,000000000e+00
     1290000000    2,253830582e-01    2,807326987e-02    4,072747193e-03   -7,230952382e-02    0,000000000e+00    0,000000000e+00    0,000000000e+00    0,000000000e+00
     1304000000    2,088575363e-01   -1,482718736e-01   -2,058508247e-02   -2,616614848e-02    0,000000000e+00    0,000000000e+00    0,000000000e+00    0,000000000e+00
     1318000000    1,170858443e-01   -3,200760484e-01   -7,016674615e-03    1,814431883e-02    0,000000000e+00    0,000000000e+00    0,000000000e+00    0,000000000e+00
     1332000000   -6,615739316e-02   -4,374215603e-01    5,650680140e-02    6,677554548e-02    0,000000000e+00    0,000000000e+00    0,000000000e+00    0,000000000e+00
     1346000000   -3,329331875e-01   -4,408176243e-01    1,426369697e-01    4,173671827e-02    0,000000000e+00    0,000000000e+00    0,000000000e+00    0,000000000e+00
     1360000000   -5,620954037e-01   -2,538513243e-01    1,017165557e-01   -9,985162318e-02    0,000000000e+00    0,000000000e+00    0,000000000e+00    0,000000000e+00
     1374000000   -6,328183413e-01    3,188876063e-02    8,587202430e-02    5,913999677e-02    0,000000000e+00    0,000000000e+00    0,000000000e+00    0,000000000e+00
     1388000000   -5,111383796e-01    2,936215401e-01    2,164207846e-01    3,532052040e-03    0,000000000e+00    0,000000000e+00    0,000000000e+00    0,000000000e+00
     1402000000   -3,087713718e-01    4,202387631e-01    2,127310634e-01   -8,607626706e-02    0,000000000e+00    0,000000000e+00    0,000000000e+00    0,000000000e+00
     1416000000   -8,760770410e-02    4,251478910e-01    1,932623386e-01   -1,175473705e-01    0,000000000e+00    0,000000000e+00    0,000000000e+00    0,000000000e+00
     1430000000    8,641560376e-02    3,366208076e-01    1,463531256e-01   -1,357867867e-01    0,000000000e+00    0,000000000e+00    0,000000000e+00    0,000000000e+00
     1444000000    1,864003688e-01    1,988117695e-01    1,485053748e-01   -9,991361201e-02    0,000000000e+00    0,000000000e+00    0,000000000e+00    0,000000000e+00
     1458000000    2,334634215e-01    2,893527970e-02    1,503341794e-01   -8,417400718e-02    0,000000000e+00    0,000000000e+00    0,000000000e+00    0,000000000e+00
     1472000000    2,116774321e-01   -1,522420049e-01    1,496221572e-01   -5,306830630e-02    0,000000000e+00    0,000000000e+00    0,000000000e+00    0,000000000e+00
     1486000000    1,102239564e-01   -3,310391307e-01    1,502177417e-01   -3,295717994e-03    0,000000000e+00    0,000000000e+00    0,000000000e+00    0,000000000e+00
     1500000000   -1,040230021e-01   -4,701980352e-01    2,043951899e-01    5,229358003e-02    0,000000000e+00    0,000000000e+00    0,000000000e+00    0,000000000e+00
