! NanoVNA-App
! Date: 2025-09-26 09:55:55
! Start: 100MHz Stop: 1,5GHz Points: 101
! S-Parameter data: F S11 S21 S12 S22
# Hz S RI R 50
!     Frequency           S11_Real           S11_Imag           S21_Real           S21_Imag           S12_Real           S12_Imag           S22_Real           S22_Imag
      100000000   -2,907185256e-02   -4,456694704e-03    3,741078377e-01   -7,226876020e-01    0,000000000e+00    0,000000000e+00    0,000000000e+00    0,000000000e+00
      114000000   -1,696178131e-02    1,122599747e-02   -8,967493474e-02   -8,062672019e-01    0,000000000e+00    0,000000000e+00    0,000000000e+00    0,000000000e+00
      128000000    2,767619677e-03    1,049798075e-02   -5,154590607e-01   -6,208574772e-01    0,000000000e+00    0,000000000e+00    0,000000000e+00    0,000000000e+00
      142000000    1,393768378e-02   -2,575288294e-03   -7,683469653e-01   -2,362921536e-01    0,000000000e+00    0,000000000e+00    0,000000000e+00    0,000000000e+00
      156000000    1,568415575e-02   -1,374776382e-02   -7,731050253e-01    2,251733691e-01    0,000000000e+00    0,000000000e+00    0,000000000e+00    0,000000000e+00
      170000000    1,690809987e-02   -2,198911458e-02   -5,181747675e-01    6,060410142e-01    0,000000000e+00    0,000000000e+00    0,000000000e+00    0,000000000e+00
      184000000    2,126800455e-02   -3,692125157e-02   -1,007420123e-01    7,869324088e-01    0,000000000e+00    0,000000000e+00    0,000000000e+00    0,000000000e+00
      198000000    1,315318979e-02   -6,246653944e-02    3,442229331e-01    7,128494382e-01    0,000000000e+00    0,000000000e+00    0,000000000e+00    0,000000000e+00
      212000000   -1,876619831e-02   -8,123271167e-02    6,794468760e-01    4,100793004e-01    0,000000000e+00    0,000000000e+00    0,000000000e+00    0,000000000e+00
      226000000   -6,160146743e-02   -6,904428452e-02    7,968762517e-01   -3,072952852e-02    0,000000000e+00    0,000000000e+00    0,000000000e+00    0,000000000e+00
      240000000   -8,228705078e-02   -2,582176216e-02    6,470611691e-01   -4,675724804e-01    0,000000000e+00    0,000000000e+00    0,000000000e+00    0,000000000e+00
      254000000   -6,343617290e-02    1,706540212e-02    2,766086757e-01   -7,442185283e-01    0,000000000e+00    0,000000000e+00    0,000000000e+00    0,000000000e+00
      268000000   -2,327625267e-02    2,872116677e-02   -1,767452210e-01   -7,654942870e-01    0,000000000e+00    0,000000000e+00    0,000000000e+00    0,000000000e+00
      282000000    3,851354821e-03    1,110628992e-02   -5,628945231e-01   -5,382705927e-01    0,000000000e+00    0,000000000e+00    0,000000000e+00    0,000000000e+00
      296000000    8,921776898e-03   -7,666305639e-03   -7,620484233e-01   -1,398569942e-01    0,000000000e+00    0,000000000e+00    0,000000000e+00    0,000000000e+00
      310000000    1,115979813e-02   -1,569107361e-02   -7,135833502e-01    2,975742519e-01    0,000000000e+00    0,000000000e+00    0,000000000e+00    0,000000000e+00
      324000000    2,007108368e-02   -2,667959780e-02   -4,283826947e-01    6,379429102e-01    0,000000000e+00    0,000000000e+00    0,000000000e+00    0,000000000e+00
      338000000    2,523271926e-02   -5,236102641e-02   -8,851345628e-03    7,617306113e-01    0,000000000e+00    0,000000000e+00    0,000000000e+00    0,000000000e+00
      352000000    6,823728327e-03   -8,493626118e-02    4,058553576e-01    6,417565346e-01    0,000000000e+00    0,000000000e+00    0,000000000e+00    0,000000000e+00
      366000000   -3,579274938e-02   -9,537772089e-02    6,912137270e-01    3,122814894e-01    0,000000000e+00    0,000000000e+00    0,000000000e+00    0,000000000e+00
      380000000   -7,135346532e-02   -6,998649985e-02    7,495130897e-01   -1,255341470e-01    0,000000000e+00    0,000000000e+00    0,000000000e+00    0,000000000e+00
      394000000   -7,212024927e-02   -3,146310151e-02    5,490060449e-01   -5,214822888e-01    0,000000000e+00    0,000000000e+00    0,000000000e+00    0,000000000e+00
      408000000   -4,578390345e-02   -1,577917859e-02    1,633329242e-01   -7,344127297e-01    0,000000000e+00    0,000000000e+00    0,000000000e+00    0,000000000e+00
      422000000   -2,773831412e-02   -3,204756975e-02   -2,668294609e-01   -6,974023581e-01    0,000000000e+00    0,000000000e+00    0,000000000e+00    0,000000000e+00
      436000000   -4,006236047e-02   -5,235669389e-02   -6,034255028e-01   -4,347061515e-01    0,000000000e+00    0,000000000e+00    0,000000000e+00    0,000000000e+00
      450000000   -6,728962064e-02   -4,480515048e-02   -7,415693402e-01   -2,523040958e-02    0,000000000e+00    0,000000000e+00    0,000000000e+00    0,000000000e+00
      464000000   -7,317171991e-02   -1,263989601e-02   -6,221810579e-01    3,953188956e-01    0,000000000e+00    0,000000000e+00    0,000000000e+00    0,000000000e+00
      478000000   -4,799946770e-02    1,067440212e-02   -2,872792780e-01    6,686382890e-01    0,000000000e+00    0,000000000e+00    0,000000000e+00    0,000000000e+00
      492000000   -1,633600332e-02    4,881316330e-03    1,349892318e-01    7,042844296e-01    0,000000000e+00    0,000000000e+00    0,000000000e+00    0,000000000e+00
      506000000   -4,377390258e-03   -1,632823981e-02    4,991097748e-01    5,067588091e-01    0,000000000e+00    0,000000000e+00    0,000000000e+00    0,000000000e+00
      520000000   -7,240711711e-03   -2,982977405e-02    6,895759702e-01    1,440401673e-01    0,000000000e+00    0,000000000e+00    0,000000000e+00    0,000000000e+00
      534000000   -3,337563481e-03   -3,525190428e-02    6,457377672e-01   -2,603796124e-01    0,000000000e+00    0,000000000e+00    0,000000000e+00    0,000000000e+00
      548000000    8,743169717e-03   -5,241211876e-02    3,848551810e-01   -5,644667149e-01    0,000000000e+00    0,000000000e+00    0,000000000e+00    0,000000000e+00
      562000000    6,084322464e-03   -8,988664299e-02    8,732258342e-03   -6,734665632e-01    0,000000000e+00    0,000000000e+00    0,000000000e+00    0,000000000e+00
      576000000   -3,188378736e-02   -1,260640621e-01   -3,621940017e-01   -5,617362261e-01    0,000000000e+00    0,000000000e+00    0,000000000e+00    0,000000000e+00
      590000000   -9,547417611e-02   -1,274071634e-01   -6,164019704e-01   -2,738345265e-01    0,000000000e+00    0,000000000e+00    0,000000000e+00    0,000000000e+00
      604000000   -1,433316916e-01   -7,689999789e-02   -6,694043875e-01    1,267933100e-01    0,000000000e+00    0,000000000e+00    0,000000000e+00    0,000000000e+00
      618000000   -1,367339790e-01   -1,051599998e-02   -4,764701426e-01    4,864000976e-01    0,000000000e+00    0,000000000e+00    0,000000000e+00    0,000000000e+00
      632000000   -9,197164327e-02    2,092755958e-02   -1,140071526e-01    6,650216579e-01    0,000000000e+00    0,000000000e+00    0,000000000e+00    0,000000000e+00
      646000000   -5,472242460e-02    1,118577272e-02    2,747135758e-01    6,042507887e-01    0,000000000e+00    0,000000000e+00    0,000000000e+00    0,000000000e+00
      660000000   -4,911000282e-02   -8,741689846e-03    5,595631599e-01    3,402619958e-01    0,000000000e+00    0,000000000e+00    0,000000000e+00    0,000000000e+00
      674000000   -5,618619546e-02   -9,770549834e-03    6,442782283e-01   -4,102082923e-02    0,000000000e+00    0,000000000e+00    0,000000000e+00    0,000000000e+00
      688000000   -4,903398827e-02    3,050990636e-03    4,926969409e-01   -4,022564590e-01    0,000000000e+00    0,000000000e+00    0,000000000e+00    0,000000000e+00
      702000000   -2,481360175e-02    6,485612132e-03    1,605365723e-01   -6,087834835e-01    0,000000000e+00    0,000000000e+00    0,000000000e+00    0,000000000e+00
      716000000   -8,970990311e-04   -1,070425659e-02   -2,186189294e-01   -5,754928589e-01    0,000000000e+00    0,000000000e+00    0,000000000e+00    0,000000000e+00
      730000000    9,564147331e-03   -3,523002565e-02   -5,094562173e-01   -3,339153826e-01    0,000000000e+00    0,000000000e+00    0,000000000e+00    0,000000000e+00
      744000000    1,670922153e-02   -6,064217538e-02   -6,020206213e-01    3,372959420e-02    0,000000000e+00    0,000000000e+00    0,000000000e+00    0,000000000e+00
      758000000    2,214398980e-02   -1,029902995e-01   -4,540895522e-01    3,788186312e-01    0,000000000e+00    0,000000000e+00    0,000000000e+00    0,000000000e+00
      772000000   -4,581745714e-03   -1,740410477e-01   -1,391822249e-01    5,588120222e-01    0,000000000e+00    0,000000000e+00    0,000000000e+00    0,000000000e+00
      786000000   -1,059924141e-01   -2,334637195e-01    2,130081505e-01    5,189062357e-01    0,000000000e+00    0,000000000e+00    0,000000000e+00    0,000000000e+00
      800000000   -2,674110234e-01   -1,933349818e-01    4,722514451e-01    2,738265395e-01    0,000000000e+00    0,000000000e+00    0,000000000e+00    0,000000000e+00
      814000000   -3,653577268e-01    4,863682203e-03    5,066898465e-01   -9,086047113e-02    0,000000000e+00    0,000000000e+00    0,000000000e+00    0,000000000e+00
      828000000   -2,462482005e-01    2,353896350e-01    2,786207199e-01   -3,535145819e-01    0,000000000e+00    0,000000000e+00    0,000000000e+00    0,000000000e+00
      842000000    1,478075609e-02    2,798181772e-01   -1,852022111e-02   -3,622094393e-01    0,000000000e+00    0,000000000e+00    0,000000000e+00    0,000000000e+00
      856000000    2,152904272e-01    1,147168204e-01   -1,901239604e-01   -2,024840117e-01    0,000000000e+00    0,000000000e+00    0,000000000e+00    0,000000000e+00
      870000000    2,403648198e-01   -1,514647603e-01   -2,006066740e-01   -2,374205738e-02    0,000000000e+00    0,000000000e+00    0,000000000e+00    0,000000000e+00
      884000000    3,692716733e-02   -3,901822567e-01   -1,026059613e-01    7,272704691e-02    0,000000000e+00    0,000000000e+00    0,000000000e+00    0,000000000e+00
      898000000   -3,714201748e-01   -3,445499837e-01   -1,502684131e-02    2,797272429e-02    0,000000000e+00    0,000000000e+00    0,000000000e+00    0,000000000e+00
      912000000   -4,713587761e-01    1,409063339e-01   -1,175549626e-01    2,106576227e-02    0,000000000e+00    0,000000000e+00    0,000000000e+00    0,000000000e+00
      926000000   -9,436776489e-02    3,527535796e-01   -1,301585138e-01    1,283572763e-01    0,000000000e+00    0,000000000e+00    0,000000000e+00    0,000000000e+00
      940000000    1,852663755e-01    1,954203248e-01   -4,268095270e-02    2,137659490e-01    0,000000000e+00    0,000000000e+00    0,000000000e+00    0,000000000e+00
      954000000    2,554134727e-01   -4,760759696e-02    7,593119889e-02    2,263725400e-01    0,000000000e+00    0,000000000e+00    0,000000000e+00    0,000000000e+00
      968000000    1,785405725e-01   -2,645591497e-01    1,874822825e-01    1,820404083e-01    0,000000000e+00    0,000000000e+00    0,000000000e+00    0,000000000e+00
      982000000   -1,473217178e-02   -3,969943821e-01    2,768902183e-01    8,184097707e-02    0,000000000e+00    0,000000000e+00    0,000000000e+00    0,000000000e+00
      996000000   -2,747594416e-01   -3,786672056e-01    3,085158765e-01   -7,504346967e-02    0,000000000e+00    0,000000000e+00    0,000000000e+00    0,000000000e+00
     1010000000   -4,765244722e-01   -1,764515042e-01    2,227126062e-01   -2,504764795e-01    0,000000000e+00    0,000000000e+00    0,000000000e+00    0,000000000e+00
     1024000000   -4,647149444e-01    1,255481243e-01    2,157324553e-02   -3,287853897e-01    0,000000000e+00    0,000000000e+00    0,000000000e+00    0,000000000e+00
     1038000000   -2,675450146e-01    3,057160974e-01   -1,739447862e-01   -2,495486587e-01    0,000000000e+00    0,000000000e+00    0,000000000e+00    0,000000000e+00
     1052000000   -3,211887181e-02    3,107688129e-01   -2,605302632e-01   -7,732840627e-02    0,000000000e+00    0,000000000e+00    0,000000000e+00    0,000000000e+00
     1066000000    1,291904002e-01    2,051738501e-01   -2,254350632e-01    8,454459161e-02    0,000000000e+00    0,000000000e+00    0,000000000e+00    0,000000000e+00
     1080000000    2,122677565e-01    4,721755534e-02   -1,232631877e-01    1,918916702e-01    0,000000000e+00    0,000000000e+00    0,000000000e+00    0,000000000e+00
     1094000000    2,064066231e-01   -1,335635483e-01    1,390048955e-02    2,377959192e-01    0,000000000e+00    0,000000000e+00    0,000000000e+00    0,000000000e+00
     1108000000    1,031349152e-01   -2,944386303e-01    1,655015349e-01    2,110427022e-01    0,000000000e+00    0,000000000e+00    0,000000000e+00    0,000000000e+00
     1122000000   -9,967938066e-02   -3,770706058e-01    3,114000857e-01    9,634365886e-02    0,000000000e+00    0,000000000e+00    0,000000000e+00    0,000000000e+00
     1136000000   -3,456705213e-01   -2,709922493e-01    3,924794197e-01   -1,415166855e-01    0,000000000e+00    0,000000000e+00    0,000000000e+00    0,000000000e+00
     1150000000   -4,145350754e-01    3,222229704e-02    2,460442036e-01   -4,283261001e-01    0,000000000e+00    0,000000000e+00    0,000000000e+00    0,000000000e+00
     1164000000   -1,580922455e-01    2,230310440e-01   -8,524250984e-02   -5,077246428e-01    0,000000000e+00    0,000000000e+00    0,000000000e+00    0,000000000e+00
     1178000000    7,660342753e-02    8,626163751e-02   -3,469631374e-01   -3,458369076e-01    0,000000000e+00    0,000000000e+00    0,000000000e+00    0,000000000e+00
     1192000000    7,696200162e-02   -1,725294143e-01   -4,442482889e-01   -8,356583118e-02    0,000000000e+00    0,000000000e+00    0,000000000e+00    0,000000000e+00
     1206000000   -1,613155454e-01   -3,280709982e-01   -3,598899245e-01    1,857282668e-01    0,000000000e+00    0,000000000e+00    0,000000000e+00    0,000000000e+00
     1220000000   -4,554032385e-01   -1,821619421e-01   -9,793294221e-02    3,203736842e-01    0,000000000e+00    0,000000000e+00    0,000000000e+00    0,000000000e+00
     1234000000   -4,718182981e-01    1,712277234e-01    1,401937157e-01    2,172665447e-01    0,000000000e+00    0,000000000e+00    0,000000000e+00    0,000000000e+00
     1248000000   -2,340275496e-01    3,591401279e-01    1,893328279e-01    2,956473082e-02    0,000000000e+00    0,000000000e+00    0,000000000e+00    0,000000000e+00
     1262000000    1,003415324e-02    3,281610608e-01    1,245808899e-01   -7,773707062e-02    0,000000000e+00    0,000000000e+00    0,000000000e+00    0,000000000e+00
     1276000000    1,575106084e-01    2,013345659e-01    4,958561808e-02   -9,201336652e-02    0,000000000e+00    0,000000000e+00    0,000000000e+00    0,000000000e+00
     1290000000    2,250098884e-01    2,945252880e-02    9,424826130e-03   -7,161349058e-02    0,000000000e+00    0,000000000e+00    0,000000000e+00    0,000000000e+00
     1304000000    2,048144341e-01   -1,488337070e-01   -2,484248020e-02   -2,825755626e-02    0,000000000e+00    0,000000000e+00    0,000000000e+00    0,000000000e+00
     1318000000    1,157664806e-01   -3,163097203e-01   -3,223574022e-03    2,319229767e-02    0,000000000e+00    0,000000000e+00    0,000000000e+00    0,000000000e+00
     1332000000   -6,639590859e-02   -4,387059510e-01    5,190688372e-02    6,221007183e-02    0,000000000e+00    0,000000000e+00    0,000000000e+00    0,000000000e+00
     1346000000   -3,296881020e-01   -4,450409710e-01    1,456095427e-01    3,497535363e-02    0,000000000e+00    0,000000000e+00    0,000000000e+00    0,000000000e+00
     1360000000   -5,584385991e-01   -2,488223016e-01    1,070683375e-01   -8,400584012e-02    0,000000000e+00    0,000000000e+00    0,000000000e+00    0,000000000e+00
     1374000000   -6,233879924e-01    2,671434917e-02    1,018777564e-01    5,361978710e-02    0,000000000e+00    0,000000000e+00    0,000000000e+00    0,000000000e+00
     1388000000   -5,167524815e-01    2,948398292e-01    2,058617920e-01    6,717910990e-03    0,000000000e+00    0,000000000e+00    0,000000000e+00    0,000000000e+00
     1402000000   -3,067857921e-01    4,189487398e-01    2,130667567e-01   -8,802251518e-02    0,000000000e+00    0,000000000e+00    0,000000000e+00    0,000000000e+00
     1416000000   -9,149316698e-02    4,228236973e-01    1,719057858e-01   -1,190194264e-01    0,000000000e+00    0,000000000e+00    0,000000000e+00    0,000000000e+00
     1430000000    8,056821674e-02    3,329878449e-01    1,802324802e-01   -1,295108348e-01    0,000000000e+00    0,000000000e+00    0,000000000e+00    0,000000000e+00
     1444000000    1,839613467e-01    2,006541342e-01    1,395484805e-01   -9,922917932e-02    0,000000000e+00    0,000000000e+00    0,000000000e+00    0,000000000e+00
     1458000000    2,306643128e-01    2,971671522e-02    1,432816386e-01   -8,732307702e-02    0,000000000e+00    0,000000000e+00    0,000000000e+00    0,000000000e+00
     1472000000    2,074213773e-01   -1,508361101e-01    1,356816292e-01   -5,806231499e-02    0,000000000e+00    0,000000000e+00    0,000000000e+00    0,000000000e+00
     1486000000    1,041829512e-01   -3,289921284e-01    1,492539197e-01   -1,300767250e-02    0,000000000e+00    0,000000000e+00    0,000000000e+00    0,000000000e+00
     1500000000   -9,635446966e-02   -4,631495774e-01    1,991948038e-01    5,039917678e-02    0,000000000e+00    0,000000000e+00    0,000000000e+00    0,000000000e+00
