! NanoVNA-App
! Date: 2025-09-25 17:39:09
! Start: 100MHz Stop: 1,5GHz Points: 101
! S-Parameter data: F S11 S21 S12 S22
# Hz S RI R 50
!     Frequency           S11_Real           S11_Imag           S21_Real           S21_Imag           S12_Real           S12_Imag           S22_Real           S22_Imag
      100000000   -2,888916247e-02   -4,290184006e-03    3,741764724e-01   -7,218455672e-01    0,000000000e+00    0,000000000e+00    0,000000000e+00    0,000000000e+00
      114000000   -1,664553955e-02    1,136035472e-02   -8,923853934e-02   -8,055062294e-01    0,000000000e+00    0,000000000e+00    0,000000000e+00    0,000000000e+00
      128000000    3,166858107e-03    1,054877136e-02   -5,146763921e-01   -6,206439137e-01    0,000000000e+00    0,000000000e+00    0,000000000e+00    0,000000000e+00
      142000000    1,423158031e-02   -2,803571289e-03   -7,673224807e-01   -2,363839895e-01    0,000000000e+00    0,000000000e+00    0,000000000e+00    0,000000000e+00
      156000000    1,519552805e-02   -1,454381086e-02   -7,715696692e-01    2,217703015e-01    0,000000000e+00    0,000000000e+00    0,000000000e+00    0,000000000e+00
      170000000    1,682897657e-02   -2,230877057e-02   -5,180062056e-01    6,051260233e-01    0,000000000e+00    0,000000000e+00    0,000000000e+00    0,000000000e+00
      184000000    2,121952921e-02   -3,701068088e-02   -1,012012213e-01    7,862975001e-01    0,000000000e+00    0,000000000e+00    0,000000000e+00    0,000000000e+00
      198000000    1,309135742e-02   -6,250163168e-02    3,432876170e-01    7,124102712e-01    0,000000000e+00    0,000000000e+00    0,000000000e+00    0,000000000e+00
      212000000   -1,875833236e-02   -8,123970777e-02    6,782903671e-01    4,098361135e-01    0,000000000e+00    0,000000000e+00    0,000000000e+00    0,000000000e+00
      226000000   -6,158815697e-02   -6,906904280e-02    7,955489755e-01   -3,039411455e-02    0,000000000e+00    0,000000000e+00    0,000000000e+00    0,000000000e+00
      240000000   -8,216622472e-02   -2,566474304e-02    6,465331316e-01   -4,665094018e-01    0,000000000e+00    0,000000000e+00    0,000000000e+00    0,000000000e+00
      254000000   -6,323658675e-02    1,680673845e-02    2,765981555e-01   -7,431007624e-01    0,000000000e+00    0,000000000e+00    0,000000000e+00    0,000000000e+00
      268000000   -2,378232777e-02    2,842767350e-02   -1,770229340e-01   -7,648677826e-01    0,000000000e+00    0,000000000e+00    0,000000000e+00    0,000000000e+00
      282000000    3,711023834e-03    1,151653659e-02   -5,625774860e-01   -5,369386673e-01    0,000000000e+00    0,000000000e+00    0,000000000e+00    0,000000000e+00
      296000000    9,216793813e-03   -7,514534984e-03   -7,605409622e-01   -1,387689859e-01    0,000000000e+00    0,000000000e+00    0,000000000e+00    0,000000000e+00
      310000000    1,085545588e-02   -1,579271629e-02   -7,120493650e-01    2,991178036e-01    0,000000000e+00    0,000000000e+00    0,000000000e+00    0,000000000e+00
      324000000    1,973086968e-02   -2,627524734e-02   -4,276978970e-01    6,377972960e-01    0,000000000e+00    0,000000000e+00    0,000000000e+00    0,000000000e+00
      338000000    2,544984035e-02   -5,243987963e-02   -6,842249073e-03    7,622219324e-01    0,000000000e+00    0,000000000e+00    0,000000000e+00    0,000000000e+00
      352000000    7,357642055e-03   -8,508385718e-02    4,057545066e-01    6,401070952e-01    0,000000000e+00    0,000000000e+00    0,000000000e+00    0,000000000e+00
      366000000   -3,485618159e-02   -9,520987421e-02    6,910242438e-01    3,117803633e-01    0,000000000e+00    0,000000000e+00    0,000000000e+00    0,000000000e+00
      380000000   -7,086059451e-02   -7,058890164e-02    7,480963469e-01   -1,249204203e-01    0,000000000e+00    0,000000000e+00    0,000000000e+00    0,000000000e+00
      394000000   -7,202839106e-02   -3,225675598e-02    5,484293699e-01   -5,212585330e-01    0,000000000e+00    0,000000000e+00    0,000000000e+00    0,000000000e+00
      408000000   -4,641614854e-02   -1,609390229e-02    1,618648022e-01   -7,320349216e-01    0,000000000e+00    0,000000000e+00    0,000000000e+00    0,000000000e+00
      422000000   -2,822900750e-02   -3,221075982e-02   -2,664764822e-01   -6,957163215e-01    0,000000000e+00    0,000000000e+00    0,000000000e+00    0,000000000e+00
      436000000   -4,066419974e-02   -5,182990059e-02   -6,028650999e-01   -4,331097901e-01    0,000000000e+00    0,000000000e+00    0,000000000e+00    0,000000000e+00
      450000000   -6,728540361e-02   -4,432277009e-02   -7,402275205e-01   -2,437541261e-02    0,000000000e+00    0,000000000e+00    0,000000000e+00    0,000000000e+00
      464000000   -7,286684215e-02   -1,194786094e-02   -6,206386089e-01    3,950594962e-01    0,000000000e+00    0,000000000e+00    0,000000000e+00    0,000000000e+00
      478000000   -4,796108603e-02    1,080363244e-02   -2,860064209e-01    6,663498282e-01    0,000000000e+00    0,000000000e+00    0,000000000e+00    0,000000000e+00
      492000000   -1,665527374e-02    5,429460667e-03    1,340065598e-01    7,032330632e-01    0,000000000e+00    0,000000000e+00    0,000000000e+00    0,000000000e+00
      506000000   -4,165043123e-03   -1,600733586e-02    4,974787831e-01    5,052919984e-01    0,000000000e+00    0,000000000e+00    0,000000000e+00    0,000000000e+00
      520000000   -6,139218807e-03   -2,960762568e-02    6,903764606e-01    1,443933845e-01    0,000000000e+00    0,000000000e+00    0,000000000e+00    0,000000000e+00
      534000000   -3,737707157e-03   -3,545418754e-02    6,437228918e-01   -2,599258423e-01    0,000000000e+00    0,000000000e+00    0,000000000e+00    0,000000000e+00
      548000000    8,748321794e-03   -5,263107643e-02    3,848008215e-01   -5,646384358e-01    0,000000000e+00    0,000000000e+00    0,000000000e+00    0,000000000e+00
      562000000    5,648596678e-03   -8,991827071e-02    7,392652333e-03   -6,720530987e-01    0,000000000e+00    0,000000000e+00    0,000000000e+00    0,000000000e+00
      576000000   -3,150061518e-02   -1,264990568e-01   -3,627569973e-01   -5,604348779e-01    0,000000000e+00    0,000000000e+00    0,000000000e+00    0,000000000e+00
      590000000   -9,510797262e-02   -1,270172000e-01   -6,180343032e-01   -2,704589069e-01    0,000000000e+00    0,000000000e+00    0,000000000e+00    0,000000000e+00
      604000000   -1,421410590e-01   -7,696428150e-02   -6,666315198e-01    1,270558536e-01    0,000000000e+00    0,000000000e+00    0,000000000e+00    0,000000000e+00
      618000000   -1,366607845e-01   -1,151937526e-02   -4,745307863e-01    4,855279624e-01    0,000000000e+00    0,000000000e+00    0,000000000e+00    0,000000000e+00
      632000000   -9,147344530e-02    2,065811120e-02   -1,131262928e-01    6,631641388e-01    0,000000000e+00    0,000000000e+00    0,000000000e+00    0,000000000e+00
      646000000   -5,553835630e-02    1,022385061e-02    2,739197314e-01    6,033462286e-01    0,000000000e+00    0,000000000e+00    0,000000000e+00    0,000000000e+00
      660000000   -4,826924950e-02   -8,629417047e-03    5,584504604e-01    3,401621580e-01    0,000000000e+00    0,000000000e+00    0,000000000e+00    0,000000000e+00
      674000000   -5,553273484e-02   -9,694872424e-03    6,439920664e-01   -4,060227424e-02    0,000000000e+00    0,000000000e+00    0,000000000e+00    0,000000000e+00
      688000000   -4,970002174e-02    3,978361841e-03    4,925309718e-01   -4,024661779e-01    0,000000000e+00    0,000000000e+00    0,000000000e+00    0,000000000e+00
      702000000   -2,434526198e-02    6,511733402e-03    1,605944782e-01   -6,023169160e-01    0,000000000e+00    0,000000000e+00    0,000000000e+00    0,000000000e+00
      716000000   -2,395393560e-03   -1,019195002e-02   -2,191425115e-01   -5,752770901e-01    0,000000000e+00    0,000000000e+00    0,000000000e+00    0,000000000e+00
      730000000    9,551237337e-03   -3,544741869e-02   -5,097291470e-01   -3,325654566e-01    0,000000000e+00    0,000000000e+00    0,000000000e+00    0,000000000e+00
      744000000    1,594474912e-02   -6,085545197e-02   -6,005704403e-01    3,399711847e-02    0,000000000e+00    0,000000000e+00    0,000000000e+00    0,000000000e+00
      758000000    2,292368375e-02   -1,032157838e-01   -4,540957808e-01    3,780651093e-01    0,000000000e+00    0,000000000e+00    0,000000000e+00    0,000000000e+00
      772000000   -4,728560802e-03   -1,737330109e-01   -1,398271620e-01    5,583474040e-01    0,000000000e+00    0,000000000e+00    0,000000000e+00    0,000000000e+00
      786000000   -1,050378978e-01   -2,332488298e-01    2,122546434e-01    5,191999078e-01    0,000000000e+00    0,000000000e+00    0,000000000e+00    0,000000000e+00
      800000000   -2,673497796e-01   -1,929199696e-01    4,725263417e-01    2,749255300e-01    0,000000000e+00    0,000000000e+00    0,000000000e+00    0,000000000e+00
      814000000   -3,646647334e-01    3,683244577e-03    5,079224706e-01   -8,933079988e-02    0,000000000e+00    0,000000000e+00    0,000000000e+00    0,000000000e+00
      828000000   -2,453340292e-01    2,338585109e-01    2,802118957e-01   -3,522227407e-01    0,000000000e+00    0,000000000e+00    0,000000000e+00    0,000000000e+00
      842000000    1,410996448e-02    2,779431939e-01   -1,680864207e-02   -3,621974587e-01    0,000000000e+00    0,000000000e+00    0,000000000e+00    0,000000000e+00
      856000000    2,134991586e-01    1,144670621e-01   -1,881322563e-01   -2,035748810e-01    0,000000000e+00    0,000000000e+00    0,000000000e+00    0,000000000e+00
      870000000    2,396926433e-01   -1,494237334e-01   -1,997009367e-01   -2,477215603e-02    0,000000000e+00    0,000000000e+00    0,000000000e+00    0,000000000e+00
      884000000    3,734771907e-02   -3,888839185e-01   -1,034944877e-01    7,021606714e-02    0,000000000e+00    0,000000000e+00    0,000000000e+00    0,000000000e+00
      898000000   -3,687992096e-01   -3,422283828e-01   -1,709810086e-02    2,753941156e-02    0,000000000e+00    0,000000000e+00    0,000000000e+00    0,000000000e+00
      912000000   -4,669429660e-01    1,383751780e-01   -1,217429265e-01    3,420125321e-02    0,000000000e+00    0,000000000e+00    0,000000000e+00    0,000000000e+00
      926000000   -9,647498280e-02    3,504309356e-01   -1,295063794e-01    1,325044036e-01    0,000000000e+00    0,000000000e+00    0,000000000e+00    0,000000000e+00
      940000000    1,820461154e-01    1,925809383e-01   -4,015061259e-02    2,141257674e-01    0,000000000e+00    0,000000000e+00    0,000000000e+00    0,000000000e+00
      954000000    2,564697862e-01   -4,957325011e-02    7,949004322e-02    2,266129255e-01    0,000000000e+00    0,000000000e+00    0,000000000e+00    0,000000000e+00
      968000000    1,744984090e-01   -2,640817165e-01    1,921343505e-01    1,797539145e-01    0,000000000e+00    0,000000000e+00    0,000000000e+00    0,000000000e+00
      982000000   -1,745114103e-02   -3,974986970e-01    2,805315554e-01    7,967151701e-02    0,000000000e+00    0,000000000e+00    0,000000000e+00    0,000000000e+00
      996000000   -2,718064785e-01   -3,794897497e-01    3,099039495e-01   -7,974883169e-02    0,000000000e+00    0,000000000e+00    0,000000000e+00    0,000000000e+00
     1010000000   -4,669667780e-01   -1,742431372e-01    2,211686373e-01   -2,528111637e-01    0,000000000e+00    0,000000000e+00    0,000000000e+00    0,000000000e+00
     1024000000   -4,624483287e-01    1,159614548e-01    2,062863484e-02   -3,307951391e-01    0,000000000e+00    0,000000000e+00    0,000000000e+00    0,000000000e+00
     1038000000   -2,650179863e-01    3,034641743e-01   -1,760588735e-01   -2,470513582e-01    0,000000000e+00    0,000000000e+00    0,000000000e+00    0,000000000e+00
     1052000000   -3,385362774e-02    3,086269796e-01   -2,585202157e-01   -7,576663792e-02    0,000000000e+00    0,000000000e+00    0,000000000e+00    0,000000000e+00
     1066000000    1,282474399e-01    2,080081701e-01   -2,213919163e-01    8,640228212e-02    0,000000000e+00    0,000000000e+00    0,000000000e+00    0,000000000e+00
     1080000000    2,105869353e-01    4,559679329e-02   -1,199731156e-01    1,949096173e-01    0,000000000e+00    0,000000000e+00    0,000000000e+00    0,000000000e+00
     1094000000    2,009092569e-01   -1,298400313e-01    1,722475700e-02    2,355868667e-01    0,000000000e+00    0,000000000e+00    0,000000000e+00    0,000000000e+00
     1108000000    1,014642045e-01   -2,845555544e-01    1,697746962e-01    2,046822608e-01    0,000000000e+00    0,000000000e+00    0,000000000e+00    0,000000000e+00
     1122000000   -9,639429301e-02   -3,716896176e-01    3,143579662e-01    9,122692049e-02    0,000000000e+00    0,000000000e+00    0,000000000e+00    0,000000000e+00
     1136000000   -3,437480628e-01   -2,687188089e-01    3,907117546e-01   -1,462870389e-01    0,000000000e+00    0,000000000e+00    0,000000000e+00    0,000000000e+00
     1150000000   -4,087454677e-01    3,907209635e-02    2,404626459e-01   -4,363157749e-01    0,000000000e+00    0,000000000e+00    0,000000000e+00    0,000000000e+00
     1164000000   -1,560351849e-01    2,195021063e-01   -9,650383890e-02   -5,145613551e-01    0,000000000e+00    0,000000000e+00    0,000000000e+00    0,000000000e+00
     1178000000    7,594700158e-02    8,858772367e-02   -3,582857251e-01   -3,431453109e-01    0,000000000e+00    0,000000000e+00    0,000000000e+00    0,000000000e+00
     1192000000    7,299564779e-02   -1,718000770e-01   -4,537937641e-01   -8,179223537e-02    0,000000000e+00    0,000000000e+00    0,000000000e+00    0,000000000e+00
     1206000000   -1,572386324e-01   -3,258548677e-01   -3,654322922e-01    1,911289096e-01    0,000000000e+00    0,000000000e+00    0,000000000e+00    0,000000000e+00
     1220000000   -4,534533918e-01   -1,846013665e-01   -1,061089635e-01    3,251326680e-01    0,000000000e+00    0,000000000e+00    0,000000000e+00    0,000000000e+00
     1234000000   -4,780593514e-01    1,678077132e-01    1,385142058e-01    2,230404466e-01    0,000000000e+00    0,000000000e+00    0,000000000e+00    0,000000000e+00
     1248000000   -2,336891592e-01    3,609643281e-01    1,993030310e-01    2,986522950e-02    0,000000000e+00    0,000000000e+00    0,000000000e+00    0,000000000e+00
     1262000000    6,987317000e-03    3,282538950e-01    1,290616393e-01   -7,362809777e-02    0,000000000e+00    0,000000000e+00    0,000000000e+00    0,000000000e+00
     1276000000    1,556187868e-01    2,017890066e-01    5,381603166e-02   -9,067218006e-02    0,000000000e+00    0,000000000e+00    0,000000000e+00    0,000000000e+00
     1290000000    2,190980613e-01    3,102469258e-02    1,322520198e-03   -7,426450402e-02    0,000000000e+00    0,000000000e+00    0,000000000e+00    0,000000000e+00
     1304000000    2,059328556e-01   -1,472395509e-01   -1,964737661e-02   -2,693359740e-02    0,000000000e+00    0,000000000e+00    0,000000000e+00    0,000000000e+00
     1318000000    1,148099378e-01   -3,142474890e-01   -5,177702405e-04    1,829862781e-02    0,000000000e+00    0,000000000e+00    0,000000000e+00    0,000000000e+00
     1332000000   -6,401229650e-02   -4,375202656e-01    5,345717445e-02    6,703163683e-02    0,000000000e+00    0,000000000e+00    0,000000000e+00    0,000000000e+00
     1346000000   -3,284414411e-01   -4,411100745e-01    1,509061456e-01    4,391222075e-02    0,000000000e+00    0,000000000e+00    0,000000000e+00    0,000000000e+00
     1360000000   -5,650004148e-01   -2,448316962e-01    1,075325459e-01   -8,624362200e-02    0,000000000e+00    0,000000000e+00    0,000000000e+00    0,000000000e+00
     1374000000   -6,273389459e-01    3,185692430e-02    1,123884469e-01    6,930221617e-02    0,000000000e+00    0,000000000e+00    0,000000000e+00    0,000000000e+00
     1388000000   -5,116518140e-01    2,920202315e-01    2,277048677e-01   -4,223418422e-03    0,000000000e+00    0,000000000e+00    0,000000000e+00    0,000000000e+00
     1402000000   -3,008472025e-01    4,193516672e-01    2,252776176e-01   -8,154617250e-02    0,000000000e+00    0,000000000e+00    0,000000000e+00    0,000000000e+00
     1416000000   -9,426046908e-02    4,199060500e-01    1,806535125e-01   -1,177699342e-01    0,000000000e+00    0,000000000e+00    0,000000000e+00    0,000000000e+00
     1430000000    7,346169651e-02    3,354149759e-01    1,613481492e-01   -8,157005161e-02    0,000000000e+00    0,000000000e+00    0,000000000e+00    0,000000000e+00
     1444000000    1,754597425e-01    2,007625252e-01    1,435432881e-01   -1,055072397e-01    0,000000000e+00    0,000000000e+00    0,000000000e+00    0,000000000e+00
     1458000000    2,280310690e-01    3,610175103e-02    1,478918195e-01   -7,421522588e-02    0,000000000e+00    0,000000000e+00    0,000000000e+00    0,000000000e+00
     1472000000    2,069776058e-01   -1,465308517e-01    1,428523511e-01   -5,049672723e-02    0,000000000e+00    0,000000000e+00    0,000000000e+00    0,000000000e+00
     1486000000    1,091214567e-01   -3,328939378e-01    1,708093286e-01   -1,087491494e-02    0,000000000e+00    0,000000000e+00    0,000000000e+00    0,000000000e+00
     1500000000   -8,829681575e-02   -4,601523876e-01    2,194190174e-01    6,171519309e-02    0,000000000e+00    0,000000000e+00    0,000000000e+00    0,000000000e+00
