! NanoVNA-App
! Date: 2025-09-26 09:55:41
! Start: 100MHz Stop: 1,5GHz Points: 101
! S-Parameter data: F S11 S21 S12 S22
# Hz S RI R 50
!     Frequency           S11_Real           S11_Imag           S21_Real           S21_Imag           S12_Real           S12_Imag           S22_Real           S22_Imag
      100000000   -2,906805649e-02   -4,470464773e-03    3,741664886e-01   -7,227168083e-01    0,000000000e+00    0,000000000e+00    0,000000000e+00    0,000000000e+00
      114000000   -1,692805253e-02    1,124287024e-02   -8,972069621e-02   -8,062896132e-01    0,000000000e+00    0,000000000e+00    0,000000000e+00    0,000000000e+00
      128000000    2,774250228e-03    1,049906388e-02   -5,156474710e-01   -6,210010052e-01    0,000000000e+00    0,000000000e+00    0,000000000e+00    0,000000000e+00
      142000000    1,392878313e-02   -2,575581893e-03   -7,682278156e-01   -2,362360507e-01    0,000000000e+00    0,000000000e+00    0,000000000e+00    0,000000000e+00
      156000000    1,438745111e-02   -1,421162672e-02   -7,654073238e-01    2,191386670e-01    0,000000000e+00    0,000000000e+00    0,000000000e+00    0,000000000e+00
      170000000    1,684036851e-02   -2,203299291e-02   -5,181879997e-01    6,060110331e-01    0,000000000e+00    0,000000000e+00    0,000000000e+00    0,000000000e+00
      184000000    2,128786594e-02   -3,691467643e-02   -1,007888094e-01    7,871441245e-01    0,000000000e+00    0,000000000e+00    0,000000000e+00    0,000000000e+00
      198000000    1,312140096e-02   -6,251318008e-02    3,441051245e-01    7,127475142e-01    0,000000000e+00    0,000000000e+00    0,000000000e+00    0,000000000e+00
      212000000   -1,877660304e-02   -8,119213581e-02    6,791441441e-01    4,101134241e-01    0,000000000e+00    0,000000000e+00    0,000000000e+00    0,000000000e+00
      226000000   -6,151555851e-02   -6,898044795e-02    7,967030406e-01   -3,081727959e-02    0,000000000e+00    0,000000000e+00    0,000000000e+00    0,000000000e+00
      240000000   -8,224122226e-02   -2,569474094e-02    6,471472979e-01   -4,676033556e-01    0,000000000e+00    0,000000000e+00    0,000000000e+00    0,000000000e+00
      254000000   -6,331538409e-02    1,706034504e-02    2,768545449e-01   -7,441738844e-01    0,000000000e+00    0,000000000e+00    0,000000000e+00    0,000000000e+00
      268000000   -2,342369221e-02    2,859941870e-02   -1,767016053e-01   -7,653930187e-01    0,000000000e+00    0,000000000e+00    0,000000000e+00    0,000000000e+00
      282000000    3,808282781e-03    1,113987900e-02   -5,627930760e-01   -5,380774140e-01    0,000000000e+00    0,000000000e+00    0,000000000e+00    0,000000000e+00
      296000000    9,007930756e-03   -7,546118926e-03   -7,619563341e-01   -1,398158967e-01    0,000000000e+00    0,000000000e+00    0,000000000e+00    0,000000000e+00
      310000000    1,104738750e-02   -1,605100371e-02   -7,127575874e-01    2,985185683e-01    0,000000000e+00    0,000000000e+00    0,000000000e+00    0,000000000e+00
      324000000    2,003152482e-02   -2,661544830e-02   -4,282829165e-01    6,381680369e-01    0,000000000e+00    0,000000000e+00    0,000000000e+00    0,000000000e+00
      338000000    2,525632828e-02   -5,241843686e-02   -7,729028352e-03    7,618198395e-01    0,000000000e+00    0,000000000e+00    0,000000000e+00    0,000000000e+00
      352000000    6,824077107e-03   -8,516790718e-02    4,071006775e-01    6,420844793e-01    0,000000000e+00    0,000000000e+00    0,000000000e+00    0,000000000e+00
      366000000   -3,561234847e-02   -9,524978697e-02    6,922314167e-01    3,124633431e-01    0,000000000e+00    0,000000000e+00    0,000000000e+00    0,000000000e+00
      380000000   -7,127302885e-02   -7,031256706e-02    7,489066124e-01   -1,257577538e-01    0,000000000e+00    0,000000000e+00    0,000000000e+00    0,000000000e+00
      394000000   -7,243542373e-02   -3,156365827e-02    5,488937497e-01   -5,215531588e-01    0,000000000e+00    0,000000000e+00    0,000000000e+00    0,000000000e+00
      408000000   -4,579660669e-02   -1,576140895e-02    1,610797495e-01   -7,330349684e-01    0,000000000e+00    0,000000000e+00    0,000000000e+00    0,000000000e+00
      422000000   -2,768965997e-02   -3,207233176e-02   -2,670893669e-01   -6,971926093e-01    0,000000000e+00    0,000000000e+00    0,000000000e+00    0,000000000e+00
      436000000   -4,010342434e-02   -5,205129460e-02   -6,034709811e-01   -4,339866042e-01    0,000000000e+00    0,000000000e+00    0,000000000e+00    0,000000000e+00
      450000000   -6,710115075e-02   -4,492664337e-02   -7,416544557e-01   -2,539737150e-02    0,000000000e+00    0,000000000e+00    0,000000000e+00    0,000000000e+00
      464000000   -7,326377183e-02   -1,258491818e-02   -6,222729087e-01    3,945945203e-01    0,000000000e+00    0,000000000e+00    0,000000000e+00    0,000000000e+00
      478000000   -4,801313952e-02    1,062085107e-02   -2,865943611e-01    6,685630679e-01    0,000000000e+00    0,000000000e+00    0,000000000e+00    0,000000000e+00
      492000000   -1,667994075e-02    4,907838069e-03    1,346304268e-01    7,048391104e-01    0,000000000e+00    0,000000000e+00    0,000000000e+00    0,000000000e+00
      506000000   -4,641318694e-03   -1,587802358e-02    4,974887073e-01    5,059508681e-01    0,000000000e+00    0,000000000e+00    0,000000000e+00    0,000000000e+00
      520000000   -6,838839035e-03   -2,960513718e-02    6,905437708e-01    1,451693326e-01    0,000000000e+00    0,000000000e+00    0,000000000e+00    0,000000000e+00
      534000000   -3,592618508e-03   -3,507479280e-02    6,460735798e-01   -2,603962719e-01    0,000000000e+00    0,000000000e+00    0,000000000e+00    0,000000000e+00
      548000000    8,188394830e-03   -5,226975679e-02    3,854123950e-01   -5,645493865e-01    0,000000000e+00    0,000000000e+00    0,000000000e+00    0,000000000e+00
      562000000    6,035441998e-03   -9,001937509e-02    8,587440476e-03   -6,734695435e-01    0,000000000e+00    0,000000000e+00    0,000000000e+00    0,000000000e+00
      576000000   -3,133302554e-02   -1,269209683e-01   -3,628544509e-01   -5,621329546e-01    0,000000000e+00    0,000000000e+00    0,000000000e+00    0,000000000e+00
      590000000   -9,538152814e-02   -1,273197532e-01   -6,171698570e-01   -2,740996480e-01    0,000000000e+00    0,000000000e+00    0,000000000e+00    0,000000000e+00
      604000000   -1,431518495e-01   -7,702088356e-02   -6,685737371e-01    1,269149929e-01    0,000000000e+00    0,000000000e+00    0,000000000e+00    0,000000000e+00
      618000000   -1,375124753e-01   -1,096701249e-02   -4,770895839e-01    4,872463644e-01    0,000000000e+00    0,000000000e+00    0,000000000e+00    0,000000000e+00
      632000000   -9,152533859e-02    2,160190418e-02   -1,145621315e-01    6,645700336e-01    0,000000000e+00    0,000000000e+00    0,000000000e+00    0,000000000e+00
      646000000   -5,425573140e-02    1,131336764e-02    2,743516862e-01    6,042391062e-01    0,000000000e+00    0,000000000e+00    0,000000000e+00    0,000000000e+00
      660000000   -4,864588380e-02   -1,015503611e-02    5,590814352e-01    3,400618732e-01    0,000000000e+00    0,000000000e+00    0,000000000e+00    0,000000000e+00
      674000000   -5,633332580e-02   -9,611275047e-03    6,446603537e-01   -4,101324081e-02    0,000000000e+00    0,000000000e+00    0,000000000e+00    0,000000000e+00
      688000000   -4,924312979e-02    2,956447657e-03    4,921130538e-01   -4,028086066e-01    0,000000000e+00    0,000000000e+00    0,000000000e+00    0,000000000e+00
      702000000   -2,467891574e-02    6,499358919e-03    1,653803140e-01   -6,052536368e-01    0,000000000e+00    0,000000000e+00    0,000000000e+00    0,000000000e+00
      716000000   -8,673654520e-04   -1,070514973e-02   -2,194062024e-01   -5,748265386e-01    0,000000000e+00    0,000000000e+00    0,000000000e+00    0,000000000e+00
      730000000    9,564667009e-03   -3,552091494e-02   -5,103603601e-01   -3,334793746e-01    0,000000000e+00    0,000000000e+00    0,000000000e+00    0,000000000e+00
      744000000    1,580255106e-02   -6,177430227e-02   -6,019257903e-01    3,389279172e-02    0,000000000e+00    0,000000000e+00    0,000000000e+00    0,000000000e+00
      758000000    2,228352427e-02   -1,041950509e-01   -4,540090859e-01    3,778013587e-01    0,000000000e+00    0,000000000e+00    0,000000000e+00    0,000000000e+00
      772000000   -4,302185494e-03   -1,753765643e-01   -1,391885579e-01    5,591255426e-01    0,000000000e+00    0,000000000e+00    0,000000000e+00    0,000000000e+00
      786000000   -1,053463519e-01   -2,339119315e-01    2,121946365e-01    5,201835632e-01    0,000000000e+00    0,000000000e+00    0,000000000e+00    0,000000000e+00
      800000000   -2,686133385e-01   -1,932373047e-01    4,730762839e-01    2,731991708e-01    0,000000000e+00    0,000000000e+00    0,000000000e+00    0,000000000e+00
      814000000   -3,664501011e-01    4,478653427e-03    5,073559880e-01   -9,076212347e-02    0,000000000e+00    0,000000000e+00    0,000000000e+00    0,000000000e+00
      828000000   -2,456863225e-01    2,369040251e-01    2,782844603e-01   -3,531526327e-01    0,000000000e+00    0,000000000e+00    0,000000000e+00    0,000000000e+00
      842000000    1,541287079e-02    2,790973186e-01   -1,900605112e-02   -3,629475832e-01    0,000000000e+00    0,000000000e+00    0,000000000e+00    0,000000000e+00
      856000000    2,155026048e-01    1,141965687e-01   -1,896711290e-01   -2,031190395e-01    0,000000000e+00    0,000000000e+00    0,000000000e+00    0,000000000e+00
      870000000    2,405960113e-01   -1,511734575e-01   -2,001859248e-01   -2,376269363e-02    0,000000000e+00    0,000000000e+00    0,000000000e+00    0,000000000e+00
      884000000    3,696514666e-02   -3,899007738e-01   -1,026950255e-01    7,198858261e-02    0,000000000e+00    0,000000000e+00    0,000000000e+00    0,000000000e+00
      898000000   -3,725857437e-01   -3,438901901e-01   -1,542971656e-02    2,743057348e-02    0,000000000e+00    0,000000000e+00    0,000000000e+00    0,000000000e+00
      912000000   -4,700171053e-01    1,396574527e-01   -1,083804742e-01    3,496070206e-02    0,000000000e+00    0,000000000e+00    0,000000000e+00    0,000000000e+00
      926000000   -9,697375447e-02    3,520668745e-01   -1,302897185e-01    1,294812113e-01    0,000000000e+00    0,000000000e+00    0,000000000e+00    0,000000000e+00
      940000000    1,847107410e-01    1,935888082e-01   -4,170692712e-02    2,136231959e-01    0,000000000e+00    0,000000000e+00    0,000000000e+00    0,000000000e+00
      954000000    2,579155564e-01   -4,737708345e-02    7,628726959e-02    2,272902727e-01    0,000000000e+00    0,000000000e+00    0,000000000e+00    0,000000000e+00
      968000000    1,754948050e-01   -2,630008161e-01    1,871519089e-01    1,806094348e-01    0,000000000e+00    0,000000000e+00    0,000000000e+00    0,000000000e+00
      982000000   -1,463606767e-02   -3,976166546e-01    2,790857255e-01    8,270684630e-02    0,000000000e+00    0,000000000e+00    0,000000000e+00    0,000000000e+00
      996000000   -2,795236111e-01   -3,794886470e-01    3,095692992e-01   -7,627929002e-02    0,000000000e+00    0,000000000e+00    0,000000000e+00    0,000000000e+00
     1010000000   -4,788115025e-01   -1,745562702e-01    2,228809297e-01   -2,531978190e-01    0,000000000e+00    0,000000000e+00    0,000000000e+00    0,000000000e+00
     1024000000   -4,605708420e-01    1,235317662e-01    1,869777218e-02   -3,302939236e-01    0,000000000e+00    0,000000000e+00    0,000000000e+00    0,000000000e+00
     1038000000   -2,655628026e-01    3,007619083e-01   -1,757324040e-01   -2,487684935e-01    0,000000000e+00    0,000000000e+00    0,000000000e+00    0,000000000e+00
     1052000000   -3,531297296e-02    3,144155741e-01   -2,556351423e-01   -7,893893868e-02    0,000000000e+00    0,000000000e+00    0,000000000e+00    0,000000000e+00
     1066000000    1,279985160e-01    2,057834566e-01   -2,252542973e-01    8,416550606e-02    0,000000000e+00    0,000000000e+00    0,000000000e+00    0,000000000e+00
     1080000000    2,089897692e-01    4,566209391e-02   -1,226499528e-01    1,946677268e-01    0,000000000e+00    0,000000000e+00    0,000000000e+00    0,000000000e+00
     1094000000    2,052445710e-01   -1,293760687e-01    1,403670851e-02    2,340881079e-01    0,000000000e+00    0,000000000e+00    0,000000000e+00    0,000000000e+00
     1108000000    1,009517610e-01   -2,889801562e-01    1,644212455e-01    2,094804049e-01    0,000000000e+00    0,000000000e+00    0,000000000e+00    0,000000000e+00
     1122000000   -9,836935997e-02   -3,760574460e-01    3,110749424e-01    9,590059519e-02    0,000000000e+00    0,000000000e+00    0,000000000e+00    0,000000000e+00
     1136000000   -3,477660716e-01   -2,732450962e-01    3,940848112e-01   -1,418424100e-01    0,000000000e+00    0,000000000e+00    0,000000000e+00    0,000000000e+00
     1150000000   -4,165004790e-01    3,344352543e-02    2,487300336e-01   -4,297391176e-01    0,000000000e+00    0,000000000e+00    0,000000000e+00    0,000000000e+00
     1164000000   -1,574050933e-01    2,195923626e-01   -8,469172567e-02   -5,081415772e-01    0,000000000e+00    0,000000000e+00    0,000000000e+00    0,000000000e+00
     1178000000    7,452878356e-02    8,354440331e-02   -3,485070467e-01   -3,464975655e-01    0,000000000e+00    0,000000000e+00    0,000000000e+00    0,000000000e+00
     1192000000    7,665128261e-02   -1,755935699e-01   -4,444381595e-01   -8,455418795e-02    0,000000000e+00    0,000000000e+00    0,000000000e+00    0,000000000e+00
     1206000000   -1,606397033e-01   -3,322244883e-01   -3,633142412e-01    1,846059561e-01    0,000000000e+00    0,000000000e+00    0,000000000e+00    0,000000000e+00
     1220000000   -4,540555477e-01   -1,814330518e-01   -1,022169292e-01    3,200658262e-01    0,000000000e+00    0,000000000e+00    0,000000000e+00    0,000000000e+00
     1234000000   -4,744468033e-01    1,668451130e-01    1,447422206e-01    2,175842822e-01    0,000000000e+00    0,000000000e+00    0,000000000e+00    0,000000000e+00
     1248000000   -2,391743958e-01    3,543919921e-01    1,906300932e-01    3,316263482e-02    0,000000000e+00    0,000000000e+00    0,000000000e+00    0,000000000e+00
     1262000000    6,009519566e-03    3,278253675e-01    1,236473471e-01   -7,334733009e-02    0,000000000e+00    0,000000000e+00    0,000000000e+00    0,000000000e+00
     1276000000    1,555433571e-01    1,968366951e-01    5,391265824e-02   -9,199915081e-02    0,000000000e+00    0,000000000e+00    0,000000000e+00    0,000000000e+00
     1290000000    2,186530381e-01    3,278241307e-02    2,027728362e-03   -6,636343896e-02    0,000000000e+00    0,000000000e+00    0,000000000e+00    0,000000000e+00
     1304000000    2,112835348e-01   -1,492480487e-01   -1,377050765e-02   -2,883256041e-02    0,000000000e+00    0,000000000e+00    0,000000000e+00    0,000000000e+00
     1318000000    1,138664559e-01   -3,183158338e-01   -4,193980712e-03    2,009361796e-02    0,000000000e+00    0,000000000e+00    0,000000000e+00    0,000000000e+00
     1332000000   -6,495824456e-02   -4,414905906e-01    4,510483518e-02    5,502736941e-02    0,000000000e+00    0,000000000e+00    0,000000000e+00    0,000000000e+00
     1346000000   -3,333023787e-01   -4,438288510e-01    1,346810311e-01    3,734669834e-02    0,000000000e+00    0,000000000e+00    0,000000000e+00    0,000000000e+00
     1360000000   -5,612166524e-01   -2,468352765e-01    1,022342965e-01   -8,507671952e-02    0,000000000e+00    0,000000000e+00    0,000000000e+00    0,000000000e+00
     1374000000   -6,252177358e-01    3,509106115e-02    1,007804945e-01    6,513245404e-02    0,000000000e+00    0,000000000e+00    0,000000000e+00    0,000000000e+00
     1388000000   -5,209599733e-01    2,889987230e-01    2,176001966e-01   -6,983056664e-04    0,000000000e+00    0,000000000e+00    0,000000000e+00    0,000000000e+00
     1402000000   -2,999187112e-01    4,276037514e-01    2,133583575e-01   -7,828637213e-02    0,000000000e+00    0,000000000e+00    0,000000000e+00    0,000000000e+00
     1416000000   -9,132035077e-02    4,189207852e-01    1,883074194e-01   -1,193112656e-01    0,000000000e+00    0,000000000e+00    0,000000000e+00    0,000000000e+00
     1430000000    7,527285069e-02    3,420479000e-01    1,809521466e-01   -9,929022193e-02    0,000000000e+00    0,000000000e+00    0,000000000e+00    0,000000000e+00
     1444000000    1,822682619e-01    1,948878914e-01    1,462614238e-01   -1,006793678e-01    0,000000000e+00    0,000000000e+00    0,000000000e+00    0,000000000e+00
     1458000000    2,302450538e-01    3,646302596e-02    1,381876469e-01   -7,931669801e-02    0,000000000e+00    0,000000000e+00    0,000000000e+00    0,000000000e+00
     1472000000    2,152494788e-01   -1,534774452e-01    1,493627876e-01   -5,905205756e-02    0,000000000e+00    0,000000000e+00    0,000000000e+00    0,000000000e+00
     1486000000    9,847919643e-02   -3,308773637e-01    1,527373791e-01   -1,391661353e-02    0,000000000e+00    0,000000000e+00    0,000000000e+00    0,000000000e+00
     1500000000   -9,666245431e-02   -4,594632685e-01    2,059518546e-01    5,947295949e-02    0,000000000e+00    0,000000000e+00    0,000000000e+00    0,000000000e+00
