! NanoVNA-App
! Date: 2025-09-26 09:55:59
! Start: 100MHz Stop: 1,5GHz Points: 101
! S-Parameter data: F S11 S21 S12 S22
# Hz S RI R 50
!     Frequency           S11_Real           S11_Imag           S21_Real           S21_Imag           S12_Real           S12_Imag           S22_Real           S22_Imag
      100000000   -2,906185016e-02   -4,462938290e-03    3,741033971e-01   -7,226846814e-01    0,000000000e+00    0,000000000e+00    0,000000000e+00    0,000000000e+00
      114000000   -1,693856344e-02    1,127609424e-02   -8,970974386e-02   -8,063240647e-01    0,000000000e+00    0,000000000e+00    0,000000000e+00    0,000000000e+00
      128000000    2,792605897e-03    1,048725378e-02   -5,156521797e-01   -6,211286187e-01    0,000000000e+00    0,000000000e+00    0,000000000e+00    0,000000000e+00
      142000000    1,391915232e-02   -2,571012825e-03   -7,681875825e-01   -2,362027466e-01    0,000000000e+00    0,000000000e+00    0,000000000e+00    0,000000000e+00
      156000000    1,432023104e-02   -1,419671066e-02   -7,644928098e-01    2,198928744e-01    0,000000000e+00    0,000000000e+00    0,000000000e+00    0,000000000e+00
      170000000    1,692670584e-02   -2,201684006e-02   -5,180932879e-01    6,061659455e-01    0,000000000e+00    0,000000000e+00    0,000000000e+00    0,000000000e+00
      184000000    2,132763527e-02   -3,691685572e-02   -1,007496938e-01    7,870252728e-01    0,000000000e+00    0,000000000e+00    0,000000000e+00    0,000000000e+00
      198000000    1,317267213e-02   -6,250500679e-02    3,444251716e-01    7,132439017e-01    0,000000000e+00    0,000000000e+00    0,000000000e+00    0,000000000e+00
      212000000   -1,875143498e-02   -8,117718995e-02    6,794170737e-01    4,098582864e-01    0,000000000e+00    0,000000000e+00    0,000000000e+00    0,000000000e+00
      226000000   -6,152141094e-02   -6,902603805e-02    7,966735363e-01   -3,072490543e-02    0,000000000e+00    0,000000000e+00    0,000000000e+00    0,000000000e+00
      240000000   -8,229931444e-02   -2,577817068e-02    6,474397182e-01   -4,677606225e-01    0,000000000e+00    0,000000000e+00    0,000000000e+00    0,000000000e+00
      254000000   -6,352014840e-02    1,700028963e-02    2,768110931e-01   -7,442160249e-01    0,000000000e+00    0,000000000e+00    0,000000000e+00    0,000000000e+00
      268000000   -2,333138511e-02    2,876260318e-02   -1,766897291e-01   -7,653478384e-01    0,000000000e+00    0,000000000e+00    0,000000000e+00    0,000000000e+00
      282000000    3,827836597e-03    1,105637848e-02   -5,628417730e-01   -5,383068323e-01    0,000000000e+00    0,000000000e+00    0,000000000e+00    0,000000000e+00
      296000000    8,962637745e-03   -7,671725471e-03   -7,619039416e-01   -1,397532076e-01    0,000000000e+00    0,000000000e+00    0,000000000e+00    0,000000000e+00
      310000000    1,096654590e-02   -1,592306979e-02   -7,130706906e-01    2,994992137e-01    0,000000000e+00    0,000000000e+00    0,000000000e+00    0,000000000e+00
      324000000    1,972708665e-02   -2,664157934e-02   -4,288429022e-01    6,380969286e-01    0,000000000e+00    0,000000000e+00    0,000000000e+00    0,000000000e+00
      338000000    2,556591295e-02   -5,266153440e-02   -1,048109215e-02    7,635129094e-01    0,000000000e+00    0,000000000e+00    0,000000000e+00    0,000000000e+00
      352000000    6,742476020e-03   -8,506261557e-02    4,067988694e-01    6,417888999e-01    0,000000000e+00    0,000000000e+00    0,000000000e+00    0,000000000e+00
      366000000   -3,547134995e-02   -9,539742023e-02    6,924747825e-01    3,127257824e-01    0,000000000e+00    0,000000000e+00    0,000000000e+00    0,000000000e+00
      380000000   -7,153022289e-02   -7,028728724e-02    7,488557696e-01   -1,257633418e-01    0,000000000e+00    0,000000000e+00    0,000000000e+00    0,000000000e+00
      394000000   -7,233303785e-02   -3,169211000e-02    5,490731001e-01   -5,221656561e-01    0,000000000e+00    0,000000000e+00    0,000000000e+00    0,000000000e+00
      408000000   -4,576238617e-02   -1,574252546e-02    1,633647680e-01   -7,338287234e-01    0,000000000e+00    0,000000000e+00    0,000000000e+00    0,000000000e+00
      422000000   -2,760257199e-02   -3,205835074e-02   -2,658102214e-01   -6,972002387e-01    0,000000000e+00    0,000000000e+00    0,000000000e+00    0,000000000e+00
      436000000   -3,994627297e-02   -5,238316953e-02   -6,032794714e-01   -4,346361458e-01    0,000000000e+00    0,000000000e+00    0,000000000e+00    0,000000000e+00
      450000000   -6,705842912e-02   -4,481477663e-02   -7,410251498e-01   -2,503190748e-02    0,000000000e+00    0,000000000e+00    0,000000000e+00    0,000000000e+00
      464000000   -7,309731096e-02   -1,249004155e-02   -6,217485070e-01    3,949159384e-01    0,000000000e+00    0,000000000e+00    0,000000000e+00    0,000000000e+00
      478000000   -4,795490950e-02    1,072199270e-02   -2,866996825e-01    6,679250598e-01    0,000000000e+00    0,000000000e+00    0,000000000e+00    0,000000000e+00
      492000000   -1,664770953e-02    5,196148530e-03    1,341190785e-01    7,060765624e-01    0,000000000e+00    0,000000000e+00    0,000000000e+00    0,000000000e+00
      506000000   -4,740327597e-03   -1,616158336e-02    4,978982806e-01    5,071470141e-01    0,000000000e+00    0,000000000e+00    0,000000000e+00    0,000000000e+00
      520000000   -6,770291366e-03   -2,962599136e-02    6,892244220e-01    1,449826360e-01    0,000000000e+00    0,000000000e+00    0,000000000e+00    0,000000000e+00
      534000000   -3,666482400e-03   -3,552908823e-02    6,456461549e-01   -2,607593238e-01    0,000000000e+00    0,000000000e+00    0,000000000e+00    0,000000000e+00
      548000000    8,228692226e-03   -5,236386880e-02    3,850995302e-01   -5,647636056e-01    0,000000000e+00    0,000000000e+00    0,000000000e+00    0,000000000e+00
      562000000    6,037726998e-03   -9,009593725e-02    7,930899039e-03   -6,729056835e-01    0,000000000e+00    0,000000000e+00    0,000000000e+00    0,000000000e+00
      576000000   -3,197794780e-02   -1,261071861e-01   -3,632359207e-01   -5,615143776e-01    0,000000000e+00    0,000000000e+00    0,000000000e+00    0,000000000e+00
      590000000   -9,519311041e-02   -1,272860616e-01   -6,177400351e-01   -2,710860968e-01    0,000000000e+00    0,000000000e+00    0,000000000e+00    0,000000000e+00
      604000000   -1,428211331e-01   -7,749711722e-02   -6,690716147e-01    1,267123967e-01    0,000000000e+00    0,000000000e+00    0,000000000e+00    0,000000000e+00
      618000000   -1,372517347e-01   -1,054699067e-02   -4,761275947e-01    4,869039357e-01    0,000000000e+00    0,000000000e+00    0,000000000e+00    0,000000000e+00
      632000000   -9,224935621e-02    2,158634737e-02   -1,139507294e-01    6,650109291e-01    0,000000000e+00    0,000000000e+00    0,000000000e+00    0,000000000e+00
      646000000   -5,533086136e-02    1,046940871e-02    2,757031620e-01    6,041927934e-01    0,000000000e+00    0,000000000e+00    0,000000000e+00    0,000000000e+00
      660000000   -4,854596406e-02   -9,184450842e-03    5,579441190e-01    3,396088183e-01    0,000000000e+00    0,000000000e+00    0,000000000e+00    0,000000000e+00
      674000000   -5,623758957e-02   -9,546429850e-03    6,446729898e-01   -4,116810486e-02    0,000000000e+00    0,000000000e+00    0,000000000e+00    0,000000000e+00
      688000000   -4,959979653e-02    3,079584567e-03    4,927352965e-01   -4,023813009e-01    0,000000000e+00    0,000000000e+00    0,000000000e+00    0,000000000e+00
      702000000   -2,513761446e-02    6,175702903e-03    1,629591882e-01   -6,089691520e-01    0,000000000e+00    0,000000000e+00    0,000000000e+00    0,000000000e+00
      716000000   -1,672772691e-03   -9,878342971e-03   -2,190356404e-01   -5,757920146e-01    0,000000000e+00    0,000000000e+00    0,000000000e+00    0,000000000e+00
      730000000    8,633999154e-03   -3,515421599e-02   -5,107293129e-01   -3,333625495e-01    0,000000000e+00    0,000000000e+00    0,000000000e+00    0,000000000e+00
      744000000    1,551757660e-02   -6,107961759e-02   -6,018741727e-01    3,412729502e-02    0,000000000e+00    0,000000000e+00    0,000000000e+00    0,000000000e+00
      758000000    2,180042118e-02   -1,042047665e-01   -4,547676742e-01    3,781539202e-01    0,000000000e+00    0,000000000e+00    0,000000000e+00    0,000000000e+00
      772000000   -4,587858450e-03   -1,743082404e-01   -1,388584524e-01    5,584955215e-01    0,000000000e+00    0,000000000e+00    0,000000000e+00    0,000000000e+00
      786000000   -1,060784310e-01   -2,337615639e-01    2,129004300e-01    5,192532539e-01    0,000000000e+00    0,000000000e+00    0,000000000e+00    0,000000000e+00
      800000000   -2,680884004e-01   -1,927230656e-01    4,726601541e-01    2,744399011e-01    0,000000000e+00    0,000000000e+00    0,000000000e+00    0,000000000e+00
      814000000   -3,658710122e-01    5,888519343e-03    5,076021552e-01   -9,074681252e-02    0,000000000e+00    0,000000000e+00    0,000000000e+00    0,000000000e+00
      828000000   -2,459435165e-01    2,357192785e-01    2,782353461e-01   -3,532257676e-01    0,000000000e+00    0,000000000e+00    0,000000000e+00    0,000000000e+00
      842000000    1,514847390e-02    2,792139649e-01   -1,865579747e-02   -3,619759083e-01    0,000000000e+00    0,000000000e+00    0,000000000e+00    0,000000000e+00
      856000000    2,151243240e-01    1,145291030e-01   -1,892233193e-01   -2,030026466e-01    0,000000000e+00    0,000000000e+00    0,000000000e+00    0,000000000e+00
      870000000    2,401868850e-01   -1,509747803e-01   -2,008695751e-01   -2,361921221e-02    0,000000000e+00    0,000000000e+00    0,000000000e+00    0,000000000e+00
      884000000    3,754412755e-02   -3,894885480e-01   -1,021679342e-01    7,201017439e-02    0,000000000e+00    0,000000000e+00    0,000000000e+00    0,000000000e+00
      898000000   -3,711965084e-01   -3,433714509e-01   -1,498821378e-02    2,768401988e-02    0,000000000e+00    0,000000000e+00    0,000000000e+00    0,000000000e+00
      912000000   -4,708129466e-01    1,390625238e-01   -1,088958681e-01    3,516838327e-02    0,000000000e+00    0,000000000e+00    0,000000000e+00    0,000000000e+00
      926000000   -9,432694316e-02    3,528119028e-01   -1,302164346e-01    1,296012551e-01    0,000000000e+00    0,000000000e+00    0,000000000e+00    0,000000000e+00
      940000000    1,866738945e-01    1,948489100e-01   -4,127237201e-02    2,133850753e-01    0,000000000e+00    0,000000000e+00    0,000000000e+00    0,000000000e+00
      954000000    2,553451657e-01   -4,749167338e-02    7,401106507e-02    2,268921286e-01    0,000000000e+00    0,000000000e+00    0,000000000e+00    0,000000000e+00
      968000000    1,787167639e-01   -2,640855014e-01    1,876075715e-01    1,824108511e-01    0,000000000e+00    0,000000000e+00    0,000000000e+00    0,000000000e+00
      982000000   -1,779115759e-02   -3,993846476e-01    2,769199610e-01    8,155692369e-02    0,000000000e+00    0,000000000e+00    0,000000000e+00    0,000000000e+00
      996000000   -2,777926028e-01   -3,790883422e-01    3,090921938e-01   -7,763148099e-02    0,000000000e+00    0,000000000e+00    0,000000000e+00    0,000000000e+00
     1010000000   -4,721360207e-01   -1,715375185e-01    2,215611041e-01   -2,516188025e-01    0,000000000e+00    0,000000000e+00    0,000000000e+00    0,000000000e+00
     1024000000   -4,636242986e-01    1,185755804e-01    2,120162360e-02   -3,287727237e-01    0,000000000e+00    0,000000000e+00    0,000000000e+00    0,000000000e+00
     1038000000   -2,654186189e-01    3,067342341e-01   -1,737924814e-01   -2,488400489e-01    0,000000000e+00    0,000000000e+00    0,000000000e+00    0,000000000e+00
     1052000000   -3,716162220e-02    3,168438375e-01   -2,592938840e-01   -7,830861211e-02    0,000000000e+00    0,000000000e+00    0,000000000e+00    0,000000000e+00
     1066000000    1,321475953e-01    2,045651227e-01   -2,278786600e-01    8,395858109e-02    0,000000000e+00    0,000000000e+00    0,000000000e+00    0,000000000e+00
     1080000000    2,144051641e-01    4,733995348e-02   -1,249554232e-01    1,941777617e-01    0,000000000e+00    0,000000000e+00    0,000000000e+00    0,000000000e+00
     1094000000    2,075693756e-01   -1,315117925e-01    1,413997728e-02    2,357400805e-01    0,000000000e+00    0,000000000e+00    0,000000000e+00    0,000000000e+00
     1108000000    1,043191329e-01   -2,897258103e-01    1,652681082e-01    2,093848437e-01    0,000000000e+00    0,000000000e+00    0,000000000e+00    0,000000000e+00
     1122000000   -1,033031568e-01   -3,706773520e-01    3,139809966e-01    9,642636031e-02    0,000000000e+00    0,000000000e+00    0,000000000e+00    0,000000000e+00
     1136000000   -3,476935029e-01   -2,732856870e-01    3,923088908e-01   -1,410743296e-01    0,000000000e+00    0,000000000e+00    0,000000000e+00    0,000000000e+00
     1150000000   -4,163123667e-01    3,744870052e-02    2,497158349e-01   -4,279567599e-01    0,000000000e+00    0,000000000e+00    0,000000000e+00    0,000000000e+00
     1164000000   -1,565141976e-01    2,207508683e-01   -8,704003692e-02   -5,084877610e-01    0,000000000e+00    0,000000000e+00    0,000000000e+00    0,000000000e+00
     1178000000    7,390018553e-02    8,339007199e-02   -3,504455686e-01   -3,436356187e-01    0,000000000e+00    0,000000000e+00    0,000000000e+00    0,000000000e+00
     1192000000    7,361924648e-02   -1,720018387e-01   -4,436939657e-01   -8,214187622e-02    0,000000000e+00    0,000000000e+00    0,000000000e+00    0,000000000e+00
     1206000000   -1,648761332e-01   -3,298557699e-01   -3,648419976e-01    1,889108121e-01    0,000000000e+00    0,000000000e+00    0,000000000e+00    0,000000000e+00
     1220000000   -4,545875192e-01   -1,801934838e-01   -1,006772071e-01    3,210502267e-01    0,000000000e+00    0,000000000e+00    0,000000000e+00    0,000000000e+00
     1234000000   -4,766638875e-01    1,733931601e-01    1,393823475e-01    2,208003551e-01    0,000000000e+00    0,000000000e+00    0,000000000e+00    0,000000000e+00
     1248000000   -2,375885248e-01    3,518031836e-01    1,875061691e-01    3,181720525e-02    0,000000000e+00    0,000000000e+00    0,000000000e+00    0,000000000e+00
     1262000000    7,928068750e-03    3,266692162e-01    1,300216466e-01   -7,074609399e-02    0,000000000e+00    0,000000000e+00    0,000000000e+00    0,000000000e+00
     1276000000    1,570209563e-01    2,014422566e-01    5,057089031e-02   -9,391236305e-02    0,000000000e+00    0,000000000e+00    0,000000000e+00    0,000000000e+00
     1290000000    2,198741734e-01    2,993697859e-02   -4,959952639e-05   -7,179505378e-02    0,000000000e+00    0,000000000e+00    0,000000000e+00    0,000000000e+00
     1304000000    2,073586881e-01   -1,476803124e-01   -1,859057136e-02   -2,562191710e-02    0,000000000e+00    0,000000000e+00    0,000000000e+00    0,000000000e+00
     1318000000    1,129788309e-01   -3,177976310e-01   -4,699054174e-03    1,697597839e-02    0,000000000e+00    0,000000000e+00    0,000000000e+00    0,000000000e+00
     1332000000   -7,133948058e-02   -4,414893091e-01    4,465531930e-02    6,552478671e-02    0,000000000e+00    0,000000000e+00    0,000000000e+00    0,000000000e+00
     1346000000   -3,282333314e-01   -4,384692311e-01    1,512344033e-01    3,523959965e-02    0,000000000e+00    0,000000000e+00    0,000000000e+00    0,000000000e+00
     1360000000   -5,613498092e-01   -2,510131598e-01    1,007460281e-01   -8,958462626e-02    0,000000000e+00    0,000000000e+00    0,000000000e+00    0,000000000e+00
     1374000000   -6,276497245e-01    3,931050003e-02    1,001427323e-01    6,844943017e-02    0,000000000e+00    0,000000000e+00    0,000000000e+00    0,000000000e+00
     1388000000   -5,121773481e-01    2,802514732e-01    2,147261947e-01   -9,003925137e-03    0,000000000e+00    0,000000000e+00    0,000000000e+00    0,000000000e+00
     1402000000   -3,014671206e-01    4,223915935e-01    2,144442052e-01   -7,879660279e-02    0,000000000e+00    0,000000000e+00    0,000000000e+00    0,000000000e+00
     1416000000   -8,821615577e-02    4,243672192e-01    1,868605018e-01   -1,157269105e-01    0,000000000e+00    0,000000000e+00    0,000000000e+00    0,000000000e+00
     1430000000    7,243627310e-02    3,260052502e-01    1,354870647e-01   -1,261474937e-01    0,000000000e+00    0,000000000e+00    0,000000000e+00    0,000000000e+00
     1444000000    1,849265099e-01    1,986448765e-01    1,416784376e-01   -9,242560714e-02    0,000000000e+00    0,000000000e+00    0,000000000e+00    0,000000000e+00
     1458000000    2,341410518e-01    3,087570705e-02    1,559776515e-01   -8,635699004e-02    0,000000000e+00    0,000000000e+00    0,000000000e+00    0,000000000e+00
     1472000000    2,137933075e-01   -1,513537169e-01    1,448375583e-01   -5,257724226e-02    0,000000000e+00    0,000000000e+00    0,000000000e+00    0,000000000e+00
     1486000000    1,084024534e-01   -3,330104947e-01    1,568575501e-01   -1,955860853e-02    0,000000000e+00    0,000000000e+00    0,000000000e+00    0,000000000e+00
     1500000000   -1,049314663e-01   -4,588203132e-01    1,994625330e-01    6,314410269e-02    0,000000000e+00    0,000000000e+00    0,000000000e+00    0,000000000e+00
