! NanoVNA-App
! Date: 2025-09-26 09:55:36
! Start: 100MHz Stop: 1,5GHz Points: 101
! S-Parameter data: F S11 S21 S12 S22
# Hz S RI R 50
!     Frequency           S11_Real           S11_Imag           S21_Real           S21_Imag           S12_Real           S12_Imag           S22_Real           S22_Imag
      100000000   -2,906276472e-02   -4,465464037e-03    3,741100132e-01   -7,227012515e-01    0,000000000e+00    0,000000000e+00    0,000000000e+00    0,000000000e+00
      114000000   -1,696659066e-02    1,128217485e-02   -8,964609355e-02   -8,063005805e-01    0,000000000e+00    0,000000000e+00    0,000000000e+00    0,000000000e+00
      128000000    2,735213609e-03    1,055973489e-02   -5,155225396e-01   -6,211342216e-01    0,000000000e+00    0,000000000e+00    0,000000000e+00    0,000000000e+00
      142000000    1,392583270e-02   -2,585652517e-03   -7,682312727e-01   -2,363454401e-01    0,000000000e+00    0,000000000e+00    0,000000000e+00    0,000000000e+00
      156000000    1,431615464e-02   -1,423550025e-02   -7,644240260e-01    2,198688984e-01    0,000000000e+00    0,000000000e+00    0,000000000e+00    0,000000000e+00
      170000000    1,684178412e-02   -2,196875587e-02   -5,184249282e-01    6,061451435e-01    0,000000000e+00    0,000000000e+00    0,000000000e+00    0,000000000e+00
      184000000    2,131452225e-02   -3,691400588e-02   -1,006257832e-01    7,870136499e-01    0,000000000e+00    0,000000000e+00    0,000000000e+00    0,000000000e+00
      198000000    1,310085319e-02   -6,253481656e-02    3,443017006e-01    7,130403519e-01    0,000000000e+00    0,000000000e+00    0,000000000e+00    0,000000000e+00
      212000000   -1,877393574e-02   -8,121775091e-02    6,793131232e-01    4,098722637e-01    0,000000000e+00    0,000000000e+00    0,000000000e+00    0,000000000e+00
      226000000   -6,160288304e-02   -6,904689968e-02    7,967532277e-01   -3,062976897e-02    0,000000000e+00    0,000000000e+00    0,000000000e+00    0,000000000e+00
      240000000   -8,229982853e-02   -2,572028525e-02    6,469951868e-01   -4,672616422e-01    0,000000000e+00    0,000000000e+00    0,000000000e+00    0,000000000e+00
      254000000   -6,328971684e-02    1,705373265e-02    2,768379152e-01   -7,439817190e-01    0,000000000e+00    0,000000000e+00    0,000000000e+00    0,000000000e+00
      268000000   -2,341516502e-02    2,858590148e-02   -1,770754158e-01   -7,658523917e-01    0,000000000e+00    0,000000000e+00    0,000000000e+00    0,000000000e+00
      282000000    3,742109053e-03    1,117972657e-02   -5,628587604e-01   -5,382235050e-01    0,000000000e+00    0,000000000e+00    0,000000000e+00    0,000000000e+00
      296000000    9,168936871e-03   -7,753632963e-03   -7,618989944e-01   -1,398229897e-01    0,000000000e+00    0,000000000e+00    0,000000000e+00    0,000000000e+00
      310000000    1,123791747e-02   -1,594753377e-02   -7,133700848e-01    2,993595898e-01    0,000000000e+00    0,000000000e+00    0,000000000e+00    0,000000000e+00
      324000000    1,974389330e-02   -2,642394975e-02   -4,280444086e-01    6,390457749e-01    0,000000000e+00    0,000000000e+00    0,000000000e+00    0,000000000e+00
      338000000    2,533046715e-02   -5,247443542e-02   -1,180191338e-02    7,610024810e-01    0,000000000e+00    0,000000000e+00    0,000000000e+00    0,000000000e+00
      352000000    6,848075893e-03   -8,535357565e-02    4,066699445e-01    6,404926777e-01    0,000000000e+00    0,000000000e+00    0,000000000e+00    0,000000000e+00
      366000000   -3,553305566e-02   -9,542876482e-02    6,925183535e-01    3,116338253e-01    0,000000000e+00    0,000000000e+00    0,000000000e+00    0,000000000e+00
      380000000   -7,146251202e-02   -7,015399635e-02    7,489650249e-01   -1,258909851e-01    0,000000000e+00    0,000000000e+00    0,000000000e+00    0,000000000e+00
      394000000   -7,211478800e-02   -3,167139739e-02    5,482479930e-01   -5,218397975e-01    0,000000000e+00    0,000000000e+00    0,000000000e+00    0,000000000e+00
      408000000   -4,554347694e-02   -1,570739038e-02    1,624359488e-01   -7,337173223e-01    0,000000000e+00    0,000000000e+00    0,000000000e+00    0,000000000e+00
      422000000   -2,764132246e-02   -3,190259635e-02   -2,665857673e-01   -6,968909502e-01    0,000000000e+00    0,000000000e+00    0,000000000e+00    0,000000000e+00
      436000000   -3,996827453e-02   -5,227324367e-02   -6,031920314e-01   -4,342325032e-01    0,000000000e+00    0,000000000e+00    0,000000000e+00    0,000000000e+00
      450000000   -6,686740369e-02   -4,455555975e-02   -7,413051724e-01   -2,481913939e-02    0,000000000e+00    0,000000000e+00    0,000000000e+00    0,000000000e+00
      464000000   -7,341588289e-02   -1,252426952e-02   -6,220964193e-01    3,954873681e-01    0,000000000e+00    0,000000000e+00    0,000000000e+00    0,000000000e+00
      478000000   -4,823286086e-02    1,052936353e-02   -2,864623964e-01    6,678565145e-01    0,000000000e+00    0,000000000e+00    0,000000000e+00    0,000000000e+00
      492000000   -1,675351523e-02    4,617806990e-03    1,342590153e-01    7,051218152e-01    0,000000000e+00    0,000000000e+00    0,000000000e+00    0,000000000e+00
      506000000   -4,513514694e-03   -1,589005627e-02    4,983652234e-01    5,061969161e-01    0,000000000e+00    0,000000000e+00    0,000000000e+00    0,000000000e+00
      520000000   -7,023237646e-03   -2,982072160e-02    6,913836002e-01    1,440055668e-01    0,000000000e+00    0,000000000e+00    0,000000000e+00    0,000000000e+00
      534000000   -3,652059706e-03   -3,522750735e-02    6,451565623e-01   -2,603980899e-01    0,000000000e+00    0,000000000e+00    0,000000000e+00    0,000000000e+00
      548000000    8,607869968e-03   -5,221873894e-02    3,860011697e-01   -5,647019744e-01    0,000000000e+00    0,000000000e+00    0,000000000e+00    0,000000000e+00
      562000000    6,094623823e-03   -9,001895040e-02    7,925095968e-03   -6,731049418e-01    0,000000000e+00    0,000000000e+00    0,000000000e+00    0,000000000e+00
      576000000   -3,180836886e-02   -1,261232942e-01   -3,632748425e-01   -5,619790554e-01    0,000000000e+00    0,000000000e+00    0,000000000e+00    0,000000000e+00
      590000000   -9,550201148e-02   -1,272274703e-01   -6,196278334e-01   -2,738894224e-01    0,000000000e+00    0,000000000e+00    0,000000000e+00    0,000000000e+00
      604000000   -1,429306567e-01   -7,684709132e-02   -6,686546803e-01    1,267853379e-01    0,000000000e+00    0,000000000e+00    0,000000000e+00    0,000000000e+00
      618000000   -1,370635629e-01   -1,129864808e-02   -4,758124053e-01    4,870326519e-01    0,000000000e+00    0,000000000e+00    0,000000000e+00    0,000000000e+00
      632000000   -9,157015383e-02    2,108687721e-02   -1,134685650e-01    6,638925076e-01    0,000000000e+00    0,000000000e+00    0,000000000e+00    0,000000000e+00
      646000000   -5,428899452e-02    1,082766056e-02    2,747433186e-01    6,051785946e-01    0,000000000e+00    0,000000000e+00    0,000000000e+00    0,000000000e+00
      660000000   -4,900360107e-02   -9,736752138e-03    5,595458746e-01    3,404698074e-01    0,000000000e+00    0,000000000e+00    0,000000000e+00    0,000000000e+00
      674000000   -5,651411787e-02   -1,040644012e-02    6,448136568e-01   -4,117071629e-02    0,000000000e+00    0,000000000e+00    0,000000000e+00    0,000000000e+00
      688000000   -4,888620973e-02    3,903559176e-03    4,921735227e-01   -4,029547572e-01    0,000000000e+00    0,000000000e+00    0,000000000e+00    0,000000000e+00
      702000000   -2,524781227e-02    5,658079404e-03    1,615735888e-01   -6,017474532e-01    0,000000000e+00    0,000000000e+00    0,000000000e+00    0,000000000e+00
      716000000   -1,754860743e-03   -9,940437973e-03   -2,186424285e-01   -5,763249397e-01    0,000000000e+00    0,000000000e+00    0,000000000e+00    0,000000000e+00
      730000000    9,321597405e-03   -3,605923057e-02   -5,102312565e-01   -3,337857723e-01    0,000000000e+00    0,000000000e+00    0,000000000e+00    0,000000000e+00
      744000000    1,693829149e-02   -6,130049750e-02   -6,018987894e-01    3,375240043e-02    0,000000000e+00    0,000000000e+00    0,000000000e+00    0,000000000e+00
      758000000    2,185734548e-02   -1,040519103e-01   -4,546020627e-01    3,780676723e-01    0,000000000e+00    0,000000000e+00    0,000000000e+00    0,000000000e+00
      772000000   -4,822286312e-03   -1,747545451e-01   -1,385679543e-01    5,589823127e-01    0,000000000e+00    0,000000000e+00    0,000000000e+00    0,000000000e+00
      786000000   -1,061133146e-01   -2,331781089e-01    2,126410902e-01    5,183349252e-01    0,000000000e+00    0,000000000e+00    0,000000000e+00    0,000000000e+00
      800000000   -2,678166926e-01   -1,931297481e-01    4,720781147e-01    2,741334140e-01    0,000000000e+00    0,000000000e+00    0,000000000e+00    0,000000000e+00
      814000000   -3,650854528e-01    5,129733589e-03    5,068383217e-01   -9,076812118e-02    0,000000000e+00    0,000000000e+00    0,000000000e+00    0,000000000e+00
      828000000   -2,476403266e-01    2,358973473e-01    2,789786458e-01   -3,534604907e-01    0,000000000e+00    0,000000000e+00    0,000000000e+00    0,000000000e+00
      842000000    1,518707257e-02    2,786271274e-01   -1,883511245e-02   -3,623669446e-01    0,000000000e+00    0,000000000e+00    0,000000000e+00    0,000000000e+00
      856000000    2,153145820e-01    1,141274869e-01   -1,899798661e-01   -2,031385452e-01    0,000000000e+00    0,000000000e+00    0,000000000e+00    0,000000000e+00
      870000000    2,401223630e-01   -1,511519253e-01   -2,008592039e-01   -2,342276089e-02    0,000000000e+00    0,000000000e+00    0,000000000e+00    0,000000000e+00
      884000000    3,810617700e-02   -3,896412253e-01   -1,028807610e-01    7,217267156e-02    0,000000000e+00    0,000000000e+00    0,000000000e+00    0,000000000e+00
      898000000   -3,722550869e-01   -3,440027535e-01   -1,566367224e-02    2,751747146e-02    0,000000000e+00    0,000000000e+00    0,000000000e+00    0,000000000e+00
      912000000   -4,692414999e-01    1,394546479e-01   -1,144332737e-01    3,549923003e-02    0,000000000e+00    0,000000000e+00    0,000000000e+00    0,000000000e+00
      926000000   -9,346606582e-02    3,520063162e-01   -1,281866282e-01    1,292785406e-01    0,000000000e+00    0,000000000e+00    0,000000000e+00    0,000000000e+00
      940000000    1,889044493e-01    1,945622265e-01   -4,057829827e-02    2,139576226e-01    0,000000000e+00    0,000000000e+00    0,000000000e+00    0,000000000e+00
      954000000    2,564956248e-01   -5,056564137e-02    7,671172172e-02    2,265109569e-01    0,000000000e+00    0,000000000e+00    0,000000000e+00    0,000000000e+00
      968000000    1,768370569e-01   -2,626525164e-01    1,875469387e-01    1,821927130e-01    0,000000000e+00    0,000000000e+00    0,000000000e+00    0,000000000e+00
      982000000   -1,612309553e-02   -3,983157575e-01    2,770254016e-01    8,226785809e-02    0,000000000e+00    0,000000000e+00    0,000000000e+00    0,000000000e+00
      996000000   -2,774320245e-01   -3,789427578e-01    3,106843233e-01   -7,636382431e-02    0,000000000e+00    0,000000000e+00    0,000000000e+00    0,000000000e+00
     1010000000   -4,778121114e-01   -1,717541367e-01    2,214817107e-01   -2,521380186e-01    0,000000000e+00    0,000000000e+00    0,000000000e+00    0,000000000e+00
     1024000000   -4,599286318e-01    1,188542247e-01    2,350981161e-02   -3,292085230e-01    0,000000000e+00    0,000000000e+00    0,000000000e+00    0,000000000e+00
     1038000000   -2,680473030e-01    3,030158579e-01   -1,723432541e-01   -2,481869906e-01    0,000000000e+00    0,000000000e+00    0,000000000e+00    0,000000000e+00
     1052000000   -3,289986029e-02    3,134289086e-01   -2,582985461e-01   -7,880976796e-02    0,000000000e+00    0,000000000e+00    0,000000000e+00    0,000000000e+00
     1066000000    1,316964179e-01    2,077419758e-01   -2,237171531e-01    8,704208583e-02    0,000000000e+00    0,000000000e+00    0,000000000e+00    0,000000000e+00
     1080000000    2,105536461e-01    4,840354621e-02   -1,227699444e-01    1,928996891e-01    0,000000000e+00    0,000000000e+00    0,000000000e+00    0,000000000e+00
     1094000000    2,075207382e-01   -1,308076084e-01    1,218423434e-02    2,357701808e-01    0,000000000e+00    0,000000000e+00    0,000000000e+00    0,000000000e+00
     1108000000    1,043550596e-01   -2,889952958e-01    1,647051573e-01    2,092590034e-01    0,000000000e+00    0,000000000e+00    0,000000000e+00    0,000000000e+00
     1122000000   -1,017164141e-01   -3,772195876e-01    3,125385046e-01    9,544616938e-02    0,000000000e+00    0,000000000e+00    0,000000000e+00    0,000000000e+00
     1136000000   -3,484078348e-01   -2,746886015e-01    3,917987943e-01   -1,436170787e-01    0,000000000e+00    0,000000000e+00    0,000000000e+00    0,000000000e+00
     1150000000   -4,071129262e-01    3,509555757e-02    2,491965145e-01   -4,278443754e-01    0,000000000e+00    0,000000000e+00    0,000000000e+00    0,000000000e+00
     1164000000   -1,657856405e-01    2,187241316e-01   -8,716656268e-02   -5,080074072e-01    0,000000000e+00    0,000000000e+00    0,000000000e+00    0,000000000e+00
     1178000000    7,751350105e-02    8,659296483e-02   -3,459508419e-01   -3,433017731e-01    0,000000000e+00    0,000000000e+00    0,000000000e+00    0,000000000e+00
     1192000000    7,528030872e-02   -1,755658239e-01   -4,440087080e-01   -8,521811664e-02    0,000000000e+00    0,000000000e+00    0,000000000e+00    0,000000000e+00
     1206000000   -1,607229263e-01   -3,281625807e-01   -3,606082201e-01    1,878328919e-01    0,000000000e+00    0,000000000e+00    0,000000000e+00    0,000000000e+00
     1220000000   -4,549230933e-01   -1,840804368e-01   -1,001296937e-01    3,227399588e-01    0,000000000e+00    0,000000000e+00    0,000000000e+00    0,000000000e+00
     1234000000   -4,798867702e-01    1,691220105e-01    1,381459683e-01    2,148088068e-01    0,000000000e+00    0,000000000e+00    0,000000000e+00    0,000000000e+00
     1248000000   -2,334095687e-01    3,572201729e-01    1,939271688e-01    3,491868451e-02    0,000000000e+00    0,000000000e+00    0,000000000e+00    0,000000000e+00
     1262000000    8,655953221e-03    3,323376179e-01    1,287571490e-01   -6,933748722e-02    0,000000000e+00    0,000000000e+00    0,000000000e+00    0,000000000e+00
     1276000000    1,557784528e-01    1,982680559e-01    4,977434874e-02   -9,555476159e-02    0,000000000e+00    0,000000000e+00    0,000000000e+00    0,000000000e+00
     1290000000    2,220713347e-01    3,402858973e-02    1,159105799e-03   -6,694491953e-02    0,000000000e+00    0,000000000e+00    0,000000000e+00    0,000000000e+00
     1304000000    2,092150450e-01   -1,493566781e-01   -1,648835465e-02   -2,806107700e-02    0,000000000e+00    0,000000000e+00    0,000000000e+00    0,000000000e+00
     1318000000    1,165783778e-01   -3,160716891e-01   -3,157326253e-03    2,562431991e-02    0,000000000e+00    0,000000000e+00    0,000000000e+00    0,000000000e+00
     1332000000   -6,749776006e-02   -4,409162104e-01    4,261991754e-02    6,035777554e-02    0,000000000e+00    0,000000000e+00    0,000000000e+00    0,000000000e+00
     1346000000   -3,339347243e-01   -4,411911666e-01    1,370926201e-01    3,781177476e-02    0,000000000e+00    0,000000000e+00    0,000000000e+00    0,000000000e+00
     1360000000   -5,558980107e-01   -2,399036735e-01    1,148714200e-01   -8,145225793e-02    0,000000000e+00    0,000000000e+00    0,000000000e+00    0,000000000e+00
     1374000000   -6,228474975e-01    3,861444816e-02    9,772559255e-02    6,633640081e-02    0,000000000e+00    0,000000000e+00    0,000000000e+00    0,000000000e+00
     1388000000   -5,136826038e-01    2,955529988e-01    2,189522237e-01    6,526964717e-03    0,000000000e+00    0,000000000e+00    0,000000000e+00    0,000000000e+00
     1402000000   -3,075187504e-01    4,260501564e-01    2,093592882e-01   -7,669377327e-02    0,000000000e+00    0,000000000e+00    0,000000000e+00    0,000000000e+00
     1416000000   -8,421042562e-02    4,223608673e-01    1,912787557e-01   -1,182550117e-01    0,000000000e+00    0,000000000e+00    0,000000000e+00    0,000000000e+00
     1430000000    8,609312773e-02    3,394344747e-01    1,577093303e-01   -1,384517550e-01    0,000000000e+00    0,000000000e+00    0,000000000e+00    0,000000000e+00
     1444000000    1,831340790e-01    1,998632401e-01    1,374780536e-01   -1,012410745e-01    0,000000000e+00    0,000000000e+00    0,000000000e+00    0,000000000e+00
     1458000000    2,294543833e-01    2,762115933e-02    1,499130726e-01   -7,887557149e-02    0,000000000e+00    0,000000000e+00    0,000000000e+00    0,000000000e+00
     1472000000    2,087529451e-01   -1,481558830e-01    1,397808641e-01   -6,020445749e-02    0,000000000e+00    0,000000000e+00    0,000000000e+00    0,000000000e+00
     1486000000    1,081526503e-01   -3,294411004e-01    1,591076851e-01    4,830056336e-03    0,000000000e+00    0,000000000e+00    0,000000000e+00    0,000000000e+00
     1500000000   -9,536556154e-02   -4,567515850e-01    1,880276352e-01    4,887964204e-02    0,000000000e+00    0,000000000e+00    0,000000000e+00    0,000000000e+00
