! NanoVNA-App
! Date: 2025-09-26 09:55:40
! Start: 100MHz Stop: 1,5GHz Points: 101
! S-Parameter data: F S11 S21 S12 S22
# Hz S RI R 50
!     Frequency           S11_Real           S11_Imag           S21_Real           S21_Imag           S12_Real           S12_Imag           S22_Real           S22_Imag
      100000000   -2,906652726e-02   -4,467545543e-03    3,741312027e-01   -7,227113247e-01    0,000000000e+00    0,000000000e+00    0,000000000e+00    0,000000000e+00
      114000000   -1,696074195e-02    1,126723830e-02   -8,962790668e-02   -8,062754869e-01    0,000000000e+00    0,000000000e+00    0,000000000e+00    0,000000000e+00
      128000000    2,725703642e-03    1,051245630e-02   -5,153909922e-01   -6,208856702e-01    0,000000000e+00    0,000000000e+00    0,000000000e+00    0,000000000e+00
      142000000    1,391913835e-02   -2,578142099e-03   -7,681930661e-01   -2,362186015e-01    0,000000000e+00    0,000000000e+00    0,000000000e+00    0,000000000e+00
      156000000    1,545141824e-02   -1,389889512e-02   -7,731445432e-01    2,243309021e-01    0,000000000e+00    0,000000000e+00    0,000000000e+00    0,000000000e+00
      170000000    1,683920622e-02   -2,198388055e-02   -5,183632374e-01    6,062112451e-01    0,000000000e+00    0,000000000e+00    0,000000000e+00    0,000000000e+00
      184000000    2,126647532e-02   -3,690417856e-02   -1,006496176e-01    7,868226171e-01    0,000000000e+00    0,000000000e+00    0,000000000e+00    0,000000000e+00
      198000000    1,313991565e-02   -6,250103563e-02    3,441341817e-01    7,133547664e-01    0,000000000e+00    0,000000000e+00    0,000000000e+00    0,000000000e+00
      212000000   -1,879846305e-02   -8,118031919e-02    6,793838739e-01    4,099467099e-01    0,000000000e+00    0,000000000e+00    0,000000000e+00    0,000000000e+00
      226000000   -6,162255630e-02   -6,893379986e-02    7,967866063e-01   -3,074995801e-02    0,000000000e+00    0,000000000e+00    0,000000000e+00    0,000000000e+00
      240000000   -8,224567026e-02   -2,567533031e-02    6,471241713e-01   -4,676806629e-01    0,000000000e+00    0,000000000e+00    0,000000000e+00    0,000000000e+00
      254000000   -6,333207339e-02    1,703590713e-02    2,767052948e-01   -7,443045974e-01    0,000000000e+00    0,000000000e+00    0,000000000e+00    0,000000000e+00
      268000000   -2,335842699e-02    2,867622674e-02   -1,767785102e-01   -7,653817534e-01    0,000000000e+00    0,000000000e+00    0,000000000e+00    0,000000000e+00
      282000000    3,737271996e-03    1,117847860e-02   -5,626551509e-01   -5,380249619e-01    0,000000000e+00    0,000000000e+00    0,000000000e+00    0,000000000e+00
      296000000    9,099217132e-03   -7,693481166e-03   -7,620458007e-01   -1,398573220e-01    0,000000000e+00    0,000000000e+00    0,000000000e+00    0,000000000e+00
      310000000    1,117289159e-02   -1,554912794e-02   -7,128876448e-01    2,986903787e-01    0,000000000e+00    0,000000000e+00    0,000000000e+00    0,000000000e+00
      324000000    1,998167112e-02   -2,645323984e-02   -4,287290871e-01    6,392809749e-01    0,000000000e+00    0,000000000e+00    0,000000000e+00    0,000000000e+00
      338000000    2,549874596e-02   -5,250965431e-02   -7,982669398e-03    7,623977065e-01    0,000000000e+00    0,000000000e+00    0,000000000e+00    0,000000000e+00
      352000000    6,781139877e-03   -8,499789238e-02    4,061828256e-01    6,421394944e-01    0,000000000e+00    0,000000000e+00    0,000000000e+00    0,000000000e+00
      366000000   -3,546992317e-02   -9,528144449e-02    6,915833354e-01    3,122830689e-01    0,000000000e+00    0,000000000e+00    0,000000000e+00    0,000000000e+00
      380000000   -7,150916755e-02   -7,009539008e-02    7,491545081e-01   -1,258583069e-01    0,000000000e+00    0,000000000e+00    0,000000000e+00    0,000000000e+00
      394000000   -7,211728394e-02   -3,156891465e-02    5,487480760e-01   -5,228285789e-01    0,000000000e+00    0,000000000e+00    0,000000000e+00    0,000000000e+00
      408000000   -4,572192952e-02   -1,569190808e-02    1,631559283e-01   -7,333010435e-01    0,000000000e+00    0,000000000e+00    0,000000000e+00    0,000000000e+00
      422000000   -2,762389183e-02   -3,192779422e-02   -2,659725547e-01   -6,969603896e-01    0,000000000e+00    0,000000000e+00    0,000000000e+00    0,000000000e+00
      436000000   -3,996808827e-02   -5,228106678e-02   -6,033394933e-01   -4,342266023e-01    0,000000000e+00    0,000000000e+00    0,000000000e+00    0,000000000e+00
      450000000   -6,730495393e-02   -4,478660598e-02   -7,415708303e-01   -2,475854382e-02    0,000000000e+00    0,000000000e+00    0,000000000e+00    0,000000000e+00
      464000000   -7,308098674e-02   -1,227192953e-02   -6,218655109e-01    3,955215514e-01    0,000000000e+00    0,000000000e+00    0,000000000e+00    0,000000000e+00
      478000000   -4,804152623e-02    1,098281424e-02   -2,864046693e-01    6,685586572e-01    0,000000000e+00    0,000000000e+00    0,000000000e+00    0,000000000e+00
      492000000   -1,673104987e-02    4,641940352e-03    1,342596710e-01    7,043720484e-01    0,000000000e+00    0,000000000e+00    0,000000000e+00    0,000000000e+00
      506000000   -4,418971017e-03   -1,590190828e-02    4,981877804e-01    5,064791441e-01    0,000000000e+00    0,000000000e+00    0,000000000e+00    0,000000000e+00
      520000000   -6,791098043e-03   -2,949733660e-02    6,883684397e-01    1,451875418e-01    0,000000000e+00    0,000000000e+00    0,000000000e+00    0,000000000e+00
      534000000   -4,060630687e-03   -3,547732905e-02    6,457249522e-01   -2,610462308e-01    0,000000000e+00    0,000000000e+00    0,000000000e+00    0,000000000e+00
      548000000    8,228446357e-03   -5,216219276e-02    3,852352798e-01   -5,646632314e-01    0,000000000e+00    0,000000000e+00    0,000000000e+00    0,000000000e+00
      562000000    6,134617142e-03   -8,985410631e-02    8,057637140e-03   -6,731774211e-01    0,000000000e+00    0,000000000e+00    0,000000000e+00    0,000000000e+00
      576000000   -3,167328611e-02   -1,266752034e-01   -3,628215492e-01   -5,624691248e-01    0,000000000e+00    0,000000000e+00    0,000000000e+00    0,000000000e+00
      590000000   -9,508600086e-02   -1,277513057e-01   -6,193208098e-01   -2,733456492e-01    0,000000000e+00    0,000000000e+00    0,000000000e+00    0,000000000e+00
      604000000   -1,432218701e-01   -7,738553733e-02   -6,691047549e-01    1,266089976e-01    0,000000000e+00    0,000000000e+00    0,000000000e+00    0,000000000e+00
      618000000   -1,367241889e-01   -1,042695623e-02   -4,758909345e-01    4,868793190e-01    0,000000000e+00    0,000000000e+00    0,000000000e+00    0,000000000e+00
      632000000   -9,208651632e-02    2,178222872e-02   -1,143354774e-01    6,646705270e-01    0,000000000e+00    0,000000000e+00    0,000000000e+00    0,000000000e+00
      646000000   -5,426846072e-02    1,039425749e-02    2,737439275e-01    6,048349142e-01    0,000000000e+00    0,000000000e+00    0,000000000e+00    0,000000000e+00
      660000000   -4,925568029e-02   -9,209997021e-03    5,587772131e-01    3,397285342e-01    0,000000000e+00    0,000000000e+00    0,000000000e+00    0,000000000e+00
      674000000   -5,561645329e-02   -9,724147618e-03    6,447072625e-01   -4,132533073e-02    0,000000000e+00    0,000000000e+00    0,000000000e+00    0,000000000e+00
      688000000   -4,910006747e-02    4,066838883e-03    4,927387238e-01   -4,025852084e-01    0,000000000e+00    0,000000000e+00    0,000000000e+00    0,000000000e+00
      702000000   -2,416510880e-02    6,387853064e-03    1,609830856e-01   -6,015856266e-01    0,000000000e+00    0,000000000e+00    0,000000000e+00    0,000000000e+00
      716000000   -2,156724455e-03   -1,031905226e-02   -2,196063101e-01   -5,763463974e-01    0,000000000e+00    0,000000000e+00    0,000000000e+00    0,000000000e+00
      730000000    8,475849405e-03   -3,603773564e-02   -5,099261403e-01   -3,337492645e-01    0,000000000e+00    0,000000000e+00    0,000000000e+00    0,000000000e+00
      744000000    1,658439636e-02   -6,053056940e-02   -6,019085050e-01    3,368087858e-02    0,000000000e+00    0,000000000e+00    0,000000000e+00    0,000000000e+00
      758000000    2,227051742e-02   -1,031287834e-01   -4,542571008e-01    3,781427443e-01    0,000000000e+00    0,000000000e+00    0,000000000e+00    0,000000000e+00
      772000000   -4,038503859e-03   -1,749355346e-01   -1,391036063e-01    5,585427284e-01    0,000000000e+00    0,000000000e+00    0,000000000e+00    0,000000000e+00
      786000000   -1,066656485e-01   -2,339501232e-01    2,117634416e-01    5,196795464e-01    0,000000000e+00    0,000000000e+00    0,000000000e+00    0,000000000e+00
      800000000   -2,672534883e-01   -1,931264400e-01    4,719623327e-01    2,738092244e-01    0,000000000e+00    0,000000000e+00    0,000000000e+00    0,000000000e+00
      814000000   -3,656715751e-01    5,929128733e-03    5,072022676e-01   -9,092634916e-02    0,000000000e+00    0,000000000e+00    0,000000000e+00    0,000000000e+00
      828000000   -2,466728687e-01    2,367185503e-01    2,789303064e-01   -3,538296819e-01    0,000000000e+00    0,000000000e+00    0,000000000e+00    0,000000000e+00
      842000000    1,511637215e-02    2,795436382e-01   -1,820531487e-02   -3,618198335e-01    0,000000000e+00    0,000000000e+00    0,000000000e+00    0,000000000e+00
      856000000    2,152379304e-01    1,142636687e-01   -1,898813546e-01   -2,028789371e-01    0,000000000e+00    0,000000000e+00    0,000000000e+00    0,000000000e+00
      870000000    2,403452545e-01   -1,507567167e-01   -2,002795190e-01   -2,354268171e-02    0,000000000e+00    0,000000000e+00    0,000000000e+00    0,000000000e+00
      884000000    3,765369579e-02   -3,901775777e-01   -1,025110558e-01    7,205456495e-02    0,000000000e+00    0,000000000e+00    0,000000000e+00    0,000000000e+00
      898000000   -3,706503808e-01   -3,445760906e-01   -1,508685574e-02    2,741626650e-02    0,000000000e+00    0,000000000e+00    0,000000000e+00    0,000000000e+00
      912000000   -4,699529111e-01    1,389028877e-01   -1,097439006e-01    1,982133090e-02    0,000000000e+00    0,000000000e+00    0,000000000e+00    0,000000000e+00
      926000000   -9,696925431e-02    3,537341058e-01   -1,302808970e-01    1,317399144e-01    0,000000000e+00    0,000000000e+00    0,000000000e+00    0,000000000e+00
      940000000    1,848903745e-01    1,934771538e-01   -4,247569293e-02    2,124173343e-01    0,000000000e+00    0,000000000e+00    0,000000000e+00    0,000000000e+00
      954000000    2,579788268e-01   -4,764159769e-02    7,653390616e-02    2,277113050e-01    0,000000000e+00    0,000000000e+00    0,000000000e+00    0,000000000e+00
      968000000    1,764296442e-01   -2,623240352e-01    1,887663305e-01    1,822042316e-01    0,000000000e+00    0,000000000e+00    0,000000000e+00    0,000000000e+00
      982000000   -1,956949010e-02   -3,977315128e-01    2,777545452e-01    8,045422286e-02    0,000000000e+00    0,000000000e+00    0,000000000e+00    0,000000000e+00
      996000000   -2,750372291e-01   -3,776912391e-01    3,084958792e-01   -7,607392222e-02    0,000000000e+00    0,000000000e+00    0,000000000e+00    0,000000000e+00
     1010000000   -4,745030403e-01   -1,764210314e-01    2,242351919e-01   -2,496210039e-01    0,000000000e+00    0,000000000e+00    0,000000000e+00    0,000000000e+00
     1024000000   -4,617828131e-01    1,178724095e-01    1,943625323e-02   -3,278878331e-01    0,000000000e+00    0,000000000e+00    0,000000000e+00    0,000000000e+00
     1038000000   -2,625041604e-01    2,996075153e-01   -1,747238934e-01   -2,469972372e-01    0,000000000e+00    0,000000000e+00    0,000000000e+00    0,000000000e+00
     1052000000   -3,181514144e-02    3,124631643e-01   -2,563700676e-01   -7,684970647e-02    0,000000000e+00    0,000000000e+00    0,000000000e+00    0,000000000e+00
     1066000000    1,274526566e-01    2,057905793e-01   -2,237020433e-01    8,345589787e-02    0,000000000e+00    0,000000000e+00    0,000000000e+00    0,000000000e+00
     1080000000    2,120475471e-01    4,416351393e-02   -1,246489659e-01    1,938762665e-01    0,000000000e+00    0,000000000e+00    0,000000000e+00    0,000000000e+00
     1094000000    2,072419375e-01   -1,321595758e-01    1,269869227e-02    2,362538278e-01    0,000000000e+00    0,000000000e+00    0,000000000e+00    0,000000000e+00
     1108000000    1,057011336e-01   -2,903648019e-01    1,637611836e-01    2,076889575e-01    0,000000000e+00    0,000000000e+00    0,000000000e+00    0,000000000e+00
     1122000000   -1,020959318e-01   -3,761945963e-01    3,122200072e-01    9,572856128e-02    0,000000000e+00    0,000000000e+00    0,000000000e+00    0,000000000e+00
     1136000000   -3,482567072e-01   -2,758427858e-01    3,931647539e-01   -1,400412768e-01    0,000000000e+00    0,000000000e+00    0,000000000e+00    0,000000000e+00
     1150000000   -4,069408476e-01    3,485498205e-02    2,452243865e-01   -4,250517786e-01    0,000000000e+00    0,000000000e+00    0,000000000e+00    0,000000000e+00
     1164000000   -1,640680581e-01    2,211303115e-01   -8,794383705e-02   -5,049234629e-01    0,000000000e+00    0,000000000e+00    0,000000000e+00    0,000000000e+00
     1178000000    7,782079279e-02    8,719725907e-02   -3,466607034e-01   -3,469364643e-01    0,000000000e+00    0,000000000e+00    0,000000000e+00    0,000000000e+00
     1192000000    7,631928474e-02   -1,754762083e-01   -4,438827038e-01   -8,447629213e-02    0,000000000e+00    0,000000000e+00    0,000000000e+00    0,000000000e+00
     1206000000   -1,623075604e-01   -3,279911876e-01   -3,630108535e-01    1,878939867e-01    0,000000000e+00    0,000000000e+00    0,000000000e+00    0,000000000e+00
     1220000000   -4,582482874e-01   -1,798700988e-01   -9,879341722e-02    3,293503225e-01    0,000000000e+00    0,000000000e+00    0,000000000e+00    0,000000000e+00
     1234000000   -4,793792665e-01    1,712321192e-01    1,375654042e-01    2,204530239e-01    0,000000000e+00    0,000000000e+00    0,000000000e+00    0,000000000e+00
     1248000000   -2,390970588e-01    3,619784117e-01    1,906527281e-01    3,371036798e-02    0,000000000e+00    0,000000000e+00    0,000000000e+00    0,000000000e+00
     1262000000    1,139526442e-02    3,310626447e-01    1,280592829e-01   -7,182835788e-02    0,000000000e+00    0,000000000e+00    0,000000000e+00    0,000000000e+00
     1276000000    1,601229459e-01    2,020633966e-01    5,405415967e-02   -9,162114561e-02    0,000000000e+00    0,000000000e+00    0,000000000e+00    0,000000000e+00
     1290000000    2,226853669e-01    2,791610174e-02    1,196157064e-05   -7,361289859e-02    0,000000000e+00    0,000000000e+00    0,000000000e+00    0,000000000e+00
     1304000000    2,094701082e-01   -1,493079662e-01   -1,582803577e-02   -3,428217024e-02    0,000000000e+00    0,000000000e+00    0,000000000e+00    0,000000000e+00
     1318000000    1,190266609e-01   -3,201315999e-01    2,281593625e-03    2,210940979e-02    0,000000000e+00    0,000000000e+00    0,000000000e+00    0,000000000e+00
     1332000000   -7,083490491e-02   -4,435057640e-01    4,635716230e-02    5,944010243e-02    0,000000000e+00    0,000000000e+00    0,000000000e+00    0,000000000e+00
     1346000000   -3,263207376e-01   -4,413811862e-01    1,397610754e-01    3,439332545e-02    0,000000000e+00    0,000000000e+00    0,000000000e+00    0,000000000e+00
     1360000000   -5,628507137e-01   -2,440711409e-01    1,116456985e-01   -7,949643582e-02    0,000000000e+00    0,000000000e+00    0,000000000e+00    0,000000000e+00
     1374000000   -6,346933246e-01    3,379798308e-02    8,607071638e-02    5,379551277e-02    0,000000000e+00    0,000000000e+00    0,000000000e+00    0,000000000e+00
     1388000000   -5,101727247e-01    2,942292690e-01    2,199180722e-01    1,087303180e-02    0,000000000e+00    0,000000000e+00    0,000000000e+00    0,000000000e+00
     1402000000   -3,066861331e-01    4,220038056e-01    2,136972249e-01   -8,408840001e-02    0,000000000e+00    0,000000000e+00    0,000000000e+00    0,000000000e+00
     1416000000   -8,824609965e-02    4,257516861e-01    1,832887828e-01   -1,103391349e-01    0,000000000e+00    0,000000000e+00    0,000000000e+00    0,000000000e+00
     1430000000    7,813189179e-02    3,377081454e-01    1,751933396e-01   -9,871173650e-02    0,000000000e+00    0,000000000e+00    0,000000000e+00    0,000000000e+00
     1444000000    1,796829104e-01    1,967220902e-01    1,328101158e-01   -1,069038138e-01    0,000000000e+00    0,000000000e+00    0,000000000e+00    0,000000000e+00
     1458000000    2,297986001e-01    2,764716558e-02    1,551806182e-01   -8,062804490e-02    0,000000000e+00    0,000000000e+00    0,000000000e+00    0,000000000e+00
     1472000000    2,084447742e-01   -1,540887356e-01    1,384808719e-01   -5,048088357e-02    0,000000000e+00    0,000000000e+00    0,000000000e+00    0,000000000e+00
     1486000000    1,046779156e-01   -3,306836486e-01    1,478606015e-01   -1,000362728e-02    0,000000000e+00    0,000000000e+00    0,000000000e+00    0,000000000e+00
     1500000000   -9,146877378e-02   -4,572627246e-01    2,141166180e-01    5,989445001e-02    0,000000000e+00    0,000000000e+00    0,000000000e+00    0,000000000e+00
