! NanoVNA-App
! Date: 2025-09-25 17:39:09
! Start: 100MHz Stop: 1,5GHz Points: 101
! S-Parameter data: F S11 S21 S12 S22
# Hz S RI R 50
!     Frequency           S11_Real           S11_Imag           S21_Real           S21_Imag           S12_Real           S12_Imag           S22_Real           S22_Imag
      100000000   -2,888554148e-02   -4,272330552e-03    3,741208315e-01   -7,218436003e-01    0,000000000e+00    0,000000000e+00    0,000000000e+00    0,000000000e+00
      114000000   -1,666126773e-02    1,136200689e-02   -8,919326216e-02   -8,055549860e-01    0,000000000e+00    0,000000000e+00    0,000000000e+00    0,000000000e+00
      128000000    3,167263232e-03    1,042200159e-02   -5,147894621e-01   -6,206424832e-01    0,000000000e+00    0,000000000e+00    0,000000000e+00    0,000000000e+00
      142000000    1,422199514e-02   -2,766035497e-03   -7,674704790e-01   -2,365324795e-01    0,000000000e+00    0,000000000e+00    0,000000000e+00    0,000000000e+00
      156000000    1,575518399e-02   -1,397754624e-02   -7,723874450e-01    2,245512158e-01    0,000000000e+00    0,000000000e+00    0,000000000e+00    0,000000000e+00
      170000000    1,685696840e-02   -2,224688046e-02   -5,182312727e-01    6,050209999e-01    0,000000000e+00    0,000000000e+00    0,000000000e+00    0,000000000e+00
      184000000    2,125149220e-02   -3,703930601e-02   -1,015008613e-01    7,863416672e-01    0,000000000e+00    0,000000000e+00    0,000000000e+00    0,000000000e+00
      198000000    1,309121400e-02   -6,254933774e-02    3,432502449e-01    7,127342224e-01    0,000000000e+00    0,000000000e+00    0,000000000e+00    0,000000000e+00
      212000000   -1,874569245e-02   -8,125968277e-02    6,783225536e-01    4,097832739e-01    0,000000000e+00    0,000000000e+00    0,000000000e+00    0,000000000e+00
      226000000   -6,163148955e-02   -6,903357804e-02    7,957004309e-01   -3,039831854e-02    0,000000000e+00    0,000000000e+00    0,000000000e+00    0,000000000e+00
      240000000   -8,212357014e-02   -2,569852211e-02    6,463114619e-01   -4,667279720e-01    0,000000000e+00    0,000000000e+00    0,000000000e+00    0,000000000e+00
      254000000   -6,320394576e-02    1,683350466e-02    2,768619955e-01   -7,434874177e-01    0,000000000e+00    0,000000000e+00    0,000000000e+00    0,000000000e+00
      268000000   -2,381552383e-02    2,842430957e-02   -1,772188842e-01   -7,649272084e-01    0,000000000e+00    0,000000000e+00    0,000000000e+00    0,000000000e+00
      282000000    3,756358288e-03    1,147962082e-02   -5,625854135e-01   -5,367367268e-01    0,000000000e+00    0,000000000e+00    0,000000000e+00    0,000000000e+00
      296000000    9,222231805e-03   -7,565211505e-03   -7,606842518e-01   -1,389203668e-01    0,000000000e+00    0,000000000e+00    0,000000000e+00    0,000000000e+00
      310000000    1,081771962e-02   -1,587616839e-02   -7,135556340e-01    2,976423204e-01    0,000000000e+00    0,000000000e+00    0,000000000e+00    0,000000000e+00
      324000000    1,985848881e-02   -2,649946697e-02   -4,284296930e-01    6,371734738e-01    0,000000000e+00    0,000000000e+00    0,000000000e+00    0,000000000e+00
      338000000    2,541676909e-02   -5,230160803e-02   -8,122448809e-03    7,647930980e-01    0,000000000e+00    0,000000000e+00    0,000000000e+00    0,000000000e+00
      352000000    7,167995907e-03   -8,490654826e-02    4,066481590e-01    6,404547095e-01    0,000000000e+00    0,000000000e+00    0,000000000e+00    0,000000000e+00
      366000000   -3,494564816e-02   -9,518200159e-02    6,910933852e-01    3,115545511e-01    0,000000000e+00    0,000000000e+00    0,000000000e+00    0,000000000e+00
      380000000   -7,113030553e-02   -7,009436935e-02    7,478501797e-01   -1,247437596e-01    0,000000000e+00    0,000000000e+00    0,000000000e+00    0,000000000e+00
      394000000   -7,212395966e-02   -3,238642961e-02    5,468457937e-01   -5,209465027e-01    0,000000000e+00    0,000000000e+00    0,000000000e+00    0,000000000e+00
      408000000   -4,622672871e-02   -1,620183513e-02    1,612670124e-01   -7,324659228e-01    0,000000000e+00    0,000000000e+00    0,000000000e+00    0,000000000e+00
      422000000   -2,814128809e-02   -3,241343796e-02   -2,672344744e-01   -6,959083676e-01    0,000000000e+00    0,000000000e+00    0,000000000e+00    0,000000000e+00
      436000000   -4,041456059e-02   -5,174787715e-02   -6,032256484e-01   -4,332630634e-01    0,000000000e+00    0,000000000e+00    0,000000000e+00    0,000000000e+00
      450000000   -6,715869159e-02   -4,444361478e-02   -7,403392196e-01   -2,472081594e-02    0,000000000e+00    0,000000000e+00    0,000000000e+00    0,000000000e+00
      464000000   -7,289415598e-02   -1,187540404e-02   -6,205835342e-01    3,955226243e-01    0,000000000e+00    0,000000000e+00    0,000000000e+00    0,000000000e+00
      478000000   -4,772746935e-02    1,103383861e-02   -2,855645120e-01    6,672464013e-01    0,000000000e+00    0,000000000e+00    0,000000000e+00    0,000000000e+00
      492000000   -1,660780422e-02    5,214253440e-03    1,348752081e-01    7,033538818e-01    0,000000000e+00    0,000000000e+00    0,000000000e+00    0,000000000e+00
      506000000   -4,504672252e-03   -1,575773954e-02    4,976555109e-01    5,053523779e-01    0,000000000e+00    0,000000000e+00    0,000000000e+00    0,000000000e+00
      520000000   -6,307826843e-03   -2,982463688e-02    6,907791495e-01    1,441640258e-01    0,000000000e+00    0,000000000e+00    0,000000000e+00    0,000000000e+00
      534000000   -3,518379293e-03   -3,546216711e-02    6,445638537e-01   -2,598621249e-01    0,000000000e+00    0,000000000e+00    0,000000000e+00    0,000000000e+00
      548000000    8,189531974e-03   -5,259940773e-02    3,840393126e-01   -5,641015172e-01    0,000000000e+00    0,000000000e+00    0,000000000e+00    0,000000000e+00
      562000000    6,185614038e-03   -8,930005133e-02    7,267179433e-03   -6,712257266e-01    0,000000000e+00    0,000000000e+00    0,000000000e+00    0,000000000e+00
      576000000   -3,157508001e-02   -1,257974952e-01   -3,621720374e-01   -5,597130656e-01    0,000000000e+00    0,000000000e+00    0,000000000e+00    0,000000000e+00
      590000000   -9,538985044e-02   -1,270835847e-01   -6,181721687e-01   -2,706384957e-01    0,000000000e+00    0,000000000e+00    0,000000000e+00    0,000000000e+00
      604000000   -1,425424963e-01   -7,661792636e-02   -6,669365764e-01    1,272952110e-01    0,000000000e+00    0,000000000e+00    0,000000000e+00    0,000000000e+00
      618000000   -1,368141174e-01   -1,071900595e-02   -4,752732515e-01    4,860514998e-01    0,000000000e+00    0,000000000e+00    0,000000000e+00    0,000000000e+00
      632000000   -9,149304032e-02    2,087607980e-02   -1,129429340e-01    6,627340913e-01    0,000000000e+00    0,000000000e+00    0,000000000e+00    0,000000000e+00
      646000000   -5,548170209e-02    1,046799682e-02    2,738710046e-01    6,032418013e-01    0,000000000e+00    0,000000000e+00    0,000000000e+00    0,000000000e+00
      660000000   -4,853053018e-02   -8,439263329e-03    5,576120615e-01    3,401179910e-01    0,000000000e+00    0,000000000e+00    0,000000000e+00    0,000000000e+00
      674000000   -5,584747717e-02   -9,767170064e-03    6,439651251e-01   -4,005172104e-02    0,000000000e+00    0,000000000e+00    0,000000000e+00    0,000000000e+00
      688000000   -4,934256524e-02    2,946988447e-03    4,922149777e-01   -4,021243453e-01    0,000000000e+00    0,000000000e+00    0,000000000e+00    0,000000000e+00
      702000000   -2,467416227e-02    7,279743440e-03    1,595460773e-01   -6,084375381e-01    0,000000000e+00    0,000000000e+00    0,000000000e+00    0,000000000e+00
      716000000   -1,806259970e-03   -9,567997418e-03   -2,197885513e-01   -5,747698545e-01    0,000000000e+00    0,000000000e+00    0,000000000e+00    0,000000000e+00
      730000000    9,593149647e-03   -3,532578796e-02   -5,094769001e-01   -3,328965604e-01    0,000000000e+00    0,000000000e+00    0,000000000e+00    0,000000000e+00
      744000000    1,613906585e-02   -6,139791757e-02   -6,006307006e-01    3,417334333e-02    0,000000000e+00    0,000000000e+00    0,000000000e+00    0,000000000e+00
      758000000    2,214661799e-02   -1,040563434e-01   -4,531705976e-01    3,781371713e-01    0,000000000e+00    0,000000000e+00    0,000000000e+00    0,000000000e+00
      772000000   -4,042973742e-03   -1,746076494e-01   -1,385886818e-01    5,582965612e-01    0,000000000e+00    0,000000000e+00    0,000000000e+00    0,000000000e+00
      786000000   -1,062523350e-01   -2,335021943e-01    2,120880038e-01    5,195981860e-01    0,000000000e+00    0,000000000e+00    0,000000000e+00    0,000000000e+00
      800000000   -2,669325471e-01   -1,936654747e-01    4,710488319e-01    2,750378251e-01    0,000000000e+00    0,000000000e+00    0,000000000e+00    0,000000000e+00
      814000000   -3,643498123e-01    3,851097776e-03    5,078201890e-01   -8,915574849e-02    0,000000000e+00    0,000000000e+00    0,000000000e+00    0,000000000e+00
      828000000   -2,469724417e-01    2,350260764e-01    2,800470889e-01   -3,532604873e-01    0,000000000e+00    0,000000000e+00    0,000000000e+00    0,000000000e+00
      842000000    1,498307567e-02    2,784926593e-01   -1,633671485e-02   -3,622874320e-01    0,000000000e+00    0,000000000e+00    0,000000000e+00    0,000000000e+00
      856000000    2,136409134e-01    1,149109155e-01   -1,883118600e-01   -2,034486234e-01    0,000000000e+00    0,000000000e+00    0,000000000e+00    0,000000000e+00
      870000000    2,389283329e-01   -1,502939314e-01   -2,001563907e-01   -2,471549995e-02    0,000000000e+00    0,000000000e+00    0,000000000e+00    0,000000000e+00
      884000000    3,827853128e-02   -3,881529570e-01   -1,027901322e-01    7,056105882e-02    0,000000000e+00    0,000000000e+00    0,000000000e+00    0,000000000e+00
      898000000   -3,695878983e-01   -3,432746530e-01   -1,605837420e-02    2,671610750e-02    0,000000000e+00    0,000000000e+00    0,000000000e+00    0,000000000e+00
      912000000   -4,668361843e-01    1,366842538e-01   -1,062537432e-01    3,604532778e-02    0,000000000e+00    0,000000000e+00    0,000000000e+00    0,000000000e+00
      926000000   -9,610272199e-02    3,500694335e-01   -1,274471134e-01    1,319485307e-01    0,000000000e+00    0,000000000e+00    0,000000000e+00    0,000000000e+00
      940000000    1,845920086e-01    1,930411160e-01   -3,819513321e-02    2,145613134e-01    0,000000000e+00    0,000000000e+00    0,000000000e+00    0,000000000e+00
      954000000    2,578016520e-01   -4,812380299e-02    8,163400739e-02    2,281348705e-01    0,000000000e+00    0,000000000e+00    0,000000000e+00    0,000000000e+00
      968000000    1,785805523e-01   -2,603090703e-01    1,932615787e-01    1,807112545e-01    0,000000000e+00    0,000000000e+00    0,000000000e+00    0,000000000e+00
      982000000   -1,548639033e-02   -3,907945454e-01    2,797836661e-01    8,107449114e-02    0,000000000e+00    0,000000000e+00    0,000000000e+00    0,000000000e+00
      996000000   -2,759242952e-01   -3,771714866e-01    3,114573658e-01   -8,177249879e-02    0,000000000e+00    0,000000000e+00    0,000000000e+00    0,000000000e+00
     1010000000   -4,680286050e-01   -1,737728864e-01    2,223639190e-01   -2,547840178e-01    0,000000000e+00    0,000000000e+00    0,000000000e+00    0,000000000e+00
     1024000000   -4,628467858e-01    1,154656336e-01    2,094071545e-02   -3,316917717e-01    0,000000000e+00    0,000000000e+00    0,000000000e+00    0,000000000e+00
     1038000000   -2,658484280e-01    2,966358364e-01   -1,760094762e-01   -2,459775060e-01    0,000000000e+00    0,000000000e+00    0,000000000e+00    0,000000000e+00
     1052000000   -3,778070211e-02    3,119296134e-01   -2,584227622e-01   -7,791616023e-02    0,000000000e+00    0,000000000e+00    0,000000000e+00    0,000000000e+00
     1066000000    1,260996014e-01    2,066023052e-01   -2,205956578e-01    8,521425724e-02    0,000000000e+00    0,000000000e+00    0,000000000e+00    0,000000000e+00
     1080000000    2,119102925e-01    4,908110946e-02   -1,212797761e-01    1,913104802e-01    0,000000000e+00    0,000000000e+00    0,000000000e+00    0,000000000e+00
     1094000000    2,038206309e-01   -1,310006231e-01    1,650372148e-02    2,348801047e-01    0,000000000e+00    0,000000000e+00    0,000000000e+00    0,000000000e+00
     1108000000    1,012458950e-01   -2,870889604e-01    1,687531918e-01    2,064703852e-01    0,000000000e+00    0,000000000e+00    0,000000000e+00    0,000000000e+00
     1122000000   -9,829800576e-02   -3,697264791e-01    3,175292611e-01    9,276783466e-02    0,000000000e+00    0,000000000e+00    0,000000000e+00    0,000000000e+00
     1136000000   -3,460888863e-01   -2,668106556e-01    3,898027539e-01   -1,479666084e-01    0,000000000e+00    0,000000000e+00    0,000000000e+00    0,000000000e+00
     1150000000   -4,071187973e-01    3,457755968e-02    2,463707179e-01   -4,356912374e-01    0,000000000e+00    0,000000000e+00    0,000000000e+00    0,000000000e+00
     1164000000   -1,653880030e-01    2,152378708e-01   -9,499579668e-02   -5,125793815e-01    0,000000000e+00    0,000000000e+00    0,000000000e+00    0,000000000e+00
     1178000000    7,744897157e-02    8,312200755e-02   -3,544515371e-01   -3,488642871e-01    0,000000000e+00    0,000000000e+00    0,000000000e+00    0,000000000e+00
     1192000000    7,837533206e-02   -1,750922501e-01   -4,488575757e-01   -8,428724855e-02    0,000000000e+00    0,000000000e+00    0,000000000e+00    0,000000000e+00
     1206000000   -1,646917760e-01   -3,265963197e-01   -3,698642552e-01    1,885049343e-01    0,000000000e+00    0,000000000e+00    0,000000000e+00    0,000000000e+00
     1220000000   -4,581525326e-01   -1,754187793e-01   -1,029137224e-01    3,309426308e-01    0,000000000e+00    0,000000000e+00    0,000000000e+00    0,000000000e+00
     1234000000   -4,764695764e-01    1,704467386e-01    1,401569545e-01    2,250684351e-01    0,000000000e+00    0,000000000e+00    0,000000000e+00    0,000000000e+00
     1248000000   -2,424600422e-01    3,577416241e-01    1,953880042e-01    3,753807768e-02    0,000000000e+00    0,000000000e+00    0,000000000e+00    0,000000000e+00
     1262000000    2,209505299e-03    3,292747140e-01    1,218761280e-01   -7,517775148e-02    0,000000000e+00    0,000000000e+00    0,000000000e+00    0,000000000e+00
     1276000000    1,570443660e-01    1,974027753e-01    5,558100715e-02   -9,767964482e-02    0,000000000e+00    0,000000000e+00    0,000000000e+00    0,000000000e+00
     1290000000    2,230016142e-01    3,218388930e-02    3,984551877e-03   -7,907595485e-02    0,000000000e+00    0,000000000e+00    0,000000000e+00    0,000000000e+00
     1304000000    2,104710937e-01   -1,454236805e-01   -1,400531270e-02   -3,201742843e-02    0,000000000e+00    0,000000000e+00    0,000000000e+00    0,000000000e+00
     1318000000    1,145840660e-01   -3,147872090e-01   -6,226070691e-03    2,095943876e-02    0,000000000e+00    0,000000000e+00    0,000000000e+00    0,000000000e+00
     1332000000   -6,381293386e-02   -4,333644509e-01    5,171573535e-02    6,409998238e-02    0,000000000e+00    0,000000000e+00    0,000000000e+00    0,000000000e+00
     1346000000   -3,306870759e-01   -4,410546720e-01    1,448633224e-01    4,863534123e-02    0,000000000e+00    0,000000000e+00    0,000000000e+00    0,000000000e+00
     1360000000   -5,563524365e-01   -2,522315383e-01    1,221620217e-01   -7,581786066e-02    0,000000000e+00    0,000000000e+00    0,000000000e+00    0,000000000e+00
     1374000000   -6,210075617e-01    3,356263041e-02    1,100050360e-01    6,608977169e-02    0,000000000e+00    0,000000000e+00    0,000000000e+00    0,000000000e+00
     1388000000   -5,175963044e-01    2,861601114e-01    2,250392586e-01   -5,344565026e-03    0,000000000e+00    0,000000000e+00    0,000000000e+00    0,000000000e+00
     1402000000   -2,970741987e-01    4,197787046e-01    2,267671973e-01   -8,760052174e-02    0,000000000e+00    0,000000000e+00    0,000000000e+00    0,000000000e+00
     1416000000   -9,286151081e-02    4,249388576e-01    1,940617859e-01   -1,062610522e-01    0,000000000e+00    0,000000000e+00    0,000000000e+00    0,000000000e+00
     1430000000    7,055779546e-02    3,431636095e-01    1,750611663e-01   -9,517871588e-02    0,000000000e+00    0,000000000e+00    0,000000000e+00    0,000000000e+00
     1444000000    1,800679862e-01    2,005732059e-01    1,590627730e-01   -9,561339766e-02    0,000000000e+00    0,000000000e+00    0,000000000e+00    0,000000000e+00
     1458000000    2,297458798e-01    3,645550460e-02    1,601098925e-01   -8,585315198e-02    0,000000000e+00    0,000000000e+00    0,000000000e+00    0,000000000e+00
     1472000000    2,088741064e-01   -1,507587284e-01    1,411935687e-01   -5,070943758e-02    0,000000000e+00    0,000000000e+00    0,000000000e+00    0,000000000e+00
     1486000000    1,092885286e-01   -3,239071071e-01    1,725016385e-01    5,907065235e-03    0,000000000e+00    0,000000000e+00    0,000000000e+00    0,000000000e+00
     1500000000   -9,150955826e-02   -4,552524090e-01    2,071236968e-01    6,810085475e-02    0,000000000e+00    0,000000000e+00    0,000000000e+00    0,000000000e+00
