! NanoVNA-App
! Date: 2025-09-26 09:56:08
! Start: 100MHz Stop: 1,5GHz Points: 101
! S-Parameter data: F S11 S21 S12 S22
# Hz S RI R 50
!     Frequency           S11_Real           S11_Imag           S21_Real           S21_Imag           S12_Real           S12_Imag           S22_Real           S22_Imag
      100000000   -2,905952185e-02   -4,462704994e-03    3,741582632e-01   -7,226949930e-01    0,000000000e+00    0,000000000e+00    0,000000000e+00    0,000000000e+00
      114000000   -1,692585833e-02    1,125923824e-02   -8,963508904e-02   -8,061316609e-01    0,000000000e+00    0,000000000e+00    0,000000000e+00    0,000000000e+00
      128000000    2,815283369e-03    1,052876003e-02   -5,155215859e-01   -6,213079095e-01    0,000000000e+00    0,000000000e+00    0,000000000e+00    0,000000000e+00
      142000000    1,392842643e-02   -2,587012947e-03   -7,682918310e-01   -2,362624407e-01    0,000000000e+00    0,000000000e+00    0,000000000e+00    0,000000000e+00
      156000000    1,563497260e-02   -1,362203993e-02   -7,730345726e-01    2,251610011e-01    0,000000000e+00    0,000000000e+00    0,000000000e+00    0,000000000e+00
      170000000    1,689233445e-02   -2,204566449e-02   -5,180404782e-01    6,058174968e-01    0,000000000e+00    0,000000000e+00    0,000000000e+00    0,000000000e+00
      184000000    2,128461376e-02   -3,686380014e-02   -1,009841338e-01    7,870233655e-01    0,000000000e+00    0,000000000e+00    0,000000000e+00    0,000000000e+00
      198000000    1,311996114e-02   -6,246243045e-02    3,441647589e-01    7,131687999e-01    0,000000000e+00    0,000000000e+00    0,000000000e+00    0,000000000e+00
      212000000   -1,876952872e-02   -8,122596890e-02    6,792464256e-01    4,098586142e-01    0,000000000e+00    0,000000000e+00    0,000000000e+00    0,000000000e+00
      226000000   -6,154876575e-02   -6,898322701e-02    7,967287302e-01   -3,064011037e-02    0,000000000e+00    0,000000000e+00    0,000000000e+00    0,000000000e+00
      240000000   -8,228369057e-02   -2,575094998e-02    6,472563148e-01   -4,678815305e-01    0,000000000e+00    0,000000000e+00    0,000000000e+00    0,000000000e+00
      254000000   -6,339954585e-02    1,703127846e-02    2,768379748e-01   -7,444486022e-01    0,000000000e+00    0,000000000e+00    0,000000000e+00    0,000000000e+00
      268000000   -2,358463965e-02    2,861600742e-02   -1,770621836e-01   -7,657735944e-01    0,000000000e+00    0,000000000e+00    0,000000000e+00    0,000000000e+00
      282000000    3,899815492e-03    1,130383648e-02   -5,631529689e-01   -5,379971862e-01    0,000000000e+00    0,000000000e+00    0,000000000e+00    0,000000000e+00
      296000000    8,925251663e-03   -7,691511419e-03   -7,619625926e-01   -1,399747729e-01    0,000000000e+00    0,000000000e+00    0,000000000e+00    0,000000000e+00
      310000000    1,125662681e-02   -1,577276736e-02   -7,146026492e-01    2,987350821e-01    0,000000000e+00    0,000000000e+00    0,000000000e+00    0,000000000e+00
      324000000    1,991681568e-02   -2,683145367e-02   -4,288788438e-01    6,385779381e-01    0,000000000e+00    0,000000000e+00    0,000000000e+00    0,000000000e+00
      338000000    2,559288405e-02   -5,279225484e-02   -1,139102504e-02    7,610122561e-01    0,000000000e+00    0,000000000e+00    0,000000000e+00    0,000000000e+00
      352000000    6,876395550e-03   -8,504118025e-02    4,073355496e-01    6,415731907e-01    0,000000000e+00    0,000000000e+00    0,000000000e+00    0,000000000e+00
      366000000   -3,589649498e-02   -9,568471462e-02    6,916586161e-01    3,120555878e-01    0,000000000e+00    0,000000000e+00    0,000000000e+00    0,000000000e+00
      380000000   -7,161094248e-02   -7,014521956e-02    7,491284609e-01   -1,258816421e-01    0,000000000e+00    0,000000000e+00    0,000000000e+00    0,000000000e+00
      394000000   -7,220850885e-02   -3,152230009e-02    5,487807393e-01   -5,222539902e-01    0,000000000e+00    0,000000000e+00    0,000000000e+00    0,000000000e+00
      408000000   -4,589253664e-02   -1,569753885e-02    1,629370302e-01   -7,340509295e-01    0,000000000e+00    0,000000000e+00    0,000000000e+00    0,000000000e+00
      422000000   -2,765305154e-02   -3,209769726e-02   -2,665131390e-01   -6,970614791e-01    0,000000000e+00    0,000000000e+00    0,000000000e+00    0,000000000e+00
      436000000   -4,015271738e-02   -5,223260075e-02   -6,039410233e-01   -4,342491925e-01    0,000000000e+00    0,000000000e+00    0,000000000e+00    0,000000000e+00
      450000000   -6,701264530e-02   -4,445512593e-02   -7,412852645e-01   -2,485273592e-02    0,000000000e+00    0,000000000e+00    0,000000000e+00    0,000000000e+00
      464000000   -7,308749110e-02   -1,228658296e-02   -6,214261651e-01    3,955513537e-01    0,000000000e+00    0,000000000e+00    0,000000000e+00    0,000000000e+00
      478000000   -4,820163921e-02    1,057530940e-02   -2,866790593e-01    6,678233147e-01    0,000000000e+00    0,000000000e+00    0,000000000e+00    0,000000000e+00
      492000000   -1,667505875e-02    5,082643125e-03    1,340916902e-01    7,045584321e-01    0,000000000e+00    0,000000000e+00    0,000000000e+00    0,000000000e+00
      506000000   -4,432157148e-03   -1,626828685e-02    4,983142316e-01    5,065847039e-01    0,000000000e+00    0,000000000e+00    0,000000000e+00    0,000000000e+00
      520000000   -6,891591474e-03   -3,026202321e-02    6,916055679e-01    1,434531510e-01    0,000000000e+00    0,000000000e+00    0,000000000e+00    0,000000000e+00
      534000000   -3,743290668e-03   -3,511920944e-02    6,451659203e-01   -2,599121034e-01    0,000000000e+00    0,000000000e+00    0,000000000e+00    0,000000000e+00
      548000000    8,379178122e-03   -5,228490755e-02    3,847886026e-01   -5,652148128e-01    0,000000000e+00    0,000000000e+00    0,000000000e+00    0,000000000e+00
      562000000    6,109097507e-03   -8,976946026e-02    8,504630998e-03   -6,727042198e-01    0,000000000e+00    0,000000000e+00    0,000000000e+00    0,000000000e+00
      576000000   -3,201422095e-02   -1,265506595e-01   -3,634031117e-01   -5,617803335e-01    0,000000000e+00    0,000000000e+00    0,000000000e+00    0,000000000e+00
      590000000   -9,522941709e-02   -1,272682995e-01   -6,178786159e-01   -2,713941634e-01    0,000000000e+00    0,000000000e+00    0,000000000e+00    0,000000000e+00
      604000000   -1,430004239e-01   -7,688810676e-02   -6,687099934e-01    1,270418018e-01    0,000000000e+00    0,000000000e+00    0,000000000e+00    0,000000000e+00
      618000000   -1,371216923e-01   -1,107209176e-02   -4,757687449e-01    4,868743718e-01    0,000000000e+00    0,000000000e+00    0,000000000e+00    0,000000000e+00
      632000000   -9,154137969e-02    2,092140168e-02   -1,131294444e-01    6,651998162e-01    0,000000000e+00    0,000000000e+00    0,000000000e+00    0,000000000e+00
      646000000   -5,514333025e-02    1,108299010e-02    2,738080621e-01    6,047189236e-01    0,000000000e+00    0,000000000e+00    0,000000000e+00    0,000000000e+00
      660000000   -4,922020808e-02   -9,220748208e-03    5,584618449e-01    3,390144408e-01    0,000000000e+00    0,000000000e+00    0,000000000e+00    0,000000000e+00
      674000000   -5,668447539e-02   -1,000133716e-02    6,442264915e-01   -4,070191830e-02    0,000000000e+00    0,000000000e+00    0,000000000e+00    0,000000000e+00
      688000000   -4,890650138e-02    3,621197073e-03    4,932914078e-01   -4,015553594e-01    0,000000000e+00    0,000000000e+00    0,000000000e+00    0,000000000e+00
      702000000   -2,495199069e-02    6,266454235e-03    1,623680294e-01   -6,058259010e-01    0,000000000e+00    0,000000000e+00    0,000000000e+00    0,000000000e+00
      716000000   -2,446631435e-03   -1,105526555e-02   -2,194988579e-01   -5,757048130e-01    0,000000000e+00    0,000000000e+00    0,000000000e+00    0,000000000e+00
      730000000    8,951568976e-03   -3,639627993e-02   -5,103839040e-01   -3,330549598e-01    0,000000000e+00    0,000000000e+00    0,000000000e+00    0,000000000e+00
      744000000    1,629870012e-02   -6,173887104e-02   -6,015369296e-01    3,369510919e-02    0,000000000e+00    0,000000000e+00    0,000000000e+00    0,000000000e+00
      758000000    2,207056619e-02   -1,040230766e-01   -4,537237883e-01    3,782264590e-01    0,000000000e+00    0,000000000e+00    0,000000000e+00    0,000000000e+00
      772000000   -4,374447279e-03   -1,751096249e-01   -1,380955577e-01    5,583449006e-01    0,000000000e+00    0,000000000e+00    0,000000000e+00    0,000000000e+00
      786000000   -1,065363213e-01   -2,337931395e-01    2,121885270e-01    5,190197229e-01    0,000000000e+00    0,000000000e+00    0,000000000e+00    0,000000000e+00
      800000000   -2,675245702e-01   -1,926103383e-01    4,723944366e-01    2,739363015e-01    0,000000000e+00    0,000000000e+00    0,000000000e+00    0,000000000e+00
      814000000   -3,655136824e-01    5,758393556e-03    5,071238875e-01   -9,125004709e-02    0,000000000e+00    0,000000000e+00    0,000000000e+00    0,000000000e+00
      828000000   -2,474073321e-01    2,358830720e-01    2,783673406e-01   -3,537354171e-01    0,000000000e+00    0,000000000e+00    0,000000000e+00    0,000000000e+00
      842000000    1,602317952e-02    2,796550989e-01   -1,812854782e-02   -3,621961772e-01    0,000000000e+00    0,000000000e+00    0,000000000e+00    0,000000000e+00
      856000000    2,155337036e-01    1,142334938e-01   -1,893824786e-01   -2,027665824e-01    0,000000000e+00    0,000000000e+00    0,000000000e+00    0,000000000e+00
      870000000    2,402927876e-01   -1,511735022e-01   -2,009920329e-01   -2,341053635e-02    0,000000000e+00    0,000000000e+00    0,000000000e+00    0,000000000e+00
      884000000    3,783807158e-02   -3,900591433e-01   -1,032606587e-01    7,235664874e-02    0,000000000e+00    0,000000000e+00    0,000000000e+00    0,000000000e+00
      898000000   -3,717309535e-01   -3,444198668e-01   -1,597936824e-02    2,688025869e-02    0,000000000e+00    0,000000000e+00    0,000000000e+00    0,000000000e+00
      912000000   -4,694485366e-01    1,388053745e-01   -1,194457710e-01    2,105674148e-02    0,000000000e+00    0,000000000e+00    0,000000000e+00    0,000000000e+00
      926000000   -9,341807663e-02    3,552214503e-01   -1,290091574e-01    1,316963881e-01    0,000000000e+00    0,000000000e+00    0,000000000e+00    0,000000000e+00
      940000000    1,853519380e-01    1,930661201e-01   -4,259972274e-02    2,142351568e-01    0,000000000e+00    0,000000000e+00    0,000000000e+00    0,000000000e+00
      954000000    2,570048571e-01   -4,740808159e-02    7,627569884e-02    2,281057984e-01    0,000000000e+00    0,000000000e+00    0,000000000e+00    0,000000000e+00
      968000000    1,752905250e-01   -2,631112039e-01    1,876538545e-01    1,830408126e-01    0,000000000e+00    0,000000000e+00    0,000000000e+00    0,000000000e+00
      982000000   -1,881476119e-02   -3,985525966e-01    2,782458961e-01    8,248136938e-02    0,000000000e+00    0,000000000e+00    0,000000000e+00    0,000000000e+00
      996000000   -2,747666240e-01   -3,784315288e-01    3,090928495e-01   -7,783640176e-02    0,000000000e+00    0,000000000e+00    0,000000000e+00    0,000000000e+00
     1010000000   -4,733732343e-01   -1,694566011e-01    2,220951170e-01   -2,509338558e-01    0,000000000e+00    0,000000000e+00    0,000000000e+00    0,000000000e+00
     1024000000   -4,612645805e-01    1,248927265e-01    2,338088118e-02   -3,293169439e-01    0,000000000e+00    0,000000000e+00    0,000000000e+00    0,000000000e+00
     1038000000   -2,618291974e-01    3,059508204e-01   -1,732179672e-01   -2,482231110e-01    0,000000000e+00    0,000000000e+00    0,000000000e+00    0,000000000e+00
     1052000000   -3,606278077e-02    3,093750477e-01   -2,575635910e-01   -7,604663819e-02    0,000000000e+00    0,000000000e+00    0,000000000e+00    0,000000000e+00
     1066000000    1,286646277e-01    2,086402774e-01   -2,267168462e-01    8,444255590e-02    0,000000000e+00    0,000000000e+00    0,000000000e+00    0,000000000e+00
     1080000000    2,090166956e-01    4,690746218e-02   -1,223813146e-01    1,944527179e-01    0,000000000e+00    0,000000000e+00    0,000000000e+00    0,000000000e+00
     1094000000    2,025773525e-01   -1,321758032e-01    1,400022209e-02    2,350443006e-01    0,000000000e+00    0,000000000e+00    0,000000000e+00    0,000000000e+00
     1108000000    1,022479162e-01   -2,936856151e-01    1,638306826e-01    2,103920132e-01    0,000000000e+00    0,000000000e+00    0,000000000e+00    0,000000000e+00
     1122000000   -1,034928113e-01   -3,792802691e-01    3,150699735e-01    9,286689758e-02    0,000000000e+00    0,000000000e+00    0,000000000e+00    0,000000000e+00
     1136000000   -3,527854383e-01   -2,744734585e-01    3,913773298e-01   -1,409984976e-01    0,000000000e+00    0,000000000e+00    0,000000000e+00    0,000000000e+00
     1150000000   -4,098936915e-01    4,124245048e-02    2,453711480e-01   -4,259110689e-01    0,000000000e+00    0,000000000e+00    0,000000000e+00    0,000000000e+00
     1164000000   -1,640833765e-01    2,218906283e-01   -8,624666184e-02   -5,095583200e-01    0,000000000e+00    0,000000000e+00    0,000000000e+00    0,000000000e+00
     1178000000    7,875632495e-02    8,419410884e-02   -3,472541273e-01   -3,472417593e-01    0,000000000e+00    0,000000000e+00    0,000000000e+00    0,000000000e+00
     1192000000    7,426303625e-02   -1,742834896e-01   -4,485213459e-01   -8,330812305e-02    0,000000000e+00    0,000000000e+00    0,000000000e+00    0,000000000e+00
     1206000000   -1,599211842e-01   -3,263025880e-01   -3,616354465e-01    1,877218932e-01    0,000000000e+00    0,000000000e+00    0,000000000e+00    0,000000000e+00
     1220000000   -4,579696059e-01   -1,833216995e-01   -1,052120104e-01    3,211999536e-01    0,000000000e+00    0,000000000e+00    0,000000000e+00    0,000000000e+00
     1234000000   -4,767180383e-01    1,689835191e-01    1,368495524e-01    2,204974890e-01    0,000000000e+00    0,000000000e+00    0,000000000e+00    0,000000000e+00
     1248000000   -2,327359915e-01    3,517020047e-01    1,919090599e-01    3,268056363e-02    0,000000000e+00    0,000000000e+00    0,000000000e+00    0,000000000e+00
     1262000000    3,072712105e-03    3,310326934e-01    1,277844012e-01   -6,778913736e-02    0,000000000e+00    0,000000000e+00    0,000000000e+00    0,000000000e+00
     1276000000    1,614282131e-01    2,001535743e-01    5,507672951e-02   -9,225222468e-02    0,000000000e+00    0,000000000e+00    0,000000000e+00    0,000000000e+00
     1290000000    2,171701193e-01    2,773369476e-02    3,515226417e-04   -7,168575376e-02    0,000000000e+00    0,000000000e+00    0,000000000e+00    0,000000000e+00
     1304000000    2,099581063e-01   -1,479903758e-01   -1,757114381e-02   -2,470527776e-02    0,000000000e+00    0,000000000e+00    0,000000000e+00    0,000000000e+00
     1318000000    1,184711382e-01   -3,165892959e-01   -4,996588919e-03    2,103133127e-02    0,000000000e+00    0,000000000e+00    0,000000000e+00    0,000000000e+00
     1332000000   -6,410979480e-02   -4,442241788e-01    5,385253206e-02    5,812561139e-02    0,000000000e+00    0,000000000e+00    0,000000000e+00    0,000000000e+00
     1346000000   -3,319176733e-01   -4,437521398e-01    1,391466856e-01    3,364723176e-02    0,000000000e+00    0,000000000e+00    0,000000000e+00    0,000000000e+00
     1360000000   -5,583337545e-01   -2,448280901e-01    1,117237285e-01   -8,989091218e-02    0,000000000e+00    0,000000000e+00    0,000000000e+00    0,000000000e+00
     1374000000   -6,236233115e-01    3,539587185e-02    1,018100381e-01    7,522206753e-02    0,000000000e+00    0,000000000e+00    0,000000000e+00    0,000000000e+00
     1388000000   -5,157549381e-01    2,881436348e-01    2,110738158e-01   -2,212098567e-03    0,000000000e+00    0,000000000e+00    0,000000000e+00    0,000000000e+00
     1402000000   -3,016268611e-01    4,259831905e-01    2,117804885e-01   -6,863664091e-02    0,000000000e+00    0,000000000e+00    0,000000000e+00    0,000000000e+00
     1416000000   -9,250628203e-02    4,307601750e-01    1,879359633e-01   -1,088038534e-01    0,000000000e+00    0,000000000e+00    0,000000000e+00    0,000000000e+00
     1430000000    7,558378577e-02    3,477041125e-01    1,756710857e-01   -1,136090904e-01    0,000000000e+00    0,000000000e+00    0,000000000e+00    0,000000000e+00
     1444000000    1,837454289e-01    2,000826746e-01    1,519559920e-01   -1,016111150e-01    0,000000000e+00    0,000000000e+00    0,000000000e+00    0,000000000e+00
     1458000000    2,283648401e-01    2,819770016e-02    1,352248490e-01   -8,838772029e-02    0,000000000e+00    0,000000000e+00    0,000000000e+00    0,000000000e+00
     1472000000    2,074735016e-01   -1,498380005e-01    1,319221556e-01   -5,093646795e-02    0,000000000e+00    0,000000000e+00    0,000000000e+00    0,000000000e+00
     1486000000    1,089595482e-01   -3,289961219e-01    1,547147930e-01   -1,207535155e-02    0,000000000e+00    0,000000000e+00    0,000000000e+00    0,000000000e+00
     1500000000   -9,865732491e-02   -4,649022818e-01    2,059466243e-01    4,440570623e-02    0,000000000e+00    0,000000000e+00    0,000000000e+00    0,000000000e+00
