! NanoVNA-App
! Date: 2025-09-26 09:55:50
! Start: 100MHz Stop: 1,5GHz Points: 101
! S-Parameter data: F S11 S21 S12 S22
# Hz S RI R 50
!     Frequency           S11_Real           S11_Imag           S21_Real           S21_Imag           S12_Real           S12_Imag           S22_Real           S22_Imag
      100000000   -2,905398980e-02   -4,480853211e-03    3,741495609e-01   -7,227212191e-01    0,000000000e+00    0,000000000e+00    0,000000000e+00    0,000000000e+00
      114000000   -1,692109741e-02    1,125364006e-02   -8,944649249e-02   -8,062074780e-01    0,000000000e+00    0,000000000e+00    0,000000000e+00    0,000000000e+00
      128000000    2,790509490e-03    1,052728668e-02   -5,154480934e-01   -6,210141182e-01    0,000000000e+00    0,000000000e+00    0,000000000e+00    0,000000000e+00
      142000000    1,392078679e-02   -2,591101918e-03   -7,681457996e-01   -2,362310141e-01    0,000000000e+00    0,000000000e+00    0,000000000e+00    0,000000000e+00
      156000000    1,440221630e-02   -1,417488698e-02   -7,655389905e-01    2,192064375e-01    0,000000000e+00    0,000000000e+00    0,000000000e+00    0,000000000e+00
      170000000    1,692789979e-02   -2,196299657e-02   -5,181903243e-01    6,060968637e-01    0,000000000e+00    0,000000000e+00    0,000000000e+00    0,000000000e+00
      184000000    2,135088481e-02   -3,690301999e-02   -1,010740623e-01    7,872167230e-01    0,000000000e+00    0,000000000e+00    0,000000000e+00    0,000000000e+00
      198000000    1,310902648e-02   -6,250210851e-02    3,443639874e-01    7,131204009e-01    0,000000000e+00    0,000000000e+00    0,000000000e+00    0,000000000e+00
      212000000   -1,873876899e-02   -8,121637255e-02    6,794206500e-01    4,098773301e-01    0,000000000e+00    0,000000000e+00    0,000000000e+00    0,000000000e+00
      226000000   -6,160638109e-02   -6,902048737e-02    7,969559431e-01   -3,073186055e-02    0,000000000e+00    0,000000000e+00    0,000000000e+00    0,000000000e+00
      240000000   -8,219421655e-02   -2,572829090e-02    6,470324397e-01   -4,675748944e-01    0,000000000e+00    0,000000000e+00    0,000000000e+00    0,000000000e+00
      254000000   -6,344237924e-02    1,702142879e-02    2,769307792e-01   -7,441539168e-01    0,000000000e+00    0,000000000e+00    0,000000000e+00    0,000000000e+00
      268000000   -2,332801931e-02    2,869876847e-02   -1,768204272e-01   -7,656966448e-01    0,000000000e+00    0,000000000e+00    0,000000000e+00    0,000000000e+00
      282000000    3,747105366e-03    1,108936593e-02   -5,630126595e-01   -5,380659103e-01    0,000000000e+00    0,000000000e+00    0,000000000e+00    0,000000000e+00
      296000000    8,984561078e-03   -7,703075185e-03   -7,618147135e-01   -1,397715509e-01    0,000000000e+00    0,000000000e+00    0,000000000e+00    0,000000000e+00
      310000000    1,108543482e-02   -1,579352468e-02   -7,132061124e-01    2,996871173e-01    0,000000000e+00    0,000000000e+00    0,000000000e+00    0,000000000e+00
      324000000    2,002483048e-02   -2,667515911e-02   -4,284340441e-01    6,380854845e-01    0,000000000e+00    0,000000000e+00    0,000000000e+00    0,000000000e+00
      338000000    2,538107894e-02   -5,273525417e-02   -7,848128676e-03    7,654469609e-01    0,000000000e+00    0,000000000e+00    0,000000000e+00    0,000000000e+00
      352000000    6,789385341e-03   -8,486880362e-02    4,064092040e-01    6,417022347e-01    0,000000000e+00    0,000000000e+00    0,000000000e+00    0,000000000e+00
      366000000   -3,560184315e-02   -9,545342624e-02    6,916061640e-01    3,125793338e-01    0,000000000e+00    0,000000000e+00    0,000000000e+00    0,000000000e+00
      380000000   -7,164448500e-02   -7,000479847e-02    7,490370274e-01   -1,255072504e-01    0,000000000e+00    0,000000000e+00    0,000000000e+00    0,000000000e+00
      394000000   -7,222661376e-02   -3,158016875e-02    5,479991436e-01   -5,216889977e-01    0,000000000e+00    0,000000000e+00    0,000000000e+00    0,000000000e+00
      408000000   -4,585641250e-02   -1,576358825e-02    1,630072743e-01   -7,346253395e-01    0,000000000e+00    0,000000000e+00    0,000000000e+00    0,000000000e+00
      422000000   -2,771121450e-02   -3,189319372e-02   -2,664408386e-01   -6,964313984e-01    0,000000000e+00    0,000000000e+00    0,000000000e+00    0,000000000e+00
      436000000   -4,013022780e-02   -5,224919319e-02   -6,039437652e-01   -4,343904257e-01    0,000000000e+00    0,000000000e+00    0,000000000e+00    0,000000000e+00
      450000000   -6,724262238e-02   -4,473045468e-02   -7,412276268e-01   -2,517794073e-02    0,000000000e+00    0,000000000e+00    0,000000000e+00    0,000000000e+00
      464000000   -7,308943570e-02   -1,263528503e-02   -6,220484376e-01    3,947912753e-01    0,000000000e+00    0,000000000e+00    0,000000000e+00    0,000000000e+00
      478000000   -4,806380346e-02    1,068546623e-02   -2,860160768e-01    6,684846282e-01    0,000000000e+00    0,000000000e+00    0,000000000e+00    0,000000000e+00
      492000000   -1,635224186e-02    4,938266706e-03    1,340656579e-01    7,047257423e-01    0,000000000e+00    0,000000000e+00    0,000000000e+00    0,000000000e+00
      506000000   -4,281404894e-03   -1,580142789e-02    4,983790219e-01    5,067255497e-01    0,000000000e+00    0,000000000e+00    0,000000000e+00    0,000000000e+00
      520000000   -6,640397012e-03   -2,973207273e-02    6,919707656e-01    1,452258229e-01    0,000000000e+00    0,000000000e+00    0,000000000e+00    0,000000000e+00
      534000000   -3,650621511e-03   -3,528661653e-02    6,450901031e-01   -2,601335645e-01    0,000000000e+00    0,000000000e+00    0,000000000e+00    0,000000000e+00
      548000000    8,441410027e-03   -5,291611329e-02    3,857131302e-01   -5,656777620e-01    0,000000000e+00    0,000000000e+00    0,000000000e+00    0,000000000e+00
      562000000    5,636618473e-03   -8,954612166e-02    7,703060750e-03   -6,724870205e-01    0,000000000e+00    0,000000000e+00    0,000000000e+00    0,000000000e+00
      576000000   -3,189948574e-02   -1,264014840e-01   -3,628416359e-01   -5,620773435e-01    0,000000000e+00    0,000000000e+00    0,000000000e+00    0,000000000e+00
      590000000   -9,530629963e-02   -1,271472126e-01   -6,200118065e-01   -2,730521262e-01    0,000000000e+00    0,000000000e+00    0,000000000e+00    0,000000000e+00
      604000000   -1,429459006e-01   -7,683357596e-02   -6,684828997e-01    1,270248890e-01    0,000000000e+00    0,000000000e+00    0,000000000e+00    0,000000000e+00
      618000000   -1,370020509e-01   -1,017332543e-02   -4,763841033e-01    4,869942069e-01    0,000000000e+00    0,000000000e+00    0,000000000e+00    0,000000000e+00
      632000000   -9,179521352e-02    2,068029903e-02   -1,135773659e-01    6,640169024e-01    0,000000000e+00    0,000000000e+00    0,000000000e+00    0,000000000e+00
      646000000   -5,493440852e-02    1,122974791e-02    2,750957012e-01    6,033016443e-01    0,000000000e+00    0,000000000e+00    0,000000000e+00    0,000000000e+00
      660000000   -4,938558489e-02   -9,527558461e-03    5,597569346e-01    3,409366012e-01    0,000000000e+00    0,000000000e+00    0,000000000e+00    0,000000000e+00
      674000000   -5,571742728e-02   -1,005088445e-02    6,443107128e-01   -4,118721560e-02    0,000000000e+00    0,000000000e+00    0,000000000e+00    0,000000000e+00
      688000000   -4,891364276e-02    3,871852299e-03    4,920600355e-01   -4,032524228e-01    0,000000000e+00    0,000000000e+00    0,000000000e+00    0,000000000e+00
      702000000   -2,491608635e-02    5,798056256e-03    1,621123850e-01   -6,003739834e-01    0,000000000e+00    0,000000000e+00    0,000000000e+00    0,000000000e+00
      716000000   -1,562934718e-03   -9,734826162e-03   -2,196345180e-01   -5,757761002e-01    0,000000000e+00    0,000000000e+00    0,000000000e+00    0,000000000e+00
      730000000    8,702273481e-03   -3,510924429e-02   -5,107135773e-01   -3,332116604e-01    0,000000000e+00    0,000000000e+00    0,000000000e+00    0,000000000e+00
      744000000    1,559270173e-02   -6,141870469e-02   -6,018045545e-01    3,395070881e-02    0,000000000e+00    0,000000000e+00    0,000000000e+00    0,000000000e+00
      758000000    2,183218859e-02   -1,042338163e-01   -4,540812969e-01    3,784182966e-01    0,000000000e+00    0,000000000e+00    0,000000000e+00    0,000000000e+00
      772000000   -4,623495042e-03   -1,741105020e-01   -1,382327229e-01    5,582457781e-01    0,000000000e+00    0,000000000e+00    0,000000000e+00    0,000000000e+00
      786000000   -1,061694250e-01   -2,342589945e-01    2,135701478e-01    5,189485550e-01    0,000000000e+00    0,000000000e+00    0,000000000e+00    0,000000000e+00
      800000000   -2,681567669e-01   -1,933913380e-01    4,724858999e-01    2,738454640e-01    0,000000000e+00    0,000000000e+00    0,000000000e+00    0,000000000e+00
      814000000   -3,661231101e-01    5,874857306e-03    5,074377656e-01   -9,116798639e-02    0,000000000e+00    0,000000000e+00    0,000000000e+00    0,000000000e+00
      828000000   -2,472633570e-01    2,363235950e-01    2,785821557e-01   -3,535853326e-01    0,000000000e+00    0,000000000e+00    0,000000000e+00    0,000000000e+00
      842000000    1,550114620e-02    2,787622511e-01   -1,906860434e-02   -3,621459305e-01    0,000000000e+00    0,000000000e+00    0,000000000e+00    0,000000000e+00
      856000000    2,153018117e-01    1,144322380e-01   -1,898037195e-01   -2,023627907e-01    0,000000000e+00    0,000000000e+00    0,000000000e+00    0,000000000e+00
      870000000    2,406753153e-01   -1,508862972e-01   -2,002841681e-01   -2,348445542e-02    0,000000000e+00    0,000000000e+00    0,000000000e+00    0,000000000e+00
      884000000    3,864570335e-02   -3,890408874e-01   -1,034226045e-01    7,239321619e-02    0,000000000e+00    0,000000000e+00    0,000000000e+00    0,000000000e+00
      898000000   -3,727282584e-01   -3,434529305e-01   -1,531108003e-02    2,738579735e-02    0,000000000e+00    0,000000000e+00    0,000000000e+00    0,000000000e+00
      912000000   -4,696490169e-01    1,409599632e-01   -1,184432134e-01    2,095749043e-02    0,000000000e+00    0,000000000e+00    0,000000000e+00    0,000000000e+00
      926000000   -9,428668022e-02    3,528325260e-01   -1,294191629e-01    1,294239163e-01    0,000000000e+00    0,000000000e+00    0,000000000e+00    0,000000000e+00
      940000000    1,840282977e-01    1,961714625e-01   -3,987648338e-02    2,138702273e-01    0,000000000e+00    0,000000000e+00    0,000000000e+00    0,000000000e+00
      954000000    2,598710060e-01   -4,771757871e-02    7,621836662e-02    2,279300988e-01    0,000000000e+00    0,000000000e+00    0,000000000e+00    0,000000000e+00
      968000000    1,788614392e-01   -2,632287741e-01    1,888553053e-01    1,818890572e-01    0,000000000e+00    0,000000000e+00    0,000000000e+00    0,000000000e+00
      982000000   -1,703675091e-02   -3,954815865e-01    2,779480815e-01    8,173636347e-02    0,000000000e+00    0,000000000e+00    0,000000000e+00    0,000000000e+00
      996000000   -2,764500082e-01   -3,820108771e-01    3,069639504e-01   -7,517363876e-02    0,000000000e+00    0,000000000e+00    0,000000000e+00    0,000000000e+00
     1010000000   -4,734740257e-01   -1,755185574e-01    2,209704667e-01   -2,520492375e-01    0,000000000e+00    0,000000000e+00    0,000000000e+00    0,000000000e+00
     1024000000   -4,656363130e-01    1,236891598e-01    2,307355776e-02   -3,280330002e-01    0,000000000e+00    0,000000000e+00    0,000000000e+00    0,000000000e+00
     1038000000   -2,685741484e-01    3,027819693e-01   -1,733689457e-01   -2,462309152e-01    0,000000000e+00    0,000000000e+00    0,000000000e+00    0,000000000e+00
     1052000000   -3,728812188e-02    3,086630106e-01   -2,581418455e-01   -7,794691622e-02    0,000000000e+00    0,000000000e+00    0,000000000e+00    0,000000000e+00
     1066000000    1,308088899e-01    2,080033422e-01   -2,311218083e-01    8,512578905e-02    0,000000000e+00    0,000000000e+00    0,000000000e+00    0,000000000e+00
     1080000000    2,116926461e-01    4,524885863e-02   -1,238810942e-01    1,925045550e-01    0,000000000e+00    0,000000000e+00    0,000000000e+00    0,000000000e+00
     1094000000    2,082900107e-01   -1,320255399e-01    1,459921710e-02    2,349394858e-01    0,000000000e+00    0,000000000e+00    0,000000000e+00    0,000000000e+00
     1108000000    1,047987044e-01   -2,893401384e-01    1,639395654e-01    2,086518109e-01    0,000000000e+00    0,000000000e+00    0,000000000e+00    0,000000000e+00
     1122000000   -1,023344323e-01   -3,757417500e-01    3,135951459e-01    9,640804678e-02    0,000000000e+00    0,000000000e+00    0,000000000e+00    0,000000000e+00
     1136000000   -3,500995636e-01   -2,699526250e-01    3,897816837e-01   -1,436987072e-01    0,000000000e+00    0,000000000e+00    0,000000000e+00    0,000000000e+00
     1150000000   -4,114075601e-01    3,352504224e-02    2,461750209e-01   -4,313152432e-01    0,000000000e+00    0,000000000e+00    0,000000000e+00    0,000000000e+00
     1164000000   -1,594224721e-01    2,167993784e-01   -8,632144332e-02   -5,067165494e-01    0,000000000e+00    0,000000000e+00    0,000000000e+00    0,000000000e+00
     1178000000    7,905340195e-02    8,365959674e-02   -3,480277658e-01   -3,444753885e-01    0,000000000e+00    0,000000000e+00    0,000000000e+00    0,000000000e+00
     1192000000    7,941729575e-02   -1,747570783e-01   -4,459681511e-01   -8,523371071e-02    0,000000000e+00    0,000000000e+00    0,000000000e+00    0,000000000e+00
     1206000000   -1,582375467e-01   -3,297166824e-01   -3,605899513e-01    1,853627414e-01    0,000000000e+00    0,000000000e+00    0,000000000e+00    0,000000000e+00
     1220000000   -4,597840011e-01   -1,781989634e-01   -1,038247272e-01    3,232139647e-01    0,000000000e+00    0,000000000e+00    0,000000000e+00    0,000000000e+00
     1234000000   -4,732775390e-01    1,642098278e-01    1,392333210e-01    2,151875645e-01    0,000000000e+00    0,000000000e+00    0,000000000e+00    0,000000000e+00
     1248000000   -2,401347756e-01    3,567025959e-01    1,852920055e-01    3,290077671e-02    0,000000000e+00    0,000000000e+00    0,000000000e+00    0,000000000e+00
     1262000000    1,251399424e-02    3,300073147e-01    1,253032833e-01   -7,180105895e-02    0,000000000e+00    0,000000000e+00    0,000000000e+00    0,000000000e+00
     1276000000    1,601776928e-01    2,024577856e-01    5,377923697e-02   -9,142631292e-02    0,000000000e+00    0,000000000e+00    0,000000000e+00    0,000000000e+00
     1290000000    2,211969197e-01    2,851974778e-02    2,963467501e-03   -7,366102934e-02    0,000000000e+00    0,000000000e+00    0,000000000e+00    0,000000000e+00
     1304000000    2,086043954e-01   -1,554704010e-01   -1,444238331e-02   -3,064026311e-02    0,000000000e+00    0,000000000e+00    0,000000000e+00    0,000000000e+00
     1318000000    1,186994165e-01   -3,176442087e-01   -2,514862688e-03    1,690607704e-02    0,000000000e+00    0,000000000e+00    0,000000000e+00    0,000000000e+00
     1332000000   -6,921638548e-02   -4,436800778e-01    4,409102723e-02    6,063881144e-02    0,000000000e+00    0,000000000e+00    0,000000000e+00    0,000000000e+00
     1346000000   -3,344411552e-01   -4,396815598e-01    1,462390274e-01    4,521069676e-02    0,000000000e+00    0,000000000e+00    0,000000000e+00    0,000000000e+00
     1360000000   -5,596598387e-01   -2,470663041e-01    1,069202945e-01   -8,826073259e-02    0,000000000e+00    0,000000000e+00    0,000000000e+00    0,000000000e+00
     1374000000   -6,275340319e-01    2,936002053e-02    9,502470493e-02    5,540880188e-02    0,000000000e+00    0,000000000e+00    0,000000000e+00    0,000000000e+00
     1388000000   -5,123188496e-01    2,854942679e-01    2,189813256e-01   -8,458739147e-03    0,000000000e+00    0,000000000e+00    0,000000000e+00    0,000000000e+00
     1402000000   -2,980296612e-01    4,178725779e-01    2,228901535e-01   -8,658089489e-02    0,000000000e+00    0,000000000e+00    0,000000000e+00    0,000000000e+00
     1416000000   -9,221355617e-02    4,257330596e-01    1,796858311e-01   -1,129648536e-01    0,000000000e+00    0,000000000e+00    0,000000000e+00    0,000000000e+00
     1430000000    8,275856823e-02    3,403691649e-01    1,544384360e-01   -1,477680802e-01    0,000000000e+00    0,000000000e+00    0,000000000e+00    0,000000000e+00
     1444000000    1,848815829e-01    1,986942589e-01    1,539855748e-01   -1,014317498e-01    0,000000000e+00    0,000000000e+00    0,000000000e+00    0,000000000e+00
     1458000000    2,317191958e-01    2,889625169e-02    1,411308646e-01   -9,148929268e-02    0,000000000e+00    0,000000000e+00    0,000000000e+00    0,000000000e+00
     1472000000    2,059896439e-01   -1,473408043e-01    1,412989646e-01   -5,326656252e-02    0,000000000e+00    0,000000000e+00    0,000000000e+00    0,000000000e+00
     1486000000    1,039369702e-01   -3,370712996e-01    1,528350413e-01   -7,586854976e-03    0,000000000e+00    0,000000000e+00    0,000000000e+00    0,000000000e+00
     1500000000   -1,050979942e-01   -4,686455429e-01    1,958124340e-01    4,282429069e-02    0,000000000e+00    0,000000000e+00    0,000000000e+00    0,000000000e+00
