! NanoVNA-App
! Date: 2025-09-26 09:55:42
! Start: 100MHz Stop: 1,5GHz Points: 101
! S-Parameter data: F S11 S21 S12 S22
# Hz S RI R 50
!     Frequency           S11_Real           S11_Imag           S21_Real           S21_Imag           S12_Real           S12_Imag           S22_Real           S22_Imag
      100000000   -2,907107025e-02   -4,471281078e-03    3,741159737e-01   -7,226821184e-01    0,000000000e+00    0,000000000e+00    0,000000000e+00    0,000000000e+00
      114000000   -1,693307422e-02    1,125698164e-02   -8,960384876e-02   -8,062297702e-01    0,000000000e+00    0,000000000e+00    0,000000000e+00    0,000000000e+00
      128000000    2,773049986e-03    1,052261144e-02   -5,154635310e-01   -6,209070683e-01    0,000000000e+00    0,000000000e+00    0,000000000e+00    0,000000000e+00
      142000000    1,391861774e-02   -2,565158764e-03   -7,683886290e-01   -2,363861948e-01    0,000000000e+00    0,000000000e+00    0,000000000e+00    0,000000000e+00
      156000000    1,433143392e-02   -1,418732293e-02   -7,652646899e-01    2,190158516e-01    0,000000000e+00    0,000000000e+00    0,000000000e+00    0,000000000e+00
      170000000    1,689025946e-02   -2,207497880e-02   -5,181460381e-01    6,062954664e-01    0,000000000e+00    0,000000000e+00    0,000000000e+00    0,000000000e+00
      184000000    2,131344937e-02   -3,693084419e-02   -1,009575129e-01    7,873498797e-01    0,000000000e+00    0,000000000e+00    0,000000000e+00    0,000000000e+00
      198000000    1,310630422e-02   -6,247260794e-02    3,443269134e-01    7,129812241e-01    0,000000000e+00    0,000000000e+00    0,000000000e+00    0,000000000e+00
      212000000   -1,875029132e-02   -8,122024685e-02    6,794995666e-01    4,099191427e-01    0,000000000e+00    0,000000000e+00    0,000000000e+00    0,000000000e+00
      226000000   -6,156317890e-02   -6,892883033e-02    7,966855764e-01   -3,077797033e-02    0,000000000e+00    0,000000000e+00    0,000000000e+00    0,000000000e+00
      240000000   -8,225627989e-02   -2,566079423e-02    6,471123695e-01   -4,676795304e-01    0,000000000e+00    0,000000000e+00    0,000000000e+00    0,000000000e+00
      254000000   -6,330516934e-02    1,705095917e-02    2,768628299e-01   -7,438355684e-01    0,000000000e+00    0,000000000e+00    0,000000000e+00    0,000000000e+00
      268000000   -2,337038703e-02    2,855181694e-02   -1,767341644e-01   -7,658179998e-01    0,000000000e+00    0,000000000e+00    0,000000000e+00    0,000000000e+00
      282000000    3,769137664e-03    1,115254592e-02   -5,626366138e-01   -5,384436846e-01    0,000000000e+00    0,000000000e+00    0,000000000e+00    0,000000000e+00
      296000000    9,059673175e-03   -7,749989629e-03   -7,620154023e-01   -1,398069412e-01    0,000000000e+00    0,000000000e+00    0,000000000e+00    0,000000000e+00
      310000000    1,094916835e-02   -1,564796828e-02   -7,125952840e-01    2,994679511e-01    0,000000000e+00    0,000000000e+00    0,000000000e+00    0,000000000e+00
      324000000    1,997887343e-02   -2,676513977e-02   -4,288639128e-01    6,386845708e-01    0,000000000e+00    0,000000000e+00    0,000000000e+00    0,000000000e+00
      338000000    2,546965703e-02   -5,245514214e-02   -1,075125858e-02    7,607954741e-01    0,000000000e+00    0,000000000e+00    0,000000000e+00    0,000000000e+00
      352000000    6,996517535e-03   -8,507016301e-02    4,063493609e-01    6,411359906e-01    0,000000000e+00    0,000000000e+00    0,000000000e+00    0,000000000e+00
      366000000   -3,580014408e-02   -9,542836249e-02    6,921402216e-01    3,122333586e-01    0,000000000e+00    0,000000000e+00    0,000000000e+00    0,000000000e+00
      380000000   -7,120759040e-02   -7,010655105e-02    7,494610548e-01   -1,249249429e-01    0,000000000e+00    0,000000000e+00    0,000000000e+00    0,000000000e+00
      394000000   -7,210304588e-02   -3,152701631e-02    5,485093594e-01   -5,220059752e-01    0,000000000e+00    0,000000000e+00    0,000000000e+00    0,000000000e+00
      408000000   -4,585760087e-02   -1,545008831e-02    1,626498103e-01   -7,327210307e-01    0,000000000e+00    0,000000000e+00    0,000000000e+00    0,000000000e+00
      422000000   -2,765193395e-02   -3,178749233e-02   -2,665646076e-01   -6,965103149e-01    0,000000000e+00    0,000000000e+00    0,000000000e+00    0,000000000e+00
      436000000   -3,988729790e-02   -5,242148042e-02   -6,036729813e-01   -4,346355200e-01    0,000000000e+00    0,000000000e+00    0,000000000e+00    0,000000000e+00
      450000000   -6,689770520e-02   -4,452006891e-02   -7,410902977e-01   -2,478840575e-02    0,000000000e+00    0,000000000e+00    0,000000000e+00    0,000000000e+00
      464000000   -7,287743688e-02   -1,239030622e-02   -6,216381788e-01    3,948222995e-01    0,000000000e+00    0,000000000e+00    0,000000000e+00    0,000000000e+00
      478000000   -4,803269356e-02    1,068039332e-02   -2,869723141e-01    6,683061719e-01    0,000000000e+00    0,000000000e+00    0,000000000e+00    0,000000000e+00
      492000000   -1,687452942e-02    4,767803010e-03    1,339524835e-01    7,041465044e-01    0,000000000e+00    0,000000000e+00    0,000000000e+00    0,000000000e+00
      506000000   -4,347790964e-03   -1,647842303e-02    4,981155992e-01    5,066366792e-01    0,000000000e+00    0,000000000e+00    0,000000000e+00    0,000000000e+00
      520000000   -7,009374443e-03   -2,920854278e-02    6,906576753e-01    1,442798078e-01    0,000000000e+00    0,000000000e+00    0,000000000e+00    0,000000000e+00
      534000000   -3,780518193e-03   -3,540503979e-02    6,456604600e-01   -2,597244978e-01    0,000000000e+00    0,000000000e+00    0,000000000e+00    0,000000000e+00
      548000000    8,121512830e-03   -5,254744738e-02    3,849160075e-01   -5,650048256e-01    0,000000000e+00    0,000000000e+00    0,000000000e+00    0,000000000e+00
      562000000    5,572079681e-03   -8,989733458e-02    8,375058882e-03   -6,728231311e-01    0,000000000e+00    0,000000000e+00    0,000000000e+00    0,000000000e+00
      576000000   -3,149956465e-02   -1,264910400e-01   -3,633280694e-01   -5,610864162e-01    0,000000000e+00    0,000000000e+00    0,000000000e+00    0,000000000e+00
      590000000   -9,549569339e-02   -1,277024597e-01   -6,194007993e-01   -2,718071043e-01    0,000000000e+00    0,000000000e+00    0,000000000e+00    0,000000000e+00
      604000000   -1,432370991e-01   -7,683922350e-02   -6,691280603e-01    1,269349605e-01    0,000000000e+00    0,000000000e+00    0,000000000e+00    0,000000000e+00
      618000000   -1,367772520e-01   -1,122374088e-02   -4,758536518e-01    4,867177010e-01    0,000000000e+00    0,000000000e+00    0,000000000e+00    0,000000000e+00
      632000000   -9,233661741e-02    2,122263610e-02   -1,136260852e-01    6,630684137e-01    0,000000000e+00    0,000000000e+00    0,000000000e+00    0,000000000e+00
      646000000   -5,521072075e-02    1,050733030e-02    2,745516300e-01    6,049554944e-01    0,000000000e+00    0,000000000e+00    0,000000000e+00    0,000000000e+00
      660000000   -4,860615358e-02   -1,021939889e-02    5,585322380e-01    3,400921226e-01    0,000000000e+00    0,000000000e+00    0,000000000e+00    0,000000000e+00
      674000000   -5,586427823e-02   -1,072100643e-02    6,449832916e-01   -4,110530019e-02    0,000000000e+00    0,000000000e+00    0,000000000e+00    0,000000000e+00
      688000000   -4,894053191e-02    2,963000443e-03    4,933079183e-01   -4,026013613e-01    0,000000000e+00    0,000000000e+00    0,000000000e+00    0,000000000e+00
      702000000   -2,440956794e-02    6,366507616e-03    1,584951729e-01   -6,065258980e-01    0,000000000e+00    0,000000000e+00    0,000000000e+00    0,000000000e+00
      716000000   -1,853282214e-03   -1,000525150e-02   -2,183150947e-01   -5,758984685e-01    0,000000000e+00    0,000000000e+00    0,000000000e+00    0,000000000e+00
      730000000    9,652676061e-03   -3,572131321e-02   -5,099205971e-01   -3,335080147e-01    0,000000000e+00    0,000000000e+00    0,000000000e+00    0,000000000e+00
      744000000    1,689570025e-02   -6,128853559e-02   -6,020715833e-01    3,357933834e-02    0,000000000e+00    0,000000000e+00    0,000000000e+00    0,000000000e+00
      758000000    2,164574154e-02   -1,036871523e-01   -4,540815055e-01    3,779690564e-01    0,000000000e+00    0,000000000e+00    0,000000000e+00    0,000000000e+00
      772000000   -4,352512304e-03   -1,743345559e-01   -1,387902200e-01    5,590020418e-01    0,000000000e+00    0,000000000e+00    0,000000000e+00    0,000000000e+00
      786000000   -1,051568612e-01   -2,340047210e-01    2,119710445e-01    5,185479522e-01    0,000000000e+00    0,000000000e+00    0,000000000e+00    0,000000000e+00
      800000000   -2,678261399e-01   -1,924140453e-01    4,723200202e-01    2,732288837e-01    0,000000000e+00    0,000000000e+00    0,000000000e+00    0,000000000e+00
      814000000   -3,655705452e-01    4,735604860e-03    5,076894760e-01   -9,155397117e-02    0,000000000e+00    0,000000000e+00    0,000000000e+00    0,000000000e+00
      828000000   -2,469289899e-01    2,364864200e-01    2,787325680e-01   -3,546929657e-01    0,000000000e+00    0,000000000e+00    0,000000000e+00    0,000000000e+00
      842000000    1,586173102e-02    2,786993682e-01   -1,816879585e-02   -3,629601300e-01    0,000000000e+00    0,000000000e+00    0,000000000e+00    0,000000000e+00
      856000000    2,156310678e-01    1,144946367e-01   -1,893889159e-01   -2,026845813e-01    0,000000000e+00    0,000000000e+00    0,000000000e+00    0,000000000e+00
      870000000    2,401808053e-01   -1,512431204e-01   -2,009505928e-01   -2,343366109e-02    0,000000000e+00    0,000000000e+00    0,000000000e+00    0,000000000e+00
      884000000    3,875699639e-02   -3,898046911e-01   -1,027892381e-01    7,270333171e-02    0,000000000e+00    0,000000000e+00    0,000000000e+00    0,000000000e+00
      898000000   -3,711556792e-01   -3,442952335e-01   -1,496084128e-02    2,737006731e-02    0,000000000e+00    0,000000000e+00    0,000000000e+00    0,000000000e+00
      912000000   -4,700761437e-01    1,401995420e-01   -1,208975017e-01    2,501545474e-02    0,000000000e+00    0,000000000e+00    0,000000000e+00    0,000000000e+00
      926000000   -9,535885602e-02    3,528233469e-01   -1,302186251e-01    1,289218962e-01    0,000000000e+00    0,000000000e+00    0,000000000e+00    0,000000000e+00
      940000000    1,857239902e-01    1,970208734e-01   -4,143633693e-02    2,126489580e-01    0,000000000e+00    0,000000000e+00    0,000000000e+00    0,000000000e+00
      954000000    2,557760179e-01   -4,684457555e-02    7,779380679e-02    2,265607119e-01    0,000000000e+00    0,000000000e+00    0,000000000e+00    0,000000000e+00
      968000000    1,795304865e-01   -2,642170787e-01    1,879471093e-01    1,806531399e-01    0,000000000e+00    0,000000000e+00    0,000000000e+00    0,000000000e+00
      982000000   -1,537569240e-02   -3,953742981e-01    2,776152492e-01    8,168209344e-02    0,000000000e+00    0,000000000e+00    0,000000000e+00    0,000000000e+00
      996000000   -2,778137326e-01   -3,781588376e-01    3,096216917e-01   -7,662055641e-02    0,000000000e+00    0,000000000e+00    0,000000000e+00    0,000000000e+00
     1010000000   -4,774650633e-01   -1,708940566e-01    2,216332108e-01   -2,501256168e-01    0,000000000e+00    0,000000000e+00    0,000000000e+00    0,000000000e+00
     1024000000   -4,593890905e-01    1,182821766e-01    2,118518017e-02   -3,274043202e-01    0,000000000e+00    0,000000000e+00    0,000000000e+00    0,000000000e+00
     1038000000   -2,614132464e-01    3,016200662e-01   -1,752832830e-01   -2,477348447e-01    0,000000000e+00    0,000000000e+00    0,000000000e+00    0,000000000e+00
     1052000000   -3,203006834e-02    3,126910329e-01   -2,568428814e-01   -7,747861743e-02    0,000000000e+00    0,000000000e+00    0,000000000e+00    0,000000000e+00
     1066000000    1,289384663e-01    2,043655664e-01   -2,258856893e-01    8,684386313e-02    0,000000000e+00    0,000000000e+00    0,000000000e+00    0,000000000e+00
     1080000000    2,119725496e-01    4,273545742e-02   -1,218596473e-01    1,916369647e-01    0,000000000e+00    0,000000000e+00    0,000000000e+00    0,000000000e+00
     1094000000    2,028387785e-01   -1,290096045e-01    1,413682103e-02    2,357452810e-01    0,000000000e+00    0,000000000e+00    0,000000000e+00    0,000000000e+00
     1108000000    1,015431434e-01   -2,873301208e-01    1,645231098e-01    2,100258768e-01    0,000000000e+00    0,000000000e+00    0,000000000e+00    0,000000000e+00
     1122000000   -1,051042229e-01   -3,740713000e-01    3,120824695e-01    9,629831463e-02    0,000000000e+00    0,000000000e+00    0,000000000e+00    0,000000000e+00
     1136000000   -3,545582891e-01   -2,735461593e-01    3,928559422e-01   -1,407478154e-01    0,000000000e+00    0,000000000e+00    0,000000000e+00    0,000000000e+00
     1150000000   -4,138897955e-01    3,636882827e-02    2,466219813e-01   -4,268650413e-01    0,000000000e+00    0,000000000e+00    0,000000000e+00    0,000000000e+00
     1164000000   -1,654312462e-01    2,183814794e-01   -8,966872841e-02   -5,095934272e-01    0,000000000e+00    0,000000000e+00    0,000000000e+00    0,000000000e+00
     1178000000    7,750309259e-02    8,574905246e-02   -3,468800783e-01   -3,439545333e-01    0,000000000e+00    0,000000000e+00    0,000000000e+00    0,000000000e+00
     1192000000    7,771234959e-02   -1,752599180e-01   -4,436157644e-01   -8,533075452e-02    0,000000000e+00    0,000000000e+00    0,000000000e+00    0,000000000e+00
     1206000000   -1,599704623e-01   -3,289010227e-01   -3,624425828e-01    1,874428838e-01    0,000000000e+00    0,000000000e+00    0,000000000e+00    0,000000000e+00
     1220000000   -4,569755197e-01   -1,814421117e-01   -1,041618288e-01    3,236999810e-01    0,000000000e+00    0,000000000e+00    0,000000000e+00    0,000000000e+00
     1234000000   -4,768741727e-01    1,691553593e-01    1,399432868e-01    2,214141935e-01    0,000000000e+00    0,000000000e+00    0,000000000e+00    0,000000000e+00
     1248000000   -2,352851480e-01    3,536331654e-01    1,888437718e-01    2,892319672e-02    0,000000000e+00    0,000000000e+00    0,000000000e+00    0,000000000e+00
     1262000000    1,278791763e-02    3,302445412e-01    1,258041561e-01   -7,026071846e-02    0,000000000e+00    0,000000000e+00    0,000000000e+00    0,000000000e+00
     1276000000    1,511724591e-01    2,014402896e-01    4,814035818e-02   -9,343339503e-02    0,000000000e+00    0,000000000e+00    0,000000000e+00    0,000000000e+00
     1290000000    2,223035544e-01    2,699056827e-02    6,503207609e-03   -7,180356979e-02    0,000000000e+00    0,000000000e+00    0,000000000e+00    0,000000000e+00
     1304000000    2,087582797e-01   -1,498357505e-01   -1,263954490e-02   -3,000915237e-02    0,000000000e+00    0,000000000e+00    0,000000000e+00    0,000000000e+00
     1318000000    1,132247522e-01   -3,167251050e-01   -8,014308289e-03    2,277531661e-02    0,000000000e+00    0,000000000e+00    0,000000000e+00    0,000000000e+00
     1332000000   -6,336193532e-02   -4,375293851e-01    5,528270453e-02    6,171907485e-02    0,000000000e+00    0,000000000e+00    0,000000000e+00    0,000000000e+00
     1346000000   -3,327573240e-01   -4,406415820e-01    1,448372155e-01    4,189955816e-02    0,000000000e+00    0,000000000e+00    0,000000000e+00    0,000000000e+00
     1360000000   -5,590134859e-01   -2,480054349e-01    1,103917658e-01   -8,784233779e-02    0,000000000e+00    0,000000000e+00    0,000000000e+00    0,000000000e+00
     1374000000   -6,382415891e-01    3,120899200e-02    8,495269716e-02    6,142829731e-02    0,000000000e+00    0,000000000e+00    0,000000000e+00    0,000000000e+00
     1388000000   -5,198550820e-01    2,939107716e-01    2,095043212e-01    1,913916203e-03    0,000000000e+00    0,000000000e+00    0,000000000e+00    0,000000000e+00
     1402000000   -2,977771759e-01    4,237874150e-01    2,211764604e-01   -6,991148740e-02    0,000000000e+00    0,000000000e+00    0,000000000e+00    0,000000000e+00
     1416000000   -8,684898913e-02    4,283291101e-01    1,805836409e-01   -1,068060473e-01    0,000000000e+00    0,000000000e+00    0,000000000e+00    0,000000000e+00
     1430000000    7,519380003e-02    3,348894417e-01    1,510637999e-01   -9,018936008e-02    0,000000000e+00    0,000000000e+00    0,000000000e+00    0,000000000e+00
     1444000000    1,853688508e-01    2,009754032e-01    1,539203972e-01   -1,057388484e-01    0,000000000e+00    0,000000000e+00    0,000000000e+00    0,000000000e+00
     1458000000    2,318363488e-01    3,115410544e-02    1,464690715e-01   -7,739523053e-02    0,000000000e+00    0,000000000e+00    0,000000000e+00    0,000000000e+00
     1472000000    2,100195289e-01   -1,521096975e-01    1,485561579e-01   -6,247250363e-02    0,000000000e+00    0,000000000e+00    0,000000000e+00    0,000000000e+00
     1486000000    1,074676216e-01   -3,238815665e-01    1,686034352e-01   -8,020702749e-03    0,000000000e+00    0,000000000e+00    0,000000000e+00    0,000000000e+00
     1500000000   -1,005385369e-01   -4,667843282e-01    1,953724176e-01    4,307620600e-02    0,000000000e+00    0,000000000e+00    0,000000000e+00    0,000000000e+00
