! NanoVNA-App
! Date: 2025-09-26 09:56:04
! Start: 100MHz Stop: 1,5GHz Points: 101
! S-Parameter data: F S11 S21 S12 S22
# Hz S RI R 50
!     Frequency           S11_Real           S11_Imag           S21_Real           S21_Imag           S12_Real           S12_Imag           S22_Real           S22_Imag
      100000000   -2,905157022e-02   -4,470781423e-03    3,741137385e-01   -7,227181792e-01    0,000000000e+00    0,000000000e+00    0,000000000e+00    0,000000000e+00
      114000000   -1,694268361e-02    1,126211602e-02   -8,970750868e-02   -8,062577844e-01    0,000000000e+00    0,000000000e+00    0,000000000e+00    0,000000000e+00
      128000000    2,818034962e-03    1,054588892e-02   -5,155435801e-01   -6,209654808e-01    0,000000000e+00    0,000000000e+00    0,000000000e+00    0,000000000e+00
      142000000    1,392748207e-02   -2,578765852e-03   -7,682715654e-01   -2,361018360e-01    0,000000000e+00    0,000000000e+00    0,000000000e+00    0,000000000e+00
      156000000    1,506785490e-02   -1,421375014e-02   -7,722589970e-01    2,225162238e-01    0,000000000e+00    0,000000000e+00    0,000000000e+00    0,000000000e+00
      170000000    1,682598516e-02   -2,201741561e-02   -5,181669593e-01    6,059909463e-01    0,000000000e+00    0,000000000e+00    0,000000000e+00    0,000000000e+00
      184000000    2,129274234e-02   -3,691526502e-02   -1,008628160e-01    7,874788642e-01    0,000000000e+00    0,000000000e+00    0,000000000e+00    0,000000000e+00
      198000000    1,310755871e-02   -6,248262525e-02    3,441074491e-01    7,130128145e-01    0,000000000e+00    0,000000000e+00    0,000000000e+00    0,000000000e+00
      212000000   -1,877768710e-02   -8,127693832e-02    6,793915033e-01    4,098313153e-01    0,000000000e+00    0,000000000e+00    0,000000000e+00    0,000000000e+00
      226000000   -6,158754230e-02   -6,902315468e-02    7,968119979e-01   -3,076666966e-02    0,000000000e+00    0,000000000e+00    0,000000000e+00    0,000000000e+00
      240000000   -8,221968263e-02   -2,569250017e-02    6,474345922e-01   -4,678141177e-01    0,000000000e+00    0,000000000e+00    0,000000000e+00    0,000000000e+00
      254000000   -6,336507946e-02    1,700373925e-02    2,769192755e-01   -7,440230846e-01    0,000000000e+00    0,000000000e+00    0,000000000e+00    0,000000000e+00
      268000000   -2,346209995e-02    2,870247886e-02   -1,768789738e-01   -7,653385997e-01    0,000000000e+00    0,000000000e+00    0,000000000e+00    0,000000000e+00
      282000000    3,860949771e-03    1,129545830e-02   -5,630748868e-01   -5,377403498e-01    0,000000000e+00    0,000000000e+00    0,000000000e+00    0,000000000e+00
      296000000    9,009604342e-03   -7,680881303e-03   -7,618532777e-01   -1,397932321e-01    0,000000000e+00    0,000000000e+00    0,000000000e+00    0,000000000e+00
      310000000    1,099051163e-02   -1,583761536e-02   -7,137356997e-01    2,980400622e-01    0,000000000e+00    0,000000000e+00    0,000000000e+00    0,000000000e+00
      324000000    1,974847354e-02   -2,641648613e-02   -4,289223254e-01    6,392444372e-01    0,000000000e+00    0,000000000e+00    0,000000000e+00    0,000000000e+00
      338000000    2,534612827e-02   -5,287800729e-02   -1,093387511e-02    7,613183856e-01    0,000000000e+00    0,000000000e+00    0,000000000e+00    0,000000000e+00
      352000000    6,875092164e-03   -8,500847220e-02    4,058427215e-01    6,416816115e-01    0,000000000e+00    0,000000000e+00    0,000000000e+00    0,000000000e+00
      366000000   -3,556225076e-02   -9,556969255e-02    6,918677092e-01    3,123004735e-01    0,000000000e+00    0,000000000e+00    0,000000000e+00    0,000000000e+00
      380000000   -7,153118402e-02   -7,006985694e-02    7,496210337e-01   -1,253284514e-01    0,000000000e+00    0,000000000e+00    0,000000000e+00    0,000000000e+00
      394000000   -7,246073335e-02   -3,164223954e-02    5,472829342e-01   -5,215624571e-01    0,000000000e+00    0,000000000e+00    0,000000000e+00    0,000000000e+00
      408000000   -4,570717365e-02   -1,558680926e-02    1,633020043e-01   -7,341398597e-01    0,000000000e+00    0,000000000e+00    0,000000000e+00    0,000000000e+00
      422000000   -2,775381133e-02   -3,211902454e-02   -2,667937279e-01   -6,969040036e-01    0,000000000e+00    0,000000000e+00    0,000000000e+00    0,000000000e+00
      436000000   -4,035927728e-02   -5,232268572e-02   -6,037364602e-01   -4,342753589e-01    0,000000000e+00    0,000000000e+00    0,000000000e+00    0,000000000e+00
      450000000   -6,744401902e-02   -4,440337792e-02   -7,413560748e-01   -2,497162297e-02    0,000000000e+00    0,000000000e+00    0,000000000e+00    0,000000000e+00
      464000000   -7,301896065e-02   -1,227352396e-02   -6,214319468e-01    3,956138194e-01    0,000000000e+00    0,000000000e+00    0,000000000e+00    0,000000000e+00
      478000000   -4,799955711e-02    1,063669100e-02   -2,866733670e-01    6,684821844e-01    0,000000000e+00    0,000000000e+00    0,000000000e+00    0,000000000e+00
      492000000   -1,690616645e-02    4,686403554e-03    1,345797479e-01    7,048554420e-01    0,000000000e+00    0,000000000e+00    0,000000000e+00    0,000000000e+00
      506000000   -4,823517986e-03   -1,589757390e-02    4,979745150e-01    5,068315268e-01    0,000000000e+00    0,000000000e+00    0,000000000e+00    0,000000000e+00
      520000000   -7,126918528e-03   -2,955265343e-02    6,903186440e-01    1,435956955e-01    0,000000000e+00    0,000000000e+00    0,000000000e+00    0,000000000e+00
      534000000   -3,717332147e-03   -3,567397967e-02    6,456011534e-01   -2,604581416e-01    0,000000000e+00    0,000000000e+00    0,000000000e+00    0,000000000e+00
      548000000    8,781369776e-03   -5,245563388e-02    3,853908479e-01   -5,646805167e-01    0,000000000e+00    0,000000000e+00    0,000000000e+00    0,000000000e+00
      562000000    5,879350938e-03   -8,965496719e-02    8,288971148e-03   -6,729031205e-01    0,000000000e+00    0,000000000e+00    0,000000000e+00    0,000000000e+00
      576000000   -3,173080832e-02   -1,267738789e-01   -3,625586033e-01   -5,629218221e-01    0,000000000e+00    0,000000000e+00    0,000000000e+00    0,000000000e+00
      590000000   -9,565055370e-02   -1,272311062e-01   -6,195420027e-01   -2,717906535e-01    0,000000000e+00    0,000000000e+00    0,000000000e+00    0,000000000e+00
      604000000   -1,425995231e-01   -7,708232105e-02   -6,685610414e-01    1,265131235e-01    0,000000000e+00    0,000000000e+00    0,000000000e+00    0,000000000e+00
      618000000   -1,374564171e-01   -1,046541240e-02   -4,763979912e-01    4,865470827e-01    0,000000000e+00    0,000000000e+00    0,000000000e+00    0,000000000e+00
      632000000   -9,205864370e-02    2,109700628e-02   -1,137855351e-01    6,636076570e-01    0,000000000e+00    0,000000000e+00    0,000000000e+00    0,000000000e+00
      646000000   -5,415507406e-02    1,038601156e-02    2,750659287e-01    6,045389771e-01    0,000000000e+00    0,000000000e+00    0,000000000e+00    0,000000000e+00
      660000000   -4,846181348e-02   -9,929827414e-03    5,592771173e-01    3,399022222e-01    0,000000000e+00    0,000000000e+00    0,000000000e+00    0,000000000e+00
      674000000   -5,556529388e-02   -1,029943116e-02    6,443384886e-01   -4,111159593e-02    0,000000000e+00    0,000000000e+00    0,000000000e+00    0,000000000e+00
      688000000   -4,886196926e-02    3,638906637e-03    4,922574759e-01   -4,016980529e-01    0,000000000e+00    0,000000000e+00    0,000000000e+00    0,000000000e+00
      702000000   -2,414610423e-02    7,422566414e-03    1,599684507e-01   -6,073586941e-01    0,000000000e+00    0,000000000e+00    0,000000000e+00    0,000000000e+00
      716000000   -1,829990884e-03   -1,125697233e-02   -2,198192775e-01   -5,756230950e-01    0,000000000e+00    0,000000000e+00    0,000000000e+00    0,000000000e+00
      730000000    9,301843122e-03   -3,614971042e-02   -5,103497505e-01   -3,333862722e-01    0,000000000e+00    0,000000000e+00    0,000000000e+00    0,000000000e+00
      744000000    1,579738595e-02   -6,082890183e-02   -6,013876200e-01    3,402078897e-02    0,000000000e+00    0,000000000e+00    0,000000000e+00    0,000000000e+00
      758000000    2,193793841e-02   -1,039954722e-01   -4,536292553e-01    3,784822226e-01    0,000000000e+00    0,000000000e+00    0,000000000e+00    0,000000000e+00
      772000000   -4,807868041e-03   -1,747977138e-01   -1,382787526e-01    5,589934587e-01    0,000000000e+00    0,000000000e+00    0,000000000e+00    0,000000000e+00
      786000000   -1,061265767e-01   -2,338761985e-01    2,122681141e-01    5,191949010e-01    0,000000000e+00    0,000000000e+00    0,000000000e+00    0,000000000e+00
      800000000   -2,686328292e-01   -1,924681664e-01    4,725953341e-01    2,738390267e-01    0,000000000e+00    0,000000000e+00    0,000000000e+00    0,000000000e+00
      814000000   -3,650686145e-01    5,132998340e-03    5,071123242e-01   -9,110356867e-02    0,000000000e+00    0,000000000e+00    0,000000000e+00    0,000000000e+00
      828000000   -2,473815382e-01    2,356056571e-01    2,787520289e-01   -3,537238836e-01    0,000000000e+00    0,000000000e+00    0,000000000e+00    0,000000000e+00
      842000000    1,598084718e-02    2,796443999e-01   -1,840187050e-02   -3,609125912e-01    0,000000000e+00    0,000000000e+00    0,000000000e+00    0,000000000e+00
      856000000    2,152448148e-01    1,141738445e-01   -1,898648739e-01   -2,019381374e-01    0,000000000e+00    0,000000000e+00    0,000000000e+00    0,000000000e+00
      870000000    2,401505858e-01   -1,511495709e-01   -2,008862942e-01   -2,391175926e-02    0,000000000e+00    0,000000000e+00    0,000000000e+00    0,000000000e+00
      884000000    3,783084080e-02   -3,898246288e-01   -1,026881412e-01    7,210940868e-02    0,000000000e+00    0,000000000e+00    0,000000000e+00    0,000000000e+00
      898000000   -3,713832200e-01   -3,444864154e-01   -1,505365875e-02    2,712562680e-02    0,000000000e+00    0,000000000e+00    0,000000000e+00    0,000000000e+00
      912000000   -4,700845480e-01    1,399417222e-01   -1,044954807e-01    2,443426475e-02    0,000000000e+00    0,000000000e+00    0,000000000e+00    0,000000000e+00
      926000000   -9,398782253e-02    3,546240628e-01   -1,276551187e-01    1,324907690e-01    0,000000000e+00    0,000000000e+00    0,000000000e+00    0,000000000e+00
      940000000    1,852476746e-01    1,938559562e-01   -4,313983768e-02    2,133866251e-01    0,000000000e+00    0,000000000e+00    0,000000000e+00    0,000000000e+00
      954000000    2,572621107e-01   -5,161223933e-02    7,559306920e-02    2,251673192e-01    0,000000000e+00    0,000000000e+00    0,000000000e+00    0,000000000e+00
      968000000    1,779802144e-01   -2,666704953e-01    1,888911277e-01    1,803378016e-01    0,000000000e+00    0,000000000e+00    0,000000000e+00    0,000000000e+00
      982000000   -1,516400930e-02   -3,976799846e-01    2,778240144e-01    8,334582299e-02    0,000000000e+00    0,000000000e+00    0,000000000e+00    0,000000000e+00
      996000000   -2,788635194e-01   -3,825970590e-01    3,090453148e-01   -7,538878173e-02    0,000000000e+00    0,000000000e+00    0,000000000e+00    0,000000000e+00
     1010000000   -4,740397036e-01   -1,704888791e-01    2,223577350e-01   -2,513684928e-01    0,000000000e+00    0,000000000e+00    0,000000000e+00    0,000000000e+00
     1024000000   -4,634388685e-01    1,240410581e-01    2,225604095e-02   -3,288687766e-01    0,000000000e+00    0,000000000e+00    0,000000000e+00    0,000000000e+00
     1038000000   -2,634553611e-01    3,056747317e-01   -1,735591143e-01   -2,471072376e-01    0,000000000e+00    0,000000000e+00    0,000000000e+00    0,000000000e+00
     1052000000   -3,634466976e-02    3,155298531e-01   -2,570196390e-01   -7,900051773e-02    0,000000000e+00    0,000000000e+00    0,000000000e+00    0,000000000e+00
     1066000000    1,284340471e-01    2,079936862e-01   -2,241335511e-01    8,568214625e-02    0,000000000e+00    0,000000000e+00    0,000000000e+00    0,000000000e+00
     1080000000    2,139676660e-01    4,755876586e-02   -1,223903671e-01    1,942536086e-01    0,000000000e+00    0,000000000e+00    0,000000000e+00    0,000000000e+00
     1094000000    2,026669830e-01   -1,327368170e-01    1,459021121e-02    2,356579900e-01    0,000000000e+00    0,000000000e+00    0,000000000e+00    0,000000000e+00
     1108000000    1,021173820e-01   -2,941528261e-01    1,632162929e-01    2,093202919e-01    0,000000000e+00    0,000000000e+00    0,000000000e+00    0,000000000e+00
     1122000000   -9,880195558e-02   -3,724657595e-01    3,111326396e-01    9,608135372e-02    0,000000000e+00    0,000000000e+00    0,000000000e+00    0,000000000e+00
     1136000000   -3,525133729e-01   -2,761634886e-01    3,903963864e-01   -1,424613148e-01    0,000000000e+00    0,000000000e+00    0,000000000e+00    0,000000000e+00
     1150000000   -4,092856348e-01    3,873898461e-02    2,498198599e-01   -4,304638207e-01    0,000000000e+00    0,000000000e+00    0,000000000e+00    0,000000000e+00
     1164000000   -1,624626964e-01    2,219127864e-01   -8,947308362e-02   -5,106325150e-01    0,000000000e+00    0,000000000e+00    0,000000000e+00    0,000000000e+00
     1178000000    7,138517499e-02    8,297421783e-02   -3,473451138e-01   -3,472691476e-01    0,000000000e+00    0,000000000e+00    0,000000000e+00    0,000000000e+00
     1192000000    7,814395428e-02   -1,732920557e-01   -4,481476545e-01   -8,306316286e-02    0,000000000e+00    0,000000000e+00    0,000000000e+00    0,000000000e+00
     1206000000   -1,634584069e-01   -3,282478452e-01   -3,644106090e-01    1,881054193e-01    0,000000000e+00    0,000000000e+00    0,000000000e+00    0,000000000e+00
     1220000000   -4,568118751e-01   -1,812469661e-01   -1,006552577e-01    3,253890574e-01    0,000000000e+00    0,000000000e+00    0,000000000e+00    0,000000000e+00
     1234000000   -4,768226445e-01    1,680097878e-01    1,370592862e-01    2,219361812e-01    0,000000000e+00    0,000000000e+00    0,000000000e+00    0,000000000e+00
     1248000000   -2,354156226e-01    3,551383913e-01    1,909677237e-01    3,791047260e-02    0,000000000e+00    0,000000000e+00    0,000000000e+00    0,000000000e+00
     1262000000    1,278843358e-02    3,306161463e-01    1,305721402e-01   -6,842689961e-02    0,000000000e+00    0,000000000e+00    0,000000000e+00    0,000000000e+00
     1276000000    1,594493389e-01    2,019114941e-01    5,218092352e-02   -9,351132065e-02    0,000000000e+00    0,000000000e+00    0,000000000e+00    0,000000000e+00
     1290000000    2,222884446e-01    2,929933928e-02    3,558204044e-03   -6,677286327e-02    0,000000000e+00    0,000000000e+00    0,000000000e+00    0,000000000e+00
     1304000000    2,078899741e-01   -1,499639601e-01   -1,496517379e-02   -3,114665672e-02    0,000000000e+00    0,000000000e+00    0,000000000e+00    0,000000000e+00
     1318000000    1,194983572e-01   -3,164609969e-01   -8,686224930e-03    2,034309134e-02    0,000000000e+00    0,000000000e+00    0,000000000e+00    0,000000000e+00
     1332000000   -6,393654644e-02   -4,399634898e-01    5,331716314e-02    6,221029535e-02    0,000000000e+00    0,000000000e+00    0,000000000e+00    0,000000000e+00
     1346000000   -3,326254189e-01   -4,391321242e-01    1,414541304e-01    3,692738339e-02    0,000000000e+00    0,000000000e+00    0,000000000e+00    0,000000000e+00
     1360000000   -5,588429570e-01   -2,512434423e-01    1,133365035e-01   -9,039070457e-02    0,000000000e+00    0,000000000e+00    0,000000000e+00    0,000000000e+00
     1374000000   -6,186220050e-01    3,100208752e-02    1,054482535e-01    4,776560143e-02    0,000000000e+00    0,000000000e+00    0,000000000e+00    0,000000000e+00
     1388000000   -5,107135177e-01    2,971854806e-01    2,232095152e-01    6,043740548e-03    0,000000000e+00    0,000000000e+00    0,000000000e+00    0,000000000e+00
     1402000000   -2,984447479e-01    4,140049517e-01    2,123417556e-01   -8,651549369e-02    0,000000000e+00    0,000000000e+00    0,000000000e+00    0,000000000e+00
     1416000000   -8,006454259e-02    4,202724993e-01    1,918843389e-01   -1,226487011e-01    0,000000000e+00    0,000000000e+00    0,000000000e+00    0,000000000e+00
     1430000000    7,996574789e-02    3,439459205e-01    1,516285092e-01   -1,188555136e-01    0,000000000e+00    0,000000000e+00    0,000000000e+00    0,000000000e+00
     1444000000    1,867625564e-01    2,010212988e-01    1,504117101e-01   -1,021232978e-01    0,000000000e+00    0,000000000e+00    0,000000000e+00    0,000000000e+00
     1458000000    2,260925025e-01    3,473056480e-02    1,315567493e-01   -8,089936525e-02    0,000000000e+00    0,000000000e+00    0,000000000e+00    0,000000000e+00
     1472000000    2,082890421e-01   -1,545872390e-01    1,371997297e-01   -6,075252593e-02    0,000000000e+00    0,000000000e+00    0,000000000e+00    0,000000000e+00
     1486000000    1,053502262e-01   -3,304489255e-01    1,576284468e-01   -6,684417371e-03    0,000000000e+00    0,000000000e+00    0,000000000e+00    0,000000000e+00
     1500000000   -9,422705323e-02   -4,638343751e-01    2,120679319e-01    4,899720848e-02    0,000000000e+00    0,000000000e+00    0,000000000e+00    0,000000000e+00
