! NanoVNA-App
! Date: 2025-09-26 09:56:02
! Start: 100MHz Stop: 1,5GHz Points: 101
! S-Parameter data: F S11 S21 S12 S22
# Hz S RI R 50
!     Frequency           S11_Real           S11_Imag           S21_Real           S21_Imag           S12_Real           S12_Imag           S22_Real           S22_Imag
      100000000   -2,906290442e-02   -4,463387653e-03    3,741004169e-01   -7,227165699e-01    0,000000000e+00    0,000000000e+00    0,000000000e+00    0,000000000e+00
      114000000   -1,694699004e-02    1,127427258e-02   -8,963403106e-02   -8,064208031e-01    0,000000000e+00    0,000000000e+00    0,000000000e+00    0,000000000e+00
      128000000    2,795538399e-03    1,048863120e-02   -5,156180263e-01   -6,212091446e-01    0,000000000e+00    0,000000000e+00    0,000000000e+00    0,000000000e+00
      142000000    1,391356252e-02   -2,584742615e-03   -7,682644129e-01   -2,363286912e-01    0,000000000e+00    0,000000000e+00    0,000000000e+00    0,000000000e+00
      156000000    1,564621367e-02   -1,387147326e-02   -7,708445787e-01    2,249655575e-01    0,000000000e+00    0,000000000e+00    0,000000000e+00    0,000000000e+00
      170000000    1,680804603e-02   -2,201886289e-02   -5,182539225e-01    6,059243083e-01    0,000000000e+00    0,000000000e+00    0,000000000e+00    0,000000000e+00
      184000000    2,131198160e-02   -3,688409552e-02   -1,010047570e-01    7,873687148e-01    0,000000000e+00    0,000000000e+00    0,000000000e+00    0,000000000e+00
      198000000    1,315153483e-02   -6,250751764e-02    3,442412317e-01    7,128630280e-01    0,000000000e+00    0,000000000e+00    0,000000000e+00    0,000000000e+00
      212000000   -1,875949465e-02   -8,124311268e-02    6,794931293e-01    4,099372923e-01    0,000000000e+00    0,000000000e+00    0,000000000e+00    0,000000000e+00
      226000000   -6,154724211e-02   -6,903903186e-02    7,967963815e-01   -3,069202043e-02    0,000000000e+00    0,000000000e+00    0,000000000e+00    0,000000000e+00
      240000000   -8,227838576e-02   -2,576864697e-02    6,470084786e-01   -4,674485326e-01    0,000000000e+00    0,000000000e+00    0,000000000e+00    0,000000000e+00
      254000000   -6,332343817e-02    1,702492684e-02    2,769145966e-01   -7,442033291e-01    0,000000000e+00    0,000000000e+00    0,000000000e+00    0,000000000e+00
      268000000   -2,351487242e-02    2,855969593e-02   -1,768872291e-01   -7,655925155e-01    0,000000000e+00    0,000000000e+00    0,000000000e+00    0,000000000e+00
      282000000    3,834952135e-03    1,118742209e-02   -5,628857017e-01   -5,379596353e-01    0,000000000e+00    0,000000000e+00    0,000000000e+00    0,000000000e+00
      296000000    9,080639109e-03   -7,626314182e-03   -7,619540691e-01   -1,399485916e-01    0,000000000e+00    0,000000000e+00    0,000000000e+00    0,000000000e+00
      310000000    1,088267285e-02   -1,569189690e-02   -7,125567198e-01    2,987247705e-01    0,000000000e+00    0,000000000e+00    0,000000000e+00    0,000000000e+00
      324000000    1,994439587e-02   -2,663812041e-02   -4,292444885e-01    6,373949647e-01    0,000000000e+00    0,000000000e+00    0,000000000e+00    0,000000000e+00
      338000000    2,527720481e-02   -5,242764577e-02   -9,593829513e-03    7,612361908e-01    0,000000000e+00    0,000000000e+00    0,000000000e+00    0,000000000e+00
      352000000    6,694002077e-03   -8,484964073e-02    4,067297280e-01    6,415884495e-01    0,000000000e+00    0,000000000e+00    0,000000000e+00    0,000000000e+00
      366000000   -3,562856093e-02   -9,539040178e-02    6,920544505e-01    3,123605847e-01    0,000000000e+00    0,000000000e+00    0,000000000e+00    0,000000000e+00
      380000000   -7,154822350e-02   -6,991628557e-02    7,494288087e-01   -1,249513850e-01    0,000000000e+00    0,000000000e+00    0,000000000e+00    0,000000000e+00
      394000000   -7,232029736e-02   -3,133930638e-02    5,486158133e-01   -5,225049257e-01    0,000000000e+00    0,000000000e+00    0,000000000e+00    0,000000000e+00
      408000000   -4,574600980e-02   -1,549144369e-02    1,610943824e-01   -7,327098846e-01    0,000000000e+00    0,000000000e+00    0,000000000e+00    0,000000000e+00
      422000000   -2,779928595e-02   -3,185495734e-02   -2,672550082e-01   -6,965093613e-01    0,000000000e+00    0,000000000e+00    0,000000000e+00    0,000000000e+00
      436000000   -4,017427191e-02   -5,199142918e-02   -6,040647030e-01   -4,338997304e-01    0,000000000e+00    0,000000000e+00    0,000000000e+00    0,000000000e+00
      450000000   -6,742138416e-02   -4,452913627e-02   -7,414948344e-01   -2,484664321e-02    0,000000000e+00    0,000000000e+00    0,000000000e+00    0,000000000e+00
      464000000   -7,302971184e-02   -1,252981834e-02   -6,220168471e-01    3,955241740e-01    0,000000000e+00    0,000000000e+00    0,000000000e+00    0,000000000e+00
      478000000   -4,819872230e-02    1,096779294e-02   -2,867165208e-01    6,693154573e-01    0,000000000e+00    0,000000000e+00    0,000000000e+00    0,000000000e+00
      492000000   -1,696323417e-02    5,043815821e-03    1,351344734e-01    7,043008208e-01    0,000000000e+00    0,000000000e+00    0,000000000e+00    0,000000000e+00
      506000000   -4,351931624e-03   -1,622265577e-02    4,985047281e-01    5,075320005e-01    0,000000000e+00    0,000000000e+00    0,000000000e+00    0,000000000e+00
      520000000   -7,173528895e-03   -2,971366979e-02    6,903894544e-01    1,433492452e-01    0,000000000e+00    0,000000000e+00    0,000000000e+00    0,000000000e+00
      534000000   -3,614074551e-03   -3,528118879e-02    6,451743245e-01   -2,609106600e-01    0,000000000e+00    0,000000000e+00    0,000000000e+00    0,000000000e+00
      548000000    8,676268160e-03   -5,249306932e-02    3,858028650e-01   -5,637468100e-01    0,000000000e+00    0,000000000e+00    0,000000000e+00    0,000000000e+00
      562000000    6,021505222e-03   -8,996239305e-02    8,842915297e-03   -6,731387377e-01    0,000000000e+00    0,000000000e+00    0,000000000e+00    0,000000000e+00
      576000000   -3,146974742e-02   -1,266386807e-01   -3,630167246e-01   -5,616781712e-01    0,000000000e+00    0,000000000e+00    0,000000000e+00    0,000000000e+00
      590000000   -9,528961778e-02   -1,275175959e-01   -6,174303293e-01   -2,708315551e-01    0,000000000e+00    0,000000000e+00    0,000000000e+00    0,000000000e+00
      604000000   -1,429121345e-01   -7,738570869e-02   -6,684235334e-01    1,262551397e-01    0,000000000e+00    0,000000000e+00    0,000000000e+00    0,000000000e+00
      618000000   -1,369508058e-01   -1,102225948e-02   -4,760686457e-01    4,863775373e-01    0,000000000e+00    0,000000000e+00    0,000000000e+00    0,000000000e+00
      632000000   -9,170015901e-02    2,098863013e-02   -1,145942807e-01    6,640314460e-01    0,000000000e+00    0,000000000e+00    0,000000000e+00    0,000000000e+00
      646000000   -5,515168980e-02    1,064759586e-02    2,744404674e-01    6,041992307e-01    0,000000000e+00    0,000000000e+00    0,000000000e+00    0,000000000e+00
      660000000   -4,917329922e-02   -9,552906267e-03    5,582028627e-01    3,391497135e-01    0,000000000e+00    0,000000000e+00    0,000000000e+00    0,000000000e+00
      674000000   -5,678086355e-02   -1,032700483e-02    6,448038816e-01   -4,105651751e-02    0,000000000e+00    0,000000000e+00    0,000000000e+00    0,000000000e+00
      688000000   -4,877138510e-02    3,318623407e-03    4,927358329e-01   -4,024288654e-01    0,000000000e+00    0,000000000e+00    0,000000000e+00    0,000000000e+00
      702000000   -2,388990484e-02    6,674589124e-03    1,575053632e-01   -6,006333828e-01    0,000000000e+00    0,000000000e+00    0,000000000e+00    0,000000000e+00
      716000000   -8,775796741e-04   -1,029419713e-02   -2,191552073e-01   -5,762708783e-01    0,000000000e+00    0,000000000e+00    0,000000000e+00    0,000000000e+00
      730000000    8,815573528e-03   -3,613722697e-02   -5,099449158e-01   -3,336442113e-01    0,000000000e+00    0,000000000e+00    0,000000000e+00    0,000000000e+00
      744000000    1,648186520e-02   -6,033896655e-02   -6,019567847e-01    3,366938233e-02    0,000000000e+00    0,000000000e+00    0,000000000e+00    0,000000000e+00
      758000000    2,250021696e-02   -1,044136807e-01   -4,544707537e-01    3,786152303e-01    0,000000000e+00    0,000000000e+00    0,000000000e+00    0,000000000e+00
      772000000   -5,389726255e-03   -1,746268272e-01   -1,392842382e-01    5,583627820e-01    0,000000000e+00    0,000000000e+00    0,000000000e+00    0,000000000e+00
      786000000   -1,067044064e-01   -2,339449227e-01    2,125105113e-01    5,191296339e-01    0,000000000e+00    0,000000000e+00    0,000000000e+00    0,000000000e+00
      800000000   -2,681213319e-01   -1,938849241e-01    4,721649289e-01    2,741862535e-01    0,000000000e+00    0,000000000e+00    0,000000000e+00    0,000000000e+00
      814000000   -3,657146096e-01    4,785843194e-03    5,074661374e-01   -9,087475389e-02    0,000000000e+00    0,000000000e+00    0,000000000e+00    0,000000000e+00
      828000000   -2,469846159e-01    2,355770320e-01    2,786106765e-01   -3,544704914e-01    0,000000000e+00    0,000000000e+00    0,000000000e+00    0,000000000e+00
      842000000    1,520653814e-02    2,794159055e-01   -1,896404289e-02   -3,618179858e-01    0,000000000e+00    0,000000000e+00    0,000000000e+00    0,000000000e+00
      856000000    2,155984938e-01    1,149473488e-01   -1,899200380e-01   -2,028346807e-01    0,000000000e+00    0,000000000e+00    0,000000000e+00    0,000000000e+00
      870000000    2,404139340e-01   -1,512335837e-01   -2,007421702e-01   -2,362275496e-02    0,000000000e+00    0,000000000e+00    0,000000000e+00    0,000000000e+00
      884000000    3,815750405e-02   -3,897322714e-01   -1,020160988e-01    7,265464216e-02    0,000000000e+00    0,000000000e+00    0,000000000e+00    0,000000000e+00
      898000000   -3,720116019e-01   -3,446362913e-01   -1,557749137e-02    2,696950361e-02    0,000000000e+00    0,000000000e+00    0,000000000e+00    0,000000000e+00
      912000000   -4,704559743e-01    1,391513944e-01   -1,206848174e-01    2,781203948e-02    0,000000000e+00    0,000000000e+00    0,000000000e+00    0,000000000e+00
      926000000   -9,475630522e-02    3,519098759e-01   -1,298298389e-01    1,294233650e-01    0,000000000e+00    0,000000000e+00    0,000000000e+00    0,000000000e+00
      940000000    1,857069582e-01    1,974530816e-01   -4,131118208e-02    2,132325619e-01    0,000000000e+00    0,000000000e+00    0,000000000e+00    0,000000000e+00
      954000000    2,581200600e-01   -5,034217611e-02    7,588642836e-02    2,283071429e-01    0,000000000e+00    0,000000000e+00    0,000000000e+00    0,000000000e+00
      968000000    1,747654527e-01   -2,646235526e-01    1,890340000e-01    1,818980426e-01    0,000000000e+00    0,000000000e+00    0,000000000e+00    0,000000000e+00
      982000000   -2,066813037e-02   -3,981039524e-01    2,776792943e-01    8,330968022e-02    0,000000000e+00    0,000000000e+00    0,000000000e+00    0,000000000e+00
      996000000   -2,763968408e-01   -3,775041699e-01    3,094369769e-01   -7,903455943e-02    0,000000000e+00    0,000000000e+00    0,000000000e+00    0,000000000e+00
     1010000000   -4,747710526e-01   -1,756751984e-01    2,228734493e-01   -2,506927848e-01    0,000000000e+00    0,000000000e+00    0,000000000e+00    0,000000000e+00
     1024000000   -4,659740627e-01    1,237757057e-01    2,161488123e-02   -3,295507133e-01    0,000000000e+00    0,000000000e+00    0,000000000e+00    0,000000000e+00
     1038000000   -2,606562674e-01    3,030559123e-01   -1,745960265e-01   -2,475115806e-01    0,000000000e+00    0,000000000e+00    0,000000000e+00    0,000000000e+00
     1052000000   -3,044990078e-02    3,128274977e-01   -2,597255409e-01   -8,018414676e-02    0,000000000e+00    0,000000000e+00    0,000000000e+00    0,000000000e+00
     1066000000    1,290095299e-01    2,045081109e-01   -2,255442739e-01    8,826161176e-02    0,000000000e+00    0,000000000e+00    0,000000000e+00    0,000000000e+00
     1080000000    2,132667899e-01    4,813653603e-02   -1,234696507e-01    1,914741695e-01    0,000000000e+00    0,000000000e+00    0,000000000e+00    0,000000000e+00
     1094000000    2,072978318e-01   -1,340747923e-01    1,234198734e-02    2,359355688e-01    0,000000000e+00    0,000000000e+00    0,000000000e+00    0,000000000e+00
     1108000000    1,008266881e-01   -2,907077074e-01    1,652340591e-01    2,102409303e-01    0,000000000e+00    0,000000000e+00    0,000000000e+00    0,000000000e+00
     1122000000   -1,037214994e-01   -3,762360513e-01    3,118969202e-01    9,749656171e-02    0,000000000e+00    0,000000000e+00    0,000000000e+00    0,000000000e+00
     1136000000   -3,488229811e-01   -2,695491612e-01    3,937539756e-01   -1,421075612e-01    0,000000000e+00    0,000000000e+00    0,000000000e+00    0,000000000e+00
     1150000000   -4,132551849e-01    3,931515291e-02    2,482706308e-01   -4,285941720e-01    0,000000000e+00    0,000000000e+00    0,000000000e+00    0,000000000e+00
     1164000000   -1,636183113e-01    2,237078547e-01   -8,938997239e-02   -5,147194862e-01    0,000000000e+00    0,000000000e+00    0,000000000e+00    0,000000000e+00
     1178000000    7,309839875e-02    8,690876514e-02   -3,516276181e-01   -3,441674113e-01    0,000000000e+00    0,000000000e+00    0,000000000e+00    0,000000000e+00
     1192000000    7,765152305e-02   -1,735389978e-01   -4,457907975e-01   -8,492475748e-02    0,000000000e+00    0,000000000e+00    0,000000000e+00    0,000000000e+00
     1206000000   -1,613211781e-01   -3,258121610e-01   -3,629836440e-01    1,881990880e-01    0,000000000e+00    0,000000000e+00    0,000000000e+00    0,000000000e+00
     1220000000   -4,582903981e-01   -1,837477684e-01   -1,003161520e-01    3,236472011e-01    0,000000000e+00    0,000000000e+00    0,000000000e+00    0,000000000e+00
     1234000000   -4,742846191e-01    1,646799892e-01    1,390901059e-01    2,161448449e-01    0,000000000e+00    0,000000000e+00    0,000000000e+00    0,000000000e+00
     1248000000   -2,360155135e-01    3,544006348e-01    1,879071146e-01    3,176840395e-02    0,000000000e+00    0,000000000e+00    0,000000000e+00    0,000000000e+00
     1262000000    1,059236284e-02    3,286150694e-01    1,253360212e-01   -7,293567061e-02    0,000000000e+00    0,000000000e+00    0,000000000e+00    0,000000000e+00
     1276000000    1,607031971e-01    2,007664144e-01    5,280212313e-02   -9,370644391e-02    0,000000000e+00    0,000000000e+00    0,000000000e+00    0,000000000e+00
     1290000000    2,252059132e-01    3,151224554e-02    4,386206158e-03   -6,809289008e-02    0,000000000e+00    0,000000000e+00    0,000000000e+00    0,000000000e+00
     1304000000    2,098518163e-01   -1,504742354e-01   -1,634679921e-02   -3,395789489e-02    0,000000000e+00    0,000000000e+00    0,000000000e+00    0,000000000e+00
     1318000000    1,206131727e-01   -3,192765415e-01   -2,446085447e-03    2,033399604e-02    0,000000000e+00    0,000000000e+00    0,000000000e+00    0,000000000e+00
     1332000000   -6,715942174e-02   -4,406920373e-01    4,595955834e-02    5,855942145e-02    0,000000000e+00    0,000000000e+00    0,000000000e+00    0,000000000e+00
     1346000000   -3,368459642e-01   -4,436081350e-01    1,432477385e-01    3,236111253e-02    0,000000000e+00    0,000000000e+00    0,000000000e+00    0,000000000e+00
     1360000000   -5,585619211e-01   -2,556170523e-01    1,237502322e-01   -9,341973811e-02    0,000000000e+00    0,000000000e+00    0,000000000e+00    0,000000000e+00
     1374000000   -6,295179725e-01    3,747007623e-02    8,401401341e-02    6,137606874e-02    0,000000000e+00    0,000000000e+00    0,000000000e+00    0,000000000e+00
     1388000000   -5,107960701e-01    2,959606946e-01    2,181794047e-01    6,754620117e-04    0,000000000e+00    0,000000000e+00    0,000000000e+00    0,000000000e+00
     1402000000   -3,105643690e-01    4,217748642e-01    2,117532492e-01   -7,770182937e-02    0,000000000e+00    0,000000000e+00    0,000000000e+00    0,000000000e+00
     1416000000   -9,141450375e-02    4,236944020e-01    1,768706441e-01   -1,178985536e-01    0,000000000e+00    0,000000000e+00    0,000000000e+00    0,000000000e+00
     1430000000    7,444878668e-02    3,390620649e-01    1,544021368e-01   -1,137524322e-01    0,000000000e+00    0,000000000e+00    0,000000000e+00    0,000000000e+00
     1444000000    1,789319664e-01    1,981327236e-01    1,422121525e-01   -1,125138551e-01    0,000000000e+00    0,000000000e+00    0,000000000e+00    0,000000000e+00
     1458000000    2,291004956e-01    3,394298255e-02    1,450321525e-01   -7,403817028e-02    0,000000000e+00    0,000000000e+00    0,000000000e+00    0,000000000e+00
     1472000000    2,119814306e-01   -1,557234079e-01    1,448035836e-01   -5,552998930e-02    0,000000000e+00    0,000000000e+00    0,000000000e+00    0,000000000e+00
     1486000000    1,079296321e-01   -3,318482637e-01    1,602172852e-01   -1,090243110e-03    0,000000000e+00    0,000000000e+00    0,000000000e+00    0,000000000e+00
     1500000000   -9,731380641e-02   -4,627634585e-01    2,005952895e-01    5,750738829e-02    0,000000000e+00    0,000000000e+00    0,000000000e+00    0,000000000e+00
