! NanoVNA-App
! Date: 2025-09-26 09:56:09
! Start: 100MHz Stop: 1,5GHz Points: 101
! S-Parameter data: F S11 S21 S12 S22
# Hz S RI R 50
!     Frequency           S11_Real           S11_Imag           S21_Real           S21_Imag           S12_Real           S12_Imag           S22_Real           S22_Imag
      100000000   -2,906444669e-02   -4,451264162e-03    3,741827905e-01   -7,227163315e-01    0,000000000e+00    0,000000000e+00    0,000000000e+00    0,000000000e+00
      114000000   -1,694110781e-02    1,127904281e-02   -8,968539536e-02   -8,063777089e-01    0,000000000e+00    0,000000000e+00    0,000000000e+00    0,000000000e+00
      128000000    2,776525449e-03    1,058360375e-02   -5,156746507e-01   -6,211341619e-01    0,000000000e+00    0,000000000e+00    0,000000000e+00    0,000000000e+00
      142000000    1,391858608e-02   -2,590118675e-03   -7,683948874e-01   -2,363831699e-01    0,000000000e+00    0,000000000e+00    0,000000000e+00    0,000000000e+00
      156000000    1,565412246e-02   -1,363789570e-02   -7,731037140e-01    2,251746058e-01    0,000000000e+00    0,000000000e+00    0,000000000e+00    0,000000000e+00
      170000000    1,691760868e-02   -2,202991024e-02   -5,182502866e-01    6,061909795e-01    0,000000000e+00    0,000000000e+00    0,000000000e+00    0,000000000e+00
      184000000    2,132598870e-02   -3,694535419e-02   -1,004994288e-01    7,873347998e-01    0,000000000e+00    0,000000000e+00    0,000000000e+00    0,000000000e+00
      198000000    1,312360633e-02   -6,251116842e-02    3,441936374e-01    7,131628394e-01    0,000000000e+00    0,000000000e+00    0,000000000e+00    0,000000000e+00
      212000000   -1,876297966e-02   -8,122462034e-02    6,795158386e-01    4,100151658e-01    0,000000000e+00    0,000000000e+00    0,000000000e+00    0,000000000e+00
      226000000   -6,155574322e-02   -6,897810847e-02    7,967651486e-01   -3,067773208e-02    0,000000000e+00    0,000000000e+00    0,000000000e+00    0,000000000e+00
      240000000   -8,224511892e-02   -2,560570277e-02    6,475005150e-01   -4,675392807e-01    0,000000000e+00    0,000000000e+00    0,000000000e+00    0,000000000e+00
      254000000   -6,319696456e-02    1,689576171e-02    2,771321833e-01   -7,442008257e-01    0,000000000e+00    0,000000000e+00    0,000000000e+00    0,000000000e+00
      268000000   -2,368205786e-02    2,854066715e-02   -1,772526801e-01   -7,661152482e-01    0,000000000e+00    0,000000000e+00    0,000000000e+00    0,000000000e+00
      282000000    3,931613639e-03    1,137521677e-02   -5,627995729e-01   -5,379768610e-01    0,000000000e+00    0,000000000e+00    0,000000000e+00    0,000000000e+00
      296000000    8,987625130e-03   -7,667028345e-03   -7,620344162e-01   -1,399092078e-01    0,000000000e+00    0,000000000e+00    0,000000000e+00    0,000000000e+00
      310000000    1,087909006e-02   -1,583801955e-02   -7,142708302e-01    2,991200984e-01    0,000000000e+00    0,000000000e+00    0,000000000e+00    0,000000000e+00
      324000000    1,994074136e-02   -2,675355226e-02   -4,271638095e-01    6,384655237e-01    0,000000000e+00    0,000000000e+00    0,000000000e+00    0,000000000e+00
      338000000    2,538775094e-02   -5,274729431e-02   -7,490520831e-03    7,654849291e-01    0,000000000e+00    0,000000000e+00    0,000000000e+00    0,000000000e+00
      352000000    7,024573162e-03   -8,526919037e-02    4,073163867e-01    6,408867240e-01    0,000000000e+00    0,000000000e+00    0,000000000e+00    0,000000000e+00
      366000000   -3,567226231e-02   -9,549209476e-02    6,926301122e-01    3,124533296e-01    0,000000000e+00    0,000000000e+00    0,000000000e+00    0,000000000e+00
      380000000   -7,152570784e-02   -6,999435276e-02    7,495661378e-01   -1,255860925e-01    0,000000000e+00    0,000000000e+00    0,000000000e+00    0,000000000e+00
      394000000   -7,235084474e-02   -3,137625754e-02    5,484883785e-01   -5,226234794e-01    0,000000000e+00    0,000000000e+00    0,000000000e+00    0,000000000e+00
      408000000   -4,578246921e-02   -1,569806226e-02    1,638159007e-01   -7,336897254e-01    0,000000000e+00    0,000000000e+00    0,000000000e+00    0,000000000e+00
      422000000   -2,756297775e-02   -3,214416280e-02   -2,664276659e-01   -6,968311667e-01    0,000000000e+00    0,000000000e+00    0,000000000e+00    0,000000000e+00
      436000000   -3,977479041e-02   -5,224300176e-02   -6,036750078e-01   -4,346857667e-01    0,000000000e+00    0,000000000e+00    0,000000000e+00    0,000000000e+00
      450000000   -6,716018170e-02   -4,447144270e-02   -7,409876585e-01   -2,470370196e-02    0,000000000e+00    0,000000000e+00    0,000000000e+00    0,000000000e+00
      464000000   -7,336609811e-02   -1,271710079e-02   -6,215054393e-01    3,951825500e-01    0,000000000e+00    0,000000000e+00    0,000000000e+00    0,000000000e+00
      478000000   -4,810474068e-02    1,075516455e-02   -2,867018282e-01    6,672434807e-01    0,000000000e+00    0,000000000e+00    0,000000000e+00    0,000000000e+00
      492000000   -1,661997847e-02    5,278345197e-03    1,341818720e-01    7,048735023e-01    0,000000000e+00    0,000000000e+00    0,000000000e+00    0,000000000e+00
      506000000   -4,675426055e-03   -1,599618979e-02    4,980572462e-01    5,073443055e-01    0,000000000e+00    0,000000000e+00    0,000000000e+00    0,000000000e+00
      520000000   -6,868219003e-03   -2,962971292e-02    6,909034252e-01    1,449860930e-01    0,000000000e+00    0,000000000e+00    0,000000000e+00    0,000000000e+00
      534000000   -3,418285633e-03   -3,521145880e-02    6,454606652e-01   -2,599382997e-01    0,000000000e+00    0,000000000e+00    0,000000000e+00    0,000000000e+00
      548000000    8,512250148e-03   -5,233041570e-02    3,855055571e-01   -5,650442243e-01    0,000000000e+00    0,000000000e+00    0,000000000e+00    0,000000000e+00
      562000000    6,208917592e-03   -8,981481194e-02    8,141743019e-03   -6,728050709e-01    0,000000000e+00    0,000000000e+00    0,000000000e+00    0,000000000e+00
      576000000   -3,187116235e-02   -1,267205775e-01   -3,630924523e-01   -5,628523827e-01    0,000000000e+00    0,000000000e+00    0,000000000e+00    0,000000000e+00
      590000000   -9,565342963e-02   -1,274581552e-01   -6,196824312e-01   -2,746423483e-01    0,000000000e+00    0,000000000e+00    0,000000000e+00    0,000000000e+00
      604000000   -1,429876387e-01   -7,725121081e-02   -6,688737273e-01    1,258043051e-01    0,000000000e+00    0,000000000e+00    0,000000000e+00    0,000000000e+00
      618000000   -1,370623857e-01   -1,118072774e-02   -4,763489962e-01    4,864656031e-01    0,000000000e+00    0,000000000e+00    0,000000000e+00    0,000000000e+00
      632000000   -9,205282480e-02    2,175460197e-02   -1,133157909e-01    6,638214588e-01    0,000000000e+00    0,000000000e+00    0,000000000e+00    0,000000000e+00
      646000000   -5,515549704e-02    1,056899503e-02    2,747228742e-01    6,049059033e-01    0,000000000e+00    0,000000000e+00    0,000000000e+00    0,000000000e+00
      660000000   -4,791235551e-02   -9,262046777e-03    5,587598085e-01    3,401537836e-01    0,000000000e+00    0,000000000e+00    0,000000000e+00    0,000000000e+00
      674000000   -5,638235807e-02   -1,067702286e-02    6,444429159e-01   -4,120170325e-02    0,000000000e+00    0,000000000e+00    0,000000000e+00    0,000000000e+00
      688000000   -4,911154136e-02    4,157854710e-03    4,927017391e-01   -4,025335908e-01    0,000000000e+00    0,000000000e+00    0,000000000e+00    0,000000000e+00
      702000000   -2,528628334e-02    5,999093875e-03    1,645106226e-01   -6,028415561e-01    0,000000000e+00    0,000000000e+00    0,000000000e+00    0,000000000e+00
      716000000   -1,142406138e-03   -1,101548783e-02   -2,195495814e-01   -5,765982866e-01    0,000000000e+00    0,000000000e+00    0,000000000e+00    0,000000000e+00
      730000000    9,679872543e-03   -3,599375859e-02   -5,100522041e-01   -3,333111107e-01    0,000000000e+00    0,000000000e+00    0,000000000e+00    0,000000000e+00
      744000000    1,671502925e-02   -6,152136251e-02   -6,018695235e-01    3,395573050e-02    0,000000000e+00    0,000000000e+00    0,000000000e+00    0,000000000e+00
      758000000    2,171752788e-02   -1,040420234e-01   -4,540812969e-01    3,776507974e-01    0,000000000e+00    0,000000000e+00    0,000000000e+00    0,000000000e+00
      772000000   -4,931940697e-03   -1,751299351e-01   -1,384651661e-01    5,581533909e-01    0,000000000e+00    0,000000000e+00    0,000000000e+00    0,000000000e+00
      786000000   -1,061389968e-01   -2,344610840e-01    2,123094648e-01    5,190090537e-01    0,000000000e+00    0,000000000e+00    0,000000000e+00    0,000000000e+00
      800000000   -2,678072155e-01   -1,934506744e-01    4,725068212e-01    2,743332982e-01    0,000000000e+00    0,000000000e+00    0,000000000e+00    0,000000000e+00
      814000000   -3,668537140e-01    5,960776471e-03    5,069724321e-01   -9,127808362e-02    0,000000000e+00    0,000000000e+00    0,000000000e+00    0,000000000e+00
      828000000   -2,469761819e-01    2,359137982e-01    2,784346044e-01   -3,533709645e-01    0,000000000e+00    0,000000000e+00    0,000000000e+00    0,000000000e+00
      842000000    1,636719331e-02    2,797875404e-01   -1,872783713e-02   -3,615782261e-01    0,000000000e+00    0,000000000e+00    0,000000000e+00    0,000000000e+00
      856000000    2,153955102e-01    1,147865951e-01   -1,896000952e-01   -2,025870085e-01    0,000000000e+00    0,000000000e+00    0,000000000e+00    0,000000000e+00
      870000000    2,406851798e-01   -1,510936022e-01   -1,999329627e-01   -2,369127981e-02    0,000000000e+00    0,000000000e+00    0,000000000e+00    0,000000000e+00
      884000000    3,728219122e-02   -3,897125423e-01   -1,029308662e-01    7,157024741e-02    0,000000000e+00    0,000000000e+00    0,000000000e+00    0,000000000e+00
      898000000   -3,720356226e-01   -3,450690508e-01   -1,565694064e-02    2,721713670e-02    0,000000000e+00    0,000000000e+00    0,000000000e+00    0,000000000e+00
      912000000   -4,693226814e-01    1,414020956e-01   -1,215977594e-01    2,279618755e-02    0,000000000e+00    0,000000000e+00    0,000000000e+00    0,000000000e+00
      926000000   -9,537411481e-02    3,521208167e-01   -1,281433851e-01    1,306456327e-01    0,000000000e+00    0,000000000e+00    0,000000000e+00    0,000000000e+00
      940000000    1,855708808e-01    1,962811798e-01   -4,169514030e-02    2,132454216e-01    0,000000000e+00    0,000000000e+00    0,000000000e+00    0,000000000e+00
      954000000    2,550325394e-01   -4,777223244e-02    7,505352795e-02    2,273255289e-01    0,000000000e+00    0,000000000e+00    0,000000000e+00    0,000000000e+00
      968000000    1,761821210e-01   -2,664308846e-01    1,890178174e-01    1,816617846e-01    0,000000000e+00    0,000000000e+00    0,000000000e+00    0,000000000e+00
      982000000   -2,024283819e-02   -3,993031383e-01    2,804298103e-01    8,141660690e-02    0,000000000e+00    0,000000000e+00    0,000000000e+00    0,000000000e+00
      996000000   -2,767600715e-01   -3,826237917e-01    3,095619678e-01   -7,702543586e-02    0,000000000e+00    0,000000000e+00    0,000000000e+00    0,000000000e+00
     1010000000   -4,776045978e-01   -1,723657548e-01    2,221867442e-01   -2,523509860e-01    0,000000000e+00    0,000000000e+00    0,000000000e+00    0,000000000e+00
     1024000000   -4,601872563e-01    1,191170365e-01    2,082365006e-02   -3,305913508e-01    0,000000000e+00    0,000000000e+00    0,000000000e+00    0,000000000e+00
     1038000000   -2,663391829e-01    3,035521209e-01   -1,725971997e-01   -2,481354177e-01    0,000000000e+00    0,000000000e+00    0,000000000e+00    0,000000000e+00
     1052000000   -3,509746492e-02    3,096328080e-01   -2,563510537e-01   -7,492377609e-02    0,000000000e+00    0,000000000e+00    0,000000000e+00    0,000000000e+00
     1066000000    1,301857233e-01    2,085386068e-01   -2,287582308e-01    8,421679586e-02    0,000000000e+00    0,000000000e+00    0,000000000e+00    0,000000000e+00
     1080000000    2,142243981e-01    4,533627629e-02   -1,240907535e-01    1,936444491e-01    0,000000000e+00    0,000000000e+00    0,000000000e+00    0,000000000e+00
     1094000000    2,065327466e-01   -1,295019388e-01    1,311362162e-02    2,349244505e-01    0,000000000e+00    0,000000000e+00    0,000000000e+00    0,000000000e+00
     1108000000    1,013499349e-01   -2,932335436e-01    1,661017686e-01    2,100285739e-01    0,000000000e+00    0,000000000e+00    0,000000000e+00    0,000000000e+00
     1122000000   -1,040642932e-01   -3,733100593e-01    3,150042593e-01    9,443505853e-02    0,000000000e+00    0,000000000e+00    0,000000000e+00    0,000000000e+00
     1136000000   -3,486997485e-01   -2,744690776e-01    3,892234564e-01   -1,424961090e-01    0,000000000e+00    0,000000000e+00    0,000000000e+00    0,000000000e+00
     1150000000   -4,066814482e-01    3,469424695e-02    2,483066320e-01   -4,273382425e-01    0,000000000e+00    0,000000000e+00    0,000000000e+00    0,000000000e+00
     1164000000   -1,570190638e-01    2,219821811e-01   -8,402401954e-02   -5,087520480e-01    0,000000000e+00    0,000000000e+00    0,000000000e+00    0,000000000e+00
     1178000000    7,393687218e-02    8,249168843e-02   -3,475381136e-01   -3,463896215e-01    0,000000000e+00    0,000000000e+00    0,000000000e+00    0,000000000e+00
     1192000000    7,881159335e-02   -1,738284826e-01   -4,454531372e-01   -8,680454642e-02    0,000000000e+00    0,000000000e+00    0,000000000e+00    0,000000000e+00
     1206000000   -1,590434909e-01   -3,311980069e-01   -3,637852669e-01    1,862516701e-01    0,000000000e+00    0,000000000e+00    0,000000000e+00    0,000000000e+00
     1220000000   -4,574128389e-01   -1,816621423e-01   -1,007540524e-01    3,257223666e-01    0,000000000e+00    0,000000000e+00    0,000000000e+00    0,000000000e+00
     1234000000   -4,730200768e-01    1,699870080e-01    1,373230666e-01    2,189156562e-01    0,000000000e+00    0,000000000e+00    0,000000000e+00    0,000000000e+00
     1248000000   -2,370138168e-01    3,548473716e-01    1,843884736e-01    3,139880672e-02    0,000000000e+00    0,000000000e+00    0,000000000e+00    0,000000000e+00
     1262000000    3,938484937e-03    3,278175890e-01    1,274117976e-01   -7,297845185e-02    0,000000000e+00    0,000000000e+00    0,000000000e+00    0,000000000e+00
     1276000000    1,575908661e-01    2,034973651e-01    5,813119188e-02   -9,299381822e-02    0,000000000e+00    0,000000000e+00    0,000000000e+00    0,000000000e+00
     1290000000    2,227026969e-01    2,839387022e-02    5,474531557e-03   -7,321936637e-02    0,000000000e+00    0,000000000e+00    0,000000000e+00    0,000000000e+00
     1304000000    2,054936588e-01   -1,498127431e-01   -1,562283002e-02   -2,960573137e-02    0,000000000e+00    0,000000000e+00    0,000000000e+00    0,000000000e+00
     1318000000    1,143508032e-01   -3,166991174e-01   -9,133679792e-03    1,961937174e-02    0,000000000e+00    0,000000000e+00    0,000000000e+00    0,000000000e+00
     1332000000   -6,503415108e-02   -4,435196817e-01    4,975165799e-02    5,503509194e-02    0,000000000e+00    0,000000000e+00    0,000000000e+00    0,000000000e+00
     1346000000   -3,275242150e-01   -4,435661733e-01    1,458108872e-01    3,969345614e-02    0,000000000e+00    0,000000000e+00    0,000000000e+00    0,000000000e+00
     1360000000   -5,665032864e-01   -2,445584089e-01    9,520713240e-02   -8,665522188e-02    0,000000000e+00    0,000000000e+00    0,000000000e+00    0,000000000e+00
     1374000000   -6,278615594e-01    2,362133749e-02    9,698096663e-02    4,917702079e-02    0,000000000e+00    0,000000000e+00    0,000000000e+00    0,000000000e+00
     1388000000   -5,140591860e-01    2,875500619e-01    2,126260400e-01   -4,669861868e-03    0,000000000e+00    0,000000000e+00    0,000000000e+00    0,000000000e+00
     1402000000   -3,037025332e-01    4,236512482e-01    2,091415673e-01   -7,370939106e-02    0,000000000e+00    0,000000000e+00    0,000000000e+00    0,000000000e+00
     1416000000   -8,812279254e-02    4,215806127e-01    1,933421940e-01   -1,157863811e-01    0,000000000e+00    0,000000000e+00    0,000000000e+00    0,000000000e+00
     1430000000    7,851862162e-02    3,416442871e-01    1,589531451e-01   -1,116538420e-01    0,000000000e+00    0,000000000e+00    0,000000000e+00    0,000000000e+00
     1444000000    1,884872466e-01    1,990463138e-01    1,513746232e-01   -1,002980247e-01    0,000000000e+00    0,000000000e+00    0,000000000e+00    0,000000000e+00
     1458000000    2,290865481e-01    3,086081706e-02    1,353169531e-01   -8,833344281e-02    0,000000000e+00    0,000000000e+00    0,000000000e+00    0,000000000e+00
     1472000000    2,098456472e-01   -1,502839625e-01    1,526379883e-01   -5,025471002e-02    0,000000000e+00    0,000000000e+00    0,000000000e+00    0,000000000e+00
     1486000000    1,079820842e-01   -3,329358697e-01    1,673916131e-01   -1,078286022e-02    0,000000000e+00    0,000000000e+00    0,000000000e+00    0,000000000e+00
     1500000000   -1,012505144e-01   -4,679879844e-01    1,935479045e-01    5,280794948e-02    0,000000000e+00    0,000000000e+00    0,000000000e+00    0,000000000e+00
