! NanoVNA-App
! Date: 2025-09-25 15:07:51
! Start: 100MHz Stop: 1,5GHz Points: 101
! S-Parameter data: F S11 S21 S12 S22
# Hz S RI R 50
!     Frequency           S11_Real           S11_Imag           S21_Real           S21_Imag           S12_Real           S12_Imag           S22_Real           S22_Imag
      100000000    3,113917261e-02    2,865453251e-02    4,348564148e-01   -6,685899496e-01    0,000000000e+00    0,000000000e+00    0,000000000e+00    0,000000000e+00
      114000000    5,757427216e-02    5,507338792e-03    7,722851820e-03   -7,910060287e-01    0,000000000e+00    0,000000000e+00    0,000000000e+00    0,000000000e+00
      128000000    6,730182469e-02   -3,786916286e-02   -4,103260338e-01   -6,711509824e-01    0,000000000e+00    0,000000000e+00    0,000000000e+00    0,000000000e+00
      142000000    4,472960532e-02   -8,422717452e-02   -7,030178308e-01   -3,531703651e-01    0,000000000e+00    0,000000000e+00    0,000000000e+00    0,000000000e+00
      156000000   -5,732399411e-03   -1,066806540e-01   -7,867022753e-01    7,395493984e-02    0,000000000e+00    0,000000000e+00    0,000000000e+00    0,000000000e+00
      170000000   -5,763715506e-02   -9,061096609e-02   -6,277520061e-01    4,872287810e-01    0,000000000e+00    0,000000000e+00    0,000000000e+00    0,000000000e+00
      184000000   -8,374343812e-02   -4,951696098e-02   -2,650652826e-01    7,513558269e-01    0,000000000e+00    0,000000000e+00    0,000000000e+00    0,000000000e+00
      198000000   -7,962559909e-02   -1,044137776e-02    1,833021045e-01    7,731700540e-01    0,000000000e+00    0,000000000e+00    0,000000000e+00    0,000000000e+00
      212000000   -6,231142208e-02    1,319826860e-02    5,691488981e-01    5,492056012e-01    0,000000000e+00    0,000000000e+00    0,000000000e+00    0,000000000e+00
      226000000   -4,325925559e-02    2,763711102e-02    7,707105875e-01    1,545968503e-01    0,000000000e+00    0,000000000e+00    0,000000000e+00    0,000000000e+00
      240000000   -1,817733422e-02    3,851789236e-02    7,267422676e-01   -2,819420099e-01    0,000000000e+00    0,000000000e+00    0,000000000e+00    0,000000000e+00
      254000000    1,719836146e-02    3,521895036e-02    4,578103423e-01   -6,201798320e-01    0,000000000e+00    0,000000000e+00    0,000000000e+00    0,000000000e+00
      268000000    4,877911136e-02    5,562049337e-03    5,856185779e-02   -7,601525187e-01    0,000000000e+00    0,000000000e+00    0,000000000e+00    0,000000000e+00
      282000000    5,346979573e-02   -4,175527021e-02   -3,490623832e-01   -6,720786691e-01    0,000000000e+00    0,000000000e+00    0,000000000e+00    0,000000000e+00
      296000000    2,402705513e-02   -7,950728387e-02   -6,519485712e-01   -3,854403496e-01    0,000000000e+00    0,000000000e+00    0,000000000e+00    0,000000000e+00
      310000000   -1,787736081e-02   -8,324378729e-02   -7,639053464e-01    1,924463920e-02    0,000000000e+00    0,000000000e+00    0,000000000e+00    0,000000000e+00
      324000000   -4,165542126e-02   -5,880901590e-02   -6,318630576e-01    4,312843978e-01    0,000000000e+00    0,000000000e+00    0,000000000e+00    0,000000000e+00
      338000000   -3,445420787e-02   -3,672623262e-02   -2,959218621e-01    6,990657449e-01    0,000000000e+00    0,000000000e+00    0,000000000e+00    0,000000000e+00
      352000000   -1,713201776e-02   -4,063975438e-02    1,260731816e-01    7,419142127e-01    0,000000000e+00    0,000000000e+00    0,000000000e+00    0,000000000e+00
      366000000   -1,925165206e-02   -6,202181429e-02    4,982790947e-01    5,547950268e-01    0,000000000e+00    0,000000000e+00    0,000000000e+00    0,000000000e+00
      380000000   -4,427394271e-02   -7,263404876e-02    7,131333351e-01    1,998405010e-01    0,000000000e+00    0,000000000e+00    0,000000000e+00    0,000000000e+00
      394000000   -7,083567232e-02   -5,789684132e-02    7,040107250e-01   -2,166490257e-01    0,000000000e+00    0,000000000e+00    0,000000000e+00    0,000000000e+00
      408000000   -7,686197013e-02   -3,034720942e-02    4,695816338e-01   -5,602520108e-01    0,000000000e+00    0,000000000e+00    0,000000000e+00    0,000000000e+00
      422000000   -6,530734897e-02   -1,122246031e-02    9,345483780e-02   -7,174197435e-01    0,000000000e+00    0,000000000e+00    0,000000000e+00    0,000000000e+00
      436000000   -5,275590345e-02   -4,293256905e-03   -3,025207520e-01   -6,478887200e-01    0,000000000e+00    0,000000000e+00    0,000000000e+00    0,000000000e+00
      450000000   -4,456484690e-02    1,495269476e-03   -5,931907296e-01   -3,786169291e-01    0,000000000e+00    0,000000000e+00    0,000000000e+00    0,000000000e+00
      464000000   -2,946179546e-02    1,120768301e-02   -6,908654571e-01   -1,513459429e-04    0,000000000e+00    0,000000000e+00    0,000000000e+00    0,000000000e+00
      478000000   -1,399167231e-03    1,109975483e-02   -5,739738941e-01    3,634109497e-01    0,000000000e+00    0,000000000e+00    0,000000000e+00    0,000000000e+00
      492000000    2,772893943e-02   -1,195880212e-02   -2,896361351e-01    6,016215086e-01    0,000000000e+00    0,000000000e+00    0,000000000e+00    0,000000000e+00
      506000000    3,633545339e-02   -5,589203164e-02    6,881537288e-02    6,586752534e-01    0,000000000e+00    0,000000000e+00    0,000000000e+00    0,000000000e+00
      520000000    1,239609346e-02   -9,854874760e-02    4,030124545e-01    5,244891644e-01    0,000000000e+00    0,000000000e+00    0,000000000e+00    0,000000000e+00
      534000000   -3,426694870e-02   -1,161519364e-01    6,232199669e-01    2,363077253e-01    0,000000000e+00    0,000000000e+00    0,000000000e+00    0,000000000e+00
      548000000   -7,757133991e-02   -9,932532161e-02    6,579579711e-01   -1,338848323e-01    0,000000000e+00    0,000000000e+00    0,000000000e+00    0,000000000e+00
      562000000   -9,318859875e-02   -6,590715796e-02    4,819019139e-01   -4,661925733e-01    0,000000000e+00    0,000000000e+00    0,000000000e+00    0,000000000e+00
      576000000   -8,650349826e-02   -4,410076141e-02    1,498067975e-01   -6,484655142e-01    0,000000000e+00    0,000000000e+00    0,000000000e+00    0,000000000e+00
      590000000   -8,092715591e-02   -4,159147665e-02   -2,196794003e-01   -6,290167570e-01    0,000000000e+00    0,000000000e+00    0,000000000e+00    0,000000000e+00
      604000000   -8,901687711e-02   -3,715460002e-02   -5,195772052e-01   -4,060761333e-01    0,000000000e+00    0,000000000e+00    0,000000000e+00    0,000000000e+00
      618000000   -9,703245014e-02   -1,515168045e-02   -6,526875496e-01   -5,836467445e-02    0,000000000e+00    0,000000000e+00    0,000000000e+00    0,000000000e+00
      632000000   -8,109691739e-02    1,571222395e-02   -5,757347345e-01    3,032051921e-01    0,000000000e+00    0,000000000e+00    0,000000000e+00    0,000000000e+00
      646000000   -4,306076840e-02    2,659216896e-02   -3,190216422e-01    5,557153225e-01    0,000000000e+00    0,000000000e+00    0,000000000e+00    0,000000000e+00
      660000000   -8,104767650e-03    5,669673439e-03    2,059149928e-02    6,292939186e-01    0,000000000e+00    0,000000000e+00    0,000000000e+00    0,000000000e+00
      674000000    1,154850819e-03   -2,940979972e-02    3,422309160e-01    5,181702971e-01    0,000000000e+00    0,000000000e+00    0,000000000e+00    0,000000000e+00
      688000000   -1,471679285e-02   -5,483747646e-02    5,586332679e-01    2,585537732e-01    0,000000000e+00    0,000000000e+00    0,000000000e+00    0,000000000e+00
      702000000   -3,249864280e-02   -6,005871296e-02    6,021845341e-01   -8,135159314e-02    0,000000000e+00    0,000000000e+00    0,000000000e+00    0,000000000e+00
      716000000   -3,796821460e-02   -5,583497137e-02    4,604083598e-01   -3,896537721e-01    0,000000000e+00    0,000000000e+00    0,000000000e+00    0,000000000e+00
      730000000   -3,199463710e-02   -6,575665623e-02    1,748652607e-01   -5,656522512e-01    0,000000000e+00    0,000000000e+00    0,000000000e+00    0,000000000e+00
      744000000   -3,990718350e-02   -8,844219893e-02   -1,531419158e-01   -5,637261271e-01    0,000000000e+00    0,000000000e+00    0,000000000e+00    0,000000000e+00
      758000000   -7,250891626e-02   -1,053203493e-01   -4,278100431e-01   -3,950711191e-01    0,000000000e+00    0,000000000e+00    0,000000000e+00    0,000000000e+00
      772000000   -1,140097678e-01   -9,325327724e-02   -5,741379857e-01   -1,060433388e-01    0,000000000e+00    0,000000000e+00    0,000000000e+00    0,000000000e+00
      786000000   -1,394498050e-01   -5,599654838e-02   -5,451644063e-01    2,204722315e-01    0,000000000e+00    0,000000000e+00    0,000000000e+00    0,000000000e+00
      800000000   -1,332879514e-01   -1,494362298e-02   -3,423159719e-01    4,795517027e-01    0,000000000e+00    0,000000000e+00    0,000000000e+00    0,000000000e+00
      814000000   -1,084630117e-01    8,110633120e-03   -3,468189761e-02    5,866574049e-01    0,000000000e+00    0,000000000e+00    0,000000000e+00    0,000000000e+00
      828000000   -8,561107516e-02    1,404732931e-02    2,780915499e-01    5,146377683e-01    0,000000000e+00    0,000000000e+00    0,000000000e+00    0,000000000e+00
      842000000   -7,032754272e-02    1,447880361e-02    5,026697516e-01    2,896132767e-01    0,000000000e+00    0,000000000e+00    0,000000000e+00    0,000000000e+00
      856000000   -5,215975270e-02    1,938941330e-02    5,706358552e-01   -1,811849512e-02    0,000000000e+00    0,000000000e+00    0,000000000e+00    0,000000000e+00
      870000000   -2,295943908e-02    1,488476060e-02    4,633371830e-01   -3,057573438e-01    0,000000000e+00    0,000000000e+00    0,000000000e+00    0,000000000e+00
      884000000    6,226507481e-03   -1,481827348e-02    2,305170745e-01   -4,882156253e-01    0,000000000e+00    0,000000000e+00    0,000000000e+00    0,000000000e+00
      898000000    1,218684204e-02   -6,372714043e-02   -5,116958544e-02   -5,263407826e-01    0,000000000e+00    0,000000000e+00    0,000000000e+00    0,000000000e+00
      912000000   -2,336663939e-02   -1,087379381e-01   -3,594869971e-01   -3,944305182e-01    0,000000000e+00    0,000000000e+00    0,000000000e+00    0,000000000e+00
      926000000   -7,691776007e-02   -1,236591414e-01   -5,321661234e-01   -1,592416912e-01    0,000000000e+00    0,000000000e+00    0,000000000e+00    0,000000000e+00
      940000000   -1,249891818e-01   -1,034593061e-01   -5,513178706e-01    1,555186063e-01    0,000000000e+00    0,000000000e+00    0,000000000e+00    0,000000000e+00
      954000000   -1,421980709e-01   -5,848924443e-02   -3,923929036e-01    4,473487735e-01    0,000000000e+00    0,000000000e+00    0,000000000e+00    0,000000000e+00
      968000000   -1,346006393e-01   -2,789434604e-02   -9,345579147e-02    6,045532227e-01    0,000000000e+00    0,000000000e+00    0,000000000e+00    0,000000000e+00
      982000000   -1,164827496e-01   -1,733594574e-02    2,471593022e-01    5,720403194e-01    0,000000000e+00    0,000000000e+00    0,000000000e+00    0,000000000e+00
      996000000   -1,063568220e-01   -1,049257349e-02    5,118308663e-01    3,674270809e-01    0,000000000e+00    0,000000000e+00    0,000000000e+00    0,000000000e+00
     1010000000   -1,054819897e-01   -7,064337842e-03    6,292912960e-01    5,255790427e-02    0,000000000e+00    0,000000000e+00    0,000000000e+00    0,000000000e+00
     1024000000   -9,547272325e-02   -1,709831879e-03    5,602576733e-01   -2,718846798e-01    0,000000000e+00    0,000000000e+00    0,000000000e+00    0,000000000e+00
     1038000000   -7,567876577e-02   -4,231864586e-03    3,372147679e-01   -5,028805733e-01    0,000000000e+00    0,000000000e+00    0,000000000e+00    0,000000000e+00
     1052000000   -6,141816452e-02   -1,489130873e-02    3,450556844e-02   -5,860045552e-01    0,000000000e+00    0,000000000e+00    0,000000000e+00    0,000000000e+00
     1066000000   -7,020933926e-02   -3,279521689e-02   -2,706786394e-01   -5,019939542e-01    0,000000000e+00    0,000000000e+00    0,000000000e+00    0,000000000e+00
     1080000000   -7,918754220e-02   -3,252338246e-02   -4,807009101e-01   -2,697347403e-01    0,000000000e+00    0,000000000e+00    0,000000000e+00    0,000000000e+00
     1094000000   -7,846383005e-02   -1,538607758e-02   -5,324337482e-01    4,123077914e-02    0,000000000e+00    0,000000000e+00    0,000000000e+00    0,000000000e+00
     1108000000   -5,702717230e-02   -9,252329357e-03   -3,982132971e-01    3,254364729e-01    0,000000000e+00    0,000000000e+00    0,000000000e+00    0,000000000e+00
     1122000000   -2,921262011e-02   -3,836324066e-02   -1,363391280e-01    4,829336703e-01    0,000000000e+00    0,000000000e+00    0,000000000e+00    0,000000000e+00
     1136000000   -3,106740862e-02   -8,531798422e-02    1,610396653e-01    4,752459824e-01    0,000000000e+00    0,000000000e+00    0,000000000e+00    0,000000000e+00
     1150000000   -6,603277475e-02   -1,390492618e-01    4,209208488e-01    3,105528057e-01    0,000000000e+00    0,000000000e+00    0,000000000e+00    0,000000000e+00
     1164000000   -1,402356327e-01   -1,514254510e-01    5,645655394e-01    3,040017746e-02    0,000000000e+00    0,000000000e+00    0,000000000e+00    0,000000000e+00
     1178000000   -2,081688493e-01   -1,148894727e-01    5,324952006e-01   -3,150027692e-01    0,000000000e+00    0,000000000e+00    0,000000000e+00    0,000000000e+00
     1192000000   -2,483760267e-01   -4,025372863e-02    2,978039086e-01   -5,987918377e-01    0,000000000e+00    0,000000000e+00    0,000000000e+00    0,000000000e+00
     1206000000   -2,298699766e-01    3,345578909e-02   -6,184331700e-02   -6,960503459e-01    0,000000000e+00    0,000000000e+00    0,000000000e+00    0,000000000e+00
     1220000000   -1,838982701e-01    8,758018911e-02   -4,170771241e-01   -5,767236948e-01    0,000000000e+00    0,000000000e+00    0,000000000e+00    0,000000000e+00
     1234000000   -1,245829463e-01    9,771382809e-02   -6,434121728e-01   -2,940730453e-01    0,000000000e+00    0,000000000e+00    0,000000000e+00    0,000000000e+00
     1248000000   -6,895657629e-02    9,612686932e-02   -6,782723069e-01    6,259085238e-02    0,000000000e+00    0,000000000e+00    0,000000000e+00    0,000000000e+00
     1262000000   -9,704558179e-03    6,691316515e-02   -5,152568817e-01    3,731890917e-01    0,000000000e+00    0,000000000e+00    0,000000000e+00    0,000000000e+00
     1276000000    2,183797397e-02   -6,873339880e-03   -2,455360740e-01    5,414745212e-01    0,000000000e+00    0,000000000e+00    0,000000000e+00    0,000000000e+00
     1290000000    2,505224384e-02   -8,938165009e-02    7,026898116e-02    5,777065754e-01    0,000000000e+00    0,000000000e+00    0,000000000e+00    0,000000000e+00
     1304000000   -3,297913447e-02   -1,715537757e-01    3,610300422e-01    4,615938067e-01    0,000000000e+00    0,000000000e+00    0,000000000e+00    0,000000000e+00
     1318000000   -1,347340792e-01   -2,153677195e-01    5,759328604e-01    2,111001313e-01    0,000000000e+00    0,000000000e+00    0,000000000e+00    0,000000000e+00
     1332000000   -2,574086785e-01   -1,856543720e-01    6,546789408e-01   -1,243285909e-01    0,000000000e+00    0,000000000e+00    0,000000000e+00    0,000000000e+00
     1346000000   -3,335019052e-01   -8,632352203e-02    5,034835339e-01   -4,568117261e-01    0,000000000e+00    0,000000000e+00    0,000000000e+00    0,000000000e+00
     1360000000   -3,305995464e-01    2,289773338e-02    1,932829618e-01   -6,459118724e-01    0,000000000e+00    0,000000000e+00    0,000000000e+00    0,000000000e+00
     1374000000   -2,831510603e-01    1,036119163e-01   -1,685569435e-01   -6,012074947e-01    0,000000000e+00    0,000000000e+00    0,000000000e+00    0,000000000e+00
     1388000000   -2,117520720e-01    1,402859837e-01   -4,049613178e-01   -3,781573772e-01    0,000000000e+00    0,000000000e+00    0,000000000e+00    0,000000000e+00
     1402000000   -1,478013694e-01    1,338990778e-01   -4,780223072e-01   -6,710588187e-02    0,000000000e+00    0,000000000e+00    0,000000000e+00    0,000000000e+00
     1416000000   -1,016118005e-01    1,127505675e-01   -3,809841871e-01    2,406426221e-01    0,000000000e+00    0,000000000e+00    0,000000000e+00    0,000000000e+00
     1430000000   -5,191401020e-02    6,906861067e-02   -1,173005179e-01    4,579394162e-01    0,000000000e+00    0,000000000e+00    0,000000000e+00    0,000000000e+00
     1444000000   -3,581043705e-02   -3,611159627e-05    1,727993637e-01    5,274227858e-01    0,000000000e+00    0,000000000e+00    0,000000000e+00    0,000000000e+00
     1458000000   -6,602124870e-02   -7,243507355e-02    4,795440435e-01    4,693968296e-01    0,000000000e+00    0,000000000e+00    0,000000000e+00    0,000000000e+00
     1472000000   -1,295763999e-01   -1,263197362e-01    7,630419731e-01    2,596898377e-01    0,000000000e+00    0,000000000e+00    0,000000000e+00    0,000000000e+00
     1486000000   -2,372161299e-01   -1,115380153e-01    8,914752603e-01   -7,919786125e-02    0,000000000e+00    0,000000000e+00    0,000000000e+00    0,000000000e+00
     1500000000   -2,904173434e-01   -4,190416634e-02    8,001178503e-01   -4,485908449e-01    0,000000000e+00    0,000000000e+00    0,000000000e+00    0,000000000e+00
