! NanoVNA-App
! Date: 2025-09-25 15:09:47
! Start: 100MHz Stop: 1,5GHz Points: 101
! S-Parameter data: F S11 S21 S12 S22
# Hz S RI R 50
!     Frequency           S11_Real           S11_Imag           S21_Real           S21_Imag           S12_Real           S12_Imag           S22_Real           S22_Imag
      100000000    3,115549311e-02    2,864966728e-02    4,348767996e-01   -6,685687304e-01    0,000000000e+00    0,000000000e+00    0,000000000e+00    0,000000000e+00
      114000000    5,757138133e-02    5,477265455e-03    7,688314654e-03   -7,910016775e-01    0,000000000e+00    0,000000000e+00    0,000000000e+00    0,000000000e+00
      128000000    6,722195446e-02   -3,786974400e-02   -4,103108346e-01   -6,710821986e-01    0,000000000e+00    0,000000000e+00    0,000000000e+00    0,000000000e+00
      142000000    4,472941905e-02   -8,423832059e-02   -7,027873397e-01   -3,533569574e-01    0,000000000e+00    0,000000000e+00    0,000000000e+00    0,000000000e+00
      156000000   -5,491946824e-03   -1,065006107e-01   -7,871961594e-01    7,303559780e-02    0,000000000e+00    0,000000000e+00    0,000000000e+00    0,000000000e+00
      170000000   -5,769058689e-02   -9,052945673e-02   -6,274135709e-01    4,867480695e-01    0,000000000e+00    0,000000000e+00    0,000000000e+00    0,000000000e+00
      184000000   -8,377528936e-02   -4,944420233e-02   -2,649923861e-01    7,510905862e-01    0,000000000e+00    0,000000000e+00    0,000000000e+00    0,000000000e+00
      198000000   -7,963740081e-02   -1,046934072e-02    1,834065616e-01    7,732844949e-01    0,000000000e+00    0,000000000e+00    0,000000000e+00    0,000000000e+00
      212000000   -6,233695149e-02    1,315571181e-02    5,691849589e-01    5,491848588e-01    0,000000000e+00    0,000000000e+00    0,000000000e+00    0,000000000e+00
      226000000   -4,332016781e-02    2,766264603e-02    7,706688046e-01    1,545577943e-01    0,000000000e+00    0,000000000e+00    0,000000000e+00    0,000000000e+00
      240000000   -1,824823022e-02    3,848208860e-02    7,268937826e-01   -2,818583250e-01    0,000000000e+00    0,000000000e+00    0,000000000e+00    0,000000000e+00
      254000000    1,718588732e-02    3,517014533e-02    4,583153725e-01   -6,200592518e-01    0,000000000e+00    0,000000000e+00    0,000000000e+00    0,000000000e+00
      268000000    4,879626259e-02    5,589226261e-03    5,895747617e-02   -7,606771588e-01    0,000000000e+00    0,000000000e+00    0,000000000e+00    0,000000000e+00
      282000000    5,344326794e-02   -4,174130410e-02   -3,491723537e-01   -6,719728112e-01    0,000000000e+00    0,000000000e+00    0,000000000e+00    0,000000000e+00
      296000000    2,411095053e-02   -7,951206714e-02   -6,521217227e-01   -3,856188357e-01    0,000000000e+00    0,000000000e+00    0,000000000e+00    0,000000000e+00
      310000000   -1,803338155e-02   -8,323239535e-02   -7,634715438e-01    1,941305958e-02    0,000000000e+00    0,000000000e+00    0,000000000e+00    0,000000000e+00
      324000000   -4,149308056e-02   -5,876579881e-02   -6,315382719e-01    4,314053655e-01    0,000000000e+00    0,000000000e+00    0,000000000e+00    0,000000000e+00
      338000000   -3,409297019e-02   -3,702819720e-02   -2,963170409e-01    7,000386715e-01    0,000000000e+00    0,000000000e+00    0,000000000e+00    0,000000000e+00
      352000000   -1,746999659e-02   -4,101358354e-02    1,251327395e-01    7,413721085e-01    0,000000000e+00    0,000000000e+00    0,000000000e+00    0,000000000e+00
      366000000   -1,935398020e-02   -6,213448569e-02    4,984117448e-01    5,539251566e-01    0,000000000e+00    0,000000000e+00    0,000000000e+00    0,000000000e+00
      380000000   -4,448557273e-02   -7,254485041e-02    7,130367756e-01    2,002457976e-01    0,000000000e+00    0,000000000e+00    0,000000000e+00    0,000000000e+00
      394000000   -7,061784714e-02   -5,812384933e-02    7,042101622e-01   -2,168127596e-01    0,000000000e+00    0,000000000e+00    0,000000000e+00    0,000000000e+00
      408000000   -7,699539512e-02   -3,047237732e-02    4,714596570e-01   -5,602174401e-01    0,000000000e+00    0,000000000e+00    0,000000000e+00    0,000000000e+00
      422000000   -6,536086649e-02   -1,107636373e-02    9,397616982e-02   -7,179809213e-01    0,000000000e+00    0,000000000e+00    0,000000000e+00    0,000000000e+00
      436000000   -5,309555307e-02   -4,416067153e-03   -3,024293184e-01   -6,469727755e-01    0,000000000e+00    0,000000000e+00    0,000000000e+00    0,000000000e+00
      450000000   -4,457128048e-02    1,431389130e-03   -5,923324823e-01   -3,785240054e-01    0,000000000e+00    0,000000000e+00    0,000000000e+00    0,000000000e+00
      464000000   -2,913003229e-02    1,109744236e-02   -6,910670996e-01    2,298503969e-04    0,000000000e+00    0,000000000e+00    0,000000000e+00    0,000000000e+00
      478000000   -1,385744428e-03    1,093704905e-02   -5,736778975e-01    3,632699847e-01    0,000000000e+00    0,000000000e+00    0,000000000e+00    0,000000000e+00
      492000000    2,766751871e-02   -1,271756086e-02   -2,896558344e-01    6,017685533e-01    0,000000000e+00    0,000000000e+00    0,000000000e+00    0,000000000e+00
      506000000    3,617782891e-02   -5,598338693e-02    6,929199398e-02    6,589007974e-01    0,000000000e+00    0,000000000e+00    0,000000000e+00    0,000000000e+00
      520000000    1,266861148e-02   -9,898454696e-02    4,061412811e-01    5,284662843e-01    0,000000000e+00    0,000000000e+00    0,000000000e+00    0,000000000e+00
      534000000   -3,419700265e-02   -1,161172017e-01    6,234925985e-01    2,368569970e-01    0,000000000e+00    0,000000000e+00    0,000000000e+00    0,000000000e+00
      548000000   -7,710362226e-02   -9,923136234e-02    6,582164168e-01   -1,335922331e-01    0,000000000e+00    0,000000000e+00    0,000000000e+00    0,000000000e+00
      562000000   -9,395023435e-02   -6,616615504e-02    4,814705551e-01   -4,667823315e-01    0,000000000e+00    0,000000000e+00    0,000000000e+00    0,000000000e+00
      576000000   -8,648234606e-02   -4,492631555e-02    1,508104056e-01   -6,483827829e-01    0,000000000e+00    0,000000000e+00    0,000000000e+00    0,000000000e+00
      590000000   -8,059457690e-02   -4,161324352e-02   -2,210808098e-01   -6,302106380e-01    0,000000000e+00    0,000000000e+00    0,000000000e+00    0,000000000e+00
      604000000   -8,900291473e-02   -3,714194894e-02   -5,199869871e-01   -4,061882794e-01    0,000000000e+00    0,000000000e+00    0,000000000e+00    0,000000000e+00
      618000000   -9,605045617e-02   -1,503622159e-02   -6,531012058e-01   -5,838434026e-02    0,000000000e+00    0,000000000e+00    0,000000000e+00    0,000000000e+00
      632000000   -8,125831932e-02    1,473501232e-02   -5,759635568e-01    3,034924567e-01    0,000000000e+00    0,000000000e+00    0,000000000e+00    0,000000000e+00
      646000000   -4,289721698e-02    2,663076669e-02   -3,189188838e-01    5,560814738e-01    0,000000000e+00    0,000000000e+00    0,000000000e+00    0,000000000e+00
      660000000   -8,235968649e-03    5,910672713e-03    2,236784063e-02    6,306079626e-01    0,000000000e+00    0,000000000e+00    0,000000000e+00    0,000000000e+00
      674000000    1,597772469e-03   -2,970945463e-02    3,425441682e-01    5,189873576e-01    0,000000000e+00    0,000000000e+00    0,000000000e+00    0,000000000e+00
      688000000   -1,474383380e-02   -5,513922498e-02    5,592803359e-01    2,584500611e-01    0,000000000e+00    0,000000000e+00    0,000000000e+00    0,000000000e+00
      702000000   -3,479231894e-02   -5,955410004e-02    6,068901420e-01   -7,883208990e-02    0,000000000e+00    0,000000000e+00    0,000000000e+00    0,000000000e+00
      716000000   -3,664045036e-02   -5,489241332e-02    4,598319829e-01   -3,899499476e-01    0,000000000e+00    0,000000000e+00    0,000000000e+00    0,000000000e+00
      730000000   -3,167974949e-02   -6,572654098e-02    1,740995049e-01   -5,668718815e-01    0,000000000e+00    0,000000000e+00    0,000000000e+00    0,000000000e+00
      744000000   -3,964667767e-02   -8,809670806e-02   -1,526029110e-01   -5,638431311e-01    0,000000000e+00    0,000000000e+00    0,000000000e+00    0,000000000e+00
      758000000   -7,213860005e-02   -1,041981652e-01   -4,275721610e-01   -3,944048882e-01    0,000000000e+00    0,000000000e+00    0,000000000e+00    0,000000000e+00
      772000000   -1,145726144e-01   -9,347458184e-02   -5,741198659e-01   -1,056817323e-01    0,000000000e+00    0,000000000e+00    0,000000000e+00    0,000000000e+00
      786000000   -1,380559504e-01   -5,570984259e-02   -5,450140834e-01    2,210376412e-01    0,000000000e+00    0,000000000e+00    0,000000000e+00    0,000000000e+00
      800000000   -1,326701343e-01   -1,391786244e-02   -3,416900635e-01    4,796932936e-01    0,000000000e+00    0,000000000e+00    0,000000000e+00    0,000000000e+00
      814000000   -1,087620109e-01    8,758121170e-03   -3,337533399e-02    5,853041410e-01    0,000000000e+00    0,000000000e+00    0,000000000e+00    0,000000000e+00
      828000000   -8,565394580e-02    1,306750439e-02    2,796286345e-01    5,145329237e-01    0,000000000e+00    0,000000000e+00    0,000000000e+00    0,000000000e+00
      842000000   -7,073459029e-02    1,543467958e-02    5,024518967e-01    2,897536457e-01    0,000000000e+00    0,000000000e+00    0,000000000e+00    0,000000000e+00
      856000000   -5,179093778e-02    1,904662699e-02    5,709989071e-01   -1,788954064e-02    0,000000000e+00    0,000000000e+00    0,000000000e+00    0,000000000e+00
      870000000   -2,342116088e-02    1,420279499e-02    4,641997516e-01   -3,059161901e-01    0,000000000e+00    0,000000000e+00    0,000000000e+00    0,000000000e+00
      884000000    6,041360088e-03   -1,478224341e-02    2,311879843e-01   -4,886450469e-01    0,000000000e+00    0,000000000e+00    0,000000000e+00    0,000000000e+00
      898000000    1,141983550e-02   -6,365858763e-02   -5,196864530e-02   -5,267127752e-01    0,000000000e+00    0,000000000e+00    0,000000000e+00    0,000000000e+00
      912000000   -2,312062867e-02   -1,073162034e-01   -3,535175323e-01   -4,060317576e-01    0,000000000e+00    0,000000000e+00    0,000000000e+00    0,000000000e+00
      926000000   -7,318571955e-02   -1,241648421e-01   -5,286051631e-01   -1,578349322e-01    0,000000000e+00    0,000000000e+00    0,000000000e+00    0,000000000e+00
      940000000   -1,209995151e-01   -1,027098522e-01   -5,504779816e-01    1,560297906e-01    0,000000000e+00    0,000000000e+00    0,000000000e+00    0,000000000e+00
      954000000   -1,425668895e-01   -6,345377862e-02   -3,924314976e-01    4,442886114e-01    0,000000000e+00    0,000000000e+00    0,000000000e+00    0,000000000e+00
      968000000   -1,294631064e-01   -2,876573056e-02   -9,200565517e-02    6,041363478e-01    0,000000000e+00    0,000000000e+00    0,000000000e+00    0,000000000e+00
      982000000   -1,161224544e-01   -1,830624044e-02    2,450274378e-01    5,720238090e-01    0,000000000e+00    0,000000000e+00    0,000000000e+00    0,000000000e+00
      996000000   -1,075833291e-01   -1,155382302e-02    5,123050809e-01    3,681695759e-01    0,000000000e+00    0,000000000e+00    0,000000000e+00    0,000000000e+00
     1010000000   -1,046718806e-01   -9,471652098e-03    6,284039617e-01    5,093332008e-02    0,000000000e+00    0,000000000e+00    0,000000000e+00    0,000000000e+00
     1024000000   -9,278186411e-02   -3,017276293e-03    5,599166155e-01   -2,719729543e-01    0,000000000e+00    0,000000000e+00    0,000000000e+00    0,000000000e+00
     1038000000   -7,268908620e-02   -1,753365621e-03    3,358285129e-01   -5,027709603e-01    0,000000000e+00    0,000000000e+00    0,000000000e+00    0,000000000e+00
     1052000000   -6,394568086e-02   -1,319430117e-02    3,286737204e-02   -5,838322043e-01    0,000000000e+00    0,000000000e+00    0,000000000e+00    0,000000000e+00
     1066000000   -7,228039205e-02   -3,008039854e-02   -2,659612894e-01   -5,006249547e-01    0,000000000e+00    0,000000000e+00    0,000000000e+00    0,000000000e+00
     1080000000   -8,317220211e-02   -3,287191689e-02   -4,812109172e-01   -2,711639702e-01    0,000000000e+00    0,000000000e+00    0,000000000e+00    0,000000000e+00
     1094000000   -8,468230814e-02   -1,418227144e-02   -5,325279236e-01    4,037988186e-02    0,000000000e+00    0,000000000e+00    0,000000000e+00    0,000000000e+00
     1108000000   -5,595232919e-02   -1,394045912e-02   -3,994311392e-01    3,262734413e-01    0,000000000e+00    0,000000000e+00    0,000000000e+00    0,000000000e+00
     1122000000   -2,830819413e-02   -3,259539232e-02   -1,349423081e-01    4,827149808e-01    0,000000000e+00    0,000000000e+00    0,000000000e+00    0,000000000e+00
     1136000000   -2,818925492e-02   -8,860634267e-02    1,598692536e-01    4,748691022e-01    0,000000000e+00    0,000000000e+00    0,000000000e+00    0,000000000e+00
     1150000000   -6,392192841e-02   -1,386098117e-01    4,198174477e-01    3,129100204e-01    0,000000000e+00    0,000000000e+00    0,000000000e+00    0,000000000e+00
     1164000000   -1,413027644e-01   -1,538202912e-01    5,617331266e-01    2,740265802e-02    0,000000000e+00    0,000000000e+00    0,000000000e+00    0,000000000e+00
     1178000000   -2,115476578e-01   -1,210605279e-01    5,286823511e-01   -3,140234053e-01    0,000000000e+00    0,000000000e+00    0,000000000e+00    0,000000000e+00
     1192000000   -2,450777143e-01   -4,441998899e-02    2,953054011e-01   -6,020035744e-01    0,000000000e+00    0,000000000e+00    0,000000000e+00    0,000000000e+00
     1206000000   -2,306683809e-01    3,570348024e-02   -7,131202519e-02   -6,990152001e-01    0,000000000e+00    0,000000000e+00    0,000000000e+00    0,000000000e+00
     1220000000   -1,850901097e-01    8,176317066e-02   -4,214247465e-01   -5,799858570e-01    0,000000000e+00    0,000000000e+00    0,000000000e+00    0,000000000e+00
     1234000000   -1,249711886e-01    1,054192111e-01   -6,407585740e-01   -2,902235091e-01    0,000000000e+00    0,000000000e+00    0,000000000e+00    0,000000000e+00
     1248000000   -6,684109569e-02    9,988655895e-02   -6,759912372e-01    6,467074156e-02    0,000000000e+00    0,000000000e+00    0,000000000e+00    0,000000000e+00
     1262000000   -1,419048011e-02    6,654966623e-02   -5,188378096e-01    3,719696403e-01    0,000000000e+00    0,000000000e+00    0,000000000e+00    0,000000000e+00
     1276000000    2,542046271e-02   -2,302987967e-03   -2,465441674e-01    5,473060012e-01    0,000000000e+00    0,000000000e+00    0,000000000e+00    0,000000000e+00
     1290000000    2,484229580e-02   -8,734700084e-02    7,370885462e-02    5,832565427e-01    0,000000000e+00    0,000000000e+00    0,000000000e+00    0,000000000e+00
     1304000000   -3,521784395e-02   -1,737971455e-01    3,633773327e-01    4,655780792e-01    0,000000000e+00    0,000000000e+00    0,000000000e+00    0,000000000e+00
     1318000000   -1,372134387e-01   -2,128807604e-01    5,833628178e-01    2,257604450e-01    0,000000000e+00    0,000000000e+00    0,000000000e+00    0,000000000e+00
     1332000000   -2,474754304e-01   -1,884949803e-01    6,559543014e-01   -1,196079999e-01    0,000000000e+00    0,000000000e+00    0,000000000e+00    0,000000000e+00
     1346000000   -3,326179385e-01   -9,389819205e-02    5,108159184e-01   -4,691892564e-01    0,000000000e+00    0,000000000e+00    0,000000000e+00    0,000000000e+00
     1360000000   -3,309472799e-01    2,691492625e-02    1,954311132e-01   -6,418384910e-01    0,000000000e+00    0,000000000e+00    0,000000000e+00    0,000000000e+00
     1374000000   -2,824228406e-01    1,026952267e-01   -1,516505033e-01   -6,068031788e-01    0,000000000e+00    0,000000000e+00    0,000000000e+00    0,000000000e+00
     1388000000   -2,150428742e-01    1,389913410e-01   -4,028269053e-01   -3,788892329e-01    0,000000000e+00    0,000000000e+00    0,000000000e+00    0,000000000e+00
     1402000000   -1,523625404e-01    1,336571574e-01   -4,779219925e-01   -5,761945620e-02    0,000000000e+00    0,000000000e+00    0,000000000e+00    0,000000000e+00
     1416000000   -9,913390875e-02    1,172472313e-01   -3,715664446e-01    2,473272085e-01    0,000000000e+00    0,000000000e+00    0,000000000e+00    0,000000000e+00
     1430000000   -5,441750586e-02    6,676062942e-02   -1,582438052e-01    4,706375003e-01    0,000000000e+00    0,000000000e+00    0,000000000e+00    0,000000000e+00
     1444000000   -4,044078290e-02    5,566245876e-03    1,607751697e-01    5,419060588e-01    0,000000000e+00    0,000000000e+00    0,000000000e+00    0,000000000e+00
     1458000000   -6,529941410e-02   -7,676025480e-02    4,809613526e-01    4,779896736e-01    0,000000000e+00    0,000000000e+00    0,000000000e+00    0,000000000e+00
     1472000000   -1,367779970e-01   -1,188757271e-01    7,644144297e-01    2,734097242e-01    0,000000000e+00    0,000000000e+00    0,000000000e+00    0,000000000e+00
     1486000000   -2,285499573e-01   -1,188971773e-01    9,035635591e-01   -8,482769877e-02    0,000000000e+00    0,000000000e+00    0,000000000e+00    0,000000000e+00
     1500000000   -2,857436538e-01   -5,083221570e-02    8,234667778e-01   -4,541818798e-01    0,000000000e+00    0,000000000e+00    0,000000000e+00    0,000000000e+00
