! NanoVNA-App
! Date: 2025-09-25 15:08:46
! Start: 100MHz Stop: 1,5GHz Points: 101
! S-Parameter data: F S11 S21 S12 S22
# Hz S RI R 50
!     Frequency           S11_Real           S11_Imag           S21_Real           S21_Imag           S12_Real           S12_Imag           S22_Real           S22_Imag
      100000000    3,115319647e-02    2,865383588e-02    4,348364174e-01   -6,685762405e-01    0,000000000e+00    0,000000000e+00    0,000000000e+00    0,000000000e+00
      114000000    5,758223310e-02    5,504352041e-03    7,806742564e-03   -7,908086777e-01    0,000000000e+00    0,000000000e+00    0,000000000e+00    0,000000000e+00
      128000000    6,729111075e-02   -3,782443702e-02   -4,103750885e-01   -6,710559130e-01    0,000000000e+00    0,000000000e+00    0,000000000e+00    0,000000000e+00
      142000000    4,473368824e-02   -8,424536884e-02   -7,030778527e-01   -3,533463776e-01    0,000000000e+00    0,000000000e+00    0,000000000e+00    0,000000000e+00
      156000000   -6,159076933e-03   -1,059318185e-01   -7,854835391e-01    7,294452935e-02    0,000000000e+00    0,000000000e+00    0,000000000e+00    0,000000000e+00
      170000000   -5,760774389e-02   -9,060189873e-02   -6,276933551e-01    4,872291982e-01    0,000000000e+00    0,000000000e+00    0,000000000e+00    0,000000000e+00
      184000000   -8,368997276e-02   -4,950616136e-02   -2,650081813e-01    7,511104345e-01    0,000000000e+00    0,000000000e+00    0,000000000e+00    0,000000000e+00
      198000000   -7,963951677e-02   -1,044417918e-02    1,833746135e-01    7,729926109e-01    0,000000000e+00    0,000000000e+00    0,000000000e+00    0,000000000e+00
      212000000   -6,231413782e-02    1,318362076e-02    5,693858266e-01    5,491144061e-01    0,000000000e+00    0,000000000e+00    0,000000000e+00    0,000000000e+00
      226000000   -4,326473922e-02    2,763589658e-02    7,706750035e-01    1,545183659e-01    0,000000000e+00    0,000000000e+00    0,000000000e+00    0,000000000e+00
      240000000   -1,816882752e-02    3,851092979e-02    7,267666459e-01   -2,820499539e-01    0,000000000e+00    0,000000000e+00    0,000000000e+00    0,000000000e+00
      254000000    1,720147952e-02    3,519825637e-02    4,581049681e-01   -6,200551987e-01    0,000000000e+00    0,000000000e+00    0,000000000e+00    0,000000000e+00
      268000000    4,877908528e-02    5,631973036e-03    5,853091553e-02   -7,599781156e-01    0,000000000e+00    0,000000000e+00    0,000000000e+00    0,000000000e+00
      282000000    5,348276347e-02   -4,186581820e-02   -3,488057852e-01   -6,715608239e-01    0,000000000e+00    0,000000000e+00    0,000000000e+00    0,000000000e+00
      296000000    2,412579581e-02   -7,949706912e-02   -6,517301202e-01   -3,852055669e-01    0,000000000e+00    0,000000000e+00    0,000000000e+00    0,000000000e+00
      310000000   -1,796803996e-02   -8,312867582e-02   -7,624378800e-01    2,110190503e-02    0,000000000e+00    0,000000000e+00    0,000000000e+00    0,000000000e+00
      324000000   -4,142121971e-02   -5,876487866e-02   -6,316996813e-01    4,311451316e-01    0,000000000e+00    0,000000000e+00    0,000000000e+00    0,000000000e+00
      338000000   -3,465382755e-02   -3,664501384e-02   -2,953592241e-01    7,011805773e-01    0,000000000e+00    0,000000000e+00    0,000000000e+00    0,000000000e+00
      352000000   -1,752608456e-02   -4,068899155e-02    1,253103465e-01    7,421346903e-01    0,000000000e+00    0,000000000e+00    0,000000000e+00    0,000000000e+00
      366000000   -1,923801191e-02   -6,207534298e-02    4,976215661e-01    5,552524924e-01    0,000000000e+00    0,000000000e+00    0,000000000e+00    0,000000000e+00
      380000000   -4,432823882e-02   -7,261296362e-02    7,133204341e-01    2,003359497e-01    0,000000000e+00    0,000000000e+00    0,000000000e+00    0,000000000e+00
      394000000   -7,088835537e-02   -5,836077034e-02    7,041726708e-01   -2,163637131e-01    0,000000000e+00    0,000000000e+00    0,000000000e+00    0,000000000e+00
      408000000   -7,718853652e-02   -3,035150655e-02    4,705583751e-01   -5,602948070e-01    0,000000000e+00    0,000000000e+00    0,000000000e+00    0,000000000e+00
      422000000   -6,529499590e-02   -1,141428296e-02    9,384663403e-02   -7,188203335e-01    0,000000000e+00    0,000000000e+00    0,000000000e+00    0,000000000e+00
      436000000   -5,296339840e-02   -4,514045082e-03   -3,024282455e-01   -6,476920247e-01    0,000000000e+00    0,000000000e+00    0,000000000e+00    0,000000000e+00
      450000000   -4,456190765e-02    1,578276628e-03   -5,930237770e-01   -3,776726723e-01    0,000000000e+00    0,000000000e+00    0,000000000e+00    0,000000000e+00
      464000000   -2,949771658e-02    1,111759618e-02   -6,912803650e-01    2,267133277e-05    0,000000000e+00    0,000000000e+00    0,000000000e+00    0,000000000e+00
      478000000   -1,236695796e-03    1,102440245e-02   -5,732588768e-01    3,626864552e-01    0,000000000e+00    0,000000000e+00    0,000000000e+00    0,000000000e+00
      492000000    2,768219449e-02   -1,216355152e-02   -2,896628678e-01    6,020417809e-01    0,000000000e+00    0,000000000e+00    0,000000000e+00    0,000000000e+00
      506000000    3,643368930e-02   -5,561782792e-02    6,912244856e-02    6,585493088e-01    0,000000000e+00    0,000000000e+00    0,000000000e+00    0,000000000e+00
      520000000    1,294441149e-02   -9,862291813e-02    4,069207609e-01    5,248941779e-01    0,000000000e+00    0,000000000e+00    0,000000000e+00    0,000000000e+00
      534000000   -3,422066197e-02   -1,158236042e-01    6,242338419e-01    2,364155352e-01    0,000000000e+00    0,000000000e+00    0,000000000e+00    0,000000000e+00
      548000000   -7,762739062e-02   -9,936050326e-02    6,580293775e-01   -1,331759840e-01    0,000000000e+00    0,000000000e+00    0,000000000e+00    0,000000000e+00
      562000000   -9,376986325e-02   -6,624329835e-02    4,821408987e-01   -4,670148790e-01    0,000000000e+00    0,000000000e+00    0,000000000e+00    0,000000000e+00
      576000000   -8,628461510e-02   -4,421859607e-02    1,508457959e-01   -6,478124857e-01    0,000000000e+00    0,000000000e+00    0,000000000e+00    0,000000000e+00
      590000000   -8,089996874e-02   -4,175855219e-02   -2,212019861e-01   -6,281433702e-01    0,000000000e+00    0,000000000e+00    0,000000000e+00    0,000000000e+00
      604000000   -8,863268048e-02   -3,712498024e-02   -5,198553205e-01   -4,053296447e-01    0,000000000e+00    0,000000000e+00    0,000000000e+00    0,000000000e+00
      618000000   -9,670203924e-02   -1,552446373e-02   -6,533581614e-01   -5,902556702e-02    0,000000000e+00    0,000000000e+00    0,000000000e+00    0,000000000e+00
      632000000   -8,149178326e-02    1,535341423e-02   -5,749871731e-01    3,025477827e-01    0,000000000e+00    0,000000000e+00    0,000000000e+00    0,000000000e+00
      646000000   -4,326174408e-02    2,602765337e-02   -3,194348514e-01    5,560540557e-01    0,000000000e+00    0,000000000e+00    0,000000000e+00    0,000000000e+00
      660000000   -7,427684031e-03    6,590507459e-03    2,133240737e-02    6,296327114e-01    0,000000000e+00    0,000000000e+00    0,000000000e+00    0,000000000e+00
      674000000    7,204889553e-04   -2,968357690e-02    3,422451019e-01    5,188876390e-01    0,000000000e+00    0,000000000e+00    0,000000000e+00    0,000000000e+00
      688000000   -1,424403675e-02   -5,526874214e-02    5,591478944e-01    2,588474452e-01    0,000000000e+00    0,000000000e+00    0,000000000e+00    0,000000000e+00
      702000000   -3,343337029e-02   -5,902406946e-02    6,056687236e-01   -8,084003627e-02    0,000000000e+00    0,000000000e+00    0,000000000e+00    0,000000000e+00
      716000000   -3,649946302e-02   -5,540841818e-02    4,600228667e-01   -3,896732926e-01    0,000000000e+00    0,000000000e+00    0,000000000e+00    0,000000000e+00
      730000000   -3,191442788e-02   -6,446539611e-02    1,738454401e-01   -5,657050014e-01    0,000000000e+00    0,000000000e+00    0,000000000e+00    0,000000000e+00
      744000000   -4,097136483e-02   -8,835674077e-02   -1,535225511e-01   -5,645686388e-01    0,000000000e+00    0,000000000e+00    0,000000000e+00    0,000000000e+00
      758000000   -7,258950919e-02   -1,054508984e-01   -4,271343946e-01   -3,946082890e-01    0,000000000e+00    0,000000000e+00    0,000000000e+00    0,000000000e+00
      772000000   -1,143523157e-01   -9,337116778e-02   -5,743798614e-01   -1,059216633e-01    0,000000000e+00    0,000000000e+00    0,000000000e+00    0,000000000e+00
      786000000   -1,392505914e-01   -5,571383610e-02   -5,449568629e-01    2,203091830e-01    0,000000000e+00    0,000000000e+00    0,000000000e+00    0,000000000e+00
      800000000   -1,332076192e-01   -1,527148020e-02   -3,419405222e-01    4,799869955e-01    0,000000000e+00    0,000000000e+00    0,000000000e+00    0,000000000e+00
      814000000   -1,082947850e-01    8,931576274e-03   -3,389990330e-02    5,859720111e-01    0,000000000e+00    0,000000000e+00    0,000000000e+00    0,000000000e+00
      828000000   -8,526877314e-02    1,313796826e-02    2,775824368e-01    5,145280361e-01    0,000000000e+00    0,000000000e+00    0,000000000e+00    0,000000000e+00
      842000000   -7,091084868e-02    1,443945058e-02    5,029167533e-01    2,897939980e-01    0,000000000e+00    0,000000000e+00    0,000000000e+00    0,000000000e+00
      856000000   -5,295140669e-02    1,960886084e-02    5,706657767e-01   -1,797827147e-02    0,000000000e+00    0,000000000e+00    0,000000000e+00    0,000000000e+00
      870000000   -2,318889461e-02    1,417161990e-02    4,639771879e-01   -3,058948219e-01    0,000000000e+00    0,000000000e+00    0,000000000e+00    0,000000000e+00
      884000000    6,407534238e-03   -1,465931442e-02    2,303742766e-01   -4,881412685e-01    0,000000000e+00    0,000000000e+00    0,000000000e+00    0,000000000e+00
      898000000    1,247208100e-02   -6,333817542e-02   -5,206064880e-02   -5,267783403e-01    0,000000000e+00    0,000000000e+00    0,000000000e+00    0,000000000e+00
      912000000   -2,361639775e-02   -1,093445718e-01   -3,627337813e-01   -3,937821686e-01    0,000000000e+00    0,000000000e+00    0,000000000e+00    0,000000000e+00
      926000000   -7,453279197e-02   -1,245833337e-01   -5,289987326e-01   -1,591130644e-01    0,000000000e+00    0,000000000e+00    0,000000000e+00    0,000000000e+00
      940000000   -1,247983724e-01   -1,043338925e-01   -5,520647168e-01    1,552293301e-01    0,000000000e+00    0,000000000e+00    0,000000000e+00    0,000000000e+00
      954000000   -1,404272020e-01   -6,351061910e-02   -3,918078244e-01    4,457413256e-01    0,000000000e+00    0,000000000e+00    0,000000000e+00    0,000000000e+00
      968000000   -1,298879385e-01   -2,838437259e-02   -9,098222107e-02    6,046255827e-01    0,000000000e+00    0,000000000e+00    0,000000000e+00    0,000000000e+00
      982000000   -1,164430901e-01   -1,719735749e-02    2,450556606e-01    5,727334619e-01    0,000000000e+00    0,000000000e+00    0,000000000e+00    0,000000000e+00
      996000000   -1,069330424e-01   -1,688419469e-02    5,117706656e-01    3,647872508e-01    0,000000000e+00    0,000000000e+00    0,000000000e+00    0,000000000e+00
     1010000000   -1,013894975e-01   -9,563981555e-03    6,305236816e-01    5,175866932e-02    0,000000000e+00    0,000000000e+00    0,000000000e+00    0,000000000e+00
     1024000000   -9,060187638e-02    1,673756749e-03    5,619068146e-01   -2,713527977e-01    0,000000000e+00    0,000000000e+00    0,000000000e+00    0,000000000e+00
     1038000000   -7,606095821e-02   -3,494258504e-03    3,390282989e-01   -5,039570928e-01    0,000000000e+00    0,000000000e+00    0,000000000e+00    0,000000000e+00
     1052000000   -6,149074808e-02   -1,619899273e-02    3,182520345e-02   -5,862755179e-01    0,000000000e+00    0,000000000e+00    0,000000000e+00    0,000000000e+00
     1066000000   -6,831663847e-02   -2,942299470e-02   -2,695190012e-01   -5,042881370e-01    0,000000000e+00    0,000000000e+00    0,000000000e+00    0,000000000e+00
     1080000000   -7,993955910e-02   -3,429596871e-02   -4,811845720e-01   -2,702817321e-01    0,000000000e+00    0,000000000e+00    0,000000000e+00    0,000000000e+00
     1094000000   -8,182566613e-02   -1,409413107e-02   -5,317698717e-01    4,084940255e-02    0,000000000e+00    0,000000000e+00    0,000000000e+00    0,000000000e+00
     1108000000   -6,131253392e-02   -1,309844200e-02   -3,981527686e-01    3,270263672e-01    0,000000000e+00    0,000000000e+00    0,000000000e+00    0,000000000e+00
     1122000000   -3,018601984e-02   -3,370042145e-02   -1,374514252e-01    4,808231592e-01    0,000000000e+00    0,000000000e+00    0,000000000e+00    0,000000000e+00
     1136000000   -2,667710930e-02   -8,862257004e-02    1,640125364e-01    4,759961665e-01    0,000000000e+00    0,000000000e+00    0,000000000e+00    0,000000000e+00
     1150000000   -7,035868615e-02   -1,349117458e-01    4,193953872e-01    3,094450831e-01    0,000000000e+00    0,000000000e+00    0,000000000e+00    0,000000000e+00
     1164000000   -1,383583397e-01   -1,561839283e-01    5,643593073e-01    3,121849149e-02    0,000000000e+00    0,000000000e+00    0,000000000e+00    0,000000000e+00
     1178000000   -2,133497596e-01   -1,170500070e-01    5,325931311e-01   -3,139103055e-01    0,000000000e+00    0,000000000e+00    0,000000000e+00    0,000000000e+00
     1192000000   -2,447685152e-01   -4,435140640e-02    2,998343110e-01   -5,990535021e-01    0,000000000e+00    0,000000000e+00    0,000000000e+00    0,000000000e+00
     1206000000   -2,344641238e-01    3,159970045e-02   -6,851565093e-02   -6,985879540e-01    0,000000000e+00    0,000000000e+00    0,000000000e+00    0,000000000e+00
     1220000000   -1,869097054e-01    8,747617155e-02   -4,209664762e-01   -5,767791271e-01    0,000000000e+00    0,000000000e+00    0,000000000e+00    0,000000000e+00
     1234000000   -1,253282577e-01    1,047234535e-01   -6,412371397e-01   -2,941149175e-01    0,000000000e+00    0,000000000e+00    0,000000000e+00    0,000000000e+00
     1248000000   -6,439924240e-02    9,934704751e-02   -6,732893586e-01    6,451798975e-02    0,000000000e+00    0,000000000e+00    0,000000000e+00    0,000000000e+00
     1262000000   -1,160080358e-02    6,038648635e-02   -5,214114785e-01    3,649488389e-01    0,000000000e+00    0,000000000e+00    0,000000000e+00    0,000000000e+00
     1276000000    2,001827210e-02   -5,716048181e-03   -2,461711317e-01    5,428523421e-01    0,000000000e+00    0,000000000e+00    0,000000000e+00    0,000000000e+00
     1290000000    2,071497217e-02   -9,166327119e-02    6,506321579e-02    5,712542534e-01    0,000000000e+00    0,000000000e+00    0,000000000e+00    0,000000000e+00
     1304000000   -3,555041924e-02   -1,718957573e-01    3,655546904e-01    4,621079862e-01    0,000000000e+00    0,000000000e+00    0,000000000e+00    0,000000000e+00
     1318000000   -1,317022443e-01   -2,143657953e-01    5,889738798e-01    2,229331285e-01    0,000000000e+00    0,000000000e+00    0,000000000e+00    0,000000000e+00
     1332000000   -2,545838058e-01   -1,839150488e-01    6,553692222e-01   -1,181970537e-01    0,000000000e+00    0,000000000e+00    0,000000000e+00    0,000000000e+00
     1346000000   -3,279031515e-01   -9,260713309e-02    5,108134151e-01   -4,622610509e-01    0,000000000e+00    0,000000000e+00    0,000000000e+00    0,000000000e+00
     1360000000   -3,371466994e-01    2,427824028e-02    1,853460670e-01   -6,532697082e-01    0,000000000e+00    0,000000000e+00    0,000000000e+00    0,000000000e+00
     1374000000   -2,800693214e-01    1,020067558e-01   -1,504673660e-01   -6,035094857e-01    0,000000000e+00    0,000000000e+00    0,000000000e+00    0,000000000e+00
     1388000000   -2,093430161e-01    1,339134872e-01   -4,099515676e-01   -3,732920885e-01    0,000000000e+00    0,000000000e+00    0,000000000e+00    0,000000000e+00
     1402000000   -1,507152915e-01    1,397934705e-01   -4,834510684e-01   -6,155490130e-02    0,000000000e+00    0,000000000e+00    0,000000000e+00    0,000000000e+00
     1416000000   -9,790480137e-02    1,141595468e-01   -3,832199872e-01    2,457295656e-01    0,000000000e+00    0,000000000e+00    0,000000000e+00    0,000000000e+00
     1430000000   -4,938765988e-02    7,311690599e-02   -1,243164763e-01    4,720401168e-01    0,000000000e+00    0,000000000e+00    0,000000000e+00    0,000000000e+00
     1444000000   -3,274793923e-02    3,079207847e-03    1,738957614e-01    5,370792150e-01    0,000000000e+00    0,000000000e+00    0,000000000e+00    0,000000000e+00
     1458000000   -6,313779950e-02   -7,040158659e-02    4,775995016e-01    4,748344421e-01    0,000000000e+00    0,000000000e+00    0,000000000e+00    0,000000000e+00
     1472000000   -1,381820440e-01   -1,269284040e-01    7,478583455e-01    2,637302876e-01    0,000000000e+00    0,000000000e+00    0,000000000e+00    0,000000000e+00
     1486000000   -2,322955281e-01   -1,179817989e-01    8,863086104e-01   -8,926101029e-02    0,000000000e+00    0,000000000e+00    0,000000000e+00    0,000000000e+00
     1500000000   -2,814564109e-01   -4,510204494e-02    8,045244813e-01   -4,457867444e-01    0,000000000e+00    0,000000000e+00    0,000000000e+00    0,000000000e+00
