! NanoVNA-App
! Date: 2025-09-25 15:11:56
! Start: 100MHz Stop: 1,5GHz Points: 101
! S-Parameter data: F S11 S21 S12 S22
# Hz S RI R 50
!     Frequency           S11_Real           S11_Imag           S21_Real           S21_Imag           S12_Real           S12_Imag           S22_Real           S22_Imag
      100000000    3,113798052e-02    2,864790708e-02    4,348724782e-01   -6,685976386e-01    0,000000000e+00    0,000000000e+00    0,000000000e+00    0,000000000e+00
      114000000    5,755346641e-02    5,528874695e-03    7,789345924e-03   -7,911602259e-01    0,000000000e+00    0,000000000e+00    0,000000000e+00    0,000000000e+00
      128000000    6,723350286e-02   -3,786436841e-02   -4,103946686e-01   -6,711465716e-01    0,000000000e+00    0,000000000e+00    0,000000000e+00    0,000000000e+00
      142000000    4,471878707e-02   -8,422710001e-02   -7,030866742e-01   -3,534102142e-01    0,000000000e+00    0,000000000e+00    0,000000000e+00    0,000000000e+00
      156000000   -5,905703176e-03   -1,058324054e-01   -7,861146927e-01    7,255977392e-02    0,000000000e+00    0,000000000e+00    0,000000000e+00    0,000000000e+00
      170000000   -5,762199685e-02   -9,057967365e-02   -6,275010705e-01    4,870926440e-01    0,000000000e+00    0,000000000e+00    0,000000000e+00    0,000000000e+00
      184000000   -8,368582278e-02   -4,944944382e-02   -2,649981678e-01    7,512643337e-01    0,000000000e+00    0,000000000e+00    0,000000000e+00    0,000000000e+00
      198000000   -7,962497324e-02   -1,044021640e-02    1,834391057e-01    7,728174329e-01    0,000000000e+00    0,000000000e+00    0,000000000e+00    0,000000000e+00
      212000000   -6,228049845e-02    1,317154057e-02    5,694204569e-01    5,490581393e-01    0,000000000e+00    0,000000000e+00    0,000000000e+00    0,000000000e+00
      226000000   -4,328300804e-02    2,767865174e-02    7,707065344e-01    1,545777321e-01    0,000000000e+00    0,000000000e+00    0,000000000e+00    0,000000000e+00
      240000000   -1,819903031e-02    3,847342730e-02    7,268429995e-01   -2,818436027e-01    0,000000000e+00    0,000000000e+00    0,000000000e+00    0,000000000e+00
      254000000    1,722456515e-02    3,513367847e-02    4,579718411e-01   -6,200149059e-01    0,000000000e+00    0,000000000e+00    0,000000000e+00    0,000000000e+00
      268000000    4,884571582e-02    5,609537009e-03    5,873739719e-02   -7,604451776e-01    0,000000000e+00    0,000000000e+00    0,000000000e+00    0,000000000e+00
      282000000    5,344247445e-02   -4,179452732e-02   -3,488023877e-01   -6,713477969e-01    0,000000000e+00    0,000000000e+00    0,000000000e+00    0,000000000e+00
      296000000    2,408157103e-02   -7,954747975e-02   -6,517935395e-01   -3,852208257e-01    0,000000000e+00    0,000000000e+00    0,000000000e+00    0,000000000e+00
      310000000   -1,780705899e-02   -8,320392668e-02   -7,640067339e-01    2,126910537e-02    0,000000000e+00    0,000000000e+00    0,000000000e+00    0,000000000e+00
      324000000   -4,169426858e-02   -5,882193521e-02   -6,321127415e-01    4,315823317e-01    0,000000000e+00    0,000000000e+00    0,000000000e+00    0,000000000e+00
      338000000   -3,417045996e-02   -3,712790087e-02   -2,952079177e-01    7,007404566e-01    0,000000000e+00    0,000000000e+00    0,000000000e+00    0,000000000e+00
      352000000   -1,725813560e-02   -4,054081813e-02    1,256643832e-01    7,415184975e-01    0,000000000e+00    0,000000000e+00    0,000000000e+00    0,000000000e+00
      366000000   -1,936468482e-02   -6,187193468e-02    4,980952442e-01    5,554512143e-01    0,000000000e+00    0,000000000e+00    0,000000000e+00    0,000000000e+00
      380000000   -4,446253553e-02   -7,276280969e-02    7,139329314e-01    1,995198429e-01    0,000000000e+00    0,000000000e+00    0,000000000e+00    0,000000000e+00
      394000000   -7,084523886e-02   -5,788897350e-02    7,039520144e-01   -2,162856013e-01    0,000000000e+00    0,000000000e+00    0,000000000e+00    0,000000000e+00
      408000000   -7,708992809e-02   -3,047171235e-02    4,699997902e-01   -5,599157810e-01    0,000000000e+00    0,000000000e+00    0,000000000e+00    0,000000000e+00
      422000000   -6,543291360e-02   -1,130253635e-02    9,323641658e-02   -7,183519602e-01    0,000000000e+00    0,000000000e+00    0,000000000e+00    0,000000000e+00
      436000000   -5,274260044e-02   -4,548725672e-03   -3,027059734e-01   -6,476312876e-01    0,000000000e+00    0,000000000e+00    0,000000000e+00    0,000000000e+00
      450000000   -4,467347264e-02    1,690253150e-03   -5,933859348e-01   -3,776294589e-01    0,000000000e+00    0,000000000e+00    0,000000000e+00    0,000000000e+00
      464000000   -2,982378751e-02    1,130982023e-02   -6,910827756e-01    5,735041850e-05    0,000000000e+00    0,000000000e+00    0,000000000e+00    0,000000000e+00
      478000000   -8,798792842e-04    1,130123157e-02   -5,734816790e-01    3,635816574e-01    0,000000000e+00    0,000000000e+00    0,000000000e+00    0,000000000e+00
      492000000    2,749472484e-02   -1,226444077e-02   -2,888736129e-01    6,019228101e-01    0,000000000e+00    0,000000000e+00    0,000000000e+00    0,000000000e+00
      506000000    3,642112389e-02   -5,593112856e-02    6,940699369e-02    6,589172482e-01    0,000000000e+00    0,000000000e+00    0,000000000e+00    0,000000000e+00
      520000000    1,304542925e-02   -9,828247875e-02    4,028749466e-01    5,276409984e-01    0,000000000e+00    0,000000000e+00    0,000000000e+00    0,000000000e+00
      534000000   -3,409129754e-02   -1,162180007e-01    6,238305569e-01    2,361471504e-01    0,000000000e+00    0,000000000e+00    0,000000000e+00    0,000000000e+00
      548000000   -7,735047489e-02   -9,905645251e-02    6,581149697e-01   -1,330756843e-01    0,000000000e+00    0,000000000e+00    0,000000000e+00    0,000000000e+00
      562000000   -9,333395213e-02   -6,616537273e-02    4,816523790e-01   -4,664176404e-01    0,000000000e+00    0,000000000e+00    0,000000000e+00    0,000000000e+00
      576000000   -8,650843054e-02   -4,465722665e-02    1,505475193e-01   -6,478141546e-01    0,000000000e+00    0,000000000e+00    0,000000000e+00    0,000000000e+00
      590000000   -8,077616990e-02   -4,149974138e-02   -2,187737525e-01   -6,279643178e-01    0,000000000e+00    0,000000000e+00    0,000000000e+00    0,000000000e+00
      604000000   -8,887460828e-02   -3,713002428e-02   -5,200551748e-01   -4,064673185e-01    0,000000000e+00    0,000000000e+00    0,000000000e+00    0,000000000e+00
      618000000   -9,674154222e-02   -1,468268782e-02   -6,533924937e-01   -5,820573866e-02    0,000000000e+00    0,000000000e+00    0,000000000e+00    0,000000000e+00
      632000000   -8,057629317e-02    1,488608774e-02   -5,755622387e-01    3,026788533e-01    0,000000000e+00    0,000000000e+00    0,000000000e+00    0,000000000e+00
      646000000   -4,295539856e-02    2,599553950e-02   -3,196754158e-01    5,564782023e-01    0,000000000e+00    0,000000000e+00    0,000000000e+00    0,000000000e+00
      660000000   -7,352763787e-03    6,393101532e-03    2,213450707e-02    6,305522323e-01    0,000000000e+00    0,000000000e+00    0,000000000e+00    0,000000000e+00
      674000000    1,328287297e-03   -3,058769368e-02    3,422413766e-01    5,186299086e-01    0,000000000e+00    0,000000000e+00    0,000000000e+00    0,000000000e+00
      688000000   -1,514137909e-02   -5,501674116e-02    5,586376190e-01    2,581685483e-01    0,000000000e+00    0,000000000e+00    0,000000000e+00    0,000000000e+00
      702000000   -3,457973897e-02   -5,935016274e-02    6,083394289e-01   -8,088799566e-02    0,000000000e+00    0,000000000e+00    0,000000000e+00    0,000000000e+00
      716000000   -3,752855957e-02   -5,612917989e-02    4,594645202e-01   -3,892394304e-01    0,000000000e+00    0,000000000e+00    0,000000000e+00    0,000000000e+00
      730000000   -3,234669194e-02   -6,455510855e-02    1,749974489e-01   -5,655067563e-01    0,000000000e+00    0,000000000e+00    0,000000000e+00    0,000000000e+00
      744000000   -3,988621756e-02   -8,875263482e-02   -1,523825228e-01   -5,631294250e-01    0,000000000e+00    0,000000000e+00    0,000000000e+00    0,000000000e+00
      758000000   -7,146286964e-02   -1,046985462e-01   -4,271391034e-01   -3,945158422e-01    0,000000000e+00    0,000000000e+00    0,000000000e+00    0,000000000e+00
      772000000   -1,135207638e-01   -9,361266345e-02   -5,744683146e-01   -1,060528532e-01    0,000000000e+00    0,000000000e+00    0,000000000e+00    0,000000000e+00
      786000000   -1,390532702e-01   -5,554032698e-02   -5,454167724e-01    2,207517624e-01    0,000000000e+00    0,000000000e+00    0,000000000e+00    0,000000000e+00
      800000000   -1,335924417e-01   -1,423252560e-02   -3,416674435e-01    4,803729355e-01    0,000000000e+00    0,000000000e+00    0,000000000e+00    0,000000000e+00
      814000000   -1,088909954e-01    8,638672531e-03   -3,385061026e-02    5,867508054e-01    0,000000000e+00    0,000000000e+00    0,000000000e+00    0,000000000e+00
      828000000   -8,609113842e-02    1,320413407e-02    2,775773108e-01    5,153386593e-01    0,000000000e+00    0,000000000e+00    0,000000000e+00    0,000000000e+00
      842000000   -7,098232955e-02    1,565963402e-02    5,021595955e-01    2,895945013e-01    0,000000000e+00    0,000000000e+00    0,000000000e+00    0,000000000e+00
      856000000   -5,184972659e-02    1,961759850e-02    5,705590248e-01   -1,791621745e-02    0,000000000e+00    0,000000000e+00    0,000000000e+00    0,000000000e+00
      870000000   -2,319723926e-02    1,442973688e-02    4,638080299e-01   -3,065651953e-01    0,000000000e+00    0,000000000e+00    0,000000000e+00    0,000000000e+00
      884000000    6,062482484e-03   -1,490458101e-02    2,301439941e-01   -4,879962802e-01    0,000000000e+00    0,000000000e+00    0,000000000e+00    0,000000000e+00
      898000000    1,177903358e-02   -6,359913945e-02   -5,292080343e-02   -5,260297060e-01    0,000000000e+00    0,000000000e+00    0,000000000e+00    0,000000000e+00
      912000000   -2,339582890e-02   -1,092385873e-01   -3,555419743e-01   -4,100019634e-01    0,000000000e+00    0,000000000e+00    0,000000000e+00    0,000000000e+00
      926000000   -7,673631608e-02   -1,243955567e-01   -5,337131619e-01   -1,591931880e-01    0,000000000e+00    0,000000000e+00    0,000000000e+00    0,000000000e+00
      940000000   -1,203375310e-01   -1,030092090e-01   -5,516045094e-01    1,563749909e-01    0,000000000e+00    0,000000000e+00    0,000000000e+00    0,000000000e+00
      954000000   -1,432887316e-01   -6,318675727e-02   -3,921719790e-01    4,452653229e-01    0,000000000e+00    0,000000000e+00    0,000000000e+00    0,000000000e+00
      968000000   -1,314189583e-01   -2,499758266e-02   -9,325860441e-02    6,046160460e-01    0,000000000e+00    0,000000000e+00    0,000000000e+00    0,000000000e+00
      982000000   -1,155701131e-01   -1,247913204e-02    2,479574084e-01    5,731798410e-01    0,000000000e+00    0,000000000e+00    0,000000000e+00    0,000000000e+00
      996000000   -1,030459553e-01   -1,456007920e-02    5,135203004e-01    3,677275777e-01    0,000000000e+00    0,000000000e+00    0,000000000e+00    0,000000000e+00
     1010000000   -1,017912552e-01   -6,483030040e-03    6,279600263e-01    5,104807764e-02    0,000000000e+00    0,000000000e+00    0,000000000e+00    0,000000000e+00
     1024000000   -9,075980633e-02   -3,046431812e-03    5,596319437e-01   -2,721111178e-01    0,000000000e+00    0,000000000e+00    0,000000000e+00    0,000000000e+00
     1038000000   -7,209818810e-02   -1,655176398e-03    3,381384909e-01   -5,028487444e-01    0,000000000e+00    0,000000000e+00    0,000000000e+00    0,000000000e+00
     1052000000   -6,845333427e-02   -1,573187113e-02    3,450937942e-02   -5,847544074e-01    0,000000000e+00    0,000000000e+00    0,000000000e+00    0,000000000e+00
     1066000000   -7,187156379e-02   -3,266419470e-02   -2,652936280e-01   -4,982605278e-01    0,000000000e+00    0,000000000e+00    0,000000000e+00    0,000000000e+00
     1080000000   -8,076303452e-02   -2,680798620e-02   -4,809358418e-01   -2,697816491e-01    0,000000000e+00    0,000000000e+00    0,000000000e+00    0,000000000e+00
     1094000000   -8,082201332e-02   -1,460279711e-02   -5,316634178e-01    4,134739563e-02    0,000000000e+00    0,000000000e+00    0,000000000e+00    0,000000000e+00
     1108000000   -5,720442906e-02   -1,352152973e-02   -4,017501175e-01    3,258905113e-01    0,000000000e+00    0,000000000e+00    0,000000000e+00    0,000000000e+00
     1122000000   -2,986232750e-02   -3,398401663e-02   -1,335353702e-01    4,800215960e-01    0,000000000e+00    0,000000000e+00    0,000000000e+00    0,000000000e+00
     1136000000   -2,861932479e-02   -8,895657957e-02    1,614438593e-01    4,760489464e-01    0,000000000e+00    0,000000000e+00    0,000000000e+00    0,000000000e+00
     1150000000   -6,590312719e-02   -1,382012516e-01    4,200921059e-01    3,111002445e-01    0,000000000e+00    0,000000000e+00    0,000000000e+00    0,000000000e+00
     1164000000   -1,347129196e-01   -1,541487277e-01    5,638750196e-01    2,785326540e-02    0,000000000e+00    0,000000000e+00    0,000000000e+00    0,000000000e+00
     1178000000   -2,104448378e-01   -1,163275018e-01    5,306875706e-01   -3,167183101e-01    0,000000000e+00    0,000000000e+00    0,000000000e+00    0,000000000e+00
     1192000000   -2,490972728e-01   -4,505797103e-02    2,918913364e-01   -5,973352790e-01    0,000000000e+00    0,000000000e+00    0,000000000e+00    0,000000000e+00
     1206000000   -2,326721400e-01    3,599696234e-02   -6,340558082e-02   -6,984632015e-01    0,000000000e+00    0,000000000e+00    0,000000000e+00    0,000000000e+00
     1220000000   -1,882794946e-01    8,923701197e-02   -4,198310077e-01   -5,808699727e-01    0,000000000e+00    0,000000000e+00    0,000000000e+00    0,000000000e+00
     1234000000   -1,284561455e-01    1,038569361e-01   -6,468786597e-01   -2,909991741e-01    0,000000000e+00    0,000000000e+00    0,000000000e+00    0,000000000e+00
     1248000000   -6,353587657e-02    1,002213284e-01   -6,722355485e-01    6,847903877e-02    0,000000000e+00    0,000000000e+00    0,000000000e+00    0,000000000e+00
     1262000000   -1,091378275e-02    6,331839412e-02   -5,180488229e-01    3,702669442e-01    0,000000000e+00    0,000000000e+00    0,000000000e+00    0,000000000e+00
     1276000000    2,195202932e-02   -1,601258526e-03   -2,430858612e-01    5,487018228e-01    0,000000000e+00    0,000000000e+00    0,000000000e+00    0,000000000e+00
     1290000000    2,301695384e-02   -8,641352504e-02    6,850472838e-02    5,760498643e-01    0,000000000e+00    0,000000000e+00    0,000000000e+00    0,000000000e+00
     1304000000   -3,169171512e-02   -1,692350507e-01    3,636287153e-01    4,713557363e-01    0,000000000e+00    0,000000000e+00    0,000000000e+00    0,000000000e+00
     1318000000   -1,330214441e-01   -2,148040682e-01    5,901220441e-01    2,225930691e-01    0,000000000e+00    0,000000000e+00    0,000000000e+00    0,000000000e+00
     1332000000   -2,522403598e-01   -1,862671524e-01    6,597015262e-01   -1,222862825e-01    0,000000000e+00    0,000000000e+00    0,000000000e+00    0,000000000e+00
     1346000000   -3,268975616e-01   -9,126783162e-02    5,113388300e-01   -4,606565833e-01    0,000000000e+00    0,000000000e+00    0,000000000e+00    0,000000000e+00
     1360000000   -3,316762447e-01    2,139905468e-02    1,938912570e-01   -6,536610126e-01    0,000000000e+00    0,000000000e+00    0,000000000e+00    0,000000000e+00
     1374000000   -2,788820267e-01    1,020265371e-01   -1,588950604e-01   -6,060147285e-01    0,000000000e+00    0,000000000e+00    0,000000000e+00    0,000000000e+00
     1388000000   -2,105015665e-01    1,403955221e-01   -4,031333327e-01   -3,784620762e-01    0,000000000e+00    0,000000000e+00    0,000000000e+00    0,000000000e+00
     1402000000   -1,508763134e-01    1,395670921e-01   -4,911995232e-01   -6,167338416e-02    0,000000000e+00    0,000000000e+00    0,000000000e+00    0,000000000e+00
     1416000000   -9,696349502e-02    1,193388626e-01   -3,779962361e-01    2,540672123e-01    0,000000000e+00    0,000000000e+00    0,000000000e+00    0,000000000e+00
     1430000000   -5,818615481e-02    7,233215123e-02   -1,733325869e-01    4,683505595e-01    0,000000000e+00    0,000000000e+00    0,000000000e+00    0,000000000e+00
     1444000000   -4,653028399e-02    1,637605601e-03    1,552032530e-01    5,327059031e-01    0,000000000e+00    0,000000000e+00    0,000000000e+00    0,000000000e+00
     1458000000   -6,293298304e-02   -7,737483084e-02    4,876681566e-01    4,680792987e-01    0,000000000e+00    0,000000000e+00    0,000000000e+00    0,000000000e+00
     1472000000   -1,401898563e-01   -1,251484454e-01    7,581102252e-01    2,577639222e-01    0,000000000e+00    0,000000000e+00    0,000000000e+00    0,000000000e+00
     1486000000   -2,273585051e-01   -1,096368060e-01    8,916996121e-01   -7,387311012e-02    0,000000000e+00    0,000000000e+00    0,000000000e+00    0,000000000e+00
     1500000000   -2,915114760e-01   -4,226563871e-02    8,025978804e-01   -4,496500194e-01    0,000000000e+00    0,000000000e+00    0,000000000e+00    0,000000000e+00
