! NanoVNA-App
! Date: 2025-09-25 15:11:49
! Start: 100MHz Stop: 1,5GHz Points: 101
! S-Parameter data: F S11 S21 S12 S22
# Hz S RI R 50
!     Frequency           S11_Real           S11_Imag           S21_Real           S21_Imag           S12_Real           S12_Imag           S22_Real           S22_Imag
      100000000    3,114121221e-02    2,862969041e-02    4,349117279e-01   -6,686122417e-01    0,000000000e+00    0,000000000e+00    0,000000000e+00    0,000000000e+00
      114000000    5,758452043e-02    5,504969507e-03    7,762128487e-03   -7,909809351e-01    0,000000000e+00    0,000000000e+00    0,000000000e+00    0,000000000e+00
      128000000    6,723660231e-02   -3,779934347e-02   -4,103669822e-01   -6,710447669e-01    0,000000000e+00    0,000000000e+00    0,000000000e+00    0,000000000e+00
      142000000    4,472713172e-02   -8,422365785e-02   -7,028511763e-01   -3,532973826e-01    0,000000000e+00    0,000000000e+00    0,000000000e+00    0,000000000e+00
      156000000   -5,948134698e-03   -1,058922783e-01   -7,860879898e-01    7,248792797e-02    0,000000000e+00    0,000000000e+00    0,000000000e+00    0,000000000e+00
      170000000   -5,766088143e-02   -9,057311714e-02   -6,275823712e-01    4,867442548e-01    0,000000000e+00    0,000000000e+00    0,000000000e+00    0,000000000e+00
      184000000   -8,369290829e-02   -4,943686351e-02   -2,654712200e-01    7,516891360e-01    0,000000000e+00    0,000000000e+00    0,000000000e+00    0,000000000e+00
      198000000   -7,964629680e-02   -1,047753729e-02    1,834578216e-01    7,733333707e-01    0,000000000e+00    0,000000000e+00    0,000000000e+00    0,000000000e+00
      212000000   -6,225123256e-02    1,320956834e-02    5,691122413e-01    5,490491986e-01    0,000000000e+00    0,000000000e+00    0,000000000e+00    0,000000000e+00
      226000000   -4,327705875e-02    2,774749137e-02    7,707235217e-01    1,545278132e-01    0,000000000e+00    0,000000000e+00    0,000000000e+00    0,000000000e+00
      240000000   -1,820731163e-02    3,854976222e-02    7,268049121e-01   -2,821066678e-01    0,000000000e+00    0,000000000e+00    0,000000000e+00    0,000000000e+00
      254000000    1,720078848e-02    3,521826118e-02    4,579908550e-01   -6,202517748e-01    0,000000000e+00    0,000000000e+00    0,000000000e+00    0,000000000e+00
      268000000    4,878523946e-02    5,614161957e-03    5,859167501e-02   -7,600665689e-01    0,000000000e+00    0,000000000e+00    0,000000000e+00    0,000000000e+00
      282000000    5,353651196e-02   -4,179212078e-02   -3,491077125e-01   -6,715454459e-01    0,000000000e+00    0,000000000e+00    0,000000000e+00    0,000000000e+00
      296000000    2,401643991e-02   -7,946708798e-02   -6,520749927e-01   -3,857945800e-01    0,000000000e+00    0,000000000e+00    0,000000000e+00    0,000000000e+00
      310000000   -1,767621934e-02   -8,327786624e-02   -7,626381516e-01    1,935423724e-02    0,000000000e+00    0,000000000e+00    0,000000000e+00    0,000000000e+00
      324000000   -4,167260230e-02   -5,894815177e-02   -6,324153543e-01    4,311581850e-01    0,000000000e+00    0,000000000e+00    0,000000000e+00    0,000000000e+00
      338000000   -3,447776660e-02   -3,708487004e-02   -2,956871390e-01    7,023438811e-01    0,000000000e+00    0,000000000e+00    0,000000000e+00    0,000000000e+00
      352000000   -1,735382527e-02   -4,100605473e-02    1,247558743e-01    7,429854870e-01    0,000000000e+00    0,000000000e+00    0,000000000e+00    0,000000000e+00
      366000000   -1,915235631e-02   -6,212471426e-02    4,969765544e-01    5,548120141e-01    0,000000000e+00    0,000000000e+00    0,000000000e+00    0,000000000e+00
      380000000   -4,467379302e-02   -7,255584747e-02    7,137459517e-01    2,002187520e-01    0,000000000e+00    0,000000000e+00    0,000000000e+00    0,000000000e+00
      394000000   -7,080490887e-02   -5,819517374e-02    7,039138675e-01   -2,169766128e-01    0,000000000e+00    0,000000000e+00    0,000000000e+00    0,000000000e+00
      408000000   -7,709605247e-02   -3,037314862e-02    4,701133072e-01   -5,602676272e-01    0,000000000e+00    0,000000000e+00    0,000000000e+00    0,000000000e+00
      422000000   -6,562487781e-02   -1,111361012e-02    9,336218238e-02   -7,179568410e-01    0,000000000e+00    0,000000000e+00    0,000000000e+00    0,000000000e+00
      436000000   -5,313761905e-02   -4,575403407e-03   -3,026139140e-01   -6,467256546e-01    0,000000000e+00    0,000000000e+00    0,000000000e+00    0,000000000e+00
      450000000   -4,463944212e-02    1,953260973e-03   -5,928869247e-01   -3,780960441e-01    0,000000000e+00    0,000000000e+00    0,000000000e+00    0,000000000e+00
      464000000   -2,950818092e-02    1,134526730e-02   -6,910721660e-01    1,578539377e-04    0,000000000e+00    0,000000000e+00    0,000000000e+00    0,000000000e+00
      478000000   -1,078612870e-03    1,105163712e-02   -5,735213757e-01    3,632908762e-01    0,000000000e+00    0,000000000e+00    0,000000000e+00    0,000000000e+00
      492000000    2,820659801e-02   -1,231019758e-02   -2,894163430e-01    6,025759578e-01    0,000000000e+00    0,000000000e+00    0,000000000e+00    0,000000000e+00
      506000000    3,695582971e-02   -5,569795892e-02    6,929592788e-02    6,585695148e-01    0,000000000e+00    0,000000000e+00    0,000000000e+00    0,000000000e+00
      520000000    1,327846386e-02   -9,890417755e-02    4,045390487e-01    5,255313516e-01    0,000000000e+00    0,000000000e+00    0,000000000e+00    0,000000000e+00
      534000000   -3,400966525e-02   -1,163163483e-01    6,241990924e-01    2,361730039e-01    0,000000000e+00    0,000000000e+00    0,000000000e+00    0,000000000e+00
      548000000   -7,742230594e-02   -9,904493392e-02    6,579348445e-01   -1,329318285e-01    0,000000000e+00    0,000000000e+00    0,000000000e+00    0,000000000e+00
      562000000   -9,286525846e-02   -6,607089937e-02    4,823249578e-01   -4,663102031e-01    0,000000000e+00    0,000000000e+00    0,000000000e+00    0,000000000e+00
      576000000   -8,640413731e-02   -4,468591884e-02    1,506863683e-01   -6,487205625e-01    0,000000000e+00    0,000000000e+00    0,000000000e+00    0,000000000e+00
      590000000   -8,104413003e-02   -4,171266779e-02   -2,212817669e-01   -6,269999146e-01    0,000000000e+00    0,000000000e+00    0,000000000e+00    0,000000000e+00
      604000000   -8,897956461e-02   -3,756280616e-02   -5,195529461e-01   -4,059164822e-01    0,000000000e+00    0,000000000e+00    0,000000000e+00    0,000000000e+00
      618000000   -9,672867507e-02   -1,454804651e-02   -6,530496478e-01   -5,820636079e-02    0,000000000e+00    0,000000000e+00    0,000000000e+00    0,000000000e+00
      632000000   -8,059682697e-02    1,501976419e-02   -5,754762888e-01    3,024167418e-01    0,000000000e+00    0,000000000e+00    0,000000000e+00    0,000000000e+00
      646000000   -4,231997579e-02    2,636440471e-02   -3,190695941e-01    5,557881594e-01    0,000000000e+00    0,000000000e+00    0,000000000e+00    0,000000000e+00
      660000000   -7,039445918e-03    6,230456289e-03    2,092749067e-02    6,294113994e-01    0,000000000e+00    0,000000000e+00    0,000000000e+00    0,000000000e+00
      674000000    6,637937622e-04   -3,060657904e-02    3,423595726e-01    5,184375048e-01    0,000000000e+00    0,000000000e+00    0,000000000e+00    0,000000000e+00
      688000000   -1,511859987e-02   -5,630546808e-02    5,584723949e-01    2,581919134e-01    0,000000000e+00    0,000000000e+00    0,000000000e+00    0,000000000e+00
      702000000   -3,412280604e-02   -5,945086107e-02    6,028456688e-01   -8,018380404e-02    0,000000000e+00    0,000000000e+00    0,000000000e+00    0,000000000e+00
      716000000   -3,671982139e-02   -5,556869134e-02    4,600217342e-01   -3,898414373e-01    0,000000000e+00    0,000000000e+00    0,000000000e+00    0,000000000e+00
      730000000   -3,257597983e-02   -6,523233652e-02    1,745468378e-01   -5,660862923e-01    0,000000000e+00    0,000000000e+00    0,000000000e+00    0,000000000e+00
      744000000   -3,966714442e-02   -8,807064593e-02   -1,535904706e-01   -5,634765625e-01    0,000000000e+00    0,000000000e+00    0,000000000e+00    0,000000000e+00
      758000000   -7,178542018e-02   -1,056416184e-01   -4,276829660e-01   -3,947332203e-01    0,000000000e+00    0,000000000e+00    0,000000000e+00    0,000000000e+00
      772000000   -1,141189188e-01   -9,331055731e-02   -5,744380951e-01   -1,064004973e-01    0,000000000e+00    0,000000000e+00    0,000000000e+00    0,000000000e+00
      786000000   -1,396392733e-01   -5,616746843e-02   -5,451735854e-01    2,209980041e-01    0,000000000e+00    0,000000000e+00    0,000000000e+00    0,000000000e+00
      800000000   -1,335051507e-01   -1,516725030e-02   -3,419308662e-01    4,794706106e-01    0,000000000e+00    0,000000000e+00    0,000000000e+00    0,000000000e+00
      814000000   -1,080905497e-01    8,725740947e-03   -3,434002772e-02    5,864486694e-01    0,000000000e+00    0,000000000e+00    0,000000000e+00    0,000000000e+00
      828000000   -8,527483046e-02    1,335391775e-02    2,790282965e-01    5,156610012e-01    0,000000000e+00    0,000000000e+00    0,000000000e+00    0,000000000e+00
      842000000   -7,129377872e-02    1,494128816e-02    5,031803250e-01    2,899976373e-01    0,000000000e+00    0,000000000e+00    0,000000000e+00    0,000000000e+00
      856000000   -5,227422342e-02    1,904299669e-02    5,709777474e-01   -1,806142367e-02    0,000000000e+00    0,000000000e+00    0,000000000e+00    0,000000000e+00
      870000000   -2,313788049e-02    1,464401931e-02    4,632729292e-01   -3,066713512e-01    0,000000000e+00    0,000000000e+00    0,000000000e+00    0,000000000e+00
      884000000    6,121632643e-03   -1,451200154e-02    2,301539630e-01   -4,876281023e-01    0,000000000e+00    0,000000000e+00    0,000000000e+00    0,000000000e+00
      898000000    1,178963482e-02   -6,326689571e-02   -5,202767998e-02   -5,270581841e-01    0,000000000e+00    0,000000000e+00    0,000000000e+00    0,000000000e+00
      912000000   -2,301133610e-02   -1,091552526e-01   -3,594276309e-01   -4,094670117e-01    0,000000000e+00    0,000000000e+00    0,000000000e+00    0,000000000e+00
      926000000   -7,414643466e-02   -1,252160817e-01   -5,307223201e-01   -1,598016918e-01    0,000000000e+00    0,000000000e+00    0,000000000e+00    0,000000000e+00
      940000000   -1,261405647e-01   -1,027859896e-01   -5,543923974e-01    1,551917642e-01    0,000000000e+00    0,000000000e+00    0,000000000e+00    0,000000000e+00
      954000000   -1,427499503e-01   -6,327208877e-02   -3,935723305e-01    4,447416663e-01    0,000000000e+00    0,000000000e+00    0,000000000e+00    0,000000000e+00
      968000000   -1,308566481e-01   -2,931151167e-02   -9,080858529e-02    6,022176743e-01    0,000000000e+00    0,000000000e+00    0,000000000e+00    0,000000000e+00
      982000000   -1,170884892e-01   -1,337575447e-02    2,433282733e-01    5,719241500e-01    0,000000000e+00    0,000000000e+00    0,000000000e+00    0,000000000e+00
      996000000   -1,037219763e-01   -1,557600126e-02    5,130458474e-01    3,651562929e-01    0,000000000e+00    0,000000000e+00    0,000000000e+00    0,000000000e+00
     1010000000   -9,944378585e-02   -7,152853534e-03    6,278687716e-01    5,165416747e-02    0,000000000e+00    0,000000000e+00    0,000000000e+00    0,000000000e+00
     1024000000   -9,645164758e-02    7,233146462e-04    5,620946288e-01   -2,724157870e-01    0,000000000e+00    0,000000000e+00    0,000000000e+00    0,000000000e+00
     1038000000   -7,333546132e-02   -1,546928834e-04    3,369941711e-01   -5,030189157e-01    0,000000000e+00    0,000000000e+00    0,000000000e+00    0,000000000e+00
     1052000000   -6,501027942e-02   -2,038308792e-02    3,273745254e-02   -5,855020881e-01    0,000000000e+00    0,000000000e+00    0,000000000e+00    0,000000000e+00
     1066000000   -7,339908183e-02   -2,942269295e-02   -2,731711864e-01   -5,038239956e-01    0,000000000e+00    0,000000000e+00    0,000000000e+00    0,000000000e+00
     1080000000   -7,818353176e-02   -3,102231957e-02   -4,807818532e-01   -2,675795257e-01    0,000000000e+00    0,000000000e+00    0,000000000e+00    0,000000000e+00
     1094000000   -8,469088376e-02   -1,694473438e-02   -5,315497518e-01    4,213151336e-02    0,000000000e+00    0,000000000e+00    0,000000000e+00    0,000000000e+00
     1108000000   -5,929150805e-02   -1,508456375e-02   -3,978100717e-01    3,284540772e-01    0,000000000e+00    0,000000000e+00    0,000000000e+00    0,000000000e+00
     1122000000   -2,827527374e-02   -3,750079125e-02   -1,365588009e-01    4,815716147e-01    0,000000000e+00    0,000000000e+00    0,000000000e+00    0,000000000e+00
     1136000000   -2,508227900e-02   -8,492646366e-02    1,618817896e-01    4,740359187e-01    0,000000000e+00    0,000000000e+00    0,000000000e+00    0,000000000e+00
     1150000000   -6,293955445e-02   -1,335539371e-01    4,176612794e-01    3,132045865e-01    0,000000000e+00    0,000000000e+00    0,000000000e+00    0,000000000e+00
     1164000000   -1,393103302e-01   -1,558963507e-01    5,644113421e-01    2,340347506e-02    0,000000000e+00    0,000000000e+00    0,000000000e+00    0,000000000e+00
     1178000000   -2,117420733e-01   -1,174389943e-01    5,281633139e-01   -3,144721687e-01    0,000000000e+00    0,000000000e+00    0,000000000e+00    0,000000000e+00
     1192000000   -2,456536144e-01   -4,390743375e-02    2,955458462e-01   -5,981816649e-01    0,000000000e+00    0,000000000e+00    0,000000000e+00    0,000000000e+00
     1206000000   -2,323093712e-01    3,804608434e-02   -6,540812552e-02   -6,998787522e-01    0,000000000e+00    0,000000000e+00    0,000000000e+00    0,000000000e+00
     1220000000   -1,874157041e-01    8,995416760e-02   -4,245052934e-01   -5,792956352e-01    0,000000000e+00    0,000000000e+00    0,000000000e+00    0,000000000e+00
     1234000000   -1,300970614e-01    1,045827419e-01   -6,435335875e-01   -2,932219803e-01    0,000000000e+00    0,000000000e+00    0,000000000e+00    0,000000000e+00
     1248000000   -6,473238021e-02    1,035627723e-01   -6,759814024e-01    6,401540339e-02    0,000000000e+00    0,000000000e+00    0,000000000e+00    0,000000000e+00
     1262000000   -1,124642417e-02    6,161795184e-02   -5,177466869e-01    3,614160419e-01    0,000000000e+00    0,000000000e+00    0,000000000e+00    0,000000000e+00
     1276000000    2,423729934e-02   -3,573635127e-03   -2,416460961e-01    5,473042727e-01    0,000000000e+00    0,000000000e+00    0,000000000e+00    0,000000000e+00
     1290000000    2,417013608e-02   -8,609260619e-02    7,143273205e-02    5,792735815e-01    0,000000000e+00    0,000000000e+00    0,000000000e+00    0,000000000e+00
     1304000000   -3,316549584e-02   -1,681587696e-01    3,614613116e-01    4,755481184e-01    0,000000000e+00    0,000000000e+00    0,000000000e+00    0,000000000e+00
     1318000000   -1,328236312e-01   -2,178559452e-01    5,943936110e-01    2,190573066e-01    0,000000000e+00    0,000000000e+00    0,000000000e+00    0,000000000e+00
     1332000000   -2,548541129e-01   -1,876393110e-01    6,551894546e-01   -1,248388663e-01    0,000000000e+00    0,000000000e+00    0,000000000e+00    0,000000000e+00
     1346000000   -3,320745230e-01   -8,741480112e-02    5,125944018e-01   -4,602499902e-01    0,000000000e+00    0,000000000e+00    0,000000000e+00    0,000000000e+00
     1360000000   -3,305297196e-01    2,035906725e-02    1,938222349e-01   -6,542435288e-01    0,000000000e+00    0,000000000e+00    0,000000000e+00    0,000000000e+00
     1374000000   -2,810180783e-01    1,056540310e-01   -1,564023346e-01   -6,016799212e-01    0,000000000e+00    0,000000000e+00    0,000000000e+00    0,000000000e+00
     1388000000   -2,093558013e-01    1,419907510e-01   -4,059509635e-01   -3,736481369e-01    0,000000000e+00    0,000000000e+00    0,000000000e+00    0,000000000e+00
     1402000000   -1,490789354e-01    1,422749609e-01   -4,824882746e-01   -6,457930803e-02    0,000000000e+00    0,000000000e+00    0,000000000e+00    0,000000000e+00
     1416000000   -9,939921647e-02    1,143910289e-01   -3,824496269e-01    2,450600564e-01    0,000000000e+00    0,000000000e+00    0,000000000e+00    0,000000000e+00
     1430000000   -5,234550685e-02    7,511698455e-02   -1,481130123e-01    4,881652594e-01    0,000000000e+00    0,000000000e+00    0,000000000e+00    0,000000000e+00
     1444000000   -3,893577680e-02    2,407139866e-03    1,582703590e-01    5,447646976e-01    0,000000000e+00    0,000000000e+00    0,000000000e+00    0,000000000e+00
     1458000000   -6,519787759e-02   -6,852231920e-02    4,900106788e-01    4,859724939e-01    0,000000000e+00    0,000000000e+00    0,000000000e+00    0,000000000e+00
     1472000000   -1,389828771e-01   -1,220007911e-01    7,569718361e-01    2,692314684e-01    0,000000000e+00    0,000000000e+00    0,000000000e+00    0,000000000e+00
     1486000000   -2,268214673e-01   -1,198924631e-01    9,036335945e-01   -9,574969113e-02    0,000000000e+00    0,000000000e+00    0,000000000e+00    0,000000000e+00
     1500000000   -2,883962095e-01   -4,575534910e-02    8,043168783e-01   -4,563163519e-01    0,000000000e+00    0,000000000e+00    0,000000000e+00    0,000000000e+00
