! NanoVNA-App
! Date: 2025-09-25 15:04:47
! Start: 100MHz Stop: 1,5GHz Points: 101
! S-Parameter data: F S11 S21 S12 S22
# Hz S RI R 50
!     Frequency           S11_Real           S11_Imag           S21_Real           S21_Imag           S12_Real           S12_Imag           S22_Real           S22_Imag
      100000000    3,111354634e-02    2,861505374e-02    4,347878993e-01   -6,686624885e-01    0,000000000e+00    0,000000000e+00    0,000000000e+00    0,000000000e+00
      114000000    5,753064528e-02    5,509858951e-03    7,851504721e-03   -7,910690904e-01    0,000000000e+00    0,000000000e+00    0,000000000e+00    0,000000000e+00
      128000000    6,721550971e-02   -3,778387606e-02   -4,103767276e-01   -6,711677313e-01    0,000000000e+00    0,000000000e+00    0,000000000e+00    0,000000000e+00
      142000000    4,469554499e-02   -8,414244652e-02   -7,030776143e-01   -3,531635106e-01    0,000000000e+00    0,000000000e+00    0,000000000e+00    0,000000000e+00
      156000000   -5,946709774e-03   -1,058636904e-01   -7,859808803e-01    7,269686460e-02    0,000000000e+00    0,000000000e+00    0,000000000e+00    0,000000000e+00
      170000000   -5,768956244e-02   -9,051508456e-02   -6,274416447e-01    4,873103201e-01    0,000000000e+00    0,000000000e+00    0,000000000e+00    0,000000000e+00
      184000000   -8,358733356e-02   -4,942170158e-02   -2,647570670e-01    7,511274815e-01    0,000000000e+00    0,000000000e+00    0,000000000e+00    0,000000000e+00
      198000000   -7,954572886e-02   -1,047651377e-02    1,836778671e-01    7,732024193e-01    0,000000000e+00    0,000000000e+00    0,000000000e+00    0,000000000e+00
      212000000   -6,224412844e-02    1,310985815e-02    5,695035458e-01    5,492062569e-01    0,000000000e+00    0,000000000e+00    0,000000000e+00    0,000000000e+00
      226000000   -4,319895804e-02    2,761457115e-02    7,708126307e-01    1,543737501e-01    0,000000000e+00    0,000000000e+00    0,000000000e+00    0,000000000e+00
      240000000   -1,817986183e-02    3,840303794e-02    7,267432213e-01   -2,821955979e-01    0,000000000e+00    0,000000000e+00    0,000000000e+00    0,000000000e+00
      254000000    1,713631861e-02    3,509929776e-02    4,579364061e-01   -6,202294827e-01    0,000000000e+00    0,000000000e+00    0,000000000e+00    0,000000000e+00
      268000000    4,866974801e-02    5,564065650e-03    5,816363916e-02   -7,603731751e-01    0,000000000e+00    0,000000000e+00    0,000000000e+00    0,000000000e+00
      282000000    5,330825597e-02   -4,177192599e-02   -3,492382467e-01   -6,718559265e-01    0,000000000e+00    0,000000000e+00    0,000000000e+00    0,000000000e+00
      296000000    2,397711203e-02   -7,943712920e-02   -6,521078348e-01   -3,856191337e-01    0,000000000e+00    0,000000000e+00    0,000000000e+00    0,000000000e+00
      310000000   -1,793343760e-02   -8,301368356e-02   -7,639994025e-01    1,985725760e-02    0,000000000e+00    0,000000000e+00    0,000000000e+00    0,000000000e+00
      324000000   -4,157382995e-02   -5,873647332e-02   -6,316558123e-01    4,315932691e-01    0,000000000e+00    0,000000000e+00    0,000000000e+00    0,000000000e+00
      338000000   -3,430797160e-02   -3,691796958e-02   -2,948179841e-01    7,026752830e-01    0,000000000e+00    0,000000000e+00    0,000000000e+00    0,000000000e+00
      352000000   -1,721106470e-02   -4,065983370e-02    1,260230541e-01    7,419573665e-01    0,000000000e+00    0,000000000e+00    0,000000000e+00    0,000000000e+00
      366000000   -1,921441592e-02   -6,182962656e-02    4,981051683e-01    5,545682907e-01    0,000000000e+00    0,000000000e+00    0,000000000e+00    0,000000000e+00
      380000000   -4,430346563e-02   -7,267004251e-02    7,131721973e-01    1,998757720e-01    0,000000000e+00    0,000000000e+00    0,000000000e+00    0,000000000e+00
      394000000   -7,096890360e-02   -5,820893496e-02    7,041292787e-01   -2,168490589e-01    0,000000000e+00    0,000000000e+00    0,000000000e+00    0,000000000e+00
      408000000   -7,693137228e-02   -3,051713482e-02    4,710540771e-01   -5,591600537e-01    0,000000000e+00    0,000000000e+00    0,000000000e+00    0,000000000e+00
      422000000   -6,562095881e-02   -1,114023011e-02    9,327176213e-02   -7,173908949e-01    0,000000000e+00    0,000000000e+00    0,000000000e+00    0,000000000e+00
      436000000   -5,312551185e-02   -4,613615107e-03   -3,026082814e-01   -6,475435495e-01    0,000000000e+00    0,000000000e+00    0,000000000e+00    0,000000000e+00
      450000000   -4,502452910e-02    1,913127257e-03   -5,936747193e-01   -3,776037693e-01    0,000000000e+00    0,000000000e+00    0,000000000e+00    0,000000000e+00
      464000000   -2,936574630e-02    1,169263013e-02   -6,911802888e-01    5,045455764e-04    0,000000000e+00    0,000000000e+00    0,000000000e+00    0,000000000e+00
      478000000   -7,388929371e-04    1,088315994e-02   -5,727651119e-01    3,631650507e-01    0,000000000e+00    0,000000000e+00    0,000000000e+00    0,000000000e+00
      492000000    2,764206566e-02   -1,257529389e-02   -2,884565890e-01    6,015682817e-01    0,000000000e+00    0,000000000e+00    0,000000000e+00    0,000000000e+00
      506000000    3,614868596e-02   -5,617369711e-02    6,875611842e-02    6,577258110e-01    0,000000000e+00    0,000000000e+00    0,000000000e+00    0,000000000e+00
      520000000    1,177067962e-02   -9,899324924e-02    4,010683298e-01    5,215581656e-01    0,000000000e+00    0,000000000e+00    0,000000000e+00    0,000000000e+00
      534000000   -3,443666920e-02   -1,157305539e-01    6,238053441e-01    2,365311384e-01    0,000000000e+00    0,000000000e+00    0,000000000e+00    0,000000000e+00
      548000000   -7,776324451e-02   -9,869521111e-02    6,577734351e-01   -1,333005875e-01    0,000000000e+00    0,000000000e+00    0,000000000e+00    0,000000000e+00
      562000000   -9,324749559e-02   -6,623613089e-02    4,817557931e-01   -4,669776559e-01    0,000000000e+00    0,000000000e+00    0,000000000e+00    0,000000000e+00
      576000000   -8,559298515e-02   -4,515231028e-02    1,501844078e-01   -6,481844187e-01    0,000000000e+00    0,000000000e+00    0,000000000e+00    0,000000000e+00
      590000000   -8,058712631e-02   -4,199381545e-02   -2,197305262e-01   -6,253771186e-01    0,000000000e+00    0,000000000e+00    0,000000000e+00    0,000000000e+00
      604000000   -8,925483376e-02   -3,724617884e-02   -5,203388929e-01   -4,061022103e-01    0,000000000e+00    0,000000000e+00    0,000000000e+00    0,000000000e+00
      618000000   -9,633216262e-02   -1,502369530e-02   -6,533122063e-01   -5,825971067e-02    0,000000000e+00    0,000000000e+00    0,000000000e+00    0,000000000e+00
      632000000   -8,113153279e-02    1,576422155e-02   -5,754600763e-01    3,029367626e-01    0,000000000e+00    0,000000000e+00    0,000000000e+00    0,000000000e+00
      646000000   -4,252095893e-02    2,615396492e-02   -3,186811805e-01    5,558817983e-01    0,000000000e+00    0,000000000e+00    0,000000000e+00    0,000000000e+00
      660000000   -6,933877710e-03    6,141043734e-03    2,054518834e-02    6,292085648e-01    0,000000000e+00    0,000000000e+00    0,000000000e+00    0,000000000e+00
      674000000    1,602681470e-03   -2,939799801e-02    3,423600793e-01    5,183722973e-01    0,000000000e+00    0,000000000e+00    0,000000000e+00    0,000000000e+00
      688000000   -1,413229480e-02   -5,599615723e-02    5,591347218e-01    2,586874366e-01    0,000000000e+00    0,000000000e+00    0,000000000e+00    0,000000000e+00
      702000000   -3,300869837e-02   -5,996510014e-02    6,060733795e-01   -7,910908014e-02    0,000000000e+00    0,000000000e+00    0,000000000e+00    0,000000000e+00
      716000000   -3,688215464e-02   -5,586999655e-02    4,591428041e-01   -3,901005089e-01    0,000000000e+00    0,000000000e+00    0,000000000e+00    0,000000000e+00
      730000000   -3,232291713e-02   -6,479591131e-02    1,737893075e-01   -5,665276051e-01    0,000000000e+00    0,000000000e+00    0,000000000e+00    0,000000000e+00
      744000000   -4,032016546e-02   -8,844319731e-02   -1,531148404e-01   -5,636585951e-01    0,000000000e+00    0,000000000e+00    0,000000000e+00    0,000000000e+00
      758000000   -7,319289446e-02   -1,045849025e-01   -4,282964170e-01   -3,941290677e-01    0,000000000e+00    0,000000000e+00    0,000000000e+00    0,000000000e+00
      772000000   -1,136284545e-01   -9,250579774e-02   -5,748927593e-01   -1,048157290e-01    0,000000000e+00    0,000000000e+00    0,000000000e+00    0,000000000e+00
      786000000   -1,378018260e-01   -5,600171164e-02   -5,444635153e-01    2,218820304e-01    0,000000000e+00    0,000000000e+00    0,000000000e+00    0,000000000e+00
      800000000   -1,311584562e-01   -1,456330903e-02   -3,411467671e-01    4,799158275e-01    0,000000000e+00    0,000000000e+00    0,000000000e+00    0,000000000e+00
      814000000   -1,078834534e-01    7,322735619e-03   -3,432911262e-02    5,859908462e-01    0,000000000e+00    0,000000000e+00    0,000000000e+00    0,000000000e+00
      828000000   -8,481743187e-02    1,203340106e-02    2,783714831e-01    5,147004128e-01    0,000000000e+00    0,000000000e+00    0,000000000e+00    0,000000000e+00
      842000000   -7,066041231e-02    1,436952222e-02    5,025660396e-01    2,889457941e-01    0,000000000e+00    0,000000000e+00    0,000000000e+00    0,000000000e+00
      856000000   -5,318581685e-02    1,889806986e-02    5,703685284e-01   -1,802355796e-02    0,000000000e+00    0,000000000e+00    0,000000000e+00    0,000000000e+00
      870000000   -2,424641699e-02    1,504596416e-02    4,633864164e-01   -3,061832786e-01    0,000000000e+00    0,000000000e+00    0,000000000e+00    0,000000000e+00
      884000000    4,681117367e-03   -1,366387773e-02    2,306273133e-01   -4,883677661e-01    0,000000000e+00    0,000000000e+00    0,000000000e+00    0,000000000e+00
      898000000    1,184192859e-02   -6,216650829e-02   -5,285859853e-02   -5,250916481e-01    0,000000000e+00    0,000000000e+00    0,000000000e+00    0,000000000e+00
      912000000   -2,267588302e-02   -1,075934246e-01   -3,557420969e-01   -3,959599137e-01    0,000000000e+00    0,000000000e+00    0,000000000e+00    0,000000000e+00
      926000000   -7,373754680e-02   -1,248415485e-01   -5,312584043e-01   -1,600106210e-01    0,000000000e+00    0,000000000e+00    0,000000000e+00    0,000000000e+00
      940000000   -1,241376027e-01   -1,018661186e-01   -5,535525680e-01    1,563176662e-01    0,000000000e+00    0,000000000e+00    0,000000000e+00    0,000000000e+00
      954000000   -1,435609162e-01   -6,414026022e-02   -3,931381702e-01    4,449093938e-01    0,000000000e+00    0,000000000e+00    0,000000000e+00    0,000000000e+00
      968000000   -1,295807660e-01   -3,110311553e-02   -9,247594327e-02    6,024141312e-01    0,000000000e+00    0,000000000e+00    0,000000000e+00    0,000000000e+00
      982000000   -1,131788567e-01   -1,745892316e-02    2,466758937e-01    5,715425611e-01    0,000000000e+00    0,000000000e+00    0,000000000e+00    0,000000000e+00
      996000000   -1,093148515e-01   -1,552596688e-02    5,133278966e-01    3,655377030e-01    0,000000000e+00    0,000000000e+00    0,000000000e+00    0,000000000e+00
     1010000000   -1,044775695e-01   -4,073608667e-03    6,306688786e-01    5,282470211e-02    0,000000000e+00    0,000000000e+00    0,000000000e+00    0,000000000e+00
     1024000000   -9,476728737e-02    3,816810669e-03    5,597085953e-01   -2,732744813e-01    0,000000000e+00    0,000000000e+00    0,000000000e+00    0,000000000e+00
     1038000000   -7,204646617e-02    9,046189371e-04    3,379142880e-01   -5,046994686e-01    0,000000000e+00    0,000000000e+00    0,000000000e+00    0,000000000e+00
     1052000000   -6,398856640e-02   -1,748547517e-02    3,004397452e-02   -5,829650760e-01    0,000000000e+00    0,000000000e+00    0,000000000e+00    0,000000000e+00
     1066000000   -7,092642784e-02   -2,909513563e-02   -2,686239481e-01   -4,991018474e-01    0,000000000e+00    0,000000000e+00    0,000000000e+00    0,000000000e+00
     1080000000   -7,836425304e-02   -3,281980753e-02   -4,819104373e-01   -2,685663402e-01    0,000000000e+00    0,000000000e+00    0,000000000e+00    0,000000000e+00
     1094000000   -8,269480616e-02   -1,482931152e-02   -5,300627947e-01    4,321370646e-02    0,000000000e+00    0,000000000e+00    0,000000000e+00    0,000000000e+00
     1108000000   -6,112967804e-02   -9,457684122e-03   -3,960476518e-01    3,271061778e-01    0,000000000e+00    0,000000000e+00    0,000000000e+00    0,000000000e+00
     1122000000   -3,593513370e-02   -3,380635753e-02   -1,315723956e-01    4,773775041e-01    0,000000000e+00    0,000000000e+00    0,000000000e+00    0,000000000e+00
     1136000000   -3,021289781e-02   -8,606088161e-02    1,629679948e-01    4,694871902e-01    0,000000000e+00    0,000000000e+00    0,000000000e+00    0,000000000e+00
     1150000000   -6,475716829e-02   -1,309660375e-01    4,209794700e-01    3,040726781e-01    0,000000000e+00    0,000000000e+00    0,000000000e+00    0,000000000e+00
     1164000000   -1,328649372e-01   -1,537214518e-01    5,608828068e-01    2,544326708e-02    0,000000000e+00    0,000000000e+00    0,000000000e+00    0,000000000e+00
     1178000000   -2,133985907e-01   -1,188858896e-01    5,282729864e-01   -3,162083328e-01    0,000000000e+00    0,000000000e+00    0,000000000e+00    0,000000000e+00
     1192000000   -2,485371679e-01   -4,796924070e-02    2,914969623e-01   -5,964601636e-01    0,000000000e+00    0,000000000e+00    0,000000000e+00    0,000000000e+00
     1206000000   -2,349020243e-01    2,956139483e-02   -6,526861340e-02   -6,971372962e-01    0,000000000e+00    0,000000000e+00    0,000000000e+00    0,000000000e+00
     1220000000   -1,903562844e-01    8,604789525e-02   -4,175412655e-01   -5,740436912e-01    0,000000000e+00    0,000000000e+00    0,000000000e+00    0,000000000e+00
     1234000000   -1,258955449e-01    1,045828462e-01   -6,415410042e-01   -2,892186940e-01    0,000000000e+00    0,000000000e+00    0,000000000e+00    0,000000000e+00
     1248000000   -6,668809801e-02    9,518331289e-02   -6,736922860e-01    6,516291946e-02    0,000000000e+00    0,000000000e+00    0,000000000e+00    0,000000000e+00
     1262000000   -1,031708904e-02    6,220936403e-02   -5,088588595e-01    3,664314747e-01    0,000000000e+00    0,000000000e+00    0,000000000e+00    0,000000000e+00
     1276000000    2,391602658e-02   -6,174277514e-03   -2,430044264e-01    5,394684076e-01    0,000000000e+00    0,000000000e+00    0,000000000e+00    0,000000000e+00
     1290000000    1,617428102e-02   -8,586071432e-02    6,920966506e-02    5,792468786e-01    0,000000000e+00    0,000000000e+00    0,000000000e+00    0,000000000e+00
     1304000000   -2,868752182e-02   -1,692337692e-01    3,645389676e-01    4,632906020e-01    0,000000000e+00    0,000000000e+00    0,000000000e+00    0,000000000e+00
     1318000000   -1,342600584e-01   -2,132992446e-01    5,789777040e-01    2,231117785e-01    0,000000000e+00    0,000000000e+00    0,000000000e+00    0,000000000e+00
     1332000000   -2,522166371e-01   -1,951006800e-01    6,522688270e-01   -1,294370890e-01    0,000000000e+00    0,000000000e+00    0,000000000e+00    0,000000000e+00
     1346000000   -3,365387619e-01   -9,368298203e-02    5,073848367e-01   -4,594155550e-01    0,000000000e+00    0,000000000e+00    0,000000000e+00    0,000000000e+00
     1360000000   -3,378890753e-01    2,179870754e-02    1,885206997e-01   -6,436749697e-01    0,000000000e+00    0,000000000e+00    0,000000000e+00    0,000000000e+00
     1374000000   -2,797951400e-01    1,000948027e-01   -1,541662067e-01   -6,094890237e-01    0,000000000e+00    0,000000000e+00    0,000000000e+00    0,000000000e+00
     1388000000   -2,108796239e-01    1,418500394e-01   -4,009878635e-01   -3,760592043e-01    0,000000000e+00    0,000000000e+00    0,000000000e+00    0,000000000e+00
     1402000000   -1,464575827e-01    1,429080218e-01   -4,737892449e-01   -6,133896858e-02    0,000000000e+00    0,000000000e+00    0,000000000e+00    0,000000000e+00
     1416000000   -9,944377095e-02    1,246641800e-01   -3,760876358e-01    2,470681816e-01    0,000000000e+00    0,000000000e+00    0,000000000e+00    0,000000000e+00
     1430000000   -6,085648760e-02    7,209067792e-02   -1,770642549e-01    4,619202614e-01    0,000000000e+00    0,000000000e+00    0,000000000e+00    0,000000000e+00
     1444000000   -3,337414563e-02    6,124012172e-03    1,695875227e-01    5,426502228e-01    0,000000000e+00    0,000000000e+00    0,000000000e+00    0,000000000e+00
     1458000000   -6,575289369e-02   -7,165005058e-02    4,792836010e-01    4,693725407e-01    0,000000000e+00    0,000000000e+00    0,000000000e+00    0,000000000e+00
     1472000000   -1,352920681e-01   -1,259670556e-01    7,574129701e-01    2,559071481e-01    0,000000000e+00    0,000000000e+00    0,000000000e+00    0,000000000e+00
     1486000000   -2,299966961e-01   -1,139958650e-01    8,877598047e-01   -8,255238831e-02    0,000000000e+00    0,000000000e+00    0,000000000e+00    0,000000000e+00
     1500000000   -2,852356136e-01   -4,882684723e-02    8,092334867e-01   -4,642744958e-01    0,000000000e+00    0,000000000e+00    0,000000000e+00    0,000000000e+00
