! NanoVNA-App
! Date: 2025-09-25 15:09:35
! Start: 100MHz Stop: 1,5GHz Points: 101
! S-Parameter data: F S11 S21 S12 S22
# Hz S RI R 50
!     Frequency           S11_Real           S11_Imag           S21_Real           S21_Imag           S12_Real           S12_Imag           S22_Real           S22_Imag
      100000000    3,115979768e-02    2,864176966e-02    4,348732531e-01   -6,686058640e-01    0,000000000e+00    0,000000000e+00    0,000000000e+00    0,000000000e+00
      114000000    5,760607123e-02    5,505783018e-03    7,717282511e-03   -7,910284996e-01    0,000000000e+00    0,000000000e+00    0,000000000e+00    0,000000000e+00
      128000000    6,727975607e-02   -3,779878095e-02   -4,104557037e-01   -6,712246537e-01    0,000000000e+00    0,000000000e+00    0,000000000e+00    0,000000000e+00
      142000000    4,470509663e-02   -8,420420438e-02   -7,029777169e-01   -3,534369171e-01    0,000000000e+00    0,000000000e+00    0,000000000e+00    0,000000000e+00
      156000000   -5,562114064e-03   -1,068213060e-01   -7,870730162e-01    7,406028360e-02    0,000000000e+00    0,000000000e+00    0,000000000e+00    0,000000000e+00
      170000000   -5,759423599e-02   -9,057873487e-02   -6,276662946e-01    4,869903028e-01    0,000000000e+00    0,000000000e+00    0,000000000e+00    0,000000000e+00
      184000000   -8,369477093e-02   -4,944448546e-02   -2,648282945e-01    7,508128285e-01    0,000000000e+00    0,000000000e+00    0,000000000e+00    0,000000000e+00
      198000000   -7,966607809e-02   -1,043836027e-02    1,834224313e-01    7,730216384e-01    0,000000000e+00    0,000000000e+00    0,000000000e+00    0,000000000e+00
      212000000   -6,227824837e-02    1,313348208e-02    5,691329241e-01    5,492039323e-01    0,000000000e+00    0,000000000e+00    0,000000000e+00    0,000000000e+00
      226000000   -4,330716282e-02    2,765225992e-02    7,708085775e-01    1,546119004e-01    0,000000000e+00    0,000000000e+00    0,000000000e+00    0,000000000e+00
      240000000   -1,821920089e-02    3,856685013e-02    7,267568111e-01   -2,818785012e-01    0,000000000e+00    0,000000000e+00    0,000000000e+00    0,000000000e+00
      254000000    1,717848517e-02    3,519955650e-02    4,578135312e-01   -6,201807261e-01    0,000000000e+00    0,000000000e+00    0,000000000e+00    0,000000000e+00
      268000000    4,875694215e-02    5,597995128e-03    5,845169351e-02   -7,603201270e-01    0,000000000e+00    0,000000000e+00    0,000000000e+00    0,000000000e+00
      282000000    5,340122432e-02   -4,177013785e-02   -3,491473496e-01   -6,714835167e-01    0,000000000e+00    0,000000000e+00    0,000000000e+00    0,000000000e+00
      296000000    2,412818000e-02   -7,948125154e-02   -6,516491175e-01   -3,849918544e-01    0,000000000e+00    0,000000000e+00    0,000000000e+00    0,000000000e+00
      310000000   -1,779701561e-02   -8,330261707e-02   -7,639091015e-01    2,062663063e-02    0,000000000e+00    0,000000000e+00    0,000000000e+00    0,000000000e+00
      324000000   -4,155449569e-02   -5,885010213e-02   -6,317707300e-01    4,312262237e-01    0,000000000e+00    0,000000000e+00    0,000000000e+00    0,000000000e+00
      338000000   -3,417900577e-02   -3,700387478e-02   -2,983741164e-01    7,026008368e-01    0,000000000e+00    0,000000000e+00    0,000000000e+00    0,000000000e+00
      352000000   -1,760647073e-02   -4,082875699e-02    1,261993051e-01    7,415388227e-01    0,000000000e+00    0,000000000e+00    0,000000000e+00    0,000000000e+00
      366000000   -1,937280409e-02   -6,175941974e-02    4,980884790e-01    5,545069575e-01    0,000000000e+00    0,000000000e+00    0,000000000e+00    0,000000000e+00
      380000000   -4,458967224e-02   -7,295780629e-02    7,132726312e-01    2,000192702e-01    0,000000000e+00    0,000000000e+00    0,000000000e+00    0,000000000e+00
      394000000   -7,080718130e-02   -5,788952485e-02    7,045332789e-01   -2,164104283e-01    0,000000000e+00    0,000000000e+00    0,000000000e+00    0,000000000e+00
      408000000   -7,688625902e-02   -3,050975688e-02    4,712113142e-01   -5,603740811e-01    0,000000000e+00    0,000000000e+00    0,000000000e+00    0,000000000e+00
      422000000   -6,552546471e-02   -1,093524974e-02    9,354874492e-02   -7,178450227e-01    0,000000000e+00    0,000000000e+00    0,000000000e+00    0,000000000e+00
      436000000   -5,271549150e-02   -4,346807953e-03   -3,016756475e-01   -6,469880939e-01    0,000000000e+00    0,000000000e+00    0,000000000e+00    0,000000000e+00
      450000000   -4,449791089e-02    1,532855676e-03   -5,932408571e-01   -3,789236546e-01    0,000000000e+00    0,000000000e+00    0,000000000e+00    0,000000000e+00
      464000000   -2,967712469e-02    1,119843964e-02   -6,913125515e-01   -2,402742102e-04    0,000000000e+00    0,000000000e+00    0,000000000e+00    0,000000000e+00
      478000000   -1,333436812e-03    1,123420894e-02   -5,732983351e-01    3,626653254e-01    0,000000000e+00    0,000000000e+00    0,000000000e+00    0,000000000e+00
      492000000    2,788021602e-02   -1,235985756e-02   -2,889892161e-01    6,019663811e-01    0,000000000e+00    0,000000000e+00    0,000000000e+00    0,000000000e+00
      506000000    3,645303473e-02   -5,527798086e-02    6,888846308e-02    6,588398218e-01    0,000000000e+00    0,000000000e+00    0,000000000e+00    0,000000000e+00
      520000000    1,305486821e-02   -9,897193313e-02    4,015677571e-01    5,277215242e-01    0,000000000e+00    0,000000000e+00    0,000000000e+00    0,000000000e+00
      534000000   -3,450361267e-02   -1,157944277e-01    6,244158149e-01    2,360219210e-01    0,000000000e+00    0,000000000e+00    0,000000000e+00    0,000000000e+00
      548000000   -7,729194313e-02   -9,935782105e-02    6,582253575e-01   -1,327516437e-01    0,000000000e+00    0,000000000e+00    0,000000000e+00    0,000000000e+00
      562000000   -9,308572114e-02   -6,584169716e-02    4,817877710e-01   -4,658364356e-01    0,000000000e+00    0,000000000e+00    0,000000000e+00    0,000000000e+00
      576000000   -8,632017672e-02   -4,421055689e-02    1,504684836e-01   -6,474359632e-01    0,000000000e+00    0,000000000e+00    0,000000000e+00    0,000000000e+00
      590000000   -8,094105870e-02   -4,181708768e-02   -2,217648774e-01   -6,278165579e-01    0,000000000e+00    0,000000000e+00    0,000000000e+00    0,000000000e+00
      604000000   -8,879401535e-02   -3,760783747e-02   -5,200638771e-01   -4,064141512e-01    0,000000000e+00    0,000000000e+00    0,000000000e+00    0,000000000e+00
      618000000   -9,689211100e-02   -1,490013395e-02   -6,527511477e-01   -5,828344822e-02    0,000000000e+00    0,000000000e+00    0,000000000e+00    0,000000000e+00
      632000000   -8,151595294e-02    1,498855371e-02   -5,757717490e-01    3,031995893e-01    0,000000000e+00    0,000000000e+00    0,000000000e+00    0,000000000e+00
      646000000   -4,271124303e-02    2,574369870e-02   -3,183252811e-01    5,555982590e-01    0,000000000e+00    0,000000000e+00    0,000000000e+00    0,000000000e+00
      660000000   -7,119001821e-03    5,932875443e-03    2,066958137e-02    6,300331950e-01    0,000000000e+00    0,000000000e+00    0,000000000e+00    0,000000000e+00
      674000000    1,639652764e-03   -2,996229567e-02    3,419304192e-01    5,193956494e-01    0,000000000e+00    0,000000000e+00    0,000000000e+00    0,000000000e+00
      688000000   -1,484030671e-02   -5,603282899e-02    5,589283705e-01    2,586915195e-01    0,000000000e+00    0,000000000e+00    0,000000000e+00    0,000000000e+00
      702000000   -3,380935267e-02   -5,897589773e-02    6,061491370e-01   -7,885990292e-02    0,000000000e+00    0,000000000e+00    0,000000000e+00    0,000000000e+00
      716000000   -3,679186851e-02   -5,615070835e-02    4,593546987e-01   -3,895654380e-01    0,000000000e+00    0,000000000e+00    0,000000000e+00    0,000000000e+00
      730000000   -3,130800650e-02   -6,495123357e-02    1,745306700e-01   -5,654826760e-01    0,000000000e+00    0,000000000e+00    0,000000000e+00    0,000000000e+00
      744000000   -4,045459628e-02   -8,774977177e-02   -1,533364058e-01   -5,645649433e-01    0,000000000e+00    0,000000000e+00    0,000000000e+00    0,000000000e+00
      758000000   -7,177913934e-02   -1,052295268e-01   -4,274687469e-01   -3,945211768e-01    0,000000000e+00    0,000000000e+00    0,000000000e+00    0,000000000e+00
      772000000   -1,133277193e-01   -9,370853007e-02   -5,746830106e-01   -1,052657142e-01    0,000000000e+00    0,000000000e+00    0,000000000e+00    0,000000000e+00
      786000000   -1,390072107e-01   -5,645330995e-02   -5,447633266e-01    2,211008221e-01    0,000000000e+00    0,000000000e+00    0,000000000e+00    0,000000000e+00
      800000000   -1,321570873e-01   -1,487113815e-02   -3,419005871e-01    4,801436365e-01    0,000000000e+00    0,000000000e+00    0,000000000e+00    0,000000000e+00
      814000000   -1,080690622e-01    8,888117038e-03   -3,382771835e-02    5,864019990e-01    0,000000000e+00    0,000000000e+00    0,000000000e+00    0,000000000e+00
      828000000   -8,601040393e-02    1,356595475e-02    2,793321013e-01    5,149579048e-01    0,000000000e+00    0,000000000e+00    0,000000000e+00    0,000000000e+00
      842000000   -7,082698494e-02    1,427789778e-02    5,029084086e-01    2,899767756e-01    0,000000000e+00    0,000000000e+00    0,000000000e+00    0,000000000e+00
      856000000   -5,219652876e-02    1,891682670e-02    5,704427361e-01   -1,806769706e-02    0,000000000e+00    0,000000000e+00    0,000000000e+00    0,000000000e+00
      870000000   -2,322892100e-02    1,447184943e-02    4,636290967e-01   -3,067419529e-01    0,000000000e+00    0,000000000e+00    0,000000000e+00    0,000000000e+00
      884000000    6,020376924e-03   -1,492324471e-02    2,301993817e-01   -4,887104630e-01    0,000000000e+00    0,000000000e+00    0,000000000e+00    0,000000000e+00
      898000000    1,226162165e-02   -6,404099613e-02   -5,225155130e-02   -5,258639455e-01    0,000000000e+00    0,000000000e+00    0,000000000e+00    0,000000000e+00
      912000000   -2,365823649e-02   -1,089491546e-01   -3,538790345e-01   -3,971875906e-01    0,000000000e+00    0,000000000e+00    0,000000000e+00    0,000000000e+00
      926000000   -7,644497603e-02   -1,226945594e-01   -5,313273668e-01   -1,582873464e-01    0,000000000e+00    0,000000000e+00    0,000000000e+00    0,000000000e+00
      940000000   -1,243514568e-01   -1,032435074e-01   -5,535266995e-01    1,543085873e-01    0,000000000e+00    0,000000000e+00    0,000000000e+00    0,000000000e+00
      954000000   -1,423463672e-01   -5,715890229e-02   -3,919382989e-01    4,470050633e-01    0,000000000e+00    0,000000000e+00    0,000000000e+00    0,000000000e+00
      968000000   -1,337208450e-01   -2,778599970e-02   -9,160830826e-02    6,020271182e-01    0,000000000e+00    0,000000000e+00    0,000000000e+00    0,000000000e+00
      982000000   -1,162311211e-01   -1,807402447e-02    2,457006574e-01    5,703271627e-01    0,000000000e+00    0,000000000e+00    0,000000000e+00    0,000000000e+00
      996000000   -1,068438366e-01   -1,056834683e-02    5,115614533e-01    3,666276038e-01    0,000000000e+00    0,000000000e+00    0,000000000e+00    0,000000000e+00
     1010000000   -1,000532657e-01   -8,543472737e-03    6,286705732e-01    5,284407362e-02    0,000000000e+00    0,000000000e+00    0,000000000e+00    0,000000000e+00
     1024000000   -9,395284951e-02   -1,244749757e-03    5,612009764e-01   -2,711248994e-01    0,000000000e+00    0,000000000e+00    0,000000000e+00    0,000000000e+00
     1038000000   -7,575171441e-02    1,626632526e-03    3,401668668e-01   -5,036181808e-01    0,000000000e+00    0,000000000e+00    0,000000000e+00    0,000000000e+00
     1052000000   -6,814268231e-02   -1,375185978e-02    3,350479901e-02   -5,872566700e-01    0,000000000e+00    0,000000000e+00    0,000000000e+00    0,000000000e+00
     1066000000   -6,693606824e-02   -3,061693907e-02   -2,718923390e-01   -5,022999048e-01    0,000000000e+00    0,000000000e+00    0,000000000e+00    0,000000000e+00
     1080000000   -8,491374552e-02   -3,382051364e-02   -4,815720320e-01   -2,711676657e-01    0,000000000e+00    0,000000000e+00    0,000000000e+00    0,000000000e+00
     1094000000   -7,955673337e-02   -1,865621097e-02   -5,309629440e-01    4,216539115e-02    0,000000000e+00    0,000000000e+00    0,000000000e+00    0,000000000e+00
     1108000000   -5,658938736e-02   -9,148861282e-03   -3,966020048e-01    3,254435658e-01    0,000000000e+00    0,000000000e+00    0,000000000e+00    0,000000000e+00
     1122000000   -3,032016754e-02   -3,219499439e-02   -1,378063112e-01    4,826303720e-01    0,000000000e+00    0,000000000e+00    0,000000000e+00    0,000000000e+00
     1136000000   -2,574926987e-02   -8,283714205e-02    1,626641303e-01    4,757252932e-01    0,000000000e+00    0,000000000e+00    0,000000000e+00    0,000000000e+00
     1150000000   -6,751070172e-02   -1,375067532e-01    4,206316173e-01    3,116723597e-01    0,000000000e+00    0,000000000e+00    0,000000000e+00    0,000000000e+00
     1164000000   -1,361996830e-01   -1,513713896e-01    5,636228919e-01    2,663577534e-02    0,000000000e+00    0,000000000e+00    0,000000000e+00    0,000000000e+00
     1178000000   -2,088667154e-01   -1,185425296e-01    5,315220952e-01   -3,163390458e-01    0,000000000e+00    0,000000000e+00    0,000000000e+00    0,000000000e+00
     1192000000   -2,488438934e-01   -4,574119672e-02    2,993988395e-01   -6,014403105e-01    0,000000000e+00    0,000000000e+00    0,000000000e+00    0,000000000e+00
     1206000000   -2,303615808e-01    2,921655029e-02   -6,552182138e-02   -6,990467310e-01    0,000000000e+00    0,000000000e+00    0,000000000e+00    0,000000000e+00
     1220000000   -1,829280257e-01    8,469915390e-02   -4,181193709e-01   -5,789921284e-01    0,000000000e+00    0,000000000e+00    0,000000000e+00    0,000000000e+00
     1234000000   -1,285254955e-01    1,059486568e-01   -6,445780396e-01   -2,887290716e-01    0,000000000e+00    0,000000000e+00    0,000000000e+00    0,000000000e+00
     1248000000   -7,057329267e-02    1,005612910e-01   -6,782304645e-01    6,511930376e-02    0,000000000e+00    0,000000000e+00    0,000000000e+00    0,000000000e+00
     1262000000   -1,352456212e-02    6,285947561e-02   -5,211824179e-01    3,702277541e-01    0,000000000e+00    0,000000000e+00    0,000000000e+00    0,000000000e+00
     1276000000    2,589181997e-02   -7,932634326e-04   -2,405193150e-01    5,450256467e-01    0,000000000e+00    0,000000000e+00    0,000000000e+00    0,000000000e+00
     1290000000    2,298982069e-02   -9,027031809e-02    6,969705224e-02    5,775918365e-01    0,000000000e+00    0,000000000e+00    0,000000000e+00    0,000000000e+00
     1304000000   -3,462345153e-02   -1,676961929e-01    3,614558280e-01    4,670208991e-01    0,000000000e+00    0,000000000e+00    0,000000000e+00    0,000000000e+00
     1318000000   -1,365413517e-01   -2,123061866e-01    5,841543674e-01    2,243370265e-01    0,000000000e+00    0,000000000e+00    0,000000000e+00    0,000000000e+00
     1332000000   -2,518906295e-01   -1,835697591e-01    6,555249095e-01   -1,194955409e-01    0,000000000e+00    0,000000000e+00    0,000000000e+00    0,000000000e+00
     1346000000   -3,309884667e-01   -8,999845386e-02    5,164811611e-01   -4,629351199e-01    0,000000000e+00    0,000000000e+00    0,000000000e+00    0,000000000e+00
     1360000000   -3,389519453e-01    2,504858188e-02    1,887154430e-01   -6,512067914e-01    0,000000000e+00    0,000000000e+00    0,000000000e+00    0,000000000e+00
     1374000000   -2,821040452e-01    1,025776938e-01   -1,548635215e-01   -6,074841022e-01    0,000000000e+00    0,000000000e+00    0,000000000e+00    0,000000000e+00
     1388000000   -2,153002620e-01    1,363923997e-01   -4,143777192e-01   -3,775985241e-01    0,000000000e+00    0,000000000e+00    0,000000000e+00    0,000000000e+00
     1402000000   -1,527839154e-01    1,421430111e-01   -4,891454577e-01   -6,081836298e-02    0,000000000e+00    0,000000000e+00    0,000000000e+00    0,000000000e+00
     1416000000   -9,596110880e-02    1,236578375e-01   -3,782402575e-01    2,494605631e-01    0,000000000e+00    0,000000000e+00    0,000000000e+00    0,000000000e+00
     1430000000   -5,080641061e-02    7,071252912e-02   -1,231988668e-01    4,559105635e-01    0,000000000e+00    0,000000000e+00    0,000000000e+00    0,000000000e+00
     1444000000   -3,736594692e-02    1,710028737e-03    1,662452668e-01    5,309903026e-01    0,000000000e+00    0,000000000e+00    0,000000000e+00    0,000000000e+00
     1458000000   -6,307304651e-02   -7,402814180e-02    4,848994017e-01    4,601309001e-01    0,000000000e+00    0,000000000e+00    0,000000000e+00    0,000000000e+00
     1472000000   -1,324006021e-01   -1,196419001e-01    7,600107193e-01    2,523823678e-01    0,000000000e+00    0,000000000e+00    0,000000000e+00    0,000000000e+00
     1486000000   -2,283285856e-01   -1,125661954e-01    8,847410083e-01   -7,981978357e-02    0,000000000e+00    0,000000000e+00    0,000000000e+00    0,000000000e+00
     1500000000   -2,883348763e-01   -4,587993398e-02    8,142128587e-01   -4,602678120e-01    0,000000000e+00    0,000000000e+00    0,000000000e+00    0,000000000e+00
