! NanoVNA-App
! Date: 2025-09-25 15:05:32
! Start: 100MHz Stop: 1,5GHz Points: 101
! S-Parameter data: F S11 S21 S12 S22
# Hz S RI R 50
!     Frequency           S11_Real           S11_Imag           S21_Real           S21_Imag           S12_Real           S12_Imag           S22_Real           S22_Imag
      100000000    3,114864975e-02    2,864425071e-02    4,347724915e-01   -6,685827374e-01    0,000000000e+00    0,000000000e+00    0,000000000e+00    0,000000000e+00
      114000000    5,757116154e-02    5,478801671e-03    7,608745713e-03   -7,911443114e-01    0,000000000e+00    0,000000000e+00    0,000000000e+00    0,000000000e+00
      128000000    6,726404279e-02   -3,785850108e-02   -4,103717506e-01   -6,709821224e-01    0,000000000e+00    0,000000000e+00    0,000000000e+00    0,000000000e+00
      142000000    4,473690316e-02   -8,421575278e-02   -7,030047178e-01   -3,531590998e-01    0,000000000e+00    0,000000000e+00    0,000000000e+00    0,000000000e+00
      156000000   -6,114648655e-03   -1,059789285e-01   -7,855029106e-01    7,302928716e-02    0,000000000e+00    0,000000000e+00    0,000000000e+00    0,000000000e+00
      170000000   -5,766643211e-02   -9,061868489e-02   -6,276892424e-01    4,871767759e-01    0,000000000e+00    0,000000000e+00    0,000000000e+00    0,000000000e+00
      184000000   -8,369591832e-02   -4,953399301e-02   -2,648670375e-01    7,513796687e-01    0,000000000e+00    0,000000000e+00    0,000000000e+00    0,000000000e+00
      198000000   -7,959938049e-02   -1,047943253e-02    1,833568811e-01    7,730004191e-01    0,000000000e+00    0,000000000e+00    0,000000000e+00    0,000000000e+00
      212000000   -6,227241084e-02    1,313184295e-02    5,692068338e-01    5,489922166e-01    0,000000000e+00    0,000000000e+00    0,000000000e+00    0,000000000e+00
      226000000   -4,329009727e-02    2,764480934e-02    7,707450390e-01    1,545277834e-01    0,000000000e+00    0,000000000e+00    0,000000000e+00    0,000000000e+00
      240000000   -1,826620474e-02    3,851592541e-02    7,269439697e-01   -2,821163237e-01    0,000000000e+00    0,000000000e+00    0,000000000e+00    0,000000000e+00
      254000000    1,718804985e-02    3,517386317e-02    4,578116238e-01   -6,201567054e-01    0,000000000e+00    0,000000000e+00    0,000000000e+00    0,000000000e+00
      268000000    4,875625297e-02    5,583912600e-03    5,886484310e-02   -7,602455020e-01    0,000000000e+00    0,000000000e+00    0,000000000e+00    0,000000000e+00
      282000000    5,347399414e-02   -4,176502302e-02   -3,493246138e-01   -6,713455915e-01    0,000000000e+00    0,000000000e+00    0,000000000e+00    0,000000000e+00
      296000000    2,406133898e-02   -7,943695039e-02   -6,521430612e-01   -3,852304220e-01    0,000000000e+00    0,000000000e+00    0,000000000e+00    0,000000000e+00
      310000000   -1,787086762e-02   -8,311618119e-02   -7,626419067e-01    1,986407116e-02    0,000000000e+00    0,000000000e+00    0,000000000e+00    0,000000000e+00
      324000000   -4,146486521e-02   -5,890366063e-02   -6,316798925e-01    4,311259985e-01    0,000000000e+00    0,000000000e+00    0,000000000e+00    0,000000000e+00
      338000000   -3,433693573e-02   -3,690869734e-02   -2,943786979e-01    7,024663687e-01    0,000000000e+00    0,000000000e+00    0,000000000e+00    0,000000000e+00
      352000000   -1,748084649e-02   -4,078701138e-02    1,249772161e-01    7,412491441e-01    0,000000000e+00    0,000000000e+00    0,000000000e+00    0,000000000e+00
      366000000   -1,932348497e-02   -6,192183495e-02    4,982239604e-01    5,549560785e-01    0,000000000e+00    0,000000000e+00    0,000000000e+00    0,000000000e+00
      380000000   -4,436378554e-02   -7,312728465e-02    7,133819461e-01    1,991227567e-01    0,000000000e+00    0,000000000e+00    0,000000000e+00    0,000000000e+00
      394000000   -7,032109052e-02   -5,831918120e-02    7,040428519e-01   -2,172539532e-01    0,000000000e+00    0,000000000e+00    0,000000000e+00    0,000000000e+00
      408000000   -7,688357681e-02   -3,062159941e-02    4,707379937e-01   -5,601935387e-01    0,000000000e+00    0,000000000e+00    0,000000000e+00    0,000000000e+00
      422000000   -6,542654335e-02   -1,133519411e-02    9,361466765e-02   -7,169138193e-01    0,000000000e+00    0,000000000e+00    0,000000000e+00    0,000000000e+00
      436000000   -5,266243964e-02   -4,471555352e-03   -3,014923632e-01   -6,470068097e-01    0,000000000e+00    0,000000000e+00    0,000000000e+00    0,000000000e+00
      450000000   -4,483536258e-02    1,836643787e-03   -5,934835076e-01   -3,777580559e-01    0,000000000e+00    0,000000000e+00    0,000000000e+00    0,000000000e+00
      464000000   -2,919754200e-02    1,128919329e-02   -6,911432147e-01    3,787124588e-04    0,000000000e+00    0,000000000e+00    0,000000000e+00    0,000000000e+00
      478000000   -7,810897660e-04    1,146235876e-02   -5,728871822e-01    3,636759520e-01    0,000000000e+00    0,000000000e+00    0,000000000e+00    0,000000000e+00
      492000000    2,786443569e-02   -1,263095718e-02   -2,889768779e-01    6,017308235e-01    0,000000000e+00    0,000000000e+00    0,000000000e+00    0,000000000e+00
      506000000    3,645832092e-02   -5,624214187e-02    6,917475909e-02    6,582437158e-01    0,000000000e+00    0,000000000e+00    0,000000000e+00    0,000000000e+00
      520000000    1,307495497e-02   -9,974561632e-02    4,075152874e-01    5,260185003e-01    0,000000000e+00    0,000000000e+00    0,000000000e+00    0,000000000e+00
      534000000   -3,431663290e-02   -1,162038520e-01    6,239695549e-01    2,356883436e-01    0,000000000e+00    0,000000000e+00    0,000000000e+00    0,000000000e+00
      548000000   -7,731781155e-02   -9,935637563e-02    6,583639383e-01   -1,334587932e-01    0,000000000e+00    0,000000000e+00    0,000000000e+00    0,000000000e+00
      562000000   -9,363574535e-02   -6,610365957e-02    4,812536240e-01   -4,665068984e-01    0,000000000e+00    0,000000000e+00    0,000000000e+00    0,000000000e+00
      576000000   -8,605325222e-02   -4,391324893e-02    1,501622796e-01   -6,482337117e-01    0,000000000e+00    0,000000000e+00    0,000000000e+00    0,000000000e+00
      590000000   -8,069953322e-02   -4,151546210e-02   -2,205485851e-01   -6,281299591e-01    0,000000000e+00    0,000000000e+00    0,000000000e+00    0,000000000e+00
      604000000   -8,884851635e-02   -3,765584156e-02   -5,199696422e-01   -4,064642787e-01    0,000000000e+00    0,000000000e+00    0,000000000e+00    0,000000000e+00
      618000000   -9,620830417e-02   -1,564786769e-02   -6,528874040e-01   -5,849852785e-02    0,000000000e+00    0,000000000e+00    0,000000000e+00    0,000000000e+00
      632000000   -8,056334406e-02    1,504868176e-02   -5,752640367e-01    3,022526503e-01    0,000000000e+00    0,000000000e+00    0,000000000e+00    0,000000000e+00
      646000000   -4,299388826e-02    2,583022788e-02   -3,193784654e-01    5,558507442e-01    0,000000000e+00    0,000000000e+00    0,000000000e+00    0,000000000e+00
      660000000   -7,854241878e-03    6,335163489e-03    2,177632228e-02    6,288175583e-01    0,000000000e+00    0,000000000e+00    0,000000000e+00    0,000000000e+00
      674000000    5,533634685e-04   -2,952961810e-02    3,422995508e-01    5,193830729e-01    0,000000000e+00    0,000000000e+00    0,000000000e+00    0,000000000e+00
      688000000   -1,559143234e-02   -5,528899282e-02    5,590313673e-01    2,584295571e-01    0,000000000e+00    0,000000000e+00    0,000000000e+00    0,000000000e+00
      702000000   -3,343546018e-02   -5,968221277e-02    6,028050780e-01   -7,812990248e-02    0,000000000e+00    0,000000000e+00    0,000000000e+00    0,000000000e+00
      716000000   -3,723979369e-02   -5,488993973e-02    4,596915245e-01   -3,899413943e-01    0,000000000e+00    0,000000000e+00    0,000000000e+00    0,000000000e+00
      730000000   -3,222070634e-02   -6,492403150e-02    1,740610600e-01   -5,659956336e-01    0,000000000e+00    0,000000000e+00    0,000000000e+00    0,000000000e+00
      744000000   -4,053932428e-02   -8,868376166e-02   -1,539487243e-01   -5,635484457e-01    0,000000000e+00    0,000000000e+00    0,000000000e+00    0,000000000e+00
      758000000   -7,229264826e-02   -1,045484692e-01   -4,275010228e-01   -3,947382569e-01    0,000000000e+00    0,000000000e+00    0,000000000e+00    0,000000000e+00
      772000000   -1,149279401e-01   -9,377469122e-02   -5,744278431e-01   -1,056607664e-01    0,000000000e+00    0,000000000e+00    0,000000000e+00    0,000000000e+00
      786000000   -1,383830309e-01   -5,588635802e-02   -5,449494720e-01    2,212176025e-01    0,000000000e+00    0,000000000e+00    0,000000000e+00    0,000000000e+00
      800000000   -1,330922991e-01   -1,528027374e-02   -3,420331776e-01    4,800932109e-01    0,000000000e+00    0,000000000e+00    0,000000000e+00    0,000000000e+00
      814000000   -1,085328385e-01    9,036449715e-03   -3,355491534e-02    5,861688256e-01    0,000000000e+00    0,000000000e+00    0,000000000e+00    0,000000000e+00
      828000000   -8,618642390e-02    1,356206369e-02    2,781856060e-01    5,142177939e-01    0,000000000e+00    0,000000000e+00    0,000000000e+00    0,000000000e+00
      842000000   -7,111257315e-02    1,497502346e-02    5,033360720e-01    2,894985676e-01    0,000000000e+00    0,000000000e+00    0,000000000e+00    0,000000000e+00
      856000000   -5,182413384e-02    1,938664168e-02    5,702647567e-01   -1,820472628e-02    0,000000000e+00    0,000000000e+00    0,000000000e+00    0,000000000e+00
      870000000   -2,297739685e-02    1,472532935e-02    4,631994963e-01   -3,062657118e-01    0,000000000e+00    0,000000000e+00    0,000000000e+00    0,000000000e+00
      884000000    6,537889130e-03   -1,493740920e-02    2,303966582e-01   -4,883653522e-01    0,000000000e+00    0,000000000e+00    0,000000000e+00    0,000000000e+00
      898000000    1,162457466e-02   -6,384661794e-02   -5,292197317e-02   -5,275456309e-01    0,000000000e+00    0,000000000e+00    0,000000000e+00    0,000000000e+00
      912000000   -2,371815220e-02   -1,091577858e-01   -3,624432087e-01   -4,078103900e-01    0,000000000e+00    0,000000000e+00    0,000000000e+00    0,000000000e+00
      926000000   -7,417904586e-02   -1,244179085e-01   -5,286707282e-01   -1,597574651e-01    0,000000000e+00    0,000000000e+00    0,000000000e+00    0,000000000e+00
      940000000   -1,262954473e-01   -1,029302850e-01   -5,525993109e-01    1,567611545e-01    0,000000000e+00    0,000000000e+00    0,000000000e+00    0,000000000e+00
      954000000   -1,431879401e-01   -6,222862750e-02   -3,927355111e-01    4,453912079e-01    0,000000000e+00    0,000000000e+00    0,000000000e+00    0,000000000e+00
      968000000   -1,311792284e-01   -2,511293069e-02   -9,045217186e-02    6,041845679e-01    0,000000000e+00    0,000000000e+00    0,000000000e+00    0,000000000e+00
      982000000   -1,128471345e-01   -1,710330136e-02    2,444109321e-01    5,714991093e-01    0,000000000e+00    0,000000000e+00    0,000000000e+00    0,000000000e+00
      996000000   -1,083854958e-01   -1,286233589e-02    5,138332844e-01    3,670313954e-01    0,000000000e+00    0,000000000e+00    0,000000000e+00    0,000000000e+00
     1010000000   -1,052096710e-01   -8,410542272e-03    6,288192868e-01    5,041961372e-02    0,000000000e+00    0,000000000e+00    0,000000000e+00    0,000000000e+00
     1024000000   -9,060372412e-02   -2,815280808e-03    5,621495247e-01   -2,717198730e-01    0,000000000e+00    0,000000000e+00    0,000000000e+00    0,000000000e+00
     1038000000   -7,914551347e-02   -9,192597936e-04    3,366516531e-01   -5,027073026e-01    0,000000000e+00    0,000000000e+00    0,000000000e+00    0,000000000e+00
     1052000000   -6,366899610e-02   -1,469536964e-02    3,383246064e-02   -5,866559148e-01    0,000000000e+00    0,000000000e+00    0,000000000e+00    0,000000000e+00
     1066000000   -7,048583031e-02   -2,801912650e-02   -2,614871264e-01   -5,007776618e-01    0,000000000e+00    0,000000000e+00    0,000000000e+00    0,000000000e+00
     1080000000   -7,956255227e-02   -2,967300080e-02   -4,812831879e-01   -2,701146305e-01    0,000000000e+00    0,000000000e+00    0,000000000e+00    0,000000000e+00
     1094000000   -8,401136845e-02   -1,851482503e-02   -5,324174166e-01    4,331404716e-02    0,000000000e+00    0,000000000e+00    0,000000000e+00    0,000000000e+00
     1108000000   -5,950157344e-02   -1,383471861e-02   -3,981132507e-01    3,258697987e-01    0,000000000e+00    0,000000000e+00    0,000000000e+00    0,000000000e+00
     1122000000   -3,022532910e-02   -3,875842690e-02   -1,368183047e-01    4,815889895e-01    0,000000000e+00    0,000000000e+00    0,000000000e+00    0,000000000e+00
     1136000000   -3,106144443e-02   -8,307973295e-02    1,639330238e-01    4,752413630e-01    0,000000000e+00    0,000000000e+00    0,000000000e+00    0,000000000e+00
     1150000000   -6,223448738e-02   -1,337745190e-01    4,180690944e-01    3,125535548e-01    0,000000000e+00    0,000000000e+00    0,000000000e+00    0,000000000e+00
     1164000000   -1,369130462e-01   -1,569453776e-01    5,656597614e-01    2,555312403e-02    0,000000000e+00    0,000000000e+00    0,000000000e+00    0,000000000e+00
     1178000000   -2,148664296e-01   -1,176825687e-01    5,338252783e-01   -3,176410496e-01    0,000000000e+00    0,000000000e+00    0,000000000e+00    0,000000000e+00
     1192000000   -2,503421307e-01   -4,721252620e-02    2,985252142e-01   -5,996437669e-01    0,000000000e+00    0,000000000e+00    0,000000000e+00    0,000000000e+00
     1206000000   -2,352229953e-01    2,846917883e-02   -7,107059658e-02   -7,003449202e-01    0,000000000e+00    0,000000000e+00    0,000000000e+00    0,000000000e+00
     1220000000   -1,820586622e-01    8,312200755e-02   -4,228707850e-01   -5,800586939e-01    0,000000000e+00    0,000000000e+00    0,000000000e+00    0,000000000e+00
     1234000000   -1,318405122e-01    1,036947444e-01   -6,463246942e-01   -2,928297222e-01    0,000000000e+00    0,000000000e+00    0,000000000e+00    0,000000000e+00
     1248000000   -6,172424555e-02    9,740906954e-02   -6,693891883e-01    5,952667072e-02    0,000000000e+00    0,000000000e+00    0,000000000e+00    0,000000000e+00
     1262000000   -1,304441039e-02    6,650917232e-02   -5,229116678e-01    3,705400527e-01    0,000000000e+00    0,000000000e+00    0,000000000e+00    0,000000000e+00
     1276000000    2,888033725e-02   -5,018683616e-03   -2,449188232e-01    5,445213318e-01    0,000000000e+00    0,000000000e+00    0,000000000e+00    0,000000000e+00
     1290000000    1,977625303e-02   -8,914054185e-02    7,218529284e-02    5,715950727e-01    0,000000000e+00    0,000000000e+00    0,000000000e+00    0,000000000e+00
     1304000000   -3,088001162e-02   -1,742873490e-01    3,674733937e-01    4,648600221e-01    0,000000000e+00    0,000000000e+00    0,000000000e+00    0,000000000e+00
     1318000000   -1,378541440e-01   -2,102740854e-01    5,856940150e-01    2,241093516e-01    0,000000000e+00    0,000000000e+00    0,000000000e+00    0,000000000e+00
     1332000000   -2,547616661e-01   -1,930461228e-01    6,550250649e-01   -1,298770458e-01    0,000000000e+00    0,000000000e+00    0,000000000e+00    0,000000000e+00
     1346000000   -3,304252923e-01   -9,020680934e-02    5,113328695e-01   -4,638582766e-01    0,000000000e+00    0,000000000e+00    0,000000000e+00    0,000000000e+00
     1360000000   -3,357153833e-01    2,650023252e-02    1,950678527e-01   -6,495075822e-01    0,000000000e+00    0,000000000e+00    0,000000000e+00    0,000000000e+00
     1374000000   -2,820793092e-01    1,044085771e-01   -1,519071311e-01   -5,959613919e-01    0,000000000e+00    0,000000000e+00    0,000000000e+00    0,000000000e+00
     1388000000   -2,154448032e-01    1,360916644e-01   -4,090574682e-01   -3,761390150e-01    0,000000000e+00    0,000000000e+00    0,000000000e+00    0,000000000e+00
     1402000000   -1,523557752e-01    1,420774013e-01   -4,860556126e-01   -6,031652540e-02    0,000000000e+00    0,000000000e+00    0,000000000e+00    0,000000000e+00
     1416000000   -9,526511282e-02    1,115842015e-01   -3,752550781e-01    2,417483330e-01    0,000000000e+00    0,000000000e+00    0,000000000e+00    0,000000000e+00
     1430000000   -5,067672953e-02    7,581733167e-02   -1,255968064e-01    4,334934652e-01    0,000000000e+00    0,000000000e+00    0,000000000e+00    0,000000000e+00
     1444000000   -4,339566827e-02    5,455392413e-03    1,555519551e-01    5,290471911e-01    0,000000000e+00    0,000000000e+00    0,000000000e+00    0,000000000e+00
     1458000000   -6,844217330e-02   -7,670605928e-02    4,817415178e-01    4,691351652e-01    0,000000000e+00    0,000000000e+00    0,000000000e+00    0,000000000e+00
     1472000000   -1,399524212e-01   -1,191876233e-01    7,581557631e-01    2,721212208e-01    0,000000000e+00    0,000000000e+00    0,000000000e+00    0,000000000e+00
     1486000000   -2,257265747e-01   -1,134807244e-01    9,096106887e-01   -9,181515872e-02    0,000000000e+00    0,000000000e+00    0,000000000e+00    0,000000000e+00
     1500000000   -2,854665220e-01   -4,047108814e-02    8,037963510e-01   -4,496605694e-01    0,000000000e+00    0,000000000e+00    0,000000000e+00    0,000000000e+00
