! NanoVNA-App
! Date: 2025-09-25 15:09:10
! Start: 100MHz Stop: 1,5GHz Points: 101
! S-Parameter data: F S11 S21 S12 S22
# Hz S RI R 50
!     Frequency           S11_Real           S11_Imag           S21_Real           S21_Imag           S12_Real           S12_Imag           S22_Real           S22_Imag
      100000000    3,117044829e-02    2,865271084e-02    4,348472059e-01   -6,686157584e-01    0,000000000e+00    0,000000000e+00    0,000000000e+00    0,000000000e+00
      114000000    5,758455768e-02    5,477185361e-03    7,709834259e-03   -7,910310030e-01    0,000000000e+00    0,000000000e+00    0,000000000e+00    0,000000000e+00
      128000000    6,729437411e-02   -3,780281916e-02   -4,103240073e-01   -6,710559130e-01    0,000000000e+00    0,000000000e+00    0,000000000e+00    0,000000000e+00
      142000000    4,472443834e-02   -8,422634751e-02   -7,029238343e-01   -3,530740142e-01    0,000000000e+00    0,000000000e+00    0,000000000e+00    0,000000000e+00
      156000000   -6,203707773e-03   -1,059065312e-01   -7,856656909e-01    7,261249423e-02    0,000000000e+00    0,000000000e+00    0,000000000e+00    0,000000000e+00
      170000000   -5,766769126e-02   -9,059733152e-02   -6,273916960e-01    4,867611229e-01    0,000000000e+00    0,000000000e+00    0,000000000e+00    0,000000000e+00
      184000000   -8,370529860e-02   -4,947616905e-02   -2,650635540e-01    7,509686947e-01    0,000000000e+00    0,000000000e+00    0,000000000e+00    0,000000000e+00
      198000000   -7,963520288e-02   -1,047436148e-02    1,834435910e-01    7,732848525e-01    0,000000000e+00    0,000000000e+00    0,000000000e+00    0,000000000e+00
      212000000   -6,230289117e-02    1,316562295e-02    5,691469908e-01    5,493514538e-01    0,000000000e+00    0,000000000e+00    0,000000000e+00    0,000000000e+00
      226000000   -4,330903292e-02    2,765423805e-02    7,707260251e-01    1,545451730e-01    0,000000000e+00    0,000000000e+00    0,000000000e+00    0,000000000e+00
      240000000   -1,821401902e-02    3,855269402e-02    7,268527746e-01   -2,817811966e-01    0,000000000e+00    0,000000000e+00    0,000000000e+00    0,000000000e+00
      254000000    1,717030816e-02    3,517615795e-02    4,581668973e-01   -6,198515296e-01    0,000000000e+00    0,000000000e+00    0,000000000e+00    0,000000000e+00
      268000000    4,878443852e-02    5,564411171e-03    5,860127881e-02   -7,603812814e-01    0,000000000e+00    0,000000000e+00    0,000000000e+00    0,000000000e+00
      282000000    5,351920798e-02   -4,179376736e-02   -3,492330015e-01   -6,720080972e-01    0,000000000e+00    0,000000000e+00    0,000000000e+00    0,000000000e+00
      296000000    2,407112904e-02   -7,946685702e-02   -6,520678997e-01   -3,856973350e-01    0,000000000e+00    0,000000000e+00    0,000000000e+00    0,000000000e+00
      310000000   -1,769608445e-02   -8,330706507e-02   -7,642146349e-01    2,069970965e-02    0,000000000e+00    0,000000000e+00    0,000000000e+00    0,000000000e+00
      324000000   -4,160483181e-02   -5,896821246e-02   -6,329677105e-01    4,302968085e-01    0,000000000e+00    0,000000000e+00    0,000000000e+00    0,000000000e+00
      338000000   -3,442017362e-02   -3,691153228e-02   -2,971050441e-01    6,980348825e-01    0,000000000e+00    0,000000000e+00    0,000000000e+00    0,000000000e+00
      352000000   -1,733179763e-02   -4,076046124e-02    1,251452118e-01    7,422009706e-01    0,000000000e+00    0,000000000e+00    0,000000000e+00    0,000000000e+00
      366000000   -1,930262893e-02   -6,191799790e-02    4,979016781e-01    5,544932485e-01    0,000000000e+00    0,000000000e+00    0,000000000e+00    0,000000000e+00
      380000000   -4,453411326e-02   -7,250887901e-02    7,131726742e-01    2,003798783e-01    0,000000000e+00    0,000000000e+00    0,000000000e+00    0,000000000e+00
      394000000   -7,089100778e-02   -5,782873183e-02    7,040936947e-01   -2,161119729e-01    0,000000000e+00    0,000000000e+00    0,000000000e+00    0,000000000e+00
      408000000   -7,686609775e-02   -3,028928675e-02    4,706181586e-01   -5,609360337e-01    0,000000000e+00    0,000000000e+00    0,000000000e+00    0,000000000e+00
      422000000   -6,539784372e-02   -1,118868776e-02    9,298901260e-02   -7,180569172e-01    0,000000000e+00    0,000000000e+00    0,000000000e+00    0,000000000e+00
      436000000   -5,272208899e-02   -4,979640245e-03   -3,020882010e-01   -6,468850374e-01    0,000000000e+00    0,000000000e+00    0,000000000e+00    0,000000000e+00
      450000000   -4,448176920e-02    1,305688405e-03   -5,927177668e-01   -3,781203330e-01    0,000000000e+00    0,000000000e+00    0,000000000e+00    0,000000000e+00
      464000000   -2,926510572e-02    1,156517398e-02   -6,914485693e-01    2,497787355e-04    0,000000000e+00    0,000000000e+00    0,000000000e+00    0,000000000e+00
      478000000   -1,068153302e-03    1,090829261e-02   -5,734099746e-01    3,635138273e-01    0,000000000e+00    0,000000000e+00    0,000000000e+00    0,000000000e+00
      492000000    2,751882747e-02   -1,254537143e-02   -2,895428836e-01    6,026182175e-01    0,000000000e+00    0,000000000e+00    0,000000000e+00    0,000000000e+00
      506000000    3,627146408e-02   -5,599702150e-02    6,903128326e-02    6,589951515e-01    0,000000000e+00    0,000000000e+00    0,000000000e+00    0,000000000e+00
      520000000    1,256171521e-02   -9,833914042e-02    4,040412307e-01    5,248245001e-01    0,000000000e+00    0,000000000e+00    0,000000000e+00    0,000000000e+00
      534000000   -3,388856351e-02   -1,160085127e-01    6,244026423e-01    2,368673682e-01    0,000000000e+00    0,000000000e+00    0,000000000e+00    0,000000000e+00
      548000000   -7,744876295e-02   -9,919535369e-02    6,576600075e-01   -1,327924728e-01    0,000000000e+00    0,000000000e+00    0,000000000e+00    0,000000000e+00
      562000000   -9,353010356e-02   -6,586369127e-02    4,817974269e-01   -4,655439258e-01    0,000000000e+00    0,000000000e+00    0,000000000e+00    0,000000000e+00
      576000000   -8,655715734e-02   -4,431327805e-02    1,502393782e-01   -6,478677392e-01    0,000000000e+00    0,000000000e+00    0,000000000e+00    0,000000000e+00
      590000000   -8,081965894e-02   -4,161451384e-02   -2,206077427e-01   -6,268810034e-01    0,000000000e+00    0,000000000e+00    0,000000000e+00    0,000000000e+00
      604000000   -8,870904148e-02   -3,741663322e-02   -5,196167231e-01   -4,062560201e-01    0,000000000e+00    0,000000000e+00    0,000000000e+00    0,000000000e+00
      618000000   -9,657410532e-02   -1,558727678e-02   -6,534188390e-01   -5,831267685e-02    0,000000000e+00    0,000000000e+00    0,000000000e+00    0,000000000e+00
      632000000   -8,103731275e-02    1,576400734e-02   -5,750272870e-01    3,027695715e-01    0,000000000e+00    0,000000000e+00    0,000000000e+00    0,000000000e+00
      646000000   -4,221318662e-02    2,641125955e-02   -3,188202679e-01    5,558470488e-01    0,000000000e+00    0,000000000e+00    0,000000000e+00    0,000000000e+00
      660000000   -7,243443746e-03    6,011188496e-03    2,090162411e-02    6,292775273e-01    0,000000000e+00    0,000000000e+00    0,000000000e+00    0,000000000e+00
      674000000    1,293935697e-03   -2,956210636e-02    3,426898122e-01    5,188564658e-01    0,000000000e+00    0,000000000e+00    0,000000000e+00    0,000000000e+00
      688000000   -1,423513796e-02   -5,626805499e-02    5,587921739e-01    2,584943473e-01    0,000000000e+00    0,000000000e+00    0,000000000e+00    0,000000000e+00
      702000000   -3,244973719e-02   -5,890392512e-02    6,079645157e-01   -8,123589307e-02    0,000000000e+00    0,000000000e+00    0,000000000e+00    0,000000000e+00
      716000000   -3,748187050e-02   -5,635107309e-02    4,596056044e-01   -3,893168569e-01    0,000000000e+00    0,000000000e+00    0,000000000e+00    0,000000000e+00
      730000000   -3,183656186e-02   -6,454368681e-02    1,741910279e-01   -5,664263964e-01    0,000000000e+00    0,000000000e+00    0,000000000e+00    0,000000000e+00
      744000000   -4,104159400e-02   -8,781491220e-02   -1,524866521e-01   -5,636867285e-01    0,000000000e+00    0,000000000e+00    0,000000000e+00    0,000000000e+00
      758000000   -7,261794806e-02   -1,046379209e-01   -4,269828796e-01   -3,947085738e-01    0,000000000e+00    0,000000000e+00    0,000000000e+00    0,000000000e+00
      772000000   -1,144114062e-01   -9,424630553e-02   -5,742596984e-01   -1,058920547e-01    0,000000000e+00    0,000000000e+00    0,000000000e+00    0,000000000e+00
      786000000   -1,385162026e-01   -5,681260675e-02   -5,447214246e-01    2,209057212e-01    0,000000000e+00    0,000000000e+00    0,000000000e+00    0,000000000e+00
      800000000   -1,332613975e-01   -1,427580509e-02   -3,414410949e-01    4,800410867e-01    0,000000000e+00    0,000000000e+00    0,000000000e+00    0,000000000e+00
      814000000   -1,086528376e-01    8,562658913e-03   -3,338388726e-02    5,858969092e-01    0,000000000e+00    0,000000000e+00    0,000000000e+00    0,000000000e+00
      828000000   -8,541496098e-02    1,358484849e-02    2,783801556e-01    5,137947202e-01    0,000000000e+00    0,000000000e+00    0,000000000e+00    0,000000000e+00
      842000000   -7,081938535e-02    1,430611871e-02    5,024014711e-01    2,897905409e-01    0,000000000e+00    0,000000000e+00    0,000000000e+00    0,000000000e+00
      856000000   -5,295253918e-02    1,970724389e-02    5,707510710e-01   -1,850667223e-02    0,000000000e+00    0,000000000e+00    0,000000000e+00    0,000000000e+00
      870000000   -2,252124809e-02    1,465234812e-02    4,643323720e-01   -3,063248992e-01    0,000000000e+00    0,000000000e+00    0,000000000e+00    0,000000000e+00
      884000000    6,514533423e-03   -1,468836796e-02    2,291153222e-01   -4,875022173e-01    0,000000000e+00    0,000000000e+00    0,000000000e+00    0,000000000e+00
      898000000    1,127038803e-02   -6,361042708e-02   -5,322251096e-02   -5,260566473e-01    0,000000000e+00    0,000000000e+00    0,000000000e+00    0,000000000e+00
      912000000   -2,297661267e-02   -1,083601415e-01   -3,638723791e-01   -3,961416781e-01    0,000000000e+00    0,000000000e+00    0,000000000e+00    0,000000000e+00
      926000000   -7,664996386e-02   -1,235637143e-01   -5,327668190e-01   -1,574118137e-01    0,000000000e+00    0,000000000e+00    0,000000000e+00    0,000000000e+00
      940000000   -1,254336983e-01   -1,033593789e-01   -5,528898835e-01    1,553453207e-01    0,000000000e+00    0,000000000e+00    0,000000000e+00    0,000000000e+00
      954000000   -1,432023197e-01   -6,287130713e-02   -3,953071833e-01    4,448406100e-01    0,000000000e+00    0,000000000e+00    0,000000000e+00    0,000000000e+00
      968000000   -1,324065179e-01   -3,046945482e-02   -9,121924639e-02    6,035171151e-01    0,000000000e+00    0,000000000e+00    0,000000000e+00    0,000000000e+00
      982000000   -1,171792597e-01   -1,635431685e-02    2,442596108e-01    5,708968043e-01    0,000000000e+00    0,000000000e+00    0,000000000e+00    0,000000000e+00
      996000000   -1,089174375e-01   -1,574652269e-02    5,136711001e-01    3,665342033e-01    0,000000000e+00    0,000000000e+00    0,000000000e+00    0,000000000e+00
     1010000000   -1,039700061e-01   -6,551221013e-03    6,277273297e-01    5,272330716e-02    0,000000000e+00    0,000000000e+00    0,000000000e+00    0,000000000e+00
     1024000000   -9,461494535e-02    7,899688208e-04    5,610499382e-01   -2,724722624e-01    0,000000000e+00    0,000000000e+00    0,000000000e+00    0,000000000e+00
     1038000000   -7,613386214e-02   -4,295345396e-03    3,391541541e-01   -5,023992062e-01    0,000000000e+00    0,000000000e+00    0,000000000e+00    0,000000000e+00
     1052000000   -6,563309580e-02   -1,249445602e-02    3,294675425e-02   -5,843262076e-01    0,000000000e+00    0,000000000e+00    0,000000000e+00    0,000000000e+00
     1066000000   -6,727071106e-02   -3,154388070e-02   -2,731497288e-01   -5,034652948e-01    0,000000000e+00    0,000000000e+00    0,000000000e+00    0,000000000e+00
     1080000000   -7,945360988e-02   -2,857888117e-02   -4,813320041e-01   -2,705024779e-01    0,000000000e+00    0,000000000e+00    0,000000000e+00    0,000000000e+00
     1094000000   -8,033171296e-02   -1,388126239e-02   -5,316983461e-01    4,208377749e-02    0,000000000e+00    0,000000000e+00    0,000000000e+00    0,000000000e+00
     1108000000   -5,780368298e-02   -1,357995626e-02   -3,993473351e-01    3,270090818e-01    0,000000000e+00    0,000000000e+00    0,000000000e+00    0,000000000e+00
     1122000000   -3,433534876e-02   -3,547185287e-02   -1,380134076e-01    4,790920913e-01    0,000000000e+00    0,000000000e+00    0,000000000e+00    0,000000000e+00
     1136000000   -2,452412620e-02   -8,245323598e-02    1,609973162e-01    4,736782014e-01    0,000000000e+00    0,000000000e+00    0,000000000e+00    0,000000000e+00
     1150000000   -6,631485373e-02   -1,374316216e-01    4,194832742e-01    3,100542426e-01    0,000000000e+00    0,000000000e+00    0,000000000e+00    0,000000000e+00
     1164000000   -1,388791502e-01   -1,512364149e-01    5,653881431e-01    2,602320164e-02    0,000000000e+00    0,000000000e+00    0,000000000e+00    0,000000000e+00
     1178000000   -2,098738551e-01   -1,204510108e-01    5,314351916e-01   -3,163997233e-01    0,000000000e+00    0,000000000e+00    0,000000000e+00    0,000000000e+00
     1192000000   -2,450625300e-01   -4,345616698e-02    2,953636348e-01   -5,973286033e-01    0,000000000e+00    0,000000000e+00    0,000000000e+00    0,000000000e+00
     1206000000   -2,311656326e-01    3,364535794e-02   -6,436868757e-02   -6,983606815e-01    0,000000000e+00    0,000000000e+00    0,000000000e+00    0,000000000e+00
     1220000000   -1,825463921e-01    8,206746727e-02   -4,213107228e-01   -5,747833848e-01    0,000000000e+00    0,000000000e+00    0,000000000e+00    0,000000000e+00
     1234000000   -1,244390160e-01    1,033588424e-01   -6,443426013e-01   -2,929890752e-01    0,000000000e+00    0,000000000e+00    0,000000000e+00    0,000000000e+00
     1248000000   -6,496703625e-02    9,733475745e-02   -6,770066619e-01    6,699599326e-02    0,000000000e+00    0,000000000e+00    0,000000000e+00    0,000000000e+00
     1262000000   -1,242736541e-02    6,507663429e-02   -5,148909688e-01    3,731490076e-01    0,000000000e+00    0,000000000e+00    0,000000000e+00    0,000000000e+00
     1276000000    2,222983539e-02   -2,631865907e-03   -2,473172992e-01    5,492551923e-01    0,000000000e+00    0,000000000e+00    0,000000000e+00    0,000000000e+00
     1290000000    1,617556997e-02   -8,993399143e-02    6,759011000e-02    5,722128749e-01    0,000000000e+00    0,000000000e+00    0,000000000e+00    0,000000000e+00
     1304000000   -3,399594501e-02   -1,693121940e-01    3,635973930e-01    4,651488364e-01    0,000000000e+00    0,000000000e+00    0,000000000e+00    0,000000000e+00
     1318000000   -1,310281903e-01   -2,116528749e-01    5,837669969e-01    2,171925008e-01    0,000000000e+00    0,000000000e+00    0,000000000e+00    0,000000000e+00
     1332000000   -2,567939162e-01   -1,878565699e-01    6,607401371e-01   -1,268044114e-01    0,000000000e+00    0,000000000e+00    0,000000000e+00    0,000000000e+00
     1346000000   -3,291608393e-01   -9,287093580e-02    5,148473978e-01   -4,617607296e-01    0,000000000e+00    0,000000000e+00    0,000000000e+00    0,000000000e+00
     1360000000   -3,368008435e-01    2,459613793e-02    1,911548972e-01   -6,466508508e-01    0,000000000e+00    0,000000000e+00    0,000000000e+00    0,000000000e+00
     1374000000   -2,855761945e-01    1,049741209e-01   -1,616692841e-01   -6,005904078e-01    0,000000000e+00    0,000000000e+00    0,000000000e+00    0,000000000e+00
     1388000000   -2,116322070e-01    1,391154677e-01   -4,021924734e-01   -3,788892031e-01    0,000000000e+00    0,000000000e+00    0,000000000e+00    0,000000000e+00
     1402000000   -1,529282182e-01    1,396535188e-01   -4,782384634e-01   -5,989203975e-02    0,000000000e+00    0,000000000e+00    0,000000000e+00    0,000000000e+00
     1416000000   -9,918837994e-02    1,183329821e-01   -3,739601076e-01    2,556698024e-01    0,000000000e+00    0,000000000e+00    0,000000000e+00    0,000000000e+00
     1430000000   -5,310718715e-02    7,230752707e-02   -1,653301418e-01    4,676733017e-01    0,000000000e+00    0,000000000e+00    0,000000000e+00    0,000000000e+00
     1444000000   -3,481648117e-02    1,305668120e-04    1,669768244e-01    5,336015224e-01    0,000000000e+00    0,000000000e+00    0,000000000e+00    0,000000000e+00
     1458000000   -5,492703989e-02   -7,781126350e-02    4,885922670e-01    4,682947695e-01    0,000000000e+00    0,000000000e+00    0,000000000e+00    0,000000000e+00
     1472000000   -1,413910240e-01   -1,215500310e-01    7,519044876e-01    2,599469721e-01    0,000000000e+00    0,000000000e+00    0,000000000e+00    0,000000000e+00
     1486000000   -2,284324467e-01   -1,146106347e-01    8,908398151e-01   -8,052560687e-02    0,000000000e+00    0,000000000e+00    0,000000000e+00    0,000000000e+00
     1500000000   -2,896920741e-01   -5,052015930e-02    8,113597631e-01   -4,596103430e-01    0,000000000e+00    0,000000000e+00    0,000000000e+00    0,000000000e+00
