! NanoVNA-App
! Date: 2025-09-25 15:05:23
! Start: 100MHz Stop: 1,5GHz Points: 101
! S-Parameter data: F S11 S21 S12 S22
# Hz S RI R 50
!     Frequency           S11_Real           S11_Imag           S21_Real           S21_Imag           S12_Real           S12_Imag           S22_Real           S22_Imag
      100000000    3,110921010e-02    2,861790173e-02    4,347909987e-01   -6,686601043e-01    0,000000000e+00    0,000000000e+00    0,000000000e+00    0,000000000e+00
      114000000    5,754666403e-02    5,517348181e-03    7,816455327e-03   -7,911522985e-01    0,000000000e+00    0,000000000e+00    0,000000000e+00    0,000000000e+00
      128000000    6,719677150e-02   -3,776479885e-02   -4,103024006e-01   -6,709738970e-01    0,000000000e+00    0,000000000e+00    0,000000000e+00    0,000000000e+00
      142000000    4,469063878e-02   -8,416555077e-02   -7,028509974e-01   -3,531174064e-01    0,000000000e+00    0,000000000e+00    0,000000000e+00    0,000000000e+00
      156000000   -6,018722896e-03   -1,064268053e-01   -7,861282229e-01    7,378389686e-02    0,000000000e+00    0,000000000e+00    0,000000000e+00    0,000000000e+00
      170000000   -5,755775049e-02   -9,054276347e-02   -6,276502013e-01    4,873039424e-01    0,000000000e+00    0,000000000e+00    0,000000000e+00    0,000000000e+00
      184000000   -8,369239420e-02   -4,943630472e-02   -2,649165094e-01    7,512617707e-01    0,000000000e+00    0,000000000e+00    0,000000000e+00    0,000000000e+00
      198000000   -7,957694679e-02   -1,047476847e-02    1,836192161e-01    7,732951641e-01    0,000000000e+00    0,000000000e+00    0,000000000e+00    0,000000000e+00
      212000000   -6,221656874e-02    1,311360486e-02    5,691226721e-01    5,488755107e-01    0,000000000e+00    0,000000000e+00    0,000000000e+00    0,000000000e+00
      226000000   -4,322084412e-02    2,764785290e-02    7,707837820e-01    1,544374526e-01    0,000000000e+00    0,000000000e+00    0,000000000e+00    0,000000000e+00
      240000000   -1,820697263e-02    3,838178515e-02    7,269023061e-01   -2,819470763e-01    0,000000000e+00    0,000000000e+00    0,000000000e+00    0,000000000e+00
      254000000    1,715004444e-02    3,506281599e-02    4,580726624e-01   -6,203090549e-01    0,000000000e+00    0,000000000e+00    0,000000000e+00    0,000000000e+00
      268000000    4,866902530e-02    5,532127339e-03    5,841551721e-02   -7,601479888e-01    0,000000000e+00    0,000000000e+00    0,000000000e+00    0,000000000e+00
      282000000    5,329833925e-02   -4,175749049e-02   -3,493933082e-01   -6,715157032e-01    0,000000000e+00    0,000000000e+00    0,000000000e+00    0,000000000e+00
      296000000    2,393411659e-02   -7,943496108e-02   -6,519907713e-01   -3,854672015e-01    0,000000000e+00    0,000000000e+00    0,000000000e+00    0,000000000e+00
      310000000   -1,797240414e-02   -8,303186297e-02   -7,621653080e-01    2,050845511e-02    0,000000000e+00    0,000000000e+00    0,000000000e+00    0,000000000e+00
      324000000   -4,158199579e-02   -5,849966034e-02   -6,320431232e-01    4,315240085e-01    0,000000000e+00    0,000000000e+00    0,000000000e+00    0,000000000e+00
      338000000   -3,436614573e-02   -3,661661968e-02   -2,979610860e-01    6,993669271e-01    0,000000000e+00    0,000000000e+00    0,000000000e+00    0,000000000e+00
      352000000   -1,722171344e-02   -4,054219648e-02    1,253170967e-01    7,424377799e-01    0,000000000e+00    0,000000000e+00    0,000000000e+00    0,000000000e+00
      366000000   -1,901596785e-02   -6,199018657e-02    4,991331100e-01    5,547147989e-01    0,000000000e+00    0,000000000e+00    0,000000000e+00    0,000000000e+00
      380000000   -4,412082583e-02   -7,280456275e-02    7,135329247e-01    1,998166591e-01    0,000000000e+00    0,000000000e+00    0,000000000e+00    0,000000000e+00
      394000000   -7,060553879e-02   -5,826098844e-02    7,045919299e-01   -2,164835334e-01    0,000000000e+00    0,000000000e+00    0,000000000e+00    0,000000000e+00
      408000000   -7,710217685e-02   -3,057570569e-02    4,711371660e-01   -5,600170493e-01    0,000000000e+00    0,000000000e+00    0,000000000e+00    0,000000000e+00
      422000000   -6,537963450e-02   -1,128573157e-02    9,375554323e-02   -7,182157040e-01    0,000000000e+00    0,000000000e+00    0,000000000e+00    0,000000000e+00
      436000000   -5,300219357e-02   -4,456301685e-03   -3,029016256e-01   -6,467276216e-01    0,000000000e+00    0,000000000e+00    0,000000000e+00    0,000000000e+00
      450000000   -4,484001920e-02    1,937389141e-03   -5,931090117e-01   -3,778455853e-01    0,000000000e+00    0,000000000e+00    0,000000000e+00    0,000000000e+00
      464000000   -2,916646004e-02    1,195220090e-02   -6,910449266e-01    8,924037102e-04    0,000000000e+00    0,000000000e+00    0,000000000e+00    0,000000000e+00
      478000000   -8,073125500e-04    1,133623440e-02   -5,723787546e-01    3,635997176e-01    0,000000000e+00    0,000000000e+00    0,000000000e+00    0,000000000e+00
      492000000    2,826932631e-02   -1,294519380e-02   -2,888686657e-01    6,017521620e-01    0,000000000e+00    0,000000000e+00    0,000000000e+00    0,000000000e+00
      506000000    3,662751243e-02   -5,624869466e-02    6,994751841e-02    6,577823758e-01    0,000000000e+00    0,000000000e+00    0,000000000e+00    0,000000000e+00
      520000000    1,264777221e-02   -9,929726273e-02    4,045789540e-01    5,254683495e-01    0,000000000e+00    0,000000000e+00    0,000000000e+00    0,000000000e+00
      534000000   -3,456907719e-02   -1,159974039e-01    6,242061257e-01    2,361400723e-01    0,000000000e+00    0,000000000e+00    0,000000000e+00    0,000000000e+00
      548000000   -7,720499486e-02   -9,907650203e-02    6,582972407e-01   -1,333329380e-01    0,000000000e+00    0,000000000e+00    0,000000000e+00    0,000000000e+00
      562000000   -9,270614386e-02   -6,601729244e-02    4,814804196e-01   -4,670793414e-01    0,000000000e+00    0,000000000e+00    0,000000000e+00    0,000000000e+00
      576000000   -8,629640192e-02   -4,494597018e-02    1,504820883e-01   -6,476057768e-01    0,000000000e+00    0,000000000e+00    0,000000000e+00    0,000000000e+00
      590000000   -8,070267737e-02   -4,187484458e-02   -2,210453004e-01   -6,268708706e-01    0,000000000e+00    0,000000000e+00    0,000000000e+00    0,000000000e+00
      604000000   -8,945050836e-02   -3,732013702e-02   -5,205000639e-01   -4,063876569e-01    0,000000000e+00    0,000000000e+00    0,000000000e+00    0,000000000e+00
      618000000   -9,639163315e-02   -1,478054188e-02   -6,530073285e-01   -5,812861025e-02    0,000000000e+00    0,000000000e+00    0,000000000e+00    0,000000000e+00
      632000000   -8,144582063e-02    1,571781188e-02   -5,752151608e-01    3,034112453e-01    0,000000000e+00    0,000000000e+00    0,000000000e+00    0,000000000e+00
      646000000   -4,241918400e-02    2,658150531e-02   -3,184325099e-01    5,563122034e-01    0,000000000e+00    0,000000000e+00    0,000000000e+00    0,000000000e+00
      660000000   -8,045282215e-03    5,862971768e-03    2,162192017e-02    6,300427914e-01    0,000000000e+00    0,000000000e+00    0,000000000e+00    0,000000000e+00
      674000000    1,396217383e-03   -3,063345142e-02    3,429706693e-01    5,190774798e-01    0,000000000e+00    0,000000000e+00    0,000000000e+00    0,000000000e+00
      688000000   -1,431230363e-02   -5,629587919e-02    5,593643188e-01    2,583556771e-01    0,000000000e+00    0,000000000e+00    0,000000000e+00    0,000000000e+00
      702000000   -3,428433836e-02   -5,946628749e-02    6,039608121e-01   -8,120387048e-02    0,000000000e+00    0,000000000e+00    0,000000000e+00    0,000000000e+00
      716000000   -3,795094788e-02   -5,603938550e-02    4,588827491e-01   -3,904579878e-01    0,000000000e+00    0,000000000e+00    0,000000000e+00    0,000000000e+00
      730000000   -3,248183802e-02   -6,457008421e-02    1,733155549e-01   -5,663117766e-01    0,000000000e+00    0,000000000e+00    0,000000000e+00    0,000000000e+00
      744000000   -4,066881537e-02   -8,909197152e-02   -1,536263824e-01   -5,639961362e-01    0,000000000e+00    0,000000000e+00    0,000000000e+00    0,000000000e+00
      758000000   -7,214262336e-02   -1,043343991e-01   -4,283010960e-01   -3,935765326e-01    0,000000000e+00    0,000000000e+00    0,000000000e+00    0,000000000e+00
      772000000   -1,144922674e-01   -9,328642488e-02   -5,743749738e-01   -1,052187607e-01    0,000000000e+00    0,000000000e+00    0,000000000e+00    0,000000000e+00
      786000000   -1,377379894e-01   -5,607169122e-02   -5,447173715e-01    2,216693610e-01    0,000000000e+00    0,000000000e+00    0,000000000e+00    0,000000000e+00
      800000000   -1,312428713e-01   -1,478171162e-02   -3,417868912e-01    4,794035256e-01    0,000000000e+00    0,000000000e+00    0,000000000e+00    0,000000000e+00
      814000000   -1,069725305e-01    8,248821832e-03   -3,527389094e-02    5,855063200e-01    0,000000000e+00    0,000000000e+00    0,000000000e+00    0,000000000e+00
      828000000   -8,534576744e-02    1,288548671e-02    2,786522806e-01    5,136573315e-01    0,000000000e+00    0,000000000e+00    0,000000000e+00    0,000000000e+00
      842000000   -7,102026790e-02    1,331592817e-02    5,027057528e-01    2,896414101e-01    0,000000000e+00    0,000000000e+00    0,000000000e+00    0,000000000e+00
      856000000   -5,288866535e-02    1,903578267e-02    5,709684491e-01   -1,824283041e-02    0,000000000e+00    0,000000000e+00    0,000000000e+00    0,000000000e+00
      870000000   -2,407724597e-02    1,398314442e-02    4,624680877e-01   -3,067457974e-01    0,000000000e+00    0,000000000e+00    0,000000000e+00    0,000000000e+00
      884000000    5,355134141e-03   -1,414415892e-02    2,313779742e-01   -4,890308678e-01    0,000000000e+00    0,000000000e+00    0,000000000e+00    0,000000000e+00
      898000000    1,120748278e-02   -6,280032545e-02   -5,277274549e-02   -5,257601738e-01    0,000000000e+00    0,000000000e+00    0,000000000e+00    0,000000000e+00
      912000000   -2,269949205e-02   -1,072556078e-01   -3,516238034e-01   -4,050831795e-01    0,000000000e+00    0,000000000e+00    0,000000000e+00    0,000000000e+00
      926000000   -7,545600832e-02   -1,236828268e-01   -5,317919254e-01   -1,587466449e-01    0,000000000e+00    0,000000000e+00    0,000000000e+00    0,000000000e+00
      940000000   -1,232875064e-01   -1,015508473e-01   -5,520023108e-01    1,583335400e-01    0,000000000e+00    0,000000000e+00    0,000000000e+00    0,000000000e+00
      954000000   -1,441294700e-01   -6,121425331e-02   -3,924021423e-01    4,448216856e-01    0,000000000e+00    0,000000000e+00    0,000000000e+00    0,000000000e+00
      968000000   -1,313170791e-01   -3,066977672e-02   -8,905550092e-02    6,035050750e-01    0,000000000e+00    0,000000000e+00    0,000000000e+00    0,000000000e+00
      982000000   -1,127313897e-01   -1,848960854e-02    2,479731739e-01    5,729780793e-01    0,000000000e+00    0,000000000e+00    0,000000000e+00    0,000000000e+00
      996000000   -1,097275168e-01   -1,528795715e-02    5,141383410e-01    3,663234711e-01    0,000000000e+00    0,000000000e+00    0,000000000e+00    0,000000000e+00
     1010000000   -1,026012003e-01   -5,257813260e-03    6,318323612e-01    5,365825444e-02    0,000000000e+00    0,000000000e+00    0,000000000e+00    0,000000000e+00
     1024000000   -9,299162030e-02    4,896598868e-03    5,614251494e-01   -2,725286782e-01    0,000000000e+00    0,000000000e+00    0,000000000e+00    0,000000000e+00
     1038000000   -7,536087930e-02    1,904360252e-03    3,355628848e-01   -5,054813027e-01    0,000000000e+00    0,000000000e+00    0,000000000e+00    0,000000000e+00
     1052000000   -6,092734635e-02   -1,672161184e-02    2,975489199e-02   -5,842196345e-01    0,000000000e+00    0,000000000e+00    0,000000000e+00    0,000000000e+00
     1066000000   -6,586996466e-02   -2,985784039e-02   -2,749176919e-01   -4,992287755e-01    0,000000000e+00    0,000000000e+00    0,000000000e+00    0,000000000e+00
     1080000000   -7,887222618e-02   -3,514809906e-02   -4,811541140e-01   -2,671523988e-01    0,000000000e+00    0,000000000e+00    0,000000000e+00    0,000000000e+00
     1094000000   -7,918286324e-02   -1,924379542e-02   -5,320761204e-01    4,498854652e-02    0,000000000e+00    0,000000000e+00    0,000000000e+00    0,000000000e+00
     1108000000   -6,328686327e-02   -1,297285408e-02   -3,947149813e-01    3,264502287e-01    0,000000000e+00    0,000000000e+00    0,000000000e+00    0,000000000e+00
     1122000000   -3,133903071e-02   -3,888460621e-02   -1,333334744e-01    4,820408225e-01    0,000000000e+00    0,000000000e+00    0,000000000e+00    0,000000000e+00
     1136000000   -3,135662526e-02   -8,230246603e-02    1,640505046e-01    4,705548584e-01    0,000000000e+00    0,000000000e+00    0,000000000e+00    0,000000000e+00
     1150000000   -6,900985539e-02   -1,346368641e-01    4,187572002e-01    3,102082014e-01    0,000000000e+00    0,000000000e+00    0,000000000e+00    0,000000000e+00
     1164000000   -1,350795031e-01   -1,562543362e-01    5,601971149e-01    2,509079874e-02    0,000000000e+00    0,000000000e+00    0,000000000e+00    0,000000000e+00
     1178000000   -2,114379555e-01   -1,191787124e-01    5,291736722e-01   -3,143716455e-01    0,000000000e+00    0,000000000e+00    0,000000000e+00    0,000000000e+00
     1192000000   -2,446397990e-01   -4,244711250e-02    2,953782678e-01   -5,920341015e-01    0,000000000e+00    0,000000000e+00    0,000000000e+00    0,000000000e+00
     1206000000   -2,362807095e-01    3,515442088e-02   -6,603220105e-02   -6,908319592e-01    0,000000000e+00    0,000000000e+00    0,000000000e+00    0,000000000e+00
     1220000000   -1,882271916e-01    8,477621526e-02   -4,197801054e-01   -5,769380927e-01    0,000000000e+00    0,000000000e+00    0,000000000e+00    0,000000000e+00
     1234000000   -1,272292137e-01    1,054944396e-01   -6,390950084e-01   -2,874845564e-01    0,000000000e+00    0,000000000e+00    0,000000000e+00    0,000000000e+00
     1248000000   -6,530043483e-02    9,563986212e-02   -6,739588976e-01    6,395086646e-02    0,000000000e+00    0,000000000e+00    0,000000000e+00    0,000000000e+00
     1262000000   -1,018706430e-02    5,981720611e-02   -5,134382844e-01    3,646829724e-01    0,000000000e+00    0,000000000e+00    0,000000000e+00    0,000000000e+00
     1276000000    2,430650219e-02   -4,159158096e-03   -2,426794022e-01    5,381259918e-01    0,000000000e+00    0,000000000e+00    0,000000000e+00    0,000000000e+00
     1290000000    2,249778621e-02   -8,925545216e-02    7,105813920e-02    5,743352175e-01    0,000000000e+00    0,000000000e+00    0,000000000e+00    0,000000000e+00
     1304000000   -2,959063463e-02   -1,691811532e-01    3,638250232e-01    4,653104544e-01    0,000000000e+00    0,000000000e+00    0,000000000e+00    0,000000000e+00
     1318000000   -1,358187646e-01   -2,173528373e-01    5,773864388e-01    2,180908918e-01    0,000000000e+00    0,000000000e+00    0,000000000e+00    0,000000000e+00
     1332000000   -2,517329156e-01   -1,840104312e-01    6,447973847e-01   -1,156871915e-01    0,000000000e+00    0,000000000e+00    0,000000000e+00    0,000000000e+00
     1346000000   -3,301616907e-01   -9,420275688e-02    5,081316233e-01   -4,627321661e-01    0,000000000e+00    0,000000000e+00    0,000000000e+00    0,000000000e+00
     1360000000   -3,363098204e-01    2,473845519e-02    1,873764694e-01   -6,417573094e-01    0,000000000e+00    0,000000000e+00    0,000000000e+00    0,000000000e+00
     1374000000   -2,856947482e-01    1,032333374e-01   -1,615681797e-01   -5,993183255e-01    0,000000000e+00    0,000000000e+00    0,000000000e+00    0,000000000e+00
     1388000000   -2,142704278e-01    1,404613554e-01   -4,047223032e-01   -3,679408133e-01    0,000000000e+00    0,000000000e+00    0,000000000e+00    0,000000000e+00
     1402000000   -1,548545361e-01    1,425734013e-01   -4,795489609e-01   -5,831304938e-02    0,000000000e+00    0,000000000e+00    0,000000000e+00    0,000000000e+00
     1416000000   -9,128559381e-02    1,147906557e-01   -3,705725968e-01    2,397274673e-01    0,000000000e+00    0,000000000e+00    0,000000000e+00    0,000000000e+00
     1430000000   -5,269353464e-02    6,643556803e-02   -1,370426416e-01    4,699047506e-01    0,000000000e+00    0,000000000e+00    0,000000000e+00    0,000000000e+00
     1444000000   -3,493480384e-02    5,786776077e-03    1,561925560e-01    5,357986689e-01    0,000000000e+00    0,000000000e+00    0,000000000e+00    0,000000000e+00
     1458000000   -6,027298421e-02   -7,000046223e-02    4,858517051e-01    4,800714850e-01    0,000000000e+00    0,000000000e+00    0,000000000e+00    0,000000000e+00
     1472000000   -1,326505542e-01   -1,219119951e-01    7,600439191e-01    2,734399140e-01    0,000000000e+00    0,000000000e+00    0,000000000e+00    0,000000000e+00
     1486000000   -2,330282331e-01   -1,090221703e-01    8,870856166e-01   -7,029652596e-02    0,000000000e+00    0,000000000e+00    0,000000000e+00    0,000000000e+00
     1500000000   -2,832894325e-01   -4,685264081e-02    8,245590925e-01   -4,419460893e-01    0,000000000e+00    0,000000000e+00    0,000000000e+00    0,000000000e+00
