! NanoVNA-App
! Date: 2025-09-25 15:08:14
! Start: 100MHz Stop: 1,5GHz Points: 101
! S-Parameter data: F S11 S21 S12 S22
# Hz S RI R 50
!     Frequency           S11_Real           S11_Imag           S21_Real           S21_Imag           S12_Real           S12_Imag           S22_Real           S22_Imag
      100000000    3,114529699e-02    2,865817770e-02    4,348457754e-01   -6,686213017e-01    0,000000000e+00    0,000000000e+00    0,000000000e+00    0,000000000e+00
      114000000    5,760626867e-02    5,511763506e-03    7,912745699e-03   -7,910631299e-01    0,000000000e+00    0,000000000e+00    0,000000000e+00    0,000000000e+00
      128000000    6,726436317e-02   -3,779468313e-02   -4,102460742e-01   -6,709978580e-01    0,000000000e+00    0,000000000e+00    0,000000000e+00    0,000000000e+00
      142000000    4,473725334e-02   -8,420884609e-02   -7,028341889e-01   -3,532243073e-01    0,000000000e+00    0,000000000e+00    0,000000000e+00    0,000000000e+00
      156000000   -5,630434956e-03   -1,061854362e-01   -7,866749167e-01    7,266615331e-02    0,000000000e+00    0,000000000e+00    0,000000000e+00    0,000000000e+00
      170000000   -5,766861886e-02   -9,066937119e-02   -6,277887225e-01    4,872025251e-01    0,000000000e+00    0,000000000e+00    0,000000000e+00    0,000000000e+00
      184000000   -8,369243145e-02   -4,947882518e-02   -2,650204897e-01    7,514647245e-01    0,000000000e+00    0,000000000e+00    0,000000000e+00    0,000000000e+00
      198000000   -7,966318727e-02   -1,046724059e-02    1,836596876e-01    7,731370926e-01    0,000000000e+00    0,000000000e+00    0,000000000e+00    0,000000000e+00
      212000000   -6,223393977e-02    1,315198280e-02    5,691483021e-01    5,489798188e-01    0,000000000e+00    0,000000000e+00    0,000000000e+00    0,000000000e+00
      226000000   -4,325245321e-02    2,770414948e-02    7,708016634e-01    1,544870883e-01    0,000000000e+00    0,000000000e+00    0,000000000e+00    0,000000000e+00
      240000000   -1,825199276e-02    3,852247074e-02    7,268100977e-01   -2,818630040e-01    0,000000000e+00    0,000000000e+00    0,000000000e+00    0,000000000e+00
      254000000    1,721006073e-02    3,518631682e-02    4,578934610e-01   -6,199355125e-01    0,000000000e+00    0,000000000e+00    0,000000000e+00    0,000000000e+00
      268000000    4,880062491e-02    5,600084085e-03    5,863451585e-02   -7,605789304e-01    0,000000000e+00    0,000000000e+00    0,000000000e+00    0,000000000e+00
      282000000    5,351382121e-02   -4,173795879e-02   -3,488305211e-01   -6,714870334e-01    0,000000000e+00    0,000000000e+00    0,000000000e+00    0,000000000e+00
      296000000    2,401174419e-02   -7,953084260e-02   -6,517559886e-01   -3,855042756e-01    0,000000000e+00    0,000000000e+00    0,000000000e+00    0,000000000e+00
      310000000   -1,801936701e-02   -8,321864903e-02   -7,638283372e-01    1,994146034e-02    0,000000000e+00    0,000000000e+00    0,000000000e+00    0,000000000e+00
      324000000   -4,181824997e-02   -5,880962685e-02   -6,321670413e-01    4,311200380e-01    0,000000000e+00    0,000000000e+00    0,000000000e+00    0,000000000e+00
      338000000   -3,440605849e-02   -3,676699847e-02   -2,951860726e-01    7,005456090e-01    0,000000000e+00    0,000000000e+00    0,000000000e+00    0,000000000e+00
      352000000   -1,728610881e-02   -4,082097486e-02    1,250790358e-01    7,414942384e-01    0,000000000e+00    0,000000000e+00    0,000000000e+00    0,000000000e+00
      366000000   -1,938062720e-02   -6,183018163e-02    4,983035028e-01    5,544334650e-01    0,000000000e+00    0,000000000e+00    0,000000000e+00    0,000000000e+00
      380000000   -4,430146143e-02   -7,286532968e-02    7,135515213e-01    1,996213645e-01    0,000000000e+00    0,000000000e+00    0,000000000e+00    0,000000000e+00
      394000000   -7,100874931e-02   -5,823820457e-02    7,037984133e-01   -2,166110575e-01    0,000000000e+00    0,000000000e+00    0,000000000e+00    0,000000000e+00
      408000000   -7,726743072e-02   -3,051301464e-02    4,697982669e-01   -5,607975125e-01    0,000000000e+00    0,000000000e+00    0,000000000e+00    0,000000000e+00
      422000000   -6,554986537e-02   -1,113513391e-02    9,331023693e-02   -7,169803381e-01    0,000000000e+00    0,000000000e+00    0,000000000e+00    0,000000000e+00
      436000000   -5,271968246e-02   -4,651309922e-03   -3,020888269e-01   -6,476726532e-01    0,000000000e+00    0,000000000e+00    0,000000000e+00    0,000000000e+00
      450000000   -4,452751949e-02    1,663454343e-03   -5,924708247e-01   -3,784012198e-01    0,000000000e+00    0,000000000e+00    0,000000000e+00    0,000000000e+00
      464000000   -2,934325114e-02    1,143085584e-02   -6,910001636e-01   -7,804880443e-05    0,000000000e+00    0,000000000e+00    0,000000000e+00    0,000000000e+00
      478000000   -1,369534060e-03    1,135204826e-02   -5,731341839e-01    3,632238209e-01    0,000000000e+00    0,000000000e+00    0,000000000e+00    0,000000000e+00
      492000000    2,788235992e-02   -1,189340092e-02   -2,891262174e-01    6,022466421e-01    0,000000000e+00    0,000000000e+00    0,000000000e+00    0,000000000e+00
      506000000    3,667303920e-02   -5,583678186e-02    6,876889616e-02    6,577206254e-01    0,000000000e+00    0,000000000e+00    0,000000000e+00    0,000000000e+00
      520000000    1,225864328e-02   -9,904905409e-02    4,055537879e-01    5,232010484e-01    0,000000000e+00    0,000000000e+00    0,000000000e+00    0,000000000e+00
      534000000   -3,420739993e-02   -1,163500100e-01    6,243836284e-01    2,365354598e-01    0,000000000e+00    0,000000000e+00    0,000000000e+00    0,000000000e+00
      548000000   -7,717748731e-02   -9,918592870e-02    6,580715179e-01   -1,331922859e-01    0,000000000e+00    0,000000000e+00    0,000000000e+00    0,000000000e+00
      562000000   -9,334150702e-02   -6,642264873e-02    4,814280272e-01   -4,665527344e-01    0,000000000e+00    0,000000000e+00    0,000000000e+00    0,000000000e+00
      576000000   -8,629140258e-02   -4,414787889e-02    1,502502859e-01   -6,481439471e-01    0,000000000e+00    0,000000000e+00    0,000000000e+00    0,000000000e+00
      590000000   -8,074648678e-02   -4,186149314e-02   -2,202712148e-01   -6,259655952e-01    0,000000000e+00    0,000000000e+00    0,000000000e+00    0,000000000e+00
      604000000   -8,910845220e-02   -3,723153099e-02   -5,200332403e-01   -4,062554538e-01    0,000000000e+00    0,000000000e+00    0,000000000e+00    0,000000000e+00
      618000000   -9,698803723e-02   -1,570837945e-02   -6,535312533e-01   -5,840865150e-02    0,000000000e+00    0,000000000e+00    0,000000000e+00    0,000000000e+00
      632000000   -8,078432083e-02    1,489546243e-02   -5,745819211e-01    3,029118478e-01    0,000000000e+00    0,000000000e+00    0,000000000e+00    0,000000000e+00
      646000000   -4,224012792e-02    2,635183372e-02   -3,184688687e-01    5,560531616e-01    0,000000000e+00    0,000000000e+00    0,000000000e+00    0,000000000e+00
      660000000   -7,622253615e-03    6,244086195e-03    2,235491388e-02    6,296910048e-01    0,000000000e+00    0,000000000e+00    0,000000000e+00    0,000000000e+00
      674000000    1,287924009e-03   -3,047025204e-02    3,424914777e-01    5,181640983e-01    0,000000000e+00    0,000000000e+00    0,000000000e+00    0,000000000e+00
      688000000   -1,550444961e-02   -5,548511073e-02    5,590714812e-01    2,592566609e-01    0,000000000e+00    0,000000000e+00    0,000000000e+00    0,000000000e+00
      702000000   -3,400592506e-02   -6,053823978e-02    6,071204543e-01   -8,078956604e-02    0,000000000e+00    0,000000000e+00    0,000000000e+00    0,000000000e+00
      716000000   -3,663599864e-02   -5,589513108e-02    4,595364928e-01   -3,900883198e-01    0,000000000e+00    0,000000000e+00    0,000000000e+00    0,000000000e+00
      730000000   -3,148780763e-02   -6,453608721e-02    1,737007052e-01   -5,656712055e-01    0,000000000e+00    0,000000000e+00    0,000000000e+00    0,000000000e+00
      744000000   -4,074785486e-02   -8,899147809e-02   -1,534303725e-01   -5,646023154e-01    0,000000000e+00    0,000000000e+00    0,000000000e+00    0,000000000e+00
      758000000   -7,284405828e-02   -1,043933481e-01   -4,273490608e-01   -3,945440948e-01    0,000000000e+00    0,000000000e+00    0,000000000e+00    0,000000000e+00
      772000000   -1,146594062e-01   -9,428696334e-02   -5,746894479e-01   -1,061708778e-01    0,000000000e+00    0,000000000e+00    0,000000000e+00    0,000000000e+00
      786000000   -1,389852017e-01   -5,557131767e-02   -5,448552370e-01    2,205127776e-01    0,000000000e+00    0,000000000e+00    0,000000000e+00    0,000000000e+00
      800000000   -1,323820502e-01   -1,433019340e-02   -3,411464393e-01    4,795964062e-01    0,000000000e+00    0,000000000e+00    0,000000000e+00    0,000000000e+00
      814000000   -1,080544516e-01    8,966356516e-03   -3,513501957e-02    5,863511562e-01    0,000000000e+00    0,000000000e+00    0,000000000e+00    0,000000000e+00
      828000000   -8,588679880e-02    1,364063099e-02    2,777669430e-01    5,145356059e-01    0,000000000e+00    0,000000000e+00    0,000000000e+00    0,000000000e+00
      842000000   -7,010267675e-02    1,512509026e-02    5,032066703e-01    2,898664773e-01    0,000000000e+00    0,000000000e+00    0,000000000e+00    0,000000000e+00
      856000000   -5,260011926e-02    1,958258264e-02    5,705767274e-01   -1,748696342e-02    0,000000000e+00    0,000000000e+00    0,000000000e+00    0,000000000e+00
      870000000   -2,272279188e-02    1,460119523e-02    4,641267359e-01   -3,066830635e-01    0,000000000e+00    0,000000000e+00    0,000000000e+00    0,000000000e+00
      884000000    6,032862701e-03   -1,479577646e-02    2,303461432e-01   -4,885403514e-01    0,000000000e+00    0,000000000e+00    0,000000000e+00    0,000000000e+00
      898000000    1,140070986e-02   -6,373569369e-02   -5,194678530e-02   -5,254642367e-01    0,000000000e+00    0,000000000e+00    0,000000000e+00    0,000000000e+00
      912000000   -2,312841825e-02   -1,084120795e-01   -3,524477780e-01   -4,059992731e-01    0,000000000e+00    0,000000000e+00    0,000000000e+00    0,000000000e+00
      926000000   -7,455543429e-02   -1,240535304e-01   -5,288209915e-01   -1,588985473e-01    0,000000000e+00    0,000000000e+00    0,000000000e+00    0,000000000e+00
      940000000   -1,228191033e-01   -1,053225547e-01   -5,516232252e-01    1,546404660e-01    0,000000000e+00    0,000000000e+00    0,000000000e+00    0,000000000e+00
      954000000   -1,447096765e-01   -6,057108566e-02   -3,931153417e-01    4,456554055e-01    0,000000000e+00    0,000000000e+00    0,000000000e+00    0,000000000e+00
      968000000   -1,308568865e-01   -2,494453453e-02   -9,266819805e-02    6,032282114e-01    0,000000000e+00    0,000000000e+00    0,000000000e+00    0,000000000e+00
      982000000   -1,125176921e-01   -1,724148355e-02    2,448427528e-01    5,705855489e-01    0,000000000e+00    0,000000000e+00    0,000000000e+00    0,000000000e+00
      996000000   -1,093177721e-01   -1,347367559e-02    5,130313039e-01    3,678851128e-01    0,000000000e+00    0,000000000e+00    0,000000000e+00    0,000000000e+00
     1010000000   -1,012683734e-01   -1,112646237e-02    6,302473545e-01    5,394992977e-02    0,000000000e+00    0,000000000e+00    0,000000000e+00    0,000000000e+00
     1024000000   -9,425543994e-02    2,528833924e-03    5,601717830e-01   -2,696295381e-01    0,000000000e+00    0,000000000e+00    0,000000000e+00    0,000000000e+00
     1038000000   -7,297046483e-02    1,201006467e-03    3,356565237e-01   -5,025135875e-01    0,000000000e+00    0,000000000e+00    0,000000000e+00    0,000000000e+00
     1052000000   -6,470575184e-02   -1,355021540e-02    3,286258504e-02   -5,850433111e-01    0,000000000e+00    0,000000000e+00    0,000000000e+00    0,000000000e+00
     1066000000   -6,654550135e-02   -3,056511097e-02   -2,682974339e-01   -5,042712092e-01    0,000000000e+00    0,000000000e+00    0,000000000e+00    0,000000000e+00
     1080000000   -8,558186144e-02   -3,257484734e-02   -4,821228385e-01   -2,712337971e-01    0,000000000e+00    0,000000000e+00    0,000000000e+00    0,000000000e+00
     1094000000   -8,213925362e-02   -1,588247158e-02   -5,322192907e-01    4,405765980e-02    0,000000000e+00    0,000000000e+00    0,000000000e+00    0,000000000e+00
     1108000000   -5,460051447e-02   -1,095646620e-02   -3,998748660e-01    3,241363466e-01    0,000000000e+00    0,000000000e+00    0,000000000e+00    0,000000000e+00
     1122000000   -3,312087432e-02   -3,341820836e-02   -1,387227476e-01    4,826610386e-01    0,000000000e+00    0,000000000e+00    0,000000000e+00    0,000000000e+00
     1136000000   -3,045053780e-02   -8,671554178e-02    1,636955142e-01    4,743100107e-01    0,000000000e+00    0,000000000e+00    0,000000000e+00    0,000000000e+00
     1150000000   -6,509196758e-02   -1,338209957e-01    4,207771122e-01    3,137347102e-01    0,000000000e+00    0,000000000e+00    0,000000000e+00    0,000000000e+00
     1164000000   -1,368059367e-01   -1,569232941e-01    5,655589104e-01    2,960555069e-02    0,000000000e+00    0,000000000e+00    0,000000000e+00    0,000000000e+00
     1178000000   -2,136701196e-01   -1,195260212e-01    5,331800580e-01   -3,132612705e-01    0,000000000e+00    0,000000000e+00    0,000000000e+00    0,000000000e+00
     1192000000   -2,453492731e-01   -3,968947381e-02    2,990926206e-01   -6,004136801e-01    0,000000000e+00    0,000000000e+00    0,000000000e+00    0,000000000e+00
     1206000000   -2,344980538e-01    3,647432104e-02   -6,557674706e-02   -6,984602809e-01    0,000000000e+00    0,000000000e+00    0,000000000e+00    0,000000000e+00
     1220000000   -1,889807582e-01    8,253300935e-02   -4,221992195e-01   -5,738979578e-01    0,000000000e+00    0,000000000e+00    0,000000000e+00    0,000000000e+00
     1234000000   -1,285657138e-01    9,903875738e-02   -6,447297335e-01   -2,955092192e-01    0,000000000e+00    0,000000000e+00    0,000000000e+00    0,000000000e+00
     1248000000   -6,479331106e-02    9,461860359e-02   -6,756242514e-01    6,443781406e-02    0,000000000e+00    0,000000000e+00    0,000000000e+00    0,000000000e+00
     1262000000   -1,334838290e-02    6,010578200e-02   -5,203253031e-01    3,658424914e-01    0,000000000e+00    0,000000000e+00    0,000000000e+00    0,000000000e+00
     1276000000    2,360389195e-02   -6,187672727e-03   -2,420241982e-01    5,482280850e-01    0,000000000e+00    0,000000000e+00    0,000000000e+00    0,000000000e+00
     1290000000    1,794152148e-02   -8,937904984e-02    6,814982742e-02    5,743280053e-01    0,000000000e+00    0,000000000e+00    0,000000000e+00    0,000000000e+00
     1304000000   -3,019466624e-02   -1,702307016e-01    3,629159033e-01    4,712783992e-01    0,000000000e+00    0,000000000e+00    0,000000000e+00    0,000000000e+00
     1318000000   -1,332550198e-01   -2,142349184e-01    5,926041007e-01    2,191666514e-01    0,000000000e+00    0,000000000e+00    0,000000000e+00    0,000000000e+00
     1332000000   -2,473582625e-01   -1,849005818e-01    6,509188414e-01   -1,213586107e-01    0,000000000e+00    0,000000000e+00    0,000000000e+00    0,000000000e+00
     1346000000   -3,319157362e-01   -9,154124558e-02    5,149594545e-01   -4,625113010e-01    0,000000000e+00    0,000000000e+00    0,000000000e+00    0,000000000e+00
     1360000000   -3,334791660e-01    2,767285332e-02    1,930473298e-01   -6,470659971e-01    0,000000000e+00    0,000000000e+00    0,000000000e+00    0,000000000e+00
     1374000000   -2,809428275e-01    1,046729311e-01   -1,598706394e-01   -6,082383990e-01    0,000000000e+00    0,000000000e+00    0,000000000e+00    0,000000000e+00
     1388000000   -2,115922123e-01    1,386759430e-01   -4,069638252e-01   -3,825749755e-01    0,000000000e+00    0,000000000e+00    0,000000000e+00    0,000000000e+00
     1402000000   -1,484407187e-01    1,407431811e-01   -4,851537943e-01   -5,572309718e-02    0,000000000e+00    0,000000000e+00    0,000000000e+00    0,000000000e+00
     1416000000   -1,003084853e-01    1,193480641e-01   -3,815058172e-01    2,443431914e-01    0,000000000e+00    0,000000000e+00    0,000000000e+00    0,000000000e+00
     1430000000   -5,620349944e-02    7,112680376e-02   -1,587790996e-01    4,749951363e-01    0,000000000e+00    0,000000000e+00    0,000000000e+00    0,000000000e+00
     1444000000   -3,939826414e-02   -8,377349004e-03    1,667082608e-01    5,353072286e-01    0,000000000e+00    0,000000000e+00    0,000000000e+00    0,000000000e+00
     1458000000   -6,180512905e-02   -6,864814460e-02    4,865618348e-01    4,827231765e-01    0,000000000e+00    0,000000000e+00    0,000000000e+00    0,000000000e+00
     1472000000   -1,408542097e-01   -1,214286163e-01    7,533209920e-01    2,704205513e-01    0,000000000e+00    0,000000000e+00    0,000000000e+00    0,000000000e+00
     1486000000   -2,340581715e-01   -1,126574129e-01    8,756796122e-01   -8,946318179e-02    0,000000000e+00    0,000000000e+00    0,000000000e+00    0,000000000e+00
     1500000000   -2,927305698e-01   -4,767187312e-02    8,140240908e-01   -4,495680928e-01    0,000000000e+00    0,000000000e+00    0,000000000e+00    0,000000000e+00
