! NanoVNA-App
! Date: 2025-09-25 15:11:58
! Start: 100MHz Stop: 1,5GHz Points: 101
! S-Parameter data: F S11 S21 S12 S22
# Hz S RI R 50
!     Frequency           S11_Real           S11_Imag           S21_Real           S21_Imag           S12_Real           S12_Imag           S22_Real           S22_Imag
      100000000    3,120659851e-02    2,863479219e-02    4,347921610e-01   -6,685376763e-01    0,000000000e+00    0,000000000e+00    0,000000000e+00    0,000000000e+00
      114000000    5,762866512e-02    5,483808927e-03    7,836068980e-03   -7,907130122e-01    0,000000000e+00    0,000000000e+00    0,000000000e+00    0,000000000e+00
      128000000    6,735777110e-02   -3,784720227e-02   -4,101828039e-01   -6,712554097e-01    0,000000000e+00    0,000000000e+00    0,000000000e+00    0,000000000e+00
      142000000    4,477699846e-02   -8,421484381e-02   -7,026024461e-01   -3,531143367e-01    0,000000000e+00    0,000000000e+00    0,000000000e+00    0,000000000e+00
      156000000   -5,703634117e-03   -1,066703871e-01   -7,865450978e-01    7,391374558e-02    0,000000000e+00    0,000000000e+00    0,000000000e+00    0,000000000e+00
      170000000   -5,754860118e-02   -9,059756994e-02   -6,276462674e-01    4,869850576e-01    0,000000000e+00    0,000000000e+00    0,000000000e+00    0,000000000e+00
      184000000   -8,363907039e-02   -4,946549982e-02   -2,647714019e-01    7,510058284e-01    0,000000000e+00    0,000000000e+00    0,000000000e+00    0,000000000e+00
      198000000   -7,957752794e-02   -1,046185195e-02    1,834332794e-01    7,730305195e-01    0,000000000e+00    0,000000000e+00    0,000000000e+00    0,000000000e+00
      212000000   -6,226216629e-02    1,318956073e-02    5,691040754e-01    5,488200188e-01    0,000000000e+00    0,000000000e+00    0,000000000e+00    0,000000000e+00
      226000000   -4,319908842e-02    2,769222856e-02    7,705746293e-01    1,544511616e-01    0,000000000e+00    0,000000000e+00    0,000000000e+00    0,000000000e+00
      240000000   -1,809342951e-02    3,845350444e-02    7,267662287e-01   -2,817966342e-01    0,000000000e+00    0,000000000e+00    0,000000000e+00    0,000000000e+00
      254000000    1,737974025e-02    3,515091911e-02    4,578421414e-01   -6,202425957e-01    0,000000000e+00    0,000000000e+00    0,000000000e+00    0,000000000e+00
      268000000    4,887572303e-02    5,471901037e-03    5,871077627e-02   -7,604215741e-01    0,000000000e+00    0,000000000e+00    0,000000000e+00    0,000000000e+00
      282000000    5,359422788e-02   -4,186671600e-02   -3,489810526e-01   -6,716676950e-01    0,000000000e+00    0,000000000e+00    0,000000000e+00    0,000000000e+00
      296000000    2,406032756e-02   -7,956156880e-02   -6,517619491e-01   -3,853018582e-01    0,000000000e+00    0,000000000e+00    0,000000000e+00    0,000000000e+00
      310000000   -1,768304035e-02   -8,316587657e-02   -7,638841867e-01    1,996751502e-02    0,000000000e+00    0,000000000e+00    0,000000000e+00    0,000000000e+00
      324000000   -4,153846204e-02   -5,902430043e-02   -6,325296164e-01    4,304393530e-01    0,000000000e+00    0,000000000e+00    0,000000000e+00    0,000000000e+00
      338000000   -3,420319408e-02   -3,682864085e-02   -2,984153926e-01    6,989421844e-01    0,000000000e+00    0,000000000e+00    0,000000000e+00    0,000000000e+00
      352000000   -1,736997627e-02   -4,085215554e-02    1,256626546e-01    7,423442006e-01    0,000000000e+00    0,000000000e+00    0,000000000e+00    0,000000000e+00
      366000000   -1,922190189e-02   -6,197313219e-02    4,980821311e-01    5,546998382e-01    0,000000000e+00    0,000000000e+00    0,000000000e+00    0,000000000e+00
      380000000   -4,442478344e-02   -7,296782732e-02    7,126047015e-01    1,997916996e-01    0,000000000e+00    0,000000000e+00    0,000000000e+00    0,000000000e+00
      394000000   -7,071097940e-02   -5,834873021e-02    7,041283250e-01   -2,167710215e-01    0,000000000e+00    0,000000000e+00    0,000000000e+00    0,000000000e+00
      408000000   -7,723200321e-02   -3,020810522e-02    4,698863328e-01   -5,588383079e-01    0,000000000e+00    0,000000000e+00    0,000000000e+00    0,000000000e+00
      422000000   -6,535635889e-02   -1,092536747e-02    9,328810871e-02   -7,169339657e-01    0,000000000e+00    0,000000000e+00    0,000000000e+00    0,000000000e+00
      436000000   -5,226712301e-02   -4,413021263e-03   -3,016305268e-01   -6,473465562e-01    0,000000000e+00    0,000000000e+00    0,000000000e+00    0,000000000e+00
      450000000   -4,413335025e-02    1,252983697e-03   -5,925245285e-01   -3,791926801e-01    0,000000000e+00    0,000000000e+00    0,000000000e+00    0,000000000e+00
      464000000   -2,971162833e-02    1,034655608e-02   -6,918590069e-01   -1,402681461e-03    0,000000000e+00    0,000000000e+00    0,000000000e+00    0,000000000e+00
      478000000   -1,653993502e-03    1,074983180e-02   -5,742195249e-01    3,627893925e-01    0,000000000e+00    0,000000000e+00    0,000000000e+00    0,000000000e+00
      492000000    2,687318064e-02   -1,185065322e-02   -2,896033823e-01    6,029908657e-01    0,000000000e+00    0,000000000e+00    0,000000000e+00    0,000000000e+00
      506000000    3,652970493e-02   -5,506838858e-02    6,924142689e-02    6,599817872e-01    0,000000000e+00    0,000000000e+00    0,000000000e+00    0,000000000e+00
      520000000    1,316261105e-02   -9,788436443e-02    4,055132270e-01    5,252007246e-01    0,000000000e+00    0,000000000e+00    0,000000000e+00    0,000000000e+00
      534000000   -3,304668516e-02   -1,157759130e-01    6,247304082e-01    2,361075282e-01    0,000000000e+00    0,000000000e+00    0,000000000e+00    0,000000000e+00
      548000000   -7,698281854e-02   -1,001110747e-01    6,580627561e-01   -1,340521425e-01    0,000000000e+00    0,000000000e+00    0,000000000e+00    0,000000000e+00
      562000000   -9,304443002e-02   -6,725674868e-02    4,816737771e-01   -4,675559998e-01    0,000000000e+00    0,000000000e+00    0,000000000e+00    0,000000000e+00
      576000000   -8,621206135e-02   -4,518258944e-02    1,504323035e-01   -6,479018927e-01    0,000000000e+00    0,000000000e+00    0,000000000e+00    0,000000000e+00
      590000000   -8,146708459e-02   -4,191343114e-02   -2,226195931e-01   -6,267004609e-01    0,000000000e+00    0,000000000e+00    0,000000000e+00    0,000000000e+00
      604000000   -8,933309466e-02   -3,689937666e-02   -5,202977657e-01   -4,057708681e-01    0,000000000e+00    0,000000000e+00    0,000000000e+00    0,000000000e+00
      618000000   -9,680742025e-02   -1,418219972e-02   -6,532801390e-01   -5,783577263e-02    0,000000000e+00    0,000000000e+00    0,000000000e+00    0,000000000e+00
      632000000   -8,140186965e-02    1,593147591e-02   -5,750803351e-01    3,028243482e-01    0,000000000e+00    0,000000000e+00    0,000000000e+00    0,000000000e+00
      646000000   -4,186037555e-02    2,685345709e-02   -3,185449839e-01    5,564154983e-01    0,000000000e+00    0,000000000e+00    0,000000000e+00    0,000000000e+00
      660000000   -6,999585778e-03    5,241682287e-03    2,180510387e-02    6,309922934e-01    0,000000000e+00    0,000000000e+00    0,000000000e+00    0,000000000e+00
      674000000    8,927407907e-04   -3,014461882e-02    3,428654075e-01    5,181841850e-01    0,000000000e+00    0,000000000e+00    0,000000000e+00    0,000000000e+00
      688000000   -1,398879942e-02   -5,616093427e-02    5,585719943e-01    2,587326467e-01    0,000000000e+00    0,000000000e+00    0,000000000e+00    0,000000000e+00
      702000000   -3,358210623e-02   -6,108653173e-02    6,034823656e-01   -7,967217267e-02    0,000000000e+00    0,000000000e+00    0,000000000e+00    0,000000000e+00
      716000000   -3,688816354e-02   -5,648041144e-02    4,589505792e-01   -3,892639577e-01    0,000000000e+00    0,000000000e+00    0,000000000e+00    0,000000000e+00
      730000000   -3,194257617e-02   -6,516233087e-02    1,734108478e-01   -5,670128465e-01    0,000000000e+00    0,000000000e+00    0,000000000e+00    0,000000000e+00
      744000000   -4,056004435e-02   -8,768492192e-02   -1,530542970e-01   -5,636568666e-01    0,000000000e+00    0,000000000e+00    0,000000000e+00    0,000000000e+00
      758000000   -7,257777452e-02   -1,038942412e-01   -4,273663163e-01   -3,938333094e-01    0,000000000e+00    0,000000000e+00    0,000000000e+00    0,000000000e+00
      772000000   -1,129281372e-01   -9,403675050e-02   -5,739690065e-01   -1,058047265e-01    0,000000000e+00    0,000000000e+00    0,000000000e+00    0,000000000e+00
      786000000   -1,377334148e-01   -5,554395542e-02   -5,447795987e-01    2,211085707e-01    0,000000000e+00    0,000000000e+00    0,000000000e+00    0,000000000e+00
      800000000   -1,322892308e-01   -1,518108416e-02   -3,421895802e-01    4,803003967e-01    0,000000000e+00    0,000000000e+00    0,000000000e+00    0,000000000e+00
      814000000   -1,073331386e-01    7,629260421e-03   -3,506585956e-02    5,860762000e-01    0,000000000e+00    0,000000000e+00    0,000000000e+00    0,000000000e+00
      828000000   -8,574226499e-02    1,303005684e-02    2,778297663e-01    5,138382316e-01    0,000000000e+00    0,000000000e+00    0,000000000e+00    0,000000000e+00
      842000000   -7,061268389e-02    1,402406115e-02    5,027037263e-01    2,897319496e-01    0,000000000e+00    0,000000000e+00    0,000000000e+00    0,000000000e+00
      856000000   -5,210429430e-02    1,858457178e-02    5,708600879e-01   -1,805864833e-02    0,000000000e+00    0,000000000e+00    0,000000000e+00    0,000000000e+00
      870000000   -2,283720486e-02    1,436604280e-02    4,643635750e-01   -3,061630428e-01    0,000000000e+00    0,000000000e+00    0,000000000e+00    0,000000000e+00
      884000000    5,528696813e-03   -1,399214286e-02    2,313145697e-01   -4,883800149e-01    0,000000000e+00    0,000000000e+00    0,000000000e+00    0,000000000e+00
      898000000    1,148241200e-02   -6,364105642e-02   -5,262664333e-02   -5,273587704e-01    0,000000000e+00    0,000000000e+00    0,000000000e+00    0,000000000e+00
      912000000   -2,315468341e-02   -1,082750633e-01   -3,538354933e-01   -4,064055979e-01    0,000000000e+00    0,000000000e+00    0,000000000e+00    0,000000000e+00
      926000000   -7,591376454e-02   -1,240744591e-01   -5,324851274e-01   -1,599529684e-01    0,000000000e+00    0,000000000e+00    0,000000000e+00    0,000000000e+00
      940000000   -1,216585338e-01   -1,003434658e-01   -5,514208674e-01    1,565163434e-01    0,000000000e+00    0,000000000e+00    0,000000000e+00    0,000000000e+00
      954000000   -1,405007690e-01   -6,290329993e-02   -3,941911459e-01    4,467329979e-01    0,000000000e+00    0,000000000e+00    0,000000000e+00    0,000000000e+00
      968000000   -1,295266598e-01   -2,996176295e-02   -9,126576781e-02    6,031526327e-01    0,000000000e+00    0,000000000e+00    0,000000000e+00    0,000000000e+00
      982000000   -1,120314002e-01   -1,562347915e-02    2,450720370e-01    5,722321868e-01    0,000000000e+00    0,000000000e+00    0,000000000e+00    0,000000000e+00
      996000000   -1,095162332e-01   -1,613624021e-02    5,126935244e-01    3,675464988e-01    0,000000000e+00    0,000000000e+00    0,000000000e+00    0,000000000e+00
     1010000000   -1,027070582e-01   -6,644634996e-03    6,295985579e-01    5,105524138e-02    0,000000000e+00    0,000000000e+00    0,000000000e+00    0,000000000e+00
     1024000000   -9,420765191e-02    2,799376380e-03    5,608122945e-01   -2,709479928e-01    0,000000000e+00    0,000000000e+00    0,000000000e+00    0,000000000e+00
     1038000000   -7,866016775e-02   -2,960774873e-04    3,388691247e-01   -5,056030154e-01    0,000000000e+00    0,000000000e+00    0,000000000e+00    0,000000000e+00
     1052000000   -6,117179617e-02   -1,490828022e-02    3,293267637e-02   -5,845050812e-01    0,000000000e+00    0,000000000e+00    0,000000000e+00    0,000000000e+00
     1066000000   -6,987138838e-02   -3,313077614e-02   -2,721948028e-01   -5,025528073e-01    0,000000000e+00    0,000000000e+00    0,000000000e+00    0,000000000e+00
     1080000000   -8,337153494e-02   -2,883939072e-02   -4,819916487e-01   -2,707245052e-01    0,000000000e+00    0,000000000e+00    0,000000000e+00    0,000000000e+00
     1094000000   -8,290489763e-02   -1,865612902e-02   -5,316159725e-01    4,344361648e-02    0,000000000e+00    0,000000000e+00    0,000000000e+00    0,000000000e+00
     1108000000   -5,758559704e-02   -9,889301844e-03   -3,961553276e-01    3,247093260e-01    0,000000000e+00    0,000000000e+00    0,000000000e+00    0,000000000e+00
     1122000000   -3,354954347e-02   -3,524044901e-02   -1,379761845e-01    4,834677279e-01    0,000000000e+00    0,000000000e+00    0,000000000e+00    0,000000000e+00
     1136000000   -3,179711476e-02   -8,659079671e-02    1,635371596e-01    4,736178815e-01    0,000000000e+00    0,000000000e+00    0,000000000e+00    0,000000000e+00
     1150000000   -6,683899462e-02   -1,308586150e-01    4,205327332e-01    3,117854893e-01    0,000000000e+00    0,000000000e+00    0,000000000e+00    0,000000000e+00
     1164000000   -1,382994056e-01   -1,557148099e-01    5,636726618e-01    2,637022734e-02    0,000000000e+00    0,000000000e+00    0,000000000e+00    0,000000000e+00
     1178000000   -2,067230642e-01   -1,179081574e-01    5,319009423e-01   -3,166588545e-01    0,000000000e+00    0,000000000e+00    0,000000000e+00    0,000000000e+00
     1192000000   -2,437283099e-01   -4,228352383e-02    2,980785668e-01   -5,991990566e-01    0,000000000e+00    0,000000000e+00    0,000000000e+00    0,000000000e+00
     1206000000   -2,339040339e-01    3,187213093e-02   -6,909125298e-02   -6,973474622e-01    0,000000000e+00    0,000000000e+00    0,000000000e+00    0,000000000e+00
     1220000000   -1,858571619e-01    8,150684834e-02   -4,215492606e-01   -5,780926943e-01    0,000000000e+00    0,000000000e+00    0,000000000e+00    0,000000000e+00
     1234000000   -1,229902208e-01    1,027776152e-01   -6,426880360e-01   -2,936829031e-01    0,000000000e+00    0,000000000e+00    0,000000000e+00    0,000000000e+00
     1248000000   -6,907930225e-02    9,305586666e-02   -6,707573533e-01    6,373056024e-02    0,000000000e+00    0,000000000e+00    0,000000000e+00    0,000000000e+00
     1262000000   -1,341396477e-02    6,436080486e-02   -5,243285298e-01    3,717758954e-01    0,000000000e+00    0,000000000e+00    0,000000000e+00    0,000000000e+00
     1276000000    2,176850662e-02   -3,737482242e-03   -2,455294430e-01    5,481698513e-01    0,000000000e+00    0,000000000e+00    0,000000000e+00    0,000000000e+00
     1290000000    1,815346256e-02   -8,976186067e-02    7,169710845e-02    5,737261176e-01    0,000000000e+00    0,000000000e+00    0,000000000e+00    0,000000000e+00
     1304000000   -3,291247785e-02   -1,727093458e-01    3,678173423e-01    4,571979642e-01    0,000000000e+00    0,000000000e+00    0,000000000e+00    0,000000000e+00
     1318000000   -1,328148097e-01   -2,116082311e-01    5,849164724e-01    2,227458507e-01    0,000000000e+00    0,000000000e+00    0,000000000e+00    0,000000000e+00
     1332000000   -2,566727698e-01   -1,895920336e-01    6,512668133e-01   -1,340618730e-01    0,000000000e+00    0,000000000e+00    0,000000000e+00    0,000000000e+00
     1346000000   -3,328676522e-01   -9,138829261e-02    5,030209422e-01   -4,700050950e-01    0,000000000e+00    0,000000000e+00    0,000000000e+00    0,000000000e+00
     1360000000   -3,270987868e-01    2,323902398e-02    1,847922951e-01   -6,500049233e-01    0,000000000e+00    0,000000000e+00    0,000000000e+00    0,000000000e+00
     1374000000   -2,778371871e-01    1,017734781e-01   -1,531089246e-01   -6,083943844e-01    0,000000000e+00    0,000000000e+00    0,000000000e+00    0,000000000e+00
     1388000000   -2,122028023e-01    1,343808174e-01   -4,020256698e-01   -3,797290027e-01    0,000000000e+00    0,000000000e+00    0,000000000e+00    0,000000000e+00
     1402000000   -1,515715271e-01    1,414073557e-01   -4,770406485e-01   -6,013150513e-02    0,000000000e+00    0,000000000e+00    0,000000000e+00    0,000000000e+00
     1416000000   -9,748292714e-02    1,123784035e-01   -3,763652146e-01    2,412118316e-01    0,000000000e+00    0,000000000e+00    0,000000000e+00    0,000000000e+00
     1430000000   -5,502390489e-02    7,194052637e-02   -1,271436512e-01    4,350795746e-01    0,000000000e+00    0,000000000e+00    0,000000000e+00    0,000000000e+00
     1444000000   -3,924526647e-02    5,885685328e-03    1,505394131e-01    5,321433544e-01    0,000000000e+00    0,000000000e+00    0,000000000e+00    0,000000000e+00
     1458000000   -6,234198809e-02   -6,793906540e-02    4,886327982e-01    4,802447855e-01    0,000000000e+00    0,000000000e+00    0,000000000e+00    0,000000000e+00
     1472000000   -1,360691488e-01   -1,247273162e-01    7,515050769e-01    2,557595670e-01    0,000000000e+00    0,000000000e+00    0,000000000e+00    0,000000000e+00
     1486000000   -2,300621718e-01   -1,103300005e-01    8,882607222e-01   -7,800243050e-02    0,000000000e+00    0,000000000e+00    0,000000000e+00    0,000000000e+00
     1500000000   -2,826170921e-01   -4,472846538e-02    8,143913746e-01   -4,455605745e-01    0,000000000e+00    0,000000000e+00    0,000000000e+00    0,000000000e+00
