! NanoVNA-App
! Date: 2025-09-25 15:10:00
! Start: 100MHz Stop: 1,5GHz Points: 101
! S-Parameter data: F S11 S21 S12 S22
# Hz S RI R 50
!     Frequency           S11_Real           S11_Imag           S21_Real           S21_Imag           S12_Real           S12_Imag           S22_Real           S22_Imag
      100000000    3,114629723e-02    2,864540182e-02    4,348200262e-01   -6,685675383e-01    0,000000000e+00    0,000000000e+00    0,000000000e+00    0,000000000e+00
      114000000    5,759416893e-02    5,486582872e-03    7,650967687e-03   -7,908381224e-01    0,000000000e+00    0,000000000e+00    0,000000000e+00    0,000000000e+00
      128000000    6,724451482e-02   -3,782469779e-02   -4,102551937e-01   -6,710049510e-01    0,000000000e+00    0,000000000e+00    0,000000000e+00    0,000000000e+00
      142000000    4,471670091e-02   -8,424619585e-02   -7,028113604e-01   -3,532560766e-01    0,000000000e+00    0,000000000e+00    0,000000000e+00    0,000000000e+00
      156000000   -6,224287674e-03   -1,057923287e-01   -7,855657935e-01    7,264252007e-02    0,000000000e+00    0,000000000e+00    0,000000000e+00    0,000000000e+00
      170000000   -5,768655986e-02   -9,067550302e-02   -6,278217435e-01    4,869588614e-01    0,000000000e+00    0,000000000e+00    0,000000000e+00    0,000000000e+00
      184000000   -8,369125426e-02   -4,942480847e-02   -2,649617791e-01    7,510412931e-01    0,000000000e+00    0,000000000e+00    0,000000000e+00    0,000000000e+00
      198000000   -7,964633405e-02   -1,045812853e-02    1,836425662e-01    7,737009525e-01    0,000000000e+00    0,000000000e+00    0,000000000e+00    0,000000000e+00
      212000000   -6,228535995e-02    1,320185792e-02    5,692352653e-01    5,489687920e-01    0,000000000e+00    0,000000000e+00    0,000000000e+00    0,000000000e+00
      226000000   -4,330749065e-02    2,769509889e-02    7,707021236e-01    1,545444131e-01    0,000000000e+00    0,000000000e+00    0,000000000e+00    0,000000000e+00
      240000000   -1,826102100e-02    3,851556033e-02    7,268375754e-01   -2,819268107e-01    0,000000000e+00    0,000000000e+00    0,000000000e+00    0,000000000e+00
      254000000    1,719634980e-02    3,519420326e-02    4,579751194e-01   -6,200674176e-01    0,000000000e+00    0,000000000e+00    0,000000000e+00    0,000000000e+00
      268000000    4,883528501e-02    5,630548578e-03    5,885674804e-02   -7,606274486e-01    0,000000000e+00    0,000000000e+00    0,000000000e+00    0,000000000e+00
      282000000    5,346541852e-02   -4,176730290e-02   -3,488899469e-01   -6,716336012e-01    0,000000000e+00    0,000000000e+00    0,000000000e+00    0,000000000e+00
      296000000    2,402434684e-02   -7,957369834e-02   -6,516634226e-01   -3,854453862e-01    0,000000000e+00    0,000000000e+00    0,000000000e+00    0,000000000e+00
      310000000   -1,792615838e-02   -8,325067908e-02   -7,629938722e-01    2,095885389e-02    0,000000000e+00    0,000000000e+00    0,000000000e+00    0,000000000e+00
      324000000   -4,172145948e-02   -5,875967443e-02   -6,315476894e-01    4,312342107e-01    0,000000000e+00    0,000000000e+00    0,000000000e+00    0,000000000e+00
      338000000   -3,429803625e-02   -3,690909594e-02   -2,952944338e-01    7,006584406e-01    0,000000000e+00    0,000000000e+00    0,000000000e+00    0,000000000e+00
      352000000   -1,741883531e-02   -4,073911533e-02    1,256363094e-01    7,410397530e-01    0,000000000e+00    0,000000000e+00    0,000000000e+00    0,000000000e+00
      366000000   -1,911481656e-02   -6,193922088e-02    4,980367422e-01    5,539776087e-01    0,000000000e+00    0,000000000e+00    0,000000000e+00    0,000000000e+00
      380000000   -4,479535669e-02   -7,273279130e-02    7,130573988e-01    1,995764524e-01    0,000000000e+00    0,000000000e+00    0,000000000e+00    0,000000000e+00
      394000000   -7,085288316e-02   -5,823965743e-02    7,040019631e-01   -2,171150297e-01    0,000000000e+00    0,000000000e+00    0,000000000e+00    0,000000000e+00
      408000000   -7,697375864e-02   -3,044550866e-02    4,701218605e-01   -5,596107244e-01    0,000000000e+00    0,000000000e+00    0,000000000e+00    0,000000000e+00
      422000000   -6,540298462e-02   -1,129599568e-02    9,310588241e-02   -7,188320756e-01    0,000000000e+00    0,000000000e+00    0,000000000e+00    0,000000000e+00
      436000000   -5,303002149e-02   -4,376998637e-03   -3,029299378e-01   -6,478281617e-01    0,000000000e+00    0,000000000e+00    0,000000000e+00    0,000000000e+00
      450000000   -4,462782294e-02    1,524646650e-03   -5,926374793e-01   -3,783011436e-01    0,000000000e+00    0,000000000e+00    0,000000000e+00    0,000000000e+00
      464000000   -2,946566045e-02    1,124211214e-02   -6,913866997e-01    2,700312180e-04    0,000000000e+00    0,000000000e+00    0,000000000e+00    0,000000000e+00
      478000000   -1,567369327e-03    1,108264737e-02   -5,735068917e-01    3,630052805e-01    0,000000000e+00    0,000000000e+00    0,000000000e+00    0,000000000e+00
      492000000    2,780803852e-02   -1,254716422e-02   -2,894113958e-01    6,017757058e-01    0,000000000e+00    0,000000000e+00    0,000000000e+00    0,000000000e+00
      506000000    3,638648242e-02   -5,527016148e-02    6,871911138e-02    6,585177183e-01    0,000000000e+00    0,000000000e+00    0,000000000e+00    0,000000000e+00
      520000000    1,298133656e-02   -9,845741093e-02    4,040249288e-01    5,245779157e-01    0,000000000e+00    0,000000000e+00    0,000000000e+00    0,000000000e+00
      534000000   -3,440625593e-02   -1,160625517e-01    6,238976717e-01    2,358387113e-01    0,000000000e+00    0,000000000e+00    0,000000000e+00    0,000000000e+00
      548000000   -7,742790878e-02   -9,908751398e-02    6,582020521e-01   -1,330885887e-01    0,000000000e+00    0,000000000e+00    0,000000000e+00    0,000000000e+00
      562000000   -9,323077649e-02   -6,609818339e-02    4,824692905e-01   -4,664904177e-01    0,000000000e+00    0,000000000e+00    0,000000000e+00    0,000000000e+00
      576000000   -8,639967442e-02   -4,461545497e-02    1,505569071e-01   -6,488768458e-01    0,000000000e+00    0,000000000e+00    0,000000000e+00    0,000000000e+00
      590000000   -8,077280968e-02   -4,172609374e-02   -2,192844748e-01   -6,272647381e-01    0,000000000e+00    0,000000000e+00    0,000000000e+00    0,000000000e+00
      604000000   -8,875113726e-02   -3,721060231e-02   -5,196539760e-01   -4,058103263e-01    0,000000000e+00    0,000000000e+00    0,000000000e+00    0,000000000e+00
      618000000   -9,645146877e-02   -1,469190884e-02   -6,534051895e-01   -5,836527795e-02    0,000000000e+00    0,000000000e+00    0,000000000e+00    0,000000000e+00
      632000000   -8,133002371e-02    1,557434443e-02   -5,754604340e-01    3,030850887e-01    0,000000000e+00    0,000000000e+00    0,000000000e+00    0,000000000e+00
      646000000   -4,343243688e-02    2,618341707e-02   -3,186125457e-01    5,560897589e-01    0,000000000e+00    0,000000000e+00    0,000000000e+00    0,000000000e+00
      660000000   -7,424263749e-03    6,545572542e-03    2,082583122e-02    6,304474473e-01    0,000000000e+00    0,000000000e+00    0,000000000e+00    0,000000000e+00
      674000000    1,161188353e-03   -3,063635714e-02    3,424933255e-01    5,187987089e-01    0,000000000e+00    0,000000000e+00    0,000000000e+00    0,000000000e+00
      688000000   -1,528402790e-02   -5,565183237e-02    5,586873293e-01    2,583435774e-01    0,000000000e+00    0,000000000e+00    0,000000000e+00    0,000000000e+00
      702000000   -3,438162059e-02   -6,068308279e-02    6,028547287e-01   -7,814754546e-02    0,000000000e+00    0,000000000e+00    0,000000000e+00    0,000000000e+00
      716000000   -3,697528318e-02   -5,513750762e-02    4,596930444e-01   -3,895127177e-01    0,000000000e+00    0,000000000e+00    0,000000000e+00    0,000000000e+00
      730000000   -3,159532696e-02   -6,559949368e-02    1,740019470e-01   -5,662730336e-01    0,000000000e+00    0,000000000e+00    0,000000000e+00    0,000000000e+00
      744000000   -3,979029506e-02   -8,848319948e-02   -1,530689895e-01   -5,630551577e-01    0,000000000e+00    0,000000000e+00    0,000000000e+00    0,000000000e+00
      758000000   -7,170020789e-02   -1,047553793e-01   -4,275219440e-01   -3,942106962e-01    0,000000000e+00    0,000000000e+00    0,000000000e+00    0,000000000e+00
      772000000   -1,139890328e-01   -9,330561757e-02   -5,741836429e-01   -1,058682129e-01    0,000000000e+00    0,000000000e+00    0,000000000e+00    0,000000000e+00
      786000000   -1,390643567e-01   -5,550143495e-02   -5,449361205e-01    2,206620723e-01    0,000000000e+00    0,000000000e+00    0,000000000e+00    0,000000000e+00
      800000000   -1,334657967e-01   -1,428077836e-02   -3,422263861e-01    4,794716835e-01    0,000000000e+00    0,000000000e+00    0,000000000e+00    0,000000000e+00
      814000000   -1,079124138e-01    8,583921008e-03   -3,518129885e-02    5,854884386e-01    0,000000000e+00    0,000000000e+00    0,000000000e+00    0,000000000e+00
      828000000   -8,535069227e-02    1,311125793e-02    2,772186697e-01    5,148056746e-01    0,000000000e+00    0,000000000e+00    0,000000000e+00    0,000000000e+00
      842000000   -7,119929790e-02    1,466878783e-02    5,027367473e-01    2,893749774e-01    0,000000000e+00    0,000000000e+00    0,000000000e+00    0,000000000e+00
      856000000   -5,248218030e-02    1,960558817e-02    5,706629157e-01   -1,819748618e-02    0,000000000e+00    0,000000000e+00    0,000000000e+00    0,000000000e+00
      870000000   -2,280047163e-02    1,499825623e-02    4,639545977e-01   -3,057493567e-01    0,000000000e+00    0,000000000e+00    0,000000000e+00    0,000000000e+00
      884000000    6,230930798e-03   -1,478245482e-02    2,306257635e-01   -4,878663719e-01    0,000000000e+00    0,000000000e+00    0,000000000e+00    0,000000000e+00
      898000000    1,231634244e-02   -6,387238950e-02   -5,277501792e-02   -5,269028544e-01    0,000000000e+00    0,000000000e+00    0,000000000e+00    0,000000000e+00
      912000000   -2,387531102e-02   -1,092323139e-01   -3,646119237e-01   -3,953795135e-01    0,000000000e+00    0,000000000e+00    0,000000000e+00    0,000000000e+00
      926000000   -7,567760348e-02   -1,237415150e-01   -5,326631665e-01   -1,580819637e-01    0,000000000e+00    0,000000000e+00    0,000000000e+00    0,000000000e+00
      940000000   -1,233570352e-01   -1,043191105e-01   -5,518409014e-01    1,542505324e-01    0,000000000e+00    0,000000000e+00    0,000000000e+00    0,000000000e+00
      954000000   -1,401342899e-01   -6,238508597e-02   -3,903225958e-01    4,458654523e-01    0,000000000e+00    0,000000000e+00    0,000000000e+00    0,000000000e+00
      968000000   -1,337618828e-01   -2,943166904e-02   -9,446696192e-02    6,023495197e-01    0,000000000e+00    0,000000000e+00    0,000000000e+00    0,000000000e+00
      982000000   -1,155890971e-01   -1,277323067e-02    2,454670370e-01    5,729027390e-01    0,000000000e+00    0,000000000e+00    0,000000000e+00    0,000000000e+00
      996000000   -1,097590998e-01   -1,307012141e-02    5,134044886e-01    3,651942909e-01    0,000000000e+00    0,000000000e+00    0,000000000e+00    0,000000000e+00
     1010000000   -1,028956547e-01   -1,110855862e-02    6,291986704e-01    5,213637277e-02    0,000000000e+00    0,000000000e+00    0,000000000e+00    0,000000000e+00
     1024000000   -9,021572024e-02   -8,511829947e-05    5,586509705e-01   -2,709966898e-01    0,000000000e+00    0,000000000e+00    0,000000000e+00    0,000000000e+00
     1038000000   -7,747073472e-02   -4,846144002e-03    3,385427296e-01   -5,024442673e-01    0,000000000e+00    0,000000000e+00    0,000000000e+00    0,000000000e+00
     1052000000   -6,421436369e-02   -1,985030621e-02    3,293951601e-02   -5,869539976e-01    0,000000000e+00    0,000000000e+00    0,000000000e+00    0,000000000e+00
     1066000000   -6,919391453e-02   -3,391576931e-02   -2,727214992e-01   -5,041033626e-01    0,000000000e+00    0,000000000e+00    0,000000000e+00    0,000000000e+00
     1080000000   -8,478979766e-02   -3,176043183e-02   -4,806752205e-01   -2,698248625e-01    0,000000000e+00    0,000000000e+00    0,000000000e+00    0,000000000e+00
     1094000000   -7,837146521e-02   -1,317999698e-02   -5,321835876e-01    3,998676315e-02    0,000000000e+00    0,000000000e+00    0,000000000e+00    0,000000000e+00
     1108000000   -5,951730162e-02   -8,388581686e-03   -3,980199099e-01    3,235155046e-01    0,000000000e+00    0,000000000e+00    0,000000000e+00    0,000000000e+00
     1122000000   -2,778127976e-02   -3,574840352e-02   -1,374064684e-01    4,826651216e-01    0,000000000e+00    0,000000000e+00    0,000000000e+00    0,000000000e+00
     1136000000   -3,065788560e-02   -8,361441642e-02    1,596674472e-01    4,740627110e-01    0,000000000e+00    0,000000000e+00    0,000000000e+00    0,000000000e+00
     1150000000   -6,266482919e-02   -1,320867687e-01    4,220722914e-01    3,114634752e-01    0,000000000e+00    0,000000000e+00    0,000000000e+00    0,000000000e+00
     1164000000   -1,364902556e-01   -1,501575410e-01    5,628319979e-01    2,910402417e-02    0,000000000e+00    0,000000000e+00    0,000000000e+00    0,000000000e+00
     1178000000   -2,130953223e-01   -1,175806895e-01    5,321543217e-01   -3,155182004e-01    0,000000000e+00    0,000000000e+00    0,000000000e+00    0,000000000e+00
     1192000000   -2,454003543e-01   -4,128594324e-02    2,990211546e-01   -6,001421809e-01    0,000000000e+00    0,000000000e+00    0,000000000e+00    0,000000000e+00
     1206000000   -2,298971862e-01    3,349666297e-02   -6,428502500e-02   -7,007021904e-01    0,000000000e+00    0,000000000e+00    0,000000000e+00    0,000000000e+00
     1220000000   -1,830308288e-01    8,401414007e-02   -4,205597043e-01   -5,783843398e-01    0,000000000e+00    0,000000000e+00    0,000000000e+00    0,000000000e+00
     1234000000   -1,258228421e-01    1,052738056e-01   -6,442831755e-01   -2,904652059e-01    0,000000000e+00    0,000000000e+00    0,000000000e+00    0,000000000e+00
     1248000000   -6,388866901e-02    9,538175166e-02   -6,715306640e-01    6,014566123e-02    0,000000000e+00    0,000000000e+00    0,000000000e+00    0,000000000e+00
     1262000000   -1,071349159e-02    5,996032059e-02   -5,196482539e-01    3,712541163e-01    0,000000000e+00    0,000000000e+00    0,000000000e+00    0,000000000e+00
     1276000000    2,188141458e-02   -4,080257379e-03   -2,480070740e-01    5,450018644e-01    0,000000000e+00    0,000000000e+00    0,000000000e+00    0,000000000e+00
     1290000000    2,047884464e-02   -8,476793766e-02    6,241126359e-02    5,806348920e-01    0,000000000e+00    0,000000000e+00    0,000000000e+00    0,000000000e+00
     1304000000   -3,473811969e-02   -1,718604863e-01    3,646340966e-01    4,689309597e-01    0,000000000e+00    0,000000000e+00    0,000000000e+00    0,000000000e+00
     1318000000   -1,331700832e-01   -2,186767161e-01    5,878248811e-01    2,152010202e-01    0,000000000e+00    0,000000000e+00    0,000000000e+00    0,000000000e+00
     1332000000   -2,494857162e-01   -1,905308664e-01    6,633883119e-01   -1,319093257e-01    0,000000000e+00    0,000000000e+00    0,000000000e+00    0,000000000e+00
     1346000000   -3,313531578e-01   -8,820949495e-02    5,126897097e-01   -4,596971273e-01    0,000000000e+00    0,000000000e+00    0,000000000e+00    0,000000000e+00
     1360000000   -3,306811452e-01    2,336169593e-02    1,994542927e-01   -6,523380876e-01    0,000000000e+00    0,000000000e+00    0,000000000e+00    0,000000000e+00
     1374000000   -2,834282219e-01    1,061627418e-01   -1,513085365e-01   -6,043023467e-01    0,000000000e+00    0,000000000e+00    0,000000000e+00    0,000000000e+00
     1388000000   -2,130341083e-01    1,370581686e-01   -4,040730298e-01   -3,888626397e-01    0,000000000e+00    0,000000000e+00    0,000000000e+00    0,000000000e+00
     1402000000   -1,501936913e-01    1,410673708e-01   -4,746768773e-01   -6,298450381e-02    0,000000000e+00    0,000000000e+00    0,000000000e+00    0,000000000e+00
     1416000000   -9,428174794e-02    1,193095744e-01   -3,781690001e-01    2,500636280e-01    0,000000000e+00    0,000000000e+00    0,000000000e+00    0,000000000e+00
     1430000000   -5,042246357e-02    6,695276499e-02   -1,620512456e-01    4,438941777e-01    0,000000000e+00    0,000000000e+00    0,000000000e+00    0,000000000e+00
     1444000000   -4,021482542e-02    5,464170128e-03    1,609733254e-01    5,382603407e-01    0,000000000e+00    0,000000000e+00    0,000000000e+00    0,000000000e+00
     1458000000   -6,835483760e-02   -6,935007125e-02    4,824926555e-01    4,819817841e-01    0,000000000e+00    0,000000000e+00    0,000000000e+00    0,000000000e+00
     1472000000   -1,416708827e-01   -1,219437867e-01    7,411400080e-01    2,719357312e-01    0,000000000e+00    0,000000000e+00    0,000000000e+00    0,000000000e+00
     1486000000   -2,386211455e-01   -1,173574924e-01    8,920237422e-01   -9,616132081e-02    0,000000000e+00    0,000000000e+00    0,000000000e+00    0,000000000e+00
     1500000000   -2,797232866e-01   -4,478481412e-02    8,116485476e-01   -4,531492591e-01    0,000000000e+00    0,000000000e+00    0,000000000e+00    0,000000000e+00
