! NanoVNA-App
! Date: 2025-09-25 15:06:25
! Start: 100MHz Stop: 1,5GHz Points: 101
! S-Parameter data: F S11 S21 S12 S22
# Hz S RI R 50
!     Frequency           S11_Real           S11_Imag           S21_Real           S21_Imag           S12_Real           S12_Imag           S22_Real           S22_Imag
      100000000    3,116476722e-02    2,865654603e-02    4,348275363e-01   -6,686558723e-01    0,000000000e+00    0,000000000e+00    0,000000000e+00    0,000000000e+00
      114000000    5,760947987e-02    5,511896685e-03    7,856304757e-03   -7,911077738e-01    0,000000000e+00    0,000000000e+00    0,000000000e+00    0,000000000e+00
      128000000    6,724801660e-02   -3,785313666e-02   -4,104867578e-01   -6,711807847e-01    0,000000000e+00    0,000000000e+00    0,000000000e+00    0,000000000e+00
      142000000    4,474059865e-02   -8,419617265e-02   -7,029975653e-01   -3,532022834e-01    0,000000000e+00    0,000000000e+00    0,000000000e+00    0,000000000e+00
      156000000   -5,635046400e-03   -1,067940816e-01   -7,870445848e-01    7,398444414e-02    0,000000000e+00    0,000000000e+00    0,000000000e+00    0,000000000e+00
      170000000   -5,765157193e-02   -9,057728201e-02   -6,277103424e-01    4,869146645e-01    0,000000000e+00    0,000000000e+00    0,000000000e+00    0,000000000e+00
      184000000   -8,366394043e-02   -4,946808144e-02   -2,649862468e-01    7,511879206e-01    0,000000000e+00    0,000000000e+00    0,000000000e+00    0,000000000e+00
      198000000   -7,962257415e-02   -1,047392190e-02    1,833485365e-01    7,729582787e-01    0,000000000e+00    0,000000000e+00    0,000000000e+00    0,000000000e+00
      212000000   -6,221664697e-02    1,314494293e-02    5,690293312e-01    5,489962101e-01    0,000000000e+00    0,000000000e+00    0,000000000e+00    0,000000000e+00
      226000000   -4,330349341e-02    2,765779011e-02    7,707023025e-01    1,544847339e-01    0,000000000e+00    0,000000000e+00    0,000000000e+00    0,000000000e+00
      240000000   -1,821182482e-02    3,847448155e-02    7,270508409e-01   -2,819670439e-01    0,000000000e+00    0,000000000e+00    0,000000000e+00    0,000000000e+00
      254000000    1,719972678e-02    3,517308459e-02    4,578547478e-01   -6,201469898e-01    0,000000000e+00    0,000000000e+00    0,000000000e+00    0,000000000e+00
      268000000    4,879275337e-02    5,539766047e-03    5,870822817e-02   -7,602435946e-01    0,000000000e+00    0,000000000e+00    0,000000000e+00    0,000000000e+00
      282000000    5,343571678e-02   -4,181868955e-02   -3,487725258e-01   -6,714209318e-01    0,000000000e+00    0,000000000e+00    0,000000000e+00    0,000000000e+00
      296000000    2,393821254e-02   -7,953627408e-02   -6,519119143e-01   -3,853819966e-01    0,000000000e+00    0,000000000e+00    0,000000000e+00    0,000000000e+00
      310000000   -1,790881157e-02   -8,321560174e-02   -7,638657689e-01    2,098949440e-02    0,000000000e+00    0,000000000e+00    0,000000000e+00    0,000000000e+00
      324000000   -4,152215645e-02   -5,846264213e-02   -6,319314837e-01    4,310170114e-01    0,000000000e+00    0,000000000e+00    0,000000000e+00    0,000000000e+00
      338000000   -3,433769569e-02   -3,681992739e-02   -2,949181795e-01    7,001109719e-01    0,000000000e+00    0,000000000e+00    0,000000000e+00    0,000000000e+00
      352000000   -1,742759347e-02   -4,084419832e-02    1,256353259e-01    7,424402833e-01    0,000000000e+00    0,000000000e+00    0,000000000e+00    0,000000000e+00
      366000000   -1,927721873e-02   -6,211224198e-02    4,989707768e-01    5,548344254e-01    0,000000000e+00    0,000000000e+00    0,000000000e+00    0,000000000e+00
      380000000   -4,443658516e-02   -7,262292504e-02    7,126495838e-01    2,002516389e-01    0,000000000e+00    0,000000000e+00    0,000000000e+00    0,000000000e+00
      394000000   -7,085585594e-02   -5,831138045e-02    7,037344575e-01   -2,162554115e-01    0,000000000e+00    0,000000000e+00    0,000000000e+00    0,000000000e+00
      408000000   -7,718908787e-02   -3,053092584e-02    4,696231186e-01   -5,598643422e-01    0,000000000e+00    0,000000000e+00    0,000000000e+00    0,000000000e+00
      422000000   -6,556577981e-02   -1,145467162e-02    9,316006303e-02   -7,189580202e-01    0,000000000e+00    0,000000000e+00    0,000000000e+00    0,000000000e+00
      436000000   -5,295546725e-02   -4,793332424e-03   -3,018347025e-01   -6,478524208e-01    0,000000000e+00    0,000000000e+00    0,000000000e+00    0,000000000e+00
      450000000   -4,464692250e-02    1,743115834e-03   -5,930753946e-01   -3,775846064e-01    0,000000000e+00    0,000000000e+00    0,000000000e+00    0,000000000e+00
      464000000   -2,934370190e-02    1,137247775e-02   -6,911516786e-01    1,955353946e-04    0,000000000e+00    0,000000000e+00    0,000000000e+00    0,000000000e+00
      478000000   -1,084279851e-03    1,148185227e-02   -5,733122826e-01    3,636360765e-01    0,000000000e+00    0,000000000e+00    0,000000000e+00    0,000000000e+00
      492000000    2,824084647e-02   -1,259406283e-02   -2,891495228e-01    6,022983193e-01    0,000000000e+00    0,000000000e+00    0,000000000e+00    0,000000000e+00
      506000000    3,688099980e-02   -5,590355769e-02    6,924309582e-02    6,583791971e-01    0,000000000e+00    0,000000000e+00    0,000000000e+00    0,000000000e+00
      520000000    1,251906343e-02   -9,884042293e-02    4,055855572e-01    5,213856101e-01    0,000000000e+00    0,000000000e+00    0,000000000e+00    0,000000000e+00
      534000000   -3,455172852e-02   -1,157823578e-01    6,242555976e-01    2,366883457e-01    0,000000000e+00    0,000000000e+00    0,000000000e+00    0,000000000e+00
      548000000   -7,733467221e-02   -9,927255660e-02    6,586732268e-01   -1,335102767e-01    0,000000000e+00    0,000000000e+00    0,000000000e+00    0,000000000e+00
      562000000   -9,307520092e-02   -6,574206054e-02    4,818229973e-01   -4,664005935e-01    0,000000000e+00    0,000000000e+00    0,000000000e+00    0,000000000e+00
      576000000   -8,591900021e-02   -4,403082654e-02    1,500946730e-01   -6,470797658e-01    0,000000000e+00    0,000000000e+00    0,000000000e+00    0,000000000e+00
      590000000   -8,050804585e-02   -4,147561640e-02   -2,205786556e-01   -6,254630089e-01    0,000000000e+00    0,000000000e+00    0,000000000e+00    0,000000000e+00
      604000000   -8,881344646e-02   -3,704936802e-02   -5,199335217e-01   -4,054683745e-01    0,000000000e+00    0,000000000e+00    0,000000000e+00    0,000000000e+00
      618000000   -9,682400525e-02   -1,548465062e-02   -6,530151963e-01   -5,837705731e-02    0,000000000e+00    0,000000000e+00    0,000000000e+00    0,000000000e+00
      632000000   -8,139274269e-02    1,442101970e-02   -5,751619339e-01    3,024097681e-01    0,000000000e+00    0,000000000e+00    0,000000000e+00    0,000000000e+00
      646000000   -4,301046953e-02    2,584489249e-02   -3,184221387e-01    5,556997061e-01    0,000000000e+00    0,000000000e+00    0,000000000e+00    0,000000000e+00
      660000000   -8,192660287e-03    6,305913441e-03    2,131714299e-02    6,288844347e-01    0,000000000e+00    0,000000000e+00    0,000000000e+00    0,000000000e+00
      674000000    6,172733847e-04   -3,038414009e-02    3,425653279e-01    5,187323689e-01    0,000000000e+00    0,000000000e+00    0,000000000e+00    0,000000000e+00
      688000000   -1,513558533e-02   -5,596063286e-02    5,585610271e-01    2,588162422e-01    0,000000000e+00    0,000000000e+00    0,000000000e+00    0,000000000e+00
      702000000   -3,384004906e-02   -5,849981681e-02    6,054293513e-01   -8,183532208e-02    0,000000000e+00    0,000000000e+00    0,000000000e+00    0,000000000e+00
      716000000   -3,658178821e-02   -5,644072220e-02    4,597042203e-01   -3,896378279e-01    0,000000000e+00    0,000000000e+00    0,000000000e+00    0,000000000e+00
      730000000   -3,228561953e-02   -6,524926424e-02    1,741744280e-01   -5,670830011e-01    0,000000000e+00    0,000000000e+00    0,000000000e+00    0,000000000e+00
      744000000   -4,044923931e-02   -8,926985413e-02   -1,531671435e-01   -5,636474490e-01    0,000000000e+00    0,000000000e+00    0,000000000e+00    0,000000000e+00
      758000000   -7,262293249e-02   -1,047754735e-01   -4,270936847e-01   -3,949406445e-01    0,000000000e+00    0,000000000e+00    0,000000000e+00    0,000000000e+00
      772000000   -1,136598736e-01   -9,353536367e-02   -5,742796659e-01   -1,057326868e-01    0,000000000e+00    0,000000000e+00    0,000000000e+00    0,000000000e+00
      786000000   -1,395590454e-01   -5,588347092e-02   -5,449048877e-01    2,211796939e-01    0,000000000e+00    0,000000000e+00    0,000000000e+00    0,000000000e+00
      800000000   -1,334512830e-01   -1,476173010e-02   -3,409414887e-01    4,798210561e-01    0,000000000e+00    0,000000000e+00    0,000000000e+00    0,000000000e+00
      814000000   -1,082728580e-01    9,348908439e-03   -3,457517549e-02    5,858475566e-01    0,000000000e+00    0,000000000e+00    0,000000000e+00    0,000000000e+00
      828000000   -8,581462502e-02    1,390320994e-02    2,798533142e-01    5,153719783e-01    0,000000000e+00    0,000000000e+00    0,000000000e+00    0,000000000e+00
      842000000   -7,072511315e-02    1,469700411e-02    5,026147366e-01    2,897420526e-01    0,000000000e+00    0,000000000e+00    0,000000000e+00    0,000000000e+00
      856000000   -5,169568211e-02    1,851801388e-02    5,705956817e-01   -1,755942218e-02    0,000000000e+00    0,000000000e+00    0,000000000e+00    0,000000000e+00
      870000000   -2,329121158e-02    1,388415229e-02    4,630723000e-01   -3,062919080e-01    0,000000000e+00    0,000000000e+00    0,000000000e+00    0,000000000e+00
      884000000    6,035325583e-03   -1,489064284e-02    2,304969579e-01   -4,895823598e-01    0,000000000e+00    0,000000000e+00    0,000000000e+00    0,000000000e+00
      898000000    1,142234076e-02   -6,360815465e-02   -5,223148316e-02   -5,267392397e-01    0,000000000e+00    0,000000000e+00    0,000000000e+00    0,000000000e+00
      912000000   -2,289999649e-02   -1,089696810e-01   -3,618326783e-01   -4,105112851e-01    0,000000000e+00    0,000000000e+00    0,000000000e+00    0,000000000e+00
      926000000   -7,634340227e-02   -1,237939671e-01   -5,333659649e-01   -1,568623930e-01    0,000000000e+00    0,000000000e+00    0,000000000e+00    0,000000000e+00
      940000000   -1,206471100e-01   -1,009935737e-01   -5,528492332e-01    1,550237536e-01    0,000000000e+00    0,000000000e+00    0,000000000e+00    0,000000000e+00
      954000000   -1,417742968e-01   -5,768027529e-02   -3,926257193e-01    4,484049678e-01    0,000000000e+00    0,000000000e+00    0,000000000e+00    0,000000000e+00
      968000000   -1,345690042e-01   -2,838959172e-02   -9,140624106e-02    6,046101451e-01    0,000000000e+00    0,000000000e+00    0,000000000e+00    0,000000000e+00
      982000000   -1,163905188e-01   -1,847401820e-02    2,438811809e-01    5,709567666e-01    0,000000000e+00    0,000000000e+00    0,000000000e+00    0,000000000e+00
      996000000   -1,080292165e-01   -1,154284086e-02    5,120297074e-01    3,677581251e-01    0,000000000e+00    0,000000000e+00    0,000000000e+00    0,000000000e+00
     1010000000   -1,001336128e-01   -9,607573971e-03    6,281379461e-01    5,293880776e-02    0,000000000e+00    0,000000000e+00    0,000000000e+00    0,000000000e+00
     1024000000   -8,945622295e-02    1,764226239e-03    5,601161122e-01   -2,715493739e-01    0,000000000e+00    0,000000000e+00    0,000000000e+00    0,000000000e+00
     1038000000   -7,655131072e-02    5,143077578e-04    3,402470350e-01   -5,057456493e-01    0,000000000e+00    0,000000000e+00    0,000000000e+00    0,000000000e+00
     1052000000   -6,171793863e-02   -1,726250537e-02    3,271226212e-02   -5,891304016e-01    0,000000000e+00    0,000000000e+00    0,000000000e+00    0,000000000e+00
     1066000000   -6,745034456e-02   -2,879804932e-02   -2,710656226e-01   -5,034791827e-01    0,000000000e+00    0,000000000e+00    0,000000000e+00    0,000000000e+00
     1080000000   -8,229555190e-02   -2,796147019e-02   -4,812518954e-01   -2,700041533e-01    0,000000000e+00    0,000000000e+00    0,000000000e+00    0,000000000e+00
     1094000000   -7,749772072e-02   -1,801501215e-02   -5,314037204e-01    4,076759145e-02    0,000000000e+00    0,000000000e+00    0,000000000e+00    0,000000000e+00
     1108000000   -5,677938089e-02   -1,033440512e-02   -3,987583518e-01    3,275277615e-01    0,000000000e+00    0,000000000e+00    0,000000000e+00    0,000000000e+00
     1122000000   -3,205196559e-02   -3,263533488e-02   -1,367705911e-01    4,800800681e-01    0,000000000e+00    0,000000000e+00    0,000000000e+00    0,000000000e+00
     1136000000   -2,526224963e-02   -8,424611390e-02    1,616946608e-01    4,735946357e-01    0,000000000e+00    0,000000000e+00    0,000000000e+00    0,000000000e+00
     1150000000   -6,703267992e-02   -1,333850473e-01    4,173291326e-01    3,125697672e-01    0,000000000e+00    0,000000000e+00    0,000000000e+00    0,000000000e+00
     1164000000   -1,412904412e-01   -1,540614516e-01    5,640497804e-01    2,749512345e-02    0,000000000e+00    0,000000000e+00    0,000000000e+00    0,000000000e+00
     1178000000   -2,131429017e-01   -1,160058156e-01    5,298697948e-01   -3,174557090e-01    0,000000000e+00    0,000000000e+00    0,000000000e+00    0,000000000e+00
     1192000000   -2,502424717e-01   -4,431952909e-02    2,973344326e-01   -5,963097811e-01    0,000000000e+00    0,000000000e+00    0,000000000e+00    0,000000000e+00
     1206000000   -2,316884547e-01    3,626150265e-02   -6,590049714e-02   -6,956281662e-01    0,000000000e+00    0,000000000e+00    0,000000000e+00    0,000000000e+00
     1220000000   -1,894090325e-01    8,488459885e-02   -4,196578562e-01   -5,751241446e-01    0,000000000e+00    0,000000000e+00    0,000000000e+00    0,000000000e+00
     1234000000   -1,316336989e-01    1,029484719e-01   -6,466856599e-01   -2,907353938e-01    0,000000000e+00    0,000000000e+00    0,000000000e+00    0,000000000e+00
     1248000000   -6,840658933e-02    1,004762948e-01   -6,765412092e-01    6,237176806e-02    0,000000000e+00    0,000000000e+00    0,000000000e+00    0,000000000e+00
     1262000000   -1,584941521e-02    6,244352460e-02   -5,226252079e-01    3,700809181e-01    0,000000000e+00    0,000000000e+00    0,000000000e+00    0,000000000e+00
     1276000000    2,370484360e-02    7,593586924e-04   -2,420107573e-01    5,503943563e-01    0,000000000e+00    0,000000000e+00    0,000000000e+00    0,000000000e+00
     1290000000    2,339299582e-02   -8,837687224e-02    7,426681370e-02    5,781395435e-01    0,000000000e+00    0,000000000e+00    0,000000000e+00    0,000000000e+00
     1304000000   -3,429854289e-02   -1,745041460e-01    3,651502728e-01    4,643144906e-01    0,000000000e+00    0,000000000e+00    0,000000000e+00    0,000000000e+00
     1318000000   -1,380655766e-01   -2,165581733e-01    5,819815397e-01    2,175608873e-01    0,000000000e+00    0,000000000e+00    0,000000000e+00    0,000000000e+00
     1332000000   -2,551512122e-01   -1,835729480e-01    6,519826055e-01   -1,277281046e-01    0,000000000e+00    0,000000000e+00    0,000000000e+00    0,000000000e+00
     1346000000   -3,357285857e-01   -9,673586488e-02    5,019332170e-01   -4,675511122e-01    0,000000000e+00    0,000000000e+00    0,000000000e+00    0,000000000e+00
     1360000000   -3,344343305e-01    2,509867772e-02    1,949299723e-01   -6,481906176e-01    0,000000000e+00    0,000000000e+00    0,000000000e+00    0,000000000e+00
     1374000000   -2,803778052e-01    1,011659205e-01   -1,581436843e-01   -6,036133170e-01    0,000000000e+00    0,000000000e+00    0,000000000e+00    0,000000000e+00
     1388000000   -2,153324038e-01    1,372540444e-01   -4,099287093e-01   -3,745837510e-01    0,000000000e+00    0,000000000e+00    0,000000000e+00    0,000000000e+00
     1402000000   -1,496033370e-01    1,377575696e-01   -4,865531325e-01   -6,522779912e-02    0,000000000e+00    0,000000000e+00    0,000000000e+00    0,000000000e+00
     1416000000   -9,027674794e-02    1,179345548e-01   -3,740783036e-01    2,388857454e-01    0,000000000e+00    0,000000000e+00    0,000000000e+00    0,000000000e+00
     1430000000   -4,936143011e-02    7,054724544e-02   -1,500921100e-01    4,719955921e-01    0,000000000e+00    0,000000000e+00    0,000000000e+00    0,000000000e+00
     1444000000   -4,322653636e-02    5,177698564e-03    1,554306448e-01    5,378825068e-01    0,000000000e+00    0,000000000e+00    0,000000000e+00    0,000000000e+00
     1458000000   -6,419546902e-02   -7,424001396e-02    4,851581752e-01    4,709073305e-01    0,000000000e+00    0,000000000e+00    0,000000000e+00    0,000000000e+00
     1472000000   -1,406626552e-01   -1,237696335e-01    7,546446323e-01    2,753576636e-01    0,000000000e+00    0,000000000e+00    0,000000000e+00    0,000000000e+00
     1486000000   -2,257951349e-01   -1,115270555e-01    9,096140862e-01   -8,822870255e-02    0,000000000e+00    0,000000000e+00    0,000000000e+00    0,000000000e+00
     1500000000   -2,836599946e-01   -5,044456944e-02    8,064458370e-01   -4,694053233e-01    0,000000000e+00    0,000000000e+00    0,000000000e+00    0,000000000e+00
