! NanoVNA-App
! Date: 2025-09-25 15:04:17
! Start: 100MHz Stop: 1,5GHz Points: 101
! S-Parameter data: F S11 S21 S12 S22
# Hz S RI R 50
!     Frequency           S11_Real           S11_Imag           S21_Real           S21_Imag           S12_Real           S12_Imag           S22_Real           S22_Imag
      100000000    3,110665083e-02    2,860948071e-02    4,347988665e-01   -6,686909199e-01    0,000000000e+00    0,000000000e+00    0,000000000e+00    0,000000000e+00
      114000000    5,751865357e-02    5,471597891e-03    7,597740740e-03   -7,910837531e-01    0,000000000e+00    0,000000000e+00    0,000000000e+00    0,000000000e+00
      128000000    6,720400602e-02   -3,777665645e-02   -4,104122519e-01   -6,709296107e-01    0,000000000e+00    0,000000000e+00    0,000000000e+00    0,000000000e+00
      142000000    4,468090460e-02   -8,412018418e-02   -7,029194236e-01   -3,532640040e-01    0,000000000e+00    0,000000000e+00    0,000000000e+00    0,000000000e+00
      156000000   -5,929056555e-03   -1,063519046e-01   -7,862209082e-01    7,386807352e-02    0,000000000e+00    0,000000000e+00    0,000000000e+00    0,000000000e+00
      170000000   -5,759999901e-02   -9,062797576e-02   -6,275346279e-01    4,871086478e-01    0,000000000e+00    0,000000000e+00    0,000000000e+00    0,000000000e+00
      184000000   -8,363015950e-02   -4,941809922e-02   -2,648997307e-01    7,512499690e-01    0,000000000e+00    0,000000000e+00    0,000000000e+00    0,000000000e+00
      198000000   -7,953638583e-02   -1,047618315e-02    1,835474670e-01    7,729071975e-01    0,000000000e+00    0,000000000e+00    0,000000000e+00    0,000000000e+00
      212000000   -6,224223226e-02    1,309963409e-02    5,691227317e-01    5,490345955e-01    0,000000000e+00    0,000000000e+00    0,000000000e+00    0,000000000e+00
      226000000   -4,319530725e-02    2,765166014e-02    7,708040476e-01    1,543540806e-01    0,000000000e+00    0,000000000e+00    0,000000000e+00    0,000000000e+00
      240000000   -1,820580289e-02    3,844560310e-02    7,268311381e-01   -2,822662890e-01    0,000000000e+00    0,000000000e+00    0,000000000e+00    0,000000000e+00
      254000000    1,711352728e-02    3,506005183e-02    4,579028785e-01   -6,203477383e-01    0,000000000e+00    0,000000000e+00    0,000000000e+00    0,000000000e+00
      268000000    4,866396636e-02    5,544015206e-03    5,850409716e-02   -7,602232695e-01    0,000000000e+00    0,000000000e+00    0,000000000e+00    0,000000000e+00
      282000000    5,341122299e-02   -4,184213281e-02   -3,493324816e-01   -6,715922356e-01    0,000000000e+00    0,000000000e+00    0,000000000e+00    0,000000000e+00
      296000000    2,384422347e-02   -7,937119156e-02   -6,517564654e-01   -3,850086927e-01    0,000000000e+00    0,000000000e+00    0,000000000e+00    0,000000000e+00
      310000000   -1,791880839e-02   -8,309797198e-02   -7,633327246e-01    2,108674310e-02    0,000000000e+00    0,000000000e+00    0,000000000e+00    0,000000000e+00
      324000000   -4,157853872e-02   -5,862680078e-02   -6,322743893e-01    4,318091571e-01    0,000000000e+00    0,000000000e+00    0,000000000e+00    0,000000000e+00
      338000000   -3,405599669e-02   -3,676175699e-02   -2,972371876e-01    7,027576566e-01    0,000000000e+00    0,000000000e+00    0,000000000e+00    0,000000000e+00
      352000000   -1,713800058e-02   -4,066753015e-02    1,267037243e-01    7,418457866e-01    0,000000000e+00    0,000000000e+00    0,000000000e+00    0,000000000e+00
      366000000   -1,935441233e-02   -6,222623959e-02    4,979745448e-01    5,539611578e-01    0,000000000e+00    0,000000000e+00    0,000000000e+00    0,000000000e+00
      380000000   -4,417849332e-02   -7,291799039e-02    7,132181525e-01    1,991641521e-01    0,000000000e+00    0,000000000e+00    0,000000000e+00    0,000000000e+00
      394000000   -7,088625431e-02   -5,816377699e-02    7,039490342e-01   -2,169504017e-01    0,000000000e+00    0,000000000e+00    0,000000000e+00    0,000000000e+00
      408000000   -7,726336271e-02   -3,075363114e-02    4,696466327e-01   -5,592617393e-01    0,000000000e+00    0,000000000e+00    0,000000000e+00    0,000000000e+00
      422000000   -6,549613178e-02   -1,169614401e-02    9,247919172e-02   -7,187109590e-01    0,000000000e+00    0,000000000e+00    0,000000000e+00    0,000000000e+00
      436000000   -5,317996815e-02   -4,514614586e-03   -3,020448983e-01   -6,472046971e-01    0,000000000e+00    0,000000000e+00    0,000000000e+00    0,000000000e+00
      450000000   -4,481950775e-02    1,985054696e-03   -5,927258730e-01   -3,772967756e-01    0,000000000e+00    0,000000000e+00    0,000000000e+00    0,000000000e+00
      464000000   -2,948898450e-02    1,154032163e-02   -6,910435557e-01    5,288459361e-04    0,000000000e+00    0,000000000e+00    0,000000000e+00    0,000000000e+00
      478000000   -1,093912055e-03    1,133246161e-02   -5,729587674e-01    3,633647561e-01    0,000000000e+00    0,000000000e+00    0,000000000e+00    0,000000000e+00
      492000000    2,826775610e-02   -1,290711761e-02   -2,894953489e-01    6,017629504e-01    0,000000000e+00    0,000000000e+00    0,000000000e+00    0,000000000e+00
      506000000    3,654884920e-02   -5,627666041e-02    6,860991567e-02    6,575542688e-01    0,000000000e+00    0,000000000e+00    0,000000000e+00    0,000000000e+00
      520000000    1,292646304e-02   -9,907775372e-02    4,041477442e-01    5,253123641e-01    0,000000000e+00    0,000000000e+00    0,000000000e+00    0,000000000e+00
      534000000   -3,452738747e-02   -1,156812534e-01    6,240539551e-01    2,367210239e-01    0,000000000e+00    0,000000000e+00    0,000000000e+00    0,000000000e+00
      548000000   -7,733581215e-02   -9,876752645e-02    6,575930119e-01   -1,328395307e-01    0,000000000e+00    0,000000000e+00    0,000000000e+00    0,000000000e+00
      562000000   -9,330224991e-02   -6,591257453e-02    4,815846682e-01   -4,663898349e-01    0,000000000e+00    0,000000000e+00    0,000000000e+00    0,000000000e+00
      576000000   -8,580133319e-02   -4,433867708e-02    1,508413851e-01   -6,476619840e-01    0,000000000e+00    0,000000000e+00    0,000000000e+00    0,000000000e+00
      590000000   -8,060064912e-02   -4,200718179e-02   -2,183638513e-01   -6,275650263e-01    0,000000000e+00    0,000000000e+00    0,000000000e+00    0,000000000e+00
      604000000   -8,890044689e-02   -3,732629493e-02   -5,196545720e-01   -4,060054719e-01    0,000000000e+00    0,000000000e+00    0,000000000e+00    0,000000000e+00
      618000000   -9,695152938e-02   -1,460854709e-02   -6,531072855e-01   -5,792768672e-02    0,000000000e+00    0,000000000e+00    0,000000000e+00    0,000000000e+00
      632000000   -8,184114099e-02    1,538819075e-02   -5,752490163e-01    3,033612370e-01    0,000000000e+00    0,000000000e+00    0,000000000e+00    0,000000000e+00
      646000000   -4,233833030e-02    2,707926370e-02   -3,184102476e-01    5,564534068e-01    0,000000000e+00    0,000000000e+00    0,000000000e+00    0,000000000e+00
      660000000   -7,361620665e-03    5,893953610e-03    2,148185857e-02    6,296906471e-01    0,000000000e+00    0,000000000e+00    0,000000000e+00    0,000000000e+00
      674000000    1,076219487e-03   -2,995290421e-02    3,430423737e-01    5,190333724e-01    0,000000000e+00    0,000000000e+00    0,000000000e+00    0,000000000e+00
      688000000   -1,430365816e-02   -5,494900048e-02    5,590609312e-01    2,582678199e-01    0,000000000e+00    0,000000000e+00    0,000000000e+00    0,000000000e+00
      702000000   -3,265415505e-02   -5,988987163e-02    6,051607132e-01   -8,238713443e-02    0,000000000e+00    0,000000000e+00    0,000000000e+00    0,000000000e+00
      716000000   -3,797335550e-02   -5,620646104e-02    4,595088661e-01   -3,896816373e-01    0,000000000e+00    0,000000000e+00    0,000000000e+00    0,000000000e+00
      730000000   -3,271472082e-02   -6,586232036e-02    1,733291745e-01   -5,660749674e-01    0,000000000e+00    0,000000000e+00    0,000000000e+00    0,000000000e+00
      744000000   -4,151989520e-02   -8,748853207e-02   -1,533055305e-01   -5,641453862e-01    0,000000000e+00    0,000000000e+00    0,000000000e+00    0,000000000e+00
      758000000   -7,246615738e-02   -1,046596542e-01   -4,273170531e-01   -3,945387006e-01    0,000000000e+00    0,000000000e+00    0,000000000e+00    0,000000000e+00
      772000000   -1,145567000e-01   -9,333216399e-02   -5,745926499e-01   -1,051435769e-01    0,000000000e+00    0,000000000e+00    0,000000000e+00    0,000000000e+00
      786000000   -1,380795836e-01   -5,597444996e-02   -5,441871881e-01    2,214118093e-01    0,000000000e+00    0,000000000e+00    0,000000000e+00    0,000000000e+00
      800000000   -1,310780048e-01   -1,450131740e-02   -3,407361209e-01    4,810180068e-01    0,000000000e+00    0,000000000e+00    0,000000000e+00    0,000000000e+00
      814000000   -1,069735065e-01    8,189938962e-03   -3,289283440e-02    5,857182741e-01    0,000000000e+00    0,000000000e+00    0,000000000e+00    0,000000000e+00
      828000000   -8,542232960e-02    1,247280277e-02    2,785238326e-01    5,133042336e-01    0,000000000e+00    0,000000000e+00    0,000000000e+00    0,000000000e+00
      842000000   -7,151253521e-02    1,370300446e-02    5,021475554e-01    2,888367474e-01    0,000000000e+00    0,000000000e+00    0,000000000e+00    0,000000000e+00
      856000000   -5,337659642e-02    1,839062572e-02    5,703148842e-01   -1,770791970e-02    0,000000000e+00    0,000000000e+00    0,000000000e+00    0,000000000e+00
      870000000   -2,341428772e-02    1,440507267e-02    4,634394646e-01   -3,067705333e-01    0,000000000e+00    0,000000000e+00    0,000000000e+00    0,000000000e+00
      884000000    5,853459705e-03   -1,351274829e-02    2,300815135e-01   -4,885331690e-01    0,000000000e+00    0,000000000e+00    0,000000000e+00    0,000000000e+00
      898000000    1,156455278e-02   -6,240339205e-02   -5,352403969e-02   -5,259714127e-01    0,000000000e+00    0,000000000e+00    0,000000000e+00    0,000000000e+00
      912000000   -2,268511802e-02   -1,073939577e-01   -3,675485551e-01   -4,044058621e-01    0,000000000e+00    0,000000000e+00    0,000000000e+00    0,000000000e+00
      926000000   -7,469921559e-02   -1,247682497e-01   -5,322329998e-01   -1,605421901e-01    0,000000000e+00    0,000000000e+00    0,000000000e+00    0,000000000e+00
      940000000   -1,202986315e-01   -1,040605009e-01   -5,526561141e-01    1,579270214e-01    0,000000000e+00    0,000000000e+00    0,000000000e+00    0,000000000e+00
      954000000   -1,383765936e-01   -6,021729112e-02   -3,919552863e-01    4,456276000e-01    0,000000000e+00    0,000000000e+00    0,000000000e+00    0,000000000e+00
      968000000   -1,310321689e-01   -2,688889019e-02   -9,012807161e-02    6,035349965e-01    0,000000000e+00    0,000000000e+00    0,000000000e+00    0,000000000e+00
      982000000   -1,130818203e-01   -1,835058816e-02    2,466315329e-01    5,720143318e-01    0,000000000e+00    0,000000000e+00    0,000000000e+00    0,000000000e+00
      996000000   -1,097425967e-01   -1,516232826e-02    5,152481794e-01    3,654695749e-01    0,000000000e+00    0,000000000e+00    0,000000000e+00    0,000000000e+00
     1010000000   -1,055551022e-01   -1,041677222e-02    6,310065985e-01    5,092290416e-02    0,000000000e+00    0,000000000e+00    0,000000000e+00    0,000000000e+00
     1024000000   -9,490826726e-02    4,327353556e-03    5,608333945e-01   -2,719191313e-01    0,000000000e+00    0,000000000e+00    0,000000000e+00    0,000000000e+00
     1038000000   -7,264168561e-02    2,482653363e-03    3,356868029e-01   -5,054402351e-01    0,000000000e+00    0,000000000e+00    0,000000000e+00    0,000000000e+00
     1052000000   -6,240906194e-02   -1,832284220e-02    3,139142692e-02   -5,843825936e-01    0,000000000e+00    0,000000000e+00    0,000000000e+00    0,000000000e+00
     1066000000   -6,927260011e-02   -2,970892563e-02   -2,641002238e-01   -5,001761317e-01    0,000000000e+00    0,000000000e+00    0,000000000e+00    0,000000000e+00
     1080000000   -8,457744867e-02   -3,382749110e-02   -4,806745946e-01   -2,660709321e-01    0,000000000e+00    0,000000000e+00    0,000000000e+00    0,000000000e+00
     1094000000   -7,867836207e-02   -1,576158032e-02   -5,299099088e-01    4,338322952e-02    0,000000000e+00    0,000000000e+00    0,000000000e+00    0,000000000e+00
     1108000000   -5,996429548e-02   -1,518296544e-02   -3,943808377e-01    3,281003833e-01    0,000000000e+00    0,000000000e+00    0,000000000e+00    0,000000000e+00
     1122000000   -3,542708606e-02   -3,395988420e-02   -1,335604787e-01    4,812478721e-01    0,000000000e+00    0,000000000e+00    0,000000000e+00    0,000000000e+00
     1136000000   -3,146514297e-02   -8,642139286e-02    1,628469080e-01    4,708576500e-01    0,000000000e+00    0,000000000e+00    0,000000000e+00    0,000000000e+00
     1150000000   -6,511624902e-02   -1,313812584e-01    4,154050648e-01    3,089544773e-01    0,000000000e+00    0,000000000e+00    0,000000000e+00    0,000000000e+00
     1164000000   -1,386406571e-01   -1,510256082e-01    5,620303750e-01    2,455129847e-02    0,000000000e+00    0,000000000e+00    0,000000000e+00    0,000000000e+00
     1178000000   -2,081779391e-01   -1,201191097e-01    5,228103399e-01   -3,159784973e-01    0,000000000e+00    0,000000000e+00    0,000000000e+00    0,000000000e+00
     1192000000   -2,513497472e-01   -4,848432541e-02    2,923898399e-01   -5,973134041e-01    0,000000000e+00    0,000000000e+00    0,000000000e+00    0,000000000e+00
     1206000000   -2,327250540e-01    2,739225700e-02   -6,844402105e-02   -6,934428811e-01    0,000000000e+00    0,000000000e+00    0,000000000e+00    0,000000000e+00
     1220000000   -1,843103468e-01    8,326956630e-02   -4,180009067e-01   -5,763803124e-01    0,000000000e+00    0,000000000e+00    0,000000000e+00    0,000000000e+00
     1234000000   -1,308796108e-01    1,010706350e-01   -6,401501298e-01   -2,907301784e-01    0,000000000e+00    0,000000000e+00    0,000000000e+00    0,000000000e+00
     1248000000   -6,990988553e-02    1,018502861e-01   -6,707331538e-01    6,459745020e-02    0,000000000e+00    0,000000000e+00    0,000000000e+00    0,000000000e+00
     1262000000   -1,400482096e-02    6,463711709e-02   -5,167769194e-01    3,718379438e-01    0,000000000e+00    0,000000000e+00    0,000000000e+00    0,000000000e+00
     1276000000    2,628065459e-02   -2,432727488e-03   -2,425565720e-01    5,451735854e-01    0,000000000e+00    0,000000000e+00    0,000000000e+00    0,000000000e+00
     1290000000    2,152241208e-02   -9,021618962e-02    6,909055263e-02    5,702632070e-01    0,000000000e+00    0,000000000e+00    0,000000000e+00    0,000000000e+00
     1304000000   -3,500189260e-02   -1,664762944e-01    3,584597707e-01    4,699897468e-01    0,000000000e+00    0,000000000e+00    0,000000000e+00    0,000000000e+00
     1318000000   -1,312615424e-01   -2,151593417e-01    5,871531367e-01    2,174339890e-01    0,000000000e+00    0,000000000e+00    0,000000000e+00    0,000000000e+00
     1332000000   -2,532176971e-01   -1,933691800e-01    6,481080651e-01   -1,267266423e-01    0,000000000e+00    0,000000000e+00    0,000000000e+00    0,000000000e+00
     1346000000   -3,332371116e-01   -8,759614825e-02    5,057966709e-01   -4,543133378e-01    0,000000000e+00    0,000000000e+00    0,000000000e+00    0,000000000e+00
     1360000000   -3,370738328e-01    2,013288066e-02    1,880122572e-01   -6,488581300e-01    0,000000000e+00    0,000000000e+00    0,000000000e+00    0,000000000e+00
     1374000000   -2,815324366e-01    1,004843786e-01   -1,539646238e-01   -6,092899442e-01    0,000000000e+00    0,000000000e+00    0,000000000e+00    0,000000000e+00
     1388000000   -2,128150761e-01    1,404491663e-01   -4,049326777e-01   -3,762901723e-01    0,000000000e+00    0,000000000e+00    0,000000000e+00    0,000000000e+00
     1402000000   -1,475617141e-01    1,361265779e-01   -4,748512208e-01   -6,449373066e-02    0,000000000e+00    0,000000000e+00    0,000000000e+00    0,000000000e+00
     1416000000   -9,687343240e-02    1,186480001e-01   -3,731351495e-01    2,479759902e-01    0,000000000e+00    0,000000000e+00    0,000000000e+00    0,000000000e+00
     1430000000   -5,145205185e-02    7,199820131e-02   -1,175448820e-01    4,410368502e-01    0,000000000e+00    0,000000000e+00    0,000000000e+00    0,000000000e+00
     1444000000   -3,558082506e-02    6,362362765e-03    1,674762219e-01    5,314503908e-01    0,000000000e+00    0,000000000e+00    0,000000000e+00    0,000000000e+00
     1458000000   -6,007204950e-02   -7,428821921e-02    4,818924069e-01    4,762718678e-01    0,000000000e+00    0,000000000e+00    0,000000000e+00    0,000000000e+00
     1472000000   -1,322088391e-01   -1,232132763e-01    7,588615417e-01    2,650061548e-01    0,000000000e+00    0,000000000e+00    0,000000000e+00    0,000000000e+00
     1486000000   -2,273935080e-01   -1,110346541e-01    8,939167857e-01   -7,277630270e-02    0,000000000e+00    0,000000000e+00    0,000000000e+00    0,000000000e+00
     1500000000   -2,892184854e-01   -4,312753677e-02    8,067488670e-01   -4,380008280e-01    0,000000000e+00    0,000000000e+00    0,000000000e+00    0,000000000e+00
