! NanoVNA-App
! Date: 2025-09-25 15:09:43
! Start: 100MHz Stop: 1,5GHz Points: 101
! S-Parameter data: F S11 S21 S12 S22
# Hz S RI R 50
!     Frequency           S11_Real           S11_Imag           S21_Real           S21_Imag           S12_Real           S12_Imag           S22_Real           S22_Imag
      100000000    3,115004115e-02    2,864847891e-02    4,348832667e-01   -6,686634421e-01    0,000000000e+00    0,000000000e+00    0,000000000e+00    0,000000000e+00
      114000000    5,759477243e-02    5,495584104e-03    7,777079009e-03   -7,908163071e-01    0,000000000e+00    0,000000000e+00    0,000000000e+00    0,000000000e+00
      128000000    6,730703264e-02   -3,781861439e-02   -4,102051854e-01   -6,710922122e-01    0,000000000e+00    0,000000000e+00    0,000000000e+00    0,000000000e+00
      142000000    4,472483322e-02   -8,424149454e-02   -7,029860020e-01   -3,532041609e-01    0,000000000e+00    0,000000000e+00    0,000000000e+00    0,000000000e+00
      156000000   -5,631593522e-03   -1,069748923e-01   -7,870238423e-01    7,395708561e-02    0,000000000e+00    0,000000000e+00    0,000000000e+00    0,000000000e+00
      170000000   -5,763576925e-02   -9,060832113e-02   -6,277896762e-01    4,869676828e-01    0,000000000e+00    0,000000000e+00    0,000000000e+00    0,000000000e+00
      184000000   -8,367839456e-02   -4,945903271e-02   -2,647553086e-01    7,512064576e-01    0,000000000e+00    0,000000000e+00    0,000000000e+00    0,000000000e+00
      198000000   -7,965479791e-02   -1,048726123e-02    1,833971441e-01    7,732722163e-01    0,000000000e+00    0,000000000e+00    0,000000000e+00    0,000000000e+00
      212000000   -6,224076077e-02    1,319253538e-02    5,692154765e-01    5,492997766e-01    0,000000000e+00    0,000000000e+00    0,000000000e+00    0,000000000e+00
      226000000   -4,331357405e-02    2,772138827e-02    7,707508802e-01    1,545599550e-01    0,000000000e+00    0,000000000e+00    0,000000000e+00    0,000000000e+00
      240000000   -1,823296584e-02    3,847558796e-02    7,268322706e-01   -2,819511592e-01    0,000000000e+00    0,000000000e+00    0,000000000e+00    0,000000000e+00
      254000000    1,717428118e-02    3,519920632e-02    4,582700431e-01   -6,203009486e-01    0,000000000e+00    0,000000000e+00    0,000000000e+00    0,000000000e+00
      268000000    4,879923910e-02    5,593181588e-03    5,915647000e-02   -7,602586746e-01    0,000000000e+00    0,000000000e+00    0,000000000e+00    0,000000000e+00
      282000000    5,349723995e-02   -4,172400385e-02   -3,489745259e-01   -6,716827154e-01    0,000000000e+00    0,000000000e+00    0,000000000e+00    0,000000000e+00
      296000000    2,397782356e-02   -7,946120948e-02   -6,519330740e-01   -3,851078749e-01    0,000000000e+00    0,000000000e+00    0,000000000e+00    0,000000000e+00
      310000000   -1,785417832e-02   -8,322559297e-02   -7,641463280e-01    2,101783268e-02    0,000000000e+00    0,000000000e+00    0,000000000e+00    0,000000000e+00
      324000000   -4,174141586e-02   -5,860197544e-02   -6,317874193e-01    4,311484694e-01    0,000000000e+00    0,000000000e+00    0,000000000e+00    0,000000000e+00
      338000000   -3,457802907e-02   -3,674827516e-02   -2,942564785e-01    7,003435493e-01    0,000000000e+00    0,000000000e+00    0,000000000e+00    0,000000000e+00
      352000000   -1,741198823e-02   -4,063891619e-02    1,252847910e-01    7,436372042e-01    0,000000000e+00    0,000000000e+00    0,000000000e+00    0,000000000e+00
      366000000   -1,930353045e-02   -6,203686446e-02    4,983264208e-01    5,539082885e-01    0,000000000e+00    0,000000000e+00    0,000000000e+00    0,000000000e+00
      380000000   -4,469005391e-02   -7,260524482e-02    7,129757404e-01    2,003573477e-01    0,000000000e+00    0,000000000e+00    0,000000000e+00    0,000000000e+00
      394000000   -7,072227448e-02   -5,789909512e-02    7,044362426e-01   -2,172618359e-01    0,000000000e+00    0,000000000e+00    0,000000000e+00    0,000000000e+00
      408000000   -7,731637359e-02   -3,021810018e-02    4,710256457e-01   -5,596418977e-01    0,000000000e+00    0,000000000e+00    0,000000000e+00    0,000000000e+00
      422000000   -6,547053903e-02   -1,118477434e-02    9,347409755e-02   -7,182311416e-01    0,000000000e+00    0,000000000e+00    0,000000000e+00    0,000000000e+00
      436000000   -5,272790790e-02   -4,342792556e-03   -3,017075360e-01   -6,474397779e-01    0,000000000e+00    0,000000000e+00    0,000000000e+00    0,000000000e+00
      450000000   -4,446786270e-02    1,518085948e-03   -5,933252573e-01   -3,786027431e-01    0,000000000e+00    0,000000000e+00    0,000000000e+00    0,000000000e+00
      464000000   -2,995241620e-02    1,106069237e-02   -6,918729544e-01   -1,242694707e-04    0,000000000e+00    0,000000000e+00    0,000000000e+00    0,000000000e+00
      478000000   -1,457017614e-03    1,104983222e-02   -5,731536746e-01    3,635185957e-01    0,000000000e+00    0,000000000e+00    0,000000000e+00    0,000000000e+00
      492000000    2,755161375e-02   -1,192705985e-02   -2,898429632e-01    6,020967960e-01    0,000000000e+00    0,000000000e+00    0,000000000e+00    0,000000000e+00
      506000000    3,600451723e-02   -5,570896342e-02    6,877133250e-02    6,580625176e-01    0,000000000e+00    0,000000000e+00    0,000000000e+00    0,000000000e+00
      520000000    1,281568781e-02   -9,906440228e-02    4,051349461e-01    5,249658227e-01    0,000000000e+00    0,000000000e+00    0,000000000e+00    0,000000000e+00
      534000000   -3,428054601e-02   -1,165663227e-01    6,240975261e-01    2,357624620e-01    0,000000000e+00    0,000000000e+00    0,000000000e+00    0,000000000e+00
      548000000   -7,762254030e-02   -9,923645854e-02    6,579961777e-01   -1,327327639e-01    0,000000000e+00    0,000000000e+00    0,000000000e+00    0,000000000e+00
      562000000   -9,363285452e-02   -6,632343680e-02    4,814586043e-01   -4,661780894e-01    0,000000000e+00    0,000000000e+00    0,000000000e+00    0,000000000e+00
      576000000   -8,666561544e-02   -4,467914999e-02    1,505749077e-01   -6,479696035e-01    0,000000000e+00    0,000000000e+00    0,000000000e+00    0,000000000e+00
      590000000   -8,074825257e-02   -4,173726216e-02   -2,211533487e-01   -6,285675168e-01    0,000000000e+00    0,000000000e+00    0,000000000e+00    0,000000000e+00
      604000000   -8,867371082e-02   -3,697207198e-02   -5,194079280e-01   -4,056286514e-01    0,000000000e+00    0,000000000e+00    0,000000000e+00    0,000000000e+00
      618000000   -9,656073153e-02   -1,547178440e-02   -6,531357765e-01   -5,888500810e-02    0,000000000e+00    0,000000000e+00    0,000000000e+00    0,000000000e+00
      632000000   -8,081319928e-02    1,519726031e-02   -5,752127171e-01    3,022868335e-01    0,000000000e+00    0,000000000e+00    0,000000000e+00    0,000000000e+00
      646000000   -4,233309999e-02    2,656028979e-02   -3,181630671e-01    5,570656657e-01    0,000000000e+00    0,000000000e+00    0,000000000e+00    0,000000000e+00
      660000000   -7,551444694e-03    6,539942697e-03    2,170712501e-02    6,290822625e-01    0,000000000e+00    0,000000000e+00    0,000000000e+00    0,000000000e+00
      674000000    1,472910866e-03   -3,042158857e-02    3,424125612e-01    5,190390944e-01    0,000000000e+00    0,000000000e+00    0,000000000e+00    0,000000000e+00
      688000000   -1,544821355e-02   -5,589976907e-02    5,583817363e-01    2,587132454e-01    0,000000000e+00    0,000000000e+00    0,000000000e+00    0,000000000e+00
      702000000   -3,412398696e-02   -5,999029428e-02    6,067479849e-01   -8,039506525e-02    0,000000000e+00    0,000000000e+00    0,000000000e+00    0,000000000e+00
      716000000   -3,786059842e-02   -5,545688048e-02    4,596621394e-01   -3,898446858e-01    0,000000000e+00    0,000000000e+00    0,000000000e+00    0,000000000e+00
      730000000   -3,214403987e-02   -6,559330970e-02    1,739887744e-01   -5,664263368e-01    0,000000000e+00    0,000000000e+00    0,000000000e+00    0,000000000e+00
      744000000   -4,014294595e-02   -8,896239847e-02   -1,531797200e-01   -5,635773540e-01    0,000000000e+00    0,000000000e+00    0,000000000e+00    0,000000000e+00
      758000000   -7,170107961e-02   -1,052727625e-01   -4,280553758e-01   -3,941726685e-01    0,000000000e+00    0,000000000e+00    0,000000000e+00    0,000000000e+00
      772000000   -1,136951745e-01   -9,330404550e-02   -5,743615031e-01   -1,061436310e-01    0,000000000e+00    0,000000000e+00    0,000000000e+00    0,000000000e+00
      786000000   -1,389433891e-01   -5,539898947e-02   -5,448057055e-01    2,212720364e-01    0,000000000e+00    0,000000000e+00    0,000000000e+00    0,000000000e+00
      800000000   -1,324042380e-01   -1,504730061e-02   -3,426615894e-01    4,797396958e-01    0,000000000e+00    0,000000000e+00    0,000000000e+00    0,000000000e+00
      814000000   -1,087714955e-01    8,133876137e-03   -3,423867002e-02    5,861924291e-01    0,000000000e+00    0,000000000e+00    0,000000000e+00    0,000000000e+00
      828000000   -8,562610298e-02    1,392992865e-02    2,781104147e-01    5,149023533e-01    0,000000000e+00    0,000000000e+00    0,000000000e+00    0,000000000e+00
      842000000   -7,090806961e-02    1,539715938e-02    5,020356774e-01    2,891395092e-01    0,000000000e+00    0,000000000e+00    0,000000000e+00    0,000000000e+00
      856000000   -5,286173150e-02    1,950730942e-02    5,706186891e-01   -1,764366403e-02    0,000000000e+00    0,000000000e+00    0,000000000e+00    0,000000000e+00
      870000000   -2,289756760e-02    1,408561133e-02    4,639124870e-01   -3,064296246e-01    0,000000000e+00    0,000000000e+00    0,000000000e+00    0,000000000e+00
      884000000    6,470107939e-03   -1,469771005e-02    2,305128127e-01   -4,884322286e-01    0,000000000e+00    0,000000000e+00    0,000000000e+00    0,000000000e+00
      898000000    1,197973453e-02   -6,321521848e-02   -5,161090568e-02   -5,272485018e-01    0,000000000e+00    0,000000000e+00    0,000000000e+00    0,000000000e+00
      912000000   -2,397997677e-02   -1,085923538e-01   -3,654001355e-01   -4,077678621e-01    0,000000000e+00    0,000000000e+00    0,000000000e+00    0,000000000e+00
      926000000   -7,621504366e-02   -1,231480539e-01   -5,311281085e-01   -1,572778970e-01    0,000000000e+00    0,000000000e+00    0,000000000e+00    0,000000000e+00
      940000000   -1,207696348e-01   -1,027068943e-01   -5,527536273e-01    1,560325325e-01    0,000000000e+00    0,000000000e+00    0,000000000e+00    0,000000000e+00
      954000000   -1,442000121e-01   -6,172793731e-02   -3,918195069e-01    4,462266564e-01    0,000000000e+00    0,000000000e+00    0,000000000e+00    0,000000000e+00
      968000000   -1,325979829e-01   -2,533408627e-02   -9,264690429e-02    6,039927006e-01    0,000000000e+00    0,000000000e+00    0,000000000e+00    0,000000000e+00
      982000000   -1,175350398e-01   -1,655412279e-02    2,455585003e-01    5,717388391e-01    0,000000000e+00    0,000000000e+00    0,000000000e+00    0,000000000e+00
      996000000   -1,073822677e-01   -1,680259034e-02    5,132554770e-01    3,648163974e-01    0,000000000e+00    0,000000000e+00    0,000000000e+00    0,000000000e+00
     1010000000   -1,042568535e-01   -6,145148072e-03    6,273967624e-01    5,423314869e-02    0,000000000e+00    0,000000000e+00    0,000000000e+00    0,000000000e+00
     1024000000   -8,964364976e-02   -1,265046158e-04    5,610682368e-01   -2,721687257e-01    0,000000000e+00    0,000000000e+00    0,000000000e+00    0,000000000e+00
     1038000000   -7,340755314e-02    1,616194146e-03    3,388643861e-01   -5,018642545e-01    0,000000000e+00    0,000000000e+00    0,000000000e+00    0,000000000e+00
     1052000000   -6,583333760e-02   -1,334482152e-02    3,212578595e-02   -5,869280696e-01    0,000000000e+00    0,000000000e+00    0,000000000e+00    0,000000000e+00
     1066000000   -7,246384770e-02   -2,963775769e-02   -2,736914754e-01   -5,024970174e-01    0,000000000e+00    0,000000000e+00    0,000000000e+00    0,000000000e+00
     1080000000   -8,242192119e-02   -3,387293592e-02   -4,789435267e-01   -2,688032091e-01    0,000000000e+00    0,000000000e+00    0,000000000e+00    0,000000000e+00
     1094000000   -7,772837579e-02   -1,927839592e-02   -5,318522453e-01    3,891625628e-02    0,000000000e+00    0,000000000e+00    0,000000000e+00    0,000000000e+00
     1108000000   -6,285884231e-02   -1,264785137e-02   -3,996635377e-01    3,273756206e-01    0,000000000e+00    0,000000000e+00    0,000000000e+00    0,000000000e+00
     1122000000   -2,995237708e-02   -3,315455839e-02   -1,379706860e-01    4,829905629e-01    0,000000000e+00    0,000000000e+00    0,000000000e+00    0,000000000e+00
     1136000000   -2,942561358e-02   -8,161862940e-02    1,581401825e-01    4,734536111e-01    0,000000000e+00    0,000000000e+00    0,000000000e+00    0,000000000e+00
     1150000000   -6,257097423e-02   -1,376145780e-01    4,190635979e-01    3,127275109e-01    0,000000000e+00    0,000000000e+00    0,000000000e+00    0,000000000e+00
     1164000000   -1,389739364e-01   -1,570923477e-01    5,627640486e-01    2,772573195e-02    0,000000000e+00    0,000000000e+00    0,000000000e+00    0,000000000e+00
     1178000000   -2,067375183e-01   -1,189382672e-01    5,314846039e-01   -3,150772452e-01    0,000000000e+00    0,000000000e+00    0,000000000e+00    0,000000000e+00
     1192000000   -2,520670593e-01   -4,404097423e-02    2,978092432e-01   -6,008186936e-01    0,000000000e+00    0,000000000e+00    0,000000000e+00    0,000000000e+00
     1206000000   -2,329577357e-01    3,884064406e-02   -6,702428311e-02   -6,962376833e-01    0,000000000e+00    0,000000000e+00    0,000000000e+00    0,000000000e+00
     1220000000   -1,796371341e-01    8,668129891e-02   -4,200100899e-01   -5,788483024e-01    0,000000000e+00    0,000000000e+00    0,000000000e+00    0,000000000e+00
     1234000000   -1,259425730e-01    1,021042466e-01   -6,450878382e-01   -2,885025740e-01    0,000000000e+00    0,000000000e+00    0,000000000e+00    0,000000000e+00
     1248000000   -7,192911208e-02    9,851658344e-02   -6,801414490e-01    6,011719257e-02    0,000000000e+00    0,000000000e+00    0,000000000e+00    0,000000000e+00
     1262000000   -1,529871579e-02    5,845819041e-02   -5,212716460e-01    3,662391007e-01    0,000000000e+00    0,000000000e+00    0,000000000e+00    0,000000000e+00
     1276000000    2,552182414e-02   -6,007033866e-03   -2,405299246e-01    5,428857207e-01    0,000000000e+00    0,000000000e+00    0,000000000e+00    0,000000000e+00
     1290000000    1,859609410e-02   -8,972382545e-02    7,047232985e-02    5,766388774e-01    0,000000000e+00    0,000000000e+00    0,000000000e+00    0,000000000e+00
     1304000000   -3,221619502e-02   -1,680826843e-01    3,658716977e-01    4,669084251e-01    0,000000000e+00    0,000000000e+00    0,000000000e+00    0,000000000e+00
     1318000000   -1,330365539e-01   -2,159096748e-01    5,937743783e-01    2,175612599e-01    0,000000000e+00    0,000000000e+00    0,000000000e+00    0,000000000e+00
     1332000000   -2,572899461e-01   -1,868622899e-01    6,496868730e-01   -1,277752072e-01    0,000000000e+00    0,000000000e+00    0,000000000e+00    0,000000000e+00
     1346000000   -3,325667083e-01   -9,486271441e-02    5,058475137e-01   -4,681626558e-01    0,000000000e+00    0,000000000e+00    0,000000000e+00    0,000000000e+00
     1360000000   -3,344489634e-01    2,139236778e-02    1,922405660e-01   -6,587282419e-01    0,000000000e+00    0,000000000e+00    0,000000000e+00    0,000000000e+00
     1374000000   -2,860573232e-01    1,066181883e-01   -1,622469127e-01   -6,003690958e-01    0,000000000e+00    0,000000000e+00    0,000000000e+00    0,000000000e+00
     1388000000   -2,114869952e-01    1,355689913e-01   -4,073883295e-01   -3,729866147e-01    0,000000000e+00    0,000000000e+00    0,000000000e+00    0,000000000e+00
     1402000000   -1,469873637e-01    1,420395225e-01   -4,822905362e-01   -5,487180874e-02    0,000000000e+00    0,000000000e+00    0,000000000e+00    0,000000000e+00
     1416000000   -9,468402714e-02    1,201632693e-01   -3,749847412e-01    2,435766608e-01    0,000000000e+00    0,000000000e+00    0,000000000e+00    0,000000000e+00
     1430000000   -5,166057125e-02    7,208720595e-02   -1,560402066e-01    4,620563388e-01    0,000000000e+00    0,000000000e+00    0,000000000e+00    0,000000000e+00
     1444000000   -3,409709036e-02    5,459092790e-04    1,744814813e-01    5,289814472e-01    0,000000000e+00    0,000000000e+00    0,000000000e+00    0,000000000e+00
     1458000000   -6,252844632e-02   -7,050104439e-02    4,902949631e-01    4,849180579e-01    0,000000000e+00    0,000000000e+00    0,000000000e+00    0,000000000e+00
     1472000000   -1,377352029e-01   -1,326612085e-01    7,542849183e-01    2,544512451e-01    0,000000000e+00    0,000000000e+00    0,000000000e+00    0,000000000e+00
     1486000000   -2,320998758e-01   -1,197494790e-01    8,850681782e-01   -8,743655682e-02    0,000000000e+00    0,000000000e+00    0,000000000e+00    0,000000000e+00
     1500000000   -2,829306424e-01   -5,288612098e-02    8,154452443e-01   -4,572914541e-01    0,000000000e+00    0,000000000e+00    0,000000000e+00    0,000000000e+00
