! NanoVNA-App
! Date: 2025-09-25 15:10:03
! Start: 100MHz Stop: 1,5GHz Points: 101
! S-Parameter data: F S11 S21 S12 S22
# Hz S RI R 50
!     Frequency           S11_Real           S11_Imag           S21_Real           S21_Imag           S12_Real           S12_Imag           S22_Real           S22_Imag
      100000000    3,115793131e-02    2,863722853e-02    4,349020720e-01   -6,685823798e-01    0,000000000e+00    0,000000000e+00    0,000000000e+00    0,000000000e+00
      114000000    5,758289248e-02    5,495219491e-03    7,811791729e-03   -7,908579111e-01    0,000000000e+00    0,000000000e+00    0,000000000e+00    0,000000000e+00
      128000000    6,727655232e-02   -3,780742362e-02   -4,104168713e-01   -6,711448431e-01    0,000000000e+00    0,000000000e+00    0,000000000e+00    0,000000000e+00
      142000000    4,473043606e-02   -8,423312753e-02   -7,028427124e-01   -3,534056246e-01    0,000000000e+00    0,000000000e+00    0,000000000e+00    0,000000000e+00
      156000000   -5,309756845e-03   -1,068254411e-01   -7,874810100e-01    7,351109385e-02    0,000000000e+00    0,000000000e+00    0,000000000e+00    0,000000000e+00
      170000000   -5,764598027e-02   -9,062278271e-02   -6,278114319e-01    4,869610071e-01    0,000000000e+00    0,000000000e+00    0,000000000e+00    0,000000000e+00
      184000000   -8,373498172e-02   -4,946287349e-02   -2,649663091e-01    7,508796453e-01    0,000000000e+00    0,000000000e+00    0,000000000e+00    0,000000000e+00
      198000000   -7,966224849e-02   -1,048881095e-02    1,835582852e-01    7,735270262e-01    0,000000000e+00    0,000000000e+00    0,000000000e+00    0,000000000e+00
      212000000   -6,230504066e-02    1,314400416e-02    5,689678192e-01    5,489685535e-01    0,000000000e+00    0,000000000e+00    0,000000000e+00    0,000000000e+00
      226000000   -4,331141338e-02    2,766312659e-02    7,706722617e-01    1,545852423e-01    0,000000000e+00    0,000000000e+00    0,000000000e+00    0,000000000e+00
      240000000   -1,823765412e-02    3,848406300e-02    7,268605828e-01   -2,818108797e-01    0,000000000e+00    0,000000000e+00    0,000000000e+00    0,000000000e+00
      254000000    1,716422476e-02    3,521391749e-02    4,582882226e-01   -6,206814051e-01    0,000000000e+00    0,000000000e+00    0,000000000e+00    0,000000000e+00
      268000000    4,877425358e-02    5,580489989e-03    5,871661752e-02   -7,598368526e-01    0,000000000e+00    0,000000000e+00    0,000000000e+00    0,000000000e+00
      282000000    5,346374959e-02   -4,187333211e-02   -3,494963348e-01   -6,716989875e-01    0,000000000e+00    0,000000000e+00    0,000000000e+00    0,000000000e+00
      296000000    2,404622175e-02   -7,949959487e-02   -6,514175534e-01   -3,854511082e-01    0,000000000e+00    0,000000000e+00    0,000000000e+00    0,000000000e+00
      310000000   -1,772933081e-02   -8,315309882e-02   -7,621747851e-01    2,038784698e-02    0,000000000e+00    0,000000000e+00    0,000000000e+00    0,000000000e+00
      324000000   -4,189603776e-02   -5,894905701e-02   -6,320407391e-01    4,308888912e-01    0,000000000e+00    0,000000000e+00    0,000000000e+00    0,000000000e+00
      338000000   -3,426158056e-02   -3,688142076e-02   -2,974139750e-01    7,015618086e-01    0,000000000e+00    0,000000000e+00    0,000000000e+00    0,000000000e+00
      352000000   -1,749312691e-02   -4,066842049e-02    1,253056079e-01    7,423517108e-01    0,000000000e+00    0,000000000e+00    0,000000000e+00    0,000000000e+00
      366000000   -1,934429817e-02   -6,169970706e-02    4,976036847e-01    5,541745424e-01    0,000000000e+00    0,000000000e+00    0,000000000e+00    0,000000000e+00
      380000000   -4,440207407e-02   -7,282534242e-02    7,129914761e-01    1,993933171e-01    0,000000000e+00    0,000000000e+00    0,000000000e+00    0,000000000e+00
      394000000   -7,059925795e-02   -5,781247839e-02    7,046995759e-01   -2,162017524e-01    0,000000000e+00    0,000000000e+00    0,000000000e+00    0,000000000e+00
      408000000   -7,731692493e-02   -3,039320372e-02    4,703546464e-01   -5,597960949e-01    0,000000000e+00    0,000000000e+00    0,000000000e+00    0,000000000e+00
      422000000   -6,535587460e-02   -1,121391170e-02    9,224637598e-02   -7,184738517e-01    0,000000000e+00    0,000000000e+00    0,000000000e+00    0,000000000e+00
      436000000   -5,291133374e-02   -4,269226920e-03   -3,020868301e-01   -6,476234198e-01    0,000000000e+00    0,000000000e+00    0,000000000e+00    0,000000000e+00
      450000000   -4,463332519e-02    1,238269964e-03   -5,929153562e-01   -3,782694340e-01    0,000000000e+00    0,000000000e+00    0,000000000e+00    0,000000000e+00
      464000000   -2,942116745e-02    1,111432444e-02   -6,910107136e-01    3,664446558e-05    0,000000000e+00    0,000000000e+00    0,000000000e+00    0,000000000e+00
      478000000   -1,561144949e-03    1,134379208e-02   -5,736840963e-01    3,632993400e-01    0,000000000e+00    0,000000000e+00    0,000000000e+00    0,000000000e+00
      492000000    2,789142914e-02   -1,228695828e-02   -2,887490690e-01    6,024587750e-01    0,000000000e+00    0,000000000e+00    0,000000000e+00    0,000000000e+00
      506000000    3,645879775e-02   -5,600041896e-02    6,971607357e-02    6,584401727e-01    0,000000000e+00    0,000000000e+00    0,000000000e+00    0,000000000e+00
      520000000    1,217954140e-02   -9,852132946e-02    4,036096931e-01    5,246195793e-01    0,000000000e+00    0,000000000e+00    0,000000000e+00    0,000000000e+00
      534000000   -3,453606367e-02   -1,161486506e-01    6,239462495e-01    2,359104604e-01    0,000000000e+00    0,000000000e+00    0,000000000e+00    0,000000000e+00
      548000000   -7,745680213e-02   -9,963919222e-02    6,582638025e-01   -1,336456388e-01    0,000000000e+00    0,000000000e+00    0,000000000e+00    0,000000000e+00
      562000000   -9,360471368e-02   -6,571851671e-02    4,822724164e-01   -4,667799771e-01    0,000000000e+00    0,000000000e+00    0,000000000e+00    0,000000000e+00
      576000000   -8,649781346e-02   -4,457831010e-02    1,498875767e-01   -6,477292776e-01    0,000000000e+00    0,000000000e+00    0,000000000e+00    0,000000000e+00
      590000000   -8,084957302e-02   -4,163093865e-02   -2,196482271e-01   -6,290704012e-01    0,000000000e+00    0,000000000e+00    0,000000000e+00    0,000000000e+00
      604000000   -8,857034147e-02   -3,747830540e-02   -5,191268325e-01   -4,062462449e-01    0,000000000e+00    0,000000000e+00    0,000000000e+00    0,000000000e+00
      618000000   -9,596285224e-02   -1,492581889e-02   -6,531856060e-01   -5,826039240e-02    0,000000000e+00    0,000000000e+00    0,000000000e+00    0,000000000e+00
      632000000   -8,116923273e-02    1,482127514e-02   -5,753577352e-01    3,029113710e-01    0,000000000e+00    0,000000000e+00    0,000000000e+00    0,000000000e+00
      646000000   -4,250391945e-02    2,595974132e-02   -3,186417818e-01    5,559834242e-01    0,000000000e+00    0,000000000e+00    0,000000000e+00    0,000000000e+00
      660000000   -7,254919037e-03    5,738975946e-03    2,094664052e-02    6,294100881e-01    0,000000000e+00    0,000000000e+00    0,000000000e+00    0,000000000e+00
      674000000    1,558103831e-03   -2,962033637e-02    3,428719640e-01    5,193214417e-01    0,000000000e+00    0,000000000e+00    0,000000000e+00    0,000000000e+00
      688000000   -1,430569962e-02   -5,573739856e-02    5,591552854e-01    2,582748830e-01    0,000000000e+00    0,000000000e+00    0,000000000e+00    0,000000000e+00
      702000000   -3,364398330e-02   -5,975429341e-02    6,042808294e-01   -8,171300590e-02    0,000000000e+00    0,000000000e+00    0,000000000e+00    0,000000000e+00
      716000000   -3,676164150e-02   -5,631436035e-02    4,593197405e-01   -3,896915615e-01    0,000000000e+00    0,000000000e+00    0,000000000e+00    0,000000000e+00
      730000000   -3,261839971e-02   -6,525557488e-02    1,741684973e-01   -5,661875010e-01    0,000000000e+00    0,000000000e+00    0,000000000e+00    0,000000000e+00
      744000000   -4,025541991e-02   -8,897291124e-02   -1,533066481e-01   -5,637300014e-01    0,000000000e+00    0,000000000e+00    0,000000000e+00    0,000000000e+00
      758000000   -7,190854847e-02   -1,054277271e-01   -4,276394546e-01   -3,945113122e-01    0,000000000e+00    0,000000000e+00    0,000000000e+00    0,000000000e+00
      772000000   -1,134168133e-01   -9,411488473e-02   -5,741455555e-01   -1,062562913e-01    0,000000000e+00    0,000000000e+00    0,000000000e+00    0,000000000e+00
      786000000   -1,394170672e-01   -5,633724108e-02   -5,445900559e-01    2,205649316e-01    0,000000000e+00    0,000000000e+00    0,000000000e+00    0,000000000e+00
      800000000   -1,330987811e-01   -1,519036666e-02   -3,411783576e-01    4,790714681e-01    0,000000000e+00    0,000000000e+00    0,000000000e+00    0,000000000e+00
      814000000   -1,083494872e-01    8,745845407e-03   -3,426467255e-02    5,861561298e-01    0,000000000e+00    0,000000000e+00    0,000000000e+00    0,000000000e+00
      828000000   -8,610680699e-02    1,364534162e-02    2,783521116e-01    5,142673850e-01    0,000000000e+00    0,000000000e+00    0,000000000e+00    0,000000000e+00
      842000000   -7,103363425e-02    1,475912705e-02    5,032263994e-01    2,902073860e-01    0,000000000e+00    0,000000000e+00    0,000000000e+00    0,000000000e+00
      856000000   -5,217774957e-02    1,887025125e-02    5,707297921e-01   -1,757218316e-02    0,000000000e+00    0,000000000e+00    0,000000000e+00    0,000000000e+00
      870000000   -2,261494659e-02    1,467102580e-02    4,636920094e-01   -3,060370684e-01    0,000000000e+00    0,000000000e+00    0,000000000e+00    0,000000000e+00
      884000000    5,695090163e-03   -1,463184319e-02    2,304075062e-01   -4,880727828e-01    0,000000000e+00    0,000000000e+00    0,000000000e+00    0,000000000e+00
      898000000    1,192231197e-02   -6,422419101e-02   -5,139701813e-02   -5,268755555e-01    0,000000000e+00    0,000000000e+00    0,000000000e+00    0,000000000e+00
      912000000   -2,342333458e-02   -1,080076545e-01   -3,593871891e-01   -3,920139670e-01    0,000000000e+00    0,000000000e+00    0,000000000e+00    0,000000000e+00
      926000000   -7,399208099e-02   -1,244266778e-01   -5,293534994e-01   -1,593908072e-01    0,000000000e+00    0,000000000e+00    0,000000000e+00    0,000000000e+00
      940000000   -1,246952266e-01   -1,037138328e-01   -5,523208976e-01    1,547754407e-01    0,000000000e+00    0,000000000e+00    0,000000000e+00    0,000000000e+00
      954000000   -1,400514692e-01   -5,836640298e-02   -3,914272785e-01    4,470084012e-01    0,000000000e+00    0,000000000e+00    0,000000000e+00    0,000000000e+00
      968000000   -1,332181543e-01   -2,534622326e-02   -9,316244721e-02    6,045436859e-01    0,000000000e+00    0,000000000e+00    0,000000000e+00    0,000000000e+00
      982000000   -1,170298606e-01   -1,602718420e-02    2,457108796e-01    5,701610446e-01    0,000000000e+00    0,000000000e+00    0,000000000e+00    0,000000000e+00
      996000000   -1,085375324e-01   -1,516907103e-02    5,112366676e-01    3,667569757e-01    0,000000000e+00    0,000000000e+00    0,000000000e+00    0,000000000e+00
     1010000000   -1,024994552e-01   -5,414779764e-03    6,281500459e-01    5,167242512e-02    0,000000000e+00    0,000000000e+00    0,000000000e+00    0,000000000e+00
     1024000000   -9,467943013e-02    1,851903973e-03    5,603590608e-01   -2,708393335e-01    0,000000000e+00    0,000000000e+00    0,000000000e+00    0,000000000e+00
     1038000000   -7,273802161e-02   -1,040848321e-03    3,377621472e-01   -5,034129620e-01    0,000000000e+00    0,000000000e+00    0,000000000e+00    0,000000000e+00
     1052000000   -6,268111616e-02   -1,537868660e-02    3,351409361e-02   -5,861368775e-01    0,000000000e+00    0,000000000e+00    0,000000000e+00    0,000000000e+00
     1066000000   -7,036572695e-02   -2,773343958e-02   -2,675666511e-01   -5,014132261e-01    0,000000000e+00    0,000000000e+00    0,000000000e+00    0,000000000e+00
     1080000000   -7,902490348e-02   -3,053085320e-02   -4,802565277e-01   -2,711855471e-01    0,000000000e+00    0,000000000e+00    0,000000000e+00    0,000000000e+00
     1094000000   -8,418933302e-02   -1,973068155e-02   -5,318923593e-01    4,237137735e-02    0,000000000e+00    0,000000000e+00    0,000000000e+00    0,000000000e+00
     1108000000   -5,718060583e-02   -1,440853160e-02   -4,001457095e-01    3,267012239e-01    0,000000000e+00    0,000000000e+00    0,000000000e+00    0,000000000e+00
     1122000000   -2,785075828e-02   -3,814622387e-02   -1,367270648e-01    4,843691587e-01    0,000000000e+00    0,000000000e+00    0,000000000e+00    0,000000000e+00
     1136000000   -2,699329890e-02   -8,252369612e-02    1,633660942e-01    4,739579856e-01    0,000000000e+00    0,000000000e+00    0,000000000e+00    0,000000000e+00
     1150000000   -6,749124825e-02   -1,330800951e-01    4,192728698e-01    3,132236302e-01    0,000000000e+00    0,000000000e+00    0,000000000e+00    0,000000000e+00
     1164000000   -1,386029124e-01   -1,529065371e-01    5,659074783e-01    2,978522889e-02    0,000000000e+00    0,000000000e+00    0,000000000e+00    0,000000000e+00
     1178000000   -2,144324481e-01   -1,204518452e-01    5,337346792e-01   -3,152261972e-01    0,000000000e+00    0,000000000e+00    0,000000000e+00    0,000000000e+00
     1192000000   -2,490781546e-01   -3,894556686e-02    2,988049090e-01   -5,958389044e-01    0,000000000e+00    0,000000000e+00    0,000000000e+00    0,000000000e+00
     1206000000   -2,297071666e-01    3,370449319e-02   -6,273069233e-02   -7,030882239e-01    0,000000000e+00    0,000000000e+00    0,000000000e+00    0,000000000e+00
     1220000000   -1,877264529e-01    8,392095566e-02   -4,201838374e-01   -5,817155838e-01    0,000000000e+00    0,000000000e+00    0,000000000e+00    0,000000000e+00
     1234000000   -1,245139986e-01    1,040289477e-01   -6,451551318e-01   -2,896584570e-01    0,000000000e+00    0,000000000e+00    0,000000000e+00    0,000000000e+00
     1248000000   -7,171636820e-02    9,592426568e-02   -6,745369434e-01    6,084772199e-02    0,000000000e+00    0,000000000e+00    0,000000000e+00    0,000000000e+00
     1262000000   -1,305773016e-02    6,100407243e-02   -5,229740739e-01    3,645617962e-01    0,000000000e+00    0,000000000e+00    0,000000000e+00    0,000000000e+00
     1276000000    2,516565099e-02   -5,995531101e-03   -2,441197187e-01    5,436978936e-01    0,000000000e+00    0,000000000e+00    0,000000000e+00    0,000000000e+00
     1290000000    2,234407328e-02   -8,485829830e-02    7,074279338e-02    5,768604279e-01    0,000000000e+00    0,000000000e+00    0,000000000e+00    0,000000000e+00
     1304000000   -3,535112739e-02   -1,729019135e-01    3,578483760e-01    4,598374665e-01    0,000000000e+00    0,000000000e+00    0,000000000e+00    0,000000000e+00
     1318000000   -1,380434930e-01   -2,136185765e-01    5,857967138e-01    2,224039882e-01    0,000000000e+00    0,000000000e+00    0,000000000e+00    0,000000000e+00
     1332000000   -2,557743192e-01   -1,929545105e-01    6,497483253e-01   -1,268174201e-01    0,000000000e+00    0,000000000e+00    0,000000000e+00    0,000000000e+00
     1346000000   -3,352344036e-01   -9,239052236e-02    5,059182048e-01   -4,700176418e-01    0,000000000e+00    0,000000000e+00    0,000000000e+00    0,000000000e+00
     1360000000   -3,346548080e-01    2,817283385e-02    1,969818771e-01   -6,411946416e-01    0,000000000e+00    0,000000000e+00    0,000000000e+00    0,000000000e+00
     1374000000   -2,821379900e-01    1,015446708e-01   -1,605492830e-01   -6,012574434e-01    0,000000000e+00    0,000000000e+00    0,000000000e+00    0,000000000e+00
     1388000000   -2,129541636e-01    1,401308179e-01   -4,075981081e-01   -3,814291060e-01    0,000000000e+00    0,000000000e+00    0,000000000e+00    0,000000000e+00
     1402000000   -1,557262093e-01    1,410296708e-01   -4,848250151e-01   -5,351732299e-02    0,000000000e+00    0,000000000e+00    0,000000000e+00    0,000000000e+00
     1416000000   -9,981914610e-02    1,205647588e-01   -3,776708841e-01    2,473946065e-01    0,000000000e+00    0,000000000e+00    0,000000000e+00    0,000000000e+00
     1430000000   -5,572819337e-02    7,601802051e-02   -1,623256356e-01    4,618047476e-01    0,000000000e+00    0,000000000e+00    0,000000000e+00    0,000000000e+00
     1444000000   -3,809462860e-02    3,920021933e-03    1,564061493e-01    5,432095528e-01    0,000000000e+00    0,000000000e+00    0,000000000e+00    0,000000000e+00
     1458000000   -5,923433602e-02   -7,436606288e-02    4,869130552e-01    4,743990898e-01    0,000000000e+00    0,000000000e+00    0,000000000e+00    0,000000000e+00
     1472000000   -1,402015537e-01   -1,190409288e-01    7,602646947e-01    2,761296034e-01    0,000000000e+00    0,000000000e+00    0,000000000e+00    0,000000000e+00
     1486000000   -2,266494036e-01   -1,142714545e-01    8,884286284e-01   -7,298900932e-02    0,000000000e+00    0,000000000e+00    0,000000000e+00    0,000000000e+00
     1500000000   -2,914426029e-01   -4,720319062e-02    7,824541926e-01   -4,527595937e-01    0,000000000e+00    0,000000000e+00    0,000000000e+00    0,000000000e+00
