! NanoVNA-App
! Date: 2025-09-25 15:10:22
! Start: 100MHz Stop: 1,5GHz Points: 101
! S-Parameter data: F S11 S21 S12 S22
# Hz S RI R 50
!     Frequency           S11_Real           S11_Imag           S21_Real           S21_Imag           S12_Real           S12_Imag           S22_Real           S22_Imag
      100000000    3,116444685e-02    2,863485366e-02    4,349134862e-01   -6,686434746e-01    0,000000000e+00    0,000000000e+00    0,000000000e+00    0,000000000e+00
      114000000    5,760564655e-02    5,503634457e-03    7,761017419e-03   -7,910485864e-01    0,000000000e+00    0,000000000e+00    0,000000000e+00    0,000000000e+00
      128000000    6,726578623e-02   -3,780598938e-02   -4,104073346e-01   -6,712031364e-01    0,000000000e+00    0,000000000e+00    0,000000000e+00    0,000000000e+00
      142000000    4,472778365e-02   -8,421104401e-02   -7,028738260e-01   -3,531407118e-01    0,000000000e+00    0,000000000e+00    0,000000000e+00    0,000000000e+00
      156000000   -5,596274976e-03   -1,068494469e-01   -7,870387435e-01    7,407464832e-02    0,000000000e+00    0,000000000e+00    0,000000000e+00    0,000000000e+00
      170000000   -5,763986707e-02   -9,057161957e-02   -6,275465488e-01    4,868778586e-01    0,000000000e+00    0,000000000e+00    0,000000000e+00    0,000000000e+00
      184000000   -8,369869739e-02   -4,943619296e-02   -2,650215030e-01    7,508897185e-01    0,000000000e+00    0,000000000e+00    0,000000000e+00    0,000000000e+00
      198000000   -7,964815944e-02   -1,044336054e-02    1,831895560e-01    7,729909420e-01    0,000000000e+00    0,000000000e+00    0,000000000e+00    0,000000000e+00
      212000000   -6,229883060e-02    1,316548418e-02    5,690806508e-01    5,491092205e-01    0,000000000e+00    0,000000000e+00    0,000000000e+00    0,000000000e+00
      226000000   -4,324822873e-02    2,766481973e-02    7,706937194e-01    1,546589881e-01    0,000000000e+00    0,000000000e+00    0,000000000e+00    0,000000000e+00
      240000000   -1,824609004e-02    3,847530857e-02    7,267715931e-01   -2,816525400e-01    0,000000000e+00    0,000000000e+00    0,000000000e+00    0,000000000e+00
      254000000    1,717726700e-02    3,517717123e-02    4,578583837e-01   -6,199864149e-01    0,000000000e+00    0,000000000e+00    0,000000000e+00    0,000000000e+00
      268000000    4,875576869e-02    5,612926092e-03    5,861309171e-02   -7,597203851e-01    0,000000000e+00    0,000000000e+00    0,000000000e+00    0,000000000e+00
      282000000    5,350478366e-02   -4,175795615e-02   -3,492455781e-01   -6,718930602e-01    0,000000000e+00    0,000000000e+00    0,000000000e+00    0,000000000e+00
      296000000    2,406505309e-02   -7,939188182e-02   -6,516362429e-01   -3,855316639e-01    0,000000000e+00    0,000000000e+00    0,000000000e+00    0,000000000e+00
      310000000   -1,782307774e-02   -8,323384076e-02   -7,627420425e-01    1,959497854e-02    0,000000000e+00    0,000000000e+00    0,000000000e+00    0,000000000e+00
      324000000   -4,161709920e-02   -5,887207761e-02   -6,315160990e-01    4,306653440e-01    0,000000000e+00    0,000000000e+00    0,000000000e+00    0,000000000e+00
      338000000   -3,455007076e-02   -3,678580374e-02   -2,952906787e-01    6,996066570e-01    0,000000000e+00    0,000000000e+00    0,000000000e+00    0,000000000e+00
      352000000   -1,742216386e-02   -4,086631909e-02    1,261753738e-01    7,431386709e-01    0,000000000e+00    0,000000000e+00    0,000000000e+00    0,000000000e+00
      366000000   -1,928470097e-02   -6,175901368e-02    4,979547560e-01    5,546827912e-01    0,000000000e+00    0,000000000e+00    0,000000000e+00    0,000000000e+00
      380000000   -4,440697655e-02   -7,261115313e-02    7,128093839e-01    1,999070644e-01    0,000000000e+00    0,000000000e+00    0,000000000e+00    0,000000000e+00
      394000000   -7,095389813e-02   -5,796772242e-02    7,041950822e-01   -2,160794288e-01    0,000000000e+00    0,000000000e+00    0,000000000e+00    0,000000000e+00
      408000000   -7,681421191e-02   -3,046109155e-02    4,710837901e-01   -5,602895021e-01    0,000000000e+00    0,000000000e+00    0,000000000e+00    0,000000000e+00
      422000000   -6,536797434e-02   -1,131372340e-02    9,308067709e-02   -7,179090977e-01    0,000000000e+00    0,000000000e+00    0,000000000e+00    0,000000000e+00
      436000000   -5,263935030e-02   -4,425091203e-03   -3,012798727e-01   -6,471201777e-01    0,000000000e+00    0,000000000e+00    0,000000000e+00    0,000000000e+00
      450000000   -4,446905479e-02    1,617581467e-03   -5,933197737e-01   -3,785254657e-01    0,000000000e+00    0,000000000e+00    0,000000000e+00    0,000000000e+00
      464000000   -2,951535769e-02    1,120965555e-02   -6,912671328e-01   -1,414333237e-04    0,000000000e+00    0,000000000e+00    0,000000000e+00    0,000000000e+00
      478000000   -9,696361376e-04    1,102701761e-02   -5,734732747e-01    3,629783392e-01    0,000000000e+00    0,000000000e+00    0,000000000e+00    0,000000000e+00
      492000000    2,786309458e-02   -1,244463027e-02   -2,894470990e-01    6,017417312e-01    0,000000000e+00    0,000000000e+00    0,000000000e+00    0,000000000e+00
      506000000    3,653294593e-02   -5,611025542e-02    6,940323859e-02    6,588739753e-01    0,000000000e+00    0,000000000e+00    0,000000000e+00    0,000000000e+00
      520000000    1,308355387e-02   -9,847904742e-02    4,048269987e-01    5,222126842e-01    0,000000000e+00    0,000000000e+00    0,000000000e+00    0,000000000e+00
      534000000   -3,456944600e-02   -1,162870750e-01    6,240026355e-01    2,360629290e-01    0,000000000e+00    0,000000000e+00    0,000000000e+00    0,000000000e+00
      548000000   -7,761579752e-02   -9,913767129e-02    6,581139565e-01   -1,333436966e-01    0,000000000e+00    0,000000000e+00    0,000000000e+00    0,000000000e+00
      562000000   -9,305571020e-02   -6,623912603e-02    4,821170270e-01   -4,666670561e-01    0,000000000e+00    0,000000000e+00    0,000000000e+00    0,000000000e+00
      576000000   -8,626490086e-02   -4,471995682e-02    1,501028389e-01   -6,490275860e-01    0,000000000e+00    0,000000000e+00    0,000000000e+00    0,000000000e+00
      590000000   -8,089628071e-02   -4,166350141e-02   -2,194105536e-01   -6,294448376e-01    0,000000000e+00    0,000000000e+00    0,000000000e+00    0,000000000e+00
      604000000   -8,913698792e-02   -3,708482534e-02   -5,201696754e-01   -4,058733582e-01    0,000000000e+00    0,000000000e+00    0,000000000e+00    0,000000000e+00
      618000000   -9,612329304e-02   -1,541459467e-02   -6,530551314e-01   -5,855689943e-02    0,000000000e+00    0,000000000e+00    0,000000000e+00    0,000000000e+00
      632000000   -8,163837343e-02    1,527257729e-02   -5,756008625e-01    3,023436964e-01    0,000000000e+00    0,000000000e+00    0,000000000e+00    0,000000000e+00
      646000000   -4,314119741e-02    2,597901598e-02   -3,189010918e-01    5,556735396e-01    0,000000000e+00    0,000000000e+00    0,000000000e+00    0,000000000e+00
      660000000   -7,675934583e-03    6,664427463e-03    2,081997693e-02    6,295711398e-01    0,000000000e+00    0,000000000e+00    0,000000000e+00    0,000000000e+00
      674000000    6,661309162e-04   -2,963893488e-02    3,422598541e-01    5,181652904e-01    0,000000000e+00    0,000000000e+00    0,000000000e+00    0,000000000e+00
      688000000   -1,531559788e-02   -5,539459735e-02    5,592284203e-01    2,591252923e-01    0,000000000e+00    0,000000000e+00    0,000000000e+00    0,000000000e+00
      702000000   -3,358437493e-02   -5,978819728e-02    6,027364135e-01   -8,227799833e-02    0,000000000e+00    0,000000000e+00    0,000000000e+00    0,000000000e+00
      716000000   -3,706518188e-02   -5,640414730e-02    4,591655433e-01   -3,900621533e-01    0,000000000e+00    0,000000000e+00    0,000000000e+00    0,000000000e+00
      730000000   -3,179657087e-02   -6,570845842e-02    1,745876223e-01   -5,665444136e-01    0,000000000e+00    0,000000000e+00    0,000000000e+00    0,000000000e+00
      744000000   -3,960854188e-02   -8,821014315e-02   -1,532765776e-01   -5,640015602e-01    0,000000000e+00    0,000000000e+00    0,000000000e+00    0,000000000e+00
      758000000   -7,243315876e-02   -1,040027514e-01   -4,272543192e-01   -3,950806558e-01    0,000000000e+00    0,000000000e+00    0,000000000e+00    0,000000000e+00
      772000000   -1,136390120e-01   -9,444072843e-02   -5,746589899e-01   -1,060223430e-01    0,000000000e+00    0,000000000e+00    0,000000000e+00    0,000000000e+00
      786000000   -1,394202560e-01   -5,622526631e-02   -5,452940464e-01    2,211527228e-01    0,000000000e+00    0,000000000e+00    0,000000000e+00    0,000000000e+00
      800000000   -1,325607151e-01   -1,400033105e-02   -3,415832520e-01    4,792268276e-01    0,000000000e+00    0,000000000e+00    0,000000000e+00    0,000000000e+00
      814000000   -1,079759374e-01    7,918624207e-03   -3,573295102e-02    5,859137774e-01    0,000000000e+00    0,000000000e+00    0,000000000e+00    0,000000000e+00
      828000000   -8,611568809e-02    1,327544916e-02    2,789591253e-01    5,149065852e-01    0,000000000e+00    0,000000000e+00    0,000000000e+00    0,000000000e+00
      842000000   -7,065645605e-02    1,547583565e-02    5,026965737e-01    2,893616259e-01    0,000000000e+00    0,000000000e+00    0,000000000e+00    0,000000000e+00
      856000000   -5,230715126e-02    1,880851947e-02    5,704907775e-01   -1,768129691e-02    0,000000000e+00    0,000000000e+00    0,000000000e+00    0,000000000e+00
      870000000   -2,260286175e-02    1,398716122e-02    4,638148546e-01   -3,063879907e-01    0,000000000e+00    0,000000000e+00    0,000000000e+00    0,000000000e+00
      884000000    5,536155310e-03   -1,418033242e-02    2,299999446e-01   -4,891681969e-01    0,000000000e+00    0,000000000e+00    0,000000000e+00    0,000000000e+00
      898000000    1,166464109e-02   -6,339380890e-02   -5,237141997e-02   -5,268171430e-01    0,000000000e+00    0,000000000e+00    0,000000000e+00    0,000000000e+00
      912000000   -2,287729830e-02   -1,087756604e-01   -3,582502902e-01   -4,085227549e-01    0,000000000e+00    0,000000000e+00    0,000000000e+00    0,000000000e+00
      926000000   -7,756561786e-02   -1,239710674e-01   -5,331832767e-01   -1,580296457e-01    0,000000000e+00    0,000000000e+00    0,000000000e+00    0,000000000e+00
      940000000   -1,255063415e-01   -1,030999273e-01   -5,527226925e-01    1,561557055e-01    0,000000000e+00    0,000000000e+00    0,000000000e+00    0,000000000e+00
      954000000   -1,413334012e-01   -5,896040425e-02   -3,915968835e-01    4,462963939e-01    0,000000000e+00    0,000000000e+00    0,000000000e+00    0,000000000e+00
      968000000   -1,321108192e-01   -3,081357293e-02   -9,368491918e-02    6,014791131e-01    0,000000000e+00    0,000000000e+00    0,000000000e+00    0,000000000e+00
      982000000   -1,136775762e-01   -1,827097870e-02    2,459181994e-01    5,714716911e-01    0,000000000e+00    0,000000000e+00    0,000000000e+00    0,000000000e+00
      996000000   -1,043628678e-01   -1,261333097e-02    5,113818645e-01    3,670004010e-01    0,000000000e+00    0,000000000e+00    0,000000000e+00    0,000000000e+00
     1010000000   -1,018367410e-01   -5,729582161e-03    6,289080977e-01    5,284658074e-02    0,000000000e+00    0,000000000e+00    0,000000000e+00    0,000000000e+00
     1024000000   -9,255074710e-02    3,892931389e-03    5,613694787e-01   -2,686250508e-01    0,000000000e+00    0,000000000e+00    0,000000000e+00    0,000000000e+00
     1038000000   -7,233382016e-02   -3,539851168e-03    3,374107182e-01   -5,036961436e-01    0,000000000e+00    0,000000000e+00    0,000000000e+00    0,000000000e+00
     1052000000   -6,800424308e-02   -1,622609049e-02    3,430313244e-02   -5,854883790e-01    0,000000000e+00    0,000000000e+00    0,000000000e+00    0,000000000e+00
     1066000000   -6,869547814e-02   -2,889603190e-02   -2,644659281e-01   -5,002806783e-01    0,000000000e+00    0,000000000e+00    0,000000000e+00    0,000000000e+00
     1080000000   -8,212724328e-02   -2,632210590e-02   -4,792464077e-01   -2,707635760e-01    0,000000000e+00    0,000000000e+00    0,000000000e+00    0,000000000e+00
     1094000000   -7,858100533e-02   -1,798794232e-02   -5,309783816e-01    4,025574774e-02    0,000000000e+00    0,000000000e+00    0,000000000e+00    0,000000000e+00
     1108000000   -6,079534441e-02   -1,344959252e-02   -3,971048295e-01    3,262826502e-01    0,000000000e+00    0,000000000e+00    0,000000000e+00    0,000000000e+00
     1122000000   -2,962594293e-02   -3,849621490e-02   -1,349698007e-01    4,826520681e-01    0,000000000e+00    0,000000000e+00    0,000000000e+00    0,000000000e+00
     1136000000   -3,077837825e-02   -8,280061930e-02    1,621926278e-01    4,723648131e-01    0,000000000e+00    0,000000000e+00    0,000000000e+00    0,000000000e+00
     1150000000   -6,102077663e-02   -1,340456307e-01    4,169432819e-01    3,095528483e-01    0,000000000e+00    0,000000000e+00    0,000000000e+00    0,000000000e+00
     1164000000   -1,387290806e-01   -1,551341712e-01    5,644952655e-01    2,940790169e-02    0,000000000e+00    0,000000000e+00    0,000000000e+00    0,000000000e+00
     1178000000   -2,107006311e-01   -1,193531081e-01    5,330237150e-01   -3,146139681e-01    0,000000000e+00    0,000000000e+00    0,000000000e+00    0,000000000e+00
     1192000000   -2,512887120e-01   -4,493121803e-02    2,988622189e-01   -5,989966393e-01    0,000000000e+00    0,000000000e+00    0,000000000e+00    0,000000000e+00
     1206000000   -2,356821448e-01    3,097960725e-02   -6,794919819e-02   -7,022108436e-01    0,000000000e+00    0,000000000e+00    0,000000000e+00    0,000000000e+00
     1220000000   -1,863495708e-01    8,749929816e-02   -4,178378880e-01   -5,769190788e-01    0,000000000e+00    0,000000000e+00    0,000000000e+00    0,000000000e+00
     1234000000   -1,245851144e-01    1,013312936e-01   -6,458745003e-01   -2,889989316e-01    0,000000000e+00    0,000000000e+00    0,000000000e+00    0,000000000e+00
     1248000000   -6,296028197e-02    9,621151537e-02   -6,766023636e-01    6,196387112e-02    0,000000000e+00    0,000000000e+00    0,000000000e+00    0,000000000e+00
     1262000000   -1,362091210e-02    6,093749031e-02   -5,203916430e-01    3,682015538e-01    0,000000000e+00    0,000000000e+00    0,000000000e+00    0,000000000e+00
     1276000000    2,273518033e-02   -5,906008650e-03   -2,429993004e-01    5,440227985e-01    0,000000000e+00    0,000000000e+00    0,000000000e+00    0,000000000e+00
     1290000000    2,331082150e-02   -8,972550929e-02    7,359122485e-02    5,766677260e-01    0,000000000e+00    0,000000000e+00    0,000000000e+00    0,000000000e+00
     1304000000   -2,942460962e-02   -1,699584126e-01    3,686528206e-01    4,660627246e-01    0,000000000e+00    0,000000000e+00    0,000000000e+00    0,000000000e+00
     1318000000   -1,374723911e-01   -2,178287357e-01    5,810044408e-01    2,166518122e-01    0,000000000e+00    0,000000000e+00    0,000000000e+00    0,000000000e+00
     1332000000   -2,559613883e-01   -1,845941395e-01    6,512619257e-01   -1,278147995e-01    0,000000000e+00    0,000000000e+00    0,000000000e+00    0,000000000e+00
     1346000000   -3,369987309e-01   -9,081143141e-02    5,060266256e-01   -4,639272392e-01    0,000000000e+00    0,000000000e+00    0,000000000e+00    0,000000000e+00
     1360000000   -3,387435377e-01    2,083169110e-02    1,908458769e-01   -6,558179259e-01    0,000000000e+00    0,000000000e+00    0,000000000e+00    0,000000000e+00
     1374000000   -2,804200649e-01    9,862268716e-02   -1,569773555e-01   -6,096101999e-01    0,000000000e+00    0,000000000e+00    0,000000000e+00    0,000000000e+00
     1388000000   -2,084351480e-01    1,392833889e-01   -4,033887386e-01   -3,748433292e-01    0,000000000e+00    0,000000000e+00    0,000000000e+00    0,000000000e+00
     1402000000   -1,497977078e-01    1,406779885e-01   -4,809919000e-01   -4,967638105e-02    0,000000000e+00    0,000000000e+00    0,000000000e+00    0,000000000e+00
     1416000000   -9,821495414e-02    1,188294515e-01   -3,833310902e-01    2,411596477e-01    0,000000000e+00    0,000000000e+00    0,000000000e+00    0,000000000e+00
     1430000000   -5,748105422e-02    7,640036196e-02   -1,655082852e-01    4,682915807e-01    0,000000000e+00    0,000000000e+00    0,000000000e+00    0,000000000e+00
     1444000000   -4,109356180e-02    2,928524511e-03    1,613118798e-01    5,310460925e-01    0,000000000e+00    0,000000000e+00    0,000000000e+00    0,000000000e+00
     1458000000   -6,551602483e-02   -7,163783908e-02    4,744637012e-01    4,865558147e-01    0,000000000e+00    0,000000000e+00    0,000000000e+00    0,000000000e+00
     1472000000   -1,431473047e-01   -1,222691908e-01    7,568906546e-01    2,576931119e-01    0,000000000e+00    0,000000000e+00    0,000000000e+00    0,000000000e+00
     1486000000   -2,319088578e-01   -1,079640165e-01    8,993502855e-01   -7,444074750e-02    0,000000000e+00    0,000000000e+00    0,000000000e+00    0,000000000e+00
     1500000000   -2,840866745e-01   -4,755428806e-02    8,099440932e-01   -4,506744444e-01    0,000000000e+00    0,000000000e+00    0,000000000e+00    0,000000000e+00
