! NanoVNA-App
! Date: 2025-09-25 15:10:17
! Start: 100MHz Stop: 1,5GHz Points: 101
! S-Parameter data: F S11 S21 S12 S22
# Hz S RI R 50
!     Frequency           S11_Real           S11_Imag           S21_Real           S21_Imag           S12_Real           S12_Imag           S22_Real           S22_Imag
      100000000    3,116431646e-02    2,865005098e-02    4,349189401e-01   -6,686294675e-01    0,000000000e+00    0,000000000e+00    0,000000000e+00    0,000000000e+00
      114000000    5,760671943e-02    5,493096542e-03    7,659495343e-03   -7,909001708e-01    0,000000000e+00    0,000000000e+00    0,000000000e+00    0,000000000e+00
      128000000    6,725688279e-02   -3,789307550e-02   -4,102498293e-01   -6,710570455e-01    0,000000000e+00    0,000000000e+00    0,000000000e+00    0,000000000e+00
      142000000    4,470595345e-02   -8,419728279e-02   -7,027662992e-01   -3,532633781e-01    0,000000000e+00    0,000000000e+00    0,000000000e+00    0,000000000e+00
      156000000   -5,415814463e-03   -1,069808602e-01   -7,875494361e-01    7,380217314e-02    0,000000000e+00    0,000000000e+00    0,000000000e+00    0,000000000e+00
      170000000   -5,764655024e-02   -9,054709226e-02   -6,278329492e-01    4,867682755e-01    0,000000000e+00    0,000000000e+00    0,000000000e+00    0,000000000e+00
      184000000   -8,371978253e-02   -4,950207099e-02   -2,650006711e-01    7,512627244e-01    0,000000000e+00    0,000000000e+00    0,000000000e+00    0,000000000e+00
      198000000   -7,963800430e-02   -1,048118062e-02    1,833536625e-01    7,731928229e-01    0,000000000e+00    0,000000000e+00    0,000000000e+00    0,000000000e+00
      212000000   -6,225553900e-02    1,313560084e-02    5,689520240e-01    5,492349863e-01    0,000000000e+00    0,000000000e+00    0,000000000e+00    0,000000000e+00
      226000000   -4,334801808e-02    2,767970785e-02    7,707504630e-01    1,546073556e-01    0,000000000e+00    0,000000000e+00    0,000000000e+00    0,000000000e+00
      240000000   -1,825162023e-02    3,849116340e-02    7,271619439e-01   -2,819419205e-01    0,000000000e+00    0,000000000e+00    0,000000000e+00    0,000000000e+00
      254000000    1,717343926e-02    3,518293053e-02    4,581346512e-01   -6,199893951e-01    0,000000000e+00    0,000000000e+00    0,000000000e+00    0,000000000e+00
      268000000    4,880782217e-02    5,621857010e-03    5,844348669e-02   -7,600527406e-01    0,000000000e+00    0,000000000e+00    0,000000000e+00    0,000000000e+00
      282000000    5,353672057e-02   -4,184188321e-02   -3,491876423e-01   -6,720710397e-01    0,000000000e+00    0,000000000e+00    0,000000000e+00    0,000000000e+00
      296000000    2,402685583e-02   -7,945157588e-02   -6,519280672e-01   -3,856630027e-01    0,000000000e+00    0,000000000e+00    0,000000000e+00    0,000000000e+00
      310000000   -1,788799837e-02   -8,309116215e-02   -7,639735341e-01    2,010290511e-02    0,000000000e+00    0,000000000e+00    0,000000000e+00    0,000000000e+00
      324000000   -4,166331515e-02   -5,900828540e-02   -6,324284077e-01    4,303407073e-01    0,000000000e+00    0,000000000e+00    0,000000000e+00    0,000000000e+00
      338000000   -3,433268145e-02   -3,688010201e-02   -2,981553376e-01    6,994488239e-01    0,000000000e+00    0,000000000e+00    0,000000000e+00    0,000000000e+00
      352000000   -1,723544486e-02   -4,085704684e-02    1,249821335e-01    7,425664067e-01    0,000000000e+00    0,000000000e+00    0,000000000e+00    0,000000000e+00
      366000000   -1,943738572e-02   -6,181077287e-02    4,983691275e-01    5,552663803e-01    0,000000000e+00    0,000000000e+00    0,000000000e+00    0,000000000e+00
      380000000   -4,434650019e-02   -7,277303934e-02    7,131968141e-01    1,998608410e-01    0,000000000e+00    0,000000000e+00    0,000000000e+00    0,000000000e+00
      394000000   -7,083526999e-02   -5,786476284e-02    7,046930790e-01   -2,160119414e-01    0,000000000e+00    0,000000000e+00    0,000000000e+00    0,000000000e+00
      408000000   -7,719916105e-02   -3,048723377e-02    4,698992968e-01   -5,590406060e-01    0,000000000e+00    0,000000000e+00    0,000000000e+00    0,000000000e+00
      422000000   -6,556190550e-02   -1,096746046e-02    9,275732934e-02   -7,166702151e-01    0,000000000e+00    0,000000000e+00    0,000000000e+00    0,000000000e+00
      436000000   -5,303880572e-02   -4,474771209e-03   -3,012453020e-01   -6,462778449e-01    0,000000000e+00    0,000000000e+00    0,000000000e+00    0,000000000e+00
      450000000   -4,490573332e-02    1,412915764e-03   -5,930363536e-01   -3,783815801e-01    0,000000000e+00    0,000000000e+00    0,000000000e+00    0,000000000e+00
      464000000   -2,930914797e-02    1,139609143e-02   -6,913718581e-01    1,046748221e-04    0,000000000e+00    0,000000000e+00    0,000000000e+00    0,000000000e+00
      478000000   -1,228145557e-03    1,091350615e-02   -5,734754801e-01    3,630499840e-01    0,000000000e+00    0,000000000e+00    0,000000000e+00    0,000000000e+00
      492000000    2,765952051e-02   -1,222711056e-02   -2,900392711e-01    6,028793454e-01    0,000000000e+00    0,000000000e+00    0,000000000e+00    0,000000000e+00
      506000000    3,633517027e-02   -5,558843538e-02    6,928021461e-02    6,580597162e-01    0,000000000e+00    0,000000000e+00    0,000000000e+00    0,000000000e+00
      520000000    1,296880841e-02   -9,860254824e-02    4,051317871e-01    5,255972743e-01    0,000000000e+00    0,000000000e+00    0,000000000e+00    0,000000000e+00
      534000000   -3,392858058e-02   -1,159369349e-01    6,238964200e-01    2,366231084e-01    0,000000000e+00    0,000000000e+00    0,000000000e+00    0,000000000e+00
      548000000   -7,749979198e-02   -9,917027503e-02    6,581366062e-01   -1,327696890e-01    0,000000000e+00    0,000000000e+00    0,000000000e+00    0,000000000e+00
      562000000   -9,334431589e-02   -6,636492908e-02    4,820156991e-01   -4,669695795e-01    0,000000000e+00    0,000000000e+00    0,000000000e+00    0,000000000e+00
      576000000   -8,613526821e-02   -4,483411089e-02    1,515677571e-01   -6,490105391e-01    0,000000000e+00    0,000000000e+00    0,000000000e+00    0,000000000e+00
      590000000   -8,078309894e-02   -4,179612920e-02   -2,206685841e-01   -6,295838356e-01    0,000000000e+00    0,000000000e+00    0,000000000e+00    0,000000000e+00
      604000000   -8,895453811e-02   -3,693189099e-02   -5,201615691e-01   -4,061279893e-01    0,000000000e+00    0,000000000e+00    0,000000000e+00    0,000000000e+00
      618000000   -9,696512669e-02   -1,521723066e-02   -6,534769535e-01   -5,872051045e-02    0,000000000e+00    0,000000000e+00    0,000000000e+00    0,000000000e+00
      632000000   -8,105047792e-02    1,480765175e-02   -5,752241015e-01    3,025029004e-01    0,000000000e+00    0,000000000e+00    0,000000000e+00    0,000000000e+00
      646000000   -4,218371958e-02    2,607660927e-02   -3,180983067e-01    5,558716655e-01    0,000000000e+00    0,000000000e+00    0,000000000e+00    0,000000000e+00
      660000000   -7,951803505e-03    5,520931911e-03    2,162111364e-02    6,298709512e-01    0,000000000e+00    0,000000000e+00    0,000000000e+00    0,000000000e+00
      674000000    1,367086195e-03   -3,062268347e-02    3,428294957e-01    5,192398429e-01    0,000000000e+00    0,000000000e+00    0,000000000e+00    0,000000000e+00
      688000000   -1,532828528e-02   -5,596039444e-02    5,584287047e-01    2,588562071e-01    0,000000000e+00    0,000000000e+00    0,000000000e+00    0,000000000e+00
      702000000   -3,368460014e-02   -6,031257659e-02    6,036896706e-01   -7,923357934e-02    0,000000000e+00    0,000000000e+00    0,000000000e+00    0,000000000e+00
      716000000   -3,656579927e-02   -5,586178228e-02    4,593293667e-01   -3,899501264e-01    0,000000000e+00    0,000000000e+00    0,000000000e+00    0,000000000e+00
      730000000   -3,130715340e-02   -6,494412571e-02    1,732060909e-01   -5,664628148e-01    0,000000000e+00    0,000000000e+00    0,000000000e+00    0,000000000e+00
      744000000   -4,015030339e-02   -8,767715096e-02   -1,532626897e-01   -5,647710562e-01    0,000000000e+00    0,000000000e+00    0,000000000e+00    0,000000000e+00
      758000000   -7,182710618e-02   -1,054465920e-01   -4,279767573e-01   -3,950940073e-01    0,000000000e+00    0,000000000e+00    0,000000000e+00    0,000000000e+00
      772000000   -1,135626957e-01   -9,385788441e-02   -5,744152069e-01   -1,059769765e-01    0,000000000e+00    0,000000000e+00    0,000000000e+00    0,000000000e+00
      786000000   -1,386563629e-01   -5,700355023e-02   -5,449382067e-01    2,209264636e-01    0,000000000e+00    0,000000000e+00    0,000000000e+00    0,000000000e+00
      800000000   -1,332791150e-01   -1,464688499e-02   -3,419393599e-01    4,804341495e-01    0,000000000e+00    0,000000000e+00    0,000000000e+00    0,000000000e+00
      814000000   -1,079096869e-01    8,633960038e-03   -3,586540371e-02    5,862185955e-01    0,000000000e+00    0,000000000e+00    0,000000000e+00    0,000000000e+00
      828000000   -8,551964164e-02    1,290377602e-02    2,778814733e-01    5,148243308e-01    0,000000000e+00    0,000000000e+00    0,000000000e+00    0,000000000e+00
      842000000   -7,103437930e-02    1,514958218e-02    5,026788712e-01    2,895185053e-01    0,000000000e+00    0,000000000e+00    0,000000000e+00    0,000000000e+00
      856000000   -5,255310982e-02    1,969067007e-02    5,710251927e-01   -1,795635186e-02    0,000000000e+00    0,000000000e+00    0,000000000e+00    0,000000000e+00
      870000000   -2,346603945e-02    1,435019076e-02    4,631754458e-01   -3,061636686e-01    0,000000000e+00    0,000000000e+00    0,000000000e+00    0,000000000e+00
      884000000    5,944015924e-03   -1,474518608e-02    2,301762551e-01   -4,885764420e-01    0,000000000e+00    0,000000000e+00    0,000000000e+00    0,000000000e+00
      898000000    1,169282291e-02   -6,355980784e-02   -5,266834423e-02   -5,257762074e-01    0,000000000e+00    0,000000000e+00    0,000000000e+00    0,000000000e+00
      912000000   -2,346147411e-02   -1,084838510e-01   -3,653276563e-01   -3,959136009e-01    0,000000000e+00    0,000000000e+00    0,000000000e+00    0,000000000e+00
      926000000   -7,742217183e-02   -1,242794916e-01   -5,336717963e-01   -1,575846374e-01    0,000000000e+00    0,000000000e+00    0,000000000e+00    0,000000000e+00
      940000000   -1,224146113e-01   -1,005034968e-01   -5,514329076e-01    1,570194811e-01    0,000000000e+00    0,000000000e+00    0,000000000e+00    0,000000000e+00
      954000000   -1,433747113e-01   -5,785344169e-02   -3,923523724e-01    4,468579292e-01    0,000000000e+00    0,000000000e+00    0,000000000e+00    0,000000000e+00
      968000000   -1,341018230e-01   -2,765543759e-02   -9,365750104e-02    6,031829715e-01    0,000000000e+00    0,000000000e+00    0,000000000e+00    0,000000000e+00
      982000000   -1,158578545e-01   -1,384988241e-02    2,443218827e-01    5,743228197e-01    0,000000000e+00    0,000000000e+00    0,000000000e+00    0,000000000e+00
      996000000   -1,046338156e-01   -1,694497280e-02    5,127781034e-01    3,661243021e-01    0,000000000e+00    0,000000000e+00    0,000000000e+00    0,000000000e+00
     1010000000   -1,004865617e-01   -7,530897856e-03    6,292509437e-01    5,206181481e-02    0,000000000e+00    0,000000000e+00    0,000000000e+00    0,000000000e+00
     1024000000   -9,172359854e-02   -3,507553134e-03    5,606589317e-01   -2,701784372e-01    0,000000000e+00    0,000000000e+00    0,000000000e+00    0,000000000e+00
     1038000000   -7,310173661e-02   -8,630225784e-04    3,361089230e-01   -5,035350323e-01    0,000000000e+00    0,000000000e+00    0,000000000e+00    0,000000000e+00
     1052000000   -6,826715171e-02   -1,786323451e-02    3,455900773e-02   -5,875372887e-01    0,000000000e+00    0,000000000e+00    0,000000000e+00    0,000000000e+00
     1066000000   -7,198878378e-02   -2,780596912e-02   -2,660486102e-01   -5,025947094e-01    0,000000000e+00    0,000000000e+00    0,000000000e+00    0,000000000e+00
     1080000000   -8,471337706e-02   -3,065963835e-02   -4,809878469e-01   -2,708567679e-01    0,000000000e+00    0,000000000e+00    0,000000000e+00    0,000000000e+00
     1094000000   -8,194217831e-02   -1,432539895e-02   -5,314756632e-01    4,300223663e-02    0,000000000e+00    0,000000000e+00    0,000000000e+00    0,000000000e+00
     1108000000   -6,100660563e-02   -1,185011026e-02   -3,973442614e-01    3,246818483e-01    0,000000000e+00    0,000000000e+00    0,000000000e+00    0,000000000e+00
     1122000000   -3,090231679e-02   -3,183399886e-02   -1,357025206e-01    4,824508131e-01    0,000000000e+00    0,000000000e+00    0,000000000e+00    0,000000000e+00
     1136000000   -3,126743436e-02   -8,461704850e-02    1,663890779e-01    4,764131308e-01    0,000000000e+00    0,000000000e+00    0,000000000e+00    0,000000000e+00
     1150000000   -6,795975566e-02   -1,365583837e-01    4,182758331e-01    3,113284111e-01    0,000000000e+00    0,000000000e+00    0,000000000e+00    0,000000000e+00
     1164000000   -1,379486620e-01   -1,497975141e-01    5,635994077e-01    2,623730153e-02    0,000000000e+00    0,000000000e+00    0,000000000e+00    0,000000000e+00
     1178000000   -2,143276483e-01   -1,169858873e-01    5,326440930e-01   -3,149842918e-01    0,000000000e+00    0,000000000e+00    0,000000000e+00    0,000000000e+00
     1192000000   -2,510839105e-01   -4,476211965e-02    2,958790958e-01   -5,997143984e-01    0,000000000e+00    0,000000000e+00    0,000000000e+00    0,000000000e+00
     1206000000   -2,325408459e-01    3,173378855e-02   -6,513266265e-02   -6,998471022e-01    0,000000000e+00    0,000000000e+00    0,000000000e+00    0,000000000e+00
     1220000000   -1,814072281e-01    8,444366604e-02   -4,177572727e-01   -5,793621540e-01    0,000000000e+00    0,000000000e+00    0,000000000e+00    0,000000000e+00
     1234000000   -1,242119744e-01    1,003552899e-01   -6,438757181e-01   -2,919310331e-01    0,000000000e+00    0,000000000e+00    0,000000000e+00    0,000000000e+00
     1248000000   -6,697491556e-02    9,968204051e-02   -6,779524088e-01    6,509015709e-02    0,000000000e+00    0,000000000e+00    0,000000000e+00    0,000000000e+00
     1262000000   -1,129046734e-02    5,668776110e-02   -5,191518068e-01    3,641892970e-01    0,000000000e+00    0,000000000e+00    0,000000000e+00    0,000000000e+00
     1276000000    2,681887150e-02   -7,571596652e-04   -2,402167618e-01    5,454381704e-01    0,000000000e+00    0,000000000e+00    0,000000000e+00    0,000000000e+00
     1290000000    1,964071952e-02   -8,747329563e-02    6,972109526e-02    5,791802406e-01    0,000000000e+00    0,000000000e+00    0,000000000e+00    0,000000000e+00
     1304000000   -3,455261514e-02   -1,726866513e-01    3,671231270e-01    4,674658477e-01    0,000000000e+00    0,000000000e+00    0,000000000e+00    0,000000000e+00
     1318000000   -1,308857501e-01   -2,191791236e-01    5,855832100e-01    2,143600732e-01    0,000000000e+00    0,000000000e+00    0,000000000e+00    0,000000000e+00
     1332000000   -2,509202063e-01   -1,843965650e-01    6,592156887e-01   -1,166433990e-01    0,000000000e+00    0,000000000e+00    0,000000000e+00    0,000000000e+00
     1346000000   -3,318526745e-01   -9,597370774e-02    5,082640648e-01   -4,653150439e-01    0,000000000e+00    0,000000000e+00    0,000000000e+00    0,000000000e+00
     1360000000   -3,309775889e-01    2,345835790e-02    1,901441067e-01   -6,502821445e-01    0,000000000e+00    0,000000000e+00    0,000000000e+00    0,000000000e+00
     1374000000   -2,848805487e-01    1,012919992e-01   -1,596678197e-01   -6,113547683e-01    0,000000000e+00    0,000000000e+00    0,000000000e+00    0,000000000e+00
     1388000000   -2,139236927e-01    1,377747506e-01   -4,088295102e-01   -3,692204058e-01    0,000000000e+00    0,000000000e+00    0,000000000e+00    0,000000000e+00
     1402000000   -1,444262713e-01    1,395844370e-01   -4,740094841e-01   -5,751747638e-02    0,000000000e+00    0,000000000e+00    0,000000000e+00    0,000000000e+00
     1416000000   -9,835197777e-02    1,127524972e-01   -3,824437857e-01    2,395663410e-01    0,000000000e+00    0,000000000e+00    0,000000000e+00    0,000000000e+00
     1430000000   -4,906215519e-02    7,005064934e-02   -1,589152068e-01    4,635184407e-01    0,000000000e+00    0,000000000e+00    0,000000000e+00    0,000000000e+00
     1444000000   -3,322996572e-02    6,120234262e-03    1,582828015e-01    5,300144553e-01    0,000000000e+00    0,000000000e+00    0,000000000e+00    0,000000000e+00
     1458000000   -6,850155443e-02   -6,547386944e-02    4,891851246e-01    4,886153638e-01    0,000000000e+00    0,000000000e+00    0,000000000e+00    0,000000000e+00
     1472000000   -1,381574124e-01   -1,296996474e-01    7,467709780e-01    2,645406723e-01    0,000000000e+00    0,000000000e+00    0,000000000e+00    0,000000000e+00
     1486000000   -2,342683971e-01   -1,078738868e-01    8,976649046e-01   -7,850506902e-02    0,000000000e+00    0,000000000e+00    0,000000000e+00    0,000000000e+00
     1500000000   -2,854058743e-01   -5,142221972e-02    8,353839517e-01   -4,701662064e-01    0,000000000e+00    0,000000000e+00    0,000000000e+00    0,000000000e+00
