! NanoVNA-App
! Date: 2025-09-25 15:10:23
! Start: 100MHz Stop: 1,5GHz Points: 101
! S-Parameter data: F S11 S21 S12 S22
# Hz S RI R 50
!     Frequency           S11_Real           S11_Imag           S21_Real           S21_Imag           S12_Real           S12_Imag           S22_Real           S22_Imag
      100000000    3,116682172e-02    2,864898182e-02    4,349250495e-01   -6,686177254e-01    0,000000000e+00    0,000000000e+00    0,000000000e+00    0,000000000e+00
      114000000    5,760288984e-02    5,498101469e-03    7,670597639e-03   -7,909642458e-01    0,000000000e+00    0,000000000e+00    0,000000000e+00    0,000000000e+00
      128000000    6,726226211e-02   -3,780090809e-02   -4,104127288e-01   -6,712754369e-01    0,000000000e+00    0,000000000e+00    0,000000000e+00    0,000000000e+00
      142000000    4,471769929e-02   -8,423574269e-02   -7,028698325e-01   -3,531866968e-01    0,000000000e+00    0,000000000e+00    0,000000000e+00    0,000000000e+00
      156000000   -5,685783457e-03   -1,068511009e-01   -7,869691849e-01    7,403129339e-02    0,000000000e+00    0,000000000e+00    0,000000000e+00    0,000000000e+00
      170000000   -5,772763118e-02   -9,062237293e-02   -6,276978850e-01    4,870679379e-01    0,000000000e+00    0,000000000e+00    0,000000000e+00    0,000000000e+00
      184000000   -8,368118852e-02   -4,945120588e-02   -2,649166882e-01    7,508863211e-01    0,000000000e+00    0,000000000e+00    0,000000000e+00    0,000000000e+00
      198000000   -7,965437323e-02   -1,047526021e-02    1,834518164e-01    7,731081843e-01    0,000000000e+00    0,000000000e+00    0,000000000e+00    0,000000000e+00
      212000000   -6,227065250e-02    1,315867715e-02    5,693178177e-01    5,493588448e-01    0,000000000e+00    0,000000000e+00    0,000000000e+00    0,000000000e+00
      226000000   -4,329411685e-02    2,763713710e-02    7,706919312e-01    1,546442062e-01    0,000000000e+00    0,000000000e+00    0,000000000e+00    0,000000000e+00
      240000000   -1,821926795e-02    3,847893700e-02    7,267271280e-01   -2,816885114e-01    0,000000000e+00    0,000000000e+00    0,000000000e+00    0,000000000e+00
      254000000    1,714179106e-02    3,515317291e-02    4,581621885e-01   -6,199770570e-01    0,000000000e+00    0,000000000e+00    0,000000000e+00    0,000000000e+00
      268000000    4,877586290e-02    5,617513787e-03    5,900335684e-02   -7,605308890e-01    0,000000000e+00    0,000000000e+00    0,000000000e+00    0,000000000e+00
      282000000    5,351296812e-02   -4,182692617e-02   -3,489406109e-01   -6,718459725e-01    0,000000000e+00    0,000000000e+00    0,000000000e+00    0,000000000e+00
      296000000    2,394144982e-02   -7,951025665e-02   -6,516091228e-01   -3,854531944e-01    0,000000000e+00    0,000000000e+00    0,000000000e+00    0,000000000e+00
      310000000   -1,778907515e-02   -8,304455876e-02   -7,627703547e-01    1,952978782e-02    0,000000000e+00    0,000000000e+00    0,000000000e+00    0,000000000e+00
      324000000   -4,184652120e-02   -5,900413916e-02   -6,320499778e-01    4,303793609e-01    0,000000000e+00    0,000000000e+00    0,000000000e+00    0,000000000e+00
      338000000   -3,406693786e-02   -3,673059121e-02   -2,962020636e-01    7,015522122e-01    0,000000000e+00    0,000000000e+00    0,000000000e+00    0,000000000e+00
      352000000   -1,737120003e-02   -4,086761549e-02    1,253667921e-01    7,417054176e-01    0,000000000e+00    0,000000000e+00    0,000000000e+00    0,000000000e+00
      366000000   -1,944774389e-02   -6,182061881e-02    4,980904758e-01    5,553660989e-01    0,000000000e+00    0,000000000e+00    0,000000000e+00    0,000000000e+00
      380000000   -4,455550388e-02   -7,242063433e-02    7,127125859e-01    2,004344165e-01    0,000000000e+00    0,000000000e+00    0,000000000e+00    0,000000000e+00
      394000000   -7,111651450e-02   -5,801773444e-02    7,036281824e-01   -2,166168839e-01    0,000000000e+00    0,000000000e+00    0,000000000e+00    0,000000000e+00
      408000000   -7,707422227e-02   -3,020250611e-02    4,701536894e-01   -5,590263605e-01    0,000000000e+00    0,000000000e+00    0,000000000e+00    0,000000000e+00
      422000000   -6,543325633e-02   -1,143503468e-02    9,261590242e-02   -7,179988027e-01    0,000000000e+00    0,000000000e+00    0,000000000e+00    0,000000000e+00
      436000000   -5,297146365e-02   -4,604620393e-03   -3,021408617e-01   -6,477367282e-01    0,000000000e+00    0,000000000e+00    0,000000000e+00    0,000000000e+00
      450000000   -4,444254935e-02    1,699267188e-03   -5,929621458e-01   -3,785263300e-01    0,000000000e+00    0,000000000e+00    0,000000000e+00    0,000000000e+00
      464000000   -2,975312434e-02    1,099019311e-02   -6,914665699e-01   -5,904915160e-04    0,000000000e+00    0,000000000e+00    0,000000000e+00    0,000000000e+00
      478000000   -9,038105491e-04    1,133052167e-02   -5,730674267e-01    3,635188639e-01    0,000000000e+00    0,000000000e+00    0,000000000e+00    0,000000000e+00
      492000000    2,808328345e-02   -1,211933419e-02   -2,892810404e-01    6,021435261e-01    0,000000000e+00    0,000000000e+00    0,000000000e+00    0,000000000e+00
      506000000    3,626491502e-02   -5,594244599e-02    6,874070317e-02    6,586437821e-01    0,000000000e+00    0,000000000e+00    0,000000000e+00    0,000000000e+00
      520000000    1,303576212e-02   -9,817382693e-02    4,014419615e-01    5,255412459e-01    0,000000000e+00    0,000000000e+00    0,000000000e+00    0,000000000e+00
      534000000   -3,420482576e-02   -1,162812188e-01    6,236670017e-01    2,363036126e-01    0,000000000e+00    0,000000000e+00    0,000000000e+00    0,000000000e+00
      548000000   -7,701624930e-02   -9,901502728e-02    6,584708095e-01   -1,333037317e-01    0,000000000e+00    0,000000000e+00    0,000000000e+00    0,000000000e+00
      562000000   -9,311912209e-02   -6,638970971e-02    4,817208052e-01   -4,672244191e-01    0,000000000e+00    0,000000000e+00    0,000000000e+00    0,000000000e+00
      576000000   -8,591143787e-02   -4,429961741e-02    1,510136575e-01   -6,483840942e-01    0,000000000e+00    0,000000000e+00    0,000000000e+00    0,000000000e+00
      590000000   -8,076812327e-02   -4,170095921e-02   -2,204765379e-01   -6,287064552e-01    0,000000000e+00    0,000000000e+00    0,000000000e+00    0,000000000e+00
      604000000   -8,873858303e-02   -3,754016757e-02   -5,198258162e-01   -4,065520167e-01    0,000000000e+00    0,000000000e+00    0,000000000e+00    0,000000000e+00
      618000000   -9,623203427e-02   -1,526150666e-02   -6,529459357e-01   -5,835505202e-02    0,000000000e+00    0,000000000e+00    0,000000000e+00    0,000000000e+00
      632000000   -8,093962073e-02    1,580625214e-02   -5,753312707e-01    3,028764427e-01    0,000000000e+00    0,000000000e+00    0,000000000e+00    0,000000000e+00
      646000000   -4,260204732e-02    2,599618956e-02   -3,180280626e-01    5,556379557e-01    0,000000000e+00    0,000000000e+00    0,000000000e+00    0,000000000e+00
      660000000   -7,323797792e-03    6,499738898e-03    2,199575491e-02    6,298235655e-01    0,000000000e+00    0,000000000e+00    0,000000000e+00    0,000000000e+00
      674000000    6,526493817e-04   -2,969652414e-02    3,422611356e-01    5,193848610e-01    0,000000000e+00    0,000000000e+00    0,000000000e+00    0,000000000e+00
      688000000   -1,522053778e-02   -5,578966439e-02    5,591560006e-01    2,586772442e-01    0,000000000e+00    0,000000000e+00    0,000000000e+00    0,000000000e+00
      702000000   -3,358690068e-02   -5,967661366e-02    6,032246947e-01   -8,025806397e-02    0,000000000e+00    0,000000000e+00    0,000000000e+00    0,000000000e+00
      716000000   -3,700878844e-02   -5,518335849e-02    4,592824280e-01   -3,902124763e-01    0,000000000e+00    0,000000000e+00    0,000000000e+00    0,000000000e+00
      730000000   -3,270413727e-02   -6,525039673e-02    1,739866734e-01   -5,663005114e-01    0,000000000e+00    0,000000000e+00    0,000000000e+00    0,000000000e+00
      744000000   -4,069630429e-02   -8,899617940e-02   -1,527851820e-01   -5,630738735e-01    0,000000000e+00    0,000000000e+00    0,000000000e+00    0,000000000e+00
      758000000   -7,198110223e-02   -1,052346751e-01   -4,273052812e-01   -3,944391310e-01    0,000000000e+00    0,000000000e+00    0,000000000e+00    0,000000000e+00
      772000000   -1,134338677e-01   -9,370760620e-02   -5,746263862e-01   -1,059291437e-01    0,000000000e+00    0,000000000e+00    0,000000000e+00    0,000000000e+00
      786000000   -1,385791600e-01   -5,561337247e-02   -5,445713401e-01    2,206318378e-01    0,000000000e+00    0,000000000e+00    0,000000000e+00    0,000000000e+00
      800000000   -1,333264560e-01   -1,440512575e-02   -3,412168920e-01    4,790689647e-01    0,000000000e+00    0,000000000e+00    0,000000000e+00    0,000000000e+00
      814000000   -1,077261791e-01    8,439433761e-03   -3,397327662e-02    5,858279467e-01    0,000000000e+00    0,000000000e+00    0,000000000e+00    0,000000000e+00
      828000000   -8,567378670e-02    1,314719114e-02    2,777353525e-01    5,148987770e-01    0,000000000e+00    0,000000000e+00    0,000000000e+00    0,000000000e+00
      842000000   -7,113964856e-02    1,498237345e-02    5,024095774e-01    2,890746593e-01    0,000000000e+00    0,000000000e+00    0,000000000e+00    0,000000000e+00
      856000000   -5,201089010e-02    1,967201196e-02    5,708382130e-01   -1,795873046e-02    0,000000000e+00    0,000000000e+00    0,000000000e+00    0,000000000e+00
      870000000   -2,297279984e-02    1,482645795e-02    4,636906981e-01   -3,056278229e-01    0,000000000e+00    0,000000000e+00    0,000000000e+00    0,000000000e+00
      884000000    6,456676871e-03   -1,411957480e-02    2,303933799e-01   -4,873543978e-01    0,000000000e+00    0,000000000e+00    0,000000000e+00    0,000000000e+00
      898000000    1,222237479e-02   -6,400131434e-02   -5,205181614e-02   -5,269798636e-01    0,000000000e+00    0,000000000e+00    0,000000000e+00    0,000000000e+00
      912000000   -2,276909724e-02   -1,081561968e-01   -3,660720587e-01   -3,989754915e-01    0,000000000e+00    0,000000000e+00    0,000000000e+00    0,000000000e+00
      926000000   -7,422089577e-02   -1,225684807e-01   -5,285795331e-01   -1,577571183e-01    0,000000000e+00    0,000000000e+00    0,000000000e+00    0,000000000e+00
      940000000   -1,238773018e-01   -1,012480929e-01   -5,529618263e-01    1,555477083e-01    0,000000000e+00    0,000000000e+00    0,000000000e+00    0,000000000e+00
      954000000   -1,448010057e-01   -6,213612482e-02   -3,937898576e-01    4,482932985e-01    0,000000000e+00    0,000000000e+00    0,000000000e+00    0,000000000e+00
      968000000   -1,293619722e-01   -2,692504041e-02   -9,317861497e-02    6,036130190e-01    0,000000000e+00    0,000000000e+00    0,000000000e+00    0,000000000e+00
      982000000   -1,157939360e-01   -1,347146370e-02    2,428621054e-01    5,720313191e-01    0,000000000e+00    0,000000000e+00    0,000000000e+00    0,000000000e+00
      996000000   -1,090159416e-01   -1,231502648e-02    5,134239197e-01    3,664298952e-01    0,000000000e+00    0,000000000e+00    0,000000000e+00    0,000000000e+00
     1010000000   -1,049587429e-01   -7,929192856e-03    6,289407015e-01    5,216776207e-02    0,000000000e+00    0,000000000e+00    0,000000000e+00    0,000000000e+00
     1024000000   -9,230544418e-02    3,284428734e-03    5,614534020e-01   -2,728476226e-01    0,000000000e+00    0,000000000e+00    0,000000000e+00    0,000000000e+00
     1038000000   -7,731420547e-02    1,507482026e-03    3,387914002e-01   -5,036752224e-01    0,000000000e+00    0,000000000e+00    0,000000000e+00    0,000000000e+00
     1052000000   -6,748650223e-02   -1,700478047e-02    3,631660342e-02   -5,864456892e-01    0,000000000e+00    0,000000000e+00    0,000000000e+00    0,000000000e+00
     1066000000   -7,098507881e-02   -3,397028521e-02   -2,692353725e-01   -5,023072958e-01    0,000000000e+00    0,000000000e+00    0,000000000e+00    0,000000000e+00
     1080000000   -8,123455197e-02   -3,351162001e-02   -4,801617861e-01   -2,723686397e-01    0,000000000e+00    0,000000000e+00    0,000000000e+00    0,000000000e+00
     1094000000   -7,993208617e-02   -1,769551076e-02   -5,307115316e-01    4,177670181e-02    0,000000000e+00    0,000000000e+00    0,000000000e+00    0,000000000e+00
     1108000000   -5,539314449e-02   -7,703744806e-03   -3,984102309e-01    3,244954944e-01    0,000000000e+00    0,000000000e+00    0,000000000e+00    0,000000000e+00
     1122000000   -3,242726251e-02   -3,269142285e-02   -1,360283792e-01    4,813032150e-01    0,000000000e+00    0,000000000e+00    0,000000000e+00    0,000000000e+00
     1136000000   -3,059267439e-02   -8,631159365e-02    1,629224718e-01    4,736615121e-01    0,000000000e+00    0,000000000e+00    0,000000000e+00    0,000000000e+00
     1150000000   -6,707260013e-02   -1,383155137e-01    4,192181528e-01    3,140706122e-01    0,000000000e+00    0,000000000e+00    0,000000000e+00    0,000000000e+00
     1164000000   -1,345399022e-01   -1,533961594e-01    5,664171576e-01    2,511923946e-02    0,000000000e+00    0,000000000e+00    0,000000000e+00    0,000000000e+00
     1178000000   -2,084851563e-01   -1,180204153e-01    5,332186818e-01   -3,149020672e-01    0,000000000e+00    0,000000000e+00    0,000000000e+00    0,000000000e+00
     1192000000   -2,470726222e-01   -4,708853737e-02    2,947876453e-01   -6,014603376e-01    0,000000000e+00    0,000000000e+00    0,000000000e+00    0,000000000e+00
     1206000000   -2,387272269e-01    3,393907472e-02   -6,877643615e-02   -6,999661326e-01    0,000000000e+00    0,000000000e+00    0,000000000e+00    0,000000000e+00
     1220000000   -1,904184967e-01    8,243308961e-02   -4,200344086e-01   -5,795935392e-01    0,000000000e+00    0,000000000e+00    0,000000000e+00    0,000000000e+00
     1234000000   -1,277009249e-01    9,899201244e-02   -6,455296874e-01   -2,925565541e-01    0,000000000e+00    0,000000000e+00    0,000000000e+00    0,000000000e+00
     1248000000   -6,319005042e-02    9,806068987e-02   -6,702330709e-01    6,540832669e-02    0,000000000e+00    0,000000000e+00    0,000000000e+00    0,000000000e+00
     1262000000   -1,324582100e-02    6,505680084e-02   -5,121338964e-01    3,695024252e-01    0,000000000e+00    0,000000000e+00    0,000000000e+00    0,000000000e+00
     1276000000    2,450788766e-02   -8,079499938e-03   -2,430322170e-01    5,445579290e-01    0,000000000e+00    0,000000000e+00    0,000000000e+00    0,000000000e+00
     1290000000    2,396189235e-02   -8,950066566e-02    7,215159386e-02    5,773468018e-01    0,000000000e+00    0,000000000e+00    0,000000000e+00    0,000000000e+00
     1304000000   -3,379191086e-02   -1,737631708e-01    3,652553260e-01    4,656148255e-01    0,000000000e+00    0,000000000e+00    0,000000000e+00    0,000000000e+00
     1318000000   -1,343380213e-01   -2,133558393e-01    5,845349431e-01    2,268042266e-01    0,000000000e+00    0,000000000e+00    0,000000000e+00    0,000000000e+00
     1332000000   -2,536877096e-01   -1,902718097e-01    6,471959352e-01   -1,199286878e-01    0,000000000e+00    0,000000000e+00    0,000000000e+00    0,000000000e+00
     1346000000   -3,319180310e-01   -9,353744239e-02    5,021477938e-01   -4,671690166e-01    0,000000000e+00    0,000000000e+00    0,000000000e+00    0,000000000e+00
     1360000000   -3,386556208e-01    2,330019698e-02    1,840269119e-01   -6,480483413e-01    0,000000000e+00    0,000000000e+00    0,000000000e+00    0,000000000e+00
     1374000000   -2,781923115e-01    1,051678509e-01   -1,542505622e-01   -6,031921506e-01    0,000000000e+00    0,000000000e+00    0,000000000e+00    0,000000000e+00
     1388000000   -2,102624178e-01    1,434335262e-01   -3,945064843e-01   -3,738979995e-01    0,000000000e+00    0,000000000e+00    0,000000000e+00    0,000000000e+00
     1402000000   -1,522518843e-01    1,423475146e-01   -4,843737483e-01   -6,229975447e-02    0,000000000e+00    0,000000000e+00    0,000000000e+00    0,000000000e+00
     1416000000   -9,983001649e-02    1,172342449e-01   -3,815474808e-01    2,456688881e-01    0,000000000e+00    0,000000000e+00    0,000000000e+00    0,000000000e+00
     1430000000   -5,063224956e-02    7,075673342e-02   -1,256437600e-01    4,467401206e-01    0,000000000e+00    0,000000000e+00    0,000000000e+00    0,000000000e+00
     1444000000   -3,799237683e-02    1,770206727e-03    1,461023539e-01    5,317546129e-01    0,000000000e+00    0,000000000e+00    0,000000000e+00    0,000000000e+00
     1458000000   -6,163437292e-02   -6,797635555e-02    4,898044169e-01    4,818989635e-01    0,000000000e+00    0,000000000e+00    0,000000000e+00    0,000000000e+00
     1472000000   -1,381525248e-01   -1,261579394e-01    7,702714205e-01    2,505249381e-01    0,000000000e+00    0,000000000e+00    0,000000000e+00    0,000000000e+00
     1486000000   -2,313436717e-01   -1,127766147e-01    8,925601244e-01   -9,248904884e-02    0,000000000e+00    0,000000000e+00    0,000000000e+00    0,000000000e+00
     1500000000   -2,863752544e-01   -4,388324171e-02    7,975909114e-01   -4,382751584e-01    0,000000000e+00    0,000000000e+00    0,000000000e+00    0,000000000e+00
