! NanoVNA-App
! Date: 2025-09-25 15:06:14
! Start: 100MHz Stop: 1,5GHz Points: 101
! S-Parameter data: F S11 S21 S12 S22
# Hz S RI R 50
!     Frequency           S11_Real           S11_Imag           S21_Real           S21_Imag           S12_Real           S12_Imag           S22_Real           S22_Imag
      100000000    3,116891347e-02    2,864844352e-02    4,348990023e-01   -6,686731577e-01    0,000000000e+00    0,000000000e+00    0,000000000e+00    0,000000000e+00
      114000000    5,759418756e-02    5,497838371e-03    7,750173099e-03   -7,908979654e-01    0,000000000e+00    0,000000000e+00    0,000000000e+00    0,000000000e+00
      128000000    6,731186807e-02   -3,782247379e-02   -4,102167189e-01   -6,711971164e-01    0,000000000e+00    0,000000000e+00    0,000000000e+00    0,000000000e+00
      142000000    4,474157095e-02   -8,419554681e-02   -7,031952143e-01   -3,533741236e-01    0,000000000e+00    0,000000000e+00    0,000000000e+00    0,000000000e+00
      156000000   -5,771084689e-03   -1,066624522e-01   -7,866772413e-01    7,390174270e-02    0,000000000e+00    0,000000000e+00    0,000000000e+00    0,000000000e+00
      170000000   -5,764894560e-02   -9,059904516e-02   -6,277083158e-01    4,870248735e-01    0,000000000e+00    0,000000000e+00    0,000000000e+00    0,000000000e+00
      184000000   -8,369391412e-02   -4,942499846e-02   -2,647292316e-01    7,507615685e-01    0,000000000e+00    0,000000000e+00    0,000000000e+00    0,000000000e+00
      198000000   -7,963065803e-02   -1,047130860e-02    1,834609360e-01    7,729781270e-01    0,000000000e+00    0,000000000e+00    0,000000000e+00    0,000000000e+00
      212000000   -6,227610260e-02    1,315958891e-02    5,692341328e-01    5,491282940e-01    0,000000000e+00    0,000000000e+00    0,000000000e+00    0,000000000e+00
      226000000   -4,321387038e-02    2,768874727e-02    7,706784606e-01    1,543990821e-01    0,000000000e+00    0,000000000e+00    0,000000000e+00    0,000000000e+00
      240000000   -1,820867509e-02    3,849551082e-02    7,267581820e-01   -2,821145058e-01    0,000000000e+00    0,000000000e+00    0,000000000e+00    0,000000000e+00
      254000000    1,720760576e-02    3,515560180e-02    4,578645229e-01   -6,203501821e-01    0,000000000e+00    0,000000000e+00    0,000000000e+00    0,000000000e+00
      268000000    4,885066301e-02    5,592465401e-03    5,853292719e-02   -7,602030039e-01    0,000000000e+00    0,000000000e+00    0,000000000e+00    0,000000000e+00
      282000000    5,343021452e-02   -4,181820527e-02   -3,492037058e-01   -6,714424491e-01    0,000000000e+00    0,000000000e+00    0,000000000e+00    0,000000000e+00
      296000000    2,404793166e-02   -7,961547375e-02   -6,519933939e-01   -3,854880333e-01    0,000000000e+00    0,000000000e+00    0,000000000e+00    0,000000000e+00
      310000000   -1,793316193e-02   -8,299599588e-02   -7,623495460e-01    2,120428160e-02    0,000000000e+00    0,000000000e+00    0,000000000e+00    0,000000000e+00
      324000000   -4,159353301e-02   -5,884480476e-02   -6,318213940e-01    4,315585792e-01    0,000000000e+00    0,000000000e+00    0,000000000e+00    0,000000000e+00
      338000000   -3,442800790e-02   -3,727344796e-02   -2,954845726e-01    7,017948627e-01    0,000000000e+00    0,000000000e+00    0,000000000e+00    0,000000000e+00
      352000000   -1,738282852e-02   -4,067361727e-02    1,250481308e-01    7,423884869e-01    0,000000000e+00    0,000000000e+00    0,000000000e+00    0,000000000e+00
      366000000   -1,904172823e-02   -6,167218834e-02    4,977332354e-01    5,544803739e-01    0,000000000e+00    0,000000000e+00    0,000000000e+00    0,000000000e+00
      380000000   -4,437293857e-02   -7,251306623e-02    7,139515877e-01    2,004542649e-01    0,000000000e+00    0,000000000e+00    0,000000000e+00    0,000000000e+00
      394000000   -7,066158205e-02   -5,811768398e-02    7,036694288e-01   -2,166420668e-01    0,000000000e+00    0,000000000e+00    0,000000000e+00    0,000000000e+00
      408000000   -7,709074020e-02   -3,058344871e-02    4,702923894e-01   -5,603882670e-01    0,000000000e+00    0,000000000e+00    0,000000000e+00    0,000000000e+00
      422000000   -6,542538851e-02   -1,097969711e-02    9,282160550e-02   -7,180918455e-01    0,000000000e+00    0,000000000e+00    0,000000000e+00    0,000000000e+00
      436000000   -5,280368775e-02   -4,634519573e-03   -3,022586107e-01   -6,475263834e-01    0,000000000e+00    0,000000000e+00    0,000000000e+00    0,000000000e+00
      450000000   -4,454212636e-02    1,986799063e-03   -5,931617022e-01   -3,781718016e-01    0,000000000e+00    0,000000000e+00    0,000000000e+00    0,000000000e+00
      464000000   -2,945000306e-02    1,175482571e-02   -6,912349463e-01    6,376033416e-04    0,000000000e+00    0,000000000e+00    0,000000000e+00    0,000000000e+00
      478000000   -5,674805143e-04    1,112515759e-02   -5,727398396e-01    3,632983267e-01    0,000000000e+00    0,000000000e+00    0,000000000e+00    0,000000000e+00
      492000000    2,788764238e-02   -1,257555466e-02   -2,894131541e-01    6,021243930e-01    0,000000000e+00    0,000000000e+00    0,000000000e+00    0,000000000e+00
      506000000    3,617680445e-02   -5,615935102e-02    6,947330385e-02    6,576061845e-01    0,000000000e+00    0,000000000e+00    0,000000000e+00    0,000000000e+00
      520000000    1,219281554e-02   -9,852506220e-02    3,990435302e-01    5,236962438e-01    0,000000000e+00    0,000000000e+00    0,000000000e+00    0,000000000e+00
      534000000   -3,415578976e-02   -1,163633987e-01    6,237453818e-01    2,361888140e-01    0,000000000e+00    0,000000000e+00    0,000000000e+00    0,000000000e+00
      548000000   -7,720389962e-02   -9,917616844e-02    6,582114100e-01   -1,334715933e-01    0,000000000e+00    0,000000000e+00    0,000000000e+00    0,000000000e+00
      562000000   -9,337187558e-02   -6,578011066e-02    4,819199741e-01   -4,668427408e-01    0,000000000e+00    0,000000000e+00    0,000000000e+00    0,000000000e+00
      576000000   -8,616743237e-02   -4,475641623e-02    1,496845484e-01   -6,480324864e-01    0,000000000e+00    0,000000000e+00    0,000000000e+00    0,000000000e+00
      590000000   -8,064109832e-02   -4,166797176e-02   -2,207861543e-01   -6,297442913e-01    0,000000000e+00    0,000000000e+00    0,000000000e+00    0,000000000e+00
      604000000   -8,877400309e-02   -3,706741706e-02   -5,206947923e-01   -4,062435329e-01    0,000000000e+00    0,000000000e+00    0,000000000e+00    0,000000000e+00
      618000000   -9,685513377e-02   -1,520569343e-02   -6,530427337e-01   -5,835273862e-02    0,000000000e+00    0,000000000e+00    0,000000000e+00    0,000000000e+00
      632000000   -8,051548898e-02    1,503477897e-02   -5,751248598e-01    3,027355969e-01    0,000000000e+00    0,000000000e+00    0,000000000e+00    0,000000000e+00
      646000000   -4,286547378e-02    2,681342326e-02   -3,193880916e-01    5,557787418e-01    0,000000000e+00    0,000000000e+00    0,000000000e+00    0,000000000e+00
      660000000   -7,330392487e-03    5,737515632e-03    2,099288814e-02    6,292856932e-01    0,000000000e+00    0,000000000e+00    0,000000000e+00    0,000000000e+00
      674000000    1,446817769e-03   -2,946683951e-02    3,415564597e-01    5,181182623e-01    0,000000000e+00    0,000000000e+00    0,000000000e+00    0,000000000e+00
      688000000   -1,480105240e-02   -5,608360469e-02    5,587366819e-01    2,583003044e-01    0,000000000e+00    0,000000000e+00    0,000000000e+00    0,000000000e+00
      702000000   -3,295129165e-02   -5,922034383e-02    6,051716805e-01   -8,222883195e-02    0,000000000e+00    0,000000000e+00    0,000000000e+00    0,000000000e+00
      716000000   -3,607552126e-02   -5,556210130e-02    4,596768022e-01   -3,896806538e-01    0,000000000e+00    0,000000000e+00    0,000000000e+00    0,000000000e+00
      730000000   -3,124197200e-02   -6,473067403e-02    1,741594821e-01   -5,664680600e-01    0,000000000e+00    0,000000000e+00    0,000000000e+00    0,000000000e+00
      744000000   -4,047239572e-02   -8,918688446e-02   -1,530664414e-01   -5,635269284e-01    0,000000000e+00    0,000000000e+00    0,000000000e+00    0,000000000e+00
      758000000   -7,190551609e-02   -1,053448394e-01   -4,269015789e-01   -3,949988484e-01    0,000000000e+00    0,000000000e+00    0,000000000e+00    0,000000000e+00
      772000000   -1,137827560e-01   -9,374161065e-02   -5,744211674e-01   -1,059219316e-01    0,000000000e+00    0,000000000e+00    0,000000000e+00    0,000000000e+00
      786000000   -1,389907748e-01   -5,544481799e-02   -5,453590155e-01    2,207418680e-01    0,000000000e+00    0,000000000e+00    0,000000000e+00    0,000000000e+00
      800000000   -1,332906485e-01   -1,392784901e-02   -3,415473700e-01    4,793471992e-01    0,000000000e+00    0,000000000e+00    0,000000000e+00    0,000000000e+00
      814000000   -1,084950790e-01    8,297124878e-03   -3,463225439e-02    5,856617689e-01    0,000000000e+00    0,000000000e+00    0,000000000e+00    0,000000000e+00
      828000000   -8,535615355e-02    1,414613612e-02    2,785049975e-01    5,147528648e-01    0,000000000e+00    0,000000000e+00    0,000000000e+00    0,000000000e+00
      842000000   -7,079149783e-02    1,483262796e-02    5,030710101e-01    2,889400423e-01    0,000000000e+00    0,000000000e+00    0,000000000e+00    0,000000000e+00
      856000000   -5,214809254e-02    1,954081655e-02    5,707792044e-01   -1,810988411e-02    0,000000000e+00    0,000000000e+00    0,000000000e+00    0,000000000e+00
      870000000   -2,286557853e-02    1,448207255e-02    4,637963772e-01   -3,064991832e-01    0,000000000e+00    0,000000000e+00    0,000000000e+00    0,000000000e+00
      884000000    6,357256789e-03   -1,464109123e-02    2,308455408e-01   -4,874689877e-01    0,000000000e+00    0,000000000e+00    0,000000000e+00    0,000000000e+00
      898000000    1,148444507e-02   -6,310271472e-02   -5,231135711e-02   -5,263612866e-01    0,000000000e+00    0,000000000e+00    0,000000000e+00    0,000000000e+00
      912000000   -2,412188798e-02   -1,078380868e-01   -3,588048518e-01   -4,108770192e-01    0,000000000e+00    0,000000000e+00    0,000000000e+00    0,000000000e+00
      926000000   -7,648941875e-02   -1,235442534e-01   -5,325846672e-01   -1,571114361e-01    0,000000000e+00    0,000000000e+00    0,000000000e+00    0,000000000e+00
      940000000   -1,246171296e-01   -1,032988280e-01   -5,500718355e-01    1,557586342e-01    0,000000000e+00    0,000000000e+00    0,000000000e+00    0,000000000e+00
      954000000   -1,405232549e-01   -6,309619546e-02   -3,918029070e-01    4,439092577e-01    0,000000000e+00    0,000000000e+00    0,000000000e+00    0,000000000e+00
      968000000   -1,290979683e-01   -2,900087647e-02   -8,970959485e-02    6,025534868e-01    0,000000000e+00    0,000000000e+00    0,000000000e+00    0,000000000e+00
      982000000   -1,162210628e-01   -1,712490804e-02    2,469926625e-01    5,740686059e-01    0,000000000e+00    0,000000000e+00    0,000000000e+00    0,000000000e+00
      996000000   -1,043917462e-01   -1,269317698e-02    5,129160285e-01    3,674156070e-01    0,000000000e+00    0,000000000e+00    0,000000000e+00    0,000000000e+00
     1010000000   -1,012535095e-01   -1,088633854e-02    6,293671131e-01    5,324843526e-02    0,000000000e+00    0,000000000e+00    0,000000000e+00    0,000000000e+00
     1024000000   -9,517543763e-02    4,876398598e-04    5,603585839e-01   -2,695609331e-01    0,000000000e+00    0,000000000e+00    0,000000000e+00    0,000000000e+00
     1038000000   -7,747091353e-02   -4,869534634e-03    3,409128189e-01   -5,033566356e-01    0,000000000e+00    0,000000000e+00    0,000000000e+00    0,000000000e+00
     1052000000   -6,397891790e-02   -1,808448136e-02    3,297488391e-02   -5,844920874e-01    0,000000000e+00    0,000000000e+00    0,000000000e+00    0,000000000e+00
     1066000000   -7,169720531e-02   -2,852354199e-02   -2,647722661e-01   -5,006039143e-01    0,000000000e+00    0,000000000e+00    0,000000000e+00    0,000000000e+00
     1080000000   -8,469783515e-02   -3,255777806e-02   -4,804182053e-01   -2,699083388e-01    0,000000000e+00    0,000000000e+00    0,000000000e+00    0,000000000e+00
     1094000000   -7,775394619e-02   -1,906695776e-02   -5,325893760e-01    4,131972417e-02    0,000000000e+00    0,000000000e+00    0,000000000e+00    0,000000000e+00
     1108000000   -5,379374325e-02   -1,109874528e-02   -3,983264863e-01    3,250352442e-01    0,000000000e+00    0,000000000e+00    0,000000000e+00    0,000000000e+00
     1122000000   -3,328021988e-02   -3,277402744e-02   -1,356349885e-01    4,843877256e-01    0,000000000e+00    0,000000000e+00    0,000000000e+00    0,000000000e+00
     1136000000   -3,143697977e-02   -8,474610001e-02    1,624750942e-01    4,745491743e-01    0,000000000e+00    0,000000000e+00    0,000000000e+00    0,000000000e+00
     1150000000   -6,820554286e-02   -1,371337324e-01    4,196149707e-01    3,142718077e-01    0,000000000e+00    0,000000000e+00    0,000000000e+00    0,000000000e+00
     1164000000   -1,380109489e-01   -1,492514610e-01    5,631942153e-01    2,479439229e-02    0,000000000e+00    0,000000000e+00    0,000000000e+00    0,000000000e+00
     1178000000   -2,086446583e-01   -1,158088446e-01    5,294737816e-01   -3,177908659e-01    0,000000000e+00    0,000000000e+00    0,000000000e+00    0,000000000e+00
     1192000000   -2,458802760e-01   -4,331798479e-02    2,941609323e-01   -5,964897275e-01    0,000000000e+00    0,000000000e+00    0,000000000e+00    0,000000000e+00
     1206000000   -2,307666391e-01    3,407493979e-02   -6,679916382e-02   -6,970755458e-01    0,000000000e+00    0,000000000e+00    0,000000000e+00    0,000000000e+00
     1220000000   -1,833169460e-01    7,879275829e-02   -4,203556180e-01   -5,805526972e-01    0,000000000e+00    0,000000000e+00    0,000000000e+00    0,000000000e+00
     1234000000   -1,306666583e-01    1,035037935e-01   -6,481206417e-01   -2,899277806e-01    0,000000000e+00    0,000000000e+00    0,000000000e+00    0,000000000e+00
     1248000000   -7,066076249e-02    9,279023111e-02   -6,765360832e-01    6,492974609e-02    0,000000000e+00    0,000000000e+00    0,000000000e+00    0,000000000e+00
     1262000000   -1,037154719e-02    6,109959632e-02   -5,191192627e-01    3,691380322e-01    0,000000000e+00    0,000000000e+00    0,000000000e+00    0,000000000e+00
     1276000000    1,923516952e-02   -5,995283835e-03   -2,462621182e-01    5,451207757e-01    0,000000000e+00    0,000000000e+00    0,000000000e+00    0,000000000e+00
     1290000000    2,271152474e-02   -8,689773828e-02    7,170167565e-02    5,749746561e-01    0,000000000e+00    0,000000000e+00    0,000000000e+00    0,000000000e+00
     1304000000   -3,597483039e-02   -1,705890000e-01    3,640510440e-01    4,710749090e-01    0,000000000e+00    0,000000000e+00    0,000000000e+00    0,000000000e+00
     1318000000   -1,335047930e-01   -2,118907422e-01    5,896876454e-01    2,215687931e-01    0,000000000e+00    0,000000000e+00    0,000000000e+00    0,000000000e+00
     1332000000   -2,496566623e-01   -1,935330480e-01    6,621633172e-01   -1,292445362e-01    0,000000000e+00    0,000000000e+00    0,000000000e+00    0,000000000e+00
     1346000000   -3,269949555e-01   -9,378254414e-02    5,046412945e-01   -4,653043449e-01    0,000000000e+00    0,000000000e+00    0,000000000e+00    0,000000000e+00
     1360000000   -3,365670443e-01    2,523695119e-02    1,922201514e-01   -6,397393346e-01    0,000000000e+00    0,000000000e+00    0,000000000e+00    0,000000000e+00
     1374000000   -2,749471962e-01    1,005739346e-01   -1,558340341e-01   -6,068302393e-01    0,000000000e+00    0,000000000e+00    0,000000000e+00    0,000000000e+00
     1388000000   -2,105104774e-01    1,333917081e-01   -4,014593959e-01   -3,778321147e-01    0,000000000e+00    0,000000000e+00    0,000000000e+00    0,000000000e+00
     1402000000   -1,485510170e-01    1,405640543e-01   -4,826598465e-01   -5,646403134e-02    0,000000000e+00    0,000000000e+00    0,000000000e+00    0,000000000e+00
     1416000000   -9,661141783e-02    1,161751002e-01   -3,757608533e-01    2,499809712e-01    0,000000000e+00    0,000000000e+00    0,000000000e+00    0,000000000e+00
     1430000000   -5,494632572e-02    7,184325904e-02   -1,192201823e-01    4,502797425e-01    0,000000000e+00    0,000000000e+00    0,000000000e+00    0,000000000e+00
     1444000000   -3,937331587e-02   -1,337424386e-03    1,620959938e-01    5,353170037e-01    0,000000000e+00    0,000000000e+00    0,000000000e+00    0,000000000e+00
     1458000000   -6,643768400e-02   -7,433258742e-02    4,951593578e-01    4,782280922e-01    0,000000000e+00    0,000000000e+00    0,000000000e+00    0,000000000e+00
     1472000000   -1,399951875e-01   -1,253128499e-01    7,456919551e-01    2,488887012e-01    0,000000000e+00    0,000000000e+00    0,000000000e+00    0,000000000e+00
     1486000000   -2,316135764e-01   -1,136553958e-01    8,916750550e-01   -7,266500592e-02    0,000000000e+00    0,000000000e+00    0,000000000e+00    0,000000000e+00
     1500000000   -2,920628786e-01   -4,683314636e-02    7,919718027e-01   -4,563034177e-01    0,000000000e+00    0,000000000e+00    0,000000000e+00    0,000000000e+00
