! NanoVNA-App
! Date: 2025-09-25 15:11:03
! Start: 100MHz Stop: 1,5GHz Points: 101
! S-Parameter data: F S11 S21 S12 S22
# Hz S RI R 50
!     Frequency           S11_Real           S11_Imag           S21_Real           S21_Imag           S12_Real           S12_Imag           S22_Real           S22_Imag
      100000000    3,116317652e-02    2,862934582e-02    4,348734319e-01   -6,685666442e-01    0,000000000e+00    0,000000000e+00    0,000000000e+00    0,000000000e+00
      114000000    5,758141354e-02    5,489168689e-03    7,787923794e-03   -7,909944057e-01    0,000000000e+00    0,000000000e+00    0,000000000e+00    0,000000000e+00
      128000000    6,729504466e-02   -3,784405813e-02   -4,101459980e-01   -6,710433960e-01    0,000000000e+00    0,000000000e+00    0,000000000e+00    0,000000000e+00
      142000000    4,473311082e-02   -8,422855288e-02   -7,028023005e-01   -3,534217775e-01    0,000000000e+00    0,000000000e+00    0,000000000e+00    0,000000000e+00
      156000000   -6,123560015e-03   -1,058429182e-01   -7,855978608e-01    7,260736823e-02    0,000000000e+00    0,000000000e+00    0,000000000e+00    0,000000000e+00
      170000000   -5,764814094e-02   -9,051815420e-02   -6,277154088e-01    4,868502617e-01    0,000000000e+00    0,000000000e+00    0,000000000e+00    0,000000000e+00
      184000000   -8,371498436e-02   -4,949944094e-02   -2,649376988e-01    7,510952950e-01    0,000000000e+00    0,000000000e+00    0,000000000e+00    0,000000000e+00
      198000000   -7,964516431e-02   -1,045558322e-02    1,834367216e-01    7,730593681e-01    0,000000000e+00    0,000000000e+00    0,000000000e+00    0,000000000e+00
      212000000   -6,226765737e-02    1,312353462e-02    5,690850616e-01    5,489534140e-01    0,000000000e+00    0,000000000e+00    0,000000000e+00    0,000000000e+00
      226000000   -4,327026382e-02    2,764279582e-02    7,706907988e-01    1,546303034e-01    0,000000000e+00    0,000000000e+00    0,000000000e+00    0,000000000e+00
      240000000   -1,825332828e-02    3,847258911e-02    7,269183993e-01   -2,817775607e-01    0,000000000e+00    0,000000000e+00    0,000000000e+00    0,000000000e+00
      254000000    1,718152314e-02    3,519853950e-02    4,581918120e-01   -6,197453141e-01    0,000000000e+00    0,000000000e+00    0,000000000e+00    0,000000000e+00
      268000000    4,879069328e-02    5,626565777e-03    5,904403701e-02   -7,600958347e-01    0,000000000e+00    0,000000000e+00    0,000000000e+00    0,000000000e+00
      282000000    5,346771702e-02   -4,186503217e-02   -3,490117192e-01   -6,718353629e-01    0,000000000e+00    0,000000000e+00    0,000000000e+00    0,000000000e+00
      296000000    2,413340658e-02   -7,960645109e-02   -6,519382596e-01   -3,853757679e-01    0,000000000e+00    0,000000000e+00    0,000000000e+00    0,000000000e+00
      310000000   -1,783602126e-02   -8,316995949e-02   -7,622625828e-01    2,008914575e-02    0,000000000e+00    0,000000000e+00    0,000000000e+00    0,000000000e+00
      324000000   -4,164415970e-02   -5,871312693e-02   -6,322111487e-01    4,308077097e-01    0,000000000e+00    0,000000000e+00    0,000000000e+00    0,000000000e+00
      338000000   -3,411171958e-02   -3,677861765e-02   -2,965300977e-01    6,994869709e-01    0,000000000e+00    0,000000000e+00    0,000000000e+00    0,000000000e+00
      352000000   -1,726969332e-02   -4,068300128e-02    1,253670156e-01    7,422529459e-01    0,000000000e+00    0,000000000e+00    0,000000000e+00    0,000000000e+00
      366000000   -1,920539327e-02   -6,206551939e-02    4,981848001e-01    5,560848713e-01    0,000000000e+00    0,000000000e+00    0,000000000e+00    0,000000000e+00
      380000000   -4,434006289e-02   -7,249304652e-02    7,131141424e-01    2,000818998e-01    0,000000000e+00    0,000000000e+00    0,000000000e+00    0,000000000e+00
      394000000   -7,073292881e-02   -5,803323165e-02    7,043317556e-01   -2,165691853e-01    0,000000000e+00    0,000000000e+00    0,000000000e+00    0,000000000e+00
      408000000   -7,688494027e-02   -3,047177568e-02    4,709502757e-01   -5,599171519e-01    0,000000000e+00    0,000000000e+00    0,000000000e+00    0,000000000e+00
      422000000   -6,557865441e-02   -1,130761299e-02    9,286139160e-02   -7,175222039e-01    0,000000000e+00    0,000000000e+00    0,000000000e+00    0,000000000e+00
      436000000   -5,275490135e-02   -4,686857574e-03   -3,023561537e-01   -6,482415199e-01    0,000000000e+00    0,000000000e+00    0,000000000e+00    0,000000000e+00
      450000000   -4,469764978e-02    1,800231868e-03   -5,934370756e-01   -3,785293102e-01    0,000000000e+00    0,000000000e+00    0,000000000e+00    0,000000000e+00
      464000000   -2,932058834e-02    1,101306267e-02   -6,910596490e-01   -2,430408058e-04    0,000000000e+00    0,000000000e+00    0,000000000e+00    0,000000000e+00
      478000000   -9,060822777e-04    1,116201095e-02   -5,735371709e-01    3,630726337e-01    0,000000000e+00    0,000000000e+00    0,000000000e+00    0,000000000e+00
      492000000    2,802946605e-02   -1,191976201e-02   -2,898565233e-01    6,017498970e-01    0,000000000e+00    0,000000000e+00    0,000000000e+00    0,000000000e+00
      506000000    3,641442582e-02   -5,606579408e-02    6,902714074e-02    6,579880118e-01    0,000000000e+00    0,000000000e+00    0,000000000e+00    0,000000000e+00
      520000000    1,267781015e-02   -9,823516756e-02    4,023867548e-01    5,259642601e-01    0,000000000e+00    0,000000000e+00    0,000000000e+00    0,000000000e+00
      534000000   -3,463313356e-02   -1,161673442e-01    6,235386133e-01    2,364368588e-01    0,000000000e+00    0,000000000e+00    0,000000000e+00    0,000000000e+00
      548000000   -7,713524997e-02   -9,910235554e-02    6,579192877e-01   -1,328217387e-01    0,000000000e+00    0,000000000e+00    0,000000000e+00    0,000000000e+00
      562000000   -9,364870936e-02   -6,588505208e-02    4,813945591e-01   -4,667747021e-01    0,000000000e+00    0,000000000e+00    0,000000000e+00    0,000000000e+00
      576000000   -8,614988625e-02   -4,459733143e-02    1,507475376e-01   -6,481566429e-01    0,000000000e+00    0,000000000e+00    0,000000000e+00    0,000000000e+00
      590000000   -8,054801077e-02   -4,155712947e-02   -2,193199992e-01   -6,288060546e-01    0,000000000e+00    0,000000000e+00    0,000000000e+00    0,000000000e+00
      604000000   -8,927010000e-02   -3,721747547e-02   -5,196542144e-01   -4,061642289e-01    0,000000000e+00    0,000000000e+00    0,000000000e+00    0,000000000e+00
      618000000   -9,677775949e-02   -1,546632033e-02   -6,535723209e-01   -5,852648988e-02    0,000000000e+00    0,000000000e+00    0,000000000e+00    0,000000000e+00
      632000000   -8,067235351e-02    1,549221389e-02   -5,754967332e-01    3,022562861e-01    0,000000000e+00    0,000000000e+00    0,000000000e+00    0,000000000e+00
      646000000   -4,288373515e-02    2,610438131e-02   -3,181643486e-01    5,561810732e-01    0,000000000e+00    0,000000000e+00    0,000000000e+00    0,000000000e+00
      660000000   -7,275337353e-03    5,793926772e-03    2,016341127e-02    6,298133135e-01    0,000000000e+00    0,000000000e+00    0,000000000e+00    0,000000000e+00
      674000000    7,576781209e-04   -3,036376834e-02    3,420629203e-01    5,187193155e-01    0,000000000e+00    0,000000000e+00    0,000000000e+00    0,000000000e+00
      688000000   -1,528570242e-02   -5,543311685e-02    5,586692691e-01    2,585704923e-01    0,000000000e+00    0,000000000e+00    0,000000000e+00    0,000000000e+00
      702000000   -3,353400901e-02   -5,968719721e-02    6,075108647e-01   -7,895602286e-02    0,000000000e+00    0,000000000e+00    0,000000000e+00    0,000000000e+00
      716000000   -3,722991422e-02   -5,655791610e-02    4,593573809e-01   -3,898470998e-01    0,000000000e+00    0,000000000e+00    0,000000000e+00    0,000000000e+00
      730000000   -3,135770187e-02   -6,517882645e-02    1,746872663e-01   -5,660303831e-01    0,000000000e+00    0,000000000e+00    0,000000000e+00    0,000000000e+00
      744000000   -3,977232054e-02   -8,812388033e-02   -1,528853774e-01   -5,638124943e-01    0,000000000e+00    0,000000000e+00    0,000000000e+00    0,000000000e+00
      758000000   -7,247935981e-02   -1,053776592e-01   -4,274377823e-01   -3,947929144e-01    0,000000000e+00    0,000000000e+00    0,000000000e+00    0,000000000e+00
      772000000   -1,134746373e-01   -9,434679151e-02   -5,743569732e-01   -1,059786081e-01    0,000000000e+00    0,000000000e+00    0,000000000e+00    0,000000000e+00
      786000000   -1,380085051e-01   -5,622703582e-02   -5,448988676e-01    2,207701653e-01    0,000000000e+00    0,000000000e+00    0,000000000e+00    0,000000000e+00
      800000000   -1,327123940e-01   -1,421876252e-02   -3,412190378e-01    4,798317552e-01    0,000000000e+00    0,000000000e+00    0,000000000e+00    0,000000000e+00
      814000000   -1,087730229e-01    8,569410071e-03   -3,402618319e-02    5,867956281e-01    0,000000000e+00    0,000000000e+00    0,000000000e+00    0,000000000e+00
      828000000   -8,536770940e-02    1,369551104e-02    2,778471708e-01    5,143492222e-01    0,000000000e+00    0,000000000e+00    0,000000000e+00    0,000000000e+00
      842000000   -7,054614276e-02    1,441036630e-02    5,027573109e-01    2,891625762e-01    0,000000000e+00    0,000000000e+00    0,000000000e+00    0,000000000e+00
      856000000   -5,273819342e-02    1,947691850e-02    5,706723928e-01   -1,779797859e-02    0,000000000e+00    0,000000000e+00    0,000000000e+00    0,000000000e+00
      870000000   -2,229184099e-02    1,477899868e-02    4,641520083e-01   -3,063629568e-01    0,000000000e+00    0,000000000e+00    0,000000000e+00    0,000000000e+00
      884000000    6,248029880e-03   -1,413077116e-02    2,303800285e-01   -4,871613085e-01    0,000000000e+00    0,000000000e+00    0,000000000e+00    0,000000000e+00
      898000000    1,195603795e-02   -6,372774392e-02   -5,329107866e-02   -5,265150666e-01    0,000000000e+00    0,000000000e+00    0,000000000e+00    0,000000000e+00
      912000000   -2,332391217e-02   -1,081552207e-01   -3,671788573e-01   -4,090004563e-01    0,000000000e+00    0,000000000e+00    0,000000000e+00    0,000000000e+00
      926000000   -7,377704978e-02   -1,249549389e-01   -5,284699798e-01   -1,608784348e-01    0,000000000e+00    0,000000000e+00    0,000000000e+00    0,000000000e+00
      940000000   -1,217866093e-01   -1,012311429e-01   -5,519881248e-01    1,547551006e-01    0,000000000e+00    0,000000000e+00    0,000000000e+00    0,000000000e+00
      954000000   -1,431226581e-01   -5,865456164e-02   -3,897821605e-01    4,450162053e-01    0,000000000e+00    0,000000000e+00    0,000000000e+00    0,000000000e+00
      968000000   -1,300325990e-01   -2,915435098e-02   -9,168133885e-02    6,034125090e-01    0,000000000e+00    0,000000000e+00    0,000000000e+00    0,000000000e+00
      982000000   -1,129433885e-01   -1,479029190e-02    2,440333068e-01    5,723926425e-01    0,000000000e+00    0,000000000e+00    0,000000000e+00    0,000000000e+00
      996000000   -1,092190817e-01   -1,163471024e-02    5,127705932e-01    3,650957644e-01    0,000000000e+00    0,000000000e+00    0,000000000e+00    0,000000000e+00
     1010000000   -1,043444499e-01   -8,437015116e-03    6,302297115e-01    5,172201246e-02    0,000000000e+00    0,000000000e+00    0,000000000e+00    0,000000000e+00
     1024000000   -9,013016522e-02    2,297491534e-03    5,605775118e-01   -2,701715827e-01    0,000000000e+00    0,000000000e+00    0,000000000e+00    0,000000000e+00
     1038000000   -7,327220589e-02   -3,038443392e-03    3,403173387e-01   -5,036087632e-01    0,000000000e+00    0,000000000e+00    0,000000000e+00    0,000000000e+00
     1052000000   -6,676951796e-02   -1,775832288e-02    3,411834687e-02   -5,843419433e-01    0,000000000e+00    0,000000000e+00    0,000000000e+00    0,000000000e+00
     1066000000   -7,235079259e-02   -2,637739852e-02   -2,667822838e-01   -5,018493533e-01    0,000000000e+00    0,000000000e+00    0,000000000e+00    0,000000000e+00
     1080000000   -8,027610183e-02   -3,324031457e-02   -4,802754819e-01   -2,705810368e-01    0,000000000e+00    0,000000000e+00    0,000000000e+00    0,000000000e+00
     1094000000   -7,862819731e-02   -1,602819748e-02   -5,334921479e-01    3,925183788e-02    0,000000000e+00    0,000000000e+00    0,000000000e+00    0,000000000e+00
     1108000000   -5,745533854e-02   -1,478695218e-02   -3,985655010e-01    3,251395822e-01    0,000000000e+00    0,000000000e+00    0,000000000e+00    0,000000000e+00
     1122000000   -2,726274915e-02   -3,541420773e-02   -1,403983533e-01    4,794673920e-01    0,000000000e+00    0,000000000e+00    0,000000000e+00    0,000000000e+00
     1136000000   -2,718868107e-02   -8,408232778e-02    1,609111726e-01    4,770312309e-01    0,000000000e+00    0,000000000e+00    0,000000000e+00    0,000000000e+00
     1150000000   -6,544084847e-02   -1,376613081e-01    4,199801981e-01    3,110667467e-01    0,000000000e+00    0,000000000e+00    0,000000000e+00    0,000000000e+00
     1164000000   -1,399483830e-01   -1,515331864e-01    5,648483634e-01    2,706663311e-02    0,000000000e+00    0,000000000e+00    0,000000000e+00    0,000000000e+00
     1178000000   -2,084759176e-01   -1,164765209e-01    5,346092582e-01   -3,155932724e-01    0,000000000e+00    0,000000000e+00    0,000000000e+00    0,000000000e+00
     1192000000   -2,511951327e-01   -4,245899990e-02    2,981157601e-01   -5,969755054e-01    0,000000000e+00    0,000000000e+00    0,000000000e+00    0,000000000e+00
     1206000000   -2,373011708e-01    3,069319576e-02   -6,171730906e-02   -6,948688626e-01    0,000000000e+00    0,000000000e+00    0,000000000e+00    0,000000000e+00
     1220000000   -1,835415214e-01    8,249127120e-02   -4,194456935e-01   -5,790461898e-01    0,000000000e+00    0,000000000e+00    0,000000000e+00    0,000000000e+00
     1234000000   -1,261581779e-01    9,975418448e-02   -6,453468204e-01   -2,921852469e-01    0,000000000e+00    0,000000000e+00    0,000000000e+00    0,000000000e+00
     1248000000   -6,585462391e-02    9,660267830e-02   -6,697801948e-01    6,474180520e-02    0,000000000e+00    0,000000000e+00    0,000000000e+00    0,000000000e+00
     1262000000   -1,100557577e-02    6,376577169e-02   -5,172685385e-01    3,711183965e-01    0,000000000e+00    0,000000000e+00    0,000000000e+00    0,000000000e+00
     1276000000    2,852583490e-02   -4,100119229e-03   -2,426655293e-01    5,430157781e-01    0,000000000e+00    0,000000000e+00    0,000000000e+00    0,000000000e+00
     1290000000    2,201907896e-02   -8,671155572e-02    6,755071878e-02    5,775273442e-01    0,000000000e+00    0,000000000e+00    0,000000000e+00    0,000000000e+00
     1304000000   -3,289945424e-02   -1,687598228e-01    3,630197048e-01    4,707979262e-01    0,000000000e+00    0,000000000e+00    0,000000000e+00    0,000000000e+00
     1318000000   -1,349538565e-01   -2,170541883e-01    5,784451365e-01    2,151500732e-01    0,000000000e+00    0,000000000e+00    0,000000000e+00    0,000000000e+00
     1332000000   -2,525428832e-01   -1,905955225e-01    6,464828849e-01   -1,271257550e-01    0,000000000e+00    0,000000000e+00    0,000000000e+00    0,000000000e+00
     1346000000   -3,301378191e-01   -9,482698888e-02    5,122318864e-01   -4,660260975e-01    0,000000000e+00    0,000000000e+00    0,000000000e+00    0,000000000e+00
     1360000000   -3,310258389e-01    2,821640670e-02    1,880653352e-01   -6,438018084e-01    0,000000000e+00    0,000000000e+00    0,000000000e+00    0,000000000e+00
     1374000000   -2,816614509e-01    1,061102822e-01   -1,544781029e-01   -6,043294072e-01    0,000000000e+00    0,000000000e+00    0,000000000e+00    0,000000000e+00
     1388000000   -2,057791650e-01    1,389409155e-01   -3,961579502e-01   -3,736083806e-01    0,000000000e+00    0,000000000e+00    0,000000000e+00    0,000000000e+00
     1402000000   -1,516488492e-01    1,397016197e-01   -4,864143729e-01   -5,553564057e-02    0,000000000e+00    0,000000000e+00    0,000000000e+00    0,000000000e+00
     1416000000   -9,330380708e-02    1,170240939e-01   -3,688933253e-01    2,434872389e-01    0,000000000e+00    0,000000000e+00    0,000000000e+00    0,000000000e+00
     1430000000   -5,447569117e-02    7,700948417e-02   -1,550437361e-01    4,576524794e-01    0,000000000e+00    0,000000000e+00    0,000000000e+00    0,000000000e+00
     1444000000   -4,103113338e-02    7,201835047e-03    1,602338701e-01    5,430051088e-01    0,000000000e+00    0,000000000e+00    0,000000000e+00    0,000000000e+00
     1458000000   -6,688868999e-02   -7,169573754e-02    4,771818221e-01    4,789868891e-01    0,000000000e+00    0,000000000e+00    0,000000000e+00    0,000000000e+00
     1472000000   -1,340624541e-01   -1,217996553e-01    7,499849200e-01    2,544411421e-01    0,000000000e+00    0,000000000e+00    0,000000000e+00    0,000000000e+00
     1486000000   -2,379872352e-01   -1,096411571e-01    8,762796521e-01   -8,625818789e-02    0,000000000e+00    0,000000000e+00    0,000000000e+00    0,000000000e+00
     1500000000   -2,837882936e-01   -4,369109124e-02    8,211966157e-01   -4,390632808e-01    0,000000000e+00    0,000000000e+00    0,000000000e+00    0,000000000e+00
