! NanoVNA-App
! Date: 2025-09-25 15:09:22
! Start: 100MHz Stop: 1,5GHz Points: 101
! S-Parameter data: F S11 S21 S12 S22
# Hz S RI R 50
!     Frequency           S11_Real           S11_Imag           S21_Real           S21_Imag           S12_Real           S12_Imag           S22_Real           S22_Imag
      100000000    3,115154430e-02    2,865100093e-02    4,348868132e-01   -6,686350107e-01    0,000000000e+00    0,000000000e+00    0,000000000e+00    0,000000000e+00
      114000000    5,758602172e-02    5,504344124e-03    7,809683215e-03   -7,909286022e-01    0,000000000e+00    0,000000000e+00    0,000000000e+00    0,000000000e+00
      128000000    6,730303913e-02   -3,785859793e-02   -4,102796614e-01   -6,711732149e-01    0,000000000e+00    0,000000000e+00    0,000000000e+00    0,000000000e+00
      142000000    4,473226145e-02   -8,422141522e-02   -7,028247118e-01   -3,533278108e-01    0,000000000e+00    0,000000000e+00    0,000000000e+00    0,000000000e+00
      156000000   -5,493718665e-03   -1,069980785e-01   -7,872225046e-01    7,412347943e-02    0,000000000e+00    0,000000000e+00    0,000000000e+00    0,000000000e+00
      170000000   -5,764862150e-02   -9,066253155e-02   -6,276299953e-01    4,871887565e-01    0,000000000e+00    0,000000000e+00    0,000000000e+00    0,000000000e+00
      184000000   -8,368183672e-02   -4,945782945e-02   -2,650626302e-01    7,510563731e-01    0,000000000e+00    0,000000000e+00    0,000000000e+00    0,000000000e+00
      198000000   -7,965029031e-02   -1,047995593e-02    1,833772510e-01    7,734277248e-01    0,000000000e+00    0,000000000e+00    0,000000000e+00    0,000000000e+00
      212000000   -6,224236265e-02    1,314087678e-02    5,688982010e-01    5,489588380e-01    0,000000000e+00    0,000000000e+00    0,000000000e+00    0,000000000e+00
      226000000   -4,333337396e-02    2,766816132e-02    7,707459927e-01    1,545677334e-01    0,000000000e+00    0,000000000e+00    0,000000000e+00    0,000000000e+00
      240000000   -1,819300465e-02    3,850882500e-02    7,268339992e-01   -2,819614112e-01    0,000000000e+00    0,000000000e+00    0,000000000e+00    0,000000000e+00
      254000000    1,720141619e-02    3,520979360e-02    4,580430090e-01   -6,201399565e-01    0,000000000e+00    0,000000000e+00    0,000000000e+00    0,000000000e+00
      268000000    4,877974465e-02    5,635177717e-03    5,851202458e-02   -7,600615621e-01    0,000000000e+00    0,000000000e+00    0,000000000e+00    0,000000000e+00
      282000000    5,343624949e-02   -4,175033793e-02   -3,488698006e-01   -6,716477275e-01    0,000000000e+00    0,000000000e+00    0,000000000e+00    0,000000000e+00
      296000000    2,398591861e-02   -7,955906540e-02   -6,514261365e-01   -3,853488863e-01    0,000000000e+00    0,000000000e+00    0,000000000e+00    0,000000000e+00
      310000000   -1,790167391e-02   -8,318650723e-02   -7,634562254e-01    2,130981162e-02    0,000000000e+00    0,000000000e+00    0,000000000e+00    0,000000000e+00
      324000000   -4,156704247e-02   -5,902457237e-02   -6,313623190e-01    4,310071170e-01    0,000000000e+00    0,000000000e+00    0,000000000e+00    0,000000000e+00
      338000000   -3,431392089e-02   -3,669032082e-02   -2,948140204e-01    6,992378831e-01    0,000000000e+00    0,000000000e+00    0,000000000e+00    0,000000000e+00
      352000000   -1,738005131e-02   -4,070516303e-02    1,259451956e-01    7,430083156e-01    0,000000000e+00    0,000000000e+00    0,000000000e+00    0,000000000e+00
      366000000   -1,914429851e-02   -6,189269572e-02    4,986333251e-01    5,544387102e-01    0,000000000e+00    0,000000000e+00    0,000000000e+00    0,000000000e+00
      380000000   -4,434464127e-02   -7,292775810e-02    7,131205797e-01    1,995172501e-01    0,000000000e+00    0,000000000e+00    0,000000000e+00    0,000000000e+00
      394000000   -7,092244923e-02   -5,800657347e-02    7,044211030e-01   -2,161245942e-01    0,000000000e+00    0,000000000e+00    0,000000000e+00    0,000000000e+00
      408000000   -7,706234604e-02   -3,028923087e-02    4,704796374e-01   -5,596473813e-01    0,000000000e+00    0,000000000e+00    0,000000000e+00    0,000000000e+00
      422000000   -6,559355557e-02   -1,134093106e-02    9,314130247e-02   -7,173328400e-01    0,000000000e+00    0,000000000e+00    0,000000000e+00    0,000000000e+00
      436000000   -5,318654701e-02   -4,481227603e-03   -3,026070595e-01   -6,472449899e-01    0,000000000e+00    0,000000000e+00    0,000000000e+00    0,000000000e+00
      450000000   -4,443400726e-02    1,618124661e-03   -5,934115052e-01   -3,784064949e-01    0,000000000e+00    0,000000000e+00    0,000000000e+00    0,000000000e+00
      464000000   -2,938025817e-02    1,096920483e-02   -6,911177039e-01   -3,297720978e-04    0,000000000e+00    0,000000000e+00    0,000000000e+00    0,000000000e+00
      478000000   -1,392787904e-03    1,139798667e-02   -5,733460784e-01    3,636138141e-01    0,000000000e+00    0,000000000e+00    0,000000000e+00    0,000000000e+00
      492000000    2,781491354e-02   -1,215537824e-02   -2,892866433e-01    6,022394300e-01    0,000000000e+00    0,000000000e+00    0,000000000e+00    0,000000000e+00
      506000000    3,638254479e-02   -5,589361489e-02    6,910535693e-02    6,587337255e-01    0,000000000e+00    0,000000000e+00    0,000000000e+00    0,000000000e+00
      520000000    1,245009154e-02   -9,945945442e-02    4,057390392e-01    5,235431790e-01    0,000000000e+00    0,000000000e+00    0,000000000e+00    0,000000000e+00
      534000000   -3,391331807e-02   -1,160367802e-01    6,242167950e-01    2,365935296e-01    0,000000000e+00    0,000000000e+00    0,000000000e+00    0,000000000e+00
      548000000   -7,754773647e-02   -9,894478321e-02    6,579899192e-01   -1,330985874e-01    0,000000000e+00    0,000000000e+00    0,000000000e+00    0,000000000e+00
      562000000   -9,361720830e-02   -6,597089767e-02    4,820911586e-01   -4,662395418e-01    0,000000000e+00    0,000000000e+00    0,000000000e+00    0,000000000e+00
      576000000   -8,622618020e-02   -4,437914118e-02    1,508535445e-01   -6,485432386e-01    0,000000000e+00    0,000000000e+00    0,000000000e+00    0,000000000e+00
      590000000   -8,064052463e-02   -4,171989858e-02   -2,195341587e-01   -6,292220950e-01    0,000000000e+00    0,000000000e+00    0,000000000e+00    0,000000000e+00
      604000000   -8,911258727e-02   -3,689998761e-02   -5,203972459e-01   -4,063165784e-01    0,000000000e+00    0,000000000e+00    0,000000000e+00    0,000000000e+00
      618000000   -9,637472779e-02   -1,477253903e-02   -6,531397104e-01   -5,853885040e-02    0,000000000e+00    0,000000000e+00    0,000000000e+00    0,000000000e+00
      632000000   -8,095948398e-02    1,575128734e-02   -5,751633048e-01    3,024955094e-01    0,000000000e+00    0,000000000e+00    0,000000000e+00    0,000000000e+00
      646000000   -4,339066520e-02    2,636628039e-02   -3,183861077e-01    5,565467477e-01    0,000000000e+00    0,000000000e+00    0,000000000e+00    0,000000000e+00
      660000000   -7,592509501e-03    6,439264864e-03    2,104286104e-02    6,294870377e-01    0,000000000e+00    0,000000000e+00    0,000000000e+00    0,000000000e+00
      674000000    1,448735362e-03   -3,062666208e-02    3,424498141e-01    5,184270740e-01    0,000000000e+00    0,000000000e+00    0,000000000e+00    0,000000000e+00
      688000000   -1,418679673e-02   -5,532826856e-02    5,586881042e-01    2,583743036e-01    0,000000000e+00    0,000000000e+00    0,000000000e+00    0,000000000e+00
      702000000   -3,369784728e-02   -5,973326787e-02    6,076552868e-01   -7,954279333e-02    0,000000000e+00    0,000000000e+00    0,000000000e+00    0,000000000e+00
      716000000   -3,647492826e-02   -5,586788803e-02    4,595559239e-01   -3,903459013e-01    0,000000000e+00    0,000000000e+00    0,000000000e+00    0,000000000e+00
      730000000   -3,157949820e-02   -6,461417675e-02    1,745526195e-01   -5,656370521e-01    0,000000000e+00    0,000000000e+00    0,000000000e+00    0,000000000e+00
      744000000   -4,099441320e-02   -8,791662753e-02   -1,527069807e-01   -5,626974702e-01    0,000000000e+00    0,000000000e+00    0,000000000e+00    0,000000000e+00
      758000000   -7,151159644e-02   -1,048954427e-01   -4,273423254e-01   -3,945417702e-01    0,000000000e+00    0,000000000e+00    0,000000000e+00    0,000000000e+00
      772000000   -1,133993417e-01   -9,401608258e-02   -5,746816993e-01   -1,059673354e-01    0,000000000e+00    0,000000000e+00    0,000000000e+00    0,000000000e+00
      786000000   -1,391580999e-01   -5,638794601e-02   -5,447193980e-01    2,208499610e-01    0,000000000e+00    0,000000000e+00    0,000000000e+00    0,000000000e+00
      800000000   -1,329727918e-01   -1,392683014e-02   -3,419746757e-01    4,808971882e-01    0,000000000e+00    0,000000000e+00    0,000000000e+00    0,000000000e+00
      814000000   -1,080255508e-01    8,280516602e-03   -3,477004170e-02    5,861060619e-01    0,000000000e+00    0,000000000e+00    0,000000000e+00    0,000000000e+00
      828000000   -8,585394174e-02    1,284662262e-02    2,790322602e-01    5,147291422e-01    0,000000000e+00    0,000000000e+00    0,000000000e+00    0,000000000e+00
      842000000   -7,080618292e-02    1,530737989e-02    5,023260117e-01    2,900979817e-01    0,000000000e+00    0,000000000e+00    0,000000000e+00    0,000000000e+00
      856000000   -5,298290774e-02    1,912339777e-02    5,710747242e-01   -1,771135256e-02    0,000000000e+00    0,000000000e+00    0,000000000e+00    0,000000000e+00
      870000000   -2,298643999e-02    1,493234653e-02    4,639791548e-01   -3,070415556e-01    0,000000000e+00    0,000000000e+00    0,000000000e+00    0,000000000e+00
      884000000    6,624636240e-03   -1,437427849e-02    2,296810448e-01   -4,868239760e-01    0,000000000e+00    0,000000000e+00    0,000000000e+00    0,000000000e+00
      898000000    1,152302697e-02   -6,391493231e-02   -5,345349759e-02   -5,264707804e-01    0,000000000e+00    0,000000000e+00    0,000000000e+00    0,000000000e+00
      912000000   -2,377007715e-02   -1,070231646e-01   -3,648831844e-01   -3,936893344e-01    0,000000000e+00    0,000000000e+00    0,000000000e+00    0,000000000e+00
      926000000   -7,712415606e-02   -1,238702014e-01   -5,319029689e-01   -1,563823074e-01    0,000000000e+00    0,000000000e+00    0,000000000e+00    0,000000000e+00
      940000000   -1,246717349e-01   -1,041287854e-01   -5,536419749e-01    1,552685350e-01    0,000000000e+00    0,000000000e+00    0,000000000e+00    0,000000000e+00
      954000000   -1,428341717e-01   -6,437931955e-02   -3,916480839e-01    4,444695115e-01    0,000000000e+00    0,000000000e+00    0,000000000e+00    0,000000000e+00
      968000000   -1,346718669e-01   -2,706921473e-02   -9,398807585e-02    6,039867401e-01    0,000000000e+00    0,000000000e+00    0,000000000e+00    0,000000000e+00
      982000000   -1,118308455e-01   -1,592496596e-02    2,466401756e-01    5,733129382e-01    0,000000000e+00    0,000000000e+00    0,000000000e+00    0,000000000e+00
      996000000   -1,071274802e-01   -1,150544081e-02    5,123599768e-01    3,642407358e-01    0,000000000e+00    0,000000000e+00    0,000000000e+00    0,000000000e+00
     1010000000   -1,064794511e-01   -6,712420844e-03    6,266760230e-01    5,375002325e-02    0,000000000e+00    0,000000000e+00    0,000000000e+00    0,000000000e+00
     1024000000   -9,505008161e-02   -1,512817573e-03    5,607820153e-01   -2,724308074e-01    0,000000000e+00    0,000000000e+00    0,000000000e+00    0,000000000e+00
     1038000000   -7,329090685e-02   -4,841303453e-03    3,374675214e-01   -5,030969381e-01    0,000000000e+00    0,000000000e+00    0,000000000e+00    0,000000000e+00
     1052000000   -6,208721548e-02   -1,771162078e-02    3,276887909e-02   -5,847107172e-01    0,000000000e+00    0,000000000e+00    0,000000000e+00    0,000000000e+00
     1066000000   -7,242336124e-02   -2,968880162e-02   -2,674277723e-01   -5,048519373e-01    0,000000000e+00    0,000000000e+00    0,000000000e+00    0,000000000e+00
     1080000000   -8,018948883e-02   -3,464391455e-02   -4,810157418e-01   -2,720005512e-01    0,000000000e+00    0,000000000e+00    0,000000000e+00    0,000000000e+00
     1094000000   -8,131978661e-02   -1,982280426e-02   -5,295188427e-01    4,331345856e-02    0,000000000e+00    0,000000000e+00    0,000000000e+00    0,000000000e+00
     1108000000   -6,185270473e-02   -1,041857712e-02   -3,985404074e-01    3,245204985e-01    0,000000000e+00    0,000000000e+00    0,000000000e+00    0,000000000e+00
     1122000000   -2,926637791e-02   -3,317232803e-02   -1,344386786e-01    4,822806716e-01    0,000000000e+00    0,000000000e+00    0,000000000e+00    0,000000000e+00
     1136000000   -2,727989294e-02   -8,735716343e-02    1,647978276e-01    4,748793244e-01    0,000000000e+00    0,000000000e+00    0,000000000e+00    0,000000000e+00
     1150000000   -6,395644695e-02   -1,383532733e-01    4,199748933e-01    3,141811192e-01    0,000000000e+00    0,000000000e+00    0,000000000e+00    0,000000000e+00
     1164000000   -1,344563961e-01   -1,516212672e-01    5,682597160e-01    2,629021555e-02    0,000000000e+00    0,000000000e+00    0,000000000e+00    0,000000000e+00
     1178000000   -2,115142494e-01   -1,226620898e-01    5,313435197e-01   -3,131769300e-01    0,000000000e+00    0,000000000e+00    0,000000000e+00    0,000000000e+00
     1192000000   -2,459297776e-01   -4,739426821e-02    2,946523428e-01   -5,949736238e-01    0,000000000e+00    0,000000000e+00    0,000000000e+00    0,000000000e+00
     1206000000   -2,372910827e-01    3,393629193e-02   -6,673650444e-02   -6,975905895e-01    0,000000000e+00    0,000000000e+00    0,000000000e+00    0,000000000e+00
     1220000000   -1,893226206e-01    8,147282898e-02   -4,170499146e-01   -5,800868869e-01    0,000000000e+00    0,000000000e+00    0,000000000e+00    0,000000000e+00
     1234000000   -1,258630902e-01    1,014023870e-01   -6,459675431e-01   -2,913469970e-01    0,000000000e+00    0,000000000e+00    0,000000000e+00    0,000000000e+00
     1248000000   -6,320562214e-02    9,846759588e-02   -6,726337075e-01    5,938084424e-02    0,000000000e+00    0,000000000e+00    0,000000000e+00    0,000000000e+00
     1262000000   -1,213164721e-02    6,509423256e-02   -5,190274119e-01    3,704181910e-01    0,000000000e+00    0,000000000e+00    0,000000000e+00    0,000000000e+00
     1276000000    2,045684867e-02   -1,890458050e-03   -2,509638071e-01    5,435990691e-01    0,000000000e+00    0,000000000e+00    0,000000000e+00    0,000000000e+00
     1290000000    2,111589722e-02   -9,039302170e-02    6,873082370e-02    5,755579472e-01    0,000000000e+00    0,000000000e+00    0,000000000e+00    0,000000000e+00
     1304000000   -3,253604844e-02   -1,726899147e-01    3,637473583e-01    4,666551352e-01    0,000000000e+00    0,000000000e+00    0,000000000e+00    0,000000000e+00
     1318000000   -1,365358979e-01   -2,136105150e-01    5,811622143e-01    2,248043567e-01    0,000000000e+00    0,000000000e+00    0,000000000e+00    0,000000000e+00
     1332000000   -2,522646189e-01   -1,867347211e-01    6,500681639e-01   -1,286090463e-01    0,000000000e+00    0,000000000e+00    0,000000000e+00    0,000000000e+00
     1346000000   -3,322730660e-01   -8,705440164e-02    5,128915906e-01   -4,626373649e-01    0,000000000e+00    0,000000000e+00    0,000000000e+00    0,000000000e+00
     1360000000   -3,320601881e-01    2,298931405e-02    1,942591369e-01   -6,443355083e-01    0,000000000e+00    0,000000000e+00    0,000000000e+00    0,000000000e+00
     1374000000   -2,800278068e-01    1,061987355e-01   -1,489634365e-01   -6,014879346e-01    0,000000000e+00    0,000000000e+00    0,000000000e+00    0,000000000e+00
     1388000000   -2,130380422e-01    1,341975480e-01   -4,113921821e-01   -3,776469529e-01    0,000000000e+00    0,000000000e+00    0,000000000e+00    0,000000000e+00
     1402000000   -1,511294693e-01    1,413147897e-01   -4,870055616e-01   -5,874945968e-02    0,000000000e+00    0,000000000e+00    0,000000000e+00    0,000000000e+00
     1416000000   -9,607699513e-02    1,194063723e-01   -3,819995821e-01    2,447277009e-01    0,000000000e+00    0,000000000e+00    0,000000000e+00    0,000000000e+00
     1430000000   -5,398977175e-02    7,041220367e-02   -1,448044330e-01    4,604026973e-01    0,000000000e+00    0,000000000e+00    0,000000000e+00    0,000000000e+00
     1444000000   -3,450744972e-02    1,413000282e-03    1,653929651e-01    5,352317691e-01    0,000000000e+00    0,000000000e+00    0,000000000e+00    0,000000000e+00
     1458000000   -6,498550624e-02   -7,423903048e-02    4,728087187e-01    4,823468029e-01    0,000000000e+00    0,000000000e+00    0,000000000e+00    0,000000000e+00
     1472000000   -1,341908276e-01   -1,208586767e-01    7,612240314e-01    2,702377737e-01    0,000000000e+00    0,000000000e+00    0,000000000e+00    0,000000000e+00
     1486000000   -2,307085097e-01   -1,149483249e-01    8,957763314e-01   -7,240808010e-02    0,000000000e+00    0,000000000e+00    0,000000000e+00    0,000000000e+00
     1500000000   -2,841924131e-01   -4,336884990e-02    8,094630837e-01   -4,498897493e-01    0,000000000e+00    0,000000000e+00    0,000000000e+00    0,000000000e+00
