! NanoVNA-App
! Date: 2025-09-25 15:06:06
! Start: 100MHz Stop: 1,5GHz Points: 101
! S-Parameter data: F S11 S21 S12 S22
# Hz S RI R 50
!     Frequency           S11_Real           S11_Imag           S21_Real           S21_Imag           S12_Real           S12_Imag           S22_Real           S22_Imag
      100000000    3,114499338e-02    2,865750529e-02    4,348654449e-01   -6,686777472e-01    0,000000000e+00    0,000000000e+00    0,000000000e+00    0,000000000e+00
      114000000    5,758063495e-02    5,488119088e-03    7,643871475e-03   -7,909735441e-01    0,000000000e+00    0,000000000e+00    0,000000000e+00    0,000000000e+00
      128000000    6,729061157e-02   -3,779047355e-02   -4,104183316e-01   -6,711218357e-01    0,000000000e+00    0,000000000e+00    0,000000000e+00    0,000000000e+00
      142000000    4,474233836e-02   -8,421487361e-02   -7,030113935e-01   -3,531926274e-01    0,000000000e+00    0,000000000e+00    0,000000000e+00    0,000000000e+00
      156000000   -5,692049395e-03   -1,061637327e-01   -7,866199613e-01    7,275232673e-02    0,000000000e+00    0,000000000e+00    0,000000000e+00    0,000000000e+00
      170000000   -5,769781023e-02   -9,058185667e-02   -6,276064515e-01    4,869191647e-01    0,000000000e+00    0,000000000e+00    0,000000000e+00    0,000000000e+00
      184000000   -8,368394524e-02   -4,943198711e-02   -2,650102973e-01    7,509396672e-01    0,000000000e+00    0,000000000e+00    0,000000000e+00    0,000000000e+00
      198000000   -7,963587344e-02   -1,044345275e-02    1,834629178e-01    7,732639909e-01    0,000000000e+00    0,000000000e+00    0,000000000e+00    0,000000000e+00
      212000000   -6,226978078e-02    1,314872131e-02    5,690894723e-01    5,491003394e-01    0,000000000e+00    0,000000000e+00    0,000000000e+00    0,000000000e+00
      226000000   -4,331214353e-02    2,770387195e-02    7,707704306e-01    1,545314640e-01    0,000000000e+00    0,000000000e+00    0,000000000e+00    0,000000000e+00
      240000000   -1,822711900e-02    3,851529583e-02    7,268897295e-01   -2,821019888e-01    0,000000000e+00    0,000000000e+00    0,000000000e+00    0,000000000e+00
      254000000    1,721940748e-02    3,519429639e-02    4,580263197e-01   -6,200652719e-01    0,000000000e+00    0,000000000e+00    0,000000000e+00    0,000000000e+00
      268000000    4,876436666e-02    5,560171790e-03    5,870414153e-02   -7,603150010e-01    0,000000000e+00    0,000000000e+00    0,000000000e+00    0,000000000e+00
      282000000    5,340110138e-02   -4,178696871e-02   -3,492085934e-01   -6,712766886e-01    0,000000000e+00    0,000000000e+00    0,000000000e+00    0,000000000e+00
      296000000    2,392435819e-02   -7,957653701e-02   -6,521156430e-01   -3,855144978e-01    0,000000000e+00    0,000000000e+00    0,000000000e+00    0,000000000e+00
      310000000   -1,787642203e-02   -8,317303658e-02   -7,622759938e-01    2,005136758e-02    0,000000000e+00    0,000000000e+00    0,000000000e+00    0,000000000e+00
      324000000   -4,158220813e-02   -5,880116299e-02   -6,326572299e-01    4,305182993e-01    0,000000000e+00    0,000000000e+00    0,000000000e+00    0,000000000e+00
      338000000   -3,429299220e-02   -3,722647578e-02   -2,973512709e-01    7,003344297e-01    0,000000000e+00    0,000000000e+00    0,000000000e+00    0,000000000e+00
      352000000   -1,744396053e-02   -4,077632725e-02    1,257031262e-01    7,418203354e-01    0,000000000e+00    0,000000000e+00    0,000000000e+00    0,000000000e+00
      366000000   -1,919864118e-02   -6,192469224e-02    4,982565939e-01    5,551208854e-01    0,000000000e+00    0,000000000e+00    0,000000000e+00    0,000000000e+00
      380000000   -4,431800917e-02   -7,239478827e-02    7,129967213e-01    1,998911053e-01    0,000000000e+00    0,000000000e+00    0,000000000e+00    0,000000000e+00
      394000000   -7,100687176e-02   -5,799369887e-02    7,037029266e-01   -2,162970304e-01    0,000000000e+00    0,000000000e+00    0,000000000e+00    0,000000000e+00
      408000000   -7,710785419e-02   -3,064756468e-02    4,710818827e-01   -5,601028800e-01    0,000000000e+00    0,000000000e+00    0,000000000e+00    0,000000000e+00
      422000000   -6,545529515e-02   -1,159818005e-02    9,356591105e-02   -7,188887596e-01    0,000000000e+00    0,000000000e+00    0,000000000e+00    0,000000000e+00
      436000000   -5,308504775e-02   -4,506211728e-03   -3,025442064e-01   -6,473027468e-01    0,000000000e+00    0,000000000e+00    0,000000000e+00    0,000000000e+00
      450000000   -4,458261654e-02    1,658115420e-03   -5,931938291e-01   -3,780615032e-01    0,000000000e+00    0,000000000e+00    0,000000000e+00    0,000000000e+00
      464000000   -2,961215004e-02    1,140807942e-02   -6,916810274e-01    3,272918984e-04    0,000000000e+00    0,000000000e+00    0,000000000e+00    0,000000000e+00
      478000000   -9,410519269e-04    1,108275633e-02   -5,733973384e-01    3,636770844e-01    0,000000000e+00    0,000000000e+00    0,000000000e+00    0,000000000e+00
      492000000    2,826620080e-02   -1,256374083e-02   -2,885853648e-01    6,015380621e-01    0,000000000e+00    0,000000000e+00    0,000000000e+00    0,000000000e+00
      506000000    3,694533557e-02   -5,606463552e-02    6,913308799e-02    6,589173079e-01    0,000000000e+00    0,000000000e+00    0,000000000e+00    0,000000000e+00
      520000000    1,223546173e-02   -9,924062341e-02    4,044211507e-01    5,270374417e-01    0,000000000e+00    0,000000000e+00    0,000000000e+00    0,000000000e+00
      534000000   -3,469881415e-02   -1,159401760e-01    6,236881614e-01    2,366712391e-01    0,000000000e+00    0,000000000e+00    0,000000000e+00    0,000000000e+00
      548000000   -7,781951129e-02   -9,923321754e-02    6,576653719e-01   -1,330440938e-01    0,000000000e+00    0,000000000e+00    0,000000000e+00    0,000000000e+00
      562000000   -9,351003915e-02   -6,595329940e-02    4,814729095e-01   -4,666589200e-01    0,000000000e+00    0,000000000e+00    0,000000000e+00    0,000000000e+00
      576000000   -8,622439951e-02   -4,476419836e-02    1,512004137e-01   -6,485384107e-01    0,000000000e+00    0,000000000e+00    0,000000000e+00    0,000000000e+00
      590000000   -8,067083359e-02   -4,165409505e-02   -2,219360024e-01   -6,275644302e-01    0,000000000e+00    0,000000000e+00    0,000000000e+00    0,000000000e+00
      604000000   -8,851406723e-02   -3,710759431e-02   -5,193594098e-01   -4,052625299e-01    0,000000000e+00    0,000000000e+00    0,000000000e+00    0,000000000e+00
      618000000   -9,645846486e-02   -1,489864849e-02   -6,532179713e-01   -5,852570757e-02    0,000000000e+00    0,000000000e+00    0,000000000e+00    0,000000000e+00
      632000000   -8,151951432e-02    1,480984129e-02   -5,751603246e-01    3,022509813e-01    0,000000000e+00    0,000000000e+00    0,000000000e+00    0,000000000e+00
      646000000   -4,240747914e-02    2,679587156e-02   -3,190987408e-01    5,560846925e-01    0,000000000e+00    0,000000000e+00    0,000000000e+00    0,000000000e+00
      660000000   -7,961556315e-03    6,477965508e-03    2,007708140e-02    6,290037632e-01    0,000000000e+00    0,000000000e+00    0,000000000e+00    0,000000000e+00
      674000000    1,373984036e-03   -3,003477119e-02    3,424158394e-01    5,183552504e-01    0,000000000e+00    0,000000000e+00    0,000000000e+00    0,000000000e+00
      688000000   -1,518056635e-02   -5,597767979e-02    5,589050651e-01    2,589723468e-01    0,000000000e+00    0,000000000e+00    0,000000000e+00    0,000000000e+00
      702000000   -3,352395445e-02   -5,922626704e-02    6,035534739e-01   -8,145888150e-02    0,000000000e+00    0,000000000e+00    0,000000000e+00    0,000000000e+00
      716000000   -3,659076989e-02   -5,605088547e-02    4,593657255e-01   -3,901168108e-01    0,000000000e+00    0,000000000e+00    0,000000000e+00    0,000000000e+00
      730000000   -3,239896148e-02   -6,520256400e-02    1,739967316e-01   -5,650740862e-01    0,000000000e+00    0,000000000e+00    0,000000000e+00    0,000000000e+00
      744000000   -4,021505266e-02   -8,767890185e-02   -1,525498927e-01   -5,642024875e-01    0,000000000e+00    0,000000000e+00    0,000000000e+00    0,000000000e+00
      758000000   -7,257422805e-02   -1,047735363e-01   -4,274804890e-01   -3,948995471e-01    0,000000000e+00    0,000000000e+00    0,000000000e+00    0,000000000e+00
      772000000   -1,142934263e-01   -9,423729032e-02   -5,746387243e-01   -1,059364825e-01    0,000000000e+00    0,000000000e+00    0,000000000e+00    0,000000000e+00
      786000000   -1,390253156e-01   -5,556103587e-02   -5,447194576e-01    2,206597775e-01    0,000000000e+00    0,000000000e+00    0,000000000e+00    0,000000000e+00
      800000000   -1,330556273e-01   -1,437585521e-02   -3,425413370e-01    4,804445505e-01    0,000000000e+00    0,000000000e+00    0,000000000e+00    0,000000000e+00
      814000000   -1,088878959e-01    8,588642813e-03   -3,313320503e-02    5,864163637e-01    0,000000000e+00    0,000000000e+00    0,000000000e+00    0,000000000e+00
      828000000   -8,571387082e-02    1,324461214e-02    2,790901065e-01    5,149424672e-01    0,000000000e+00    0,000000000e+00    0,000000000e+00    0,000000000e+00
      842000000   -7,078862190e-02    1,524451561e-02    5,025420785e-01    2,893326283e-01    0,000000000e+00    0,000000000e+00    0,000000000e+00    0,000000000e+00
      856000000   -5,169333518e-02    1,934006624e-02    5,704270005e-01   -1,770680957e-02    0,000000000e+00    0,000000000e+00    0,000000000e+00    0,000000000e+00
      870000000   -2,267830260e-02    1,479043067e-02    4,631282985e-01   -3,063111007e-01    0,000000000e+00    0,000000000e+00    0,000000000e+00    0,000000000e+00
      884000000    5,677682348e-03   -1,422155648e-02    2,297101915e-01   -4,880779386e-01    0,000000000e+00    0,000000000e+00    0,000000000e+00    0,000000000e+00
      898000000    1,167623419e-02   -6,418312341e-02   -5,171843991e-02   -5,259929299e-01    0,000000000e+00    0,000000000e+00    0,000000000e+00    0,000000000e+00
      912000000   -2,346951328e-02   -1,094029173e-01   -3,676654398e-01   -3,962669671e-01    0,000000000e+00    0,000000000e+00    0,000000000e+00    0,000000000e+00
      926000000   -7,426285744e-02   -1,239165813e-01   -5,295397043e-01   -1,589674652e-01    0,000000000e+00    0,000000000e+00    0,000000000e+00    0,000000000e+00
      940000000   -1,234023795e-01   -1,005555019e-01   -5,515283942e-01    1,568027735e-01    0,000000000e+00    0,000000000e+00    0,000000000e+00    0,000000000e+00
      954000000   -1,428345740e-01   -5,867265910e-02   -3,932485282e-01    4,482677281e-01    0,000000000e+00    0,000000000e+00    0,000000000e+00    0,000000000e+00
      968000000   -1,335821301e-01   -2,807670273e-02   -9,400572628e-02    6,042742133e-01    0,000000000e+00    0,000000000e+00    0,000000000e+00    0,000000000e+00
      982000000   -1,142355874e-01   -1,357669476e-02    2,445851564e-01    5,730462670e-01    0,000000000e+00    0,000000000e+00    0,000000000e+00    0,000000000e+00
      996000000   -1,037897021e-01   -1,607758738e-02    5,126004219e-01    3,684012890e-01    0,000000000e+00    0,000000000e+00    0,000000000e+00    0,000000000e+00
     1010000000   -1,002196297e-01   -6,485148799e-03    6,286876202e-01    5,432572216e-02    0,000000000e+00    0,000000000e+00    0,000000000e+00    0,000000000e+00
     1024000000   -9,047254175e-02   -3,937188070e-03    5,617849827e-01   -2,705904543e-01    0,000000000e+00    0,000000000e+00    0,000000000e+00    0,000000000e+00
     1038000000   -7,265724242e-02   -2,571706427e-03    3,350298107e-01   -5,031073689e-01    0,000000000e+00    0,000000000e+00    0,000000000e+00    0,000000000e+00
     1052000000   -6,420877576e-02   -1,288740151e-02    3,416898847e-02   -5,848875046e-01    0,000000000e+00    0,000000000e+00    0,000000000e+00    0,000000000e+00
     1066000000   -6,806489825e-02   -3,261975944e-02   -2,640840113e-01   -5,012443066e-01    0,000000000e+00    0,000000000e+00    0,000000000e+00    0,000000000e+00
     1080000000   -8,475448191e-02   -3,365061432e-02   -4,800686538e-01   -2,692055702e-01    0,000000000e+00    0,000000000e+00    0,000000000e+00    0,000000000e+00
     1094000000   -8,269530535e-02   -2,050795779e-02   -5,312570930e-01    4,228535667e-02    0,000000000e+00    0,000000000e+00    0,000000000e+00    0,000000000e+00
     1108000000   -6,102743372e-02   -8,916952647e-03   -3,970535100e-01    3,239218593e-01    0,000000000e+00    0,000000000e+00    0,000000000e+00    0,000000000e+00
     1122000000   -3,462984785e-02   -3,607287630e-02   -1,368712783e-01    4,824204743e-01    0,000000000e+00    0,000000000e+00    0,000000000e+00    0,000000000e+00
     1136000000   -2,537313104e-02   -8,396738768e-02    1,639845371e-01    4,709676206e-01    0,000000000e+00    0,000000000e+00    0,000000000e+00    0,000000000e+00
     1150000000   -6,471796334e-02   -1,320926398e-01    4,171922505e-01    3,136917949e-01    0,000000000e+00    0,000000000e+00    0,000000000e+00    0,000000000e+00
     1164000000   -1,397105604e-01   -1,516863257e-01    5,640860796e-01    2,762178332e-02    0,000000000e+00    0,000000000e+00    0,000000000e+00    0,000000000e+00
     1178000000   -2,076361030e-01   -1,175243780e-01    5,338754654e-01   -3,123702705e-01    0,000000000e+00    0,000000000e+00    0,000000000e+00    0,000000000e+00
     1192000000   -2,447229624e-01   -3,927245736e-02    2,953196466e-01   -5,997009873e-01    0,000000000e+00    0,000000000e+00    0,000000000e+00    0,000000000e+00
     1206000000   -2,349305302e-01    3,715982288e-02   -6,578355283e-02   -6,980062723e-01    0,000000000e+00    0,000000000e+00    0,000000000e+00    0,000000000e+00
     1220000000   -1,893754154e-01    8,633984625e-02   -4,208983779e-01   -5,774215460e-01    0,000000000e+00    0,000000000e+00    0,000000000e+00    0,000000000e+00
     1234000000   -1,295054406e-01    1,029294878e-01   -6,413214207e-01   -2,922621071e-01    0,000000000e+00    0,000000000e+00    0,000000000e+00    0,000000000e+00
     1248000000   -6,865280867e-02    1,005429253e-01   -6,726333499e-01    6,567821652e-02    0,000000000e+00    0,000000000e+00    0,000000000e+00    0,000000000e+00
     1262000000   -1,419822965e-02    6,097817793e-02   -5,186859965e-01    3,700646162e-01    0,000000000e+00    0,000000000e+00    0,000000000e+00    0,000000000e+00
     1276000000    2,428349853e-02   -2,362935804e-03   -2,431576252e-01    5,471430421e-01    0,000000000e+00    0,000000000e+00    0,000000000e+00    0,000000000e+00
     1290000000    1,941402443e-02   -8,749544621e-02    6,894313544e-02    5,770132542e-01    0,000000000e+00    0,000000000e+00    0,000000000e+00    0,000000000e+00
     1304000000   -3,199793026e-02   -1,692131162e-01    3,693792224e-01    4,673799276e-01    0,000000000e+00    0,000000000e+00    0,000000000e+00    0,000000000e+00
     1318000000   -1,323290169e-01   -2,177691460e-01    5,860401988e-01    2,160549760e-01    0,000000000e+00    0,000000000e+00    0,000000000e+00    0,000000000e+00
     1332000000   -2,547980249e-01   -1,862248778e-01    6,525653005e-01   -1,259593666e-01    0,000000000e+00    0,000000000e+00    0,000000000e+00    0,000000000e+00
     1346000000   -3,311740756e-01   -9,070891887e-02    5,102062225e-01   -4,586088359e-01    0,000000000e+00    0,000000000e+00    0,000000000e+00    0,000000000e+00
     1360000000   -3,292527795e-01    2,685069293e-02    1,836644858e-01   -6,433027387e-01    0,000000000e+00    0,000000000e+00    0,000000000e+00    0,000000000e+00
     1374000000   -2,843088508e-01    1,042469740e-01   -1,639453173e-01   -6,030109525e-01    0,000000000e+00    0,000000000e+00    0,000000000e+00    0,000000000e+00
     1388000000   -2,135834396e-01    1,366378516e-01   -4,166802764e-01   -3,725644946e-01    0,000000000e+00    0,000000000e+00    0,000000000e+00    0,000000000e+00
     1402000000   -1,490729004e-01    1,429139078e-01   -4,831822813e-01   -4,256646335e-02    0,000000000e+00    0,000000000e+00    0,000000000e+00    0,000000000e+00
     1416000000   -9,281183779e-02    1,223201156e-01   -3,755719662e-01    2,562724054e-01    0,000000000e+00    0,000000000e+00    0,000000000e+00    0,000000000e+00
     1430000000   -5,707678571e-02    7,299389690e-02   -1,303313524e-01    4,700041711e-01    0,000000000e+00    0,000000000e+00    0,000000000e+00    0,000000000e+00
     1444000000   -3,618245572e-02    3,723670030e-03    1,765900850e-01    5,393180847e-01    0,000000000e+00    0,000000000e+00    0,000000000e+00    0,000000000e+00
     1458000000   -6,384286284e-02   -6,970014423e-02    4,815613925e-01    4,848093688e-01    0,000000000e+00    0,000000000e+00    0,000000000e+00    0,000000000e+00
     1472000000   -1,284739226e-01   -1,185373813e-01    7,661042213e-01    2,608681023e-01    0,000000000e+00    0,000000000e+00    0,000000000e+00    0,000000000e+00
     1486000000   -2,316023856e-01   -1,198668480e-01    8,834652305e-01   -9,263326228e-02    0,000000000e+00    0,000000000e+00    0,000000000e+00    0,000000000e+00
     1500000000   -2,858322263e-01   -4,628624395e-02    8,021194339e-01   -4,535769224e-01    0,000000000e+00    0,000000000e+00    0,000000000e+00    0,000000000e+00
