! NanoVNA-App
! Date: 2025-09-25 15:11:40
! Start: 100MHz Stop: 1,5GHz Points: 101
! S-Parameter data: F S11 S21 S12 S22
# Hz S RI R 50
!     Frequency           S11_Real           S11_Imag           S21_Real           S21_Imag           S12_Real           S12_Imag           S22_Real           S22_Imag
      100000000    3,113484196e-02    2,863773890e-02    4,348297417e-01   -6,685138345e-01    0,000000000e+00    0,000000000e+00    0,000000000e+00    0,000000000e+00
      114000000    5,759305507e-02    5,502056330e-03    7,984079421e-03   -7,909115553e-01    0,000000000e+00    0,000000000e+00    0,000000000e+00    0,000000000e+00
      128000000    6,727913022e-02   -3,784806654e-02   -4,102007747e-01   -6,713168025e-01    0,000000000e+00    0,000000000e+00    0,000000000e+00    0,000000000e+00
      142000000    4,472057894e-02   -8,421530575e-02   -7,030511498e-01   -3,533379734e-01    0,000000000e+00    0,000000000e+00    0,000000000e+00    0,000000000e+00
      156000000   -5,653858650e-03   -1,069301441e-01   -7,870692611e-01    7,398810983e-02    0,000000000e+00    0,000000000e+00    0,000000000e+00    0,000000000e+00
      170000000   -5,764669552e-02   -9,059873968e-02   -6,277865171e-01    4,870817959e-01    0,000000000e+00    0,000000000e+00    0,000000000e+00    0,000000000e+00
      184000000   -8,368889987e-02   -4,944709316e-02   -2,651635110e-01    7,512076497e-01    0,000000000e+00    0,000000000e+00    0,000000000e+00    0,000000000e+00
      198000000   -7,967516035e-02   -1,041887049e-02    1,835839301e-01    7,731403112e-01    0,000000000e+00    0,000000000e+00    0,000000000e+00    0,000000000e+00
      212000000   -6,229890883e-02    1,320244465e-02    5,689201951e-01    5,490736365e-01    0,000000000e+00    0,000000000e+00    0,000000000e+00    0,000000000e+00
      226000000   -4,327414557e-02    2,763000503e-02    7,705838680e-01    1,545939445e-01    0,000000000e+00    0,000000000e+00    0,000000000e+00    0,000000000e+00
      240000000   -1,824625209e-02    3,847439215e-02    7,269406915e-01   -2,818433642e-01    0,000000000e+00    0,000000000e+00    0,000000000e+00    0,000000000e+00
      254000000    1,720005460e-02    3,522062302e-02    4,579799771e-01   -6,202748418e-01    0,000000000e+00    0,000000000e+00    0,000000000e+00    0,000000000e+00
      268000000    4,880859330e-02    5,579548422e-03    5,867860839e-02   -7,605570555e-01    0,000000000e+00    0,000000000e+00    0,000000000e+00    0,000000000e+00
      282000000    5,348578095e-02   -4,174817353e-02   -3,486159742e-01   -6,715998650e-01    0,000000000e+00    0,000000000e+00    0,000000000e+00    0,000000000e+00
      296000000    2,407730371e-02   -7,952587306e-02   -6,520460248e-01   -3,852452040e-01    0,000000000e+00    0,000000000e+00    0,000000000e+00    0,000000000e+00
      310000000   -1,772974804e-02   -8,309907466e-02   -7,624973059e-01    1,965739764e-02    0,000000000e+00    0,000000000e+00    0,000000000e+00    0,000000000e+00
      324000000   -4,156433791e-02   -5,881443992e-02   -6,322211623e-01    4,300227761e-01    0,000000000e+00    0,000000000e+00    0,000000000e+00    0,000000000e+00
      338000000   -3,437632322e-02   -3,716671094e-02   -2,958473265e-01    7,015144825e-01    0,000000000e+00    0,000000000e+00    0,000000000e+00    0,000000000e+00
      352000000   -1,733995043e-02   -4,080126807e-02    1,253674179e-01    7,424212098e-01    0,000000000e+00    0,000000000e+00    0,000000000e+00    0,000000000e+00
      366000000   -1,944261044e-02   -6,196430326e-02    4,980097711e-01    5,545188785e-01    0,000000000e+00    0,000000000e+00    0,000000000e+00    0,000000000e+00
      380000000   -4,447790980e-02   -7,257294655e-02    7,130171657e-01    2,001131475e-01    0,000000000e+00    0,000000000e+00    0,000000000e+00    0,000000000e+00
      394000000   -7,057288289e-02   -5,805948749e-02    7,047096491e-01   -2,160637826e-01    0,000000000e+00    0,000000000e+00    0,000000000e+00    0,000000000e+00
      408000000   -7,706259936e-02   -3,019564040e-02    4,705763459e-01   -5,594480634e-01    0,000000000e+00    0,000000000e+00    0,000000000e+00    0,000000000e+00
      422000000   -6,554775685e-02   -1,105523109e-02    9,377731383e-02   -7,181886435e-01    0,000000000e+00    0,000000000e+00    0,000000000e+00    0,000000000e+00
      436000000   -5,273916945e-02   -4,519939888e-03   -3,021847904e-01   -6,474214792e-01    0,000000000e+00    0,000000000e+00    0,000000000e+00    0,000000000e+00
      450000000   -4,447623342e-02    1,760554034e-03   -5,928005576e-01   -3,783130944e-01    0,000000000e+00    0,000000000e+00    0,000000000e+00    0,000000000e+00
      464000000   -2,971413918e-02    1,161776669e-02   -6,915499568e-01    4,711230940e-05    0,000000000e+00    0,000000000e+00    0,000000000e+00    0,000000000e+00
      478000000   -1,531266142e-03    1,126032975e-02   -5,735616684e-01    3,629420102e-01    0,000000000e+00    0,000000000e+00    0,000000000e+00    0,000000000e+00
      492000000    2,753052674e-02   -1,255917922e-02   -2,897277176e-01    6,020978093e-01    0,000000000e+00    0,000000000e+00    0,000000000e+00    0,000000000e+00
      506000000    3,686051443e-02   -5,590334162e-02    6,875569373e-02    6,581319571e-01    0,000000000e+00    0,000000000e+00    0,000000000e+00    0,000000000e+00
      520000000    1,222355571e-02   -9,895291924e-02    4,045470655e-01    5,237855315e-01    0,000000000e+00    0,000000000e+00    0,000000000e+00    0,000000000e+00
      534000000   -3,363394365e-02   -1,160048470e-01    6,243202090e-01    2,366207987e-01    0,000000000e+00    0,000000000e+00    0,000000000e+00    0,000000000e+00
      548000000   -7,773248106e-02   -9,900704771e-02    6,579229832e-01   -1,327532381e-01    0,000000000e+00    0,000000000e+00    0,000000000e+00    0,000000000e+00
      562000000   -9,317035228e-02   -6,611948460e-02    4,821987450e-01   -4,669783711e-01    0,000000000e+00    0,000000000e+00    0,000000000e+00    0,000000000e+00
      576000000   -8,669229597e-02   -4,487481713e-02    1,511677802e-01   -6,483905315e-01    0,000000000e+00    0,000000000e+00    0,000000000e+00    0,000000000e+00
      590000000   -8,094360679e-02   -4,166374356e-02   -2,196972519e-01   -6,294485927e-01    0,000000000e+00    0,000000000e+00    0,000000000e+00    0,000000000e+00
      604000000   -8,876362443e-02   -3,748203442e-02   -5,194730163e-01   -4,061938822e-01    0,000000000e+00    0,000000000e+00    0,000000000e+00    0,000000000e+00
      618000000   -9,685882181e-02   -1,481131557e-02   -6,536659002e-01   -5,866435170e-02    0,000000000e+00    0,000000000e+00    0,000000000e+00    0,000000000e+00
      632000000   -8,139269799e-02    1,534502674e-02   -5,756429434e-01    3,027561903e-01    0,000000000e+00    0,000000000e+00    0,000000000e+00    0,000000000e+00
      646000000   -4,316946492e-02    2,613522671e-02   -3,184492886e-01    5,553752780e-01    0,000000000e+00    0,000000000e+00    0,000000000e+00    0,000000000e+00
      660000000   -7,703308947e-03    6,479487754e-03    2,220738493e-02    6,304349899e-01    0,000000000e+00    0,000000000e+00    0,000000000e+00    0,000000000e+00
      674000000    1,423911890e-03   -3,048852272e-02    3,425876200e-01    5,181835294e-01    0,000000000e+00    0,000000000e+00    0,000000000e+00    0,000000000e+00
      688000000   -1,525086537e-02   -5,542495847e-02    5,586881042e-01    2,590079010e-01    0,000000000e+00    0,000000000e+00    0,000000000e+00    0,000000000e+00
      702000000   -3,371600434e-02   -6,047571823e-02    6,045063138e-01   -7,645711303e-02    0,000000000e+00    0,000000000e+00    0,000000000e+00    0,000000000e+00
      716000000   -3,695293516e-02   -5,511752889e-02    4,596663415e-01   -3,895055354e-01    0,000000000e+00    0,000000000e+00    0,000000000e+00    0,000000000e+00
      730000000   -3,145452216e-02   -6,530924141e-02    1,744554490e-01   -5,657504797e-01    0,000000000e+00    0,000000000e+00    0,000000000e+00    0,000000000e+00
      744000000   -4,104060307e-02   -8,847249299e-02   -1,521136016e-01   -5,635987520e-01    0,000000000e+00    0,000000000e+00    0,000000000e+00    0,000000000e+00
      758000000   -7,164729387e-02   -1,044709980e-01   -4,273245037e-01   -3,947061300e-01    0,000000000e+00    0,000000000e+00    0,000000000e+00    0,000000000e+00
      772000000   -1,136219725e-01   -9,476531297e-02   -5,747132301e-01   -1,063392758e-01    0,000000000e+00    0,000000000e+00    0,000000000e+00    0,000000000e+00
      786000000   -1,394508630e-01   -5,615300313e-02   -5,447208881e-01    2,210855335e-01    0,000000000e+00    0,000000000e+00    0,000000000e+00    0,000000000e+00
      800000000   -1,336775124e-01   -1,485431287e-02   -3,420447707e-01    4,799297750e-01    0,000000000e+00    0,000000000e+00    0,000000000e+00    0,000000000e+00
      814000000   -1,082751304e-01    7,916142233e-03   -3,449610248e-02    5,857673287e-01    0,000000000e+00    0,000000000e+00    0,000000000e+00    0,000000000e+00
      828000000   -8,619270474e-02    1,371505670e-02    2,783685625e-01    5,143842697e-01    0,000000000e+00    0,000000000e+00    0,000000000e+00    0,000000000e+00
      842000000   -7,021239400e-02    1,526669599e-02    5,029289126e-01    2,890089750e-01    0,000000000e+00    0,000000000e+00    0,000000000e+00    0,000000000e+00
      856000000   -5,183315650e-02    1,937416568e-02    5,709413290e-01   -1,806624606e-02    0,000000000e+00    0,000000000e+00    0,000000000e+00    0,000000000e+00
      870000000   -2,260046452e-02    1,510278042e-02    4,642743468e-01   -3,061251044e-01    0,000000000e+00    0,000000000e+00    0,000000000e+00    0,000000000e+00
      884000000    6,409053691e-03   -1,503623463e-02    2,312772572e-01   -4,895944595e-01    0,000000000e+00    0,000000000e+00    0,000000000e+00    0,000000000e+00
      898000000    1,211733464e-02   -6,370975822e-02   -5,188953131e-02   -5,273807049e-01    0,000000000e+00    0,000000000e+00    0,000000000e+00    0,000000000e+00
      912000000   -2,286129259e-02   -1,084194556e-01   -3,554718196e-01   -3,951019943e-01    0,000000000e+00    0,000000000e+00    0,000000000e+00    0,000000000e+00
      926000000   -7,381210476e-02   -1,250285953e-01   -5,298153162e-01   -1,590712219e-01    0,000000000e+00    0,000000000e+00    0,000000000e+00    0,000000000e+00
      940000000   -1,217891574e-01   -1,023333520e-01   -5,515255332e-01    1,576638520e-01    0,000000000e+00    0,000000000e+00    0,000000000e+00    0,000000000e+00
      954000000   -1,431792527e-01   -6,412064284e-02   -3,917338848e-01    4,465644956e-01    0,000000000e+00    0,000000000e+00    0,000000000e+00    0,000000000e+00
      968000000   -1,313607097e-01   -3,070368432e-02   -9,090463817e-02    6,048712730e-01    0,000000000e+00    0,000000000e+00    0,000000000e+00    0,000000000e+00
      982000000   -1,142586023e-01   -1,781980507e-02    2,462685257e-01    5,712491274e-01    0,000000000e+00    0,000000000e+00    0,000000000e+00    0,000000000e+00
      996000000   -1,043414026e-01   -1,463974919e-02    5,148718357e-01    3,671782315e-01    0,000000000e+00    0,000000000e+00    0,000000000e+00    0,000000000e+00
     1010000000   -1,038043126e-01   -8,795515634e-03    6,307002306e-01    5,288743973e-02    0,000000000e+00    0,000000000e+00    0,000000000e+00    0,000000000e+00
     1024000000   -9,182339907e-02   -2,544924384e-03    5,624463558e-01   -2,718542814e-01    0,000000000e+00    0,000000000e+00    0,000000000e+00    0,000000000e+00
     1038000000   -7,159503549e-02   -5,329620908e-04    3,379700482e-01   -5,032595396e-01    0,000000000e+00    0,000000000e+00    0,000000000e+00    0,000000000e+00
     1052000000   -6,562346220e-02   -1,977998205e-02    3,351859748e-02   -5,838155150e-01    0,000000000e+00    0,000000000e+00    0,000000000e+00    0,000000000e+00
     1066000000   -6,857186556e-02   -3,328884766e-02   -2,720095515e-01   -5,043257475e-01    0,000000000e+00    0,000000000e+00    0,000000000e+00    0,000000000e+00
     1080000000   -8,416939527e-02   -3,144990280e-02   -4,775671065e-01   -2,714857459e-01    0,000000000e+00    0,000000000e+00    0,000000000e+00    0,000000000e+00
     1094000000   -8,143509924e-02   -1,960573345e-02   -5,325026512e-01    4,348988831e-02    0,000000000e+00    0,000000000e+00    0,000000000e+00    0,000000000e+00
     1108000000   -5,692414939e-02   -1,402708143e-02   -3,980803490e-01    3,265966475e-01    0,000000000e+00    0,000000000e+00    0,000000000e+00    0,000000000e+00
     1122000000   -3,413053975e-02   -3,615986556e-02   -1,393897682e-01    4,829916954e-01    0,000000000e+00    0,000000000e+00    0,000000000e+00    0,000000000e+00
     1136000000   -2,754085325e-02   -8,380944282e-02    1,604060680e-01    4,723816216e-01    0,000000000e+00    0,000000000e+00    0,000000000e+00    0,000000000e+00
     1150000000   -6,446545571e-02   -1,389112473e-01    4,187394381e-01    3,132226467e-01    0,000000000e+00    0,000000000e+00    0,000000000e+00    0,000000000e+00
     1164000000   -1,345381141e-01   -1,527004093e-01    5,610265732e-01    2,984709293e-02    0,000000000e+00    0,000000000e+00    0,000000000e+00    0,000000000e+00
     1178000000   -2,134664059e-01   -1,203785688e-01    5,279583335e-01   -3,152997494e-01    0,000000000e+00    0,000000000e+00    0,000000000e+00    0,000000000e+00
     1192000000   -2,498084158e-01   -4,615341872e-02    2,941733897e-01   -6,029702425e-01    0,000000000e+00    0,000000000e+00    0,000000000e+00    0,000000000e+00
     1206000000   -2,341974229e-01    3,800247610e-02   -6,753761321e-02   -6,978240609e-01    0,000000000e+00    0,000000000e+00    0,000000000e+00    0,000000000e+00
     1220000000   -1,877515018e-01    8,334886283e-02   -4,197983742e-01   -5,806811452e-01    0,000000000e+00    0,000000000e+00    0,000000000e+00    0,000000000e+00
     1234000000   -1,291440278e-01    9,976648539e-02   -6,492855549e-01   -2,932070196e-01    0,000000000e+00    0,000000000e+00    0,000000000e+00    0,000000000e+00
     1248000000   -6,593017280e-02    9,406003356e-02   -6,731324792e-01    5,868996680e-02    0,000000000e+00    0,000000000e+00    0,000000000e+00    0,000000000e+00
     1262000000   -1,127260923e-02    5,983125418e-02   -5,156877041e-01    3,695425689e-01    0,000000000e+00    0,000000000e+00    0,000000000e+00    0,000000000e+00
     1276000000    2,763925865e-02   -3,207821166e-03   -2,418164909e-01    5,439217687e-01    0,000000000e+00    0,000000000e+00    0,000000000e+00    0,000000000e+00
     1290000000    2,441908233e-02   -9,386960417e-02    7,058807462e-02    5,719098449e-01    0,000000000e+00    0,000000000e+00    0,000000000e+00    0,000000000e+00
     1304000000   -2,768666297e-02   -1,761636436e-01    3,683049679e-01    4,625804722e-01    0,000000000e+00    0,000000000e+00    0,000000000e+00    0,000000000e+00
     1318000000   -1,379777789e-01   -2,141740322e-01    5,836527348e-01    2,236034274e-01    0,000000000e+00    0,000000000e+00    0,000000000e+00    0,000000000e+00
     1332000000   -2,533339262e-01   -1,838236451e-01    6,608434916e-01   -1,212925017e-01    0,000000000e+00    0,000000000e+00    0,000000000e+00    0,000000000e+00
     1346000000   -3,333501220e-01   -8,848070353e-02    5,047303438e-01   -4,576471150e-01    0,000000000e+00    0,000000000e+00    0,000000000e+00    0,000000000e+00
     1360000000   -3,364475667e-01    2,319003455e-02    1,896782666e-01   -6,457305551e-01    0,000000000e+00    0,000000000e+00    0,000000000e+00    0,000000000e+00
     1374000000   -2,806109786e-01    9,930747002e-02   -1,519482285e-01   -6,004496813e-01    0,000000000e+00    0,000000000e+00    0,000000000e+00    0,000000000e+00
     1388000000   -2,146313339e-01    1,321005374e-01   -4,031106532e-01   -3,831543922e-01    0,000000000e+00    0,000000000e+00    0,000000000e+00    0,000000000e+00
     1402000000   -1,478895098e-01    1,409544349e-01   -4,825340807e-01   -5,900724232e-02    0,000000000e+00    0,000000000e+00    0,000000000e+00    0,000000000e+00
     1416000000   -9,235098213e-02    1,163764596e-01   -3,803547323e-01    2,333577871e-01    0,000000000e+00    0,000000000e+00    0,000000000e+00    0,000000000e+00
     1430000000   -5,345793068e-02    7,135897130e-02   -1,265726537e-01    4,775339663e-01    0,000000000e+00    0,000000000e+00    0,000000000e+00    0,000000000e+00
     1444000000   -3,819325939e-02    1,284553553e-03    1,579033136e-01    5,325224996e-01    0,000000000e+00    0,000000000e+00    0,000000000e+00    0,000000000e+00
     1458000000   -6,282935292e-02   -7,152225822e-02    4,932433963e-01    4,692916274e-01    0,000000000e+00    0,000000000e+00    0,000000000e+00    0,000000000e+00
     1472000000   -1,363691539e-01   -1,194474623e-01    7,600276470e-01    2,676735520e-01    0,000000000e+00    0,000000000e+00    0,000000000e+00    0,000000000e+00
     1486000000   -2,306312323e-01   -1,156932488e-01    8,939130306e-01   -8,312456310e-02    0,000000000e+00    0,000000000e+00    0,000000000e+00    0,000000000e+00
     1500000000   -2,790035009e-01   -4,787221178e-02    8,235812187e-01   -4,572868347e-01    0,000000000e+00    0,000000000e+00    0,000000000e+00    0,000000000e+00
