! NanoVNA-App
! Date: 2025-09-25 15:10:29
! Start: 100MHz Stop: 1,5GHz Points: 101
! S-Parameter data: F S11 S21 S12 S22
# Hz S RI R 50
!     Frequency           S11_Real           S11_Imag           S21_Real           S21_Imag           S12_Real           S12_Imag           S22_Real           S22_Imag
      100000000    3,113387898e-02    2,863783389e-02    4,349077642e-01   -6,686024070e-01    0,000000000e+00    0,000000000e+00    0,000000000e+00    0,000000000e+00
      114000000    5,762418732e-02    5,486674141e-03    7,729879580e-03   -7,910377979e-01    0,000000000e+00    0,000000000e+00    0,000000000e+00    0,000000000e+00
      128000000    6,731398404e-02   -3,783825785e-02   -4,102529287e-01   -6,711759567e-01    0,000000000e+00    0,000000000e+00    0,000000000e+00    0,000000000e+00
      142000000    4,473798722e-02   -8,422508091e-02   -7,028859854e-01   -3,534101844e-01    0,000000000e+00    0,000000000e+00    0,000000000e+00    0,000000000e+00
      156000000   -5,657747388e-03   -1,062677503e-01   -7,866274714e-01    7,267235219e-02    0,000000000e+00    0,000000000e+00    0,000000000e+00    0,000000000e+00
      170000000   -5,771393701e-02   -9,057162702e-02   -6,276412010e-01    4,869699180e-01    0,000000000e+00    0,000000000e+00    0,000000000e+00    0,000000000e+00
      184000000   -8,372644335e-02   -4,947914183e-02   -2,649542689e-01    7,509838343e-01    0,000000000e+00    0,000000000e+00    0,000000000e+00    0,000000000e+00
      198000000   -7,967962325e-02   -1,045565028e-02    1,834403127e-01    7,730475068e-01    0,000000000e+00    0,000000000e+00    0,000000000e+00    0,000000000e+00
      212000000   -6,230003387e-02    1,314009167e-02    5,691566467e-01    5,491325855e-01    0,000000000e+00    0,000000000e+00    0,000000000e+00    0,000000000e+00
      226000000   -4,329358041e-02    2,773716301e-02    7,706286311e-01    1,545573771e-01    0,000000000e+00    0,000000000e+00    0,000000000e+00    0,000000000e+00
      240000000   -1,825159788e-02    3,852707520e-02    7,267503142e-01   -2,819793224e-01    0,000000000e+00    0,000000000e+00    0,000000000e+00    0,000000000e+00
      254000000    1,718781702e-02    3,518605977e-02    4,581327438e-01   -6,202193499e-01    0,000000000e+00    0,000000000e+00    0,000000000e+00    0,000000000e+00
      268000000    4,882219806e-02    5,631690845e-03    5,872611329e-02   -7,599119544e-01    0,000000000e+00    0,000000000e+00    0,000000000e+00    0,000000000e+00
      282000000    5,350117385e-02   -4,174835980e-02   -3,489552438e-01   -6,716374159e-01    0,000000000e+00    0,000000000e+00    0,000000000e+00    0,000000000e+00
      296000000    2,403373085e-02   -7,941415161e-02   -6,518240571e-01   -3,855528533e-01    0,000000000e+00    0,000000000e+00    0,000000000e+00    0,000000000e+00
      310000000   -1,783716865e-02   -8,320290595e-02   -7,628851533e-01    2,075522393e-02    0,000000000e+00    0,000000000e+00    0,000000000e+00    0,000000000e+00
      324000000   -4,183093086e-02   -5,887685344e-02   -6,325696111e-01    4,305445552e-01    0,000000000e+00    0,000000000e+00    0,000000000e+00    0,000000000e+00
      338000000   -3,431512788e-02   -3,684040904e-02   -2,971200943e-01    7,014597058e-01    0,000000000e+00    0,000000000e+00    0,000000000e+00    0,000000000e+00
      352000000   -1,745367981e-02   -4,081121832e-02    1,255788505e-01    7,430922389e-01    0,000000000e+00    0,000000000e+00    0,000000000e+00    0,000000000e+00
      366000000   -1,927900314e-02   -6,203937903e-02    4,978455603e-01    5,548875332e-01    0,000000000e+00    0,000000000e+00    0,000000000e+00    0,000000000e+00
      380000000   -4,430398345e-02   -7,264080644e-02    7,136318684e-01    2,000283003e-01    0,000000000e+00    0,000000000e+00    0,000000000e+00    0,000000000e+00
      394000000   -7,120940834e-02   -5,839177221e-02    7,035256028e-01   -2,163725644e-01    0,000000000e+00    0,000000000e+00    0,000000000e+00    0,000000000e+00
      408000000   -7,701667398e-02   -3,049464151e-02    4,707483053e-01   -5,598304868e-01    0,000000000e+00    0,000000000e+00    0,000000000e+00    0,000000000e+00
      422000000   -6,551977992e-02   -1,114786509e-02    9,365934879e-02   -7,182657719e-01    0,000000000e+00    0,000000000e+00    0,000000000e+00    0,000000000e+00
      436000000   -5,313788727e-02   -4,519890994e-03   -3,021223545e-01   -6,477329731e-01    0,000000000e+00    0,000000000e+00    0,000000000e+00    0,000000000e+00
      450000000   -4,471979663e-02    1,670393278e-03   -5,929090381e-01   -3,783902824e-01    0,000000000e+00    0,000000000e+00    0,000000000e+00    0,000000000e+00
      464000000   -2,967702784e-02    1,101593394e-02   -6,913055778e-01   -2,503341238e-04    0,000000000e+00    0,000000000e+00    0,000000000e+00    0,000000000e+00
      478000000   -1,186607871e-03    1,141237747e-02   -5,736576915e-01    3,632236719e-01    0,000000000e+00    0,000000000e+00    0,000000000e+00    0,000000000e+00
      492000000    2,771745063e-02   -1,200259384e-02   -2,892742455e-01    6,024919152e-01    0,000000000e+00    0,000000000e+00    0,000000000e+00    0,000000000e+00
      506000000    3,655337915e-02   -5,570392683e-02    6,934460253e-02    6,582881212e-01    0,000000000e+00    0,000000000e+00    0,000000000e+00    0,000000000e+00
      520000000    1,230688859e-02   -9,838414937e-02    4,063583016e-01    5,254981518e-01    0,000000000e+00    0,000000000e+00    0,000000000e+00    0,000000000e+00
      534000000   -3,413983434e-02   -1,161759496e-01    6,237622499e-01    2,358699888e-01    0,000000000e+00    0,000000000e+00    0,000000000e+00    0,000000000e+00
      548000000   -7,741670310e-02   -9,952433407e-02    6,581941247e-01   -1,336552203e-01    0,000000000e+00    0,000000000e+00    0,000000000e+00    0,000000000e+00
      562000000   -9,362646937e-02   -6,605797261e-02    4,820694625e-01   -4,662111700e-01    0,000000000e+00    0,000000000e+00    0,000000000e+00    0,000000000e+00
      576000000   -8,659708500e-02   -4,474352300e-02    1,502665430e-01   -6,486726999e-01    0,000000000e+00    0,000000000e+00    0,000000000e+00    0,000000000e+00
      590000000   -8,076290041e-02   -4,176679626e-02   -2,185126245e-01   -6,287184358e-01    0,000000000e+00    0,000000000e+00    0,000000000e+00    0,000000000e+00
      604000000   -8,870440722e-02   -3,749061003e-02   -5,193080306e-01   -4,064338207e-01    0,000000000e+00    0,000000000e+00    0,000000000e+00    0,000000000e+00
      618000000   -9,702487290e-02   -1,507276203e-02   -6,531332135e-01   -5,869423598e-02    0,000000000e+00    0,000000000e+00    0,000000000e+00    0,000000000e+00
      632000000   -8,090068400e-02    1,566367410e-02   -5,755537748e-01    3,024484515e-01    0,000000000e+00    0,000000000e+00    0,000000000e+00    0,000000000e+00
      646000000   -4,284604266e-02    2,671472169e-02   -3,184840083e-01    5,566865802e-01    0,000000000e+00    0,000000000e+00    0,000000000e+00    0,000000000e+00
      660000000   -8,015401661e-03    6,355140824e-03    2,103966288e-02    6,300758123e-01    0,000000000e+00    0,000000000e+00    0,000000000e+00    0,000000000e+00
      674000000    1,691313344e-03   -3,027351759e-02    3,417995572e-01    5,187308788e-01    0,000000000e+00    0,000000000e+00    0,000000000e+00    0,000000000e+00
      688000000   -1,428584009e-02   -5,536360666e-02    5,586493611e-01    2,581041157e-01    0,000000000e+00    0,000000000e+00    0,000000000e+00    0,000000000e+00
      702000000   -3,300423920e-02   -6,004673988e-02    6,039884686e-01   -8,140383661e-02    0,000000000e+00    0,000000000e+00    0,000000000e+00    0,000000000e+00
      716000000   -3,685226664e-02   -5,639615655e-02    4,599049091e-01   -3,891896009e-01    0,000000000e+00    0,000000000e+00    0,000000000e+00    0,000000000e+00
      730000000   -3,168405592e-02   -6,455216557e-02    1,747872084e-01   -5,660707355e-01    0,000000000e+00    0,000000000e+00    0,000000000e+00    0,000000000e+00
      744000000   -4,089647532e-02   -8,792345226e-02   -1,523915976e-01   -5,637228489e-01    0,000000000e+00    0,000000000e+00    0,000000000e+00    0,000000000e+00
      758000000   -7,151315361e-02   -1,045489460e-01   -4,267190099e-01   -3,945692778e-01    0,000000000e+00    0,000000000e+00    0,000000000e+00    0,000000000e+00
      772000000   -1,137006357e-01   -9,383806586e-02   -5,745123625e-01   -1,058026403e-01    0,000000000e+00    0,000000000e+00    0,000000000e+00    0,000000000e+00
      786000000   -1,389583498e-01   -5,561317876e-02   -5,445917249e-01    2,210215330e-01    0,000000000e+00    0,000000000e+00    0,000000000e+00    0,000000000e+00
      800000000   -1,325924695e-01   -1,524366345e-02   -3,418602645e-01    4,794558585e-01    0,000000000e+00    0,000000000e+00    0,000000000e+00    0,000000000e+00
      814000000   -1,086806804e-01    8,576888591e-03   -3,363347054e-02    5,860703588e-01    0,000000000e+00    0,000000000e+00    0,000000000e+00    0,000000000e+00
      828000000   -8,615140617e-02    1,325365994e-02    2,798334956e-01    5,138912201e-01    0,000000000e+00    0,000000000e+00    0,000000000e+00    0,000000000e+00
      842000000   -7,021273673e-02    1,540081017e-02    5,021571517e-01    2,894933820e-01    0,000000000e+00    0,000000000e+00    0,000000000e+00    0,000000000e+00
      856000000   -5,251964182e-02    1,905274019e-02    5,709055066e-01   -1,801390760e-02    0,000000000e+00    0,000000000e+00    0,000000000e+00    0,000000000e+00
      870000000   -2,278019302e-02    1,490934193e-02    4,641159475e-01   -3,061714172e-01    0,000000000e+00    0,000000000e+00    0,000000000e+00    0,000000000e+00
      884000000    5,779672414e-03   -1,429978292e-02    2,297392040e-01   -4,879991710e-01    0,000000000e+00    0,000000000e+00    0,000000000e+00    0,000000000e+00
      898000000    1,218380779e-02   -6,362531334e-02   -5,025574937e-02   -5,259563923e-01    0,000000000e+00    0,000000000e+00    0,000000000e+00    0,000000000e+00
      912000000   -2,319253795e-02   -1,081406176e-01   -3,638508022e-01   -3,954927623e-01    0,000000000e+00    0,000000000e+00    0,000000000e+00    0,000000000e+00
      926000000   -7,596377283e-02   -1,242619380e-01   -5,321733356e-01   -1,565595418e-01    0,000000000e+00    0,000000000e+00    0,000000000e+00    0,000000000e+00
      940000000   -1,251998991e-01   -1,037773788e-01   -5,538338423e-01    1,563588232e-01    0,000000000e+00    0,000000000e+00    0,000000000e+00    0,000000000e+00
      954000000   -1,418636590e-01   -5,852328241e-02   -3,919241726e-01    4,459728897e-01    0,000000000e+00    0,000000000e+00    0,000000000e+00    0,000000000e+00
      968000000   -1,305502802e-01   -2,966018766e-02   -9,181821346e-02    6,022385955e-01    0,000000000e+00    0,000000000e+00    0,000000000e+00    0,000000000e+00
      982000000   -1,171877161e-01   -1,702910289e-02    2,437887341e-01    5,724554658e-01    0,000000000e+00    0,000000000e+00    0,000000000e+00    0,000000000e+00
      996000000   -1,057857871e-01   -1,605712250e-02    5,126542449e-01    3,657814860e-01    0,000000000e+00    0,000000000e+00    0,000000000e+00    0,000000000e+00
     1010000000   -1,006689444e-01   -1,031955145e-02    6,282888055e-01    5,284765735e-02    0,000000000e+00    0,000000000e+00    0,000000000e+00    0,000000000e+00
     1024000000   -8,976843953e-02    6,085309433e-04    5,613508821e-01   -2,710141242e-01    0,000000000e+00    0,000000000e+00    0,000000000e+00    0,000000000e+00
     1038000000   -7,505392283e-02    7,686900208e-04    3,382333219e-01   -5,045889616e-01    0,000000000e+00    0,000000000e+00    0,000000000e+00    0,000000000e+00
     1052000000   -6,852926314e-02   -1,529242191e-02    3,286847472e-02   -5,875561833e-01    0,000000000e+00    0,000000000e+00    0,000000000e+00    0,000000000e+00
     1066000000   -6,711699814e-02   -3,081306256e-02   -2,685781717e-01   -5,020235181e-01    0,000000000e+00    0,000000000e+00    0,000000000e+00    0,000000000e+00
     1080000000   -8,158940822e-02   -3,428725526e-02   -4,801197648e-01   -2,697979510e-01    0,000000000e+00    0,000000000e+00    0,000000000e+00    0,000000000e+00
     1094000000   -8,027042449e-02   -1,824428700e-02   -5,326560736e-01    4,160405695e-02    0,000000000e+00    0,000000000e+00    0,000000000e+00    0,000000000e+00
     1108000000   -6,337051094e-02   -1,017225627e-02   -3,990780711e-01    3,232837617e-01    0,000000000e+00    0,000000000e+00    0,000000000e+00    0,000000000e+00
     1122000000   -2,912467718e-02   -3,471649066e-02   -1,366434246e-01    4,814021885e-01    0,000000000e+00    0,000000000e+00    0,000000000e+00    0,000000000e+00
     1136000000   -2,717674524e-02   -8,786384761e-02    1,623339653e-01    4,754683077e-01    0,000000000e+00    0,000000000e+00    0,000000000e+00    0,000000000e+00
     1150000000   -6,665950269e-02   -1,353681535e-01    4,188644290e-01    3,107481897e-01    0,000000000e+00    0,000000000e+00    0,000000000e+00    0,000000000e+00
     1164000000   -1,406227201e-01   -1,561462134e-01    5,629399419e-01    2,642855234e-02    0,000000000e+00    0,000000000e+00    0,000000000e+00    0,000000000e+00
     1178000000   -2,148897052e-01   -1,166914031e-01    5,325444937e-01   -3,153010011e-01    0,000000000e+00    0,000000000e+00    0,000000000e+00    0,000000000e+00
     1192000000   -2,521333396e-01   -4,436374828e-02    2,950239182e-01   -6,002721190e-01    0,000000000e+00    0,000000000e+00    0,000000000e+00    0,000000000e+00
     1206000000   -2,340890467e-01    3,006549552e-02   -6,344687939e-02   -6,976327896e-01    0,000000000e+00    0,000000000e+00    0,000000000e+00    0,000000000e+00
     1220000000   -1,839021742e-01    7,906686515e-02   -4,230500758e-01   -5,791324377e-01    0,000000000e+00    0,000000000e+00    0,000000000e+00    0,000000000e+00
     1234000000   -1,281143725e-01    1,073070914e-01   -6,435825229e-01   -2,911863327e-01    0,000000000e+00    0,000000000e+00    0,000000000e+00    0,000000000e+00
     1248000000   -6,232756376e-02    9,810310602e-02   -6,749505997e-01    6,806106865e-02    0,000000000e+00    0,000000000e+00    0,000000000e+00    0,000000000e+00
     1262000000   -1,080744434e-02    6,301661581e-02   -5,143911242e-01    3,703014553e-01    0,000000000e+00    0,000000000e+00    0,000000000e+00    0,000000000e+00
     1276000000    2,276404388e-02   -1,502912026e-03   -2,441870123e-01    5,465288758e-01    0,000000000e+00    0,000000000e+00    0,000000000e+00    0,000000000e+00
     1290000000    2,095230669e-02   -8,562926203e-02    7,623921335e-02    5,796517134e-01    0,000000000e+00    0,000000000e+00    0,000000000e+00    0,000000000e+00
     1304000000   -3,280337900e-02   -1,710618883e-01    3,623219132e-01    4,653515816e-01    0,000000000e+00    0,000000000e+00    0,000000000e+00    0,000000000e+00
     1318000000   -1,348753870e-01   -2,164642960e-01    5,821391344e-01    2,227825820e-01    0,000000000e+00    0,000000000e+00    0,000000000e+00    0,000000000e+00
     1332000000   -2,548303604e-01   -1,903053224e-01    6,493414044e-01   -1,280649453e-01    0,000000000e+00    0,000000000e+00    0,000000000e+00    0,000000000e+00
     1346000000   -3,289059103e-01   -8,656163514e-02    5,122460127e-01   -4,539523125e-01    0,000000000e+00    0,000000000e+00    0,000000000e+00    0,000000000e+00
     1360000000   -3,364926279e-01    2,445844188e-02    1,889870018e-01   -6,523904800e-01    0,000000000e+00    0,000000000e+00    0,000000000e+00    0,000000000e+00
     1374000000   -2,779834270e-01    1,034642458e-01   -1,533353925e-01   -6,043742299e-01    0,000000000e+00    0,000000000e+00    0,000000000e+00    0,000000000e+00
     1388000000   -2,117230892e-01    1,358585358e-01   -3,953747451e-01   -3,715990782e-01    0,000000000e+00    0,000000000e+00    0,000000000e+00    0,000000000e+00
     1402000000   -1,543704271e-01    1,390209794e-01   -4,828836024e-01   -5,117199197e-02    0,000000000e+00    0,000000000e+00    0,000000000e+00    0,000000000e+00
     1416000000   -9,910944849e-02    1,204718500e-01   -3,853284121e-01    2,435818613e-01    0,000000000e+00    0,000000000e+00    0,000000000e+00    0,000000000e+00
     1430000000   -5,130849034e-02    7,430419326e-02   -1,356429905e-01    4,787026346e-01    0,000000000e+00    0,000000000e+00    0,000000000e+00    0,000000000e+00
     1444000000   -4,140484706e-02    6,343335845e-04    1,658276320e-01    5,346230865e-01    0,000000000e+00    0,000000000e+00    0,000000000e+00    0,000000000e+00
     1458000000   -6,808248907e-02   -7,094689459e-02    4,706196189e-01    4,720610976e-01    0,000000000e+00    0,000000000e+00    0,000000000e+00    0,000000000e+00
     1472000000   -1,417475939e-01   -1,296040267e-01    7,523338795e-01    2,495129406e-01    0,000000000e+00    0,000000000e+00    0,000000000e+00    0,000000000e+00
     1486000000   -2,276608050e-01   -1,131937131e-01    9,015534520e-01   -9,575365484e-02    0,000000000e+00    0,000000000e+00    0,000000000e+00    0,000000000e+00
     1500000000   -2,819843590e-01   -4,628946632e-02    8,169962168e-01   -4,526938796e-01    0,000000000e+00    0,000000000e+00    0,000000000e+00    0,000000000e+00
