! NanoVNA-App
! Date: 2025-09-25 15:08:43
! Start: 100MHz Stop: 1,5GHz Points: 101
! S-Parameter data: F S11 S21 S12 S22
# Hz S RI R 50
!     Frequency           S11_Real           S11_Imag           S21_Real           S21_Imag           S12_Real           S12_Imag           S22_Real           S22_Imag
      100000000    3,115588985e-02    2,865076065e-02    4,348594248e-01   -6,686413884e-01    0,000000000e+00    0,000000000e+00    0,000000000e+00    0,000000000e+00
      114000000    5,759688094e-02    5,489006173e-03    7,700847927e-03   -7,910894156e-01    0,000000000e+00    0,000000000e+00    0,000000000e+00    0,000000000e+00
      128000000    6,730080396e-02   -3,784506768e-02   -4,101660252e-01   -6,710102558e-01    0,000000000e+00    0,000000000e+00    0,000000000e+00    0,000000000e+00
      142000000    4,474494606e-02   -8,425539732e-02   -7,027885914e-01   -3,532401621e-01    0,000000000e+00    0,000000000e+00    0,000000000e+00    0,000000000e+00
      156000000   -5,837252829e-03   -1,067939550e-01   -7,866386771e-01    7,387822121e-02    0,000000000e+00    0,000000000e+00    0,000000000e+00    0,000000000e+00
      170000000   -5,769618601e-02   -9,069032967e-02   -6,277590990e-01    4,870032370e-01    0,000000000e+00    0,000000000e+00    0,000000000e+00    0,000000000e+00
      184000000   -8,368133754e-02   -4,949491099e-02   -2,647790909e-01    7,507984042e-01    0,000000000e+00    0,000000000e+00    0,000000000e+00    0,000000000e+00
      198000000   -7,963909954e-02   -1,048875786e-02    1,835134625e-01    7,731795311e-01    0,000000000e+00    0,000000000e+00    0,000000000e+00    0,000000000e+00
      212000000   -6,230755523e-02    1,319505740e-02    5,692274570e-01    5,491908193e-01    0,000000000e+00    0,000000000e+00    0,000000000e+00    0,000000000e+00
      226000000   -4,332159460e-02    2,769006789e-02    7,707322836e-01    1,546171159e-01    0,000000000e+00    0,000000000e+00    0,000000000e+00    0,000000000e+00
      240000000   -1,822466962e-02    3,846943378e-02    7,268764973e-01   -2,818877697e-01    0,000000000e+00    0,000000000e+00    0,000000000e+00    0,000000000e+00
      254000000    1,718972065e-02    3,520807996e-02    4,581879973e-01   -6,200441718e-01    0,000000000e+00    0,000000000e+00    0,000000000e+00    0,000000000e+00
      268000000    4,877724499e-02    5,646361504e-03    5,874712020e-02   -7,601191401e-01    0,000000000e+00    0,000000000e+00    0,000000000e+00    0,000000000e+00
      282000000    5,347887054e-02   -4,186924547e-02   -3,490523696e-01   -6,718038321e-01    0,000000000e+00    0,000000000e+00    0,000000000e+00    0,000000000e+00
      296000000    2,408750355e-02   -7,945881039e-02   -6,522220373e-01   -3,858172894e-01    0,000000000e+00    0,000000000e+00    0,000000000e+00    0,000000000e+00
      310000000   -1,781251095e-02   -8,313384652e-02   -7,634897232e-01    2,126491629e-02    0,000000000e+00    0,000000000e+00    0,000000000e+00    0,000000000e+00
      324000000   -4,184209555e-02   -5,881356448e-02   -6,324119568e-01    4,311670661e-01    0,000000000e+00    0,000000000e+00    0,000000000e+00    0,000000000e+00
      338000000   -3,415666521e-02   -3,678994253e-02   -2,986136973e-01    7,018550634e-01    0,000000000e+00    0,000000000e+00    0,000000000e+00    0,000000000e+00
      352000000   -1,722488925e-02   -4,080113769e-02    1,260744631e-01    7,423217297e-01    0,000000000e+00    0,000000000e+00    0,000000000e+00    0,000000000e+00
      366000000   -1,915594377e-02   -6,196349859e-02    4,980105460e-01    5,545411110e-01    0,000000000e+00    0,000000000e+00    0,000000000e+00    0,000000000e+00
      380000000   -4,449776188e-02   -7,270922512e-02    7,129777670e-01    1,997417212e-01    0,000000000e+00    0,000000000e+00    0,000000000e+00    0,000000000e+00
      394000000   -7,099271566e-02   -5,792636424e-02    7,042865753e-01   -2,163626999e-01    0,000000000e+00    0,000000000e+00    0,000000000e+00    0,000000000e+00
      408000000   -7,707343996e-02   -3,064667806e-02    4,703389704e-01   -5,597252250e-01    0,000000000e+00    0,000000000e+00    0,000000000e+00    0,000000000e+00
      422000000   -6,533993781e-02   -1,141684409e-02    9,448108822e-02   -7,186931968e-01    0,000000000e+00    0,000000000e+00    0,000000000e+00    0,000000000e+00
      436000000   -5,263844132e-02   -4,750258289e-03   -3,017466664e-01   -6,476919651e-01    0,000000000e+00    0,000000000e+00    0,000000000e+00    0,000000000e+00
      450000000   -4,504721984e-02    1,592959743e-03   -5,931619406e-01   -3,778206110e-01    0,000000000e+00    0,000000000e+00    0,000000000e+00    0,000000000e+00
      464000000   -2,926132455e-02    1,142725442e-02   -6,911665797e-01    2,831722086e-04    0,000000000e+00    0,000000000e+00    0,000000000e+00    0,000000000e+00
      478000000   -1,087055658e-03    1,128740981e-02   -5,733429790e-01    3,637329340e-01    0,000000000e+00    0,000000000e+00    0,000000000e+00    0,000000000e+00
      492000000    2,796647325e-02   -1,245906670e-02   -2,889010906e-01    6,021291614e-01    0,000000000e+00    0,000000000e+00    0,000000000e+00    0,000000000e+00
      506000000    3,669452295e-02   -5,557655171e-02    6,967062503e-02    6,581807137e-01    0,000000000e+00    0,000000000e+00    0,000000000e+00    0,000000000e+00
      520000000    1,315313205e-02   -9,881619364e-02    4,029125869e-01    5,257472992e-01    0,000000000e+00    0,000000000e+00    0,000000000e+00    0,000000000e+00
      534000000   -3,442642838e-02   -1,158302575e-01    6,241472960e-01    2,364540994e-01    0,000000000e+00    0,000000000e+00    0,000000000e+00    0,000000000e+00
      548000000   -7,705714554e-02   -9,932575375e-02    6,586031914e-01   -1,330793798e-01    0,000000000e+00    0,000000000e+00    0,000000000e+00    0,000000000e+00
      562000000   -9,341557324e-02   -6,589327753e-02    4,817854166e-01   -4,666184783e-01    0,000000000e+00    0,000000000e+00    0,000000000e+00    0,000000000e+00
      576000000   -8,667233586e-02   -4,432484135e-02    1,500004828e-01   -6,484954357e-01    0,000000000e+00    0,000000000e+00    0,000000000e+00    0,000000000e+00
      590000000   -8,076619357e-02   -4,173356295e-02   -2,224032879e-01   -6,286681294e-01    0,000000000e+00    0,000000000e+00    0,000000000e+00    0,000000000e+00
      604000000   -8,914949745e-02   -3,747677058e-02   -5,202507973e-01   -4,058367312e-01    0,000000000e+00    0,000000000e+00    0,000000000e+00    0,000000000e+00
      618000000   -9,635740519e-02   -1,534428075e-02   -6,535331607e-01   -5,861519277e-02    0,000000000e+00    0,000000000e+00    0,000000000e+00    0,000000000e+00
      632000000   -8,055305481e-02    1,513829734e-02   -5,754262805e-01    3,028307557e-01    0,000000000e+00    0,000000000e+00    0,000000000e+00    0,000000000e+00
      646000000   -4,310852289e-02    2,595901489e-02   -3,184961677e-01    5,559871197e-01    0,000000000e+00    0,000000000e+00    0,000000000e+00    0,000000000e+00
      660000000   -7,601817604e-03    5,404203665e-03    2,204180695e-02    6,300724745e-01    0,000000000e+00    0,000000000e+00    0,000000000e+00    0,000000000e+00
      674000000    1,478380407e-03   -3,037290461e-02    3,417041302e-01    5,182389021e-01    0,000000000e+00    0,000000000e+00    0,000000000e+00    0,000000000e+00
      688000000   -1,415679324e-02   -5,529731885e-02    5,592052937e-01    2,591691017e-01    0,000000000e+00    0,000000000e+00    0,000000000e+00    0,000000000e+00
      702000000   -3,399483860e-02   -5,876263231e-02    6,058480740e-01   -8,308897167e-02    0,000000000e+00    0,000000000e+00    0,000000000e+00    0,000000000e+00
      716000000   -3,740461916e-02   -5,508919805e-02    4,592559040e-01   -3,900330365e-01    0,000000000e+00    0,000000000e+00    0,000000000e+00    0,000000000e+00
      730000000   -3,240630031e-02   -6,558497250e-02    1,740983725e-01   -5,662001371e-01    0,000000000e+00    0,000000000e+00    0,000000000e+00    0,000000000e+00
      744000000   -4,003861547e-02   -8,884546906e-02   -1,531707495e-01   -5,641068816e-01    0,000000000e+00    0,000000000e+00    0,000000000e+00    0,000000000e+00
      758000000   -7,300590724e-02   -1,048852503e-01   -4,279817343e-01   -3,951045871e-01    0,000000000e+00    0,000000000e+00    0,000000000e+00    0,000000000e+00
      772000000   -1,136145145e-01   -9,337825328e-02   -5,746366382e-01   -1,057695746e-01    0,000000000e+00    0,000000000e+00    0,000000000e+00    0,000000000e+00
      786000000   -1,382723898e-01   -5,670968071e-02   -5,450397134e-01    2,207694650e-01    0,000000000e+00    0,000000000e+00    0,000000000e+00    0,000000000e+00
      800000000   -1,332635283e-01   -1,433621533e-02   -3,413681090e-01    4,790023565e-01    0,000000000e+00    0,000000000e+00    0,000000000e+00    0,000000000e+00
      814000000   -1,080481708e-01    8,872149512e-03   -3,361765668e-02    5,861997008e-01    0,000000000e+00    0,000000000e+00    0,000000000e+00    0,000000000e+00
      828000000   -8,501996845e-02    1,328518614e-02    2,789227962e-01    5,143930316e-01    0,000000000e+00    0,000000000e+00    0,000000000e+00    0,000000000e+00
      842000000   -7,107808441e-02    1,470890362e-02    5,028206706e-01    2,892985642e-01    0,000000000e+00    0,000000000e+00    0,000000000e+00    0,000000000e+00
      856000000   -5,258031189e-02    1,972939447e-02    5,704962611e-01   -1,783334464e-02    0,000000000e+00    0,000000000e+00    0,000000000e+00    0,000000000e+00
      870000000   -2,303498052e-02    1,381024066e-02    4,646338224e-01   -3,065561950e-01    0,000000000e+00    0,000000000e+00    0,000000000e+00    0,000000000e+00
      884000000    5,770706572e-03   -1,418873947e-02    2,314762324e-01   -4,881500006e-01    0,000000000e+00    0,000000000e+00    0,000000000e+00    0,000000000e+00
      898000000    1,180717908e-02   -6,373728812e-02   -5,314474553e-02   -5,259435773e-01    0,000000000e+00    0,000000000e+00    0,000000000e+00    0,000000000e+00
      912000000   -2,298395894e-02   -1,087229550e-01   -3,580372334e-01   -4,100688994e-01    0,000000000e+00    0,000000000e+00    0,000000000e+00    0,000000000e+00
      926000000   -7,438754290e-02   -1,254845113e-01   -5,299378037e-01   -1,584624201e-01    0,000000000e+00    0,000000000e+00    0,000000000e+00    0,000000000e+00
      940000000   -1,223582178e-01   -1,003397927e-01   -5,527610779e-01    1,572220773e-01    0,000000000e+00    0,000000000e+00    0,000000000e+00    0,000000000e+00
      954000000   -1,400550753e-01   -6,301726401e-02   -3,934322894e-01    4,461798370e-01    0,000000000e+00    0,000000000e+00    0,000000000e+00    0,000000000e+00
      968000000   -1,296196431e-01   -2,716301568e-02   -9,063073993e-02    6,047543287e-01    0,000000000e+00    0,000000000e+00    0,000000000e+00    0,000000000e+00
      982000000   -1,148366928e-01   -1,423380990e-02    2,453861386e-01    5,708674788e-01    0,000000000e+00    0,000000000e+00    0,000000000e+00    0,000000000e+00
      996000000   -1,057891920e-01   -1,558618713e-02    5,134946704e-01    3,674094975e-01    0,000000000e+00    0,000000000e+00    0,000000000e+00    0,000000000e+00
     1010000000   -9,989136457e-02   -8,477747440e-03    6,297630668e-01    5,145742744e-02    0,000000000e+00    0,000000000e+00    0,000000000e+00    0,000000000e+00
     1024000000   -8,941530436e-02    1,667663222e-03    5,617033839e-01   -2,687936425e-01    0,000000000e+00    0,000000000e+00    0,000000000e+00    0,000000000e+00
     1038000000   -7,602569461e-02    2,464403631e-03    3,371123374e-01   -5,017808676e-01    0,000000000e+00    0,000000000e+00    0,000000000e+00    0,000000000e+00
     1052000000   -6,216168031e-02   -1,894113049e-02    3,277407214e-02   -5,844954848e-01    0,000000000e+00    0,000000000e+00    0,000000000e+00    0,000000000e+00
     1066000000   -6,701207906e-02   -2,984527126e-02   -2,707040906e-01   -5,046437383e-01    0,000000000e+00    0,000000000e+00    0,000000000e+00    0,000000000e+00
     1080000000   -8,186461776e-02   -2,785605006e-02   -4,804342091e-01   -2,682661414e-01    0,000000000e+00    0,000000000e+00    0,000000000e+00    0,000000000e+00
     1094000000   -8,346997201e-02   -1,610725746e-02   -5,307732224e-01    4,202365875e-02    0,000000000e+00    0,000000000e+00    0,000000000e+00    0,000000000e+00
     1108000000   -6,019821391e-02   -1,346537098e-02   -3,957682848e-01    3,267149329e-01    0,000000000e+00    0,000000000e+00    0,000000000e+00    0,000000000e+00
     1122000000   -3,001698479e-02   -3,842407465e-02   -1,372344643e-01    4,839225113e-01    0,000000000e+00    0,000000000e+00    0,000000000e+00    0,000000000e+00
     1136000000   -2,976045944e-02   -8,735833317e-02    1,628458500e-01    4,744417667e-01    0,000000000e+00    0,000000000e+00    0,000000000e+00    0,000000000e+00
     1150000000   -6,289311498e-02   -1,331943870e-01    4,169113040e-01    3,113046587e-01    0,000000000e+00    0,000000000e+00    0,000000000e+00    0,000000000e+00
     1164000000   -1,368100643e-01   -1,555881798e-01    5,625590682e-01    2,674700134e-02    0,000000000e+00    0,000000000e+00    0,000000000e+00    0,000000000e+00
     1178000000   -2,147220224e-01   -1,180827022e-01    5,291815996e-01   -3,161298037e-01    0,000000000e+00    0,000000000e+00    0,000000000e+00    0,000000000e+00
     1192000000   -2,499633133e-01   -4,468547180e-02    2,974143624e-01   -5,976113677e-01    0,000000000e+00    0,000000000e+00    0,000000000e+00    0,000000000e+00
     1206000000   -2,341328114e-01    3,123279288e-02   -6,386483461e-02   -6,978729367e-01    0,000000000e+00    0,000000000e+00    0,000000000e+00    0,000000000e+00
     1220000000   -1,832603216e-01    8,143705875e-02   -4,195143282e-01   -5,764877200e-01    0,000000000e+00    0,000000000e+00    0,000000000e+00    0,000000000e+00
     1234000000   -1,255981475e-01    1,009355709e-01   -6,445144415e-01   -2,942177057e-01    0,000000000e+00    0,000000000e+00    0,000000000e+00    0,000000000e+00
     1248000000   -7,016314566e-02    9,928304702e-02   -6,757488251e-01    6,610393524e-02    0,000000000e+00    0,000000000e+00    0,000000000e+00    0,000000000e+00
     1262000000   -9,154858068e-03    6,634971499e-02   -5,161761045e-01    3,734527230e-01    0,000000000e+00    0,000000000e+00    0,000000000e+00    0,000000000e+00
     1276000000    2,598492801e-02   -6,500847638e-03   -2,435227484e-01    5,423038602e-01    0,000000000e+00    0,000000000e+00    0,000000000e+00    0,000000000e+00
     1290000000    2,165121585e-02   -8,727014065e-02    7,415691018e-02    5,743901134e-01    0,000000000e+00    0,000000000e+00    0,000000000e+00    0,000000000e+00
     1304000000   -3,666929528e-02   -1,741119921e-01    3,661312163e-01    4,648399353e-01    0,000000000e+00    0,000000000e+00    0,000000000e+00    0,000000000e+00
     1318000000   -1,359907240e-01   -2,146276683e-01    5,820226073e-01    2,212904245e-01    0,000000000e+00    0,000000000e+00    0,000000000e+00    0,000000000e+00
     1332000000   -2,515245974e-01   -1,867877543e-01    6,587037444e-01   -1,222185120e-01    0,000000000e+00    0,000000000e+00    0,000000000e+00    0,000000000e+00
     1346000000   -3,322186172e-01   -9,120235592e-02    5,146576762e-01   -4,621961415e-01    0,000000000e+00    0,000000000e+00    0,000000000e+00    0,000000000e+00
     1360000000   -3,349388540e-01    2,679617330e-02    1,856401414e-01   -6,480478644e-01    0,000000000e+00    0,000000000e+00    0,000000000e+00    0,000000000e+00
     1374000000   -2,796090245e-01    1,041623056e-01   -1,531003565e-01   -6,023861766e-01    0,000000000e+00    0,000000000e+00    0,000000000e+00    0,000000000e+00
     1388000000   -2,103117704e-01    1,341633350e-01   -3,972265124e-01   -3,772616684e-01    0,000000000e+00    0,000000000e+00    0,000000000e+00    0,000000000e+00
     1402000000   -1,509087533e-01    1,359284073e-01   -4,863427281e-01   -6,221019477e-02    0,000000000e+00    0,000000000e+00    0,000000000e+00    0,000000000e+00
     1416000000   -9,666625410e-02    1,221211478e-01   -3,777906001e-01    2,486956865e-01    0,000000000e+00    0,000000000e+00    0,000000000e+00    0,000000000e+00
     1430000000   -5,546786636e-02    7,263401151e-02   -1,462004036e-01    4,483048022e-01    0,000000000e+00    0,000000000e+00    0,000000000e+00    0,000000000e+00
     1444000000   -3,508560732e-02    4,506942816e-03    1,722554117e-01    5,300649405e-01    0,000000000e+00    0,000000000e+00    0,000000000e+00    0,000000000e+00
     1458000000   -6,807763129e-02   -7,623897493e-02    4,773027301e-01    4,619948268e-01    0,000000000e+00    0,000000000e+00    0,000000000e+00    0,000000000e+00
     1472000000   -1,452184319e-01   -1,201971620e-01    7,454713583e-01    2,703788280e-01    0,000000000e+00    0,000000000e+00    0,000000000e+00    0,000000000e+00
     1486000000   -2,323030531e-01   -1,107478663e-01    8,897749186e-01   -1,014812514e-01    0,000000000e+00    0,000000000e+00    0,000000000e+00    0,000000000e+00
     1500000000   -2,909687757e-01   -4,232717305e-02    7,996131182e-01   -4,492272139e-01    0,000000000e+00    0,000000000e+00    0,000000000e+00    0,000000000e+00
