! NanoVNA-App
! Date: 2025-09-25 15:11:49
! Start: 100MHz Stop: 1,5GHz Points: 101
! S-Parameter data: F S11 S21 S12 S22
# Hz S RI R 50
!     Frequency           S11_Real           S11_Imag           S21_Real           S21_Imag           S12_Real           S12_Imag           S22_Real           S22_Imag
      100000000    3,113620169e-02    2,863599174e-02    4,348750114e-01   -6,685925126e-01    0,000000000e+00    0,000000000e+00    0,000000000e+00    0,000000000e+00
      114000000    5,757762492e-02    5,486030597e-03    7,722140290e-03   -7,910218239e-01    0,000000000e+00    0,000000000e+00    0,000000000e+00    0,000000000e+00
      128000000    6,726961583e-02   -3,780856356e-02   -4,102112055e-01   -6,710590720e-01    0,000000000e+00    0,000000000e+00    0,000000000e+00    0,000000000e+00
      142000000    4,469103739e-02   -8,418929577e-02   -7,027862072e-01   -3,530841768e-01    0,000000000e+00    0,000000000e+00    0,000000000e+00    0,000000000e+00
      156000000   -5,730115343e-03   -1,067084447e-01   -7,866806388e-01    7,387551665e-02    0,000000000e+00    0,000000000e+00    0,000000000e+00    0,000000000e+00
      170000000   -5,771268159e-02   -9,059766680e-02   -6,276471019e-01    4,868326187e-01    0,000000000e+00    0,000000000e+00    0,000000000e+00    0,000000000e+00
      184000000   -8,373830467e-02   -4,951334000e-02   -2,649102211e-01    7,509753108e-01    0,000000000e+00    0,000000000e+00    0,000000000e+00    0,000000000e+00
      198000000   -7,961919904e-02   -1,044798829e-02    1,835821718e-01    7,730207443e-01    0,000000000e+00    0,000000000e+00    0,000000000e+00    0,000000000e+00
      212000000   -6,227007881e-02    1,322586276e-02    5,691686869e-01    5,491619110e-01    0,000000000e+00    0,000000000e+00    0,000000000e+00    0,000000000e+00
      226000000   -4,331799597e-02    2,773386799e-02    7,707679868e-01    1,545280963e-01    0,000000000e+00    0,000000000e+00    0,000000000e+00    0,000000000e+00
      240000000   -1,822521724e-02    3,850779310e-02    7,268304825e-01   -2,817862332e-01    0,000000000e+00    0,000000000e+00    0,000000000e+00    0,000000000e+00
      254000000    1,722084358e-02    3,518921509e-02    4,578374326e-01   -6,202690601e-01    0,000000000e+00    0,000000000e+00    0,000000000e+00    0,000000000e+00
      268000000    4,877930507e-02    5,623356905e-03    5,852212384e-02   -7,600457072e-01    0,000000000e+00    0,000000000e+00    0,000000000e+00    0,000000000e+00
      282000000    5,344305933e-02   -4,186785594e-02   -3,490571678e-01   -6,715849638e-01    0,000000000e+00    0,000000000e+00    0,000000000e+00    0,000000000e+00
      296000000    2,401032113e-02   -7,956627011e-02   -6,519812942e-01   -3,858388662e-01    0,000000000e+00    0,000000000e+00    0,000000000e+00    0,000000000e+00
      310000000   -1,777719520e-02   -8,338605613e-02   -7,634765506e-01    1,952710748e-02    0,000000000e+00    0,000000000e+00    0,000000000e+00    0,000000000e+00
      324000000   -4,157690704e-02   -5,882124603e-02   -6,324557662e-01    4,311335683e-01    0,000000000e+00    0,000000000e+00    0,000000000e+00    0,000000000e+00
      338000000   -3,449585289e-02   -3,683816269e-02   -2,970714569e-01    6,989499331e-01    0,000000000e+00    0,000000000e+00    0,000000000e+00    0,000000000e+00
      352000000   -1,739173569e-02   -4,081511870e-02    1,244259030e-01    7,418233156e-01    0,000000000e+00    0,000000000e+00    0,000000000e+00    0,000000000e+00
      366000000   -1,953328773e-02   -6,186167896e-02    4,977841675e-01    5,548647046e-01    0,000000000e+00    0,000000000e+00    0,000000000e+00    0,000000000e+00
      380000000   -4,445686936e-02   -7,268477976e-02    7,135223746e-01    1,994831115e-01    0,000000000e+00    0,000000000e+00    0,000000000e+00    0,000000000e+00
      394000000   -7,104665041e-02   -5,817239732e-02    7,039677501e-01   -2,164567411e-01    0,000000000e+00    0,000000000e+00    0,000000000e+00    0,000000000e+00
      408000000   -7,704217732e-02   -3,052765504e-02    4,711206853e-01   -5,592045188e-01    0,000000000e+00    0,000000000e+00    0,000000000e+00    0,000000000e+00
      422000000   -6,567909569e-02   -1,126050111e-02    9,321294725e-02   -7,175412774e-01    0,000000000e+00    0,000000000e+00    0,000000000e+00    0,000000000e+00
      436000000   -5,272336304e-02   -4,419334698e-03   -3,022621870e-01   -6,469247937e-01    0,000000000e+00    0,000000000e+00    0,000000000e+00    0,000000000e+00
      450000000   -4,468544573e-02    1,824723440e-03   -5,929403901e-01   -3,781130612e-01    0,000000000e+00    0,000000000e+00    0,000000000e+00    0,000000000e+00
      464000000   -2,960137650e-02    1,132341847e-02   -6,912194490e-01   -5,210526069e-05    0,000000000e+00    0,000000000e+00    0,000000000e+00    0,000000000e+00
      478000000   -1,039247145e-03    1,064594556e-02   -5,735265613e-01    3,630395830e-01    0,000000000e+00    0,000000000e+00    0,000000000e+00    0,000000000e+00
      492000000    2,738931216e-02   -1,231468841e-02   -2,896802723e-01    6,025885940e-01    0,000000000e+00    0,000000000e+00    0,000000000e+00    0,000000000e+00
      506000000    3,632458299e-02   -5,586928874e-02    6,917069852e-02    6,589948535e-01    0,000000000e+00    0,000000000e+00    0,000000000e+00    0,000000000e+00
      520000000    1,193793211e-02   -9,859442711e-02    4,027424455e-01    5,220918059e-01    0,000000000e+00    0,000000000e+00    0,000000000e+00    0,000000000e+00
      534000000   -3,422978520e-02   -1,157920733e-01    6,240171194e-01    2,365814596e-01    0,000000000e+00    0,000000000e+00    0,000000000e+00    0,000000000e+00
      548000000   -7,727575302e-02   -9,917334467e-02    6,584840417e-01   -1,327477098e-01    0,000000000e+00    0,000000000e+00    0,000000000e+00    0,000000000e+00
      562000000   -9,304750711e-02   -6,610886008e-02    4,822879136e-01   -4,667915702e-01    0,000000000e+00    0,000000000e+00    0,000000000e+00    0,000000000e+00
      576000000   -8,658214658e-02   -4,473010823e-02    1,508932859e-01   -6,486958265e-01    0,000000000e+00    0,000000000e+00    0,000000000e+00    0,000000000e+00
      590000000   -8,107787371e-02   -4,168070108e-02   -2,184695601e-01   -6,288156509e-01    0,000000000e+00    0,000000000e+00    0,000000000e+00    0,000000000e+00
      604000000   -8,930990845e-02   -3,726393729e-02   -5,198706985e-01   -4,065241218e-01    0,000000000e+00    0,000000000e+00    0,000000000e+00    0,000000000e+00
      618000000   -9,666620940e-02   -1,548983064e-02   -6,535155773e-01   -5,918268487e-02    0,000000000e+00    0,000000000e+00    0,000000000e+00    0,000000000e+00
      632000000   -8,093152940e-02    1,558378525e-02   -5,754292011e-01    3,029472232e-01    0,000000000e+00    0,000000000e+00    0,000000000e+00    0,000000000e+00
      646000000   -4,253104702e-02    2,582391351e-02   -3,185607493e-01    5,557647943e-01    0,000000000e+00    0,000000000e+00    0,000000000e+00    0,000000000e+00
      660000000   -8,163473569e-03    6,151528563e-03    2,141314931e-02    6,293476820e-01    0,000000000e+00    0,000000000e+00    0,000000000e+00    0,000000000e+00
      674000000    6,360462285e-04   -3,036378324e-02    3,421721160e-01    5,194352269e-01    0,000000000e+00    0,000000000e+00    0,000000000e+00    0,000000000e+00
      688000000   -1,453373302e-02   -5,489302427e-02    5,589945316e-01    2,582251132e-01    0,000000000e+00    0,000000000e+00    0,000000000e+00    0,000000000e+00
      702000000   -3,414750844e-02   -5,908662453e-02    6,067187786e-01   -7,838742435e-02    0,000000000e+00    0,000000000e+00    0,000000000e+00    0,000000000e+00
      716000000   -3,747525439e-02   -5,541587621e-02    4,593051672e-01   -3,898530006e-01    0,000000000e+00    0,000000000e+00    0,000000000e+00    0,000000000e+00
      730000000   -3,140809387e-02   -6,507676840e-02    1,738597304e-01   -5,661526322e-01    0,000000000e+00    0,000000000e+00    0,000000000e+00    0,000000000e+00
      744000000   -3,968894854e-02   -8,808327466e-02   -1,527816206e-01   -5,635586381e-01    0,000000000e+00    0,000000000e+00    0,000000000e+00    0,000000000e+00
      758000000   -7,238593698e-02   -1,053382382e-01   -4,268507659e-01   -3,948702216e-01    0,000000000e+00    0,000000000e+00    0,000000000e+00    0,000000000e+00
      772000000   -1,138246730e-01   -9,461790323e-02   -5,745753646e-01   -1,061071232e-01    0,000000000e+00    0,000000000e+00    0,000000000e+00    0,000000000e+00
      786000000   -1,383872777e-01   -5,601773039e-02   -5,453497171e-01    2,206306607e-01    0,000000000e+00    0,000000000e+00    0,000000000e+00    0,000000000e+00
      800000000   -1,322430670e-01   -1,450920757e-02   -3,419079781e-01    4,797962308e-01    0,000000000e+00    0,000000000e+00    0,000000000e+00    0,000000000e+00
      814000000   -1,081966460e-01    7,877889089e-03   -3,431096300e-02    5,874416828e-01    0,000000000e+00    0,000000000e+00    0,000000000e+00    0,000000000e+00
      828000000   -8,612906933e-02    1,361387875e-02    2,790336907e-01    5,151463151e-01    0,000000000e+00    0,000000000e+00    0,000000000e+00    0,000000000e+00
      842000000   -7,064193487e-02    1,553429849e-02    5,034261346e-01    2,898851335e-01    0,000000000e+00    0,000000000e+00    0,000000000e+00    0,000000000e+00
      856000000   -5,279561132e-02    1,966473646e-02    5,710483193e-01   -1,784715243e-02    0,000000000e+00    0,000000000e+00    0,000000000e+00    0,000000000e+00
      870000000   -2,246242762e-02    1,506643556e-02    4,640507400e-01   -3,059796691e-01    0,000000000e+00    0,000000000e+00    0,000000000e+00    0,000000000e+00
      884000000    6,215708330e-03   -1,471663266e-02    2,305453867e-01   -4,888088107e-01    0,000000000e+00    0,000000000e+00    0,000000000e+00    0,000000000e+00
      898000000    1,253883168e-02   -6,333967298e-02   -5,201224610e-02   -5,268418193e-01    0,000000000e+00    0,000000000e+00    0,000000000e+00    0,000000000e+00
      912000000   -2,369702794e-02   -1,084273458e-01   -3,629654944e-01   -3,934789002e-01    0,000000000e+00    0,000000000e+00    0,000000000e+00    0,000000000e+00
      926000000   -7,566707581e-02   -1,229729205e-01   -5,325427055e-01   -1,561534405e-01    0,000000000e+00    0,000000000e+00    0,000000000e+00    0,000000000e+00
      940000000   -1,258284152e-01   -1,033802852e-01   -5,523661971e-01    1,553263068e-01    0,000000000e+00    0,000000000e+00    0,000000000e+00    0,000000000e+00
      954000000   -1,396609992e-01   -6,142884865e-02   -3,902553916e-01    4,462048113e-01    0,000000000e+00    0,000000000e+00    0,000000000e+00    0,000000000e+00
      968000000   -1,319608092e-01   -2,500414290e-02   -9,340715408e-02    6,035647988e-01    0,000000000e+00    0,000000000e+00    0,000000000e+00    0,000000000e+00
      982000000   -1,154262349e-01   -1,388915628e-02    2,460506707e-01    5,722290874e-01    0,000000000e+00    0,000000000e+00    0,000000000e+00    0,000000000e+00
      996000000   -1,037477106e-01   -1,369265653e-02    5,137613416e-01    3,673578799e-01    0,000000000e+00    0,000000000e+00    0,000000000e+00    0,000000000e+00
     1010000000   -1,045671031e-01   -9,570919909e-03    6,284126043e-01    5,211817101e-02    0,000000000e+00    0,000000000e+00    0,000000000e+00    0,000000000e+00
     1024000000   -9,143391997e-02    3,779678838e-03    5,591898561e-01   -2,697654366e-01    0,000000000e+00    0,000000000e+00    0,000000000e+00    0,000000000e+00
     1038000000   -7,425004989e-02   -3,683820367e-03    3,380642235e-01   -5,029241443e-01    0,000000000e+00    0,000000000e+00    0,000000000e+00    0,000000000e+00
     1052000000   -6,540068239e-02   -1,264672261e-02    3,213556856e-02   -5,851614475e-01    0,000000000e+00    0,000000000e+00    0,000000000e+00    0,000000000e+00
     1066000000   -6,987753510e-02   -2,799036913e-02   -2,687918246e-01   -4,997108579e-01    0,000000000e+00    0,000000000e+00    0,000000000e+00    0,000000000e+00
     1080000000   -8,012954146e-02   -3,499488533e-02   -4,786058068e-01   -2,702299953e-01    0,000000000e+00    0,000000000e+00    0,000000000e+00    0,000000000e+00
     1094000000   -8,371740580e-02   -1,444926206e-02   -5,317429304e-01    4,292171821e-02    0,000000000e+00    0,000000000e+00    0,000000000e+00    0,000000000e+00
     1108000000   -5,702438205e-02   -1,173459552e-02   -4,011185169e-01    3,244352639e-01    0,000000000e+00    0,000000000e+00    0,000000000e+00    0,000000000e+00
     1122000000   -3,309835866e-02   -3,780719265e-02   -1,368480474e-01    4,824920595e-01    0,000000000e+00    0,000000000e+00    0,000000000e+00    0,000000000e+00
     1136000000   -2,714909054e-02   -8,246561140e-02    1,624100208e-01    4,752303362e-01    0,000000000e+00    0,000000000e+00    0,000000000e+00    0,000000000e+00
     1150000000   -6,299360096e-02   -1,389387399e-01    4,221359193e-01    3,151598275e-01    0,000000000e+00    0,000000000e+00    0,000000000e+00    0,000000000e+00
     1164000000   -1,409921199e-01   -1,537761241e-01    5,624513626e-01    2,817320451e-02    0,000000000e+00    0,000000000e+00    0,000000000e+00    0,000000000e+00
     1178000000   -2,158219665e-01   -1,209563762e-01    5,336433649e-01   -3,119376600e-01    0,000000000e+00    0,000000000e+00    0,000000000e+00    0,000000000e+00
     1192000000   -2,462543696e-01   -4,628053308e-02    2,973018289e-01   -5,993201733e-01    0,000000000e+00    0,000000000e+00    0,000000000e+00    0,000000000e+00
     1206000000   -2,354758680e-01    3,607460484e-02   -6,736410409e-02   -6,974332333e-01    0,000000000e+00    0,000000000e+00    0,000000000e+00    0,000000000e+00
     1220000000   -1,823486984e-01    8,515551686e-02   -4,188340604e-01   -5,779079795e-01    0,000000000e+00    0,000000000e+00    0,000000000e+00    0,000000000e+00
     1234000000   -1,269864738e-01    1,006136313e-01   -6,464533806e-01   -2,901626825e-01    0,000000000e+00    0,000000000e+00    0,000000000e+00    0,000000000e+00
     1248000000   -6,813345104e-02    9,813495725e-02   -6,775321364e-01    6,452441216e-02    0,000000000e+00    0,000000000e+00    0,000000000e+00    0,000000000e+00
     1262000000   -9,481771849e-03    6,283744425e-02   -5,167731643e-01    3,697697520e-01    0,000000000e+00    0,000000000e+00    0,000000000e+00    0,000000000e+00
     1276000000    2,472476102e-02   -7,933904417e-03   -2,387724668e-01    5,434838533e-01    0,000000000e+00    0,000000000e+00    0,000000000e+00    0,000000000e+00
     1290000000    1,839055121e-02   -8,985782415e-02    6,677541882e-02    5,766279697e-01    0,000000000e+00    0,000000000e+00    0,000000000e+00    0,000000000e+00
     1304000000   -3,048949502e-02   -1,688315123e-01    3,715161979e-01    4,692291617e-01    0,000000000e+00    0,000000000e+00    0,000000000e+00    0,000000000e+00
     1318000000   -1,325944066e-01   -2,127705514e-01    5,928588510e-01    2,196071893e-01    0,000000000e+00    0,000000000e+00    0,000000000e+00    0,000000000e+00
     1332000000   -2,529396713e-01   -1,864390075e-01    6,595062017e-01   -1,237671301e-01    0,000000000e+00    0,000000000e+00    0,000000000e+00    0,000000000e+00
     1346000000   -3,286880255e-01   -8,953280002e-02    5,112577081e-01   -4,612180591e-01    0,000000000e+00    0,000000000e+00    0,000000000e+00    0,000000000e+00
     1360000000   -3,328060508e-01    2,206899598e-02    1,940269917e-01   -6,527619958e-01    0,000000000e+00    0,000000000e+00    0,000000000e+00    0,000000000e+00
     1374000000   -2,784760892e-01    1,035435125e-01   -1,591528952e-01   -6,061099172e-01    0,000000000e+00    0,000000000e+00    0,000000000e+00    0,000000000e+00
     1388000000   -2,125559747e-01    1,378224939e-01   -4,044702649e-01   -3,727702498e-01    0,000000000e+00    0,000000000e+00    0,000000000e+00    0,000000000e+00
     1402000000   -1,538668573e-01    1,436640769e-01   -4,936088324e-01   -5,951949582e-02    0,000000000e+00    0,000000000e+00    0,000000000e+00    0,000000000e+00
     1416000000   -9,413509816e-02    1,144732237e-01   -3,814877272e-01    2,359105647e-01    0,000000000e+00    0,000000000e+00    0,000000000e+00    0,000000000e+00
     1430000000   -5,540503561e-02    7,570838183e-02   -1,422236115e-01    4,822274446e-01    0,000000000e+00    0,000000000e+00    0,000000000e+00    0,000000000e+00
     1444000000   -3,807636723e-02    5,953981541e-03    1,739774793e-01    5,418698788e-01    0,000000000e+00    0,000000000e+00    0,000000000e+00    0,000000000e+00
     1458000000   -6,497805566e-02   -7,604105026e-02    4,884267747e-01    4,696841538e-01    0,000000000e+00    0,000000000e+00    0,000000000e+00    0,000000000e+00
     1472000000   -1,386869103e-01   -1,220808923e-01    7,599849105e-01    2,656998932e-01    0,000000000e+00    0,000000000e+00    0,000000000e+00    0,000000000e+00
     1486000000   -2,297484130e-01   -1,210716590e-01    9,029667377e-01   -9,638258815e-02    0,000000000e+00    0,000000000e+00    0,000000000e+00    0,000000000e+00
     1500000000   -2,966824770e-01   -4,675868526e-02    7,993054986e-01   -4,473863542e-01    0,000000000e+00    0,000000000e+00    0,000000000e+00    0,000000000e+00
