! NanoVNA-App
! Date: 2025-09-25 15:10:43
! Start: 100MHz Stop: 1,5GHz Points: 101
! S-Parameter data: F S11 S21 S12 S22
# Hz S RI R 50
!     Frequency           S11_Real           S11_Imag           S21_Real           S21_Imag           S12_Real           S12_Imag           S22_Real           S22_Imag
      100000000    3,115040623e-02    2,865682915e-02    4,348889291e-01   -6,685544252e-01    0,000000000e+00    0,000000000e+00    0,000000000e+00    0,000000000e+00
      114000000    5,760118738e-02    5,513735116e-03    7,671133149e-03   -7,909389734e-01    0,000000000e+00    0,000000000e+00    0,000000000e+00    0,000000000e+00
      128000000    6,728015840e-02   -3,780619055e-02   -4,104292691e-01   -6,712850332e-01    0,000000000e+00    0,000000000e+00    0,000000000e+00    0,000000000e+00
      142000000    4,471946508e-02   -8,419863880e-02   -7,029463649e-01   -3,535552025e-01    0,000000000e+00    0,000000000e+00    0,000000000e+00    0,000000000e+00
      156000000   -5,557294004e-03   -1,065357849e-01   -7,872032523e-01    7,306706905e-02    0,000000000e+00    0,000000000e+00    0,000000000e+00    0,000000000e+00
      170000000   -5,772249773e-02   -9,067033976e-02   -6,275393963e-01    4,869337082e-01    0,000000000e+00    0,000000000e+00    0,000000000e+00    0,000000000e+00
      184000000   -8,369995654e-02   -4,946197569e-02   -2,651959360e-01    7,511346936e-01    0,000000000e+00    0,000000000e+00    0,000000000e+00    0,000000000e+00
      198000000   -7,960773259e-02   -1,045346819e-02    1,835650653e-01    7,733266354e-01    0,000000000e+00    0,000000000e+00    0,000000000e+00    0,000000000e+00
      212000000   -6,231666356e-02    1,317062043e-02    5,689859390e-01    5,488244891e-01    0,000000000e+00    0,000000000e+00    0,000000000e+00    0,000000000e+00
      226000000   -4,333826154e-02    2,766802907e-02    7,706879377e-01    1,546323448e-01    0,000000000e+00    0,000000000e+00    0,000000000e+00    0,000000000e+00
      240000000   -1,819065213e-02    3,851109371e-02    7,268445492e-01   -2,818168998e-01    0,000000000e+00    0,000000000e+00    0,000000000e+00    0,000000000e+00
      254000000    1,718166471e-02    3,519357368e-02    4,581407905e-01   -6,196498871e-01    0,000000000e+00    0,000000000e+00    0,000000000e+00    0,000000000e+00
      268000000    4,879843071e-02    5,587263033e-03    5,876664817e-02   -7,603622079e-01    0,000000000e+00    0,000000000e+00    0,000000000e+00    0,000000000e+00
      282000000    5,344074965e-02   -4,176956788e-02   -3,487695158e-01   -6,715822816e-01    0,000000000e+00    0,000000000e+00    0,000000000e+00    0,000000000e+00
      296000000    2,410225198e-02   -7,950471342e-02   -6,516358256e-01   -3,849423826e-01    0,000000000e+00    0,000000000e+00    0,000000000e+00    0,000000000e+00
      310000000   -1,785463467e-02   -8,319366723e-02   -7,632825375e-01    1,928769425e-02    0,000000000e+00    0,000000000e+00    0,000000000e+00    0,000000000e+00
      324000000   -4,190710559e-02   -5,889943242e-02   -6,321187615e-01    4,311889410e-01    0,000000000e+00    0,000000000e+00    0,000000000e+00    0,000000000e+00
      338000000   -3,423944861e-02   -3,684147820e-02   -2,974221408e-01    7,016904950e-01    0,000000000e+00    0,000000000e+00    0,000000000e+00    0,000000000e+00
      352000000   -1,731574722e-02   -4,071602970e-02    1,256901473e-01    7,422180772e-01    0,000000000e+00    0,000000000e+00    0,000000000e+00    0,000000000e+00
      366000000   -1,937863789e-02   -6,210159883e-02    4,975929260e-01    5,549731255e-01    0,000000000e+00    0,000000000e+00    0,000000000e+00    0,000000000e+00
      380000000   -4,429309443e-02   -7,268416137e-02    7,134085298e-01    1,997074187e-01    0,000000000e+00    0,000000000e+00    0,000000000e+00    0,000000000e+00
      394000000   -7,113395631e-02   -5,815241858e-02    7,032944560e-01   -2,160606831e-01    0,000000000e+00    0,000000000e+00    0,000000000e+00    0,000000000e+00
      408000000   -7,692645490e-02   -3,063219413e-02    4,702535570e-01   -5,603743792e-01    0,000000000e+00    0,000000000e+00    0,000000000e+00    0,000000000e+00
      422000000   -6,543641537e-02   -1,121345256e-02    9,285256267e-02   -7,182059288e-01    0,000000000e+00    0,000000000e+00    0,000000000e+00    0,000000000e+00
      436000000   -5,294610932e-02   -4,362716340e-03   -3,020413220e-01   -6,468556523e-01    0,000000000e+00    0,000000000e+00    0,000000000e+00    0,000000000e+00
      450000000   -4,468415305e-02    1,306864782e-03   -5,931048393e-01   -3,788632751e-01    0,000000000e+00    0,000000000e+00    0,000000000e+00    0,000000000e+00
      464000000   -2,930571698e-02    1,101911999e-02   -6,913676262e-01   -2,722830977e-04    0,000000000e+00    0,000000000e+00    0,000000000e+00    0,000000000e+00
      478000000   -1,494873432e-03    1,133908145e-02   -5,738123655e-01    3,630313873e-01    0,000000000e+00    0,000000000e+00    0,000000000e+00    0,000000000e+00
      492000000    2,802563086e-02   -1,228137594e-02   -2,889278531e-01    6,015747786e-01    0,000000000e+00    0,000000000e+00    0,000000000e+00    0,000000000e+00
      506000000    3,655983508e-02   -5,583670735e-02    6,862942129e-02    6,578469872e-01    0,000000000e+00    0,000000000e+00    0,000000000e+00    0,000000000e+00
      520000000    1,290070545e-02   -9,799447656e-02    3,998089433e-01    5,263032913e-01    0,000000000e+00    0,000000000e+00    0,000000000e+00    0,000000000e+00
      534000000   -3,431680053e-02   -1,161787063e-01    6,236776710e-01    2,368409038e-01    0,000000000e+00    0,000000000e+00    0,000000000e+00    0,000000000e+00
      548000000   -7,759951800e-02   -9,914514422e-02    6,578704119e-01   -1,328068525e-01    0,000000000e+00    0,000000000e+00    0,000000000e+00    0,000000000e+00
      562000000   -9,313713759e-02   -6,597923487e-02    4,821029305e-01   -4,659003019e-01    0,000000000e+00    0,000000000e+00    0,000000000e+00    0,000000000e+00
      576000000   -8,642236143e-02   -4,430876300e-02    1,508735120e-01   -6,480873227e-01    0,000000000e+00    0,000000000e+00    0,000000000e+00    0,000000000e+00
      590000000   -8,069419861e-02   -4,170365632e-02   -2,188142091e-01   -6,263933182e-01    0,000000000e+00    0,000000000e+00    0,000000000e+00    0,000000000e+00
      604000000   -8,875682950e-02   -3,752866015e-02   -5,191757083e-01   -4,065097570e-01    0,000000000e+00    0,000000000e+00    0,000000000e+00    0,000000000e+00
      618000000   -9,687721729e-02   -1,473432779e-02   -6,532539725e-01   -5,826751888e-02    0,000000000e+00    0,000000000e+00    0,000000000e+00    0,000000000e+00
      632000000   -8,150998503e-02    1,513388101e-02   -5,756595135e-01    3,024640977e-01    0,000000000e+00    0,000000000e+00    0,000000000e+00    0,000000000e+00
      646000000   -4,247413948e-02    2,668578364e-02   -3,189380765e-01    5,554038882e-01    0,000000000e+00    0,000000000e+00    0,000000000e+00    0,000000000e+00
      660000000   -7,776313461e-03    6,514028180e-03    2,183909528e-02    6,298567057e-01    0,000000000e+00    0,000000000e+00    0,000000000e+00    0,000000000e+00
      674000000    1,569026266e-03   -3,049875051e-02    3,420434892e-01    5,194337368e-01    0,000000000e+00    0,000000000e+00    0,000000000e+00    0,000000000e+00
      688000000   -1,417733449e-02   -5,528209731e-02    5,587187409e-01    2,584912479e-01    0,000000000e+00    0,000000000e+00    0,000000000e+00    0,000000000e+00
      702000000   -3,406712413e-02   -5,939668790e-02    6,075589061e-01   -8,064981550e-02    0,000000000e+00    0,000000000e+00    0,000000000e+00    0,000000000e+00
      716000000   -3,760757670e-02   -5,530389398e-02    4,588461518e-01   -3,902181387e-01    0,000000000e+00    0,000000000e+00    0,000000000e+00    0,000000000e+00
      730000000   -3,133311868e-02   -6,491591781e-02    1,744375378e-01   -5,660364628e-01    0,000000000e+00    0,000000000e+00    0,000000000e+00    0,000000000e+00
      744000000   -4,047824815e-02   -8,904679865e-02   -1,529148221e-01   -5,626556277e-01    0,000000000e+00    0,000000000e+00    0,000000000e+00    0,000000000e+00
      758000000   -7,284917682e-02   -1,046066284e-01   -4,274370670e-01   -3,949285746e-01    0,000000000e+00    0,000000000e+00    0,000000000e+00    0,000000000e+00
      772000000   -1,142918244e-01   -9,462449700e-02   -5,743406415e-01   -1,059012488e-01    0,000000000e+00    0,000000000e+00    0,000000000e+00    0,000000000e+00
      786000000   -1,382595748e-01   -5,675288290e-02   -5,450304151e-01    2,204026729e-01    0,000000000e+00    0,000000000e+00    0,000000000e+00    0,000000000e+00
      800000000   -1,331887096e-01   -1,494183484e-02   -3,416655660e-01    4,795011878e-01    0,000000000e+00    0,000000000e+00    0,000000000e+00    0,000000000e+00
      814000000   -1,083089113e-01    8,231080137e-03   -3,525531664e-02    5,855714679e-01    0,000000000e+00    0,000000000e+00    0,000000000e+00    0,000000000e+00
      828000000   -8,605946600e-02    1,380518451e-02    2,787280381e-01    5,135553479e-01    0,000000000e+00    0,000000000e+00    0,000000000e+00    0,000000000e+00
      842000000   -7,108578831e-02    1,479220204e-02    5,023596883e-01    2,897227705e-01    0,000000000e+00    0,000000000e+00    0,000000000e+00    0,000000000e+00
      856000000   -5,202798918e-02    2,001714893e-02    5,705342293e-01   -1,760151051e-02    0,000000000e+00    0,000000000e+00    0,000000000e+00    0,000000000e+00
      870000000   -2,315016277e-02    1,479829010e-02    4,632451534e-01   -3,061228991e-01    0,000000000e+00    0,000000000e+00    0,000000000e+00    0,000000000e+00
      884000000    5,670743994e-03   -1,441301592e-02    2,308765203e-01   -4,890005291e-01    0,000000000e+00    0,000000000e+00    0,000000000e+00    0,000000000e+00
      898000000    1,216215268e-02   -6,424164772e-02   -5,161691457e-02   -5,266482234e-01    0,000000000e+00    0,000000000e+00    0,000000000e+00    0,000000000e+00
      912000000   -2,327062935e-02   -1,084198058e-01   -3,664515615e-01   -3,965608180e-01    0,000000000e+00    0,000000000e+00    0,000000000e+00    0,000000000e+00
      926000000   -7,597759366e-02   -1,259042919e-01   -5,324330926e-01   -1,599438637e-01    0,000000000e+00    0,000000000e+00    0,000000000e+00    0,000000000e+00
      940000000   -1,248330921e-01   -1,012945101e-01   -5,514959693e-01    1,560673416e-01    0,000000000e+00    0,000000000e+00    0,000000000e+00    0,000000000e+00
      954000000   -1,390132606e-01   -6,114174053e-02   -3,920609057e-01    4,454111159e-01    0,000000000e+00    0,000000000e+00    0,000000000e+00    0,000000000e+00
      968000000   -1,312333345e-01   -3,060667776e-02   -9,033555537e-02    6,022475362e-01    0,000000000e+00    0,000000000e+00    0,000000000e+00    0,000000000e+00
      982000000   -1,166448966e-01   -1,310344972e-02    2,440710664e-01    5,740190744e-01    0,000000000e+00    0,000000000e+00    0,000000000e+00    0,000000000e+00
      996000000   -1,092755124e-01   -1,515519898e-02    5,135245919e-01    3,660469651e-01    0,000000000e+00    0,000000000e+00    0,000000000e+00    0,000000000e+00
     1010000000   -1,018845364e-01   -5,921288859e-03    6,283495426e-01    5,099093169e-02    0,000000000e+00    0,000000000e+00    0,000000000e+00    0,000000000e+00
     1024000000   -9,362322837e-02    2,416569507e-03    5,587188601e-01   -2,719568312e-01    0,000000000e+00    0,000000000e+00    0,000000000e+00    0,000000000e+00
     1038000000   -7,815172523e-02   -5,692203995e-04    3,364018798e-01   -5,014085174e-01    0,000000000e+00    0,000000000e+00    0,000000000e+00    0,000000000e+00
     1052000000   -6,365830451e-02   -1,408610027e-02    3,238932788e-02   -5,841543674e-01    0,000000000e+00    0,000000000e+00    0,000000000e+00    0,000000000e+00
     1066000000   -7,040967792e-02   -2,800147980e-02   -2,686401904e-01   -5,027488470e-01    0,000000000e+00    0,000000000e+00    0,000000000e+00    0,000000000e+00
     1080000000   -8,318191767e-02   -2,729537711e-02   -4,797639549e-01   -2,694315910e-01    0,000000000e+00    0,000000000e+00    0,000000000e+00    0,000000000e+00
     1094000000   -8,370815963e-02   -1,566718519e-02   -5,317382216e-01    3,976653516e-02    0,000000000e+00    0,000000000e+00    0,000000000e+00    0,000000000e+00
     1108000000   -6,068361178e-02   -1,408570912e-02   -3,984165192e-01    3,245613873e-01    0,000000000e+00    0,000000000e+00    0,000000000e+00    0,000000000e+00
     1122000000   -2,994280122e-02   -3,847904503e-02   -1,362746209e-01    4,805153608e-01    0,000000000e+00    0,000000000e+00    0,000000000e+00    0,000000000e+00
     1136000000   -2,269443311e-02   -8,556620777e-02    1,639186591e-01    4,746077359e-01    0,000000000e+00    0,000000000e+00    0,000000000e+00    0,000000000e+00
     1150000000   -6,563218683e-02   -1,375802755e-01    4,179851711e-01    3,123924732e-01    0,000000000e+00    0,000000000e+00    0,000000000e+00    0,000000000e+00
     1164000000   -1,402472258e-01   -1,507432312e-01    5,641034245e-01    2,830823697e-02    0,000000000e+00    0,000000000e+00    0,000000000e+00    0,000000000e+00
     1178000000   -2,133881003e-01   -1,217012480e-01    5,306034088e-01   -3,130935729e-01    0,000000000e+00    0,000000000e+00    0,000000000e+00    0,000000000e+00
     1192000000   -2,469616234e-01   -4,709133133e-02    2,965840697e-01   -6,003534794e-01    0,000000000e+00    0,000000000e+00    0,000000000e+00    0,000000000e+00
     1206000000   -2,371487916e-01    3,586081415e-02   -6,561172754e-02   -6,960508823e-01    0,000000000e+00    0,000000000e+00    0,000000000e+00    0,000000000e+00
     1220000000   -1,797554493e-01    8,394118398e-02   -4,235139191e-01   -5,798538327e-01    0,000000000e+00    0,000000000e+00    0,000000000e+00    0,000000000e+00
     1234000000   -1,285913587e-01    1,006205007e-01   -6,451660395e-01   -2,930365205e-01    0,000000000e+00    0,000000000e+00    0,000000000e+00    0,000000000e+00
     1248000000   -6,612630934e-02    1,001766697e-01   -6,730613112e-01    6,885743141e-02    0,000000000e+00    0,000000000e+00    0,000000000e+00    0,000000000e+00
     1262000000   -1,373276673e-02    6,284829974e-02   -5,238431096e-01    3,740375042e-01    0,000000000e+00    0,000000000e+00    0,000000000e+00    0,000000000e+00
     1276000000    2,106302045e-02   -6,247591227e-04   -2,481209934e-01    5,461240411e-01    0,000000000e+00    0,000000000e+00    0,000000000e+00    0,000000000e+00
     1290000000    2,370339260e-02   -8,630133420e-02    7,231932133e-02    5,810023546e-01    0,000000000e+00    0,000000000e+00    0,000000000e+00    0,000000000e+00
     1304000000   -3,304913267e-02   -1,705258936e-01    3,671382070e-01    4,704026282e-01    0,000000000e+00    0,000000000e+00    0,000000000e+00    0,000000000e+00
     1318000000   -1,328707337e-01   -2,161433399e-01    5,897410512e-01    2,219747752e-01    0,000000000e+00    0,000000000e+00    0,000000000e+00    0,000000000e+00
     1332000000   -2,541427612e-01   -1,896970868e-01    6,493905187e-01   -1,262120456e-01    0,000000000e+00    0,000000000e+00    0,000000000e+00    0,000000000e+00
     1346000000   -3,321651518e-01   -9,619183838e-02    5,082371831e-01   -4,618197083e-01    0,000000000e+00    0,000000000e+00    0,000000000e+00    0,000000000e+00
     1360000000   -3,375360668e-01    2,628734522e-02    1,849166900e-01   -6,414644122e-01    0,000000000e+00    0,000000000e+00    0,000000000e+00    0,000000000e+00
     1374000000   -2,802156210e-01    1,031048372e-01   -1,542816609e-01   -6,017782092e-01    0,000000000e+00    0,000000000e+00    0,000000000e+00    0,000000000e+00
     1388000000   -2,159256488e-01    1,349425167e-01   -4,019152820e-01   -3,803505003e-01    0,000000000e+00    0,000000000e+00    0,000000000e+00    0,000000000e+00
     1402000000   -1,509881616e-01    1,397053450e-01   -4,874341786e-01   -5,287887529e-02    0,000000000e+00    0,000000000e+00    0,000000000e+00    0,000000000e+00
     1416000000   -1,033027768e-01    1,147991642e-01   -3,777788579e-01    2,436609268e-01    0,000000000e+00    0,000000000e+00    0,000000000e+00    0,000000000e+00
     1430000000   -5,610228702e-02    7,495581359e-02   -1,329410672e-01    4,484232366e-01    0,000000000e+00    0,000000000e+00    0,000000000e+00    0,000000000e+00
     1444000000   -3,935775906e-02    3,438401967e-03    1,602685452e-01    5,309199095e-01    0,000000000e+00    0,000000000e+00    0,000000000e+00    0,000000000e+00
     1458000000   -6,409012526e-02   -7,435074449e-02    4,747175276e-01    4,638212025e-01    0,000000000e+00    0,000000000e+00    0,000000000e+00    0,000000000e+00
     1472000000   -1,383747607e-01   -1,201761067e-01    7,529764771e-01    2,694517970e-01    0,000000000e+00    0,000000000e+00    0,000000000e+00    0,000000000e+00
     1486000000   -2,281559706e-01   -1,131315157e-01    8,955404758e-01   -9,029447287e-02    0,000000000e+00    0,000000000e+00    0,000000000e+00    0,000000000e+00
     1500000000   -2,914570272e-01   -5,454490706e-02    8,014356494e-01   -4,546008706e-01    0,000000000e+00    0,000000000e+00    0,000000000e+00    0,000000000e+00
