! NanoVNA-App
! Date: 2025-09-25 15:09:29
! Start: 100MHz Stop: 1,5GHz Points: 101
! S-Parameter data: F S11 S21 S12 S22
# Hz S RI R 50
!     Frequency           S11_Real           S11_Imag           S21_Real           S21_Imag           S12_Real           S12_Imag           S22_Real           S22_Imag
      100000000    3,115367517e-02    2,865310758e-02    4,348784983e-01   -6,686524749e-01    0,000000000e+00    0,000000000e+00    0,000000000e+00    0,000000000e+00
      114000000    5,758661777e-02    5,506099202e-03    7,914379239e-03   -7,909756303e-01    0,000000000e+00    0,000000000e+00    0,000000000e+00    0,000000000e+00
      128000000    6,729256362e-02   -3,784919158e-02   -4,102210104e-01   -6,711370349e-01    0,000000000e+00    0,000000000e+00    0,000000000e+00    0,000000000e+00
      142000000    4,474106431e-02   -8,423203975e-02   -7,030690312e-01   -3,532746434e-01    0,000000000e+00    0,000000000e+00    0,000000000e+00    0,000000000e+00
      156000000   -5,656151101e-03   -1,068284735e-01   -7,870044708e-01    7,401032746e-02    0,000000000e+00    0,000000000e+00    0,000000000e+00    0,000000000e+00
      170000000   -5,762578174e-02   -9,064817429e-02   -6,277889609e-01    4,871311188e-01    0,000000000e+00    0,000000000e+00    0,000000000e+00    0,000000000e+00
      184000000   -8,375873417e-02   -4,945866764e-02   -2,650101185e-01    7,510036826e-01    0,000000000e+00    0,000000000e+00    0,000000000e+00    0,000000000e+00
      198000000   -7,966079563e-02   -1,046323963e-02    1,832057834e-01    7,732006311e-01    0,000000000e+00    0,000000000e+00    0,000000000e+00    0,000000000e+00
      212000000   -6,227571890e-02    1,322358567e-02    5,692315102e-01    5,491486788e-01    0,000000000e+00    0,000000000e+00    0,000000000e+00    0,000000000e+00
      226000000   -4,331674799e-02    2,773600072e-02    7,707998157e-01    1,544849128e-01    0,000000000e+00    0,000000000e+00    0,000000000e+00    0,000000000e+00
      240000000   -1,825022139e-02    3,848719969e-02    7,268851995e-01   -2,818776071e-01    0,000000000e+00    0,000000000e+00    0,000000000e+00    0,000000000e+00
      254000000    1,718341187e-02    3,520163521e-02    4,579876363e-01   -6,199125051e-01    0,000000000e+00    0,000000000e+00    0,000000000e+00    0,000000000e+00
      268000000    4,877731577e-02    5,587539170e-03    5,866434798e-02   -7,605463862e-01    0,000000000e+00    0,000000000e+00    0,000000000e+00    0,000000000e+00
      282000000    5,351787433e-02   -4,185464978e-02   -3,491136432e-01   -6,716483831e-01    0,000000000e+00    0,000000000e+00    0,000000000e+00    0,000000000e+00
      296000000    2,398743853e-02   -7,945775986e-02   -6,518309116e-01   -3,854072392e-01    0,000000000e+00    0,000000000e+00    0,000000000e+00    0,000000000e+00
      310000000   -1,792250015e-02   -8,328660578e-02   -7,622728348e-01    2,025863901e-02    0,000000000e+00    0,000000000e+00    0,000000000e+00    0,000000000e+00
      324000000   -4,175941274e-02   -5,890439823e-02   -6,324439049e-01    4,309069216e-01    0,000000000e+00    0,000000000e+00    0,000000000e+00    0,000000000e+00
      338000000   -3,424012288e-02   -3,686500341e-02   -2,982254624e-01    6,988983750e-01    0,000000000e+00    0,000000000e+00    0,000000000e+00    0,000000000e+00
      352000000   -1,745132171e-02   -4,054698348e-02    1,250405908e-01    7,424244881e-01    0,000000000e+00    0,000000000e+00    0,000000000e+00    0,000000000e+00
      366000000   -1,924760081e-02   -6,194774434e-02    4,979568720e-01    5,537382960e-01    0,000000000e+00    0,000000000e+00    0,000000000e+00    0,000000000e+00
      380000000   -4,468137398e-02   -7,271380723e-02    7,130064368e-01    1,994236261e-01    0,000000000e+00    0,000000000e+00    0,000000000e+00    0,000000000e+00
      394000000   -7,092606276e-02   -5,799466744e-02    7,046583295e-01   -2,164112777e-01    0,000000000e+00    0,000000000e+00    0,000000000e+00    0,000000000e+00
      408000000   -7,717792690e-02   -3,018321656e-02    4,705625474e-01   -5,589069128e-01    0,000000000e+00    0,000000000e+00    0,000000000e+00    0,000000000e+00
      422000000   -6,542611867e-02   -1,128693949e-02    9,305670857e-02   -7,181740999e-01    0,000000000e+00    0,000000000e+00    0,000000000e+00    0,000000000e+00
      436000000   -5,291718617e-02   -4,143401980e-03   -3,022608757e-01   -6,472834349e-01    0,000000000e+00    0,000000000e+00    0,000000000e+00    0,000000000e+00
      450000000   -4,469383508e-02    1,619975199e-03   -5,931574702e-01   -3,781922460e-01    0,000000000e+00    0,000000000e+00    0,000000000e+00    0,000000000e+00
      464000000   -2,968561463e-02    1,097950805e-02   -6,913818121e-01   -3,092772677e-04    0,000000000e+00    0,000000000e+00    0,000000000e+00    0,000000000e+00
      478000000   -1,320186886e-03    1,150468644e-02   -5,732509494e-01    3,634046018e-01    0,000000000e+00    0,000000000e+00    0,000000000e+00    0,000000000e+00
      492000000    2,766253240e-02   -1,214494463e-02   -2,897619009e-01    6,018105149e-01    0,000000000e+00    0,000000000e+00    0,000000000e+00    0,000000000e+00
      506000000    3,679380566e-02   -5,589248240e-02    6,951168925e-02    6,585998535e-01    0,000000000e+00    0,000000000e+00    0,000000000e+00    0,000000000e+00
      520000000    1,235355344e-02   -9,878523648e-02    4,065000117e-01    5,265570283e-01    0,000000000e+00    0,000000000e+00    0,000000000e+00    0,000000000e+00
      534000000   -3,443841264e-02   -1,159122288e-01    6,237258911e-01    2,366189063e-01    0,000000000e+00    0,000000000e+00    0,000000000e+00    0,000000000e+00
      548000000   -7,792527974e-02   -9,924352169e-02    6,573817730e-01   -1,335292161e-01    0,000000000e+00    0,000000000e+00    0,000000000e+00    0,000000000e+00
      562000000   -9,359018505e-02   -6,641171128e-02    4,812711477e-01   -4,664373100e-01    0,000000000e+00    0,000000000e+00    0,000000000e+00    0,000000000e+00
      576000000   -8,627614379e-02   -4,397329316e-02    1,497890055e-01   -6,482980251e-01    0,000000000e+00    0,000000000e+00    0,000000000e+00    0,000000000e+00
      590000000   -8,082276583e-02   -4,176039249e-02   -2,212967873e-01   -6,282752752e-01    0,000000000e+00    0,000000000e+00    0,000000000e+00    0,000000000e+00
      604000000   -8,903184533e-02   -3,738681227e-02   -5,201070309e-01   -4,062701166e-01    0,000000000e+00    0,000000000e+00    0,000000000e+00    0,000000000e+00
      618000000   -9,639687836e-02   -1,561232097e-02   -6,529057026e-01   -5,874614418e-02    0,000000000e+00    0,000000000e+00    0,000000000e+00    0,000000000e+00
      632000000   -8,151516318e-02    1,548822038e-02   -5,754686594e-01    3,029617071e-01    0,000000000e+00    0,000000000e+00    0,000000000e+00    0,000000000e+00
      646000000   -4,329583049e-02    2,631614357e-02   -3,188860118e-01    5,563663244e-01    0,000000000e+00    0,000000000e+00    0,000000000e+00    0,000000000e+00
      660000000   -7,294427138e-03    6,482650060e-03    2,082518674e-02    6,297573447e-01    0,000000000e+00    0,000000000e+00    0,000000000e+00    0,000000000e+00
      674000000    1,259570941e-03   -3,053892590e-02    3,428932130e-01    5,187828541e-01    0,000000000e+00    0,000000000e+00    0,000000000e+00    0,000000000e+00
      688000000   -1,455508824e-02   -5,611307546e-02    5,590153337e-01    2,582731247e-01    0,000000000e+00    0,000000000e+00    0,000000000e+00    0,000000000e+00
      702000000   -3,265228868e-02   -5,995875970e-02    6,024673581e-01   -7,846636325e-02    0,000000000e+00    0,000000000e+00    0,000000000e+00    0,000000000e+00
      716000000   -3,756401688e-02   -5,609646812e-02    4,601168334e-01   -3,901706636e-01    0,000000000e+00    0,000000000e+00    0,000000000e+00    0,000000000e+00
      730000000   -3,196656704e-02   -6,579452753e-02    1,739713997e-01   -5,661249757e-01    0,000000000e+00    0,000000000e+00    0,000000000e+00    0,000000000e+00
      744000000   -4,106650501e-02   -8,849727362e-02   -1,530168802e-01   -5,642591119e-01    0,000000000e+00    0,000000000e+00    0,000000000e+00    0,000000000e+00
      758000000   -7,171690464e-02   -1,043830588e-01   -4,273412526e-01   -3,939605653e-01    0,000000000e+00    0,000000000e+00    0,000000000e+00    0,000000000e+00
      772000000   -1,135732383e-01   -9,312979877e-02   -5,743188262e-01   -1,062750295e-01    0,000000000e+00    0,000000000e+00    0,000000000e+00    0,000000000e+00
      786000000   -1,390095651e-01   -5,559784546e-02   -5,446093082e-01    2,210872173e-01    0,000000000e+00    0,000000000e+00    0,000000000e+00    0,000000000e+00
      800000000   -1,333220750e-01   -1,470923238e-02   -3,412186801e-01    4,793545306e-01    0,000000000e+00    0,000000000e+00    0,000000000e+00    0,000000000e+00
      814000000   -1,086565554e-01    7,888139226e-03   -3,318772092e-02    5,860062242e-01    0,000000000e+00    0,000000000e+00    0,000000000e+00    0,000000000e+00
      828000000   -8,580213785e-02    1,310825441e-02    2,771106362e-01    5,134354234e-01    0,000000000e+00    0,000000000e+00    0,000000000e+00    0,000000000e+00
      842000000   -7,086300850e-02    1,533798687e-02    5,026422739e-01    2,893381715e-01    0,000000000e+00    0,000000000e+00    0,000000000e+00    0,000000000e+00
      856000000   -5,191705748e-02    1,940923184e-02    5,706797838e-01   -1,755742542e-02    0,000000000e+00    0,000000000e+00    0,000000000e+00    0,000000000e+00
      870000000   -2,294172347e-02    1,471789461e-02    4,632054269e-01   -3,065349162e-01    0,000000000e+00    0,000000000e+00    0,000000000e+00    0,000000000e+00
      884000000    5,920020398e-03   -1,457592286e-02    2,297435701e-01   -4,885861874e-01    0,000000000e+00    0,000000000e+00    0,000000000e+00    0,000000000e+00
      898000000    1,168714557e-02   -6,398543715e-02   -5,303169414e-02   -5,271351933e-01    0,000000000e+00    0,000000000e+00    0,000000000e+00    0,000000000e+00
      912000000   -2,260875516e-02   -1,086320952e-01   -3,551006615e-01   -4,090025425e-01    0,000000000e+00    0,000000000e+00    0,000000000e+00    0,000000000e+00
      926000000   -7,332879305e-02   -1,245677397e-01   -5,292221308e-01   -1,588307470e-01    0,000000000e+00    0,000000000e+00    0,000000000e+00    0,000000000e+00
      940000000   -1,256040037e-01   -1,040528640e-01   -5,543403029e-01    1,544266194e-01    0,000000000e+00    0,000000000e+00    0,000000000e+00    0,000000000e+00
      954000000   -1,415991187e-01   -6,415060908e-02   -3,928162158e-01    4,442699850e-01    0,000000000e+00    0,000000000e+00    0,000000000e+00    0,000000000e+00
      968000000   -1,299492270e-01   -2,966445684e-02   -8,978027105e-02    6,017889977e-01    0,000000000e+00    0,000000000e+00    0,000000000e+00    0,000000000e+00
      982000000   -1,131930351e-01   -1,675480418e-02    2,475945652e-01    5,723886490e-01    0,000000000e+00    0,000000000e+00    0,000000000e+00    0,000000000e+00
      996000000   -1,091064736e-01   -1,583322696e-02    5,120481849e-01    3,653241694e-01    0,000000000e+00    0,000000000e+00    0,000000000e+00    0,000000000e+00
     1010000000   -1,034397557e-01   -1,102658641e-02    6,299762726e-01    5,210136995e-02    0,000000000e+00    0,000000000e+00    0,000000000e+00    0,000000000e+00
     1024000000   -9,053332359e-02    3,234114774e-05    5,602887869e-01   -2,704823613e-01    0,000000000e+00    0,000000000e+00    0,000000000e+00    0,000000000e+00
     1038000000   -7,810747623e-02   -2,761032199e-03    3,398478031e-01   -5,036820769e-01    0,000000000e+00    0,000000000e+00    0,000000000e+00    0,000000000e+00
     1052000000   -6,344305724e-02   -1,336989366e-02    3,258808330e-02   -5,836182833e-01    0,000000000e+00    0,000000000e+00    0,000000000e+00    0,000000000e+00
     1066000000   -7,166779786e-02   -2,702417597e-02   -2,707011402e-01   -5,011551976e-01    0,000000000e+00    0,000000000e+00    0,000000000e+00    0,000000000e+00
     1080000000   -7,840643823e-02   -3,043757565e-02   -4,804485142e-01   -2,697874606e-01    0,000000000e+00    0,000000000e+00    0,000000000e+00    0,000000000e+00
     1094000000   -7,920441777e-02   -1,401508227e-02   -5,320367813e-01    4,094525054e-02    0,000000000e+00    0,000000000e+00    0,000000000e+00    0,000000000e+00
     1108000000   -6,042536348e-02   -9,477315471e-03   -3,978458643e-01    3,261592090e-01    0,000000000e+00    0,000000000e+00    0,000000000e+00    0,000000000e+00
     1122000000   -2,989473194e-02   -3,404319659e-02   -1,374200583e-01    4,813563824e-01    0,000000000e+00    0,000000000e+00    0,000000000e+00    0,000000000e+00
     1136000000   -2,788379788e-02   -8,756969124e-02    1,649880707e-01    4,737683833e-01    0,000000000e+00    0,000000000e+00    0,000000000e+00    0,000000000e+00
     1150000000   -6,990840286e-02   -1,346238405e-01    4,192391336e-01    3,137610853e-01    0,000000000e+00    0,000000000e+00    0,000000000e+00    0,000000000e+00
     1164000000   -1,365335286e-01   -1,507405192e-01    5,649554729e-01    2,609317936e-02    0,000000000e+00    0,000000000e+00    0,000000000e+00    0,000000000e+00
     1178000000   -2,107812464e-01   -1,180827022e-01    5,316716433e-01   -3,162081242e-01    0,000000000e+00    0,000000000e+00    0,000000000e+00    0,000000000e+00
     1192000000   -2,494233251e-01   -4,080468416e-02    2,971266508e-01   -5,984909534e-01    0,000000000e+00    0,000000000e+00    0,000000000e+00    0,000000000e+00
     1206000000   -2,285161018e-01    3,461746871e-02   -6,403823942e-02   -7,011716962e-01    0,000000000e+00    0,000000000e+00    0,000000000e+00    0,000000000e+00
     1220000000   -1,867441088e-01    7,922477275e-02   -4,223140776e-01   -5,777592659e-01    0,000000000e+00    0,000000000e+00    0,000000000e+00    0,000000000e+00
     1234000000   -1,274237037e-01    1,066804752e-01   -6,449266672e-01   -2,867249846e-01    0,000000000e+00    0,000000000e+00    0,000000000e+00    0,000000000e+00
     1248000000   -6,479655206e-02    9,488385171e-02   -6,731892824e-01    6,172609702e-02    0,000000000e+00    0,000000000e+00    0,000000000e+00    0,000000000e+00
     1262000000   -1,105310023e-02    6,448945403e-02   -5,185695291e-01    3,688308001e-01    0,000000000e+00    0,000000000e+00    0,000000000e+00    0,000000000e+00
     1276000000    2,463098802e-02   -5,278969649e-03   -2,420395315e-01    5,428880453e-01    0,000000000e+00    0,000000000e+00    0,000000000e+00    0,000000000e+00
     1290000000    2,011791989e-02   -8,552955836e-02    6,806505471e-02    5,750195384e-01    0,000000000e+00    0,000000000e+00    0,000000000e+00    0,000000000e+00
     1304000000   -2,950638719e-02   -1,675612181e-01    3,655330241e-01    4,756642282e-01    0,000000000e+00    0,000000000e+00    0,000000000e+00    0,000000000e+00
     1318000000   -1,305229515e-01   -2,153845131e-01    5,893337131e-01    2,190639526e-01    0,000000000e+00    0,000000000e+00    0,000000000e+00    0,000000000e+00
     1332000000   -2,556245029e-01   -1,887596846e-01    6,540347338e-01   -1,240216941e-01    0,000000000e+00    0,000000000e+00    0,000000000e+00    0,000000000e+00
     1346000000   -3,324714005e-01   -9,830929339e-02    5,138625503e-01   -4,681350589e-01    0,000000000e+00    0,000000000e+00    0,000000000e+00    0,000000000e+00
     1360000000   -3,315971792e-01    1,957607269e-02    1,938024014e-01   -6,470296383e-01    0,000000000e+00    0,000000000e+00    0,000000000e+00    0,000000000e+00
     1374000000   -2,798337638e-01    1,093561947e-01   -1,595407724e-01   -6,025955081e-01    0,000000000e+00    0,000000000e+00    0,000000000e+00    0,000000000e+00
     1388000000   -2,132994980e-01    1,355525851e-01   -4,087189436e-01   -3,707388937e-01    0,000000000e+00    0,000000000e+00    0,000000000e+00    0,000000000e+00
     1402000000   -1,545550674e-01    1,404089332e-01   -4,899708033e-01   -5,662133545e-02    0,000000000e+00    0,000000000e+00    0,000000000e+00    0,000000000e+00
     1416000000   -9,706733376e-02    1,177670360e-01   -3,764380515e-01    2,354430258e-01    0,000000000e+00    0,000000000e+00    0,000000000e+00    0,000000000e+00
     1430000000   -5,494533852e-02    7,436046749e-02   -1,568811089e-01    4,668730497e-01    0,000000000e+00    0,000000000e+00    0,000000000e+00    0,000000000e+00
     1444000000   -4,115565121e-02    2,653957810e-03    1,532886177e-01    5,214952230e-01    0,000000000e+00    0,000000000e+00    0,000000000e+00    0,000000000e+00
     1458000000   -6,729001552e-02   -7,089508325e-02    4,910500646e-01    4,861019552e-01    0,000000000e+00    0,000000000e+00    0,000000000e+00    0,000000000e+00
     1472000000   -1,367799193e-01   -1,252159178e-01    7,613107562e-01    2,663603425e-01    0,000000000e+00    0,000000000e+00    0,000000000e+00    0,000000000e+00
     1486000000   -2,332954705e-01   -1,135833114e-01    8,758144975e-01   -7,479622215e-02    0,000000000e+00    0,000000000e+00    0,000000000e+00    0,000000000e+00
     1500000000   -2,899450064e-01   -4,385934398e-02    7,942206264e-01   -4,569802880e-01    0,000000000e+00    0,000000000e+00    0,000000000e+00    0,000000000e+00
