! NanoVNA-App
! Date: 2025-09-25 15:07:32
! Start: 100MHz Stop: 1,5GHz Points: 101
! S-Parameter data: F S11 S21 S12 S22
# Hz S RI R 50
!     Frequency           S11_Real           S11_Imag           S21_Real           S21_Imag           S12_Real           S12_Imag           S22_Real           S22_Imag
      100000000    3,115056083e-02    2,864829265e-02    4,348390102e-01   -6,686127186e-01    0,000000000e+00    0,000000000e+00    0,000000000e+00    0,000000000e+00
      114000000    5,754478276e-02    5,492249504e-03    7,753520273e-03   -7,910040021e-01    0,000000000e+00    0,000000000e+00    0,000000000e+00    0,000000000e+00
      128000000    6,720869988e-02   -3,784935549e-02   -4,102698565e-01   -6,711113453e-01    0,000000000e+00    0,000000000e+00    0,000000000e+00    0,000000000e+00
      142000000    4,471068457e-02   -8,421083540e-02   -7,028028369e-01   -3,532746434e-01    0,000000000e+00    0,000000000e+00    0,000000000e+00    0,000000000e+00
      156000000   -6,208837964e-03   -1,058818847e-01   -7,855234146e-01    7,265162468e-02    0,000000000e+00    0,000000000e+00    0,000000000e+00    0,000000000e+00
      170000000   -5,769998580e-02   -9,062508494e-02   -6,274951100e-01    4,869691730e-01    0,000000000e+00    0,000000000e+00    0,000000000e+00    0,000000000e+00
      184000000   -8,368458599e-02   -4,945285991e-02   -2,652087808e-01    7,510290742e-01    0,000000000e+00    0,000000000e+00    0,000000000e+00    0,000000000e+00
      198000000   -7,966668904e-02   -1,046627946e-02    1,833840162e-01    7,735952735e-01    0,000000000e+00    0,000000000e+00    0,000000000e+00    0,000000000e+00
      212000000   -6,224557385e-02    1,318559051e-02    5,691652298e-01    5,491061211e-01    0,000000000e+00    0,000000000e+00    0,000000000e+00    0,000000000e+00
      226000000   -4,325563088e-02    2,771854587e-02    7,707760930e-01    1,544870734e-01    0,000000000e+00    0,000000000e+00    0,000000000e+00    0,000000000e+00
      240000000   -1,823367365e-02    3,852514923e-02    7,268948555e-01   -2,817909122e-01    0,000000000e+00    0,000000000e+00    0,000000000e+00    0,000000000e+00
      254000000    1,718439348e-02    3,521062434e-02    4,577993453e-01   -6,203324199e-01    0,000000000e+00    0,000000000e+00    0,000000000e+00    0,000000000e+00
      268000000    4,876849800e-02    5,616108887e-03    5,858358741e-02   -7,605021000e-01    0,000000000e+00    0,000000000e+00    0,000000000e+00    0,000000000e+00
      282000000    5,353134498e-02   -4,177210480e-02   -3,490322530e-01   -6,716525555e-01    0,000000000e+00    0,000000000e+00    0,000000000e+00    0,000000000e+00
      296000000    2,401543967e-02   -7,947651297e-02   -6,519962549e-01   -3,853189051e-01    0,000000000e+00    0,000000000e+00    0,000000000e+00    0,000000000e+00
      310000000   -1,786070690e-02   -8,323101699e-02   -7,637523413e-01    1,935417950e-02    0,000000000e+00    0,000000000e+00    0,000000000e+00    0,000000000e+00
      324000000   -4,149517417e-02   -5,893497169e-02   -6,318662763e-01    4,303406477e-01    0,000000000e+00    0,000000000e+00    0,000000000e+00    0,000000000e+00
      338000000   -3,421050310e-02   -3,682006523e-02   -2,956604362e-01    6,988784075e-01    0,000000000e+00    0,000000000e+00    0,000000000e+00    0,000000000e+00
      352000000   -1,740259491e-02   -4,073892906e-02    1,249233633e-01    7,417956591e-01    0,000000000e+00    0,000000000e+00    0,000000000e+00    0,000000000e+00
      366000000   -1,926042885e-02   -6,185817346e-02    4,985819459e-01    5,543332696e-01    0,000000000e+00    0,000000000e+00    0,000000000e+00    0,000000000e+00
      380000000   -4,424112290e-02   -7,266978174e-02    7,128337026e-01    2,004682422e-01    0,000000000e+00    0,000000000e+00    0,000000000e+00    0,000000000e+00
      394000000   -7,079072297e-02   -5,813080817e-02    7,041770816e-01   -2,171485871e-01    0,000000000e+00    0,000000000e+00    0,000000000e+00    0,000000000e+00
      408000000   -7,695531845e-02   -3,035398014e-02    4,712827504e-01   -5,595517159e-01    0,000000000e+00    0,000000000e+00    0,000000000e+00    0,000000000e+00
      422000000   -6,536494941e-02   -1,141555142e-02    9,345655143e-02   -7,173871398e-01    0,000000000e+00    0,000000000e+00    0,000000000e+00    0,000000000e+00
      436000000   -5,317984894e-02   -4,416043870e-03   -3,014999926e-01   -6,483171582e-01    0,000000000e+00    0,000000000e+00    0,000000000e+00    0,000000000e+00
      450000000   -4,438239709e-02    1,561920159e-03   -5,926818848e-01   -3,779139519e-01    0,000000000e+00    0,000000000e+00    0,000000000e+00    0,000000000e+00
      464000000   -2,952881157e-02    1,143850666e-02   -6,911104321e-01    1,033452863e-04    0,000000000e+00    0,000000000e+00    0,000000000e+00    0,000000000e+00
      478000000   -1,007755636e-03    1,115028746e-02   -5,734537244e-01    3,633733690e-01    0,000000000e+00    0,000000000e+00    0,000000000e+00    0,000000000e+00
      492000000    2,779044956e-02   -1,219823584e-02   -2,896192968e-01    6,019253135e-01    0,000000000e+00    0,000000000e+00    0,000000000e+00    0,000000000e+00
      506000000    3,675960377e-02   -5,594211817e-02    6,895133108e-02    6,578840017e-01    0,000000000e+00    0,000000000e+00    0,000000000e+00    0,000000000e+00
      520000000    1,272008289e-02   -9,824452549e-02    3,987336159e-01    5,248851180e-01    0,000000000e+00    0,000000000e+00    0,000000000e+00    0,000000000e+00
      534000000   -3,410479799e-02   -1,161111966e-01    6,246085763e-01    2,359609306e-01    0,000000000e+00    0,000000000e+00    0,000000000e+00    0,000000000e+00
      548000000   -7,724250853e-02   -9,904419631e-02    6,582304835e-01   -1,332321763e-01    0,000000000e+00    0,000000000e+00    0,000000000e+00    0,000000000e+00
      562000000   -9,317773581e-02   -6,634671986e-02    4,819094241e-01   -4,676411152e-01    0,000000000e+00    0,000000000e+00    0,000000000e+00    0,000000000e+00
      576000000   -8,654605597e-02   -4,442339763e-02    1,498241574e-01   -6,491929889e-01    0,000000000e+00    0,000000000e+00    0,000000000e+00    0,000000000e+00
      590000000   -8,081202209e-02   -4,175288603e-02   -2,219534665e-01   -6,264818907e-01    0,000000000e+00    0,000000000e+00    0,000000000e+00    0,000000000e+00
      604000000   -8,909180015e-02   -3,761515394e-02   -5,198059678e-01   -4,061474502e-01    0,000000000e+00    0,000000000e+00    0,000000000e+00    0,000000000e+00
      618000000   -9,672194719e-02   -1,478041243e-02   -6,530763507e-01   -5,830356106e-02    0,000000000e+00    0,000000000e+00    0,000000000e+00    0,000000000e+00
      632000000   -8,143327385e-02    1,506545115e-02   -5,747991204e-01    3,032276034e-01    0,000000000e+00    0,000000000e+00    0,000000000e+00    0,000000000e+00
      646000000   -4,304051027e-02    2,599370666e-02   -3,192488551e-01    5,564100146e-01    0,000000000e+00    0,000000000e+00    0,000000000e+00    0,000000000e+00
      660000000   -7,975561544e-03    6,235966459e-03    2,098440006e-02    6,294845343e-01    0,000000000e+00    0,000000000e+00    0,000000000e+00    0,000000000e+00
      674000000    6,266170531e-04   -3,008125722e-02    3,428207338e-01    5,186226964e-01    0,000000000e+00    0,000000000e+00    0,000000000e+00    0,000000000e+00
      688000000   -1,425587106e-02   -5,496923253e-02    5,588790774e-01    2,582476735e-01    0,000000000e+00    0,000000000e+00    0,000000000e+00    0,000000000e+00
      702000000   -3,289623931e-02   -5,951908603e-02    6,047766805e-01   -8,237615228e-02    0,000000000e+00    0,000000000e+00    0,000000000e+00    0,000000000e+00
      716000000   -3,773602843e-02   -5,580240488e-02    4,594532847e-01   -3,889295161e-01    0,000000000e+00    0,000000000e+00    0,000000000e+00    0,000000000e+00
      730000000   -3,204466775e-02   -6,579315662e-02    1,737439185e-01   -5,658224821e-01    0,000000000e+00    0,000000000e+00    0,000000000e+00    0,000000000e+00
      744000000   -4,093227535e-02   -8,826171607e-02   -1,534069330e-01   -5,639514923e-01    0,000000000e+00    0,000000000e+00    0,000000000e+00    0,000000000e+00
      758000000   -7,181030512e-02   -1,045723557e-01   -4,270961583e-01   -3,944385946e-01    0,000000000e+00    0,000000000e+00    0,000000000e+00    0,000000000e+00
      772000000   -1,144212261e-01   -9,425631166e-02   -5,743882656e-01   -1,058970615e-01    0,000000000e+00    0,000000000e+00    0,000000000e+00    0,000000000e+00
      786000000   -1,388393939e-01   -5,515130609e-02   -5,448526740e-01    2,209734768e-01    0,000000000e+00    0,000000000e+00    0,000000000e+00    0,000000000e+00
      800000000   -1,333035231e-01   -1,464692317e-02   -3,415528536e-01    4,793480337e-01    0,000000000e+00    0,000000000e+00    0,000000000e+00    0,000000000e+00
      814000000   -1,086640209e-01    8,178144693e-03   -3,441572562e-02    5,872381330e-01    0,000000000e+00    0,000000000e+00    0,000000000e+00    0,000000000e+00
      828000000   -8,529545367e-02    1,304067206e-02    2,783339024e-01    5,137025714e-01    0,000000000e+00    0,000000000e+00    0,000000000e+00    0,000000000e+00
      842000000   -7,027251273e-02    1,426870469e-02    5,022713542e-01    2,896707654e-01    0,000000000e+00    0,000000000e+00    0,000000000e+00    0,000000000e+00
      856000000   -5,207621679e-02    1,940744929e-02    5,705046058e-01   -1,770452783e-02    0,000000000e+00    0,000000000e+00    0,000000000e+00    0,000000000e+00
      870000000   -2,277458832e-02    1,467750128e-02    4,636352658e-01   -3,064089417e-01    0,000000000e+00    0,000000000e+00    0,000000000e+00    0,000000000e+00
      884000000    5,524034146e-03   -1,445258874e-02    2,302893996e-01   -4,887087047e-01    0,000000000e+00    0,000000000e+00    0,000000000e+00    0,000000000e+00
      898000000    1,135699358e-02   -6,305485219e-02   -5,282244086e-02   -5,267046094e-01    0,000000000e+00    0,000000000e+00    0,000000000e+00    0,000000000e+00
      912000000   -2,299292199e-02   -1,081395373e-01   -3,522802889e-01   -3,980390429e-01    0,000000000e+00    0,000000000e+00    0,000000000e+00    0,000000000e+00
      926000000   -7,524520159e-02   -1,227780581e-01   -5,326747894e-01   -1,555472612e-01    0,000000000e+00    0,000000000e+00    0,000000000e+00    0,000000000e+00
      940000000   -1,252122074e-01   -1,020089388e-01   -5,518193245e-01    1,577709764e-01    0,000000000e+00    0,000000000e+00    0,000000000e+00    0,000000000e+00
      954000000   -1,398275644e-01   -5,820300430e-02   -3,920242488e-01    4,463832378e-01    0,000000000e+00    0,000000000e+00    0,000000000e+00    0,000000000e+00
      968000000   -1,330721229e-01   -2,666196972e-02   -9,254479408e-02    6,032033563e-01    0,000000000e+00    0,000000000e+00    0,000000000e+00    0,000000000e+00
      982000000   -1,125497147e-01   -1,487219147e-02    2,473809868e-01    5,714159608e-01    0,000000000e+00    0,000000000e+00    0,000000000e+00    0,000000000e+00
      996000000   -1,075562239e-01   -1,628873497e-02    5,139586329e-01    3,675698936e-01    0,000000000e+00    0,000000000e+00    0,000000000e+00    0,000000000e+00
     1010000000   -1,050547212e-01   -6,370014511e-03    6,286362410e-01    5,315889418e-02    0,000000000e+00    0,000000000e+00    0,000000000e+00    0,000000000e+00
     1024000000   -9,580508620e-02   -9,466983029e-04    5,600305200e-01   -2,706313729e-01    0,000000000e+00    0,000000000e+00    0,000000000e+00    0,000000000e+00
     1038000000   -7,539789379e-02   -4,755779169e-03    3,388538659e-01   -5,034659505e-01    0,000000000e+00    0,000000000e+00    0,000000000e+00    0,000000000e+00
     1052000000   -6,739944965e-02   -1,229879633e-02    3,093129955e-02   -5,867603421e-01    0,000000000e+00    0,000000000e+00    0,000000000e+00    0,000000000e+00
     1066000000   -6,621948630e-02   -2,783542313e-02   -2,665154040e-01   -5,015737414e-01    0,000000000e+00    0,000000000e+00    0,000000000e+00    0,000000000e+00
     1080000000   -8,020001650e-02   -3,450000659e-02   -4,817027152e-01   -2,731480598e-01    0,000000000e+00    0,000000000e+00    0,000000000e+00    0,000000000e+00
     1094000000   -8,528392762e-02   -1,502953935e-02   -5,333806872e-01    4,283048958e-02    0,000000000e+00    0,000000000e+00    0,000000000e+00    0,000000000e+00
     1108000000   -5,597443134e-02   -9,577018209e-03   -3,991041481e-01    3,267106712e-01    0,000000000e+00    0,000000000e+00    0,000000000e+00    0,000000000e+00
     1122000000   -3,123243339e-02   -3,179583699e-02   -1,380139440e-01    4,811452925e-01    0,000000000e+00    0,000000000e+00    0,000000000e+00    0,000000000e+00
     1136000000   -2,487839200e-02   -8,629748970e-02    1,626108438e-01    4,738933146e-01    0,000000000e+00    0,000000000e+00    0,000000000e+00    0,000000000e+00
     1150000000   -6,353180856e-02   -1,328636259e-01    4,174990058e-01    3,127211928e-01    0,000000000e+00    0,000000000e+00    0,000000000e+00    0,000000000e+00
     1164000000   -1,407697946e-01   -1,492262781e-01    5,625640154e-01    2,568147518e-02    0,000000000e+00    0,000000000e+00    0,000000000e+00    0,000000000e+00
     1178000000   -2,069658786e-01   -1,193444058e-01    5,293030739e-01   -3,172247410e-01    0,000000000e+00    0,000000000e+00    0,000000000e+00    0,000000000e+00
     1192000000   -2,485063225e-01   -4,075318947e-02    2,980553508e-01   -5,992828608e-01    0,000000000e+00    0,000000000e+00    0,000000000e+00    0,000000000e+00
     1206000000   -2,354795784e-01    3,670072183e-02   -6,759239733e-02   -6,966823339e-01    0,000000000e+00    0,000000000e+00    0,000000000e+00    0,000000000e+00
     1220000000   -1,903247833e-01    8,471027762e-02   -4,197929800e-01   -5,807021856e-01    0,000000000e+00    0,000000000e+00    0,000000000e+00    0,000000000e+00
     1234000000   -1,253243238e-01    1,014016271e-01   -6,420173645e-01   -2,926935554e-01    0,000000000e+00    0,000000000e+00    0,000000000e+00    0,000000000e+00
     1248000000   -6,446399540e-02    9,405954927e-02   -6,755735874e-01    6,296299398e-02    0,000000000e+00    0,000000000e+00    0,000000000e+00    0,000000000e+00
     1262000000   -1,153038628e-02    5,998924002e-02   -5,202795267e-01    3,657834828e-01    0,000000000e+00    0,000000000e+00    0,000000000e+00    0,000000000e+00
     1276000000    2,631954104e-02   -1,179614221e-03   -2,398992777e-01    5,476397276e-01    0,000000000e+00    0,000000000e+00    0,000000000e+00    0,000000000e+00
     1290000000    2,254531160e-02   -8,648033440e-02    6,893977523e-02    5,796100497e-01    0,000000000e+00    0,000000000e+00    0,000000000e+00    0,000000000e+00
     1304000000   -2,885342017e-02   -1,730674356e-01    3,696300089e-01    4,686670005e-01    0,000000000e+00    0,000000000e+00    0,000000000e+00    0,000000000e+00
     1318000000   -1,336606592e-01   -2,085768729e-01    5,800698996e-01    2,229836136e-01    0,000000000e+00    0,000000000e+00    0,000000000e+00    0,000000000e+00
     1332000000   -2,520076334e-01   -1,870808303e-01    6,494445801e-01   -1,289830208e-01    0,000000000e+00    0,000000000e+00    0,000000000e+00    0,000000000e+00
     1346000000   -3,283053041e-01   -9,341691434e-02    5,030781627e-01   -4,617063403e-01    0,000000000e+00    0,000000000e+00    0,000000000e+00    0,000000000e+00
     1360000000   -3,355252743e-01    2,741685882e-02    1,894792616e-01   -6,503323317e-01    0,000000000e+00    0,000000000e+00    0,000000000e+00    0,000000000e+00
     1374000000   -2,783300877e-01    1,004374921e-01   -1,625018716e-01   -6,043158770e-01    0,000000000e+00    0,000000000e+00    0,000000000e+00    0,000000000e+00
     1388000000   -2,133315802e-01    1,340713054e-01   -4,055101573e-01   -3,851898313e-01    0,000000000e+00    0,000000000e+00    0,000000000e+00    0,000000000e+00
     1402000000   -1,559772789e-01    1,391531378e-01   -4,846878350e-01   -6,269954145e-02    0,000000000e+00    0,000000000e+00    0,000000000e+00    0,000000000e+00
     1416000000   -1,019867882e-01    1,163828000e-01   -3,854797781e-01    2,412532419e-01    0,000000000e+00    0,000000000e+00    0,000000000e+00    0,000000000e+00
     1430000000   -5,231713504e-02    7,339104265e-02   -1,631218493e-01    4,381096065e-01    0,000000000e+00    0,000000000e+00    0,000000000e+00    0,000000000e+00
     1444000000   -3,488367423e-02    5,362134427e-03    1,691492051e-01    5,419074893e-01    0,000000000e+00    0,000000000e+00    0,000000000e+00    0,000000000e+00
     1458000000   -6,148678064e-02   -7,216922939e-02    4,829099476e-01    4,854584932e-01    0,000000000e+00    0,000000000e+00    0,000000000e+00    0,000000000e+00
     1472000000   -1,389021128e-01   -1,249836981e-01    7,640538216e-01    2,570007145e-01    0,000000000e+00    0,000000000e+00    0,000000000e+00    0,000000000e+00
     1486000000   -2,298255861e-01   -1,109104231e-01    9,029675722e-01   -7,562131435e-02    0,000000000e+00    0,000000000e+00    0,000000000e+00    0,000000000e+00
     1500000000   -2,851210237e-01   -4,548069090e-02    8,042966127e-01   -4,495074153e-01    0,000000000e+00    0,000000000e+00    0,000000000e+00    0,000000000e+00
