! NanoVNA-App
! Date: 2025-09-25 15:08:27
! Start: 100MHz Stop: 1,5GHz Points: 101
! S-Parameter data: F S11 S21 S12 S22
# Hz S RI R 50
!     Frequency           S11_Real           S11_Imag           S21_Real           S21_Imag           S12_Real           S12_Imag           S22_Real           S22_Imag
      100000000    3,116794862e-02    2,864961885e-02    4,348770678e-01   -6,686255932e-01    0,000000000e+00    0,000000000e+00    0,000000000e+00    0,000000000e+00
      114000000    5,754952505e-02    5,522652529e-03    7,834342308e-03   -7,910220027e-01    0,000000000e+00    0,000000000e+00    0,000000000e+00    0,000000000e+00
      128000000    6,732352078e-02   -3,783467039e-02   -4,101809561e-01   -6,710003614e-01    0,000000000e+00    0,000000000e+00    0,000000000e+00    0,000000000e+00
      142000000    4,470494390e-02   -8,422718197e-02   -7,029037476e-01   -3,532143235e-01    0,000000000e+00    0,000000000e+00    0,000000000e+00    0,000000000e+00
      156000000   -5,745064002e-03   -1,067770272e-01   -7,866914272e-01    7,390055060e-02    0,000000000e+00    0,000000000e+00    0,000000000e+00    0,000000000e+00
      170000000   -5,762168020e-02   -9,062979370e-02   -6,273199320e-01    4,866205156e-01    0,000000000e+00    0,000000000e+00    0,000000000e+00    0,000000000e+00
      184000000   -8,373174816e-02   -4,946507514e-02   -2,651247382e-01    7,509642243e-01    0,000000000e+00    0,000000000e+00    0,000000000e+00    0,000000000e+00
      198000000   -7,962234318e-02   -1,047402620e-02    1,835476905e-01    7,731974721e-01    0,000000000e+00    0,000000000e+00    0,000000000e+00    0,000000000e+00
      212000000   -6,224411726e-02    1,321331598e-02    5,691096783e-01    5,490393639e-01    0,000000000e+00    0,000000000e+00    0,000000000e+00    0,000000000e+00
      226000000   -4,330052808e-02    2,765426785e-02    7,707771659e-01    1,546816230e-01    0,000000000e+00    0,000000000e+00    0,000000000e+00    0,000000000e+00
      240000000   -1,819862984e-02    3,846639022e-02    7,268102765e-01   -2,820108235e-01    0,000000000e+00    0,000000000e+00    0,000000000e+00    0,000000000e+00
      254000000    1,717615500e-02    3,518205136e-02    4,581266940e-01   -6,204194427e-01    0,000000000e+00    0,000000000e+00    0,000000000e+00    0,000000000e+00
      268000000    4,879396409e-02    5,615290720e-03    5,896803737e-02   -7,600843310e-01    0,000000000e+00    0,000000000e+00    0,000000000e+00    0,000000000e+00
      282000000    5,347639695e-02   -4,187779129e-02   -3,493329883e-01   -6,717795730e-01    0,000000000e+00    0,000000000e+00    0,000000000e+00    0,000000000e+00
      296000000    2,404524572e-02   -7,947064191e-02   -6,515246630e-01   -3,855889440e-01    0,000000000e+00    0,000000000e+00    0,000000000e+00    0,000000000e+00
      310000000   -1,792437397e-02   -8,293563873e-02   -7,640675306e-01    1,972498186e-02    0,000000000e+00    0,000000000e+00    0,000000000e+00    0,000000000e+00
      324000000   -4,168120399e-02   -5,874801055e-02   -6,323103905e-01    4,310910404e-01    0,000000000e+00    0,000000000e+00    0,000000000e+00    0,000000000e+00
      338000000   -3,439516947e-02   -3,665369377e-02   -2,968215048e-01    6,993209124e-01    0,000000000e+00    0,000000000e+00    0,000000000e+00    0,000000000e+00
      352000000   -1,723231189e-02   -4,076819494e-02    1,258750856e-01    7,421892285e-01    0,000000000e+00    0,000000000e+00    0,000000000e+00    0,000000000e+00
      366000000   -1,939423569e-02   -6,216157973e-02    4,982225001e-01    5,542889237e-01    0,000000000e+00    0,000000000e+00    0,000000000e+00    0,000000000e+00
      380000000   -4,419742525e-02   -7,266923040e-02    7,137844563e-01    1,995697767e-01    0,000000000e+00    0,000000000e+00    0,000000000e+00    0,000000000e+00
      394000000   -7,088074833e-02   -5,802405626e-02    7,038389444e-01   -2,163065970e-01    0,000000000e+00    0,000000000e+00    0,000000000e+00    0,000000000e+00
      408000000   -7,687734067e-02   -3,030196391e-02    4,707768857e-01   -5,598692894e-01    0,000000000e+00    0,000000000e+00    0,000000000e+00    0,000000000e+00
      422000000   -6,541891396e-02   -1,137957815e-02    9,248109907e-02   -7,183279991e-01    0,000000000e+00    0,000000000e+00    0,000000000e+00    0,000000000e+00
      436000000   -5,297154561e-02   -4,480647855e-03   -3,028256893e-01   -6,473688483e-01    0,000000000e+00    0,000000000e+00    0,000000000e+00    0,000000000e+00
      450000000   -4,468350485e-02    1,361561124e-03   -5,935521126e-01   -3,787989914e-01    0,000000000e+00    0,000000000e+00    0,000000000e+00    0,000000000e+00
      464000000   -2,979356796e-02    1,145453751e-02   -6,916299462e-01    2,615023986e-04    0,000000000e+00    0,000000000e+00    0,000000000e+00    0,000000000e+00
      478000000   -1,028114813e-03    1,129484084e-02   -5,737406611e-01    3,637278080e-01    0,000000000e+00    0,000000000e+00    0,000000000e+00    0,000000000e+00
      492000000    2,793534100e-02   -1,203281339e-02   -2,891818285e-01    6,026906967e-01    0,000000000e+00    0,000000000e+00    0,000000000e+00    0,000000000e+00
      506000000    3,670952469e-02   -5,591974035e-02    6,849269569e-02    6,587227583e-01    0,000000000e+00    0,000000000e+00    0,000000000e+00    0,000000000e+00
      520000000    1,258944627e-02   -9,868095070e-02    4,045428932e-01    5,227972269e-01    0,000000000e+00    0,000000000e+00    0,000000000e+00    0,000000000e+00
      534000000   -3,431239724e-02   -1,163559556e-01    6,238631010e-01    2,358314991e-01    0,000000000e+00    0,000000000e+00    0,000000000e+00    0,000000000e+00
      548000000   -7,752516121e-02   -9,893941134e-02    6,577854753e-01   -1,334135383e-01    0,000000000e+00    0,000000000e+00    0,000000000e+00    0,000000000e+00
      562000000   -9,312250465e-02   -6,639456004e-02    4,820869863e-01   -4,665319622e-01    0,000000000e+00    0,000000000e+00    0,000000000e+00    0,000000000e+00
      576000000   -8,591740578e-02   -4,443322867e-02    1,510748118e-01   -6,484937072e-01    0,000000000e+00    0,000000000e+00    0,000000000e+00    0,000000000e+00
      590000000   -8,071897924e-02   -4,163523391e-02   -2,206229270e-01   -6,252456903e-01    0,000000000e+00    0,000000000e+00    0,000000000e+00    0,000000000e+00
      604000000   -8,867304027e-02   -3,698593006e-02   -5,200076699e-01   -4,054329097e-01    0,000000000e+00    0,000000000e+00    0,000000000e+00    0,000000000e+00
      618000000   -9,650615603e-02   -1,466597430e-02   -6,533499956e-01   -5,858919397e-02    0,000000000e+00    0,000000000e+00    0,000000000e+00    0,000000000e+00
      632000000   -8,056259155e-02    1,501175109e-02   -5,749390125e-01    3,025217950e-01    0,000000000e+00    0,000000000e+00    0,000000000e+00    0,000000000e+00
      646000000   -4,246801883e-02    2,654900588e-02   -3,182574511e-01    5,567095876e-01    0,000000000e+00    0,000000000e+00    0,000000000e+00    0,000000000e+00
      660000000   -7,780701853e-03    5,406374577e-03    2,096904628e-02    6,288326383e-01    0,000000000e+00    0,000000000e+00    0,000000000e+00    0,000000000e+00
      674000000    4,757199495e-04   -3,013232909e-02    3,420082331e-01    5,184746981e-01    0,000000000e+00    0,000000000e+00    0,000000000e+00    0,000000000e+00
      688000000   -1,518384553e-02   -5,596854538e-02    5,584660172e-01    2,585473657e-01    0,000000000e+00    0,000000000e+00    0,000000000e+00    0,000000000e+00
      702000000   -3,269646317e-02   -6,001152471e-02    6,056668162e-01   -8,093968779e-02    0,000000000e+00    0,000000000e+00    0,000000000e+00    0,000000000e+00
      716000000   -3,783140704e-02   -5,543366075e-02    4,600265920e-01   -3,910178542e-01    0,000000000e+00    0,000000000e+00    0,000000000e+00    0,000000000e+00
      730000000   -3,259598836e-02   -6,561632454e-02    1,737293154e-01   -5,658912063e-01    0,000000000e+00    0,000000000e+00    0,000000000e+00    0,000000000e+00
      744000000   -4,112961516e-02   -8,879183978e-02   -1,535056084e-01   -5,637295246e-01    0,000000000e+00    0,000000000e+00    0,000000000e+00    0,000000000e+00
      758000000   -7,271834463e-02   -1,046155393e-01   -4,271015227e-01   -3,944784999e-01    0,000000000e+00    0,000000000e+00    0,000000000e+00    0,000000000e+00
      772000000   -1,136081219e-01   -9,342930466e-02   -5,744199753e-01   -1,055720374e-01    0,000000000e+00    0,000000000e+00    0,000000000e+00    0,000000000e+00
      786000000   -1,386716664e-01   -5,646757409e-02   -5,450264812e-01    2,213007808e-01    0,000000000e+00    0,000000000e+00    0,000000000e+00    0,000000000e+00
      800000000   -1,323005706e-01   -1,507068891e-02   -3,418764174e-01    4,795822203e-01    0,000000000e+00    0,000000000e+00    0,000000000e+00    0,000000000e+00
      814000000   -1,087089032e-01    8,391303010e-03   -3,375184536e-02    5,849241614e-01    0,000000000e+00    0,000000000e+00    0,000000000e+00    0,000000000e+00
      828000000   -8,574145287e-02    1,270902250e-02    2,782416344e-01    5,141655207e-01    0,000000000e+00    0,000000000e+00    0,000000000e+00    0,000000000e+00
      842000000   -7,121898979e-02    1,496600918e-02    5,028445125e-01    2,895606756e-01    0,000000000e+00    0,000000000e+00    0,000000000e+00    0,000000000e+00
      856000000   -5,231084675e-02    1,978505775e-02    5,707915425e-01   -1,779382862e-02    0,000000000e+00    0,000000000e+00    0,000000000e+00    0,000000000e+00
      870000000   -2,315996215e-02    1,446035411e-02    4,630812705e-01   -3,064994216e-01    0,000000000e+00    0,000000000e+00    0,000000000e+00    0,000000000e+00
      884000000    6,277043838e-03   -1,398696657e-02    2,303317934e-01   -4,890366495e-01    0,000000000e+00    0,000000000e+00    0,000000000e+00    0,000000000e+00
      898000000    1,194935571e-02   -6,310497224e-02   -5,177735537e-02   -5,257276893e-01    0,000000000e+00    0,000000000e+00    0,000000000e+00    0,000000000e+00
      912000000   -2,288828790e-02   -1,077049896e-01   -3,559373319e-01   -4,091097713e-01    0,000000000e+00    0,000000000e+00    0,000000000e+00    0,000000000e+00
      926000000   -7,388731837e-02   -1,236379892e-01   -5,287798047e-01   -1,580834687e-01    0,000000000e+00    0,000000000e+00    0,000000000e+00    0,000000000e+00
      940000000   -1,227731407e-01   -1,008780375e-01   -5,529281497e-01    1,583234817e-01    0,000000000e+00    0,000000000e+00    0,000000000e+00    0,000000000e+00
      954000000   -1,443851292e-01   -5,920843408e-02   -3,929381371e-01    4,445723891e-01    0,000000000e+00    0,000000000e+00    0,000000000e+00    0,000000000e+00
      968000000   -1,338139325e-01   -2,816930600e-02   -9,345172346e-02    6,043812633e-01    0,000000000e+00    0,000000000e+00    0,000000000e+00    0,000000000e+00
      982000000   -1,131602228e-01   -1,774300262e-02    2,459090203e-01    5,696059465e-01    0,000000000e+00    0,000000000e+00    0,000000000e+00    0,000000000e+00
      996000000   -1,035238281e-01   -1,338046417e-02    5,124602318e-01    3,659106195e-01    0,000000000e+00    0,000000000e+00    0,000000000e+00    0,000000000e+00
     1010000000   -1,031360179e-01   -1,040485408e-02    6,284962893e-01    5,203931034e-02    0,000000000e+00    0,000000000e+00    0,000000000e+00    0,000000000e+00
     1024000000   -9,034288675e-02   -1,246625208e-03    5,598118901e-01   -2,720973194e-01    0,000000000e+00    0,000000000e+00    0,000000000e+00    0,000000000e+00
     1038000000   -7,330656052e-02   -5,893364432e-04    3,381725252e-01   -5,027927756e-01    0,000000000e+00    0,000000000e+00    0,000000000e+00    0,000000000e+00
     1052000000   -6,338398904e-02   -1,213599183e-02    3,322019428e-02   -5,863285065e-01    0,000000000e+00    0,000000000e+00    0,000000000e+00    0,000000000e+00
     1066000000   -6,864546239e-02   -2,779702470e-02   -2,596132755e-01   -5,032144785e-01    0,000000000e+00    0,000000000e+00    0,000000000e+00    0,000000000e+00
     1080000000   -7,913173735e-02   -3,142110258e-02   -4,807472825e-01   -2,693324685e-01    0,000000000e+00    0,000000000e+00    0,000000000e+00    0,000000000e+00
     1094000000   -8,180694282e-02   -1,998905838e-02   -5,322192311e-01    4,327826202e-02    0,000000000e+00    0,000000000e+00    0,000000000e+00    0,000000000e+00
     1108000000   -6,114524230e-02   -8,706928231e-03   -3,994585872e-01    3,266132474e-01    0,000000000e+00    0,000000000e+00    0,000000000e+00    0,000000000e+00
     1122000000   -2,974293567e-02   -3,288088366e-02   -1,361311227e-01    4,825488925e-01    0,000000000e+00    0,000000000e+00    0,000000000e+00    0,000000000e+00
     1136000000   -2,631829306e-02   -8,799200505e-02    1,634053141e-01    4,758216441e-01    0,000000000e+00    0,000000000e+00    0,000000000e+00    0,000000000e+00
     1150000000   -6,331374496e-02   -1,353265494e-01    4,198144674e-01    3,137798905e-01    0,000000000e+00    0,000000000e+00    0,000000000e+00    0,000000000e+00
     1164000000   -1,387445033e-01   -1,555707306e-01    5,647541881e-01    2,842640691e-02    0,000000000e+00    0,000000000e+00    0,000000000e+00    0,000000000e+00
     1178000000   -2,130432874e-01   -1,149849817e-01    5,324043036e-01   -3,138245642e-01    0,000000000e+00    0,000000000e+00    0,000000000e+00    0,000000000e+00
     1192000000   -2,443396449e-01   -4,293905199e-02    2,974270880e-01   -5,987563729e-01    0,000000000e+00    0,000000000e+00    0,000000000e+00    0,000000000e+00
     1206000000   -2,333560437e-01    3,551706299e-02   -6,602695584e-02   -7,019135356e-01    0,000000000e+00    0,000000000e+00    0,000000000e+00    0,000000000e+00
     1220000000   -1,887187958e-01    8,428672701e-02   -4,223331511e-01   -5,830931067e-01    0,000000000e+00    0,000000000e+00    0,000000000e+00    0,000000000e+00
     1234000000   -1,314834356e-01    1,027168930e-01   -6,423414946e-01   -2,861929536e-01    0,000000000e+00    0,000000000e+00    0,000000000e+00    0,000000000e+00
     1248000000   -6,975018978e-02    9,971057624e-02   -6,785135865e-01    6,480719149e-02    0,000000000e+00    0,000000000e+00    0,000000000e+00    0,000000000e+00
     1262000000   -1,125798747e-02    5,875682086e-02   -5,155662894e-01    3,662189543e-01    0,000000000e+00    0,000000000e+00    0,000000000e+00    0,000000000e+00
     1276000000    2,142141387e-02   -4,442505538e-03   -2,456347942e-01    5,483621955e-01    0,000000000e+00    0,000000000e+00    0,000000000e+00    0,000000000e+00
     1290000000    2,287704498e-02   -9,073515236e-02    7,149563730e-02    5,716767907e-01    0,000000000e+00    0,000000000e+00    0,000000000e+00    0,000000000e+00
     1304000000   -3,296370804e-02   -1,705913395e-01    3,615410030e-01    4,661996365e-01    0,000000000e+00    0,000000000e+00    0,000000000e+00    0,000000000e+00
     1318000000   -1,352301687e-01   -2,162569016e-01    5,830913782e-01    2,146183550e-01    0,000000000e+00    0,000000000e+00    0,000000000e+00    0,000000000e+00
     1332000000   -2,496137023e-01   -1,876272410e-01    6,556655765e-01   -1,333314627e-01    0,000000000e+00    0,000000000e+00    0,000000000e+00    0,000000000e+00
     1346000000   -3,354774117e-01   -8,923674375e-02    5,065844059e-01   -4,648994207e-01    0,000000000e+00    0,000000000e+00    0,000000000e+00    0,000000000e+00
     1360000000   -3,345333934e-01    1,949119754e-02    1,885630190e-01   -6,472163796e-01    0,000000000e+00    0,000000000e+00    0,000000000e+00    0,000000000e+00
     1374000000   -2,836088538e-01    1,068924069e-01   -1,597478688e-01   -5,993215442e-01    0,000000000e+00    0,000000000e+00    0,000000000e+00    0,000000000e+00
     1388000000   -2,135276794e-01    1,367235482e-01   -4,037747085e-01   -3,788818717e-01    0,000000000e+00    0,000000000e+00    0,000000000e+00    0,000000000e+00
     1402000000   -1,532288045e-01    1,376757026e-01   -4,834972918e-01   -5,955864489e-02    0,000000000e+00    0,000000000e+00    0,000000000e+00    0,000000000e+00
     1416000000   -9,720848501e-02    1,212159917e-01   -3,827633560e-01    2,527716458e-01    0,000000000e+00    0,000000000e+00    0,000000000e+00    0,000000000e+00
     1430000000   -4,461012781e-02    7,117450237e-02   -1,368054599e-01    4,438446760e-01    0,000000000e+00    0,000000000e+00    0,000000000e+00    0,000000000e+00
     1444000000   -3,428528085e-02   -2,157932147e-03    1,680560112e-01    5,213472843e-01    0,000000000e+00    0,000000000e+00    0,000000000e+00    0,000000000e+00
     1458000000   -6,290058792e-02   -6,957766414e-02    4,782639444e-01    4,817437232e-01    0,000000000e+00    0,000000000e+00    0,000000000e+00    0,000000000e+00
     1472000000   -1,404572576e-01   -1,231185272e-01    7,604687214e-01    2,490570545e-01    0,000000000e+00    0,000000000e+00    0,000000000e+00    0,000000000e+00
     1486000000   -2,297334820e-01   -1,094301715e-01    9,035211802e-01   -6,536605954e-02    0,000000000e+00    0,000000000e+00    0,000000000e+00    0,000000000e+00
     1500000000   -2,851751149e-01   -4,717684165e-02    8,161849380e-01   -4,571675658e-01    0,000000000e+00    0,000000000e+00    0,000000000e+00    0,000000000e+00
