! NanoVNA-App
! Date: 2025-09-25 15:05:29
! Start: 100MHz Stop: 1,5GHz Points: 101
! S-Parameter data: F S11 S21 S12 S22
# Hz S RI R 50
!     Frequency           S11_Real           S11_Imag           S21_Real           S21_Imag           S12_Real           S12_Imag           S22_Real           S22_Imag
      100000000    3,123421036e-02    2,862261608e-02    4,346786141e-01   -6,685572863e-01    0,000000000e+00    0,000000000e+00    0,000000000e+00    0,000000000e+00
      114000000    5,769858509e-02    5,493769422e-03    7,510399912e-03   -7,907123566e-01    0,000000000e+00    0,000000000e+00    0,000000000e+00    0,000000000e+00
      128000000    6,742156297e-02   -3,780284896e-02   -4,102319479e-01   -6,709965467e-01    0,000000000e+00    0,000000000e+00    0,000000000e+00    0,000000000e+00
      142000000    4,482772201e-02   -8,416633308e-02   -7,030090094e-01   -3,532027900e-01    0,000000000e+00    0,000000000e+00    0,000000000e+00    0,000000000e+00
      156000000   -6,167428102e-03   -1,059441939e-01   -7,852033973e-01    7,308413088e-02    0,000000000e+00    0,000000000e+00    0,000000000e+00    0,000000000e+00
      170000000   -5,741362646e-02   -9,060391039e-02   -6,274740100e-01    4,870132506e-01    0,000000000e+00    0,000000000e+00    0,000000000e+00    0,000000000e+00
      184000000   -8,348616958e-02   -4,953991622e-02   -2,645999491e-01    7,507196665e-01    0,000000000e+00    0,000000000e+00    0,000000000e+00    0,000000000e+00
      198000000   -7,946972549e-02   -1,056631468e-02    1,835829318e-01    7,731038332e-01    0,000000000e+00    0,000000000e+00    0,000000000e+00    0,000000000e+00
      212000000   -6,210732460e-02    1,310996711e-02    5,692394972e-01    5,490152240e-01    0,000000000e+00    0,000000000e+00    0,000000000e+00    0,000000000e+00
      226000000   -4,317546263e-02    2,758600749e-02    7,706228495e-01    1,544093043e-01    0,000000000e+00    0,000000000e+00    0,000000000e+00    0,000000000e+00
      240000000   -1,807677373e-02    3,838346899e-02    7,265869379e-01   -2,818870544e-01    0,000000000e+00    0,000000000e+00    0,000000000e+00    0,000000000e+00
      254000000    1,732908562e-02    3,506103531e-02    4,574509263e-01   -6,200278401e-01    0,000000000e+00    0,000000000e+00    0,000000000e+00    0,000000000e+00
      268000000    4,891499504e-02    5,503669381e-03    5,838729441e-02   -7,601215243e-01    0,000000000e+00    0,000000000e+00    0,000000000e+00    0,000000000e+00
      282000000    5,353714526e-02   -4,197800159e-02   -3,492001891e-01   -6,716773510e-01    0,000000000e+00    0,000000000e+00    0,000000000e+00    0,000000000e+00
      296000000    2,421864495e-02   -7,956532389e-02   -6,523163319e-01   -3,854224086e-01    0,000000000e+00    0,000000000e+00    0,000000000e+00    0,000000000e+00
      310000000   -1,785049215e-02   -8,292121440e-02   -7,629434466e-01    2,154087648e-02    0,000000000e+00    0,000000000e+00    0,000000000e+00    0,000000000e+00
      324000000   -4,136181250e-02   -5,890088901e-02   -6,313849688e-01    4,308153391e-01    0,000000000e+00    0,000000000e+00    0,000000000e+00    0,000000000e+00
      338000000   -3,414071724e-02   -3,685645759e-02   -2,946149111e-01    6,999124885e-01    0,000000000e+00    0,000000000e+00    0,000000000e+00    0,000000000e+00
      352000000   -1,745907962e-02   -4,095129669e-02    1,256829500e-01    7,410901189e-01    0,000000000e+00    0,000000000e+00    0,000000000e+00    0,000000000e+00
      366000000   -1,930266991e-02   -6,201122329e-02    4,983509779e-01    5,551841259e-01    0,000000000e+00    0,000000000e+00    0,000000000e+00    0,000000000e+00
      380000000   -4,424741492e-02   -7,257972658e-02    7,136025429e-01    1,995348036e-01    0,000000000e+00    0,000000000e+00    0,000000000e+00    0,000000000e+00
      394000000   -7,040642202e-02   -5,814779177e-02    7,041984200e-01   -2,165640891e-01    0,000000000e+00    0,000000000e+00    0,000000000e+00    0,000000000e+00
      408000000   -7,692008466e-02   -3,062560223e-02    4,705300033e-01   -5,587237477e-01    0,000000000e+00    0,000000000e+00    0,000000000e+00    0,000000000e+00
      422000000   -6,549750268e-02   -1,152480487e-02    9,208004922e-02   -7,182292342e-01    0,000000000e+00    0,000000000e+00    0,000000000e+00    0,000000000e+00
      436000000   -5,290881172e-02   -4,408483393e-03   -3,023507893e-01   -6,463659406e-01    0,000000000e+00    0,000000000e+00    0,000000000e+00    0,000000000e+00
      450000000   -4,465658218e-02    1,219422324e-03   -5,932629108e-01   -3,786577582e-01    0,000000000e+00    0,000000000e+00    0,000000000e+00    0,000000000e+00
      464000000   -2,978453413e-02    1,165961754e-02   -6,913151741e-01    4,840732727e-04    0,000000000e+00    0,000000000e+00    0,000000000e+00    0,000000000e+00
      478000000   -6,335878861e-04    1,137372479e-02   -5,726002455e-01    3,627405465e-01    0,000000000e+00    0,000000000e+00    0,000000000e+00    0,000000000e+00
      492000000    2,801552415e-02   -1,240296941e-02   -2,888999581e-01    6,019085050e-01    0,000000000e+00    0,000000000e+00    0,000000000e+00    0,000000000e+00
      506000000    3,666444868e-02   -5,630533025e-02    7,008490711e-02    6,581751108e-01    0,000000000e+00    0,000000000e+00    0,000000000e+00    0,000000000e+00
      520000000    1,213626936e-02   -9,827768803e-02    3,985554278e-01    5,236675143e-01    0,000000000e+00    0,000000000e+00    0,000000000e+00    0,000000000e+00
      534000000   -3,446985036e-02   -1,161141545e-01    6,238262653e-01    2,362646759e-01    0,000000000e+00    0,000000000e+00    0,000000000e+00    0,000000000e+00
      548000000   -7,704179734e-02   -9,936266392e-02    6,578666568e-01   -1,334882826e-01    0,000000000e+00    0,000000000e+00    0,000000000e+00    0,000000000e+00
      562000000   -9,310832620e-02   -6,578880548e-02    4,813869298e-01   -4,663589597e-01    0,000000000e+00    0,000000000e+00    0,000000000e+00    0,000000000e+00
      576000000   -8,593741804e-02   -4,419210926e-02    1,505496055e-01   -6,475439668e-01    0,000000000e+00    0,000000000e+00    0,000000000e+00    0,000000000e+00
      590000000   -8,051627874e-02   -4,159051925e-02   -2,199089527e-01   -6,296362281e-01    0,000000000e+00    0,000000000e+00    0,000000000e+00    0,000000000e+00
      604000000   -8,850790560e-02   -3,727251664e-02   -5,196049809e-01   -4,058260918e-01    0,000000000e+00    0,000000000e+00    0,000000000e+00    0,000000000e+00
      618000000   -9,660588205e-02   -1,552655548e-02   -6,529639363e-01   -5,870850757e-02    0,000000000e+00    0,000000000e+00    0,000000000e+00    0,000000000e+00
      632000000   -8,100239187e-02    1,444774214e-02   -5,756947994e-01    3,023318052e-01    0,000000000e+00    0,000000000e+00    0,000000000e+00    0,000000000e+00
      646000000   -4,254113883e-02    2,628754266e-02   -3,188632131e-01    5,564288497e-01    0,000000000e+00    0,000000000e+00    0,000000000e+00    0,000000000e+00
      660000000   -7,732448634e-03    6,425966043e-03    2,096806839e-02    6,301940680e-01    0,000000000e+00    0,000000000e+00    0,000000000e+00    0,000000000e+00
      674000000    7,412456325e-04   -2,961447835e-02    3,429814279e-01    5,187518597e-01    0,000000000e+00    0,000000000e+00    0,000000000e+00    0,000000000e+00
      688000000   -1,519027911e-02   -5,507365987e-02    5,586313009e-01    2,583592534e-01    0,000000000e+00    0,000000000e+00    0,000000000e+00    0,000000000e+00
      702000000   -3,371715918e-02   -6,002654508e-02    6,044664383e-01   -8,068532497e-02    0,000000000e+00    0,000000000e+00    0,000000000e+00    0,000000000e+00
      716000000   -3,778733313e-02   -5,579662696e-02    4,595925808e-01   -3,899583519e-01    0,000000000e+00    0,000000000e+00    0,000000000e+00    0,000000000e+00
      730000000   -3,161660954e-02   -6,563526392e-02    1,738065183e-01   -5,665284395e-01    0,000000000e+00    0,000000000e+00    0,000000000e+00    0,000000000e+00
      744000000   -4,108654708e-02   -8,823496848e-02   -1,535229832e-01   -5,630525351e-01    0,000000000e+00    0,000000000e+00    0,000000000e+00    0,000000000e+00
      758000000   -7,221009582e-02   -1,056923643e-01   -4,282593131e-01   -3,939116597e-01    0,000000000e+00    0,000000000e+00    0,000000000e+00    0,000000000e+00
      772000000   -1,138585433e-01   -9,364392608e-02   -5,743520260e-01   -1,058241650e-01    0,000000000e+00    0,000000000e+00    0,000000000e+00    0,000000000e+00
      786000000   -1,390438080e-01   -5,577284843e-02   -5,447825789e-01    2,207937688e-01    0,000000000e+00    0,000000000e+00    0,000000000e+00    0,000000000e+00
      800000000   -1,323276609e-01   -1,436948683e-02   -3,421072066e-01    4,798333347e-01    0,000000000e+00    0,000000000e+00    0,000000000e+00    0,000000000e+00
      814000000   -1,079813540e-01    8,103067987e-03   -3,385125846e-02    5,857840180e-01    0,000000000e+00    0,000000000e+00    0,000000000e+00    0,000000000e+00
      828000000   -8,492925018e-02    1,337571442e-02    2,786456347e-01    5,149295330e-01    0,000000000e+00    0,000000000e+00    0,000000000e+00    0,000000000e+00
      842000000   -7,011606544e-02    1,504767220e-02    5,025248528e-01    2,897072136e-01    0,000000000e+00    0,000000000e+00    0,000000000e+00    0,000000000e+00
      856000000   -5,231620371e-02    1,983196661e-02    5,708364248e-01   -1,812379435e-02    0,000000000e+00    0,000000000e+00    0,000000000e+00    0,000000000e+00
      870000000   -2,296987548e-02    1,448935084e-02    4,637181759e-01   -3,060975075e-01    0,000000000e+00    0,000000000e+00    0,000000000e+00    0,000000000e+00
      884000000    6,278258748e-03   -1,437081676e-02    2,298460007e-01   -4,877904952e-01    0,000000000e+00    0,000000000e+00    0,000000000e+00    0,000000000e+00
      898000000    1,206437219e-02   -6,329645962e-02   -5,307688564e-02   -5,256568193e-01    0,000000000e+00    0,000000000e+00    0,000000000e+00    0,000000000e+00
      912000000   -2,410954610e-02   -1,077420637e-01   -3,544658720e-01   -4,069576263e-01    0,000000000e+00    0,000000000e+00    0,000000000e+00    0,000000000e+00
      926000000   -7,258431613e-02   -1,240297854e-01   -5,287448764e-01   -1,589643359e-01    0,000000000e+00    0,000000000e+00    0,000000000e+00    0,000000000e+00
      940000000   -1,253841072e-01   -1,035808921e-01   -5,532256961e-01    1,569428146e-01    0,000000000e+00    0,000000000e+00    0,000000000e+00    0,000000000e+00
      954000000   -1,412744224e-01   -5,828115344e-02   -3,901821673e-01    4,470027983e-01    0,000000000e+00    0,000000000e+00    0,000000000e+00    0,000000000e+00
      968000000   -1,313167512e-01   -3,052990511e-02   -8,942415565e-02    6,014687419e-01    0,000000000e+00    0,000000000e+00    0,000000000e+00    0,000000000e+00
      982000000   -1,136763543e-01   -1,656273752e-02    2,472084314e-01    5,715156198e-01    0,000000000e+00    0,000000000e+00    0,000000000e+00    0,000000000e+00
      996000000   -1,034964770e-01   -1,267499663e-02    5,138326883e-01    3,658533096e-01    0,000000000e+00    0,000000000e+00    0,000000000e+00    0,000000000e+00
     1010000000   -1,013165638e-01   -4,964893684e-03    6,307799816e-01    5,080867186e-02    0,000000000e+00    0,000000000e+00    0,000000000e+00    0,000000000e+00
     1024000000   -9,242755920e-02    2,591635101e-03    5,624165535e-01   -2,713164389e-01    0,000000000e+00    0,000000000e+00    0,000000000e+00    0,000000000e+00
     1038000000   -7,700978220e-02   -2,477479167e-03    3,393816650e-01   -5,034166574e-01    0,000000000e+00    0,000000000e+00    0,000000000e+00    0,000000000e+00
     1052000000   -6,176849455e-02   -1,756410487e-02    3,438757360e-02   -5,852234364e-01    0,000000000e+00    0,000000000e+00    0,000000000e+00    0,000000000e+00
     1066000000   -6,612158567e-02   -3,136551008e-02   -2,638324201e-01   -4,989401400e-01    0,000000000e+00    0,000000000e+00    0,000000000e+00    0,000000000e+00
     1080000000   -8,066112548e-02   -2,752476372e-02   -4,810197353e-01   -2,700223923e-01    0,000000000e+00    0,000000000e+00    0,000000000e+00    0,000000000e+00
     1094000000   -8,113758266e-02   -2,042564377e-02   -5,307872295e-01    4,143249616e-02    0,000000000e+00    0,000000000e+00    0,000000000e+00    0,000000000e+00
     1108000000   -5,671933293e-02   -1,364809554e-02   -3,989608884e-01    3,271242082e-01    0,000000000e+00    0,000000000e+00    0,000000000e+00    0,000000000e+00
     1122000000   -2,686800063e-02   -3,566521406e-02   -1,375261545e-01    4,821834862e-01    0,000000000e+00    0,000000000e+00    0,000000000e+00    0,000000000e+00
     1136000000   -2,552383207e-02   -8,213175088e-02    1,616333723e-01    4,744934440e-01    0,000000000e+00    0,000000000e+00    0,000000000e+00    0,000000000e+00
     1150000000   -6,675111502e-02   -1,329060048e-01    4,203456938e-01    3,109162748e-01    0,000000000e+00    0,000000000e+00    0,000000000e+00    0,000000000e+00
     1164000000   -1,335900277e-01   -1,558424830e-01    5,627601147e-01    2,609917149e-02    0,000000000e+00    0,000000000e+00    0,000000000e+00    0,000000000e+00
     1178000000   -2,119024843e-01   -1,207973137e-01    5,304746032e-01   -3,132842481e-01    0,000000000e+00    0,000000000e+00    0,000000000e+00    0,000000000e+00
     1192000000   -2,488321215e-01   -4,057883471e-02    2,974804044e-01   -5,958902240e-01    0,000000000e+00    0,000000000e+00    0,000000000e+00    0,000000000e+00
     1206000000   -2,300119549e-01    3,270027414e-02   -6,786127388e-02   -7,002647519e-01    0,000000000e+00    0,000000000e+00    0,000000000e+00    0,000000000e+00
     1220000000   -1,827340573e-01    8,549218625e-02   -4,196777642e-01   -5,799434185e-01    0,000000000e+00    0,000000000e+00    0,000000000e+00    0,000000000e+00
     1234000000   -1,255941391e-01    1,054876149e-01   -6,452212334e-01   -2,929745317e-01    0,000000000e+00    0,000000000e+00    0,000000000e+00    0,000000000e+00
     1248000000   -6,408450007e-02    9,370644391e-02   -6,744828224e-01    6,371054053e-02    0,000000000e+00    0,000000000e+00    0,000000000e+00    0,000000000e+00
     1262000000   -1,525176223e-02    6,335669011e-02   -5,209052563e-01    3,687273264e-01    0,000000000e+00    0,000000000e+00    0,000000000e+00    0,000000000e+00
     1276000000    2,239698917e-02   -4,279233050e-03   -2,459602803e-01    5,434933305e-01    0,000000000e+00    0,000000000e+00    0,000000000e+00    0,000000000e+00
     1290000000    2,280879021e-02   -9,024619311e-02    6,847692281e-02    5,738246441e-01    0,000000000e+00    0,000000000e+00    0,000000000e+00    0,000000000e+00
     1304000000   -3,552485257e-02   -1,692369282e-01    3,639961481e-01    4,617064297e-01    0,000000000e+00    0,000000000e+00    0,000000000e+00    0,000000000e+00
     1318000000   -1,376404017e-01   -2,171786427e-01    5,877341032e-01    2,227216214e-01    0,000000000e+00    0,000000000e+00    0,000000000e+00    0,000000000e+00
     1332000000   -2,555159032e-01   -1,863122731e-01    6,476692557e-01   -1,303718984e-01    0,000000000e+00    0,000000000e+00    0,000000000e+00    0,000000000e+00
     1346000000   -3,335456848e-01   -9,430731088e-02    5,135245919e-01   -4,738067091e-01    0,000000000e+00    0,000000000e+00    0,000000000e+00    0,000000000e+00
     1360000000   -3,386320770e-01    2,319629677e-02    1,883293688e-01   -6,476411819e-01    0,000000000e+00    0,000000000e+00    0,000000000e+00    0,000000000e+00
     1374000000   -2,812209129e-01    1,003431380e-01   -1,546201408e-01   -6,014461517e-01    0,000000000e+00    0,000000000e+00    0,000000000e+00    0,000000000e+00
     1388000000   -2,144966424e-01    1,335558444e-01   -4,085108936e-01   -3,827376068e-01    0,000000000e+00    0,000000000e+00    0,000000000e+00    0,000000000e+00
     1402000000   -1,486865431e-01    1,362120807e-01   -4,870495498e-01   -5,589710176e-02    0,000000000e+00    0,000000000e+00    0,000000000e+00    0,000000000e+00
     1416000000   -9,027359635e-02    1,161888018e-01   -3,760379553e-01    2,392558157e-01    0,000000000e+00    0,000000000e+00    0,000000000e+00    0,000000000e+00
     1430000000   -5,139065534e-02    7,381573319e-02   -1,388290972e-01    4,455458224e-01    0,000000000e+00    0,000000000e+00    0,000000000e+00    0,000000000e+00
     1444000000   -3,507990390e-02    2,901349450e-03    1,608380079e-01    5,454357266e-01    0,000000000e+00    0,000000000e+00    0,000000000e+00    0,000000000e+00
     1458000000   -6,867621839e-02   -7,020440698e-02    4,777296782e-01    4,796800315e-01    0,000000000e+00    0,000000000e+00    0,000000000e+00    0,000000000e+00
     1472000000   -1,389080882e-01   -1,279238760e-01    7,439608574e-01    2,576783597e-01    0,000000000e+00    0,000000000e+00    0,000000000e+00    0,000000000e+00
     1486000000   -2,272830456e-01   -1,121503040e-01    8,941453695e-01   -6,614314765e-02    0,000000000e+00    0,000000000e+00    0,000000000e+00    0,000000000e+00
     1500000000   -2,850199342e-01   -5,468417332e-02    7,995551825e-01   -4,728986919e-01    0,000000000e+00    0,000000000e+00    0,000000000e+00    0,000000000e+00
