! NanoVNA-App
! Date: 2025-09-25 15:04:36
! Start: 100MHz Stop: 1,5GHz Points: 101
! S-Parameter data: F S11 S21 S12 S22
# Hz S RI R 50
!     Frequency           S11_Real           S11_Imag           S21_Real           S21_Imag           S12_Real           S12_Imag           S22_Real           S22_Imag
      100000000    3,110585548e-02    2,862421051e-02    4,348396957e-01   -6,687605381e-01    0,000000000e+00    0,000000000e+00    0,000000000e+00    0,000000000e+00
      114000000    5,751927197e-02    5,505878478e-03    7,838702761e-03   -7,910530567e-01    0,000000000e+00    0,000000000e+00    0,000000000e+00    0,000000000e+00
      128000000    6,717530638e-02   -3,776882961e-02   -4,104786217e-01   -6,711956263e-01    0,000000000e+00    0,000000000e+00    0,000000000e+00    0,000000000e+00
      142000000    4,468121380e-02   -8,417866379e-02   -7,031348944e-01   -3,532809019e-01    0,000000000e+00    0,000000000e+00    0,000000000e+00    0,000000000e+00
      156000000   -5,497757345e-03   -1,068718359e-01   -7,873357534e-01    7,428315282e-02    0,000000000e+00    0,000000000e+00    0,000000000e+00    0,000000000e+00
      170000000   -5,758873746e-02   -9,060405195e-02   -6,276534200e-01    4,872386456e-01    0,000000000e+00    0,000000000e+00    0,000000000e+00    0,000000000e+00
      184000000   -8,360408247e-02   -4,942230135e-02   -2,647046745e-01    7,511191368e-01    0,000000000e+00    0,000000000e+00    0,000000000e+00    0,000000000e+00
      198000000   -7,956523448e-02   -1,044675149e-02    1,836511940e-01    7,735486031e-01    0,000000000e+00    0,000000000e+00    0,000000000e+00    0,000000000e+00
      212000000   -6,222181767e-02    1,313669980e-02    5,691212416e-01    5,488758683e-01    0,000000000e+00    0,000000000e+00    0,000000000e+00    0,000000000e+00
      226000000   -4,327520728e-02    2,761184238e-02    7,708646059e-01    1,543665677e-01    0,000000000e+00    0,000000000e+00    0,000000000e+00    0,000000000e+00
      240000000   -1,815293916e-02    3,843060881e-02    7,268402576e-01   -2,820321918e-01    0,000000000e+00    0,000000000e+00    0,000000000e+00    0,000000000e+00
      254000000    1,714375988e-02    3,508438542e-02    4,578193128e-01   -6,202019453e-01    0,000000000e+00    0,000000000e+00    0,000000000e+00    0,000000000e+00
      268000000    4,869947955e-02    5,523650907e-03    5,833920091e-02   -7,608836293e-01    0,000000000e+00    0,000000000e+00    0,000000000e+00    0,000000000e+00
      282000000    5,332725868e-02   -4,172837362e-02   -3,491977155e-01   -6,713995337e-01    0,000000000e+00    0,000000000e+00    0,000000000e+00    0,000000000e+00
      296000000    2,385604009e-02   -7,941760123e-02   -6,517940760e-01   -3,853207529e-01    0,000000000e+00    0,000000000e+00    0,000000000e+00    0,000000000e+00
      310000000   -1,806436852e-02   -8,310307562e-02   -7,640324831e-01    2,035035379e-02    0,000000000e+00    0,000000000e+00    0,000000000e+00    0,000000000e+00
      324000000   -4,151358455e-02   -5,869355798e-02   -6,317811012e-01    4,314896464e-01    0,000000000e+00    0,000000000e+00    0,000000000e+00    0,000000000e+00
      338000000   -3,400423005e-02   -3,686462343e-02   -2,967186272e-01    6,990512609e-01    0,000000000e+00    0,000000000e+00    0,000000000e+00    0,000000000e+00
      352000000   -1,737844758e-02   -4,061436653e-02    1,260086298e-01    7,416675687e-01    0,000000000e+00    0,000000000e+00    0,000000000e+00    0,000000000e+00
      366000000   -1,905823126e-02   -6,221186370e-02    4,982548654e-01    5,532754660e-01    0,000000000e+00    0,000000000e+00    0,000000000e+00    0,000000000e+00
      380000000   -4,411583021e-02   -7,266303152e-02    7,138306499e-01    1,994888186e-01    0,000000000e+00    0,000000000e+00    0,000000000e+00    0,000000000e+00
      394000000   -7,089348882e-02   -5,828848854e-02    7,045524120e-01   -2,163651586e-01    0,000000000e+00    0,000000000e+00    0,000000000e+00    0,000000000e+00
      408000000   -7,698279619e-02   -3,070988879e-02    4,711172283e-01   -5,597699881e-01    0,000000000e+00    0,000000000e+00    0,000000000e+00    0,000000000e+00
      422000000   -6,555068493e-02   -1,163547952e-02    9,296953678e-02   -7,174422741e-01    0,000000000e+00    0,000000000e+00    0,000000000e+00    0,000000000e+00
      436000000   -5,342457443e-02   -4,601505585e-03   -3,022333384e-01   -6,467164755e-01    0,000000000e+00    0,000000000e+00    0,000000000e+00    0,000000000e+00
      450000000   -4,494944215e-02    1,808484085e-03   -5,935297012e-01   -3,777500391e-01    0,000000000e+00    0,000000000e+00    0,000000000e+00    0,000000000e+00
      464000000   -2,915280499e-02    1,199707948e-02   -6,911421418e-01    8,464336279e-04    0,000000000e+00    0,000000000e+00    0,000000000e+00    0,000000000e+00
      478000000   -6,833188818e-04    1,155741047e-02   -5,726037025e-01    3,633205593e-01    0,000000000e+00    0,000000000e+00    0,000000000e+00    0,000000000e+00
      492000000    2,794439532e-02   -1,238885708e-02   -2,888320684e-01    6,018472910e-01    0,000000000e+00    0,000000000e+00    0,000000000e+00    0,000000000e+00
      506000000    3,608305752e-02   -5,637418106e-02    6,907960773e-02    6,583150029e-01    0,000000000e+00    0,000000000e+00    0,000000000e+00    0,000000000e+00
      520000000    1,209303364e-02   -9,904005378e-02    4,033615589e-01    5,275223255e-01    0,000000000e+00    0,000000000e+00    0,000000000e+00    0,000000000e+00
      534000000   -3,451807052e-02   -1,155935898e-01    6,235601306e-01    2,369033098e-01    0,000000000e+00    0,000000000e+00    0,000000000e+00    0,000000000e+00
      548000000   -7,761500776e-02   -9,875780344e-02    6,576209068e-01   -1,335918456e-01    0,000000000e+00    0,000000000e+00    0,000000000e+00    0,000000000e+00
      562000000   -9,310273081e-02   -6,609936059e-02    4,816603363e-01   -4,671126008e-01    0,000000000e+00    0,000000000e+00    0,000000000e+00    0,000000000e+00
      576000000   -8,561122417e-02   -4,506908357e-02    1,513869315e-01   -6,478664875e-01    0,000000000e+00    0,000000000e+00    0,000000000e+00    0,000000000e+00
      590000000   -8,082401752e-02   -4,215316474e-02   -2,206908762e-01   -6,258949041e-01    0,000000000e+00    0,000000000e+00    0,000000000e+00    0,000000000e+00
      604000000   -8,919209987e-02   -3,749180958e-02   -5,203724504e-01   -4,059181809e-01    0,000000000e+00    0,000000000e+00    0,000000000e+00    0,000000000e+00
      618000000   -9,693308920e-02   -1,558228023e-02   -6,537099481e-01   -5,851082131e-02    0,000000000e+00    0,000000000e+00    0,000000000e+00    0,000000000e+00
      632000000   -8,129227161e-02    1,584472507e-02   -5,753161311e-01    3,027721345e-01    0,000000000e+00    0,000000000e+00    0,000000000e+00    0,000000000e+00
      646000000   -4,320400208e-02    2,692498453e-02   -3,191919625e-01    5,564824343e-01    0,000000000e+00    0,000000000e+00    0,000000000e+00    0,000000000e+00
      660000000   -7,811138872e-03    6,011945195e-03    2,144666947e-02    6,287801862e-01    0,000000000e+00    0,000000000e+00    0,000000000e+00    0,000000000e+00
      674000000    1,052516513e-03   -3,061310574e-02    3,421464860e-01    5,201952457e-01    0,000000000e+00    0,000000000e+00    0,000000000e+00    0,000000000e+00
      688000000   -1,408497524e-02   -5,541975796e-02    5,590120554e-01    2,580337822e-01    0,000000000e+00    0,000000000e+00    0,000000000e+00    0,000000000e+00
      702000000   -3,375389427e-02   -6,055815890e-02    6,064127684e-01   -7,912763953e-02    0,000000000e+00    0,000000000e+00    0,000000000e+00    0,000000000e+00
      716000000   -3,774221987e-02   -5,575513840e-02    4,591294229e-01   -3,902909458e-01    0,000000000e+00    0,000000000e+00    0,000000000e+00    0,000000000e+00
      730000000   -3,195219114e-02   -6,500921398e-02    1,736786962e-01   -5,668579340e-01    0,000000000e+00    0,000000000e+00    0,000000000e+00    0,000000000e+00
      744000000   -4,041021690e-02   -8,860194683e-02   -1,538639218e-01   -5,642219186e-01    0,000000000e+00    0,000000000e+00    0,000000000e+00    0,000000000e+00
      758000000   -7,339587808e-02   -1,045628339e-01   -4,272176921e-01   -3,940181732e-01    0,000000000e+00    0,000000000e+00    0,000000000e+00    0,000000000e+00
      772000000   -1,140272766e-01   -9,240133315e-02   -5,742230415e-01   -1,050155237e-01    0,000000000e+00    0,000000000e+00    0,000000000e+00    0,000000000e+00
      786000000   -1,386363506e-01   -5,516619980e-02   -5,438649654e-01    2,215399146e-01    0,000000000e+00    0,000000000e+00    0,000000000e+00    0,000000000e+00
      800000000   -1,322394609e-01   -1,474146545e-02   -3,407504559e-01    4,797967672e-01    0,000000000e+00    0,000000000e+00    0,000000000e+00    0,000000000e+00
      814000000   -1,073627397e-01    8,217026480e-03   -3,396268934e-02    5,862896442e-01    0,000000000e+00    0,000000000e+00    0,000000000e+00    0,000000000e+00
      828000000   -8,472839743e-02    1,235522889e-02    2,780592740e-01    5,141241550e-01    0,000000000e+00    0,000000000e+00    0,000000000e+00    0,000000000e+00
      842000000   -7,098950446e-02    1,428674255e-02    5,026282072e-01    2,894961536e-01    0,000000000e+00    0,000000000e+00    0,000000000e+00    0,000000000e+00
      856000000   -5,326536298e-02    1,838958636e-02    5,704503059e-01   -1,765091531e-02    0,000000000e+00    0,000000000e+00    0,000000000e+00    0,000000000e+00
      870000000   -2,439194918e-02    1,454012189e-02    4,628280699e-01   -3,075174093e-01    0,000000000e+00    0,000000000e+00    0,000000000e+00    0,000000000e+00
      884000000    4,960608669e-03   -1,413728856e-02    2,294609249e-01   -4,899869859e-01    0,000000000e+00    0,000000000e+00    0,000000000e+00    0,000000000e+00
      898000000    1,134154480e-02   -6,305278093e-02   -5,225416645e-02   -5,258962512e-01    0,000000000e+00    0,000000000e+00    0,000000000e+00    0,000000000e+00
      912000000   -2,264809795e-02   -1,078888029e-01   -3,572942317e-01   -3,941786289e-01    0,000000000e+00    0,000000000e+00    0,000000000e+00    0,000000000e+00
      926000000   -7,481217384e-02   -1,218194813e-01   -5,313354135e-01   -1,570415795e-01    0,000000000e+00    0,000000000e+00    0,000000000e+00    0,000000000e+00
      940000000   -1,199727282e-01   -1,023199186e-01   -5,511017442e-01    1,560641825e-01    0,000000000e+00    0,000000000e+00    0,000000000e+00    0,000000000e+00
      954000000   -1,431233138e-01   -6,235047430e-02   -3,907419145e-01    4,473946095e-01    0,000000000e+00    0,000000000e+00    0,000000000e+00    0,000000000e+00
      968000000   -1,320147961e-01   -3,123802319e-02   -9,150774032e-02    6,024177074e-01    0,000000000e+00    0,000000000e+00    0,000000000e+00    0,000000000e+00
      982000000   -1,132735834e-01   -1,904888451e-02    2,465649545e-01    5,720863938e-01    0,000000000e+00    0,000000000e+00    0,000000000e+00    0,000000000e+00
      996000000   -1,108211726e-01   -1,403384656e-02    5,134939551e-01    3,647403419e-01    0,000000000e+00    0,000000000e+00    0,000000000e+00    0,000000000e+00
     1010000000   -1,049951464e-01   -9,601769038e-03    6,317504048e-01    5,077807605e-02    0,000000000e+00    0,000000000e+00    0,000000000e+00    0,000000000e+00
     1024000000   -9,507185966e-02    4,163323436e-03    5,595530272e-01   -2,743115425e-01    0,000000000e+00    0,000000000e+00    0,000000000e+00    0,000000000e+00
     1038000000   -7,289433479e-02    1,143501257e-03    3,354779184e-01   -5,050650835e-01    0,000000000e+00    0,000000000e+00    0,000000000e+00    0,000000000e+00
     1052000000   -6,323881447e-02   -1,256337576e-02    2,978625521e-02   -5,870651007e-01    0,000000000e+00    0,000000000e+00    0,000000000e+00    0,000000000e+00
     1066000000   -6,575104594e-02   -3,267009929e-02   -2,672989070e-01   -4,988141060e-01    0,000000000e+00    0,000000000e+00    0,000000000e+00    0,000000000e+00
     1080000000   -8,369050920e-02   -3,361703828e-02   -4,806928039e-01   -2,674797177e-01    0,000000000e+00    0,000000000e+00    0,000000000e+00    0,000000000e+00
     1094000000   -8,251421899e-02   -2,011078224e-02   -5,301125050e-01    4,459259659e-02    0,000000000e+00    0,000000000e+00    0,000000000e+00    0,000000000e+00
     1108000000   -6,011954322e-02   -9,704114869e-03   -3,941329718e-01    3,248186707e-01    0,000000000e+00    0,000000000e+00    0,000000000e+00    0,000000000e+00
     1122000000   -2,983363532e-02   -3,780867904e-02   -1,332053095e-01    4,821872115e-01    0,000000000e+00    0,000000000e+00    0,000000000e+00    0,000000000e+00
     1136000000   -3,078092262e-02   -8,365502208e-02    1,656091809e-01    4,720385373e-01    0,000000000e+00    0,000000000e+00    0,000000000e+00    0,000000000e+00
     1150000000   -6,555298716e-02   -1,299975663e-01    4,185475409e-01    3,060235083e-01    0,000000000e+00    0,000000000e+00    0,000000000e+00    0,000000000e+00
     1164000000   -1,385284513e-01   -1,519677043e-01    5,616447926e-01    2,508767322e-02    0,000000000e+00    0,000000000e+00    0,000000000e+00    0,000000000e+00
     1178000000   -2,127201855e-01   -1,227504909e-01    5,273703337e-01   -3,161350787e-01    0,000000000e+00    0,000000000e+00    0,000000000e+00    0,000000000e+00
     1192000000   -2,497673631e-01   -4,149031639e-02    2,952546775e-01   -5,947692990e-01    0,000000000e+00    0,000000000e+00    0,000000000e+00    0,000000000e+00
     1206000000   -2,306762636e-01    3,588247299e-02   -6,454148144e-02   -6,929977536e-01    0,000000000e+00    0,000000000e+00    0,000000000e+00    0,000000000e+00
     1220000000   -1,871787608e-01    8,823013306e-02   -4,218494296e-01   -5,771113038e-01    0,000000000e+00    0,000000000e+00    0,000000000e+00    0,000000000e+00
     1234000000   -1,305235475e-01    1,025736034e-01   -6,429683566e-01   -2,898619175e-01    0,000000000e+00    0,000000000e+00    0,000000000e+00    0,000000000e+00
     1248000000   -6,701182574e-02    1,010771021e-01   -6,744127274e-01    6,619936228e-02    0,000000000e+00    0,000000000e+00    0,000000000e+00    0,000000000e+00
     1262000000   -1,374694146e-02    6,329782307e-02   -5,185225606e-01    3,736337721e-01    0,000000000e+00    0,000000000e+00    0,000000000e+00    0,000000000e+00
     1276000000    2,282906696e-02   -1,146642142e-03   -2,471643835e-01    5,455139875e-01    0,000000000e+00    0,000000000e+00    0,000000000e+00    0,000000000e+00
     1290000000    2,124984935e-02   -8,394401520e-02    6,827317923e-02    5,763487220e-01    0,000000000e+00    0,000000000e+00    0,000000000e+00    0,000000000e+00
     1304000000   -3,161402419e-02   -1,718024462e-01    3,570970893e-01    4,656501114e-01    0,000000000e+00    0,000000000e+00    0,000000000e+00    0,000000000e+00
     1318000000   -1,335275322e-01   -2,101470977e-01    5,810645819e-01    2,223510444e-01    0,000000000e+00    0,000000000e+00    0,000000000e+00    0,000000000e+00
     1332000000   -2,553962171e-01   -1,864391565e-01    6,490886807e-01   -1,211922914e-01    0,000000000e+00    0,000000000e+00    0,000000000e+00    0,000000000e+00
     1346000000   -3,320841789e-01   -9,571776539e-02    5,018327832e-01   -4,613477588e-01    0,000000000e+00    0,000000000e+00    0,000000000e+00    0,000000000e+00
     1360000000   -3,341614902e-01    2,428449132e-02    1,927710772e-01   -6,423326135e-01    0,000000000e+00    0,000000000e+00    0,000000000e+00    0,000000000e+00
     1374000000   -2,843768597e-01    1,060726047e-01   -1,604831070e-01   -5,960389972e-01    0,000000000e+00    0,000000000e+00    0,000000000e+00    0,000000000e+00
     1388000000   -2,162184268e-01    1,377142817e-01   -4,080896974e-01   -3,774091005e-01    0,000000000e+00    0,000000000e+00    0,000000000e+00    0,000000000e+00
     1402000000   -1,539356560e-01    1,386995763e-01   -4,788251519e-01   -5,780178308e-02    0,000000000e+00    0,000000000e+00    0,000000000e+00    0,000000000e+00
     1416000000   -9,904762357e-02    1,239797324e-01   -3,761812449e-01    2,419472784e-01    0,000000000e+00    0,000000000e+00    0,000000000e+00    0,000000000e+00
     1430000000   -5,451085046e-02    6,816420704e-02   -1,439429373e-01    4,774219692e-01    0,000000000e+00    0,000000000e+00    0,000000000e+00    0,000000000e+00
     1444000000   -3,272670880e-02    4,179437179e-03    1,678376347e-01    5,284851193e-01    0,000000000e+00    0,000000000e+00    0,000000000e+00    0,000000000e+00
     1458000000   -6,608135998e-02   -7,668704540e-02    4,754459560e-01    4,735231400e-01    0,000000000e+00    0,000000000e+00    0,000000000e+00    0,000000000e+00
     1472000000   -1,350486726e-01   -1,179572493e-01    7,542899251e-01    2,764114141e-01    0,000000000e+00    0,000000000e+00    0,000000000e+00    0,000000000e+00
     1486000000   -2,356093228e-01   -1,232480109e-01    8,881647587e-01   -7,799978554e-02    0,000000000e+00    0,000000000e+00    0,000000000e+00    0,000000000e+00
     1500000000   -2,916517258e-01   -4,835225269e-02    8,036570549e-01   -4,776713550e-01    0,000000000e+00    0,000000000e+00    0,000000000e+00    0,000000000e+00
