! NanoVNA-App
! Date: 2025-09-25 15:05:56
! Start: 100MHz Stop: 1,5GHz Points: 101
! S-Parameter data: F S11 S21 S12 S22
# Hz S RI R 50
!     Frequency           S11_Real           S11_Imag           S21_Real           S21_Imag           S12_Real           S12_Imag           S22_Real           S22_Imag
      100000000    3,115962073e-02    2,864944562e-02    4,348479807e-01   -6,686227918e-01    0,000000000e+00    0,000000000e+00    0,000000000e+00    0,000000000e+00
      114000000    5,757782608e-02    5,502755754e-03    7,665920071e-03   -7,908008695e-01    0,000000000e+00    0,000000000e+00    0,000000000e+00    0,000000000e+00
      128000000    6,727303565e-02   -3,780005872e-02   -4,102359414e-01   -6,710978150e-01    0,000000000e+00    0,000000000e+00    0,000000000e+00    0,000000000e+00
      142000000    4,473172873e-02   -8,422250301e-02   -7,029520273e-01   -3,533346057e-01    0,000000000e+00    0,000000000e+00    0,000000000e+00    0,000000000e+00
      156000000   -6,096031051e-03   -1,061912701e-01   -7,857571244e-01    7,338680327e-02    0,000000000e+00    0,000000000e+00    0,000000000e+00    0,000000000e+00
      170000000   -5,760506913e-02   -9,057397395e-02   -6,273751855e-01    4,868783951e-01    0,000000000e+00    0,000000000e+00    0,000000000e+00    0,000000000e+00
      184000000   -8,369644731e-02   -4,950578138e-02   -2,649060786e-01    7,510600686e-01    0,000000000e+00    0,000000000e+00    0,000000000e+00    0,000000000e+00
      198000000   -7,962697744e-02   -1,047430187e-02    1,835645288e-01    7,733585835e-01    0,000000000e+00    0,000000000e+00    0,000000000e+00    0,000000000e+00
      212000000   -6,230597571e-02    1,319132652e-02    5,695949197e-01    5,492227077e-01    0,000000000e+00    0,000000000e+00    0,000000000e+00    0,000000000e+00
      226000000   -4,330252111e-02    2,767665125e-02    7,707293630e-01    1,544518471e-01    0,000000000e+00    0,000000000e+00    0,000000000e+00    0,000000000e+00
      240000000   -1,822201908e-02    3,847326711e-02    7,269065976e-01   -2,821055055e-01    0,000000000e+00    0,000000000e+00    0,000000000e+00    0,000000000e+00
      254000000    1,718497835e-02    3,515608981e-02    4,580074847e-01   -6,199682355e-01    0,000000000e+00    0,000000000e+00    0,000000000e+00    0,000000000e+00
      268000000    4,877530411e-02    5,578392185e-03    5,853100866e-02   -7,602642179e-01    0,000000000e+00    0,000000000e+00    0,000000000e+00    0,000000000e+00
      282000000    5,344200507e-02   -4,177850112e-02   -3,489984274e-01   -6,716681719e-01    0,000000000e+00    0,000000000e+00    0,000000000e+00    0,000000000e+00
      296000000    2,409888804e-02   -7,942163199e-02   -6,519698501e-01   -3,852092326e-01    0,000000000e+00    0,000000000e+00    0,000000000e+00    0,000000000e+00
      310000000   -1,780907996e-02   -8,333409578e-02   -7,625431418e-01    2,014531381e-02    0,000000000e+00    0,000000000e+00    0,000000000e+00    0,000000000e+00
      324000000   -4,178519920e-02   -5,877706036e-02   -6,330421567e-01    4,309706092e-01    0,000000000e+00    0,000000000e+00    0,000000000e+00    0,000000000e+00
      338000000   -3,429255262e-02   -3,688803688e-02   -2,958406806e-01    6,984624267e-01    0,000000000e+00    0,000000000e+00    0,000000000e+00    0,000000000e+00
      352000000   -1,742630824e-02   -4,077211022e-02    1,257677823e-01    7,421330214e-01    0,000000000e+00    0,000000000e+00    0,000000000e+00    0,000000000e+00
      366000000   -1,952870376e-02   -6,189764291e-02    4,984161854e-01    5,540700555e-01    0,000000000e+00    0,000000000e+00    0,000000000e+00    0,000000000e+00
      380000000   -4,424222931e-02   -7,255742699e-02    7,135722637e-01    2,001009136e-01    0,000000000e+00    0,000000000e+00    0,000000000e+00    0,000000000e+00
      394000000   -7,076213509e-02   -5,811851844e-02    7,046962976e-01   -2,173534483e-01    0,000000000e+00    0,000000000e+00    0,000000000e+00    0,000000000e+00
      408000000   -7,697647065e-02   -3,034382313e-02    4,700185955e-01   -5,600488782e-01    0,000000000e+00    0,000000000e+00    0,000000000e+00    0,000000000e+00
      422000000   -6,558897346e-02   -1,137938444e-02    9,220528603e-02   -7,173966765e-01    0,000000000e+00    0,000000000e+00    0,000000000e+00    0,000000000e+00
      436000000   -5,318439379e-02   -4,836726002e-03   -3,021128178e-01   -6,476026773e-01    0,000000000e+00    0,000000000e+00    0,000000000e+00    0,000000000e+00
      450000000   -4,456951097e-02    1,712211873e-03   -5,934484005e-01   -3,783484697e-01    0,000000000e+00    0,000000000e+00    0,000000000e+00    0,000000000e+00
      464000000   -2,971752733e-02    1,152154151e-02   -6,916167736e-01    2,635511919e-04    0,000000000e+00    0,000000000e+00    0,000000000e+00    0,000000000e+00
      478000000   -9,815138765e-04    1,149604563e-02   -5,729067326e-01    3,635530770e-01    0,000000000e+00    0,000000000e+00    0,000000000e+00    0,000000000e+00
      492000000    2,804266661e-02   -1,255773567e-02   -2,893070579e-01    6,020929217e-01    0,000000000e+00    0,000000000e+00    0,000000000e+00    0,000000000e+00
      506000000    3,633830324e-02   -5,620129779e-02    6,936132908e-02    6,580278873e-01    0,000000000e+00    0,000000000e+00    0,000000000e+00    0,000000000e+00
      520000000    1,299629174e-02   -9,848262370e-02    4,042557776e-01    5,288084745e-01    0,000000000e+00    0,000000000e+00    0,000000000e+00    0,000000000e+00
      534000000   -3,458586708e-02   -1,158877835e-01    6,238569021e-01    2,368866205e-01    0,000000000e+00    0,000000000e+00    0,000000000e+00    0,000000000e+00
      548000000   -7,745505869e-02   -9,893382341e-02    6,581763029e-01   -1,330401599e-01    0,000000000e+00    0,000000000e+00    0,000000000e+00    0,000000000e+00
      562000000   -9,344810247e-02   -6,565178186e-02    4,814470410e-01   -4,669066668e-01    0,000000000e+00    0,000000000e+00    0,000000000e+00    0,000000000e+00
      576000000   -8,594732732e-02   -4,451997206e-02    1,507823765e-01   -6,481432915e-01    0,000000000e+00    0,000000000e+00    0,000000000e+00    0,000000000e+00
      590000000   -8,063347638e-02   -4,154594243e-02   -2,187696993e-01   -6,284905672e-01    0,000000000e+00    0,000000000e+00    0,000000000e+00    0,000000000e+00
      604000000   -8,876900375e-02   -3,755447268e-02   -5,203362703e-01   -4,063755274e-01    0,000000000e+00    0,000000000e+00    0,000000000e+00    0,000000000e+00
      618000000   -9,651122242e-02   -1,557786670e-02   -6,530188918e-01   -5,852924660e-02    0,000000000e+00    0,000000000e+00    0,000000000e+00    0,000000000e+00
      632000000   -8,075182140e-02    1,472113561e-02   -5,754618049e-01    3,029720485e-01    0,000000000e+00    0,000000000e+00    0,000000000e+00    0,000000000e+00
      646000000   -4,227679968e-02    2,619086020e-02   -3,191100061e-01    5,564850569e-01    0,000000000e+00    0,000000000e+00    0,000000000e+00    0,000000000e+00
      660000000   -8,253247477e-03    5,526419729e-03    2,025322057e-02    6,299327612e-01    0,000000000e+00    0,000000000e+00    0,000000000e+00    0,000000000e+00
      674000000    6,991130067e-04   -3,078484349e-02    3,418522775e-01    5,191593170e-01    0,000000000e+00    0,000000000e+00    0,000000000e+00    0,000000000e+00
      688000000   -1,457497198e-02   -5,592522770e-02    5,585970283e-01    2,584476769e-01    0,000000000e+00    0,000000000e+00    0,000000000e+00    0,000000000e+00
      702000000   -3,335821629e-02   -5,917047709e-02    6,063840389e-01   -7,785729319e-02    0,000000000e+00    0,000000000e+00    0,000000000e+00    0,000000000e+00
      716000000   -3,700703755e-02   -5,605930835e-02    4,590898752e-01   -3,897323906e-01    0,000000000e+00    0,000000000e+00    0,000000000e+00    0,000000000e+00
      730000000   -3,167000785e-02   -6,577204168e-02    1,743775606e-01   -5,661984086e-01    0,000000000e+00    0,000000000e+00    0,000000000e+00    0,000000000e+00
      744000000   -3,976516053e-02   -8,846631646e-02   -1,526689678e-01   -5,647896528e-01    0,000000000e+00    0,000000000e+00    0,000000000e+00    0,000000000e+00
      758000000   -7,234732807e-02   -1,044355705e-01   -4,271217585e-01   -3,949973881e-01    0,000000000e+00    0,000000000e+00    0,000000000e+00    0,000000000e+00
      772000000   -1,134266481e-01   -9,424741566e-02   -5,748466849e-01   -1,059407890e-01    0,000000000e+00    0,000000000e+00    0,000000000e+00    0,000000000e+00
      786000000   -1,394490004e-01   -5,663689971e-02   -5,448612571e-01    2,206209153e-01    0,000000000e+00    0,000000000e+00    0,000000000e+00    0,000000000e+00
      800000000   -1,333248764e-01   -1,425768714e-02   -3,416864872e-01    4,800333977e-01    0,000000000e+00    0,000000000e+00    0,000000000e+00    0,000000000e+00
      814000000   -1,080234423e-01    9,007980116e-03   -3,347732127e-02    5,861159563e-01    0,000000000e+00    0,000000000e+00    0,000000000e+00    0,000000000e+00
      828000000   -8,510665596e-02    1,349023264e-02    2,784365118e-01    5,139389634e-01    0,000000000e+00    0,000000000e+00    0,000000000e+00    0,000000000e+00
      842000000   -7,023870945e-02    1,485424489e-02    5,031235218e-01    2,898560464e-01    0,000000000e+00    0,000000000e+00    0,000000000e+00    0,000000000e+00
      856000000   -5,161472782e-02    1,950063929e-02    5,703349113e-01   -1,859686524e-02    0,000000000e+00    0,000000000e+00    0,000000000e+00    0,000000000e+00
      870000000   -2,240016125e-02    1,411793102e-02    4,632633030e-01   -3,061232865e-01    0,000000000e+00    0,000000000e+00    0,000000000e+00    0,000000000e+00
      884000000    6,386172492e-03   -1,428305730e-02    2,314746976e-01   -4,886963665e-01    0,000000000e+00    0,000000000e+00    0,000000000e+00    0,000000000e+00
      898000000    1,168801449e-02   -6,416255236e-02   -5,198985711e-02   -5,258062482e-01    0,000000000e+00    0,000000000e+00    0,000000000e+00    0,000000000e+00
      912000000   -2,329364233e-02   -1,087762788e-01   -3,497722149e-01   -4,006917477e-01    0,000000000e+00    0,000000000e+00    0,000000000e+00    0,000000000e+00
      926000000   -7,548066229e-02   -1,254652143e-01   -5,311943293e-01   -1,606736630e-01    0,000000000e+00    0,000000000e+00    0,000000000e+00    0,000000000e+00
      940000000   -1,213083044e-01   -1,043446511e-01   -5,516232252e-01    1,555878222e-01    0,000000000e+00    0,000000000e+00    0,000000000e+00    0,000000000e+00
      954000000   -1,448128223e-01   -5,949046090e-02   -3,933600485e-01    4,459612966e-01    0,000000000e+00    0,000000000e+00    0,000000000e+00    0,000000000e+00
      968000000   -1,301426142e-01   -2,537436970e-02   -9,217751026e-02    6,043118238e-01    0,000000000e+00    0,000000000e+00    0,000000000e+00    0,000000000e+00
      982000000   -1,128018945e-01   -1,812693849e-02    2,457974702e-01    5,723385811e-01    0,000000000e+00    0,000000000e+00    0,000000000e+00    0,000000000e+00
      996000000   -1,047801971e-01   -1,481033023e-02    5,135523677e-01    3,668935299e-01    0,000000000e+00    0,000000000e+00    0,000000000e+00    0,000000000e+00
     1010000000   -1,050676852e-01   -8,799040690e-03    6,272412539e-01    5,223674700e-02    0,000000000e+00    0,000000000e+00    0,000000000e+00    0,000000000e+00
     1024000000   -9,327116609e-02    3,768120427e-03    5,595148802e-01   -2,713983953e-01    0,000000000e+00    0,000000000e+00    0,000000000e+00    0,000000000e+00
     1038000000   -7,859291136e-02   -9,888501372e-04    3,366443813e-01   -5,022533536e-01    0,000000000e+00    0,000000000e+00    0,000000000e+00    0,000000000e+00
     1052000000   -6,273654848e-02   -1,415546332e-02    3,260715306e-02   -5,819084644e-01    0,000000000e+00    0,000000000e+00    0,000000000e+00    0,000000000e+00
     1066000000   -6,868847460e-02   -2,870931849e-02   -2,667787969e-01   -5,002505183e-01    0,000000000e+00    0,000000000e+00    0,000000000e+00    0,000000000e+00
     1080000000   -8,353202045e-02   -2,881888673e-02   -4,799059629e-01   -2,711382508e-01    0,000000000e+00    0,000000000e+00    0,000000000e+00    0,000000000e+00
     1094000000   -7,803014666e-02   -1,449669525e-02   -5,319430828e-01    4,102893546e-02    0,000000000e+00    0,000000000e+00    0,000000000e+00    0,000000000e+00
     1108000000   -5,946975574e-02   -8,691258729e-03   -3,957863152e-01    3,230884075e-01    0,000000000e+00    0,000000000e+00    0,000000000e+00    0,000000000e+00
     1122000000   -3,395165130e-02   -3,233886510e-02   -1,363709867e-01    4,839675128e-01    0,000000000e+00    0,000000000e+00    0,000000000e+00    0,000000000e+00
     1136000000   -2,559768967e-02   -8,481778949e-02    1,611540914e-01    4,738696814e-01    0,000000000e+00    0,000000000e+00    0,000000000e+00    0,000000000e+00
     1150000000   -6,388663501e-02   -1,380035132e-01    4,181047678e-01    3,109066188e-01    0,000000000e+00    0,000000000e+00    0,000000000e+00    0,000000000e+00
     1164000000   -1,396207511e-01   -1,537355781e-01    5,634931326e-01    2,927964181e-02    0,000000000e+00    0,000000000e+00    0,000000000e+00    0,000000000e+00
     1178000000   -2,112815976e-01   -1,232635751e-01    5,288295746e-01   -3,202926815e-01    0,000000000e+00    0,000000000e+00    0,000000000e+00    0,000000000e+00
     1192000000   -2,510443032e-01   -3,903669491e-02    2,995247543e-01   -5,969742537e-01    0,000000000e+00    0,000000000e+00    0,000000000e+00    0,000000000e+00
     1206000000   -2,361075133e-01    3,341153637e-02   -6,732379645e-02   -6,991102099e-01    0,000000000e+00    0,000000000e+00    0,000000000e+00    0,000000000e+00
     1220000000   -1,874493062e-01    7,922066003e-02   -4,174197614e-01   -5,800616741e-01    0,000000000e+00    0,000000000e+00    0,000000000e+00    0,000000000e+00
     1234000000   -1,308380514e-01    1,083297655e-01   -6,446675658e-01   -2,900355756e-01    0,000000000e+00    0,000000000e+00    0,000000000e+00    0,000000000e+00
     1248000000   -6,920845062e-02    9,626033902e-02   -6,742941141e-01    6,058886647e-02    0,000000000e+00    0,000000000e+00    0,000000000e+00    0,000000000e+00
     1262000000   -1,115089003e-02    6,326361746e-02   -5,214182734e-01    3,687584698e-01    0,000000000e+00    0,000000000e+00    0,000000000e+00    0,000000000e+00
     1276000000    2,132905275e-02   -2,073538257e-03   -2,452348620e-01    5,451563597e-01    0,000000000e+00    0,000000000e+00    0,000000000e+00    0,000000000e+00
     1290000000    2,176121436e-02   -8,347166330e-02    6,943413615e-02    5,826864243e-01    0,000000000e+00    0,000000000e+00    0,000000000e+00    0,000000000e+00
     1304000000   -3,180854395e-02   -1,668550670e-01    3,669089973e-01    4,671444297e-01    0,000000000e+00    0,000000000e+00    0,000000000e+00    0,000000000e+00
     1318000000   -1,321356893e-01   -2,170094252e-01    5,844380260e-01    2,199452966e-01    0,000000000e+00    0,000000000e+00    0,000000000e+00    0,000000000e+00
     1332000000   -2,556415796e-01   -1,895849556e-01    6,488721371e-01   -1,256992221e-01    0,000000000e+00    0,000000000e+00    0,000000000e+00    0,000000000e+00
     1346000000   -3,325590491e-01   -8,530112356e-02    5,131197572e-01   -4,596446455e-01    0,000000000e+00    0,000000000e+00    0,000000000e+00    0,000000000e+00
     1360000000   -3,374081254e-01    2,316517755e-02    1,859886944e-01   -6,534162760e-01    0,000000000e+00    0,000000000e+00    0,000000000e+00    0,000000000e+00
     1374000000   -2,820326388e-01    9,924129397e-02   -1,636816561e-01   -6,058222055e-01    0,000000000e+00    0,000000000e+00    0,000000000e+00    0,000000000e+00
     1388000000   -2,107278854e-01    1,387369037e-01   -4,056038558e-01   -3,709811270e-01    0,000000000e+00    0,000000000e+00    0,000000000e+00    0,000000000e+00
     1402000000   -1,548849791e-01    1,431430727e-01   -4,886327088e-01   -5,594069138e-02    0,000000000e+00    0,000000000e+00    0,000000000e+00    0,000000000e+00
     1416000000   -9,611868858e-02    1,202691123e-01   -3,763916194e-01    2,515084743e-01    0,000000000e+00    0,000000000e+00    0,000000000e+00    0,000000000e+00
     1430000000   -5,051661283e-02    7,601134479e-02   -1,332040727e-01    4,327927828e-01    0,000000000e+00    0,000000000e+00    0,000000000e+00    0,000000000e+00
     1444000000   -4,029313475e-02    2,676772419e-03    1,551467925e-01    5,354589820e-01    0,000000000e+00    0,000000000e+00    0,000000000e+00    0,000000000e+00
     1458000000   -6,123521551e-02   -7,079233974e-02    4,954998195e-01    4,743418097e-01    0,000000000e+00    0,000000000e+00    0,000000000e+00    0,000000000e+00
     1472000000   -1,440464854e-01   -1,261509508e-01    7,501050234e-01    2,583883405e-01    0,000000000e+00    0,000000000e+00    0,000000000e+00    0,000000000e+00
     1486000000   -2,314879000e-01   -1,197027117e-01    8,995912671e-01   -9,220241010e-02    0,000000000e+00    0,000000000e+00    0,000000000e+00    0,000000000e+00
     1500000000   -2,867547870e-01   -4,454676807e-02    8,234623671e-01   -4,478730857e-01    0,000000000e+00    0,000000000e+00    0,000000000e+00    0,000000000e+00
