! NanoVNA-App
! Date: 2025-09-25 15:04:34
! Start: 100MHz Stop: 1,5GHz Points: 101
! S-Parameter data: F S11 S21 S12 S22
# Hz S RI R 50
!     Frequency           S11_Real           S11_Imag           S21_Real           S21_Imag           S12_Real           S12_Imag           S22_Real           S22_Imag
      100000000    3,109824657e-02    2,860096842e-02    4,347533882e-01   -6,686822772e-01    0,000000000e+00    0,000000000e+00    0,000000000e+00    0,000000000e+00
      114000000    5,750019103e-02    5,475312937e-03    7,618546952e-03   -7,910697460e-01    0,000000000e+00    0,000000000e+00    0,000000000e+00    0,000000000e+00
      128000000    6,714721769e-02   -3,778668121e-02   -4,103031456e-01   -6,710187197e-01    0,000000000e+00    0,000000000e+00    0,000000000e+00    0,000000000e+00
      142000000    4,465262964e-02   -8,411339670e-02   -7,030926943e-01   -3,533316553e-01    0,000000000e+00    0,000000000e+00    0,000000000e+00    0,000000000e+00
      156000000   -5,497771781e-03   -1,064441279e-01   -7,872019410e-01    7,332018763e-02    0,000000000e+00    0,000000000e+00    0,000000000e+00    0,000000000e+00
      170000000   -5,765896291e-02   -9,059549868e-02   -6,275640726e-01    4,870809913e-01    0,000000000e+00    0,000000000e+00    0,000000000e+00    0,000000000e+00
      184000000   -8,362317085e-02   -4,946232215e-02   -2,649445832e-01    7,512879372e-01    0,000000000e+00    0,000000000e+00    0,000000000e+00    0,000000000e+00
      198000000   -7,953456044e-02   -1,044724882e-02    1,835449338e-01    7,732859850e-01    0,000000000e+00    0,000000000e+00    0,000000000e+00    0,000000000e+00
      212000000   -6,220775098e-02    1,310406532e-02    5,693955421e-01    5,491616130e-01    0,000000000e+00    0,000000000e+00    0,000000000e+00    0,000000000e+00
      226000000   -4,324021935e-02    2,757330798e-02    7,707991004e-01    1,544428915e-01    0,000000000e+00    0,000000000e+00    0,000000000e+00    0,000000000e+00
      240000000   -1,817575842e-02    3,834265098e-02    7,267810702e-01   -2,820688784e-01    0,000000000e+00    0,000000000e+00    0,000000000e+00    0,000000000e+00
      254000000    1,714782789e-02    3,505532816e-02    4,578817189e-01   -6,204035282e-01    0,000000000e+00    0,000000000e+00    0,000000000e+00    0,000000000e+00
      268000000    4,862902686e-02    5,501977168e-03    5,871472135e-02   -7,602460384e-01    0,000000000e+00    0,000000000e+00    0,000000000e+00    0,000000000e+00
      282000000    5,324965343e-02   -4,182302207e-02   -3,494151533e-01   -6,715895534e-01    0,000000000e+00    0,000000000e+00    0,000000000e+00    0,000000000e+00
      296000000    2,393748239e-02   -7,953670621e-02   -6,525633335e-01   -3,853727877e-01    0,000000000e+00    0,000000000e+00    0,000000000e+00    0,000000000e+00
      310000000   -1,785488985e-02   -8,287923783e-02   -7,643014193e-01    2,018928714e-02    0,000000000e+00    0,000000000e+00    0,000000000e+00    0,000000000e+00
      324000000   -4,161206260e-02   -5,858062208e-02   -6,320562363e-01    4,303918481e-01    0,000000000e+00    0,000000000e+00    0,000000000e+00    0,000000000e+00
      338000000   -3,424565867e-02   -3,683071584e-02   -2,948485911e-01    7,028486729e-01    0,000000000e+00    0,000000000e+00    0,000000000e+00    0,000000000e+00
      352000000   -1,711463369e-02   -4,083925113e-02    1,259103119e-01    7,429494262e-01    0,000000000e+00    0,000000000e+00    0,000000000e+00    0,000000000e+00
      366000000   -1,915956475e-02   -6,206611544e-02    4,976868629e-01    5,547254682e-01    0,000000000e+00    0,000000000e+00    0,000000000e+00    0,000000000e+00
      380000000   -4,420969263e-02   -7,256911695e-02    7,138379216e-01    1,997897476e-01    0,000000000e+00    0,000000000e+00    0,000000000e+00    0,000000000e+00
      394000000   -7,076992095e-02   -5,847756192e-02    7,038645148e-01   -2,169952095e-01    0,000000000e+00    0,000000000e+00    0,000000000e+00    0,000000000e+00
      408000000   -7,700809836e-02   -3,052980267e-02    4,711667299e-01   -5,597817302e-01    0,000000000e+00    0,000000000e+00    0,000000000e+00    0,000000000e+00
      422000000   -6,546550989e-02   -1,160741132e-02    9,343427420e-02   -7,178286910e-01    0,000000000e+00    0,000000000e+00    0,000000000e+00    0,000000000e+00
      436000000   -5,320825055e-02   -4,649202805e-03   -3,024545014e-01   -6,469227076e-01    0,000000000e+00    0,000000000e+00    0,000000000e+00    0,000000000e+00
      450000000   -4,477563500e-02    2,019987907e-03   -5,928128362e-01   -3,773038387e-01    0,000000000e+00    0,000000000e+00    0,000000000e+00    0,000000000e+00
      464000000   -2,933020145e-02    1,194705442e-02   -6,905828714e-01    7,142645773e-04    0,000000000e+00    0,000000000e+00    0,000000000e+00    0,000000000e+00
      478000000   -8,969243499e-04    1,131062675e-02   -5,730592608e-01    3,631309867e-01    0,000000000e+00    0,000000000e+00    0,000000000e+00    0,000000000e+00
      492000000    2,804565616e-02   -1,290045213e-02   -2,891921997e-01    6,015127301e-01    0,000000000e+00    0,000000000e+00    0,000000000e+00    0,000000000e+00
      506000000    3,630431369e-02   -5,609435216e-02    6,828794628e-02    6,585298777e-01    0,000000000e+00    0,000000000e+00    0,000000000e+00    0,000000000e+00
      520000000    1,243724208e-02   -9,825773537e-02    4,006237984e-01    5,231649280e-01    0,000000000e+00    0,000000000e+00    0,000000000e+00    0,000000000e+00
      534000000   -3,416415304e-02   -1,155769303e-01    6,238157153e-01    2,368975580e-01    0,000000000e+00    0,000000000e+00    0,000000000e+00    0,000000000e+00
      548000000   -7,739495486e-02   -9,855657071e-02    6,576675773e-01   -1,329373568e-01    0,000000000e+00    0,000000000e+00    0,000000000e+00    0,000000000e+00
      562000000   -9,341612458e-02   -6,587666273e-02    4,810951650e-01   -4,664602876e-01    0,000000000e+00    0,000000000e+00    0,000000000e+00    0,000000000e+00
      576000000   -8,587603271e-02   -4,425735399e-02    1,495419592e-01   -6,479536891e-01    0,000000000e+00    0,000000000e+00    0,000000000e+00    0,000000000e+00
      590000000   -8,065779507e-02   -4,199269414e-02   -2,186862081e-01   -6,281782985e-01    0,000000000e+00    0,000000000e+00    0,000000000e+00    0,000000000e+00
      604000000   -8,924228698e-02   -3,744311631e-02   -5,203272700e-01   -4,065780044e-01    0,000000000e+00    0,000000000e+00    0,000000000e+00    0,000000000e+00
      618000000   -9,716211259e-02   -1,566789113e-02   -6,533441544e-01   -5,836676061e-02    0,000000000e+00    0,000000000e+00    0,000000000e+00    0,000000000e+00
      632000000   -8,161681890e-02    1,583875902e-02   -5,754399896e-01    3,032301068e-01    0,000000000e+00    0,000000000e+00    0,000000000e+00    0,000000000e+00
      646000000   -4,226377979e-02    2,643780969e-02   -3,185152709e-01    5,559213161e-01    0,000000000e+00    0,000000000e+00    0,000000000e+00    0,000000000e+00
      660000000   -7,311842870e-03    6,658558734e-03    2,237697691e-02    6,304255724e-01    0,000000000e+00    0,000000000e+00    0,000000000e+00    0,000000000e+00
      674000000    1,348630991e-03   -2,933181077e-02    3,430666029e-01    5,190002322e-01    0,000000000e+00    0,000000000e+00    0,000000000e+00    0,000000000e+00
      688000000   -1,473754644e-02   -5,538554117e-02    5,582125187e-01    2,585344017e-01    0,000000000e+00    0,000000000e+00    0,000000000e+00    0,000000000e+00
      702000000   -3,333199024e-02   -6,000298262e-02    6,067665815e-01   -8,073304594e-02    0,000000000e+00    0,000000000e+00    0,000000000e+00    0,000000000e+00
      716000000   -3,718576208e-02   -5,552935973e-02    4,597588480e-01   -3,905068040e-01    0,000000000e+00    0,000000000e+00    0,000000000e+00    0,000000000e+00
      730000000   -3,235981613e-02   -6,607533246e-02    1,737527102e-01   -5,665954947e-01    0,000000000e+00    0,000000000e+00    0,000000000e+00    0,000000000e+00
      744000000   -4,066704586e-02   -8,853071928e-02   -1,531433761e-01   -5,633191466e-01    0,000000000e+00    0,000000000e+00    0,000000000e+00    0,000000000e+00
      758000000   -7,329639792e-02   -1,046297178e-01   -4,277389944e-01   -3,939689994e-01    0,000000000e+00    0,000000000e+00    0,000000000e+00    0,000000000e+00
      772000000   -1,142045557e-01   -9,261820465e-02   -5,745915174e-01   -1,052283421e-01    0,000000000e+00    0,000000000e+00    0,000000000e+00    0,000000000e+00
      786000000   -1,386126280e-01   -5,493333936e-02   -5,441997647e-01    2,216298729e-01    0,000000000e+00    0,000000000e+00    0,000000000e+00    0,000000000e+00
      800000000   -1,313123852e-01   -1,444145665e-02   -3,409475684e-01    4,793026149e-01    0,000000000e+00    0,000000000e+00    0,000000000e+00    0,000000000e+00
      814000000   -1,075045764e-01    7,149029057e-03   -3,367233276e-02    5,854099393e-01    0,000000000e+00    0,000000000e+00    0,000000000e+00    0,000000000e+00
      828000000   -8,552520722e-02    1,282577496e-02    2,790531516e-01    5,147692561e-01    0,000000000e+00    0,000000000e+00    0,000000000e+00    0,000000000e+00
      842000000   -7,135010511e-02    1,380036678e-02    5,022764802e-01    2,886295021e-01    0,000000000e+00    0,000000000e+00    0,000000000e+00    0,000000000e+00
      856000000   -5,311604589e-02    1,933234930e-02    5,706925392e-01   -1,797172613e-02    0,000000000e+00    0,000000000e+00    0,000000000e+00    0,000000000e+00
      870000000   -2,424314991e-02    1,497091167e-02    4,636985064e-01   -3,066281974e-01    0,000000000e+00    0,000000000e+00    0,000000000e+00    0,000000000e+00
      884000000    4,923583474e-03   -1,402126532e-02    2,305785120e-01   -4,883939326e-01    0,000000000e+00    0,000000000e+00    0,000000000e+00    0,000000000e+00
      898000000    1,170765515e-02   -6,284274161e-02   -5,133445561e-02   -5,253114104e-01    0,000000000e+00    0,000000000e+00    0,000000000e+00    0,000000000e+00
      912000000   -2,280079946e-02   -1,066341698e-01   -3,531138003e-01   -3,960311413e-01    0,000000000e+00    0,000000000e+00    0,000000000e+00    0,000000000e+00
      926000000   -7,393304259e-02   -1,252802312e-01   -5,308464766e-01   -1,587526500e-01    0,000000000e+00    0,000000000e+00    0,000000000e+00    0,000000000e+00
      940000000   -1,211487055e-01   -1,040844619e-01   -5,518293977e-01    1,565594524e-01    0,000000000e+00    0,000000000e+00    0,000000000e+00    0,000000000e+00
      954000000   -1,389797628e-01   -6,333578378e-02   -3,919973075e-01    4,458143711e-01    0,000000000e+00    0,000000000e+00    0,000000000e+00    0,000000000e+00
      968000000   -1,309312433e-01   -2,686816454e-02   -9,101840854e-02    6,055710912e-01    0,000000000e+00    0,000000000e+00    0,000000000e+00    0,000000000e+00
      982000000   -1,144480482e-01   -1,994988881e-02    2,474671453e-01    5,718238950e-01    0,000000000e+00    0,000000000e+00    0,000000000e+00    0,000000000e+00
      996000000   -1,055728123e-01   -1,683112420e-02    5,126434565e-01    3,645352423e-01    0,000000000e+00    0,000000000e+00    0,000000000e+00    0,000000000e+00
     1010000000   -1,068571657e-01   -7,708212361e-03    6,307066679e-01    5,028199777e-02    0,000000000e+00    0,000000000e+00    0,000000000e+00    0,000000000e+00
     1024000000   -9,034669399e-02   -1,698511536e-03    5,593006015e-01   -2,747647464e-01    0,000000000e+00    0,000000000e+00    0,000000000e+00    0,000000000e+00
     1038000000   -7,326350361e-02    1,462481450e-03    3,362635672e-01   -5,070690513e-01    0,000000000e+00    0,000000000e+00    0,000000000e+00    0,000000000e+00
     1052000000   -6,398487091e-02   -1,384638902e-02    2,984529920e-02   -5,858922005e-01    0,000000000e+00    0,000000000e+00    0,000000000e+00    0,000000000e+00
     1066000000   -6,683432311e-02   -3,305227309e-02   -2,744028866e-01   -4,998483062e-01    0,000000000e+00    0,000000000e+00    0,000000000e+00    0,000000000e+00
     1080000000   -7,718542218e-02   -3,308684006e-02   -4,809730947e-01   -2,672899663e-01    0,000000000e+00    0,000000000e+00    0,000000000e+00    0,000000000e+00
     1094000000   -8,348332345e-02   -2,016117051e-02   -5,303486586e-01    4,405607656e-02    0,000000000e+00    0,000000000e+00    0,000000000e+00    0,000000000e+00
     1108000000   -5,681827664e-02   -1,191241201e-02   -3,940643370e-01    3,260405064e-01    0,000000000e+00    0,000000000e+00    0,000000000e+00    0,000000000e+00
     1122000000   -2,840735577e-02   -3,157853708e-02   -1,315606833e-01    4,814155996e-01    0,000000000e+00    0,000000000e+00    0,000000000e+00    0,000000000e+00
     1136000000   -2,667030133e-02   -8,108598739e-02    1,626249403e-01    4,709556699e-01    0,000000000e+00    0,000000000e+00    0,000000000e+00    0,000000000e+00
     1150000000   -6,909436733e-02   -1,322913319e-01    4,162432253e-01    3,080217540e-01    0,000000000e+00    0,000000000e+00    0,000000000e+00    0,000000000e+00
     1164000000   -1,329338849e-01   -1,516412497e-01    5,638036728e-01    2,708752453e-02    0,000000000e+00    0,000000000e+00    0,000000000e+00    0,000000000e+00
     1178000000   -2,094827443e-01   -1,153477132e-01    5,270864964e-01   -3,156271279e-01    0,000000000e+00    0,000000000e+00    0,000000000e+00    0,000000000e+00
     1192000000   -2,450136095e-01   -4,691130295e-02    2,953862250e-01   -5,967630148e-01    0,000000000e+00    0,000000000e+00    0,000000000e+00    0,000000000e+00
     1206000000   -2,310666591e-01    3,516738489e-02   -6,311178952e-02   -6,944379807e-01    0,000000000e+00    0,000000000e+00    0,000000000e+00    0,000000000e+00
     1220000000   -1,850888729e-01    8,832906932e-02   -4,163813591e-01   -5,733212829e-01    0,000000000e+00    0,000000000e+00    0,000000000e+00    0,000000000e+00
     1234000000   -1,283227503e-01    1,075859293e-01   -6,438703537e-01   -2,881951332e-01    0,000000000e+00    0,000000000e+00    0,000000000e+00    0,000000000e+00
     1248000000   -7,036939263e-02    9,759481251e-02   -6,746939421e-01    6,337484717e-02    0,000000000e+00    0,000000000e+00    0,000000000e+00    0,000000000e+00
     1262000000   -1,572941430e-02    6,238322705e-02   -5,143324733e-01    3,639160991e-01    0,000000000e+00    0,000000000e+00    0,000000000e+00    0,000000000e+00
     1276000000    2,102535218e-02   -5,207236391e-03   -2,442276031e-01    5,439633727e-01    0,000000000e+00    0,000000000e+00    0,000000000e+00    0,000000000e+00
     1290000000    2,324266545e-02   -8,924237639e-02    7,218027860e-02    5,753651857e-01    0,000000000e+00    0,000000000e+00    0,000000000e+00    0,000000000e+00
     1304000000   -2,939085849e-02   -1,656771749e-01    3,658069968e-01    4,697195590e-01    0,000000000e+00    0,000000000e+00    0,000000000e+00    0,000000000e+00
     1318000000   -1,333883703e-01   -2,135472000e-01    5,816972852e-01    2,229755223e-01    0,000000000e+00    0,000000000e+00    0,000000000e+00    0,000000000e+00
     1332000000   -2,542496920e-01   -1,896703690e-01    6,502034664e-01   -1,288064718e-01    0,000000000e+00    0,000000000e+00    0,000000000e+00    0,000000000e+00
     1346000000   -3,297450244e-01   -8,774307370e-02    5,055233836e-01   -4,551341534e-01    0,000000000e+00    0,000000000e+00    0,000000000e+00    0,000000000e+00
     1360000000   -3,383404315e-01    3,095181473e-02    1,858217716e-01   -6,380549073e-01    0,000000000e+00    0,000000000e+00    0,000000000e+00    0,000000000e+00
     1374000000   -2,776217461e-01    1,066858396e-01   -1,456082463e-01   -5,970046520e-01    0,000000000e+00    0,000000000e+00    0,000000000e+00    0,000000000e+00
     1388000000   -2,162365913e-01    1,390105188e-01   -4,048835933e-01   -3,754573166e-01    0,000000000e+00    0,000000000e+00    0,000000000e+00    0,000000000e+00
     1402000000   -1,485563517e-01    1,371826530e-01   -4,753191471e-01   -6,722261757e-02    0,000000000e+00    0,000000000e+00    0,000000000e+00    0,000000000e+00
     1416000000   -9,997204691e-02    1,203819290e-01   -3,801853955e-01    2,440355569e-01    0,000000000e+00    0,000000000e+00    0,000000000e+00    0,000000000e+00
     1430000000   -4,602780938e-02    7,301894575e-02   -1,353541613e-01    4,246619344e-01    0,000000000e+00    0,000000000e+00    0,000000000e+00    0,000000000e+00
     1444000000   -3,033288382e-02    7,292223163e-03    1,611589193e-01    5,337696671e-01    0,000000000e+00    0,000000000e+00    0,000000000e+00    0,000000000e+00
     1458000000   -6,493127346e-02   -6,834469736e-02    4,812914431e-01    4,764455557e-01    0,000000000e+00    0,000000000e+00    0,000000000e+00    0,000000000e+00
     1472000000   -1,303318888e-01   -1,173803359e-01    7,672663331e-01    2,704403698e-01    0,000000000e+00    0,000000000e+00    0,000000000e+00    0,000000000e+00
     1486000000   -2,278907746e-01   -1,184347570e-01    8,988986611e-01   -9,407040477e-02    0,000000000e+00    0,000000000e+00    0,000000000e+00    0,000000000e+00
     1500000000   -2,898873389e-01   -5,220419914e-02    8,013735414e-01   -4,501714110e-01    0,000000000e+00    0,000000000e+00    0,000000000e+00    0,000000000e+00
