! NanoVNA-App
! Date: 2025-09-25 15:04:46
! Start: 100MHz Stop: 1,5GHz Points: 101
! S-Parameter data: F S11 S21 S12 S22
# Hz S RI R 50
!     Frequency           S11_Real           S11_Imag           S21_Real           S21_Imag           S12_Real           S12_Imag           S22_Real           S22_Imag
      100000000    3,110472485e-02    2,860938013e-02    4,348122776e-01   -6,687003970e-01    0,000000000e+00    0,000000000e+00    0,000000000e+00    0,000000000e+00
      114000000    5,749638379e-02    5,498269107e-03    7,628232241e-03   -7,910369635e-01    0,000000000e+00    0,000000000e+00    0,000000000e+00    0,000000000e+00
      128000000    6,721065193e-02   -3,776107356e-02   -4,104460776e-01   -6,709603667e-01    0,000000000e+00    0,000000000e+00    0,000000000e+00    0,000000000e+00
      142000000    4,465403780e-02   -8,412445337e-02   -7,029967904e-01   -3,531124294e-01    0,000000000e+00    0,000000000e+00    0,000000000e+00    0,000000000e+00
      156000000   -6,021259818e-03   -1,065532044e-01   -7,862668037e-01    7,381387800e-02    0,000000000e+00    0,000000000e+00    0,000000000e+00    0,000000000e+00
      170000000   -5,759890750e-02   -9,059060365e-02   -6,277226806e-01    4,873649776e-01    0,000000000e+00    0,000000000e+00    0,000000000e+00    0,000000000e+00
      184000000   -8,359767497e-02   -4,941628501e-02   -2,649561763e-01    7,513877749e-01    0,000000000e+00    0,000000000e+00    0,000000000e+00    0,000000000e+00
      198000000   -7,956223190e-02   -1,047319639e-02    1,835746318e-01    7,733253241e-01    0,000000000e+00    0,000000000e+00    0,000000000e+00    0,000000000e+00
      212000000   -6,217107922e-02    1,313347183e-02    5,693307519e-01    5,490481257e-01    0,000000000e+00    0,000000000e+00    0,000000000e+00    0,000000000e+00
      226000000   -4,321482405e-02    2,767048590e-02    7,706854939e-01    1,542628258e-01    0,000000000e+00    0,000000000e+00    0,000000000e+00    0,000000000e+00
      240000000   -1,821843907e-02    3,843563050e-02    7,267768979e-01   -2,821171880e-01    0,000000000e+00    0,000000000e+00    0,000000000e+00    0,000000000e+00
      254000000    1,712230034e-02    3,506938368e-02    4,577389061e-01   -6,202076077e-01    0,000000000e+00    0,000000000e+00    0,000000000e+00    0,000000000e+00
      268000000    4,864622653e-02    5,525468849e-03    5,843612924e-02   -7,603511810e-01    0,000000000e+00    0,000000000e+00    0,000000000e+00    0,000000000e+00
      282000000    5,336968601e-02   -4,174270481e-02   -3,492049277e-01   -6,712666154e-01    0,000000000e+00    0,000000000e+00    0,000000000e+00    0,000000000e+00
      296000000    2,389709838e-02   -7,952994108e-02   -6,519582272e-01   -3,852075934e-01    0,000000000e+00    0,000000000e+00    0,000000000e+00    0,000000000e+00
      310000000   -1,794468053e-02   -8,311084658e-02   -7,627614141e-01    1,978096180e-02    0,000000000e+00    0,000000000e+00    0,000000000e+00    0,000000000e+00
      324000000   -4,159025103e-02   -5,863229185e-02   -6,315007806e-01    4,316059649e-01    0,000000000e+00    0,000000000e+00    0,000000000e+00    0,000000000e+00
      338000000   -3,412038460e-02   -3,667612001e-02   -2,963869572e-01    7,001086473e-01    0,000000000e+00    0,000000000e+00    0,000000000e+00    0,000000000e+00
      352000000   -1,725687645e-02   -4,084787518e-02    1,257489175e-01    7,433112860e-01    0,000000000e+00    0,000000000e+00    0,000000000e+00    0,000000000e+00
      366000000   -1,931987889e-02   -6,182973087e-02    4,978294969e-01    5,539188981e-01    0,000000000e+00    0,000000000e+00    0,000000000e+00    0,000000000e+00
      380000000   -4,435864091e-02   -7,271114737e-02    7,130800486e-01    1,999234855e-01    0,000000000e+00    0,000000000e+00    0,000000000e+00    0,000000000e+00
      394000000   -7,079143077e-02   -5,824027583e-02    7,040688396e-01   -2,161565125e-01    0,000000000e+00    0,000000000e+00    0,000000000e+00    0,000000000e+00
      408000000   -7,690431178e-02   -3,038355894e-02    4,707866609e-01   -5,592259169e-01    0,000000000e+00    0,000000000e+00    0,000000000e+00    0,000000000e+00
      422000000   -6,559415162e-02   -1,148576848e-02    9,273128211e-02   -7,176637650e-01    0,000000000e+00    0,000000000e+00    0,000000000e+00    0,000000000e+00
      436000000   -5,309798568e-02   -4,626326263e-03   -3,024854660e-01   -6,473711729e-01    0,000000000e+00    0,000000000e+00    0,000000000e+00    0,000000000e+00
      450000000   -4,485308379e-02    1,700783032e-03   -5,930834413e-01   -3,784815669e-01    0,000000000e+00    0,000000000e+00    0,000000000e+00    0,000000000e+00
      464000000   -2,952924371e-02    1,175675914e-02   -6,910647750e-01    7,298632408e-04    0,000000000e+00    0,000000000e+00    0,000000000e+00    0,000000000e+00
      478000000   -6,185720558e-04    1,140561886e-02   -5,721119046e-01    3,635934591e-01    0,000000000e+00    0,000000000e+00    0,000000000e+00    0,000000000e+00
      492000000    2,812450752e-02   -1,242327783e-02   -2,891654670e-01    6,020702720e-01    0,000000000e+00    0,000000000e+00    0,000000000e+00    0,000000000e+00
      506000000    3,655927256e-02   -5,626395345e-02    6,864918023e-02    6,573449373e-01    0,000000000e+00    0,000000000e+00    0,000000000e+00    0,000000000e+00
      520000000    1,192812342e-02   -9,825622290e-02    3,989119828e-01    5,246889591e-01    0,000000000e+00    0,000000000e+00    0,000000000e+00    0,000000000e+00
      534000000   -3,468512371e-02   -1,156638041e-01    6,238927245e-01    2,367122471e-01    0,000000000e+00    0,000000000e+00    0,000000000e+00    0,000000000e+00
      548000000   -7,733408362e-02   -9,865196794e-02    6,581311226e-01   -1,330942214e-01    0,000000000e+00    0,000000000e+00    0,000000000e+00    0,000000000e+00
      562000000   -9,284867346e-02   -6,578239053e-02    4,819709659e-01   -4,666754305e-01    0,000000000e+00    0,000000000e+00    0,000000000e+00    0,000000000e+00
      576000000   -8,593685925e-02   -4,479113594e-02    1,500252336e-01   -6,478721499e-01    0,000000000e+00    0,000000000e+00    0,000000000e+00    0,000000000e+00
      590000000   -8,086010069e-02   -4,219455644e-02   -2,182089686e-01   -6,274469495e-01    0,000000000e+00    0,000000000e+00    0,000000000e+00    0,000000000e+00
      604000000   -8,933011442e-02   -3,742413223e-02   -5,204762220e-01   -4,057868719e-01    0,000000000e+00    0,000000000e+00    0,000000000e+00    0,000000000e+00
      618000000   -9,679646790e-02   -1,540959254e-02   -6,535144448e-01   -5,866593122e-02    0,000000000e+00    0,000000000e+00    0,000000000e+00    0,000000000e+00
      632000000   -8,079200983e-02    1,528756320e-02   -5,755778551e-01    3,032586873e-01    0,000000000e+00    0,000000000e+00    0,000000000e+00    0,000000000e+00
      646000000   -4,256473482e-02    2,702649683e-02   -3,187426627e-01    5,560431480e-01    0,000000000e+00    0,000000000e+00    0,000000000e+00    0,000000000e+00
      660000000   -7,347854320e-03    5,760961212e-03    2,209003083e-02    6,301687360e-01    0,000000000e+00    0,000000000e+00    0,000000000e+00    0,000000000e+00
      674000000    2,011062810e-03   -2,990325168e-02    3,432490230e-01    5,187596679e-01    0,000000000e+00    0,000000000e+00    0,000000000e+00    0,000000000e+00
      688000000   -1,392528787e-02   -5,529132113e-02    5,592685938e-01    2,580678761e-01    0,000000000e+00    0,000000000e+00    0,000000000e+00    0,000000000e+00
      702000000   -3,370150551e-02   -6,006497890e-02    6,037517190e-01   -8,177517354e-02    0,000000000e+00    0,000000000e+00    0,000000000e+00    0,000000000e+00
      716000000   -3,771667928e-02   -5,574665591e-02    4,601101875e-01   -3,893993795e-01    0,000000000e+00    0,000000000e+00    0,000000000e+00    0,000000000e+00
      730000000   -3,187274188e-02   -6,524091959e-02    1,737814844e-01   -5,660751462e-01    0,000000000e+00    0,000000000e+00    0,000000000e+00    0,000000000e+00
      744000000   -4,048562422e-02   -8,778438717e-02   -1,548767239e-01   -5,642647743e-01    0,000000000e+00    0,000000000e+00    0,000000000e+00    0,000000000e+00
      758000000   -7,275474072e-02   -1,039104536e-01   -4,280726016e-01   -3,944754004e-01    0,000000000e+00    0,000000000e+00    0,000000000e+00    0,000000000e+00
      772000000   -1,134142056e-01   -9,330159426e-02   -5,744000077e-01   -1,050113738e-01    0,000000000e+00    0,000000000e+00    0,000000000e+00    0,000000000e+00
      786000000   -1,387465447e-01   -5,547507480e-02   -5,442528129e-01    2,214298993e-01    0,000000000e+00    0,000000000e+00    0,000000000e+00    0,000000000e+00
      800000000   -1,321054399e-01   -1,489310618e-02   -3,407803178e-01    4,794931412e-01    0,000000000e+00    0,000000000e+00    0,000000000e+00    0,000000000e+00
      814000000   -1,071063653e-01    8,324139751e-03   -3,380436823e-02    5,848547816e-01    0,000000000e+00    0,000000000e+00    0,000000000e+00    0,000000000e+00
      828000000   -8,552560955e-02    1,250762586e-02    2,787715793e-01    5,140594244e-01    0,000000000e+00    0,000000000e+00    0,000000000e+00    0,000000000e+00
      842000000   -7,142259926e-02    1,391883660e-02    5,019264817e-01    2,887041569e-01    0,000000000e+00    0,000000000e+00    0,000000000e+00    0,000000000e+00
      856000000   -5,311655626e-02    1,900979318e-02    5,698568821e-01   -1,808794960e-02    0,000000000e+00    0,000000000e+00    0,000000000e+00    0,000000000e+00
      870000000   -2,441202477e-02    1,476143207e-02    4,627398849e-01   -3,068321347e-01    0,000000000e+00    0,000000000e+00    0,000000000e+00    0,000000000e+00
      884000000    4,862625152e-03   -1,412909478e-02    2,303721011e-01   -4,905398488e-01    0,000000000e+00    0,000000000e+00    0,000000000e+00    0,000000000e+00
      898000000    1,185641065e-02   -6,309719384e-02   -5,242163315e-02   -5,261430740e-01    0,000000000e+00    0,000000000e+00    0,000000000e+00    0,000000000e+00
      912000000   -2,280194499e-02   -1,082195714e-01   -3,533137143e-01   -4,048053920e-01    0,000000000e+00    0,000000000e+00    0,000000000e+00    0,000000000e+00
      926000000   -7,335685194e-02   -1,229232773e-01   -5,308030248e-01   -1,570377648e-01    0,000000000e+00    0,000000000e+00    0,000000000e+00    0,000000000e+00
      940000000   -1,215178370e-01   -1,052107960e-01   -5,523163676e-01    1,561020613e-01    0,000000000e+00    0,000000000e+00    0,000000000e+00    0,000000000e+00
      954000000   -1,373024732e-01   -6,260011345e-02   -3,908526599e-01    4,458960295e-01    0,000000000e+00    0,000000000e+00    0,000000000e+00    0,000000000e+00
      968000000   -1,329052001e-01   -3,068636730e-02   -8,930119127e-02    6,019197702e-01    0,000000000e+00    0,000000000e+00    0,000000000e+00    0,000000000e+00
      982000000   -1,155013070e-01   -1,975156553e-02    2,473482639e-01    5,723698735e-01    0,000000000e+00    0,000000000e+00    0,000000000e+00    0,000000000e+00
      996000000   -1,069270149e-01   -1,641515270e-02    5,151734352e-01    3,661335111e-01    0,000000000e+00    0,000000000e+00    0,000000000e+00    0,000000000e+00
     1010000000   -1,011096016e-01   -7,382378913e-03    6,288318038e-01    5,287450552e-02    0,000000000e+00    0,000000000e+00    0,000000000e+00    0,000000000e+00
     1024000000   -9,341428429e-02   -9,620170458e-04    5,601456761e-01   -2,723433673e-01    0,000000000e+00    0,000000000e+00    0,000000000e+00    0,000000000e+00
     1038000000   -7,565645874e-02    1,548318192e-03    3,330290616e-01   -5,049004555e-01    0,000000000e+00    0,000000000e+00    0,000000000e+00    0,000000000e+00
     1052000000   -6,588073075e-02   -1,665578969e-02    3,100552037e-02   -5,850957036e-01    0,000000000e+00    0,000000000e+00    0,000000000e+00    0,000000000e+00
     1066000000   -6,890475005e-02   -3,437325731e-02   -2,649736106e-01   -4,977113903e-01    0,000000000e+00    0,000000000e+00    0,000000000e+00    0,000000000e+00
     1080000000   -7,990976423e-02   -3,493282571e-02   -4,822013080e-01   -2,686331570e-01    0,000000000e+00    0,000000000e+00    0,000000000e+00    0,000000000e+00
     1094000000   -7,732253522e-02   -1,726382412e-02   -5,304219127e-01    4,354776815e-02    0,000000000e+00    0,000000000e+00    0,000000000e+00    0,000000000e+00
     1108000000   -6,068613008e-02   -1,496881898e-02   -3,979065418e-01    3,267717063e-01    0,000000000e+00    0,000000000e+00    0,000000000e+00    0,000000000e+00
     1122000000   -3,383089975e-02   -3,345884755e-02   -1,313292682e-01    4,796226323e-01    0,000000000e+00    0,000000000e+00    0,000000000e+00    0,000000000e+00
     1136000000   -3,033652529e-02   -8,554717898e-02    1,643601954e-01    4,706815779e-01    0,000000000e+00    0,000000000e+00    0,000000000e+00    0,000000000e+00
     1150000000   -6,452679634e-02   -1,349950582e-01    4,204044938e-01    3,065075576e-01    0,000000000e+00    0,000000000e+00    0,000000000e+00    0,000000000e+00
     1164000000   -1,379872710e-01   -1,522754282e-01    5,613006353e-01    2,301410213e-02    0,000000000e+00    0,000000000e+00    0,000000000e+00    0,000000000e+00
     1178000000   -2,107847333e-01   -1,206268221e-01    5,294796824e-01   -3,159028590e-01    0,000000000e+00    0,000000000e+00    0,000000000e+00    0,000000000e+00
     1192000000   -2,481053621e-01   -4,868545011e-02    2,942547798e-01   -5,979867578e-01    0,000000000e+00    0,000000000e+00    0,000000000e+00    0,000000000e+00
     1206000000   -2,291228473e-01    3,045210242e-02   -6,781205535e-02   -6,951119304e-01    0,000000000e+00    0,000000000e+00    0,000000000e+00    0,000000000e+00
     1220000000   -1,840383708e-01    8,598126471e-02   -4,201293290e-01   -5,730451941e-01    0,000000000e+00    0,000000000e+00    0,000000000e+00    0,000000000e+00
     1234000000   -1,260365248e-01    1,062048227e-01   -6,446977854e-01   -2,894935310e-01    0,000000000e+00    0,000000000e+00    0,000000000e+00    0,000000000e+00
     1248000000   -6,929232180e-02    9,915878624e-02   -6,758026481e-01    6,242969260e-02    0,000000000e+00    0,000000000e+00    0,000000000e+00    0,000000000e+00
     1262000000   -1,459447294e-02    6,396928430e-02   -5,153186917e-01    3,702930808e-01    0,000000000e+00    0,000000000e+00    0,000000000e+00    0,000000000e+00
     1276000000    2,698235586e-02   -8,421635139e-04   -2,376120090e-01    5,463933349e-01    0,000000000e+00    0,000000000e+00    0,000000000e+00    0,000000000e+00
     1290000000    2,145791426e-02   -9,015382826e-02    6,855510920e-02    5,711135268e-01    0,000000000e+00    0,000000000e+00    0,000000000e+00    0,000000000e+00
     1304000000   -3,279523551e-02   -1,718511432e-01    3,592742383e-01    4,587609470e-01    0,000000000e+00    0,000000000e+00    0,000000000e+00    0,000000000e+00
     1318000000   -1,309459805e-01   -2,137669176e-01    5,880932212e-01    2,197776735e-01    0,000000000e+00    0,000000000e+00    0,000000000e+00    0,000000000e+00
     1332000000   -2,523896992e-01   -1,827235371e-01    6,508464813e-01   -1,202729344e-01    0,000000000e+00    0,000000000e+00    0,000000000e+00    0,000000000e+00
     1346000000   -3,298431933e-01   -9,635195881e-02    5,074175000e-01   -4,648332596e-01    0,000000000e+00    0,000000000e+00    0,000000000e+00    0,000000000e+00
     1360000000   -3,318249285e-01    2,433569729e-02    2,015677989e-01   -6,337934732e-01    0,000000000e+00    0,000000000e+00    0,000000000e+00    0,000000000e+00
     1374000000   -2,807484865e-01    1,019135639e-01   -1,583059728e-01   -6,084488630e-01    0,000000000e+00    0,000000000e+00    0,000000000e+00    0,000000000e+00
     1388000000   -2,136250734e-01    1,379081607e-01   -3,966364861e-01   -3,727224171e-01    0,000000000e+00    0,000000000e+00    0,000000000e+00    0,000000000e+00
     1402000000   -1,525062174e-01    1,327486187e-01   -4,752485156e-01   -6,625740975e-02    0,000000000e+00    0,000000000e+00    0,000000000e+00    0,000000000e+00
     1416000000   -9,428787977e-02    1,169787943e-01   -3,767780960e-01    2,360624075e-01    0,000000000e+00    0,000000000e+00    0,000000000e+00    0,000000000e+00
     1430000000   -5,295700580e-02    7,401627302e-02   -1,226208359e-01    4,630220830e-01    0,000000000e+00    0,000000000e+00    0,000000000e+00    0,000000000e+00
     1444000000   -4,233149067e-02    5,351875909e-03    1,615703404e-01    5,362596512e-01    0,000000000e+00    0,000000000e+00    0,000000000e+00    0,000000000e+00
     1458000000   -6,205114722e-02   -7,088533044e-02    4,859470427e-01    4,787032008e-01    0,000000000e+00    0,000000000e+00    0,000000000e+00    0,000000000e+00
     1472000000   -1,347681582e-01   -1,282713860e-01    7,558256388e-01    2,523715496e-01    0,000000000e+00    0,000000000e+00    0,000000000e+00    0,000000000e+00
     1486000000   -2,376127541e-01   -1,145548075e-01    8,741376400e-01   -7,681591064e-02    0,000000000e+00    0,000000000e+00    0,000000000e+00    0,000000000e+00
     1500000000   -2,803386152e-01   -5,319839716e-02    8,027956486e-01   -4,567169249e-01    0,000000000e+00    0,000000000e+00    0,000000000e+00    0,000000000e+00
