! NanoVNA-App
! Date: 2025-09-25 15:10:50
! Start: 100MHz Stop: 1,5GHz Points: 101
! S-Parameter data: F S11 S21 S12 S22
# Hz S RI R 50
!     Frequency           S11_Real           S11_Imag           S21_Real           S21_Imag           S12_Real           S12_Imag           S22_Real           S22_Imag
      100000000    3,116388246e-02    2,865398489e-02    4,349440634e-01   -6,685861945e-01    0,000000000e+00    0,000000000e+00    0,000000000e+00    0,000000000e+00
      114000000    5,760656297e-02    5,501923151e-03    7,693295367e-03   -7,909755707e-01    0,000000000e+00    0,000000000e+00    0,000000000e+00    0,000000000e+00
      128000000    6,723196059e-02   -3,784532472e-02   -4,101800323e-01   -6,710999608e-01    0,000000000e+00    0,000000000e+00    0,000000000e+00    0,000000000e+00
      142000000    4,471083730e-02   -8,422586322e-02   -7,029421329e-01   -3,533648252e-01    0,000000000e+00    0,000000000e+00    0,000000000e+00    0,000000000e+00
      156000000   -5,624619313e-03   -1,068345532e-01   -7,870711684e-01    7,390743494e-02    0,000000000e+00    0,000000000e+00    0,000000000e+00    0,000000000e+00
      170000000   -5,765853077e-02   -9,066110104e-02   -6,276167035e-01    4,869525135e-01    0,000000000e+00    0,000000000e+00    0,000000000e+00    0,000000000e+00
      184000000   -8,369471133e-02   -4,943876714e-02   -2,649089098e-01    7,511161566e-01    0,000000000e+00    0,000000000e+00    0,000000000e+00    0,000000000e+00
      198000000   -7,964056730e-02   -1,044194400e-02    1,833345741e-01    7,733393312e-01    0,000000000e+00    0,000000000e+00    0,000000000e+00    0,000000000e+00
      212000000   -6,227189675e-02    1,313740760e-02    5,687911510e-01    5,492777824e-01    0,000000000e+00    0,000000000e+00    0,000000000e+00    0,000000000e+00
      226000000   -4,324602708e-02    2,767077088e-02    7,705801129e-01    1,545905322e-01    0,000000000e+00    0,000000000e+00    0,000000000e+00    0,000000000e+00
      240000000   -1,819086261e-02    3,852791339e-02    7,267959118e-01   -2,819368243e-01    0,000000000e+00    0,000000000e+00    0,000000000e+00    0,000000000e+00
      254000000    1,716936007e-02    3,517949209e-02    4,577307403e-01   -6,197758913e-01    0,000000000e+00    0,000000000e+00    0,000000000e+00    0,000000000e+00
      268000000    4,873883724e-02    5,587766413e-03    5,867003649e-02   -7,601659894e-01    0,000000000e+00    0,000000000e+00    0,000000000e+00    0,000000000e+00
      282000000    5,349175632e-02   -4,171793908e-02   -3,490146399e-01   -6,718842387e-01    0,000000000e+00    0,000000000e+00    0,000000000e+00    0,000000000e+00
      296000000    2,401159890e-02   -7,947705686e-02   -6,519716978e-01   -3,853850961e-01    0,000000000e+00    0,000000000e+00    0,000000000e+00    0,000000000e+00
      310000000   -1,808016002e-02   -8,317767084e-02   -7,632094622e-01    1,910517551e-02    0,000000000e+00    0,000000000e+00    0,000000000e+00    0,000000000e+00
      324000000   -4,165779054e-02   -5,884857476e-02   -6,326361895e-01    4,310328662e-01    0,000000000e+00    0,000000000e+00    0,000000000e+00    0,000000000e+00
      338000000   -3,445555642e-02   -3,682510182e-02   -2,968682349e-01    6,993291378e-01    0,000000000e+00    0,000000000e+00    0,000000000e+00    0,000000000e+00
      352000000   -1,733225770e-02   -4,077164084e-02    1,259373426e-01    7,426592708e-01    0,000000000e+00    0,000000000e+00    0,000000000e+00    0,000000000e+00
      366000000   -1,922144927e-02   -6,159118935e-02    4,984982014e-01    5,559251904e-01    0,000000000e+00    0,000000000e+00    0,000000000e+00    0,000000000e+00
      380000000   -4,439344630e-02   -7,255964726e-02    7,131605148e-01    2,001021057e-01    0,000000000e+00    0,000000000e+00    0,000000000e+00    0,000000000e+00
      394000000   -7,085824013e-02   -5,813212320e-02    7,043222189e-01   -2,167206556e-01    0,000000000e+00    0,000000000e+00    0,000000000e+00    0,000000000e+00
      408000000   -7,709884644e-02   -3,035468608e-02    4,710374773e-01   -5,600418448e-01    0,000000000e+00    0,000000000e+00    0,000000000e+00    0,000000000e+00
      422000000   -6,531878561e-02   -1,114433818e-02    9,303743392e-02   -7,170296311e-01    0,000000000e+00    0,000000000e+00    0,000000000e+00    0,000000000e+00
      436000000   -5,292073265e-02   -4,170846194e-03   -3,019812703e-01   -6,471816897e-01    0,000000000e+00    0,000000000e+00    0,000000000e+00    0,000000000e+00
      450000000   -4,466726258e-02    1,449675066e-03   -5,932906866e-01   -3,777720630e-01    0,000000000e+00    0,000000000e+00    0,000000000e+00    0,000000000e+00
      464000000   -2,967502363e-02    1,136420947e-02   -6,916866899e-01    2,775455687e-05    0,000000000e+00    0,000000000e+00    0,000000000e+00    0,000000000e+00
      478000000   -1,453802688e-03    1,125677396e-02   -5,740635395e-01    3,636970222e-01    0,000000000e+00    0,000000000e+00    0,000000000e+00    0,000000000e+00
      492000000    2,800870687e-02   -1,219585631e-02   -2,898791134e-01    6,015796065e-01    0,000000000e+00    0,000000000e+00    0,000000000e+00    0,000000000e+00
      506000000    3,616985306e-02   -5,573518947e-02    6,912020594e-02    6,584041715e-01    0,000000000e+00    0,000000000e+00    0,000000000e+00    0,000000000e+00
      520000000    1,202104799e-02   -9,888531268e-02    4,037082195e-01    5,222471952e-01    0,000000000e+00    0,000000000e+00    0,000000000e+00    0,000000000e+00
      534000000   -3,429139033e-02   -1,158622950e-01    6,244795918e-01    2,364500910e-01    0,000000000e+00    0,000000000e+00    0,000000000e+00    0,000000000e+00
      548000000   -7,756669074e-02   -9,896901995e-02    6,576184034e-01   -1,332155466e-01    0,000000000e+00    0,000000000e+00    0,000000000e+00    0,000000000e+00
      562000000   -9,364887327e-02   -6,600018591e-02    4,819071591e-01   -4,661096334e-01    0,000000000e+00    0,000000000e+00    0,000000000e+00    0,000000000e+00
      576000000   -8,587176353e-02   -4,427707568e-02    1,501952410e-01   -6,483880281e-01    0,000000000e+00    0,000000000e+00    0,000000000e+00    0,000000000e+00
      590000000   -8,075018227e-02   -4,177809134e-02   -2,167505771e-01   -6,280922890e-01    0,000000000e+00    0,000000000e+00    0,000000000e+00    0,000000000e+00
      604000000   -8,864562958e-02   -3,708970919e-02   -5,188674331e-01   -4,065012634e-01    0,000000000e+00    0,000000000e+00    0,000000000e+00    0,000000000e+00
      618000000   -9,688454866e-02   -1,535067242e-02   -6,533735394e-01   -5,816610903e-02    0,000000000e+00    0,000000000e+00    0,000000000e+00    0,000000000e+00
      632000000   -8,156815916e-02    1,471127383e-02   -5,752210617e-01    3,024906218e-01    0,000000000e+00    0,000000000e+00    0,000000000e+00    0,000000000e+00
      646000000   -4,328741878e-02    2,673273347e-02   -3,192870319e-01    5,559383035e-01    0,000000000e+00    0,000000000e+00    0,000000000e+00    0,000000000e+00
      660000000   -7,062393241e-03    6,118946709e-03    2,190552838e-02    6,290688515e-01    0,000000000e+00    0,000000000e+00    0,000000000e+00    0,000000000e+00
      674000000    1,286812709e-03   -2,954637818e-02    3,430037796e-01    5,191571712e-01    0,000000000e+00    0,000000000e+00    0,000000000e+00    0,000000000e+00
      688000000   -1,477418561e-02   -5,480192229e-02    5,586677194e-01    2,588235736e-01    0,000000000e+00    0,000000000e+00    0,000000000e+00    0,000000000e+00
      702000000   -3,279008344e-02   -6,005292758e-02    6,055479050e-01   -8,073391765e-02    0,000000000e+00    0,000000000e+00    0,000000000e+00    0,000000000e+00
      716000000   -3,774154186e-02   -5,551132560e-02    4,592081904e-01   -3,895056248e-01    0,000000000e+00    0,000000000e+00    0,000000000e+00    0,000000000e+00
      730000000   -3,126585856e-02   -6,473104656e-02    1,736835986e-01   -5,661879182e-01    0,000000000e+00    0,000000000e+00    0,000000000e+00    0,000000000e+00
      744000000   -4,088505730e-02   -8,869380504e-02   -1,526731104e-01   -5,635765791e-01    0,000000000e+00    0,000000000e+00    0,000000000e+00    0,000000000e+00
      758000000   -7,251954079e-02   -1,043581292e-01   -4,267444313e-01   -3,944840133e-01    0,000000000e+00    0,000000000e+00    0,000000000e+00    0,000000000e+00
      772000000   -1,132474020e-01   -9,405337274e-02   -5,740748048e-01   -1,060661823e-01    0,000000000e+00    0,000000000e+00    0,000000000e+00    0,000000000e+00
      786000000   -1,392223984e-01   -5,599806458e-02   -5,444288850e-01    2,203408033e-01    0,000000000e+00    0,000000000e+00    0,000000000e+00    0,000000000e+00
      800000000   -1,324880719e-01   -1,435478497e-02   -3,421202302e-01    4,792906940e-01    0,000000000e+00    0,000000000e+00    0,000000000e+00    0,000000000e+00
      814000000   -1,078411043e-01    8,877755143e-03   -3,520961851e-02    5,851075649e-01    0,000000000e+00    0,000000000e+00    0,000000000e+00    0,000000000e+00
      828000000   -8,546351641e-02    1,302346401e-02    2,782521844e-01    5,143023729e-01    0,000000000e+00    0,000000000e+00    0,000000000e+00    0,000000000e+00
      842000000   -7,023525983e-02    1,519751083e-02    5,024510026e-01    2,901072800e-01    0,000000000e+00    0,000000000e+00    0,000000000e+00    0,000000000e+00
      856000000   -5,262495950e-02    1,919163018e-02    5,709655881e-01   -1,733835973e-02    0,000000000e+00    0,000000000e+00    0,000000000e+00    0,000000000e+00
      870000000   -2,278234810e-02    1,436715573e-02    4,641007483e-01   -3,073116541e-01    0,000000000e+00    0,000000000e+00    0,000000000e+00    0,000000000e+00
      884000000    6,371334195e-03   -1,400248427e-02    2,309161127e-01   -4,875735044e-01    0,000000000e+00    0,000000000e+00    0,000000000e+00    0,000000000e+00
      898000000    1,202913653e-02   -6,354858726e-02   -5,245720223e-02   -5,264993906e-01    0,000000000e+00    0,000000000e+00    0,000000000e+00    0,000000000e+00
      912000000   -2,351771668e-02   -1,087363660e-01   -3,680454791e-01   -4,002946615e-01    0,000000000e+00    0,000000000e+00    0,000000000e+00    0,000000000e+00
      926000000   -7,396970689e-02   -1,220595539e-01   -5,307510495e-01   -1,575763226e-01    0,000000000e+00    0,000000000e+00    0,000000000e+00    0,000000000e+00
      940000000   -1,237447262e-01   -1,044420451e-01   -5,516400933e-01    1,545879543e-01    0,000000000e+00    0,000000000e+00    0,000000000e+00    0,000000000e+00
      954000000   -1,397707015e-01   -6,324846298e-02   -3,899850547e-01    4,443452656e-01    0,000000000e+00    0,000000000e+00    0,000000000e+00    0,000000000e+00
      968000000   -1,330140084e-01   -2,792960964e-02   -9,154617041e-02    6,018126607e-01    0,000000000e+00    0,000000000e+00    0,000000000e+00    0,000000000e+00
      982000000   -1,129108444e-01   -1,416697446e-02    2,450442612e-01    5,714179873e-01    0,000000000e+00    0,000000000e+00    0,000000000e+00    0,000000000e+00
      996000000   -1,069037840e-01   -1,601937413e-02    5,130208731e-01    3,670322597e-01    0,000000000e+00    0,000000000e+00    0,000000000e+00    0,000000000e+00
     1010000000   -1,035724953e-01   -4,639171530e-03    6,283202171e-01    5,258015916e-02    0,000000000e+00    0,000000000e+00    0,000000000e+00    0,000000000e+00
     1024000000   -9,458782524e-02    2,071567345e-03    5,598809123e-01   -2,699195743e-01    0,000000000e+00    0,000000000e+00    0,000000000e+00    0,000000000e+00
     1038000000   -7,787232846e-02   -1,197642996e-03    3,400569558e-01   -5,029028058e-01    0,000000000e+00    0,000000000e+00    0,000000000e+00    0,000000000e+00
     1052000000   -6,598465890e-02   -1,328727044e-02    3,357016295e-02   -5,871008635e-01    0,000000000e+00    0,000000000e+00    0,000000000e+00    0,000000000e+00
     1066000000   -7,094304264e-02   -2,756641805e-02   -2,644363046e-01   -4,991126955e-01    0,000000000e+00    0,000000000e+00    0,000000000e+00    0,000000000e+00
     1080000000   -7,935539633e-02   -2,950547449e-02   -4,799542427e-01   -2,696527839e-01    0,000000000e+00    0,000000000e+00    0,000000000e+00    0,000000000e+00
     1094000000   -7,785994560e-02   -1,473755203e-02   -5,311860442e-01    3,861156106e-02    0,000000000e+00    0,000000000e+00    0,000000000e+00    0,000000000e+00
     1108000000   -5,768136308e-02   -9,170425124e-03   -3,993108571e-01    3,221714497e-01    0,000000000e+00    0,000000000e+00    0,000000000e+00    0,000000000e+00
     1122000000   -3,478293493e-02   -3,474036977e-02   -1,371932179e-01    4,815606475e-01    0,000000000e+00    0,000000000e+00    0,000000000e+00    0,000000000e+00
     1136000000   -2,961560339e-02   -8,732960373e-02    1,612273008e-01    4,778883457e-01    0,000000000e+00    0,000000000e+00    0,000000000e+00    0,000000000e+00
     1150000000   -6,514222920e-02   -1,377826333e-01    4,187972844e-01    3,140631020e-01    0,000000000e+00    0,000000000e+00    0,000000000e+00    0,000000000e+00
     1164000000   -1,359026283e-01   -1,493620127e-01    5,608997345e-01    3,063710406e-02    0,000000000e+00    0,000000000e+00    0,000000000e+00    0,000000000e+00
     1178000000   -2,137106210e-01   -1,148730591e-01    5,325106978e-01   -3,153324723e-01    0,000000000e+00    0,000000000e+00    0,000000000e+00    0,000000000e+00
     1192000000   -2,519257367e-01   -4,338077828e-02    2,903916240e-01   -5,980232954e-01    0,000000000e+00    0,000000000e+00    0,000000000e+00    0,000000000e+00
     1206000000   -2,341974080e-01    3,536425903e-02   -6,568485498e-02   -6,947811246e-01    0,000000000e+00    0,000000000e+00    0,000000000e+00    0,000000000e+00
     1220000000   -1,822520941e-01    8,188726753e-02   -4,197483957e-01   -5,820875168e-01    0,000000000e+00    0,000000000e+00    0,000000000e+00    0,000000000e+00
     1234000000   -1,278868914e-01    1,024712250e-01   -6,442687511e-01   -2,909274697e-01    0,000000000e+00    0,000000000e+00    0,000000000e+00    0,000000000e+00
     1248000000   -6,802890450e-02    1,014534831e-01   -6,770845652e-01    6,509714574e-02    0,000000000e+00    0,000000000e+00    0,000000000e+00    0,000000000e+00
     1262000000   -9,551718831e-03    6,216846034e-02   -5,210245252e-01    3,705414832e-01    0,000000000e+00    0,000000000e+00    0,000000000e+00    0,000000000e+00
     1276000000    2,175188065e-02   -5,267594010e-03   -2,469378561e-01    5,475593805e-01    0,000000000e+00    0,000000000e+00    0,000000000e+00    0,000000000e+00
     1290000000    2,148867212e-02   -8,671886474e-02    6,965622306e-02    5,805232525e-01    0,000000000e+00    0,000000000e+00    0,000000000e+00    0,000000000e+00
     1304000000   -3,137889504e-02   -1,694941819e-01    3,610542417e-01    4,689042866e-01    0,000000000e+00    0,000000000e+00    0,000000000e+00    0,000000000e+00
     1318000000   -1,395038962e-01   -2,131529897e-01    5,835673213e-01    2,185390443e-01    0,000000000e+00    0,000000000e+00    0,000000000e+00    0,000000000e+00
     1332000000   -2,520024180e-01   -1,878589988e-01    6,567749977e-01   -1,219646931e-01    0,000000000e+00    0,000000000e+00    0,000000000e+00    0,000000000e+00
     1346000000   -3,322025537e-01   -9,219373763e-02    5,129054785e-01   -4,608939588e-01    0,000000000e+00    0,000000000e+00    0,000000000e+00    0,000000000e+00
     1360000000   -3,317820132e-01    2,336155809e-02    1,899906546e-01   -6,437329054e-01    0,000000000e+00    0,000000000e+00    0,000000000e+00    0,000000000e+00
     1374000000   -2,776375413e-01    9,836205840e-02   -1,570076644e-01   -6,073063016e-01    0,000000000e+00    0,000000000e+00    0,000000000e+00    0,000000000e+00
     1388000000   -2,104320228e-01    1,406641006e-01   -4,001436532e-01   -3,773750067e-01    0,000000000e+00    0,000000000e+00    0,000000000e+00    0,000000000e+00
     1402000000   -1,490666270e-01    1,385812163e-01   -4,801691473e-01   -5,185532570e-02    0,000000000e+00    0,000000000e+00    0,000000000e+00    0,000000000e+00
     1416000000   -9,706646204e-02    1,184925288e-01   -3,767983019e-01    2,535825372e-01    0,000000000e+00    0,000000000e+00    0,000000000e+00    0,000000000e+00
     1430000000   -5,025964230e-02    6,832303107e-02   -1,466184556e-01    4,664732218e-01    0,000000000e+00    0,000000000e+00    0,000000000e+00    0,000000000e+00
     1444000000   -3,626984358e-02    2,274227591e-04    1,540676206e-01    5,311949849e-01    0,000000000e+00    0,000000000e+00    0,000000000e+00    0,000000000e+00
     1458000000   -6,782110035e-02   -7,173859328e-02    4,821539223e-01    4,663101137e-01    0,000000000e+00    0,000000000e+00    0,000000000e+00    0,000000000e+00
     1472000000   -1,407878697e-01   -1,260453612e-01    7,473435998e-01    2,696982324e-01    0,000000000e+00    0,000000000e+00    0,000000000e+00    0,000000000e+00
     1486000000   -2,358386070e-01   -1,136012524e-01    9,028334022e-01   -7,959050685e-02    0,000000000e+00    0,000000000e+00    0,000000000e+00    0,000000000e+00
     1500000000   -2,866617739e-01   -4,160040617e-02    8,218551874e-01   -4,393518865e-01    0,000000000e+00    0,000000000e+00    0,000000000e+00    0,000000000e+00
