! NanoVNA-App
! Date: 2025-09-25 15:06:37
! Start: 100MHz Stop: 1,5GHz Points: 101
! S-Parameter data: F S11 S21 S12 S22
# Hz S RI R 50
!     Frequency           S11_Real           S11_Imag           S21_Real           S21_Imag           S12_Real           S12_Imag           S22_Real           S22_Imag
      100000000    3,114551306e-02    2,865803242e-02    4,348446131e-01   -6,686363816e-01    0,000000000e+00    0,000000000e+00    0,000000000e+00    0,000000000e+00
      114000000    5,760076642e-02    5,514711607e-03    7,673990913e-03   -7,909821272e-01    0,000000000e+00    0,000000000e+00    0,000000000e+00    0,000000000e+00
      128000000    6,726066768e-02   -3,778002784e-02   -4,104297161e-01   -6,711751223e-01    0,000000000e+00    0,000000000e+00    0,000000000e+00    0,000000000e+00
      142000000    4,473134875e-02   -8,418259770e-02   -7,030125856e-01   -3,533408940e-01    0,000000000e+00    0,000000000e+00    0,000000000e+00    0,000000000e+00
      156000000   -5,898199975e-03   -1,064847112e-01   -7,862289548e-01    7,371664792e-02    0,000000000e+00    0,000000000e+00    0,000000000e+00    0,000000000e+00
      170000000   -5,768290162e-02   -9,064298123e-02   -6,274366975e-01    4,871083200e-01    0,000000000e+00    0,000000000e+00    0,000000000e+00    0,000000000e+00
      184000000   -8,369872719e-02   -4,951564595e-02   -2,649156451e-01    7,511301637e-01    0,000000000e+00    0,000000000e+00    0,000000000e+00    0,000000000e+00
      198000000   -7,963720709e-02   -1,050703321e-02    1,834599376e-01    7,730094194e-01    0,000000000e+00    0,000000000e+00    0,000000000e+00    0,000000000e+00
      212000000   -6,229075044e-02    1,313419454e-02    5,691578984e-01    5,490061641e-01    0,000000000e+00    0,000000000e+00    0,000000000e+00    0,000000000e+00
      226000000   -4,328866675e-02    2,775068395e-02    7,707163095e-01    1,544564068e-01    0,000000000e+00    0,000000000e+00    0,000000000e+00    0,000000000e+00
      240000000   -1,824353263e-02    3,853167966e-02    7,268061638e-01   -2,819273174e-01    0,000000000e+00    0,000000000e+00    0,000000000e+00    0,000000000e+00
      254000000    1,719315350e-02    3,517995775e-02    4,581197798e-01   -6,201889515e-01    0,000000000e+00    0,000000000e+00    0,000000000e+00    0,000000000e+00
      268000000    4,876051843e-02    5,606737453e-03    5,866712704e-02   -7,602118254e-01    0,000000000e+00    0,000000000e+00    0,000000000e+00    0,000000000e+00
      282000000    5,341716111e-02   -4,178003222e-02   -3,491159976e-01   -6,712896824e-01    0,000000000e+00    0,000000000e+00    0,000000000e+00    0,000000000e+00
      296000000    2,398382500e-02   -7,955267280e-02   -6,516124010e-01   -3,855443299e-01    0,000000000e+00    0,000000000e+00    0,000000000e+00    0,000000000e+00
      310000000   -1,781269349e-02   -8,332675695e-02   -7,628419399e-01    1,928676479e-02    0,000000000e+00    0,000000000e+00    0,000000000e+00    0,000000000e+00
      324000000   -4,165590927e-02   -5,876145512e-02   -6,316933632e-01    4,311337173e-01    0,000000000e+00    0,000000000e+00    0,000000000e+00    0,000000000e+00
      338000000   -3,425440937e-02   -3,666494042e-02   -2,951216996e-01    6,987070441e-01    0,000000000e+00    0,000000000e+00    0,000000000e+00    0,000000000e+00
      352000000   -1,751160808e-02   -4,072298482e-02    1,255067885e-01    7,423486114e-01    0,000000000e+00    0,000000000e+00    0,000000000e+00    0,000000000e+00
      366000000   -1,915368997e-02   -6,186034903e-02    4,972290397e-01    5,554960966e-01    0,000000000e+00    0,000000000e+00    0,000000000e+00    0,000000000e+00
      380000000   -4,444793612e-02   -7,269728929e-02    7,129849792e-01    1,997304708e-01    0,000000000e+00    0,000000000e+00    0,000000000e+00    0,000000000e+00
      394000000   -7,082666457e-02   -5,790712312e-02    7,040622830e-01   -2,164528817e-01    0,000000000e+00    0,000000000e+00    0,000000000e+00    0,000000000e+00
      408000000   -7,689257711e-02   -3,054902889e-02    4,706257880e-01   -5,605040789e-01    0,000000000e+00    0,000000000e+00    0,000000000e+00    0,000000000e+00
      422000000   -6,543856859e-02   -1,126148459e-02    9,384489805e-02   -7,180283666e-01    0,000000000e+00    0,000000000e+00    0,000000000e+00    0,000000000e+00
      436000000   -5,294690281e-02   -4,484615289e-03   -3,022097647e-01   -6,465928555e-01    0,000000000e+00    0,000000000e+00    0,000000000e+00    0,000000000e+00
      450000000   -4,490024969e-02    1,593702240e-03   -5,937991142e-01   -3,782488704e-01    0,000000000e+00    0,000000000e+00    0,000000000e+00    0,000000000e+00
      464000000   -2,964667790e-02    1,119756978e-02   -6,912811399e-01   -1,923300879e-04    0,000000000e+00    0,000000000e+00    0,000000000e+00    0,000000000e+00
      478000000   -1,271122834e-03    1,093224622e-02   -5,726887584e-01    3,634747863e-01    0,000000000e+00    0,000000000e+00    0,000000000e+00    0,000000000e+00
      492000000    2,816044167e-02   -1,214153413e-02   -2,888362706e-01    6,017451882e-01    0,000000000e+00    0,000000000e+00    0,000000000e+00    0,000000000e+00
      506000000    3,647021204e-02   -5,553436279e-02    6,940793991e-02    6,586765051e-01    0,000000000e+00    0,000000000e+00    0,000000000e+00    0,000000000e+00
      520000000    1,229558140e-02   -9,947668016e-02    4,053001404e-01    5,236060023e-01    0,000000000e+00    0,000000000e+00    0,000000000e+00    0,000000000e+00
      534000000   -3,456569463e-02   -1,162185445e-01    6,238030195e-01    2,361608148e-01    0,000000000e+00    0,000000000e+00    0,000000000e+00    0,000000000e+00
      548000000   -7,731036097e-02   -9,917730838e-02    6,584268212e-01   -1,333208233e-01    0,000000000e+00    0,000000000e+00    0,000000000e+00    0,000000000e+00
      562000000   -9,349203855e-02   -6,586837769e-02    4,817536771e-01   -4,664872885e-01    0,000000000e+00    0,000000000e+00    0,000000000e+00    0,000000000e+00
      576000000   -8,593177795e-02   -4,470141605e-02    1,502753943e-01   -6,482111216e-01    0,000000000e+00    0,000000000e+00    0,000000000e+00    0,000000000e+00
      590000000   -8,075569570e-02   -4,173811898e-02   -2,188287228e-01   -6,281030774e-01    0,000000000e+00    0,000000000e+00    0,000000000e+00    0,000000000e+00
      604000000   -8,874902129e-02   -3,725885600e-02   -5,190042853e-01   -4,061369598e-01    0,000000000e+00    0,000000000e+00    0,000000000e+00    0,000000000e+00
      618000000   -9,605166316e-02   -1,472791191e-02   -6,528486609e-01   -5,838661268e-02    0,000000000e+00    0,000000000e+00    0,000000000e+00    0,000000000e+00
      632000000   -8,107841760e-02    1,460717991e-02   -5,748946071e-01    3,024094999e-01    0,000000000e+00    0,000000000e+00    0,000000000e+00    0,000000000e+00
      646000000   -4,307565093e-02    2,652410418e-02   -3,185512424e-01    5,562468171e-01    0,000000000e+00    0,000000000e+00    0,000000000e+00    0,000000000e+00
      660000000   -7,328514475e-03    6,393671036e-03    2,197105251e-02    6,283072233e-01    0,000000000e+00    0,000000000e+00    0,000000000e+00    0,000000000e+00
      674000000    5,762749934e-04   -2,966063283e-02    3,425911069e-01    5,189219117e-01    0,000000000e+00    0,000000000e+00    0,000000000e+00    0,000000000e+00
      688000000   -1,524793636e-02   -5,603303760e-02    5,587393641e-01    2,582347095e-01    0,000000000e+00    0,000000000e+00    0,000000000e+00    0,000000000e+00
      702000000   -3,360757977e-02   -5,948728323e-02    6,020994782e-01   -7,834678888e-02    0,000000000e+00    0,000000000e+00    0,000000000e+00    0,000000000e+00
      716000000   -3,769468516e-02   -5,554641038e-02    4,586790502e-01   -3,898315430e-01    0,000000000e+00    0,000000000e+00    0,000000000e+00    0,000000000e+00
      730000000   -3,215598315e-02   -6,544766575e-02    1,735501736e-01   -5,665259957e-01    0,000000000e+00    0,000000000e+00    0,000000000e+00    0,000000000e+00
      744000000   -3,991410881e-02   -8,863578737e-02   -1,530200094e-01   -5,640606284e-01    0,000000000e+00    0,000000000e+00    0,000000000e+00    0,000000000e+00
      758000000   -7,237179577e-02   -1,051575914e-01   -4,268791676e-01   -3,938972652e-01    0,000000000e+00    0,000000000e+00    0,000000000e+00    0,000000000e+00
      772000000   -1,140431017e-01   -9,447412938e-02   -5,741916895e-01   -1,056614742e-01    0,000000000e+00    0,000000000e+00    0,000000000e+00    0,000000000e+00
      786000000   -1,387936473e-01   -5,684494600e-02   -5,450034142e-01    2,207152098e-01    0,000000000e+00    0,000000000e+00    0,000000000e+00    0,000000000e+00
      800000000   -1,324183047e-01   -1,499333791e-02   -3,426368237e-01    4,807398021e-01    0,000000000e+00    0,000000000e+00    0,000000000e+00    0,000000000e+00
      814000000   -1,086373627e-01    8,141499013e-03   -3,442021087e-02    5,853647590e-01    0,000000000e+00    0,000000000e+00    0,000000000e+00    0,000000000e+00
      828000000   -8,517160267e-02    1,301242411e-02    2,785835862e-01    5,136861205e-01    0,000000000e+00    0,000000000e+00    0,000000000e+00    0,000000000e+00
      842000000   -7,036159188e-02    1,515111979e-02    5,025467277e-01    2,893366218e-01    0,000000000e+00    0,000000000e+00    0,000000000e+00    0,000000000e+00
      856000000   -5,280211195e-02    1,882100478e-02    5,705505013e-01   -1,853556931e-02    0,000000000e+00    0,000000000e+00    0,000000000e+00    0,000000000e+00
      870000000   -2,288664132e-02    1,437122654e-02    4,638311565e-01   -3,069587946e-01    0,000000000e+00    0,000000000e+00    0,000000000e+00    0,000000000e+00
      884000000    6,704487838e-03   -1,411524229e-02    2,305825651e-01   -4,875074029e-01    0,000000000e+00    0,000000000e+00    0,000000000e+00    0,000000000e+00
      898000000    1,209399011e-02   -6,397344917e-02   -5,230684578e-02   -5,259444714e-01    0,000000000e+00    0,000000000e+00    0,000000000e+00    0,000000000e+00
      912000000   -2,292413265e-02   -1,081310511e-01   -3,593523502e-01   -3,943099678e-01    0,000000000e+00    0,000000000e+00    0,000000000e+00    0,000000000e+00
      926000000   -7,751378417e-02   -1,229712591e-01   -5,309916139e-01   -1,579568088e-01    0,000000000e+00    0,000000000e+00    0,000000000e+00    0,000000000e+00
      940000000   -1,260631979e-01   -1,031669453e-01   -5,518380404e-01    1,549753398e-01    0,000000000e+00    0,000000000e+00    0,000000000e+00    0,000000000e+00
      954000000   -1,405291408e-01   -5,815193430e-02   -3,908738792e-01    4,463486075e-01    0,000000000e+00    0,000000000e+00    0,000000000e+00    0,000000000e+00
      968000000   -1,303528696e-01   -2,924646623e-02   -9,073141962e-02    6,047565341e-01    0,000000000e+00    0,000000000e+00    0,000000000e+00    0,000000000e+00
      982000000   -1,167387068e-01   -1,647344790e-02    2,457945347e-01    5,711181760e-01    0,000000000e+00    0,000000000e+00    0,000000000e+00    0,000000000e+00
      996000000   -1,053029969e-01   -1,054633036e-02    5,126609206e-01    3,661210537e-01    0,000000000e+00    0,000000000e+00    0,000000000e+00    0,000000000e+00
     1010000000   -1,000784412e-01   -8,387023583e-03    6,286478043e-01    5,147946626e-02    0,000000000e+00    0,000000000e+00    0,000000000e+00    0,000000000e+00
     1024000000   -9,018795937e-02    2,022347879e-03    5,619416833e-01   -2,711130381e-01    0,000000000e+00    0,000000000e+00    0,000000000e+00    0,000000000e+00
     1038000000   -7,670192420e-02    1,487867208e-03    3,369673193e-01   -5,027257800e-01    0,000000000e+00    0,000000000e+00    0,000000000e+00    0,000000000e+00
     1052000000   -6,319720298e-02   -1,515024900e-02    3,422064334e-02   -5,857840776e-01    0,000000000e+00    0,000000000e+00    0,000000000e+00    0,000000000e+00
     1066000000   -6,899507344e-02   -2,808720618e-02   -2,723526359e-01   -4,991753399e-01    0,000000000e+00    0,000000000e+00    0,000000000e+00    0,000000000e+00
     1080000000   -8,349199593e-02   -2,924435772e-02   -4,792561531e-01   -2,695647180e-01    0,000000000e+00    0,000000000e+00    0,000000000e+00    0,000000000e+00
     1094000000   -8,423792571e-02   -1,741839573e-02   -5,312421918e-01    4,377826676e-02    0,000000000e+00    0,000000000e+00    0,000000000e+00    0,000000000e+00
     1108000000   -5,825792253e-02   -1,617910527e-02   -3,979800940e-01    3,265914023e-01    0,000000000e+00    0,000000000e+00    0,000000000e+00    0,000000000e+00
     1122000000   -3,280364349e-02   -3,405084088e-02   -1,361377835e-01    4,810945690e-01    0,000000000e+00    0,000000000e+00    0,000000000e+00    0,000000000e+00
     1136000000   -2,878059447e-02   -8,747848123e-02    1,615944505e-01    4,760647714e-01    0,000000000e+00    0,000000000e+00    0,000000000e+00    0,000000000e+00
     1150000000   -6,670372933e-02   -1,343415976e-01    4,187131822e-01    3,099988997e-01    0,000000000e+00    0,000000000e+00    0,000000000e+00    0,000000000e+00
     1164000000   -1,398453563e-01   -1,561916620e-01    5,626462102e-01    2,558228187e-02    0,000000000e+00    0,000000000e+00    0,000000000e+00    0,000000000e+00
     1178000000   -2,125071436e-01   -1,146913692e-01    5,300678015e-01   -3,163603246e-01    0,000000000e+00    0,000000000e+00    0,000000000e+00    0,000000000e+00
     1192000000   -2,517054081e-01   -4,045652226e-02    2,955045998e-01   -5,970615745e-01    0,000000000e+00    0,000000000e+00    0,000000000e+00    0,000000000e+00
     1206000000   -2,323078215e-01    3,694198653e-02   -6,533195078e-02   -6,953397393e-01    0,000000000e+00    0,000000000e+00    0,000000000e+00    0,000000000e+00
     1220000000   -1,846516132e-01    8,149223775e-02   -4,190192819e-01   -5,796153545e-01    0,000000000e+00    0,000000000e+00    0,000000000e+00    0,000000000e+00
     1234000000   -1,241301447e-01    9,906524420e-02   -6,408782005e-01   -2,894636989e-01    0,000000000e+00    0,000000000e+00    0,000000000e+00    0,000000000e+00
     1248000000   -6,888408959e-02    9,766843170e-02   -6,746793389e-01    6,763808429e-02    0,000000000e+00    0,000000000e+00    0,000000000e+00    0,000000000e+00
     1262000000   -1,381127629e-02    5,993895233e-02   -5,198198557e-01    3,688652813e-01    0,000000000e+00    0,000000000e+00    0,000000000e+00    0,000000000e+00
     1276000000    2,511986159e-02    6,533332635e-04   -2,421692312e-01    5,503318906e-01    0,000000000e+00    0,000000000e+00    0,000000000e+00    0,000000000e+00
     1290000000    2,452122793e-02   -8,867438138e-02    7,310832292e-02    5,749119520e-01    0,000000000e+00    0,000000000e+00    0,000000000e+00    0,000000000e+00
     1304000000   -3,428172320e-02   -1,695557386e-01    3,651818037e-01    4,646022022e-01    0,000000000e+00    0,000000000e+00    0,000000000e+00    0,000000000e+00
     1318000000   -1,299984306e-01   -2,152850628e-01    5,867753029e-01    2,164012343e-01    0,000000000e+00    0,000000000e+00    0,000000000e+00    0,000000000e+00
     1332000000   -2,544429302e-01   -1,875886023e-01    6,556866765e-01   -1,281508803e-01    0,000000000e+00    0,000000000e+00    0,000000000e+00    0,000000000e+00
     1346000000   -3,346500099e-01   -9,572902322e-02    5,121485591e-01   -4,619445503e-01    0,000000000e+00    0,000000000e+00    0,000000000e+00    0,000000000e+00
     1360000000   -3,378645182e-01    2,741845325e-02    1,843908727e-01   -6,454164386e-01    0,000000000e+00    0,000000000e+00    0,000000000e+00    0,000000000e+00
     1374000000   -2,817838192e-01    1,035359204e-01   -1,658596098e-01   -6,028287411e-01    0,000000000e+00    0,000000000e+00    0,000000000e+00    0,000000000e+00
     1388000000   -2,101255953e-01    1,357459128e-01   -4,125123322e-01   -3,785661757e-01    0,000000000e+00    0,000000000e+00    0,000000000e+00    0,000000000e+00
     1402000000   -1,549807936e-01    1,416442990e-01   -4,792408049e-01   -5,521648750e-02    0,000000000e+00    0,000000000e+00    0,000000000e+00    0,000000000e+00
     1416000000   -9,694514424e-02    1,145312116e-01   -3,691394031e-01    2,343535423e-01    0,000000000e+00    0,000000000e+00    0,000000000e+00    0,000000000e+00
     1430000000   -4,687880352e-02    7,492077351e-02   -1,567646265e-01    4,514352381e-01    0,000000000e+00    0,000000000e+00    0,000000000e+00    0,000000000e+00
     1444000000   -4,102623463e-02    4,318377760e-04    1,597895324e-01    5,379565358e-01    0,000000000e+00    0,000000000e+00    0,000000000e+00    0,000000000e+00
     1458000000   -6,379169971e-02   -7,021450251e-02    4,935602546e-01    4,691217542e-01    0,000000000e+00    0,000000000e+00    0,000000000e+00    0,000000000e+00
     1472000000   -1,401229948e-01   -1,260713786e-01    7,527349591e-01    2,673874795e-01    0,000000000e+00    0,000000000e+00    0,000000000e+00    0,000000000e+00
     1486000000   -2,310657948e-01   -1,159205735e-01    8,878871799e-01   -8,801336586e-02    0,000000000e+00    0,000000000e+00    0,000000000e+00    0,000000000e+00
     1500000000   -2,793109715e-01   -4,656738788e-02    8,240776062e-01   -4,620368183e-01    0,000000000e+00    0,000000000e+00    0,000000000e+00    0,000000000e+00
