! NanoVNA-App
! Date: 2025-09-25 15:11:44
! Start: 100MHz Stop: 1,5GHz Points: 101
! S-Parameter data: F S11 S21 S12 S22
# Hz S RI R 50
!     Frequency           S11_Real           S11_Imag           S21_Real           S21_Imag           S12_Real           S12_Imag           S22_Real           S22_Imag
      100000000    3,114128299e-02    2,864076011e-02    4,348607659e-01   -6,685735583e-01    0,000000000e+00    0,000000000e+00    0,000000000e+00    0,000000000e+00
      114000000    5,758168548e-02    5,502139218e-03    7,728198543e-03   -7,910158634e-01    0,000000000e+00    0,000000000e+00    0,000000000e+00    0,000000000e+00
      128000000    6,727387011e-02   -3,785320744e-02   -4,102402329e-01   -6,711519957e-01    0,000000000e+00    0,000000000e+00    0,000000000e+00    0,000000000e+00
      142000000    4,470989481e-02   -8,420305699e-02   -7,028225064e-01   -3,531612158e-01    0,000000000e+00    0,000000000e+00    0,000000000e+00    0,000000000e+00
      156000000   -5,962855183e-03   -1,064776778e-01   -7,861226201e-01    7,367498428e-02    0,000000000e+00    0,000000000e+00    0,000000000e+00    0,000000000e+00
      170000000   -5,758877471e-02   -9,065084159e-02   -6,274863482e-01    4,868576229e-01    0,000000000e+00    0,000000000e+00    0,000000000e+00    0,000000000e+00
      184000000   -8,369293809e-02   -4,947355762e-02   -2,649381757e-01    7,511147857e-01    0,000000000e+00    0,000000000e+00    0,000000000e+00    0,000000000e+00
      198000000   -7,962766290e-02   -1,044349745e-02    1,832290590e-01    7,730202675e-01    0,000000000e+00    0,000000000e+00    0,000000000e+00    0,000000000e+00
      212000000   -6,229100749e-02    1,315007545e-02    5,691033602e-01    5,491126776e-01    0,000000000e+00    0,000000000e+00    0,000000000e+00    0,000000000e+00
      226000000   -4,326181486e-02    2,774324641e-02    7,706182599e-01    1,545828432e-01    0,000000000e+00    0,000000000e+00    0,000000000e+00    0,000000000e+00
      240000000   -1,822032966e-02    3,848940507e-02    7,268603444e-01   -2,816972136e-01    0,000000000e+00    0,000000000e+00    0,000000000e+00    0,000000000e+00
      254000000    1,720816642e-02    3,517900780e-02    4,578233659e-01   -6,201969385e-01    0,000000000e+00    0,000000000e+00    0,000000000e+00    0,000000000e+00
      268000000    4,876348004e-02    5,614932161e-03    5,863935873e-02   -7,609224319e-01    0,000000000e+00    0,000000000e+00    0,000000000e+00    0,000000000e+00
      282000000    5,349036306e-02   -4,171003401e-02   -3,490259051e-01   -6,721077561e-01    0,000000000e+00    0,000000000e+00    0,000000000e+00    0,000000000e+00
      296000000    2,402221411e-02   -7,951205969e-02   -6,518880725e-01   -3,854483664e-01    0,000000000e+00    0,000000000e+00    0,000000000e+00    0,000000000e+00
      310000000   -1,782272011e-02   -8,299060911e-02   -7,625169754e-01    2,076869830e-02    0,000000000e+00    0,000000000e+00    0,000000000e+00    0,000000000e+00
      324000000   -4,173611850e-02   -5,881470442e-02   -6,316615343e-01    4,313660562e-01    0,000000000e+00    0,000000000e+00    0,000000000e+00    0,000000000e+00
      338000000   -3,446335346e-02   -3,691653162e-02   -2,956106365e-01    6,983397007e-01    0,000000000e+00    0,000000000e+00    0,000000000e+00    0,000000000e+00
      352000000   -1,717445999e-02   -4,071597755e-02    1,254793555e-01    7,420418859e-01    0,000000000e+00    0,000000000e+00    0,000000000e+00    0,000000000e+00
      366000000   -1,921372861e-02   -6,200355291e-02    4,988018274e-01    5,549486279e-01    0,000000000e+00    0,000000000e+00    0,000000000e+00    0,000000000e+00
      380000000   -4,438255727e-02   -7,273861021e-02    7,135259509e-01    1,997061074e-01    0,000000000e+00    0,000000000e+00    0,000000000e+00    0,000000000e+00
      394000000   -7,085260749e-02   -5,793575570e-02    7,046120167e-01   -2,162298262e-01    0,000000000e+00    0,000000000e+00    0,000000000e+00    0,000000000e+00
      408000000   -7,691886276e-02   -3,017981350e-02    4,718214869e-01   -5,587468743e-01    0,000000000e+00    0,000000000e+00    0,000000000e+00    0,000000000e+00
      422000000   -6,533586979e-02   -1,090294402e-02    9,295120835e-02   -7,181408405e-01    0,000000000e+00    0,000000000e+00    0,000000000e+00    0,000000000e+00
      436000000   -5,293897912e-02   -4,519409034e-03   -3,019329906e-01   -6,467000246e-01    0,000000000e+00    0,000000000e+00    0,000000000e+00    0,000000000e+00
      450000000   -4,432079941e-02    1,462417655e-03   -5,922475457e-01   -3,783917427e-01    0,000000000e+00    0,000000000e+00    0,000000000e+00    0,000000000e+00
      464000000   -2,922411822e-02    1,125089452e-02   -6,912934780e-01    1,993415208e-04    0,000000000e+00    0,000000000e+00    0,000000000e+00    0,000000000e+00
      478000000   -1,199498074e-03    1,158110797e-02   -5,732117891e-01    3,636645079e-01    0,000000000e+00    0,000000000e+00    0,000000000e+00    0,000000000e+00
      492000000    2,741387486e-02   -1,231994852e-02   -2,892017961e-01    6,028048992e-01    0,000000000e+00    0,000000000e+00    0,000000000e+00    0,000000000e+00
      506000000    3,621475771e-02   -5,597318336e-02    6,956221908e-02    6,586384177e-01    0,000000000e+00    0,000000000e+00    0,000000000e+00    0,000000000e+00
      520000000    1,206769794e-02   -9,808771312e-02    4,034515023e-01    5,244709253e-01    0,000000000e+00    0,000000000e+00    0,000000000e+00    0,000000000e+00
      534000000   -3,371334821e-02   -1,161525920e-01    6,238525510e-01    2,359952927e-01    0,000000000e+00    0,000000000e+00    0,000000000e+00    0,000000000e+00
      548000000   -7,708233595e-02   -9,943082184e-02    6,584256887e-01   -1,333063245e-01    0,000000000e+00    0,000000000e+00    0,000000000e+00    0,000000000e+00
      562000000   -9,341304749e-02   -6,650082767e-02    4,816098809e-01   -4,671457410e-01    0,000000000e+00    0,000000000e+00    0,000000000e+00    0,000000000e+00
      576000000   -8,593577147e-02   -4,462447017e-02    1,511247307e-01   -6,486263871e-01    0,000000000e+00    0,000000000e+00    0,000000000e+00    0,000000000e+00
      590000000   -8,073139936e-02   -4,167025164e-02   -2,190685570e-01   -6,287480593e-01    0,000000000e+00    0,000000000e+00    0,000000000e+00    0,000000000e+00
      604000000   -8,919875324e-02   -3,721902147e-02   -5,203665495e-01   -4,050494432e-01    0,000000000e+00    0,000000000e+00    0,000000000e+00    0,000000000e+00
      618000000   -9,688419849e-02   -1,543843839e-02   -6,533461213e-01   -5,853474140e-02    0,000000000e+00    0,000000000e+00    0,000000000e+00    0,000000000e+00
      632000000   -8,097308129e-02    1,569656469e-02   -5,762524605e-01    3,026724756e-01    0,000000000e+00    0,000000000e+00    0,000000000e+00    0,000000000e+00
      646000000   -4,315620288e-02    2,632704377e-02   -3,185890615e-01    5,558491945e-01    0,000000000e+00    0,000000000e+00    0,000000000e+00    0,000000000e+00
      660000000   -7,196130231e-03    5,949624814e-03    2,044311725e-02    6,290766001e-01    0,000000000e+00    0,000000000e+00    0,000000000e+00    0,000000000e+00
      674000000    1,532221097e-03   -2,965817414e-02    3,427329361e-01    5,194455385e-01    0,000000000e+00    0,000000000e+00    0,000000000e+00    0,000000000e+00
      688000000   -1,453607716e-02   -5,615361407e-02    5,592772365e-01    2,591971755e-01    0,000000000e+00    0,000000000e+00    0,000000000e+00    0,000000000e+00
      702000000   -3,281087056e-02   -5,877138674e-02    6,059127450e-01   -7,747880369e-02    0,000000000e+00    0,000000000e+00    0,000000000e+00    0,000000000e+00
      716000000   -3,666694835e-02   -5,530814826e-02    4,597612917e-01   -3,893153369e-01    0,000000000e+00    0,000000000e+00    0,000000000e+00    0,000000000e+00
      730000000   -3,167342767e-02   -6,462524831e-02    1,740083396e-01   -5,662372708e-01    0,000000000e+00    0,000000000e+00    0,000000000e+00    0,000000000e+00
      744000000   -4,012367874e-02   -8,894137293e-02   -1,526382118e-01   -5,642243028e-01    0,000000000e+00    0,000000000e+00    0,000000000e+00    0,000000000e+00
      758000000   -7,275429368e-02   -1,048204005e-01   -4,263035655e-01   -3,946116865e-01    0,000000000e+00    0,000000000e+00    0,000000000e+00    0,000000000e+00
      772000000   -1,143278033e-01   -9,463681281e-02   -5,740024447e-01   -1,058878601e-01    0,000000000e+00    0,000000000e+00    0,000000000e+00    0,000000000e+00
      786000000   -1,384966373e-01   -5,686237663e-02   -5,453582406e-01    2,208753675e-01    0,000000000e+00    0,000000000e+00    0,000000000e+00    0,000000000e+00
      800000000   -1,333994567e-01   -1,441827323e-02   -3,412057757e-01    4,807930589e-01    0,000000000e+00    0,000000000e+00    0,000000000e+00    0,000000000e+00
      814000000   -1,086831838e-01    8,344265632e-03   -3,456794843e-02    5,856777430e-01    0,000000000e+00    0,000000000e+00    0,000000000e+00    0,000000000e+00
      828000000   -8,538085967e-02    1,413690671e-02    2,795772552e-01    5,143731236e-01    0,000000000e+00    0,000000000e+00    0,000000000e+00    0,000000000e+00
      842000000   -7,025358826e-02    1,481257193e-02    5,029081106e-01    2,897412479e-01    0,000000000e+00    0,000000000e+00    0,000000000e+00    0,000000000e+00
      856000000   -5,183392391e-02    1,921920292e-02    5,710800886e-01   -1,800211333e-02    0,000000000e+00    0,000000000e+00    0,000000000e+00    0,000000000e+00
      870000000   -2,314011380e-02    1,443195716e-02    4,633767605e-01   -3,058722615e-01    0,000000000e+00    0,000000000e+00    0,000000000e+00    0,000000000e+00
      884000000    6,253758445e-03   -1,418650616e-02    2,310444266e-01   -4,880490899e-01    0,000000000e+00    0,000000000e+00    0,000000000e+00    0,000000000e+00
      898000000    1,159399096e-02   -6,358001381e-02   -5,111116916e-02   -5,280237198e-01    0,000000000e+00    0,000000000e+00    0,000000000e+00    0,000000000e+00
      912000000   -2,352973633e-02   -1,091503799e-01   -3,655382693e-01   -4,067158997e-01    0,000000000e+00    0,000000000e+00    0,000000000e+00    0,000000000e+00
      926000000   -7,574707270e-02   -1,233969405e-01   -5,306785703e-01   -1,566648185e-01    0,000000000e+00    0,000000000e+00    0,000000000e+00    0,000000000e+00
      940000000   -1,241549700e-01   -1,006130129e-01   -5,526452065e-01    1,563400328e-01    0,000000000e+00    0,000000000e+00    0,000000000e+00    0,000000000e+00
      954000000   -1,444146931e-01   -6,011616066e-02   -3,935914338e-01    4,460711181e-01    0,000000000e+00    0,000000000e+00    0,000000000e+00    0,000000000e+00
      968000000   -1,341880709e-01   -2,776158974e-02   -8,964408934e-02    6,014754176e-01    0,000000000e+00    0,000000000e+00    0,000000000e+00    0,000000000e+00
      982000000   -1,134822220e-01   -1,418458857e-02    2,463643253e-01    5,711043477e-01    0,000000000e+00    0,000000000e+00    0,000000000e+00    0,000000000e+00
      996000000   -1,073584408e-01   -1,113666780e-02    5,121628046e-01    3,674902618e-01    0,000000000e+00    0,000000000e+00    0,000000000e+00    0,000000000e+00
     1010000000   -9,987244010e-02   -9,243092500e-03    6,289125681e-01    5,360596254e-02    0,000000000e+00    0,000000000e+00    0,000000000e+00    0,000000000e+00
     1024000000   -8,879059553e-02   -5,079783732e-04    5,611076951e-01   -2,694769204e-01    0,000000000e+00    0,000000000e+00    0,000000000e+00    0,000000000e+00
     1038000000   -7,651516050e-02   -4,847806413e-03    3,372610807e-01   -5,020119548e-01    0,000000000e+00    0,000000000e+00    0,000000000e+00    0,000000000e+00
     1052000000   -6,510303915e-02   -1,933817938e-02    3,369454667e-02   -5,853488445e-01    0,000000000e+00    0,000000000e+00    0,000000000e+00    0,000000000e+00
     1066000000   -6,998398155e-02   -3,233261779e-02   -2,702484429e-01   -5,038118362e-01    0,000000000e+00    0,000000000e+00    0,000000000e+00    0,000000000e+00
     1080000000   -8,480126411e-02   -3,094550408e-02   -4,808422029e-01   -2,686165869e-01    0,000000000e+00    0,000000000e+00    0,000000000e+00    0,000000000e+00
     1094000000   -8,047954738e-02   -2,012169175e-02   -5,307138562e-01    4,327334464e-02    0,000000000e+00    0,000000000e+00    0,000000000e+00    0,000000000e+00
     1108000000   -5,499740690e-02   -1,170596667e-02   -4,003709555e-01    3,255860209e-01    0,000000000e+00    0,000000000e+00    0,000000000e+00    0,000000000e+00
     1122000000   -3,021802008e-02   -3,181390464e-02   -1,376785338e-01    4,804718196e-01    0,000000000e+00    0,000000000e+00    0,000000000e+00    0,000000000e+00
     1136000000   -2,817524970e-02   -8,895186335e-02    1,639911532e-01    4,758180678e-01    0,000000000e+00    0,000000000e+00    0,000000000e+00    0,000000000e+00
     1150000000   -6,240125000e-02   -1,359757036e-01    4,179147780e-01    3,110550642e-01    0,000000000e+00    0,000000000e+00    0,000000000e+00    0,000000000e+00
     1164000000   -1,355901808e-01   -1,510489434e-01    5,656350851e-01    2,710369788e-02    0,000000000e+00    0,000000000e+00    0,000000000e+00    0,000000000e+00
     1178000000   -2,130539268e-01   -1,146131828e-01    5,300918221e-01   -3,178962171e-01    0,000000000e+00    0,000000000e+00    0,000000000e+00    0,000000000e+00
     1192000000   -2,432000935e-01   -4,145511612e-02    2,982168198e-01   -5,970816016e-01    0,000000000e+00    0,000000000e+00    0,000000000e+00    0,000000000e+00
     1206000000   -2,323885113e-01    3,017211705e-02   -6,476981193e-02   -6,978594661e-01    0,000000000e+00    0,000000000e+00    0,000000000e+00    0,000000000e+00
     1220000000   -1,841988713e-01    8,388567716e-02   -4,206333160e-01   -5,809435844e-01    0,000000000e+00    0,000000000e+00    0,000000000e+00    0,000000000e+00
     1234000000   -1,278120726e-01    1,021623239e-01   -6,476135254e-01   -2,916572094e-01    0,000000000e+00    0,000000000e+00    0,000000000e+00    0,000000000e+00
     1248000000   -6,844713539e-02    9,475261718e-02   -6,772483587e-01    6,056258082e-02    0,000000000e+00    0,000000000e+00    0,000000000e+00    0,000000000e+00
     1262000000   -1,162322797e-02    6,110621989e-02   -5,231349468e-01    3,673398197e-01    0,000000000e+00    0,000000000e+00    0,000000000e+00    0,000000000e+00
     1276000000    2,473688126e-02   -7,028499385e-04   -2,453405112e-01    5,477789044e-01    0,000000000e+00    0,000000000e+00    0,000000000e+00    0,000000000e+00
     1290000000    2,252801135e-02   -9,019736201e-02    7,387637347e-02    5,751835108e-01    0,000000000e+00    0,000000000e+00    0,000000000e+00    0,000000000e+00
     1304000000   -2,952038497e-02   -1,659473330e-01    3,667486310e-01    4,652874172e-01    0,000000000e+00    0,000000000e+00    0,000000000e+00    0,000000000e+00
     1318000000   -1,316404641e-01   -2,158589512e-01    5,848245025e-01    2,180362195e-01    0,000000000e+00    0,000000000e+00    0,000000000e+00    0,000000000e+00
     1332000000   -2,511433363e-01   -1,850839704e-01    6,622565985e-01   -1,271968335e-01    0,000000000e+00    0,000000000e+00    0,000000000e+00    0,000000000e+00
     1346000000   -3,310734034e-01   -8,810016513e-02    5,110308528e-01   -4,674441814e-01    0,000000000e+00    0,000000000e+00    0,000000000e+00    0,000000000e+00
     1360000000   -3,398031890e-01    2,635842375e-02    1,890829653e-01   -6,466772556e-01    0,000000000e+00    0,000000000e+00    0,000000000e+00    0,000000000e+00
     1374000000   -2,797901630e-01    1,010127664e-01   -1,639668196e-01   -5,999383330e-01    0,000000000e+00    0,000000000e+00    0,000000000e+00    0,000000000e+00
     1388000000   -2,118616700e-01    1,422726661e-01   -4,074020386e-01   -3,722048104e-01    0,000000000e+00    0,000000000e+00    0,000000000e+00    0,000000000e+00
     1402000000   -1,543076038e-01    1,372603178e-01   -4,862631261e-01   -5,688743666e-02    0,000000000e+00    0,000000000e+00    0,000000000e+00    0,000000000e+00
     1416000000   -9,307566285e-02    1,168416739e-01   -3,738943636e-01    2,478235215e-01    0,000000000e+00    0,000000000e+00    0,000000000e+00    0,000000000e+00
     1430000000   -4,940748960e-02    7,367877662e-02   -1,129851639e-01    4,771056473e-01    0,000000000e+00    0,000000000e+00    0,000000000e+00    0,000000000e+00
     1444000000   -3,644953296e-02    8,287789300e-03    1,618968695e-01    5,385313630e-01    0,000000000e+00    0,000000000e+00    0,000000000e+00    0,000000000e+00
     1458000000   -6,112211570e-02   -7,054220885e-02    4,984118044e-01    4,882369637e-01    0,000000000e+00    0,000000000e+00    0,000000000e+00    0,000000000e+00
     1472000000   -1,345750988e-01   -1,196139678e-01    7,666732073e-01    2,712891996e-01    0,000000000e+00    0,000000000e+00    0,000000000e+00    0,000000000e+00
     1486000000   -2,222045809e-01   -1,157441139e-01    9,117384553e-01   -9,660054743e-02    0,000000000e+00    0,000000000e+00    0,000000000e+00    0,000000000e+00
     1500000000   -2,825429738e-01   -4,232806340e-02    8,173327446e-01   -4,556407034e-01    0,000000000e+00    0,000000000e+00    0,000000000e+00    0,000000000e+00
