! NanoVNA-App
! Date: 2025-09-25 15:10:25
! Start: 100MHz Stop: 1,5GHz Points: 101
! S-Parameter data: F S11 S21 S12 S22
# Hz S RI R 50
!     Frequency           S11_Real           S11_Imag           S21_Real           S21_Imag           S12_Real           S12_Imag           S22_Real           S22_Imag
      100000000    3,117170185e-02    2,864810452e-02    4,348732531e-01   -6,685513258e-01    0,000000000e+00    0,000000000e+00    0,000000000e+00    0,000000000e+00
      114000000    5,760186166e-02    5,500437692e-03    7,990171202e-03   -7,909753919e-01    0,000000000e+00    0,000000000e+00    0,000000000e+00    0,000000000e+00
      128000000    6,725563854e-02   -3,782620281e-02   -4,103250504e-01   -6,712787151e-01    0,000000000e+00    0,000000000e+00    0,000000000e+00    0,000000000e+00
      142000000    4,468128458e-02   -8,420899510e-02   -7,028619647e-01   -3,533486128e-01    0,000000000e+00    0,000000000e+00    0,000000000e+00    0,000000000e+00
      156000000   -5,381408613e-03   -1,070792899e-01   -7,876165509e-01    7,377328724e-02    0,000000000e+00    0,000000000e+00    0,000000000e+00    0,000000000e+00
      170000000   -5,761319026e-02   -9,059122950e-02   -6,274019480e-01    4,869564176e-01    0,000000000e+00    0,000000000e+00    0,000000000e+00    0,000000000e+00
      184000000   -8,369438350e-02   -4,948133603e-02   -2,651548982e-01    7,510244250e-01    0,000000000e+00    0,000000000e+00    0,000000000e+00    0,000000000e+00
      198000000   -7,965113223e-02   -1,043588016e-02    1,835021377e-01    7,729506493e-01    0,000000000e+00    0,000000000e+00    0,000000000e+00    0,000000000e+00
      212000000   -6,228325143e-02    1,314679720e-02    5,692970157e-01    5,493725538e-01    0,000000000e+00    0,000000000e+00    0,000000000e+00    0,000000000e+00
      226000000   -4,336367175e-02    2,772138640e-02    7,706908584e-01    1,546168178e-01    0,000000000e+00    0,000000000e+00    0,000000000e+00    0,000000000e+00
      240000000   -1,818755828e-02    3,850570694e-02    7,267349958e-01   -2,817715108e-01    0,000000000e+00    0,000000000e+00    0,000000000e+00    0,000000000e+00
      254000000    1,719296910e-02    3,519434109e-02    4,580456913e-01   -6,202715635e-01    0,000000000e+00    0,000000000e+00    0,000000000e+00    0,000000000e+00
      268000000    4,876476899e-02    5,577664357e-03    5,867523327e-02   -7,603194118e-01    0,000000000e+00    0,000000000e+00    0,000000000e+00    0,000000000e+00
      282000000    5,344263837e-02   -4,172557220e-02   -3,489614725e-01   -6,713699102e-01    0,000000000e+00    0,000000000e+00    0,000000000e+00    0,000000000e+00
      296000000    2,405940555e-02   -7,958894223e-02   -6,519733667e-01   -3,860432506e-01    0,000000000e+00    0,000000000e+00    0,000000000e+00    0,000000000e+00
      310000000   -1,787021384e-02   -8,317077160e-02   -7,639868259e-01    2,066157758e-02    0,000000000e+00    0,000000000e+00    0,000000000e+00    0,000000000e+00
      324000000   -4,149996489e-02   -5,886094272e-02   -6,316939592e-01    4,310158193e-01    0,000000000e+00    0,000000000e+00    0,000000000e+00    0,000000000e+00
      338000000   -3,421819955e-02   -3,697503358e-02   -2,981044948e-01    7,020583153e-01    0,000000000e+00    0,000000000e+00    0,000000000e+00    0,000000000e+00
      352000000   -1,724233478e-02   -4,084725305e-02    1,254488975e-01    7,406516671e-01    0,000000000e+00    0,000000000e+00    0,000000000e+00    0,000000000e+00
      366000000   -1,926186495e-02   -6,213673949e-02    4,979781210e-01    5,539336801e-01    0,000000000e+00    0,000000000e+00    0,000000000e+00    0,000000000e+00
      380000000   -4,434629157e-02   -7,264021039e-02    7,133783698e-01    1,998924166e-01    0,000000000e+00    0,000000000e+00    0,000000000e+00    0,000000000e+00
      394000000   -7,069058716e-02   -5,769218132e-02    7,047009468e-01   -2,159054130e-01    0,000000000e+00    0,000000000e+00    0,000000000e+00    0,000000000e+00
      408000000   -7,689919323e-02   -3,020488285e-02    4,695754647e-01   -5,601987243e-01    0,000000000e+00    0,000000000e+00    0,000000000e+00    0,000000000e+00
      422000000   -6,524190307e-02   -1,133629680e-02    9,421622008e-02   -7,179688215e-01    0,000000000e+00    0,000000000e+00    0,000000000e+00    0,000000000e+00
      436000000   -5,306780338e-02   -4,618850537e-03   -3,025842905e-01   -6,474090815e-01    0,000000000e+00    0,000000000e+00    0,000000000e+00    0,000000000e+00
      450000000   -4,463585094e-02    1,801938750e-03   -5,928312540e-01   -3,781817555e-01    0,000000000e+00    0,000000000e+00    0,000000000e+00    0,000000000e+00
      464000000   -2,938550711e-02    1,101616491e-02   -6,911916137e-01    3,320144242e-05    0,000000000e+00    0,000000000e+00    0,000000000e+00    0,000000000e+00
      478000000   -1,167402021e-03    1,101648621e-02   -5,731740594e-01    3,631053567e-01    0,000000000e+00    0,000000000e+00    0,000000000e+00    0,000000000e+00
      492000000    2,768183872e-02   -1,242742967e-02   -2,893291414e-01    6,020304561e-01    0,000000000e+00    0,000000000e+00    0,000000000e+00    0,000000000e+00
      506000000    3,655397147e-02   -5,541783944e-02    6,894206256e-02    6,591404080e-01    0,000000000e+00    0,000000000e+00    0,000000000e+00    0,000000000e+00
      520000000    1,277197525e-02   -9,929476678e-02    4,058370888e-01    5,259661078e-01    0,000000000e+00    0,000000000e+00    0,000000000e+00    0,000000000e+00
      534000000   -3,440836817e-02   -1,163591966e-01    6,235843301e-01    2,356047481e-01    0,000000000e+00    0,000000000e+00    0,000000000e+00    0,000000000e+00
      548000000   -7,727941126e-02   -9,876211733e-02    6,577021480e-01   -1,330343038e-01    0,000000000e+00    0,000000000e+00    0,000000000e+00    0,000000000e+00
      562000000   -9,335681051e-02   -6,605459005e-02    4,813461006e-01   -4,666125178e-01    0,000000000e+00    0,000000000e+00    0,000000000e+00    0,000000000e+00
      576000000   -8,658548445e-02   -4,422854632e-02    1,506344378e-01   -6,469886899e-01    0,000000000e+00    0,000000000e+00    0,000000000e+00    0,000000000e+00
      590000000   -8,084668964e-02   -4,161023721e-02   -2,215370834e-01   -6,277673244e-01    0,000000000e+00    0,000000000e+00    0,000000000e+00    0,000000000e+00
      604000000   -8,934750408e-02   -3,744840622e-02   -5,197008252e-01   -4,065780640e-01    0,000000000e+00    0,000000000e+00    0,000000000e+00    0,000000000e+00
      618000000   -9,659854323e-02   -1,449388452e-02   -6,533045769e-01   -5,830518901e-02    0,000000000e+00    0,000000000e+00    0,000000000e+00    0,000000000e+00
      632000000   -8,138152212e-02    1,549230050e-02   -5,761210918e-01    3,022972941e-01    0,000000000e+00    0,000000000e+00    0,000000000e+00    0,000000000e+00
      646000000   -4,238862917e-02    2,633552812e-02   -3,186981380e-01    5,556741953e-01    0,000000000e+00    0,000000000e+00    0,000000000e+00    0,000000000e+00
      660000000   -8,139149286e-03    5,578894168e-03    2,140567824e-02    6,295956969e-01    0,000000000e+00    0,000000000e+00    0,000000000e+00    0,000000000e+00
      674000000    6,222969969e-04   -2,955036052e-02    3,424817026e-01    5,193208456e-01    0,000000000e+00    0,000000000e+00    0,000000000e+00    0,000000000e+00
      688000000   -1,516194735e-02   -5,609497428e-02    5,585145950e-01    2,584429085e-01    0,000000000e+00    0,000000000e+00    0,000000000e+00    0,000000000e+00
      702000000   -3,406934813e-02   -5,967422947e-02    6,024946570e-01   -7,777868211e-02    0,000000000e+00    0,000000000e+00    0,000000000e+00    0,000000000e+00
      716000000   -3,655144200e-02   -5,599402636e-02    4,596063495e-01   -3,897215724e-01    0,000000000e+00    0,000000000e+00    0,000000000e+00    0,000000000e+00
      730000000   -3,257730603e-02   -6,532939523e-02    1,742033213e-01   -5,662474036e-01    0,000000000e+00    0,000000000e+00    0,000000000e+00    0,000000000e+00
      744000000   -4,087831825e-02   -8,783145994e-02   -1,520371139e-01   -5,644640326e-01    0,000000000e+00    0,000000000e+00    0,000000000e+00    0,000000000e+00
      758000000   -7,142610103e-02   -1,047171578e-01   -4,275613725e-01   -3,944234550e-01    0,000000000e+00    0,000000000e+00    0,000000000e+00    0,000000000e+00
      772000000   -1,142489240e-01   -9,445390105e-02   -5,745936036e-01   -1,062468439e-01    0,000000000e+00    0,000000000e+00    0,000000000e+00    0,000000000e+00
      786000000   -1,381657869e-01   -5,659822747e-02   -5,452870131e-01    2,209867239e-01    0,000000000e+00    0,000000000e+00    0,000000000e+00    0,000000000e+00
      800000000   -1,333596408e-01   -1,459122542e-02   -3,418049812e-01    4,795380235e-01    0,000000000e+00    0,000000000e+00    0,000000000e+00    0,000000000e+00
      814000000   -1,084405109e-01    7,707382552e-03   -3,479100764e-02    5,863440633e-01    0,000000000e+00    0,000000000e+00    0,000000000e+00    0,000000000e+00
      828000000   -8,565820009e-02    1,366438996e-02    2,798462212e-01    5,145027041e-01    0,000000000e+00    0,000000000e+00    0,000000000e+00    0,000000000e+00
      842000000   -7,103483379e-02    1,503694151e-02    5,029450655e-01    2,900380790e-01    0,000000000e+00    0,000000000e+00    0,000000000e+00    0,000000000e+00
      856000000   -5,247208849e-02    1,902512647e-02    5,705348253e-01   -1,750119589e-02    0,000000000e+00    0,000000000e+00    0,000000000e+00    0,000000000e+00
      870000000   -2,314334549e-02    1,474241540e-02    4,629040062e-01   -3,062304854e-01    0,000000000e+00    0,000000000e+00    0,000000000e+00    0,000000000e+00
      884000000    6,574682891e-03   -1,389376726e-02    2,307470888e-01   -4,880781174e-01    0,000000000e+00    0,000000000e+00    0,000000000e+00    0,000000000e+00
      898000000    1,228648238e-02   -6,351925433e-02   -5,142142624e-02   -5,263137221e-01    0,000000000e+00    0,000000000e+00    0,000000000e+00    0,000000000e+00
      912000000   -2,364039794e-02   -1,088374630e-01   -3,574158251e-01   -4,098497629e-01    0,000000000e+00    0,000000000e+00    0,000000000e+00    0,000000000e+00
      926000000   -7,691988349e-02   -1,246036515e-01   -5,320367217e-01   -1,588098854e-01    0,000000000e+00    0,000000000e+00    0,000000000e+00    0,000000000e+00
      940000000   -1,226954982e-01   -1,002538577e-01   -5,516008139e-01    1,560359001e-01    0,000000000e+00    0,000000000e+00    0,000000000e+00    0,000000000e+00
      954000000   -1,448367089e-01   -5,960477889e-02   -3,929057121e-01    4,474472106e-01    0,000000000e+00    0,000000000e+00    0,000000000e+00    0,000000000e+00
      968000000   -1,349969804e-01   -2,756041475e-02   -9,318258613e-02    6,018114090e-01    0,000000000e+00    0,000000000e+00    0,000000000e+00    0,000000000e+00
      982000000   -1,136569679e-01   -1,311565936e-02    2,453958243e-01    5,703516006e-01    0,000000000e+00    0,000000000e+00    0,000000000e+00    0,000000000e+00
      996000000   -1,050009131e-01   -1,641967148e-02    5,124331117e-01    3,660059273e-01    0,000000000e+00    0,000000000e+00    0,000000000e+00    0,000000000e+00
     1010000000   -1,005945206e-01   -6,152210291e-03    6,295019388e-01    5,157086253e-02    0,000000000e+00    0,000000000e+00    0,000000000e+00    0,000000000e+00
     1024000000   -9,174606204e-02   -3,166545415e-03    5,606886744e-01   -2,703460753e-01    0,000000000e+00    0,000000000e+00    0,000000000e+00    0,000000000e+00
     1038000000   -7,338271290e-02   -1,736278180e-03    3,372699320e-01   -5,026293397e-01    0,000000000e+00    0,000000000e+00    0,000000000e+00    0,000000000e+00
     1052000000   -6,161751598e-02   -1,459756680e-02    3,546391055e-02   -5,850061774e-01    0,000000000e+00    0,000000000e+00    0,000000000e+00    0,000000000e+00
     1066000000   -7,094503194e-02   -2,711125463e-02   -2,687740028e-01   -5,016091466e-01    0,000000000e+00    0,000000000e+00    0,000000000e+00    0,000000000e+00
     1080000000   -7,812213898e-02   -3,032875247e-02   -4,805486202e-01   -2,708128989e-01    0,000000000e+00    0,000000000e+00    0,000000000e+00    0,000000000e+00
     1094000000   -8,167686313e-02   -1,358468458e-02   -5,307503343e-01    4,397949576e-02    0,000000000e+00    0,000000000e+00    0,000000000e+00    0,000000000e+00
     1108000000   -6,119687110e-02   -1,023420412e-02   -3,993314803e-01    3,258536756e-01    0,000000000e+00    0,000000000e+00    0,000000000e+00    0,000000000e+00
     1122000000   -3,312886879e-02   -3,802062944e-02   -1,353873909e-01    4,810993075e-01    0,000000000e+00    0,000000000e+00    0,000000000e+00    0,000000000e+00
     1136000000   -2,853434533e-02   -8,840846270e-02    1,624419540e-01    4,766580164e-01    0,000000000e+00    0,000000000e+00    0,000000000e+00    0,000000000e+00
     1150000000   -6,355302036e-02   -1,380005628e-01    4,188922644e-01    3,117674291e-01    0,000000000e+00    0,000000000e+00    0,000000000e+00    0,000000000e+00
     1164000000   -1,421105415e-01   -1,531909257e-01    5,623989701e-01    2,899893746e-02    0,000000000e+00    0,000000000e+00    0,000000000e+00    0,000000000e+00
     1178000000   -2,145478725e-01   -1,208317429e-01    5,301810503e-01   -3,168016672e-01    0,000000000e+00    0,000000000e+00    0,000000000e+00    0,000000000e+00
     1192000000   -2,456920743e-01   -4,728939757e-02    2,961776555e-01   -5,989946127e-01    0,000000000e+00    0,000000000e+00    0,000000000e+00    0,000000000e+00
     1206000000   -2,341114134e-01    3,390882537e-02   -6,788881868e-02   -7,008997798e-01    0,000000000e+00    0,000000000e+00    0,000000000e+00    0,000000000e+00
     1220000000   -1,898662150e-01    8,067270368e-02   -4,198204875e-01   -5,787575841e-01    0,000000000e+00    0,000000000e+00    0,000000000e+00    0,000000000e+00
     1234000000   -1,264410764e-01    1,003534570e-01   -6,484250426e-01   -2,929932475e-01    0,000000000e+00    0,000000000e+00    0,000000000e+00    0,000000000e+00
     1248000000   -6,873138249e-02    9,797649086e-02   -6,751737595e-01    6,543647498e-02    0,000000000e+00    0,000000000e+00    0,000000000e+00    0,000000000e+00
     1262000000   -9,200892411e-03    6,370065361e-02   -5,131751895e-01    3,703927398e-01    0,000000000e+00    0,000000000e+00    0,000000000e+00    0,000000000e+00
     1276000000    2,342369221e-02   -5,049585365e-03   -2,403801084e-01    5,457221270e-01    0,000000000e+00    0,000000000e+00    0,000000000e+00    0,000000000e+00
     1290000000    2,244800888e-02   -8,986908942e-02    7,519450784e-02    5,738486052e-01    0,000000000e+00    0,000000000e+00    0,000000000e+00    0,000000000e+00
     1304000000   -3,115598671e-02   -1,658430099e-01    3,667556345e-01    4,681546986e-01    0,000000000e+00    0,000000000e+00    0,000000000e+00    0,000000000e+00
     1318000000   -1,346246749e-01   -2,198537886e-01    5,879101157e-01    2,164405435e-01    0,000000000e+00    0,000000000e+00    0,000000000e+00    0,000000000e+00
     1332000000   -2,566855550e-01   -1,900019497e-01    6,560443640e-01   -1,325604320e-01    0,000000000e+00    0,000000000e+00    0,000000000e+00    0,000000000e+00
     1346000000   -3,332729936e-01   -9,662834555e-02    5,101139545e-01   -4,732697606e-01    0,000000000e+00    0,000000000e+00    0,000000000e+00    0,000000000e+00
     1360000000   -3,320285380e-01    2,404339798e-02    1,980565041e-01   -6,518400908e-01    0,000000000e+00    0,000000000e+00    0,000000000e+00    0,000000000e+00
     1374000000   -2,877435088e-01    1,027133539e-01   -1,579203755e-01   -6,038069129e-01    0,000000000e+00    0,000000000e+00    0,000000000e+00    0,000000000e+00
     1388000000   -2,153092474e-01    1,323504895e-01   -4,096085131e-01   -3,812043965e-01    0,000000000e+00    0,000000000e+00    0,000000000e+00    0,000000000e+00
     1402000000   -1,528981328e-01    1,395013779e-01   -4,886978567e-01   -4,942594096e-02    0,000000000e+00    0,000000000e+00    0,000000000e+00    0,000000000e+00
     1416000000   -9,722756594e-02    1,168178767e-01   -3,737994134e-01    2,488718480e-01    0,000000000e+00    0,000000000e+00    0,000000000e+00    0,000000000e+00
     1430000000   -5,351809040e-02    6,937472522e-02   -1,315795332e-01    4,708673954e-01    0,000000000e+00    0,000000000e+00    0,000000000e+00    0,000000000e+00
     1444000000   -3,656307980e-02    7,868253626e-03    1,828289032e-01    5,499888062e-01    0,000000000e+00    0,000000000e+00    0,000000000e+00    0,000000000e+00
     1458000000   -6,580229849e-02   -6,884739548e-02    4,781018794e-01    4,791531861e-01    0,000000000e+00    0,000000000e+00    0,000000000e+00    0,000000000e+00
     1472000000   -1,382489055e-01   -1,257158220e-01    7,718397975e-01    2,697859704e-01    0,000000000e+00    0,000000000e+00    0,000000000e+00    0,000000000e+00
     1486000000   -2,336166650e-01   -1,113756970e-01    9,006887674e-01   -8,740752935e-02    0,000000000e+00    0,000000000e+00    0,000000000e+00    0,000000000e+00
     1500000000   -2,846438885e-01   -4,454465210e-02    8,167554140e-01   -4,575660527e-01    0,000000000e+00    0,000000000e+00    0,000000000e+00    0,000000000e+00
