! NanoVNA-App
! Date: 2025-09-25 15:10:05
! Start: 100MHz Stop: 1,5GHz Points: 101
! S-Parameter data: F S11 S21 S12 S22
# Hz S RI R 50
!     Frequency           S11_Real           S11_Imag           S21_Real           S21_Imag           S12_Real           S12_Imag           S22_Real           S22_Imag
      100000000    3,114179522e-02    2,865081839e-02    4,348521829e-01   -6,685346365e-01    0,000000000e+00    0,000000000e+00    0,000000000e+00    0,000000000e+00
      114000000    5,758117884e-02    5,500265397e-03    7,925041951e-03   -7,908784151e-01    0,000000000e+00    0,000000000e+00    0,000000000e+00    0,000000000e+00
      128000000    6,728479266e-02   -3,784250841e-02   -4,103792310e-01   -6,711335182e-01    0,000000000e+00    0,000000000e+00    0,000000000e+00    0,000000000e+00
      142000000    4,470755160e-02   -8,427844197e-02   -7,028178573e-01   -3,531471789e-01    0,000000000e+00    0,000000000e+00    0,000000000e+00    0,000000000e+00
      156000000   -5,546422675e-03   -1,068689674e-01   -7,873038054e-01    7,405081391e-02    0,000000000e+00    0,000000000e+00    0,000000000e+00    0,000000000e+00
      170000000   -5,768880993e-02   -9,056183696e-02   -6,274016500e-01    4,867224693e-01    0,000000000e+00    0,000000000e+00    0,000000000e+00    0,000000000e+00
      184000000   -8,368977159e-02   -4,949034005e-02   -2,650333047e-01    7,509827614e-01    0,000000000e+00    0,000000000e+00    0,000000000e+00    0,000000000e+00
      198000000   -7,966390997e-02   -1,044569816e-02    1,834640354e-01    7,734118104e-01    0,000000000e+00    0,000000000e+00    0,000000000e+00    0,000000000e+00
      212000000   -6,225948781e-02    1,315092295e-02    5,690048337e-01    5,490784645e-01    0,000000000e+00    0,000000000e+00    0,000000000e+00    0,000000000e+00
      226000000   -4,331917688e-02    2,765531465e-02    7,707755566e-01    1,545718610e-01    0,000000000e+00    0,000000000e+00    0,000000000e+00    0,000000000e+00
      240000000   -1,817832887e-02    3,851776943e-02    7,267988920e-01   -2,818166018e-01    0,000000000e+00    0,000000000e+00    0,000000000e+00    0,000000000e+00
      254000000    1,717763580e-02    3,520194441e-02    4,579311013e-01   -6,199911237e-01    0,000000000e+00    0,000000000e+00    0,000000000e+00    0,000000000e+00
      268000000    4,876951128e-02    5,576435942e-03    5,879057199e-02   -7,601917386e-01    0,000000000e+00    0,000000000e+00    0,000000000e+00    0,000000000e+00
      282000000    5,350988358e-02   -4,185667261e-02   -3,490618467e-01   -6,715925336e-01    0,000000000e+00    0,000000000e+00    0,000000000e+00    0,000000000e+00
      296000000    2,396785282e-02   -7,950045168e-02   -6,512978077e-01   -3,857801259e-01    0,000000000e+00    0,000000000e+00    0,000000000e+00    0,000000000e+00
      310000000   -1,795235090e-02   -8,306139708e-02   -7,639248371e-01    2,031933330e-02    0,000000000e+00    0,000000000e+00    0,000000000e+00    0,000000000e+00
      324000000   -4,177442566e-02   -5,882890522e-02   -6,321706176e-01    4,309438765e-01    0,000000000e+00    0,000000000e+00    0,000000000e+00    0,000000000e+00
      338000000   -3,423094377e-02   -3,706580773e-02   -2,975315154e-01    7,010507584e-01    0,000000000e+00    0,000000000e+00    0,000000000e+00    0,000000000e+00
      352000000   -1,743168943e-02   -4,088182002e-02    1,258839816e-01    7,417756915e-01    0,000000000e+00    0,000000000e+00    0,000000000e+00    0,000000000e+00
      366000000   -1,952406019e-02   -6,175591424e-02    4,976745844e-01    5,550684333e-01    0,000000000e+00    0,000000000e+00    0,000000000e+00    0,000000000e+00
      380000000   -4,425586760e-02   -7,238624245e-02    7,137249708e-01    2,000370771e-01    0,000000000e+00    0,000000000e+00    0,000000000e+00    0,000000000e+00
      394000000   -7,073507458e-02   -5,803519487e-02    7,041717768e-01   -2,170061171e-01    0,000000000e+00    0,000000000e+00    0,000000000e+00    0,000000000e+00
      408000000   -7,697959989e-02   -3,014821559e-02    4,717809558e-01   -5,598166585e-01    0,000000000e+00    0,000000000e+00    0,000000000e+00    0,000000000e+00
      422000000   -6,526610255e-02   -1,114556380e-02    9,347227961e-02   -7,180335522e-01    0,000000000e+00    0,000000000e+00    0,000000000e+00    0,000000000e+00
      436000000   -5,292222649e-02   -4,598702770e-03   -3,023106754e-01   -6,478358507e-01    0,000000000e+00    0,000000000e+00    0,000000000e+00    0,000000000e+00
      450000000   -4,450690746e-02    1,297200099e-03   -5,927477479e-01   -3,785505295e-01    0,000000000e+00    0,000000000e+00    0,000000000e+00    0,000000000e+00
      464000000   -2,901363187e-02    1,125009730e-02   -6,913501620e-01    2,754609741e-04    0,000000000e+00    0,000000000e+00    0,000000000e+00    0,000000000e+00
      478000000   -1,315257163e-03    1,110352855e-02   -5,735473037e-01    3,630322218e-01    0,000000000e+00    0,000000000e+00    0,000000000e+00    0,000000000e+00
      492000000    2,783893980e-02   -1,258628909e-02   -2,894237041e-01    6,016636491e-01    0,000000000e+00    0,000000000e+00    0,000000000e+00    0,000000000e+00
      506000000    3,686524928e-02   -5,591595918e-02    6,971784681e-02    6,589889526e-01    0,000000000e+00    0,000000000e+00    0,000000000e+00    0,000000000e+00
      520000000    1,251301542e-02   -9,918149561e-02    4,047182500e-01    5,249949694e-01    0,000000000e+00    0,000000000e+00    0,000000000e+00    0,000000000e+00
      534000000   -3,402954340e-02   -1,164220124e-01    6,239556670e-01    2,359173894e-01    0,000000000e+00    0,000000000e+00    0,000000000e+00    0,000000000e+00
      548000000   -7,771507651e-02   -9,924852103e-02    6,577031016e-01   -1,330797672e-01    0,000000000e+00    0,000000000e+00    0,000000000e+00    0,000000000e+00
      562000000   -9,302691370e-02   -6,625761092e-02    4,823361635e-01   -4,669783711e-01    0,000000000e+00    0,000000000e+00    0,000000000e+00    0,000000000e+00
      576000000   -8,649965376e-02   -4,463175312e-02    1,494408250e-01   -6,479536295e-01    0,000000000e+00    0,000000000e+00    0,000000000e+00    0,000000000e+00
      590000000   -8,061681688e-02   -4,166762903e-02   -2,188557535e-01   -6,259805560e-01    0,000000000e+00    0,000000000e+00    0,000000000e+00    0,000000000e+00
      604000000   -8,870068938e-02   -3,752461076e-02   -5,193575621e-01   -4,065602720e-01    0,000000000e+00    0,000000000e+00    0,000000000e+00    0,000000000e+00
      618000000   -9,688305110e-02   -1,480788086e-02   -6,532840133e-01   -5,815460533e-02    0,000000000e+00    0,000000000e+00    0,000000000e+00    0,000000000e+00
      632000000   -8,071087301e-02    1,543520764e-02   -5,754541755e-01    3,021852076e-01    0,000000000e+00    0,000000000e+00    0,000000000e+00    0,000000000e+00
      646000000   -4,269095883e-02    2,580546029e-02   -3,193316758e-01    5,553699136e-01    0,000000000e+00    0,000000000e+00    0,000000000e+00    0,000000000e+00
      660000000   -7,320079021e-03    5,568310618e-03    2,181090415e-02    6,290250421e-01    0,000000000e+00    0,000000000e+00    0,000000000e+00    0,000000000e+00
      674000000    1,741636079e-03   -3,000754863e-02    3,423023820e-01    5,181606412e-01    0,000000000e+00    0,000000000e+00    0,000000000e+00    0,000000000e+00
      688000000   -1,497295313e-02   -5,604556203e-02    5,585093498e-01    2,589543462e-01    0,000000000e+00    0,000000000e+00    0,000000000e+00    0,000000000e+00
      702000000   -3,325424716e-02   -5,934751034e-02    6,078685522e-01   -8,075528592e-02    0,000000000e+00    0,000000000e+00    0,000000000e+00    0,000000000e+00
      716000000   -3,768465668e-02   -5,602644756e-02    4,589850903e-01   -3,895673454e-01    0,000000000e+00    0,000000000e+00    0,000000000e+00    0,000000000e+00
      730000000   -3,215377778e-02   -6,428501010e-02    1,739248782e-01   -5,666249990e-01    0,000000000e+00    0,000000000e+00    0,000000000e+00    0,000000000e+00
      744000000   -3,984935582e-02   -8,836784214e-02   -1,526414752e-01   -5,640218258e-01    0,000000000e+00    0,000000000e+00    0,000000000e+00    0,000000000e+00
      758000000   -7,170984149e-02   -1,043912694e-01   -4,266344011e-01   -3,947570622e-01    0,000000000e+00    0,000000000e+00    0,000000000e+00    0,000000000e+00
      772000000   -1,137914062e-01   -9,456739575e-02   -5,745905638e-01   -1,060609967e-01    0,000000000e+00    0,000000000e+00    0,000000000e+00    0,000000000e+00
      786000000   -1,383777708e-01   -5,643106252e-02   -5,450066328e-01    2,208240330e-01    0,000000000e+00    0,000000000e+00    0,000000000e+00    0,000000000e+00
      800000000   -1,333166212e-01   -1,482004672e-02   -3,413133025e-01    4,794735610e-01    0,000000000e+00    0,000000000e+00    0,000000000e+00    0,000000000e+00
      814000000   -1,083968058e-01    8,022495545e-03   -3,356096521e-02    5,858912468e-01    0,000000000e+00    0,000000000e+00    0,000000000e+00    0,000000000e+00
      828000000   -8,532951772e-02    1,308259834e-02    2,773705125e-01    5,141215324e-01    0,000000000e+00    0,000000000e+00    0,000000000e+00    0,000000000e+00
      842000000   -7,034108043e-02    1,524385251e-02    5,027067065e-01    2,894285321e-01    0,000000000e+00    0,000000000e+00    0,000000000e+00    0,000000000e+00
      856000000   -5,256845057e-02    1,892256550e-02    5,707248449e-01   -1,756542549e-02    0,000000000e+00    0,000000000e+00    0,000000000e+00    0,000000000e+00
      870000000   -2,262587659e-02    1,441228203e-02    4,641799033e-01   -3,067220151e-01    0,000000000e+00    0,000000000e+00    0,000000000e+00    0,000000000e+00
      884000000    6,076779217e-03   -1,470654458e-02    2,309010923e-01   -4,885366261e-01    0,000000000e+00    0,000000000e+00    0,000000000e+00    0,000000000e+00
      898000000    1,150578726e-02   -6,312932819e-02   -5,212397501e-02   -5,253953934e-01    0,000000000e+00    0,000000000e+00    0,000000000e+00    0,000000000e+00
      912000000   -2,350163274e-02   -1,080187634e-01   -3,629601598e-01   -3,953814209e-01    0,000000000e+00    0,000000000e+00    0,000000000e+00    0,000000000e+00
      926000000   -7,647335529e-02   -1,234301403e-01   -5,313835740e-01   -1,592640430e-01    0,000000000e+00    0,000000000e+00    0,000000000e+00    0,000000000e+00
      940000000   -1,204716638e-01   -1,034338251e-01   -5,528941154e-01    1,562598199e-01    0,000000000e+00    0,000000000e+00    0,000000000e+00    0,000000000e+00
      954000000   -1,442332715e-01   -6,338334829e-02   -3,922686577e-01    4,461519122e-01    0,000000000e+00    0,000000000e+00    0,000000000e+00    0,000000000e+00
      968000000   -1,303652525e-01   -2,998492494e-02   -9,014137089e-02    6,012178659e-01    0,000000000e+00    0,000000000e+00    0,000000000e+00    0,000000000e+00
      982000000   -1,169262156e-01   -1,649333350e-02    2,450482547e-01    5,718500018e-01    0,000000000e+00    0,000000000e+00    0,000000000e+00    0,000000000e+00
      996000000   -1,073813215e-01   -1,531987172e-02    5,117251277e-01    3,650062084e-01    0,000000000e+00    0,000000000e+00    0,000000000e+00    0,000000000e+00
     1010000000   -1,008132547e-01   -6,679423619e-03    6,291828156e-01    5,215295777e-02    0,000000000e+00    0,000000000e+00    0,000000000e+00    0,000000000e+00
     1024000000   -9,132676572e-02   -2,327128081e-03    5,610471964e-01   -2,693059444e-01    0,000000000e+00    0,000000000e+00    0,000000000e+00    0,000000000e+00
     1038000000   -7,957413793e-02   -1,276759314e-03    3,368470073e-01   -5,031899810e-01    0,000000000e+00    0,000000000e+00    0,000000000e+00    0,000000000e+00
     1052000000   -6,451391429e-02   -1,303664595e-02    3,413089737e-02   -5,834909081e-01    0,000000000e+00    0,000000000e+00    0,000000000e+00    0,000000000e+00
     1066000000   -6,770740449e-02   -3,320307285e-02   -2,626552880e-01   -5,028557181e-01    0,000000000e+00    0,000000000e+00    0,000000000e+00    0,000000000e+00
     1080000000   -8,021415770e-02   -2,907769755e-02   -4,808520377e-01   -2,704198956e-01    0,000000000e+00    0,000000000e+00    0,000000000e+00    0,000000000e+00
     1094000000   -8,202538639e-02   -1,418826822e-02   -5,325864553e-01    3,956576809e-02    0,000000000e+00    0,000000000e+00    0,000000000e+00    0,000000000e+00
     1108000000   -5,758550391e-02   -1,363791805e-02   -3,983142972e-01    3,250877559e-01    0,000000000e+00    0,000000000e+00    0,000000000e+00    0,000000000e+00
     1122000000   -3,432457149e-02   -3,580973297e-02   -1,357562691e-01    4,816017747e-01    0,000000000e+00    0,000000000e+00    0,000000000e+00    0,000000000e+00
     1136000000   -2,888703346e-02   -8,810503036e-02    1,635460705e-01    4,768449068e-01    0,000000000e+00    0,000000000e+00    0,000000000e+00    0,000000000e+00
     1150000000   -6,839673966e-02   -1,324527413e-01    4,191803932e-01    3,132071495e-01    0,000000000e+00    0,000000000e+00    0,000000000e+00    0,000000000e+00
     1164000000   -1,345861107e-01   -1,532282829e-01    5,630468726e-01    2,822366729e-02    0,000000000e+00    0,000000000e+00    0,000000000e+00    0,000000000e+00
     1178000000   -2,136226892e-01   -1,204380766e-01    5,336297750e-01   -3,166795075e-01    0,000000000e+00    0,000000000e+00    0,000000000e+00    0,000000000e+00
     1192000000   -2,459403723e-01   -4,742538184e-02    2,994597554e-01   -5,988920927e-01    0,000000000e+00    0,000000000e+00    0,000000000e+00    0,000000000e+00
     1206000000   -2,349247932e-01    3,146517277e-02   -6,588583440e-02   -7,018628716e-01    0,000000000e+00    0,000000000e+00    0,000000000e+00    0,000000000e+00
     1220000000   -1,862027794e-01    8,335371315e-02   -4,222106636e-01   -5,766991377e-01    0,000000000e+00    0,000000000e+00    0,000000000e+00    0,000000000e+00
     1234000000   -1,278350949e-01    1,073257327e-01   -6,450191140e-01   -2,887167335e-01    0,000000000e+00    0,000000000e+00    0,000000000e+00    0,000000000e+00
     1248000000   -7,063551247e-02    9,818219393e-02   -6,779865623e-01    6,049042940e-02    0,000000000e+00    0,000000000e+00    0,000000000e+00    0,000000000e+00
     1262000000   -8,809098043e-03    6,307169050e-02   -5,172300935e-01    3,684206903e-01    0,000000000e+00    0,000000000e+00    0,000000000e+00    0,000000000e+00
     1276000000    2,449969016e-02   -7,374900859e-03   -2,432806194e-01    5,440680981e-01    0,000000000e+00    0,000000000e+00    0,000000000e+00    0,000000000e+00
     1290000000    1,743358932e-02   -8,856332302e-02    7,173687220e-02    5,774478316e-01    0,000000000e+00    0,000000000e+00    0,000000000e+00    0,000000000e+00
     1304000000   -3,042907268e-02   -1,646714061e-01    3,672102392e-01    4,644806385e-01    0,000000000e+00    0,000000000e+00    0,000000000e+00    0,000000000e+00
     1318000000   -1,312515885e-01   -2,109479606e-01    5,884095430e-01    2,277822942e-01    0,000000000e+00    0,000000000e+00    0,000000000e+00    0,000000000e+00
     1332000000   -2,480670959e-01   -1,905052364e-01    6,624533534e-01   -1,273132265e-01    0,000000000e+00    0,000000000e+00    0,000000000e+00    0,000000000e+00
     1346000000   -3,318217397e-01   -9,091719240e-02    5,117453933e-01   -4,561026692e-01    0,000000000e+00    0,000000000e+00    0,000000000e+00    0,000000000e+00
     1360000000   -3,305363357e-01    2,619870566e-02    1,959117055e-01   -6,406936049e-01    0,000000000e+00    0,000000000e+00    0,000000000e+00    0,000000000e+00
     1374000000   -2,826082408e-01    1,070604995e-01   -1,578839123e-01   -6,041796803e-01    0,000000000e+00    0,000000000e+00    0,000000000e+00    0,000000000e+00
     1388000000   -2,117803991e-01    1,323284507e-01   -4,031926692e-01   -3,792594671e-01    0,000000000e+00    0,000000000e+00    0,000000000e+00    0,000000000e+00
     1402000000   -1,533527970e-01    1,344427317e-01   -4,894537330e-01   -6,313737482e-02    0,000000000e+00    0,000000000e+00    0,000000000e+00    0,000000000e+00
     1416000000   -9,677989781e-02    1,148638427e-01   -3,721742928e-01    2,356740981e-01    0,000000000e+00    0,000000000e+00    0,000000000e+00    0,000000000e+00
     1430000000   -4,827452824e-02    7,112311572e-02   -1,378270388e-01    4,410745203e-01    0,000000000e+00    0,000000000e+00    0,000000000e+00    0,000000000e+00
     1444000000   -3,878503293e-02    3,641617950e-03    1,573457718e-01    5,328072309e-01    0,000000000e+00    0,000000000e+00    0,000000000e+00    0,000000000e+00
     1458000000   -6,774757802e-02   -7,995294780e-02    4,846291542e-01    4,685317874e-01    0,000000000e+00    0,000000000e+00    0,000000000e+00    0,000000000e+00
     1472000000   -1,408179402e-01   -1,227461323e-01    7,446429729e-01    2,669966519e-01    0,000000000e+00    0,000000000e+00    0,000000000e+00    0,000000000e+00
     1486000000   -2,275358886e-01   -1,127494350e-01    9,087843299e-01   -8,387999237e-02    0,000000000e+00    0,000000000e+00    0,000000000e+00    0,000000000e+00
     1500000000   -2,893818319e-01   -4,181733355e-02    8,055692911e-01   -4,652272463e-01    0,000000000e+00    0,000000000e+00    0,000000000e+00    0,000000000e+00
