! NanoVNA-App
! Date: 2025-09-25 15:04:30
! Start: 100MHz Stop: 1,5GHz Points: 101
! S-Parameter data: F S11 S21 S12 S22
# Hz S RI R 50
!     Frequency           S11_Real           S11_Imag           S21_Real           S21_Imag           S12_Real           S12_Imag           S22_Real           S22_Imag
      100000000    3,111076355e-02    2,860727534e-02    4,347508252e-01   -6,686514020e-01    0,000000000e+00    0,000000000e+00    0,000000000e+00    0,000000000e+00
      114000000    5,752163753e-02    5,500503350e-03    7,519377396e-03   -7,909209132e-01    0,000000000e+00    0,000000000e+00    0,000000000e+00    0,000000000e+00
      128000000    6,722385436e-02   -3,782408312e-02   -4,104121923e-01   -6,713244319e-01    0,000000000e+00    0,000000000e+00    0,000000000e+00    0,000000000e+00
      142000000    4,468036443e-02   -8,416195214e-02   -7,029688358e-01   -3,533383012e-01    0,000000000e+00    0,000000000e+00    0,000000000e+00    0,000000000e+00
      156000000   -5,533429328e-03   -1,068004817e-01   -7,872285843e-01    7,421791553e-02    0,000000000e+00    0,000000000e+00    0,000000000e+00    0,000000000e+00
      170000000   -5,754131079e-02   -9,056129307e-02   -6,273981929e-01    4,871700406e-01    0,000000000e+00    0,000000000e+00    0,000000000e+00    0,000000000e+00
      184000000   -8,362214267e-02   -4,943472147e-02   -2,648321688e-01    7,510505319e-01    0,000000000e+00    0,000000000e+00    0,000000000e+00    0,000000000e+00
      198000000   -7,954584062e-02   -1,047683507e-02    1,833526790e-01    7,731761336e-01    0,000000000e+00    0,000000000e+00    0,000000000e+00    0,000000000e+00
      212000000   -6,219666451e-02    1,308714785e-02    5,690555573e-01    5,487550497e-01    0,000000000e+00    0,000000000e+00    0,000000000e+00    0,000000000e+00
      226000000   -4,328237101e-02    2,761000209e-02    7,707980871e-01    1,543109417e-01    0,000000000e+00    0,000000000e+00    0,000000000e+00    0,000000000e+00
      240000000   -1,816610806e-02    3,845280409e-02    7,267910838e-01   -2,820906937e-01    0,000000000e+00    0,000000000e+00    0,000000000e+00    0,000000000e+00
      254000000    1,715812832e-02    3,508152068e-02    4,578212798e-01   -6,203913689e-01    0,000000000e+00    0,000000000e+00    0,000000000e+00    0,000000000e+00
      268000000    4,866154119e-02    5,519160070e-03    5,871505290e-02   -7,604176402e-01    0,000000000e+00    0,000000000e+00    0,000000000e+00    0,000000000e+00
      282000000    5,331262946e-02   -4,178334400e-02   -3,494353294e-01   -6,713933349e-01    0,000000000e+00    0,000000000e+00    0,000000000e+00    0,000000000e+00
      296000000    2,390881255e-02   -7,940275222e-02   -6,519613266e-01   -3,853873014e-01    0,000000000e+00    0,000000000e+00    0,000000000e+00    0,000000000e+00
      310000000   -1,793968305e-02   -8,300144225e-02   -7,634567022e-01    2,169008739e-02    0,000000000e+00    0,000000000e+00    0,000000000e+00    0,000000000e+00
      324000000   -4,175999761e-02   -5,868038163e-02   -6,325895190e-01    4,308525622e-01    0,000000000e+00    0,000000000e+00    0,000000000e+00    0,000000000e+00
      338000000   -3,420322761e-02   -3,672456369e-02   -2,956514657e-01    6,990821958e-01    0,000000000e+00    0,000000000e+00    0,000000000e+00    0,000000000e+00
      352000000   -1,746635325e-02   -4,086473584e-02    1,251980066e-01    7,420347929e-01    0,000000000e+00    0,000000000e+00    0,000000000e+00    0,000000000e+00
      366000000   -1,919158734e-02   -6,198856607e-02    4,983566999e-01    5,545780063e-01    0,000000000e+00    0,000000000e+00    0,000000000e+00    0,000000000e+00
      380000000   -4,420709237e-02   -7,270482183e-02    7,135094404e-01    1,995332390e-01    0,000000000e+00    0,000000000e+00    0,000000000e+00    0,000000000e+00
      394000000   -7,086048275e-02   -5,832479149e-02    7,038340569e-01   -2,166381627e-01    0,000000000e+00    0,000000000e+00    0,000000000e+00    0,000000000e+00
      408000000   -7,681912929e-02   -3,060643189e-02    4,700738490e-01   -5,609869957e-01    0,000000000e+00    0,000000000e+00    0,000000000e+00    0,000000000e+00
      422000000   -6,566961110e-02   -1,126261055e-02    9,295456856e-02   -7,179327607e-01    0,000000000e+00    0,000000000e+00    0,000000000e+00    0,000000000e+00
      436000000   -5,328633636e-02   -4,462039564e-03   -3,023803234e-01   -6,476734281e-01    0,000000000e+00    0,000000000e+00    0,000000000e+00    0,000000000e+00
      450000000   -4,502659664e-02    2,123894170e-03   -5,935204029e-01   -3,775520325e-01    0,000000000e+00    0,000000000e+00    0,000000000e+00    0,000000000e+00
      464000000   -2,946110070e-02    1,154866815e-02   -6,906871200e-01    6,886468036e-04    0,000000000e+00    0,000000000e+00    0,000000000e+00    0,000000000e+00
      478000000   -7,582968683e-04    1,126737520e-02   -5,721207857e-01    3,636221290e-01    0,000000000e+00    0,000000000e+00    0,000000000e+00    0,000000000e+00
      492000000    2,858430706e-02   -1,238009334e-02   -2,887049317e-01    6,021345854e-01    0,000000000e+00    0,000000000e+00    0,000000000e+00    0,000000000e+00
      506000000    3,646894544e-02   -5,577712134e-02    7,005006075e-02    6,580678225e-01    0,000000000e+00    0,000000000e+00    0,000000000e+00    0,000000000e+00
      520000000    1,157034468e-02   -9,881144017e-02    4,046865106e-01    5,238038898e-01    0,000000000e+00    0,000000000e+00    0,000000000e+00    0,000000000e+00
      534000000   -3,482568264e-02   -1,159872115e-01    6,234928966e-01    2,360458076e-01    0,000000000e+00    0,000000000e+00    0,000000000e+00    0,000000000e+00
      548000000   -7,749095559e-02   -9,935769439e-02    6,578892469e-01   -1,335302889e-01    0,000000000e+00    0,000000000e+00    0,000000000e+00    0,000000000e+00
      562000000   -9,302938730e-02   -6,608705968e-02    4,820953906e-01   -4,673038721e-01    0,000000000e+00    0,000000000e+00    0,000000000e+00    0,000000000e+00
      576000000   -8,627445996e-02   -4,428744689e-02    1,504730582e-01   -6,480710506e-01    0,000000000e+00    0,000000000e+00    0,000000000e+00    0,000000000e+00
      590000000   -8,064824343e-02   -4,195250571e-02   -2,202200145e-01   -6,267479062e-01    0,000000000e+00    0,000000000e+00    0,000000000e+00    0,000000000e+00
      604000000   -8,950137347e-02   -3,746883199e-02   -5,209523439e-01   -4,067402780e-01    0,000000000e+00    0,000000000e+00    0,000000000e+00    0,000000000e+00
      618000000   -9,665410221e-02   -1,482439134e-02   -6,532261968e-01   -5,826004222e-02    0,000000000e+00    0,000000000e+00    0,000000000e+00    0,000000000e+00
      632000000   -8,153212070e-02    1,557254139e-02   -5,758030415e-01    3,034812510e-01    0,000000000e+00    0,000000000e+00    0,000000000e+00    0,000000000e+00
      646000000   -4,331533238e-02    2,657710388e-02   -3,189409673e-01    5,561155677e-01    0,000000000e+00    0,000000000e+00    0,000000000e+00    0,000000000e+00
      660000000   -7,479600143e-03    6,731626112e-03    2,317301929e-02    6,303171515e-01    0,000000000e+00    0,000000000e+00    0,000000000e+00    0,000000000e+00
      674000000    1,556712785e-03   -3,046423011e-02    3,426069915e-01    5,186683536e-01    0,000000000e+00    0,000000000e+00    0,000000000e+00    0,000000000e+00
      688000000   -1,498694159e-02   -5,625071377e-02    5,588884354e-01    2,583695650e-01    0,000000000e+00    0,000000000e+00    0,000000000e+00    0,000000000e+00
      702000000   -3,342738003e-02   -5,858517438e-02    6,071164012e-01   -8,334510773e-02    0,000000000e+00    0,000000000e+00    0,000000000e+00    0,000000000e+00
      716000000   -3,677061573e-02   -5,693858862e-02    4,592670500e-01   -3,898818195e-01    0,000000000e+00    0,000000000e+00    0,000000000e+00    0,000000000e+00
      730000000   -3,293976188e-02   -6,559218466e-02    1,734519154e-01   -5,656591058e-01    0,000000000e+00    0,000000000e+00    0,000000000e+00    0,000000000e+00
      744000000   -4,118876532e-02   -8,780888468e-02   -1,535037905e-01   -5,642111301e-01    0,000000000e+00    0,000000000e+00    0,000000000e+00    0,000000000e+00
      758000000   -7,242639363e-02   -1,046831384e-01   -4,280052781e-01   -3,944787979e-01    0,000000000e+00    0,000000000e+00    0,000000000e+00    0,000000000e+00
      772000000   -1,144628078e-01   -9,318028390e-02   -5,746951103e-01   -1,050171331e-01    0,000000000e+00    0,000000000e+00    0,000000000e+00    0,000000000e+00
      786000000   -1,382956952e-01   -5,558545142e-02   -5,443512201e-01    2,220200449e-01    0,000000000e+00    0,000000000e+00    0,000000000e+00    0,000000000e+00
      800000000   -1,310485452e-01   -1,448354404e-02   -3,404751122e-01    4,796542525e-01    0,000000000e+00    0,000000000e+00    0,000000000e+00    0,000000000e+00
      814000000   -1,071325913e-01    8,181489073e-03   -3,296309710e-02    5,858775973e-01    0,000000000e+00    0,000000000e+00    0,000000000e+00    0,000000000e+00
      828000000   -8,495523781e-02    1,199828926e-02    2,771068513e-01    5,143390894e-01    0,000000000e+00    0,000000000e+00    0,000000000e+00    0,000000000e+00
      842000000   -7,159502059e-02    1,386425365e-02    5,029124022e-01    2,890045047e-01    0,000000000e+00    0,000000000e+00    0,000000000e+00    0,000000000e+00
      856000000   -5,350423604e-02    1,819987781e-02    5,703784823e-01   -1,775514334e-02    0,000000000e+00    0,000000000e+00    0,000000000e+00    0,000000000e+00
      870000000   -2,407699078e-02    1,466970425e-02    4,642236531e-01   -3,062285185e-01    0,000000000e+00    0,000000000e+00    0,000000000e+00    0,000000000e+00
      884000000    5,055487156e-03   -1,399361622e-02    2,299907207e-01   -4,888432622e-01    0,000000000e+00    0,000000000e+00    0,000000000e+00    0,000000000e+00
      898000000    1,129632629e-02   -6,220280379e-02   -5,113765225e-02   -5,259418488e-01    0,000000000e+00    0,000000000e+00    0,000000000e+00    0,000000000e+00
      912000000   -2,283840813e-02   -1,076117158e-01   -3,657411933e-01   -3,945451379e-01    0,000000000e+00    0,000000000e+00    0,000000000e+00    0,000000000e+00
      926000000   -7,254683226e-02   -1,225554571e-01   -5,299628973e-01   -1,574039757e-01    0,000000000e+00    0,000000000e+00    0,000000000e+00    0,000000000e+00
      940000000   -1,234677806e-01   -1,032389626e-01   -5,520929694e-01    1,554194689e-01    0,000000000e+00    0,000000000e+00    0,000000000e+00    0,000000000e+00
      954000000   -1,408032179e-01   -6,440899521e-02   -3,915868700e-01    4,455485046e-01    0,000000000e+00    0,000000000e+00    0,000000000e+00    0,000000000e+00
      968000000   -1,296221763e-01   -2,918085642e-02   -9,142284840e-02    6,038860083e-01    0,000000000e+00    0,000000000e+00    0,000000000e+00    0,000000000e+00
      982000000   -1,133594587e-01   -1,487313025e-02    2,461444288e-01    5,718597174e-01    0,000000000e+00    0,000000000e+00    0,000000000e+00    0,000000000e+00
      996000000   -1,067279875e-01   -1,613642834e-02    5,138246417e-01    3,674743772e-01    0,000000000e+00    0,000000000e+00    0,000000000e+00    0,000000000e+00
     1010000000   -1,006132215e-01   -5,693935324e-03    6,291282177e-01    5,063761026e-02    0,000000000e+00    0,000000000e+00    0,000000000e+00    0,000000000e+00
     1024000000   -9,198574722e-02   -5,177317653e-04    5,618517399e-01   -2,716385722e-01    0,000000000e+00    0,000000000e+00    0,000000000e+00    0,000000000e+00
     1038000000   -7,745762914e-02    5,037969095e-04    3,359275162e-01   -5,072662830e-01    0,000000000e+00    0,000000000e+00    0,000000000e+00    0,000000000e+00
     1052000000   -6,676365435e-02   -1,733905822e-02    3,096614406e-02   -5,856699347e-01    0,000000000e+00    0,000000000e+00    0,000000000e+00    0,000000000e+00
     1066000000   -6,818984449e-02   -2,909647860e-02   -2,718389630e-01   -5,004887581e-01    0,000000000e+00    0,000000000e+00    0,000000000e+00    0,000000000e+00
     1080000000   -7,973838598e-02   -3,600250185e-02   -4,826623201e-01   -2,691328228e-01    0,000000000e+00    0,000000000e+00    0,000000000e+00    0,000000000e+00
     1094000000   -7,823947072e-02   -1,901394501e-02   -5,303370357e-01    4,422609508e-02    0,000000000e+00    0,000000000e+00    0,000000000e+00    0,000000000e+00
     1108000000   -6,131214276e-02   -1,380306389e-02   -3,949461281e-01    3,257817030e-01    0,000000000e+00    0,000000000e+00    0,000000000e+00    0,000000000e+00
     1122000000   -3,304487094e-02   -3,194532543e-02   -1,347557157e-01    4,802488685e-01    0,000000000e+00    0,000000000e+00    0,000000000e+00    0,000000000e+00
     1136000000   -3,115110658e-02   -8,346732706e-02    1,639323682e-01    4,701289535e-01    0,000000000e+00    0,000000000e+00    0,000000000e+00    0,000000000e+00
     1150000000   -6,381612271e-02   -1,323076189e-01    4,169812799e-01    3,071884811e-01    0,000000000e+00    0,000000000e+00    0,000000000e+00    0,000000000e+00
     1164000000   -1,330733448e-01   -1,536061913e-01    5,591422319e-01    2,213006094e-02    0,000000000e+00    0,000000000e+00    0,000000000e+00    0,000000000e+00
     1178000000   -2,067316324e-01   -1,204397529e-01    5,273189545e-01   -3,169704378e-01    0,000000000e+00    0,000000000e+00    0,000000000e+00    0,000000000e+00
     1192000000   -2,438068539e-01   -4,265759513e-02    2,943496704e-01   -5,985949039e-01    0,000000000e+00    0,000000000e+00    0,000000000e+00    0,000000000e+00
     1206000000   -2,313693762e-01    3,623206913e-02   -6,683392078e-02   -6,907785535e-01    0,000000000e+00    0,000000000e+00    0,000000000e+00    0,000000000e+00
     1220000000   -1,850481182e-01    8,071538806e-02   -4,181065261e-01   -5,792822838e-01    0,000000000e+00    0,000000000e+00    0,000000000e+00    0,000000000e+00
     1234000000   -1,241338328e-01    1,064083874e-01   -6,428002715e-01   -2,874572873e-01    0,000000000e+00    0,000000000e+00    0,000000000e+00    0,000000000e+00
     1248000000   -6,844387203e-02    1,006932780e-01   -6,714460254e-01    6,622558087e-02    0,000000000e+00    0,000000000e+00    0,000000000e+00    0,000000000e+00
     1262000000   -1,017096452e-02    6,154097989e-02   -5,136038065e-01    3,627206087e-01    0,000000000e+00    0,000000000e+00    0,000000000e+00    0,000000000e+00
     1276000000    1,990247704e-02   -4,055408644e-04   -2,501485646e-01    5,428237319e-01    0,000000000e+00    0,000000000e+00    0,000000000e+00    0,000000000e+00
     1290000000    2,171340212e-02   -8,305595070e-02    6,948164105e-02    5,761012435e-01    0,000000000e+00    0,000000000e+00    0,000000000e+00    0,000000000e+00
     1304000000   -3,436259553e-02   -1,684363335e-01    3,562621772e-01    4,668654501e-01    0,000000000e+00    0,000000000e+00    0,000000000e+00    0,000000000e+00
     1318000000   -1,323772818e-01   -2,120037973e-01    5,863133669e-01    2,177446038e-01    0,000000000e+00    0,000000000e+00    0,000000000e+00    0,000000000e+00
     1332000000   -2,550432980e-01   -1,906138361e-01    6,558480859e-01   -1,315525621e-01    0,000000000e+00    0,000000000e+00    0,000000000e+00    0,000000000e+00
     1346000000   -3,298798800e-01   -8,965627849e-02    5,139912367e-01   -4,584227502e-01    0,000000000e+00    0,000000000e+00    0,000000000e+00    0,000000000e+00
     1360000000   -3,306887746e-01    2,687283605e-02    1,933704764e-01   -6,345373392e-01    0,000000000e+00    0,000000000e+00    0,000000000e+00    0,000000000e+00
     1374000000   -2,809222043e-01    1,063818857e-01   -1,527608931e-01   -6,020888090e-01    0,000000000e+00    0,000000000e+00    0,000000000e+00    0,000000000e+00
     1388000000   -2,171625197e-01    1,366533786e-01   -4,066969156e-01   -3,728491962e-01    0,000000000e+00    0,000000000e+00    0,000000000e+00    0,000000000e+00
     1402000000   -1,514206976e-01    1,355873793e-01   -4,749804139e-01   -6,374276429e-02    0,000000000e+00    0,000000000e+00    0,000000000e+00    0,000000000e+00
     1416000000   -9,865722805e-02    1,205742955e-01   -3,750660121e-01    2,466421723e-01    0,000000000e+00    0,000000000e+00    0,000000000e+00    0,000000000e+00
     1430000000   -4,789280146e-02    7,159575075e-02   -1,255232841e-01    4,418524504e-01    0,000000000e+00    0,000000000e+00    0,000000000e+00    0,000000000e+00
     1444000000   -3,736167401e-02    1,711834571e-03    1,716805696e-01    5,276931524e-01    0,000000000e+00    0,000000000e+00    0,000000000e+00    0,000000000e+00
     1458000000   -5,562747270e-02   -7,103510946e-02    4,930976629e-01    4,708303809e-01    0,000000000e+00    0,000000000e+00    0,000000000e+00    0,000000000e+00
     1472000000   -1,420873851e-01   -1,175255552e-01    7,549994588e-01    2,649047673e-01    0,000000000e+00    0,000000000e+00    0,000000000e+00    0,000000000e+00
     1486000000   -2,334212512e-01   -1,155512705e-01    8,886073828e-01   -8,242639154e-02    0,000000000e+00    0,000000000e+00    0,000000000e+00    0,000000000e+00
     1500000000   -2,915034592e-01   -4,399872199e-02    8,091620803e-01   -4,670044780e-01    0,000000000e+00    0,000000000e+00    0,000000000e+00    0,000000000e+00
