! NanoVNA-App
! Date: 2025-09-25 15:06:42
! Start: 100MHz Stop: 1,5GHz Points: 101
! S-Parameter data: F S11 S21 S12 S22
# Hz S RI R 50
!     Frequency           S11_Real           S11_Imag           S21_Real           S21_Imag           S12_Real           S12_Imag           S22_Real           S22_Imag
      100000000    3,117606044e-02    2,864228003e-02    4,348762333e-01   -6,686598659e-01    0,000000000e+00    0,000000000e+00    0,000000000e+00    0,000000000e+00
      114000000    5,757634714e-02    5,502322689e-03    7,689393125e-03   -7,909444571e-01    0,000000000e+00    0,000000000e+00    0,000000000e+00    0,000000000e+00
      128000000    6,726850569e-02   -3,778676689e-02   -4,104064405e-01   -6,712806821e-01    0,000000000e+00    0,000000000e+00    0,000000000e+00    0,000000000e+00
      142000000    4,476569593e-02   -8,418652415e-02   -7,027316093e-01   -3,533096313e-01    0,000000000e+00    0,000000000e+00    0,000000000e+00    0,000000000e+00
      156000000   -5,395426881e-03   -1,065123528e-01   -7,871884108e-01    7,308750600e-02    0,000000000e+00    0,000000000e+00    0,000000000e+00    0,000000000e+00
      170000000   -5,768430978e-02   -9,065753967e-02   -6,276023984e-01    4,870822132e-01    0,000000000e+00    0,000000000e+00    0,000000000e+00    0,000000000e+00
      184000000   -8,362039924e-02   -4,945909977e-02   -2,650500238e-01    7,512754202e-01    0,000000000e+00    0,000000000e+00    0,000000000e+00    0,000000000e+00
      198000000   -7,959487289e-02   -1,047035307e-02    1,833418906e-01    7,729154825e-01    0,000000000e+00    0,000000000e+00    0,000000000e+00    0,000000000e+00
      212000000   -6,220846996e-02    1,316894498e-02    5,689808130e-01    5,488088131e-01    0,000000000e+00    0,000000000e+00    0,000000000e+00    0,000000000e+00
      226000000   -4,322360829e-02    2,771690302e-02    7,706760764e-01    1,543738246e-01    0,000000000e+00    0,000000000e+00    0,000000000e+00    0,000000000e+00
      240000000   -1,817105524e-02    3,848048672e-02    7,267383933e-01   -2,818450332e-01    0,000000000e+00    0,000000000e+00    0,000000000e+00    0,000000000e+00
      254000000    1,721737720e-02    3,515614197e-02    4,578625858e-01   -6,201891899e-01    0,000000000e+00    0,000000000e+00    0,000000000e+00    0,000000000e+00
      268000000    4,879492149e-02    5,583231337e-03    5,862176418e-02   -7,600751519e-01    0,000000000e+00    0,000000000e+00    0,000000000e+00    0,000000000e+00
      282000000    5,353432521e-02   -4,176393896e-02   -3,489900529e-01   -6,712699533e-01    0,000000000e+00    0,000000000e+00    0,000000000e+00    0,000000000e+00
      296000000    2,412913926e-02   -7,940234244e-02   -6,517931819e-01   -3,853109181e-01    0,000000000e+00    0,000000000e+00    0,000000000e+00    0,000000000e+00
      310000000   -1,776556298e-02   -8,328398317e-02   -7,636544704e-01    2,054225653e-02    0,000000000e+00    0,000000000e+00    0,000000000e+00    0,000000000e+00
      324000000   -4,142889753e-02   -5,887599662e-02   -6,318152547e-01    4,309813678e-01    0,000000000e+00    0,000000000e+00    0,000000000e+00    0,000000000e+00
      338000000   -3,416955844e-02   -3,666150942e-02   -2,962472439e-01    6,986458302e-01    0,000000000e+00    0,000000000e+00    0,000000000e+00    0,000000000e+00
      352000000   -1,725766994e-02   -4,063764960e-02    1,260806471e-01    7,429366708e-01    0,000000000e+00    0,000000000e+00    0,000000000e+00    0,000000000e+00
      366000000   -1,931464486e-02   -6,210023910e-02    4,979020953e-01    5,551650524e-01    0,000000000e+00    0,000000000e+00    0,000000000e+00    0,000000000e+00
      380000000   -4,421269521e-02   -7,275906205e-02    7,131162882e-01    1,997171193e-01    0,000000000e+00    0,000000000e+00    0,000000000e+00    0,000000000e+00
      394000000   -7,105245441e-02   -5,813246965e-02    7,039354444e-01   -2,165112495e-01    0,000000000e+00    0,000000000e+00    0,000000000e+00    0,000000000e+00
      408000000   -7,689256221e-02   -3,055148013e-02    4,696769118e-01   -5,596458316e-01    0,000000000e+00    0,000000000e+00    0,000000000e+00    0,000000000e+00
      422000000   -6,515830010e-02   -1,132050809e-02    9,251603484e-02   -7,173351049e-01    0,000000000e+00    0,000000000e+00    0,000000000e+00    0,000000000e+00
      436000000   -5,281149969e-02   -4,442542791e-03   -3,025576770e-01   -6,476820111e-01    0,000000000e+00    0,000000000e+00    0,000000000e+00    0,000000000e+00
      450000000   -4,465534911e-02    1,684078132e-03   -5,929551125e-01   -3,781427145e-01    0,000000000e+00    0,000000000e+00    0,000000000e+00    0,000000000e+00
      464000000   -2,954148315e-02    1,115978602e-02   -6,914198995e-01   -1,274983224e-04    0,000000000e+00    0,000000000e+00    0,000000000e+00    0,000000000e+00
      478000000   -1,253726427e-03    1,171854604e-02   -5,727424026e-01    3,634719551e-01    0,000000000e+00    0,000000000e+00    0,000000000e+00    0,000000000e+00
      492000000    2,761942148e-02   -1,230714936e-02   -2,893361747e-01    6,019962430e-01    0,000000000e+00    0,000000000e+00    0,000000000e+00    0,000000000e+00
      506000000    3,675207123e-02   -5,583560094e-02    7,004088908e-02    6,587957740e-01    0,000000000e+00    0,000000000e+00    0,000000000e+00    0,000000000e+00
      520000000    1,284726430e-02   -9,863919765e-02    4,022741020e-01    5,283901691e-01    0,000000000e+00    0,000000000e+00    0,000000000e+00    0,000000000e+00
      534000000   -3,411387652e-02   -1,159336641e-01    6,236931682e-01    2,362803966e-01    0,000000000e+00    0,000000000e+00    0,000000000e+00    0,000000000e+00
      548000000   -7,703691721e-02   -9,936672449e-02    6,583400369e-01   -1,333475709e-01    0,000000000e+00    0,000000000e+00    0,000000000e+00    0,000000000e+00
      562000000   -9,299230576e-02   -6,607528776e-02    4,821543097e-01   -4,665805697e-01    0,000000000e+00    0,000000000e+00    0,000000000e+00    0,000000000e+00
      576000000   -8,631209284e-02   -4,504026473e-02    1,500392109e-01   -6,478847861e-01    0,000000000e+00    0,000000000e+00    0,000000000e+00    0,000000000e+00
      590000000   -8,088882267e-02   -4,158550128e-02   -2,182991058e-01   -6,290662885e-01    0,000000000e+00    0,000000000e+00    0,000000000e+00    0,000000000e+00
      604000000   -8,871416003e-02   -3,741200268e-02   -5,193340778e-01   -4,061385095e-01    0,000000000e+00    0,000000000e+00    0,000000000e+00    0,000000000e+00
      618000000   -9,703019261e-02   -1,569754630e-02   -6,533633471e-01   -5,881161243e-02    0,000000000e+00    0,000000000e+00    0,000000000e+00    0,000000000e+00
      632000000   -8,073072135e-02    1,487861760e-02   -5,749953389e-01    3,028734028e-01    0,000000000e+00    0,000000000e+00    0,000000000e+00    0,000000000e+00
      646000000   -4,241118580e-02    2,626129054e-02   -3,188070357e-01    5,557289720e-01    0,000000000e+00    0,000000000e+00    0,000000000e+00    0,000000000e+00
      660000000   -7,170545869e-03    5,989085883e-03    2,202621847e-02    6,294617653e-01    0,000000000e+00    0,000000000e+00    0,000000000e+00    0,000000000e+00
      674000000    1,122431830e-03   -2,947471105e-02    3,413088322e-01    5,186823010e-01    0,000000000e+00    0,000000000e+00    0,000000000e+00    0,000000000e+00
      688000000   -1,458700560e-02   -5,596188083e-02    5,583978891e-01    2,590301037e-01    0,000000000e+00    0,000000000e+00    0,000000000e+00    0,000000000e+00
      702000000   -3,370956331e-02   -5,931458622e-02    6,027810574e-01   -8,205945790e-02    0,000000000e+00    0,000000000e+00    0,000000000e+00    0,000000000e+00
      716000000   -3,690627590e-02   -5,515754223e-02    4,595462680e-01   -3,894353211e-01    0,000000000e+00    0,000000000e+00    0,000000000e+00    0,000000000e+00
      730000000   -3,177754954e-02   -6,451539695e-02    1,731284857e-01   -5,662028790e-01    0,000000000e+00    0,000000000e+00    0,000000000e+00    0,000000000e+00
      744000000   -4,081752896e-02   -8,820351958e-02   -1,529825926e-01   -5,635506511e-01    0,000000000e+00    0,000000000e+00    0,000000000e+00    0,000000000e+00
      758000000   -7,153605670e-02   -1,047248170e-01   -4,268837273e-01   -3,944881558e-01    0,000000000e+00    0,000000000e+00    0,000000000e+00    0,000000000e+00
      772000000   -1,143044308e-01   -9,309459478e-02   -5,742443204e-01   -1,057375669e-01    0,000000000e+00    0,000000000e+00    0,000000000e+00    0,000000000e+00
      786000000   -1,385271996e-01   -5,661928654e-02   -5,449886322e-01    2,211284190e-01    0,000000000e+00    0,000000000e+00    0,000000000e+00    0,000000000e+00
      800000000   -1,320591718e-01   -1,412407309e-02   -3,414780796e-01    4,788687825e-01    0,000000000e+00    0,000000000e+00    0,000000000e+00    0,000000000e+00
      814000000   -1,083495840e-01    8,143717423e-03   -3,463760018e-02    5,851255655e-01    0,000000000e+00    0,000000000e+00    0,000000000e+00    0,000000000e+00
      828000000   -8,554587513e-02    1,362283807e-02    2,786809504e-01    5,151012540e-01    0,000000000e+00    0,000000000e+00    0,000000000e+00    0,000000000e+00
      842000000   -7,017598301e-02    1,480867434e-02    5,028415918e-01    2,888568044e-01    0,000000000e+00    0,000000000e+00    0,000000000e+00    0,000000000e+00
      856000000   -5,251357704e-02    1,863177307e-02    5,703566670e-01   -1,746210456e-02    0,000000000e+00    0,000000000e+00    0,000000000e+00    0,000000000e+00
      870000000   -2,356182970e-02    1,425477210e-02    4,634738266e-01   -3,062933981e-01    0,000000000e+00    0,000000000e+00    0,000000000e+00    0,000000000e+00
      884000000    5,646073259e-03   -1,400615368e-02    2,303086221e-01   -4,870860279e-01    0,000000000e+00    0,000000000e+00    0,000000000e+00    0,000000000e+00
      898000000    1,216758229e-02   -6,386102736e-02   -5,165922642e-02   -5,261037946e-01    0,000000000e+00    0,000000000e+00    0,000000000e+00    0,000000000e+00
      912000000   -2,325425670e-02   -1,075691506e-01   -3,681691289e-01   -4,012959898e-01    0,000000000e+00    0,000000000e+00    0,000000000e+00    0,000000000e+00
      926000000   -7,544346899e-02   -1,248941049e-01   -5,311733484e-01   -1,600572318e-01    0,000000000e+00    0,000000000e+00    0,000000000e+00    0,000000000e+00
      940000000   -1,213301048e-01   -1,045002267e-01   -5,516987443e-01    1,560957581e-01    0,000000000e+00    0,000000000e+00    0,000000000e+00    0,000000000e+00
      954000000   -1,444030851e-01   -5,993609503e-02   -3,931510448e-01    4,465916753e-01    0,000000000e+00    0,000000000e+00    0,000000000e+00    0,000000000e+00
      968000000   -1,306748837e-01   -2,527462319e-02   -9,031701088e-02    6,030910611e-01    0,000000000e+00    0,000000000e+00    0,000000000e+00    0,000000000e+00
      982000000   -1,163848191e-01   -1,481173839e-02    2,456418872e-01    5,721134543e-01    0,000000000e+00    0,000000000e+00    0,000000000e+00    0,000000000e+00
      996000000   -1,094698012e-01   -1,560070179e-02    5,141173005e-01    3,666351736e-01    0,000000000e+00    0,000000000e+00    0,000000000e+00    0,000000000e+00
     1010000000   -1,015513539e-01   -5,232540891e-03    6,302505136e-01    5,285531655e-02    0,000000000e+00    0,000000000e+00    0,000000000e+00    0,000000000e+00
     1024000000   -9,495507181e-02    1,729521202e-03    5,595932007e-01   -2,713352442e-01    0,000000000e+00    0,000000000e+00    0,000000000e+00    0,000000000e+00
     1038000000   -7,742704451e-02   -3,135798266e-03    3,362526000e-01   -5,044260621e-01    0,000000000e+00    0,000000000e+00    0,000000000e+00    0,000000000e+00
     1052000000   -6,556544453e-02   -1,322891377e-02    3,335179761e-02   -5,865757465e-01    0,000000000e+00    0,000000000e+00    0,000000000e+00    0,000000000e+00
     1066000000   -6,760776043e-02   -3,180082887e-02   -2,653477490e-01   -5,014491677e-01    0,000000000e+00    0,000000000e+00    0,000000000e+00    0,000000000e+00
     1080000000   -8,095683903e-02   -3,407070413e-02   -4,798013568e-01   -2,703932226e-01    0,000000000e+00    0,000000000e+00    0,000000000e+00    0,000000000e+00
     1094000000   -8,370223641e-02   -1,522848569e-02   -5,328506231e-01    4,027318582e-02    0,000000000e+00    0,000000000e+00    0,000000000e+00    0,000000000e+00
     1108000000   -5,559564754e-02   -1,076959260e-02   -3,971129656e-01    3,265188038e-01    0,000000000e+00    0,000000000e+00    0,000000000e+00    0,000000000e+00
     1122000000   -3,348275274e-02   -3,680541739e-02   -1,339018196e-01    4,801112115e-01    0,000000000e+00    0,000000000e+00    0,000000000e+00    0,000000000e+00
     1136000000   -2,575677820e-02   -8,722937852e-02    1,638070494e-01    4,749259055e-01    0,000000000e+00    0,000000000e+00    0,000000000e+00    0,000000000e+00
     1150000000   -6,904928386e-02   -1,352512836e-01    4,205347300e-01    3,127486408e-01    0,000000000e+00    0,000000000e+00    0,000000000e+00    0,000000000e+00
     1164000000   -1,368645728e-01   -1,544843167e-01    5,660421848e-01    2,836810611e-02    0,000000000e+00    0,000000000e+00    0,000000000e+00    0,000000000e+00
     1178000000   -2,077136785e-01   -1,212367043e-01    5,290851593e-01   -3,184266388e-01    0,000000000e+00    0,000000000e+00    0,000000000e+00    0,000000000e+00
     1192000000   -2,502873540e-01   -4,421746358e-02    2,929626107e-01   -5,981276035e-01    0,000000000e+00    0,000000000e+00    0,000000000e+00    0,000000000e+00
     1206000000   -2,334526628e-01    3,763529658e-02   -6,920932978e-02   -6,970893741e-01    0,000000000e+00    0,000000000e+00    0,000000000e+00    0,000000000e+00
     1220000000   -1,825907677e-01    8,072228730e-02   -4,185290933e-01   -5,813726187e-01    0,000000000e+00    0,000000000e+00    0,000000000e+00    0,000000000e+00
     1234000000   -1,249067262e-01    1,053915545e-01   -6,441202164e-01   -2,916454971e-01    0,000000000e+00    0,000000000e+00    0,000000000e+00    0,000000000e+00
     1248000000   -6,754342467e-02    9,323501587e-02   -6,771937013e-01    5,882308260e-02    0,000000000e+00    0,000000000e+00    0,000000000e+00    0,000000000e+00
     1262000000   -1,289624535e-02    6,015680358e-02   -5,142865777e-01    3,662499487e-01    0,000000000e+00    0,000000000e+00    0,000000000e+00    0,000000000e+00
     1276000000    2,548602037e-02   -2,671957482e-03   -2,440942526e-01    5,474997759e-01    0,000000000e+00    0,000000000e+00    0,000000000e+00    0,000000000e+00
     1290000000    2,041931264e-02   -9,037698805e-02    6,793130189e-02    5,703883171e-01    0,000000000e+00    0,000000000e+00    0,000000000e+00    0,000000000e+00
     1304000000   -2,910768613e-02   -1,691746414e-01    3,692158163e-01    4,586360157e-01    0,000000000e+00    0,000000000e+00    0,000000000e+00    0,000000000e+00
     1318000000   -1,293225586e-01   -2,113266289e-01    5,898969173e-01    2,242224813e-01    0,000000000e+00    0,000000000e+00    0,000000000e+00    0,000000000e+00
     1332000000   -2,527972460e-01   -1,886205971e-01    6,521509290e-01   -1,304239929e-01    0,000000000e+00    0,000000000e+00    0,000000000e+00    0,000000000e+00
     1346000000   -3,356971741e-01   -8,791396022e-02    5,070757866e-01   -4,607587457e-01    0,000000000e+00    0,000000000e+00    0,000000000e+00    0,000000000e+00
     1360000000   -3,359470367e-01    2,449691482e-02    1,864205599e-01   -6,370913386e-01    0,000000000e+00    0,000000000e+00    0,000000000e+00    0,000000000e+00
     1374000000   -2,801044583e-01    1,053717285e-01   -1,589806080e-01   -6,009984612e-01    0,000000000e+00    0,000000000e+00    0,000000000e+00    0,000000000e+00
     1388000000   -2,105565965e-01    1,347747892e-01   -4,062848389e-01   -3,769319355e-01    0,000000000e+00    0,000000000e+00    0,000000000e+00    0,000000000e+00
     1402000000   -1,501590163e-01    1,409396231e-01   -4,907372296e-01   -5,777616426e-02    0,000000000e+00    0,000000000e+00    0,000000000e+00    0,000000000e+00
     1416000000   -9,880859405e-02    1,180159152e-01   -3,772075474e-01    2,434414476e-01    0,000000000e+00    0,000000000e+00    0,000000000e+00    0,000000000e+00
     1430000000   -5,403232202e-02    6,681196392e-02   -1,303308308e-01    4,599336684e-01    0,000000000e+00    0,000000000e+00    0,000000000e+00    0,000000000e+00
     1444000000   -4,089768976e-02    6,465278566e-03    1,534147561e-01    5,393307209e-01    0,000000000e+00    0,000000000e+00    0,000000000e+00    0,000000000e+00
     1458000000   -6,590223312e-02   -7,629177719e-02    4,893438816e-01    4,737945199e-01    0,000000000e+00    0,000000000e+00    0,000000000e+00    0,000000000e+00
     1472000000   -1,366947740e-01   -1,245013699e-01    7,530793548e-01    2,687465847e-01    0,000000000e+00    0,000000000e+00    0,000000000e+00    0,000000000e+00
     1486000000   -2,282851338e-01   -1,076899767e-01    8,948944807e-01   -7,565546036e-02    0,000000000e+00    0,000000000e+00    0,000000000e+00    0,000000000e+00
     1500000000   -2,811245322e-01   -5,268364772e-02    8,192740679e-01   -4,702316523e-01    0,000000000e+00    0,000000000e+00    0,000000000e+00    0,000000000e+00
