! NanoVNA-App
! Date: 2025-09-25 15:08:24
! Start: 100MHz Stop: 1,5GHz Points: 101
! S-Parameter data: F S11 S21 S12 S22
# Hz S RI R 50
!     Frequency           S11_Real           S11_Imag           S21_Real           S21_Imag           S12_Real           S12_Imag           S22_Real           S22_Imag
      100000000    3,116379306e-02    2,864661813e-02    4,348292649e-01   -6,686379910e-01    0,000000000e+00    0,000000000e+00    0,000000000e+00    0,000000000e+00
      114000000    5,753595382e-02    5,521689542e-03    7,831703871e-03   -7,909875512e-01    0,000000000e+00    0,000000000e+00    0,000000000e+00    0,000000000e+00
      128000000    6,727080047e-02   -3,779099137e-02   -4,103699923e-01   -6,710401773e-01    0,000000000e+00    0,000000000e+00    0,000000000e+00    0,000000000e+00
      142000000    4,470565915e-02   -8,416284621e-02   -7,028251290e-01   -3,532565534e-01    0,000000000e+00    0,000000000e+00    0,000000000e+00    0,000000000e+00
      156000000   -6,043260917e-03   -1,065275818e-01   -7,862395644e-01    7,370651513e-02    0,000000000e+00    0,000000000e+00    0,000000000e+00    0,000000000e+00
      170000000   -5,769434571e-02   -9,065986425e-02   -6,276291609e-01    4,872498214e-01    0,000000000e+00    0,000000000e+00    0,000000000e+00    0,000000000e+00
      184000000   -8,368961513e-02   -4,952257127e-02   -2,649495304e-01    7,510108948e-01    0,000000000e+00    0,000000000e+00    0,000000000e+00    0,000000000e+00
      198000000   -7,961896807e-02   -1,044136751e-02    1,832537502e-01    7,730735540e-01    0,000000000e+00    0,000000000e+00    0,000000000e+00    0,000000000e+00
      212000000   -6,227600574e-02    1,313865557e-02    5,691511035e-01    5,493187308e-01    0,000000000e+00    0,000000000e+00    0,000000000e+00    0,000000000e+00
      226000000   -4,326755926e-02    2,763985656e-02    7,706098557e-01    1,545201987e-01    0,000000000e+00    0,000000000e+00    0,000000000e+00    0,000000000e+00
      240000000   -1,815779321e-02    3,847237676e-02    7,266373634e-01   -2,818704545e-01    0,000000000e+00    0,000000000e+00    0,000000000e+00    0,000000000e+00
      254000000    1,719632559e-02    3,517904133e-02    4,579986334e-01   -6,200043559e-01    0,000000000e+00    0,000000000e+00    0,000000000e+00    0,000000000e+00
      268000000    4,877786711e-02    5,604973529e-03    5,854564533e-02   -7,606224418e-01    0,000000000e+00    0,000000000e+00    0,000000000e+00    0,000000000e+00
      282000000    5,349572003e-02   -4,173809290e-02   -3,490348756e-01   -6,713774800e-01    0,000000000e+00    0,000000000e+00    0,000000000e+00    0,000000000e+00
      296000000    2,390464395e-02   -7,962822914e-02   -6,518723965e-01   -3,853706717e-01    0,000000000e+00    0,000000000e+00    0,000000000e+00    0,000000000e+00
      310000000   -1,781234704e-02   -8,344851434e-02   -7,639166117e-01    2,077414840e-02    0,000000000e+00    0,000000000e+00    0,000000000e+00    0,000000000e+00
      324000000   -4,152589291e-02   -5,895349756e-02   -6,323426962e-01    4,310999811e-01    0,000000000e+00    0,000000000e+00    0,000000000e+00    0,000000000e+00
      338000000   -3,446149826e-02   -3,678941354e-02   -2,961697280e-01    6,990528703e-01    0,000000000e+00    0,000000000e+00    0,000000000e+00    0,000000000e+00
      352000000   -1,750780270e-02   -4,064349830e-02    1,243328303e-01    7,429794073e-01    0,000000000e+00    0,000000000e+00    0,000000000e+00    0,000000000e+00
      366000000   -1,919745654e-02   -6,191597879e-02    4,986746907e-01    5,545341372e-01    0,000000000e+00    0,000000000e+00    0,000000000e+00    0,000000000e+00
      380000000   -4,446208850e-02   -7,283013314e-02    7,129409909e-01    1,997709572e-01    0,000000000e+00    0,000000000e+00    0,000000000e+00    0,000000000e+00
      394000000   -7,074397057e-02   -5,775732175e-02    7,040442824e-01   -2,161636204e-01    0,000000000e+00    0,000000000e+00    0,000000000e+00    0,000000000e+00
      408000000   -7,707204670e-02   -3,034069948e-02    4,694719911e-01   -5,594279170e-01    0,000000000e+00    0,000000000e+00    0,000000000e+00    0,000000000e+00
      422000000   -6,533194333e-02   -1,124030165e-02    9,310547262e-02   -7,177882791e-01    0,000000000e+00    0,000000000e+00    0,000000000e+00    0,000000000e+00
      436000000   -5,288753286e-02   -4,573989194e-03   -3,014364243e-01   -6,476972699e-01    0,000000000e+00    0,000000000e+00    0,000000000e+00    0,000000000e+00
      450000000   -4,461799189e-02    1,660430571e-03   -5,925590396e-01   -3,782204390e-01    0,000000000e+00    0,000000000e+00    0,000000000e+00    0,000000000e+00
      464000000   -2,941990644e-02    1,144967787e-02   -6,913142204e-01    1,912630105e-04    0,000000000e+00    0,000000000e+00    0,000000000e+00    0,000000000e+00
      478000000   -1,120820525e-03    1,097378880e-02   -5,731425285e-01    3,635412753e-01    0,000000000e+00    0,000000000e+00    0,000000000e+00    0,000000000e+00
      492000000    2,765866928e-02   -1,230523176e-02   -2,896665037e-01    6,020767689e-01    0,000000000e+00    0,000000000e+00    0,000000000e+00    0,000000000e+00
      506000000    3,650499135e-02   -5,602262914e-02    6,886478513e-02    6,578845978e-01    0,000000000e+00    0,000000000e+00    0,000000000e+00    0,000000000e+00
      520000000    1,334709954e-02   -9,942577034e-02    4,083016515e-01    5,279945731e-01    0,000000000e+00    0,000000000e+00    0,000000000e+00    0,000000000e+00
      534000000   -3,390346840e-02   -1,162600145e-01    6,240022182e-01    2,363544703e-01    0,000000000e+00    0,000000000e+00    0,000000000e+00    0,000000000e+00
      548000000   -7,764744759e-02   -9,924901277e-02    6,576461196e-01   -1,336115897e-01    0,000000000e+00    0,000000000e+00    0,000000000e+00    0,000000000e+00
      562000000   -9,351816773e-02   -6,576392055e-02    4,815921485e-01   -4,661535621e-01    0,000000000e+00    0,000000000e+00    0,000000000e+00    0,000000000e+00
      576000000   -8,606036007e-02   -4,474888369e-02    1,511221379e-01   -6,485023499e-01    0,000000000e+00    0,000000000e+00    0,000000000e+00    0,000000000e+00
      590000000   -8,073779196e-02   -4,185383394e-02   -2,214325815e-01   -6,278789639e-01    0,000000000e+00    0,000000000e+00    0,000000000e+00    0,000000000e+00
      604000000   -8,885219693e-02   -3,709157184e-02   -5,202690363e-01   -4,060909152e-01    0,000000000e+00    0,000000000e+00    0,000000000e+00    0,000000000e+00
      618000000   -9,695486724e-02   -1,483070664e-02   -6,535871625e-01   -5,826013535e-02    0,000000000e+00    0,000000000e+00    0,000000000e+00    0,000000000e+00
      632000000   -8,126971871e-02    1,476299856e-02   -5,751736164e-01    3,026907742e-01    0,000000000e+00    0,000000000e+00    0,000000000e+00    0,000000000e+00
      646000000   -4,315616190e-02    2,659141459e-02   -3,190068305e-01    5,567060113e-01    0,000000000e+00    0,000000000e+00    0,000000000e+00    0,000000000e+00
      660000000   -7,226311602e-03    6,157489959e-03    2,083659731e-02    6,288504004e-01    0,000000000e+00    0,000000000e+00    0,000000000e+00    0,000000000e+00
      674000000    1,630066894e-03   -3,048991039e-02    3,422510028e-01    5,187882781e-01    0,000000000e+00    0,000000000e+00    0,000000000e+00    0,000000000e+00
      688000000   -1,408005040e-02   -5,538946763e-02    5,591503382e-01    2,588861883e-01    0,000000000e+00    0,000000000e+00    0,000000000e+00    0,000000000e+00
      702000000   -3,406650946e-02   -5,976761132e-02    6,048112512e-01   -7,906760275e-02    0,000000000e+00    0,000000000e+00    0,000000000e+00    0,000000000e+00
      716000000   -3,700596839e-02   -5,659772828e-02    4,601260424e-01   -3,898432851e-01    0,000000000e+00    0,000000000e+00    0,000000000e+00    0,000000000e+00
      730000000   -3,154568747e-02   -6,568719447e-02    1,735587120e-01   -5,660884380e-01    0,000000000e+00    0,000000000e+00    0,000000000e+00    0,000000000e+00
      744000000   -4,105685651e-02   -8,833377808e-02   -1,535377055e-01   -5,637503862e-01    0,000000000e+00    0,000000000e+00    0,000000000e+00    0,000000000e+00
      758000000   -7,271381468e-02   -1,053418517e-01   -4,273210168e-01   -3,938228786e-01    0,000000000e+00    0,000000000e+00    0,000000000e+00    0,000000000e+00
      772000000   -1,136855707e-01   -9,440027922e-02   -5,747159719e-01   -1,056842580e-01    0,000000000e+00    0,000000000e+00    0,000000000e+00    0,000000000e+00
      786000000   -1,392236799e-01   -5,640375987e-02   -5,448841453e-01    2,207102627e-01    0,000000000e+00    0,000000000e+00    0,000000000e+00    0,000000000e+00
      800000000   -1,325892508e-01   -1,519935485e-02   -3,416890204e-01    4,791721106e-01    0,000000000e+00    0,000000000e+00    0,000000000e+00    0,000000000e+00
      814000000   -1,086354032e-01    8,367858827e-03   -3,462799639e-02    5,862157941e-01    0,000000000e+00    0,000000000e+00    0,000000000e+00    0,000000000e+00
      828000000   -8,512529731e-02    1,349646598e-02    2,794529796e-01    5,140975118e-01    0,000000000e+00    0,000000000e+00    0,000000000e+00    0,000000000e+00
      842000000   -7,035659999e-02    1,513888873e-02    5,025653839e-01    2,894915044e-01    0,000000000e+00    0,000000000e+00    0,000000000e+00    0,000000000e+00
      856000000   -5,225251243e-02    1,872663759e-02    5,709704161e-01   -1,789801754e-02    0,000000000e+00    0,000000000e+00    0,000000000e+00    0,000000000e+00
      870000000   -2,250297740e-02    1,424709894e-02    4,636324644e-01   -3,065446019e-01    0,000000000e+00    0,000000000e+00    0,000000000e+00    0,000000000e+00
      884000000    5,633567926e-03   -1,483054459e-02    2,292067409e-01   -4,883884788e-01    0,000000000e+00    0,000000000e+00    0,000000000e+00    0,000000000e+00
      898000000    1,216444653e-02   -6,371904910e-02   -5,250298977e-02   -5,248973966e-01    0,000000000e+00    0,000000000e+00    0,000000000e+00    0,000000000e+00
      912000000   -2,261496708e-02   -1,089556441e-01   -3,672987819e-01   -4,048167467e-01    0,000000000e+00    0,000000000e+00    0,000000000e+00    0,000000000e+00
      926000000   -7,609231770e-02   -1,250617653e-01   -5,308892727e-01   -1,605371237e-01    0,000000000e+00    0,000000000e+00    0,000000000e+00    0,000000000e+00
      940000000   -1,242900118e-01   -1,015715376e-01   -5,529819727e-01    1,558574289e-01    0,000000000e+00    0,000000000e+00    0,000000000e+00    0,000000000e+00
      954000000   -1,433213800e-01   -5,972100794e-02   -3,932521045e-01    4,453801513e-01    0,000000000e+00    0,000000000e+00    0,000000000e+00    0,000000000e+00
      968000000   -1,294081360e-01   -2,697365172e-02   -9,106089175e-02    6,034076810e-01    0,000000000e+00    0,000000000e+00    0,000000000e+00    0,000000000e+00
      982000000   -1,145227849e-01   -1,776313223e-02    2,449362576e-01    5,714321136e-01    0,000000000e+00    0,000000000e+00    0,000000000e+00    0,000000000e+00
      996000000   -1,091526225e-01   -1,145945303e-02    5,134550929e-01    3,667295575e-01    0,000000000e+00    0,000000000e+00    0,000000000e+00    0,000000000e+00
     1010000000   -1,047481373e-01   -9,694651701e-03    6,279031634e-01    5,365328491e-02    0,000000000e+00    0,000000000e+00    0,000000000e+00    0,000000000e+00
     1024000000   -9,389325231e-02    2,965763677e-03    5,598174930e-01   -2,717123032e-01    0,000000000e+00    0,000000000e+00    0,000000000e+00    0,000000000e+00
     1038000000   -7,716282457e-02    9,817179525e-04    3,377076983e-01   -5,024608374e-01    0,000000000e+00    0,000000000e+00    0,000000000e+00    0,000000000e+00
     1052000000   -6,262613833e-02   -1,374983229e-02    3,219079971e-02   -5,881273150e-01    0,000000000e+00    0,000000000e+00    0,000000000e+00    0,000000000e+00
     1066000000   -7,088116556e-02   -2,778812684e-02   -2,669011950e-01   -5,027732253e-01    0,000000000e+00    0,000000000e+00    0,000000000e+00    0,000000000e+00
     1080000000   -8,304684609e-02   -2,932397090e-02   -4,807202220e-01   -2,704508007e-01    0,000000000e+00    0,000000000e+00    0,000000000e+00    0,000000000e+00
     1094000000   -8,491054922e-02   -1,979193464e-02   -5,307679176e-01    4,199118540e-02    0,000000000e+00    0,000000000e+00    0,000000000e+00    0,000000000e+00
     1108000000   -5,781459436e-02   -1,524502691e-02   -3,986264765e-01    3,251015544e-01    0,000000000e+00    0,000000000e+00    0,000000000e+00    0,000000000e+00
     1122000000   -3,387013823e-02   -3,482659534e-02   -1,370190233e-01    4,836796820e-01    0,000000000e+00    0,000000000e+00    0,000000000e+00    0,000000000e+00
     1136000000   -2,926814370e-02   -8,719472587e-02    1,650927365e-01    4,762709141e-01    0,000000000e+00    0,000000000e+00    0,000000000e+00    0,000000000e+00
     1150000000   -6,731358916e-02   -1,377858222e-01    4,185388386e-01    3,131567538e-01    0,000000000e+00    0,000000000e+00    0,000000000e+00    0,000000000e+00
     1164000000   -1,394346207e-01   -1,534286141e-01    5,635796189e-01    2,563474141e-02    0,000000000e+00    0,000000000e+00    0,000000000e+00    0,000000000e+00
     1178000000   -2,085582763e-01   -1,169841588e-01    5,297878385e-01   -3,139591515e-01    0,000000000e+00    0,000000000e+00    0,000000000e+00    0,000000000e+00
     1192000000   -2,521888614e-01   -3,955345601e-02    2,942539752e-01   -5,994922519e-01    0,000000000e+00    0,000000000e+00    0,000000000e+00    0,000000000e+00
     1206000000   -2,325162739e-01    3,682613373e-02   -6,713697314e-02   -6,973691583e-01    0,000000000e+00    0,000000000e+00    0,000000000e+00    0,000000000e+00
     1220000000   -1,876834929e-01    8,480997384e-02   -4,235050678e-01   -5,778397322e-01    0,000000000e+00    0,000000000e+00    0,000000000e+00    0,000000000e+00
     1234000000   -1,229081228e-01    1,041597798e-01   -6,417481303e-01   -2,912321091e-01    0,000000000e+00    0,000000000e+00    0,000000000e+00    0,000000000e+00
     1248000000   -6,595993787e-02    9,998662025e-02   -6,791496873e-01    6,604147702e-02    0,000000000e+00    0,000000000e+00    0,000000000e+00    0,000000000e+00
     1262000000   -1,417557243e-02    6,353780627e-02   -5,202918053e-01    3,741491437e-01    0,000000000e+00    0,000000000e+00    0,000000000e+00    0,000000000e+00
     1276000000    2,565036900e-02   -3,412839724e-03   -2,395642698e-01    5,422810912e-01    0,000000000e+00    0,000000000e+00    0,000000000e+00    0,000000000e+00
     1290000000    1,939653419e-02   -8,854270726e-02    7,221363485e-02    5,772535801e-01    0,000000000e+00    0,000000000e+00    0,000000000e+00    0,000000000e+00
     1304000000   -3,094661795e-02   -1,696562320e-01    3,695690036e-01    4,650043249e-01    0,000000000e+00    0,000000000e+00    0,000000000e+00    0,000000000e+00
     1318000000   -1,324880570e-01   -2,165125012e-01    5,880115032e-01    2,199101150e-01    0,000000000e+00    0,000000000e+00    0,000000000e+00    0,000000000e+00
     1332000000   -2,502284050e-01   -1,843886971e-01    6,583495140e-01   -1,265335530e-01    0,000000000e+00    0,000000000e+00    0,000000000e+00    0,000000000e+00
     1346000000   -3,304050565e-01   -8,879338950e-02    5,124764442e-01   -4,614249468e-01    0,000000000e+00    0,000000000e+00    0,000000000e+00    0,000000000e+00
     1360000000   -3,337762654e-01    2,261009999e-02    1,953767091e-01   -6,519935131e-01    0,000000000e+00    0,000000000e+00    0,000000000e+00    0,000000000e+00
     1374000000   -2,828633189e-01    1,023557484e-01   -1,532139182e-01   -6,046590805e-01    0,000000000e+00    0,000000000e+00    0,000000000e+00    0,000000000e+00
     1388000000   -2,169962078e-01    1,358377934e-01   -4,139870703e-01   -3,779764175e-01    0,000000000e+00    0,000000000e+00    0,000000000e+00    0,000000000e+00
     1402000000   -1,476989836e-01    1,367703378e-01   -4,709751606e-01   -6,776613742e-02    0,000000000e+00    0,000000000e+00    0,000000000e+00    0,000000000e+00
     1416000000   -9,616988152e-02    1,175931841e-01   -3,828811646e-01    2,462201267e-01    0,000000000e+00    0,000000000e+00    0,000000000e+00    0,000000000e+00
     1430000000   -5,798230320e-02    7,447330654e-02   -1,695627570e-01    4,575244784e-01    0,000000000e+00    0,000000000e+00    0,000000000e+00    0,000000000e+00
     1444000000   -4,193923995e-02    5,489727948e-03    1,566234678e-01    5,442075133e-01    0,000000000e+00    0,000000000e+00    0,000000000e+00    0,000000000e+00
     1458000000   -6,286958605e-02   -7,454950362e-02    4,856502116e-01    4,750868082e-01    0,000000000e+00    0,000000000e+00    0,000000000e+00    0,000000000e+00
     1472000000   -1,350112706e-01   -1,286838204e-01    7,617020011e-01    2,537809014e-01    0,000000000e+00    0,000000000e+00    0,000000000e+00    0,000000000e+00
     1486000000   -2,332783639e-01   -1,167740598e-01    8,762961626e-01   -8,154725283e-02    0,000000000e+00    0,000000000e+00    0,000000000e+00    0,000000000e+00
     1500000000   -2,853195965e-01   -3,976408392e-02    8,121899962e-01   -4,450843036e-01    0,000000000e+00    0,000000000e+00    0,000000000e+00    0,000000000e+00
