! NanoVNA-App
! Date: 2025-09-25 15:09:52
! Start: 100MHz Stop: 1,5GHz Points: 101
! S-Parameter data: F S11 S21 S12 S22
# Hz S RI R 50
!     Frequency           S11_Real           S11_Imag           S21_Real           S21_Imag           S12_Real           S12_Imag           S22_Real           S22_Imag
      100000000    3,113260120e-02    2,865182422e-02    4,348804653e-01   -6,686651707e-01    0,000000000e+00    0,000000000e+00    0,000000000e+00    0,000000000e+00
      114000000    5,759720132e-02    5,473165773e-03    7,689461578e-03   -7,910626531e-01    0,000000000e+00    0,000000000e+00    0,000000000e+00    0,000000000e+00
      128000000    6,723605096e-02   -3,787505999e-02   -4,103662372e-01   -6,711348891e-01    0,000000000e+00    0,000000000e+00    0,000000000e+00    0,000000000e+00
      142000000    4,472125694e-02   -8,425887674e-02   -7,028365135e-01   -3,532457650e-01    0,000000000e+00    0,000000000e+00    0,000000000e+00    0,000000000e+00
      156000000   -5,619020667e-03   -1,068197414e-01   -7,870811224e-01    7,405876368e-02    0,000000000e+00    0,000000000e+00    0,000000000e+00    0,000000000e+00
      170000000   -5,775636435e-02   -9,068535268e-02   -6,276980042e-01    4,869137704e-01    0,000000000e+00    0,000000000e+00    0,000000000e+00    0,000000000e+00
      184000000   -8,372930437e-02   -4,949597642e-02   -2,649549842e-01    7,511518598e-01    0,000000000e+00    0,000000000e+00    0,000000000e+00    0,000000000e+00
      198000000   -7,962900400e-02   -1,046268456e-02    1,834070981e-01    7,725728750e-01    0,000000000e+00    0,000000000e+00    0,000000000e+00    0,000000000e+00
      212000000   -6,226307526e-02    1,321580540e-02    5,693399906e-01    5,491035581e-01    0,000000000e+00    0,000000000e+00    0,000000000e+00    0,000000000e+00
      226000000   -4,331127927e-02    2,768403850e-02    7,707247734e-01    1,547114104e-01    0,000000000e+00    0,000000000e+00    0,000000000e+00    0,000000000e+00
      240000000   -1,826049201e-02    3,853876144e-02    7,268577814e-01   -2,819010615e-01    0,000000000e+00    0,000000000e+00    0,000000000e+00    0,000000000e+00
      254000000    1,717420481e-02    3,517862409e-02    4,579222202e-01   -6,200861931e-01    0,000000000e+00    0,000000000e+00    0,000000000e+00    0,000000000e+00
      268000000    4,877381772e-02    5,595158786e-03    5,887481943e-02   -7,602974176e-01    0,000000000e+00    0,000000000e+00    0,000000000e+00    0,000000000e+00
      282000000    5,350318551e-02   -4,177276418e-02   -3,492356241e-01   -6,714342833e-01    0,000000000e+00    0,000000000e+00    0,000000000e+00    0,000000000e+00
      296000000    2,404130436e-02   -7,946588844e-02   -6,519941092e-01   -3,854771256e-01    0,000000000e+00    0,000000000e+00    0,000000000e+00    0,000000000e+00
      310000000   -1,766673476e-02   -8,306030929e-02   -7,623456120e-01    2,070605010e-02    0,000000000e+00    0,000000000e+00    0,000000000e+00    0,000000000e+00
      324000000   -4,143169895e-02   -5,886168033e-02   -6,313809156e-01    4,313597083e-01    0,000000000e+00    0,000000000e+00    0,000000000e+00    0,000000000e+00
      338000000   -3,438599408e-02   -3,653855622e-02   -2,942361534e-01    7,000444531e-01    0,000000000e+00    0,000000000e+00    0,000000000e+00    0,000000000e+00
      352000000   -1,715322956e-02   -4,095194861e-02    1,257237047e-01    7,404423952e-01    0,000000000e+00    0,000000000e+00    0,000000000e+00    0,000000000e+00
      366000000   -1,924605109e-02   -6,168041378e-02    4,975638688e-01    5,543509722e-01    0,000000000e+00    0,000000000e+00    0,000000000e+00    0,000000000e+00
      380000000   -4,431954399e-02   -7,254029810e-02    7,134581804e-01    2,001311481e-01    0,000000000e+00    0,000000000e+00    0,000000000e+00    0,000000000e+00
      394000000   -7,110441476e-02   -5,809050426e-02    7,045322061e-01   -2,167356759e-01    0,000000000e+00    0,000000000e+00    0,000000000e+00    0,000000000e+00
      408000000   -7,725581527e-02   -3,040176257e-02    4,705052972e-01   -5,602027178e-01    0,000000000e+00    0,000000000e+00    0,000000000e+00    0,000000000e+00
      422000000   -6,536418200e-02   -1,117347926e-02    9,380037338e-02   -7,175071239e-01    0,000000000e+00    0,000000000e+00    0,000000000e+00    0,000000000e+00
      436000000   -5,266289786e-02   -4,540136550e-03   -3,014028370e-01   -6,468352079e-01    0,000000000e+00    0,000000000e+00    0,000000000e+00    0,000000000e+00
      450000000   -4,455254972e-02    1,693124068e-03   -5,926918387e-01   -3,779698908e-01    0,000000000e+00    0,000000000e+00    0,000000000e+00    0,000000000e+00
      464000000   -2,966862358e-02    1,106373221e-02   -6,910102963e-01   -2,634176053e-04    0,000000000e+00    0,000000000e+00    0,000000000e+00    0,000000000e+00
      478000000   -8,919157553e-04    1,116281562e-02   -5,734095573e-01    3,633590639e-01    0,000000000e+00    0,000000000e+00    0,000000000e+00    0,000000000e+00
      492000000    2,803829499e-02   -1,192872226e-02   -2,894333601e-01    6,023143530e-01    0,000000000e+00    0,000000000e+00    0,000000000e+00    0,000000000e+00
      506000000    3,653616086e-02   -5,544260889e-02    6,950759888e-02    6,581940055e-01    0,000000000e+00    0,000000000e+00    0,000000000e+00    0,000000000e+00
      520000000    1,361581963e-02   -9,915656596e-02    4,070450962e-01    5,280097127e-01    0,000000000e+00    0,000000000e+00    0,000000000e+00    0,000000000e+00
      534000000   -3,427078947e-02   -1,161376461e-01    6,239582896e-01    2,359141707e-01    0,000000000e+00    0,000000000e+00    0,000000000e+00    0,000000000e+00
      548000000   -7,743015140e-02   -9,892735630e-02    6,579836011e-01   -1,331426352e-01    0,000000000e+00    0,000000000e+00    0,000000000e+00    0,000000000e+00
      562000000   -9,338790923e-02   -6,625528634e-02    4,817888141e-01   -4,666770697e-01    0,000000000e+00    0,000000000e+00    0,000000000e+00    0,000000000e+00
      576000000   -8,633193374e-02   -4,421665147e-02    1,504396051e-01   -6,479121447e-01    0,000000000e+00    0,000000000e+00    0,000000000e+00    0,000000000e+00
      590000000   -8,071342856e-02   -4,148780555e-02   -2,198918462e-01   -6,266006231e-01    0,000000000e+00    0,000000000e+00    0,000000000e+00    0,000000000e+00
      604000000   -8,870742470e-02   -3,743492067e-02   -5,196546912e-01   -4,065746963e-01    0,000000000e+00    0,000000000e+00    0,000000000e+00    0,000000000e+00
      618000000   -9,697055817e-02   -1,531410590e-02   -6,538269520e-01   -5,839200690e-02    0,000000000e+00    0,000000000e+00    0,000000000e+00    0,000000000e+00
      632000000   -8,135097474e-02    1,501023397e-02   -5,754514337e-01    3,025691211e-01    0,000000000e+00    0,000000000e+00    0,000000000e+00    0,000000000e+00
      646000000   -4,259357974e-02    2,584059909e-02   -3,184081614e-01    5,559911132e-01    0,000000000e+00    0,000000000e+00    0,000000000e+00    0,000000000e+00
      660000000   -7,348234300e-03    5,562330130e-03    2,172262780e-02    6,302674413e-01    0,000000000e+00    0,000000000e+00    0,000000000e+00    0,000000000e+00
      674000000    6,650894647e-04   -3,032710217e-02    3,415435851e-01    5,185745358e-01    0,000000000e+00    0,000000000e+00    0,000000000e+00    0,000000000e+00
      688000000   -1,496006176e-02   -5,611112714e-02    5,588762164e-01    2,591227889e-01    0,000000000e+00    0,000000000e+00    0,000000000e+00    0,000000000e+00
      702000000   -3,433272243e-02   -5,907657743e-02    6,063286662e-01   -7,822991908e-02    0,000000000e+00    0,000000000e+00    0,000000000e+00    0,000000000e+00
      716000000   -3,638666123e-02   -5,570423231e-02    4,596058130e-01   -3,899850249e-01    0,000000000e+00    0,000000000e+00    0,000000000e+00    0,000000000e+00
      730000000   -3,247948736e-02   -6,564007699e-02    1,745732129e-01   -5,656967759e-01    0,000000000e+00    0,000000000e+00    0,000000000e+00    0,000000000e+00
      744000000   -4,037437961e-02   -8,770742267e-02   -1,528039277e-01   -5,643594861e-01    0,000000000e+00    0,000000000e+00    0,000000000e+00    0,000000000e+00
      758000000   -7,169478387e-02   -1,050214544e-01   -4,271898270e-01   -3,948290348e-01    0,000000000e+00    0,000000000e+00    0,000000000e+00    0,000000000e+00
      772000000   -1,137109324e-01   -9,366396815e-02   -5,743639469e-01   -1,063847765e-01    0,000000000e+00    0,000000000e+00    0,000000000e+00    0,000000000e+00
      786000000   -1,388660967e-01   -5,669318140e-02   -5,447962880e-01    2,208163142e-01    0,000000000e+00    0,000000000e+00    0,000000000e+00    0,000000000e+00
      800000000   -1,321119368e-01   -1,471142285e-02   -3,414703012e-01    4,803441465e-01    0,000000000e+00    0,000000000e+00    0,000000000e+00    0,000000000e+00
      814000000   -1,084159017e-01    8,883581497e-03   -3,362698480e-02    5,851898789e-01    0,000000000e+00    0,000000000e+00    0,000000000e+00    0,000000000e+00
      828000000   -8,516783267e-02    1,326860115e-02    2,789807916e-01    5,150703192e-01    0,000000000e+00    0,000000000e+00    0,000000000e+00    0,000000000e+00
      842000000   -7,104787976e-02    1,448687539e-02    5,031022429e-01    2,899609804e-01    0,000000000e+00    0,000000000e+00    0,000000000e+00    0,000000000e+00
      856000000   -5,210797489e-02    1,899858192e-02    5,705658793e-01   -1,754877158e-02    0,000000000e+00    0,000000000e+00    0,000000000e+00    0,000000000e+00
      870000000   -2,237705886e-02    1,421378180e-02    4,635866582e-01   -3,066089749e-01    0,000000000e+00    0,000000000e+00    0,000000000e+00    0,000000000e+00
      884000000    6,446405780e-03   -1,411543507e-02    2,295915484e-01   -4,889497459e-01    0,000000000e+00    0,000000000e+00    0,000000000e+00    0,000000000e+00
      898000000    1,198465377e-02   -6,409855932e-02   -5,280617997e-02   -5,269089937e-01    0,000000000e+00    0,000000000e+00    0,000000000e+00    0,000000000e+00
      912000000   -2,361010201e-02   -1,071771383e-01   -3,521029055e-01   -3,964210153e-01    0,000000000e+00    0,000000000e+00    0,000000000e+00    0,000000000e+00
      926000000   -7,479333133e-02   -1,255674958e-01   -5,313375592e-01   -1,600712091e-01    0,000000000e+00    0,000000000e+00    0,000000000e+00    0,000000000e+00
      940000000   -1,203720048e-01   -1,027215421e-01   -5,520251393e-01    1,553141326e-01    0,000000000e+00    0,000000000e+00    0,000000000e+00    0,000000000e+00
      954000000   -1,400617808e-01   -5,922898650e-02   -3,914847374e-01    4,479465187e-01    0,000000000e+00    0,000000000e+00    0,000000000e+00    0,000000000e+00
      968000000   -1,320590228e-01   -2,590423450e-02   -9,158984572e-02    6,045479774e-01    0,000000000e+00    0,000000000e+00    0,000000000e+00    0,000000000e+00
      982000000   -1,171103269e-01   -1,507486124e-02    2,452996224e-01    5,702238083e-01    0,000000000e+00    0,000000000e+00    0,000000000e+00    0,000000000e+00
      996000000   -1,094219983e-01   -1,510966755e-02    5,137054920e-01    3,655757010e-01    0,000000000e+00    0,000000000e+00    0,000000000e+00    0,000000000e+00
     1010000000   -1,036152393e-01   -4,642099608e-03    6,302937269e-01    5,364765599e-02    0,000000000e+00    0,000000000e+00    0,000000000e+00    0,000000000e+00
     1024000000   -9,213370085e-02    3,294233466e-03    5,617951751e-01   -2,711893618e-01    0,000000000e+00    0,000000000e+00    0,000000000e+00    0,000000000e+00
     1038000000   -7,768332213e-02    9,063975303e-04    3,385486901e-01   -5,057809353e-01    0,000000000e+00    0,000000000e+00    0,000000000e+00    0,000000000e+00
     1052000000   -6,721900403e-02   -1,807082444e-02    3,447013348e-02   -5,843536258e-01    0,000000000e+00    0,000000000e+00    0,000000000e+00    0,000000000e+00
     1066000000   -7,148841769e-02   -3,329775482e-02   -2,686087489e-01   -4,982323647e-01    0,000000000e+00    0,000000000e+00    0,000000000e+00    0,000000000e+00
     1080000000   -8,392801136e-02   -2,870484814e-02   -4,799462855e-01   -2,693200409e-01    0,000000000e+00    0,000000000e+00    0,000000000e+00    0,000000000e+00
     1094000000   -7,810140401e-02   -1,800268888e-02   -5,310107470e-01    4,212763160e-02    0,000000000e+00    0,000000000e+00    0,000000000e+00    0,000000000e+00
     1108000000   -5,643985048e-02   -1,059738640e-02   -3,997376561e-01    3,244241178e-01    0,000000000e+00    0,000000000e+00    0,000000000e+00    0,000000000e+00
     1122000000   -3,021408804e-02   -3,671674803e-02   -1,363479495e-01    4,809837341e-01    0,000000000e+00    0,000000000e+00    0,000000000e+00    0,000000000e+00
     1136000000   -3,016425855e-02   -8,571948111e-02    1,627379954e-01    4,743298888e-01    0,000000000e+00    0,000000000e+00    0,000000000e+00    0,000000000e+00
     1150000000   -6,637995690e-02   -1,335633993e-01    4,202869534e-01    3,110213578e-01    0,000000000e+00    0,000000000e+00    0,000000000e+00    0,000000000e+00
     1164000000   -1,353215426e-01   -1,565857232e-01    5,631062984e-01    2,720667981e-02    0,000000000e+00    0,000000000e+00    0,000000000e+00    0,000000000e+00
     1178000000   -2,151734084e-01   -1,182058007e-01    5,318828821e-01   -3,160168231e-01    0,000000000e+00    0,000000000e+00    0,000000000e+00    0,000000000e+00
     1192000000   -2,445489019e-01   -4,039994255e-02    2,946625650e-01   -5,977610946e-01    0,000000000e+00    0,000000000e+00    0,000000000e+00    0,000000000e+00
     1206000000   -2,325158566e-01    2,783667482e-02   -6,662274152e-02   -7,004945278e-01    0,000000000e+00    0,000000000e+00    0,000000000e+00    0,000000000e+00
     1220000000   -1,827764362e-01    8,220561594e-02   -4,200358689e-01   -5,797916651e-01    0,000000000e+00    0,000000000e+00    0,000000000e+00    0,000000000e+00
     1234000000   -1,301370114e-01    1,057908833e-01   -6,453974247e-01   -2,920140326e-01    0,000000000e+00    0,000000000e+00    0,000000000e+00    0,000000000e+00
     1248000000   -6,595376134e-02    9,747824818e-02   -6,772558689e-01    6,375814229e-02    0,000000000e+00    0,000000000e+00    0,000000000e+00    0,000000000e+00
     1262000000   -1,163351350e-02    6,397823989e-02   -5,145813227e-01    3,703387976e-01    0,000000000e+00    0,000000000e+00    0,000000000e+00    0,000000000e+00
     1276000000    2,560376376e-02   -5,561333615e-03   -2,433106601e-01    5,447289348e-01    0,000000000e+00    0,000000000e+00    0,000000000e+00    0,000000000e+00
     1290000000    1,924514212e-02   -9,114262462e-02    6,924594194e-02    5,717490315e-01    0,000000000e+00    0,000000000e+00    0,000000000e+00    0,000000000e+00
     1304000000   -3,211123496e-02   -1,704131663e-01    3,654357791e-01    4,696081579e-01    0,000000000e+00    0,000000000e+00    0,000000000e+00    0,000000000e+00
     1318000000   -1,347721219e-01   -2,154963613e-01    5,834778547e-01    2,172439843e-01    0,000000000e+00    0,000000000e+00    0,000000000e+00    0,000000000e+00
     1332000000   -2,517699003e-01   -1,860656291e-01    6,572359204e-01   -1,221757159e-01    0,000000000e+00    0,000000000e+00    0,000000000e+00    0,000000000e+00
     1346000000   -3,308588564e-01   -8,505420387e-02    5,080918074e-01   -4,564494789e-01    0,000000000e+00    0,000000000e+00    0,000000000e+00    0,000000000e+00
     1360000000   -3,356598914e-01    2,580675669e-02    1,873953342e-01   -6,455997229e-01    0,000000000e+00    0,000000000e+00    0,000000000e+00    0,000000000e+00
     1374000000   -2,805782855e-01    1,008589193e-01   -1,452001184e-01   -6,095607281e-01    0,000000000e+00    0,000000000e+00    0,000000000e+00    0,000000000e+00
     1388000000   -2,134770602e-01    1,372285932e-01   -4,047499001e-01   -3,761241138e-01    0,000000000e+00    0,000000000e+00    0,000000000e+00    0,000000000e+00
     1402000000   -1,472189724e-01    1,402639449e-01   -4,776257873e-01   -5,427965522e-02    0,000000000e+00    0,000000000e+00    0,000000000e+00    0,000000000e+00
     1416000000   -9,693152457e-02    1,209993735e-01   -3,854866624e-01    2,507741451e-01    0,000000000e+00    0,000000000e+00    0,000000000e+00    0,000000000e+00
     1430000000   -5,404108763e-02    7,376535237e-02   -1,280102730e-01    4,499979317e-01    0,000000000e+00    0,000000000e+00    0,000000000e+00    0,000000000e+00
     1444000000   -3,927187994e-02    6,691449322e-03    1,649279445e-01    5,383263826e-01    0,000000000e+00    0,000000000e+00    0,000000000e+00    0,000000000e+00
     1458000000   -6,550794840e-02   -7,339388877e-02    4,791553319e-01    4,721737206e-01    0,000000000e+00    0,000000000e+00    0,000000000e+00    0,000000000e+00
     1472000000   -1,402655691e-01   -1,258673668e-01    7,544301152e-01    2,627133727e-01    0,000000000e+00    0,000000000e+00    0,000000000e+00    0,000000000e+00
     1486000000   -2,291744202e-01   -1,123541370e-01    8,991872072e-01   -6,674683094e-02    0,000000000e+00    0,000000000e+00    0,000000000e+00    0,000000000e+00
     1500000000   -2,836054862e-01   -4,984107614e-02    8,165750504e-01   -4,622619450e-01    0,000000000e+00    0,000000000e+00    0,000000000e+00    0,000000000e+00
