! NanoVNA-App
! Date: 2025-09-25 15:11:11
! Start: 100MHz Stop: 1,5GHz Points: 101
! S-Parameter data: F S11 S21 S12 S22
# Hz S RI R 50
!     Frequency           S11_Real           S11_Imag           S21_Real           S21_Imag           S12_Real           S12_Imag           S22_Real           S22_Imag
      100000000    3,115184233e-02    2,864655294e-02    4,349327981e-01   -6,685399413e-01    0,000000000e+00    0,000000000e+00    0,000000000e+00    0,000000000e+00
      114000000    5,756302550e-02    5,508396309e-03    7,775761653e-03   -7,909792066e-01    0,000000000e+00    0,000000000e+00    0,000000000e+00    0,000000000e+00
      128000000    6,731440872e-02   -3,781017289e-02   -4,102598131e-01   -6,709485650e-01    0,000000000e+00    0,000000000e+00    0,000000000e+00    0,000000000e+00
      142000000    4,476035759e-02   -8,426046371e-02   -7,027668357e-01   -3,533313274e-01    0,000000000e+00    0,000000000e+00    0,000000000e+00    0,000000000e+00
      156000000   -6,248533726e-03   -1,058564484e-01   -7,855749130e-01    7,261478156e-02    0,000000000e+00    0,000000000e+00    0,000000000e+00    0,000000000e+00
      170000000   -5,764399096e-02   -9,057934582e-02   -6,277227402e-01    4,870162606e-01    0,000000000e+00    0,000000000e+00    0,000000000e+00    0,000000000e+00
      184000000   -8,371444792e-02   -4,948857799e-02   -2,650240660e-01    7,511979938e-01    0,000000000e+00    0,000000000e+00    0,000000000e+00    0,000000000e+00
      198000000   -7,962470502e-02   -1,044435892e-02    1,834966391e-01    7,730527520e-01    0,000000000e+00    0,000000000e+00    0,000000000e+00    0,000000000e+00
      212000000   -6,229289249e-02    1,314773038e-02    5,690524578e-01    5,492330194e-01    0,000000000e+00    0,000000000e+00    0,000000000e+00    0,000000000e+00
      226000000   -4,333792254e-02    2,772284113e-02    7,706360221e-01    1,545895785e-01    0,000000000e+00    0,000000000e+00    0,000000000e+00    0,000000000e+00
      240000000   -1,826562360e-02    3,851618618e-02    7,269961238e-01   -2,818252742e-01    0,000000000e+00    0,000000000e+00    0,000000000e+00    0,000000000e+00
      254000000    1,718568243e-02    3,517681733e-02    4,579347074e-01   -6,201601028e-01    0,000000000e+00    0,000000000e+00    0,000000000e+00    0,000000000e+00
      268000000    4,881266132e-02    5,624898709e-03    5,889574811e-02   -7,602017522e-01    0,000000000e+00    0,000000000e+00    0,000000000e+00    0,000000000e+00
      282000000    5,349218473e-02   -4,174833000e-02   -3,493607044e-01   -6,714343429e-01    0,000000000e+00    0,000000000e+00    0,000000000e+00    0,000000000e+00
      296000000    2,406754158e-02   -7,946964353e-02   -6,517422795e-01   -3,853539228e-01    0,000000000e+00    0,000000000e+00    0,000000000e+00    0,000000000e+00
      310000000   -1,764718257e-02   -8,308232576e-02   -7,624053359e-01    1,982164942e-02    0,000000000e+00    0,000000000e+00    0,000000000e+00    0,000000000e+00
      324000000   -4,171549156e-02   -5,902445689e-02   -6,327555180e-01    4,314252138e-01    0,000000000e+00    0,000000000e+00    0,000000000e+00    0,000000000e+00
      338000000   -3,455794230e-02   -3,684189916e-02   -2,960191965e-01    6,991126537e-01    0,000000000e+00    0,000000000e+00    0,000000000e+00    0,000000000e+00
      352000000   -1,727147587e-02   -4,056636989e-02    1,254946887e-01    7,425502539e-01    0,000000000e+00    0,000000000e+00    0,000000000e+00    0,000000000e+00
      366000000   -1,920728758e-02   -6,232549995e-02    4,977684915e-01    5,541967750e-01    0,000000000e+00    0,000000000e+00    0,000000000e+00    0,000000000e+00
      380000000   -4,423162714e-02   -7,268834859e-02    7,134766579e-01    1,996553987e-01    0,000000000e+00    0,000000000e+00    0,000000000e+00    0,000000000e+00
      394000000   -7,117431611e-02   -5,803745613e-02    7,037070990e-01   -2,158587128e-01    0,000000000e+00    0,000000000e+00    0,000000000e+00    0,000000000e+00
      408000000   -7,711488754e-02   -3,044341132e-02    4,716836512e-01   -5,592060685e-01    0,000000000e+00    0,000000000e+00    0,000000000e+00    0,000000000e+00
      422000000   -6,546314806e-02   -1,129238028e-02    9,317827970e-02   -7,170752883e-01    0,000000000e+00    0,000000000e+00    0,000000000e+00    0,000000000e+00
      436000000   -5,308179930e-02   -4,588458221e-03   -3,033355176e-01   -6,475644112e-01    0,000000000e+00    0,000000000e+00    0,000000000e+00    0,000000000e+00
      450000000   -4,475317895e-02    1,578665921e-03   -5,924468637e-01   -3,791940212e-01    0,000000000e+00    0,000000000e+00    0,000000000e+00    0,000000000e+00
      464000000   -2,998869494e-02    1,134833600e-02   -6,915190220e-01   -2,290667908e-05    0,000000000e+00    0,000000000e+00    0,000000000e+00    0,000000000e+00
      478000000   -9,156872984e-04    1,106410380e-02   -5,736536980e-01    3,635589480e-01    0,000000000e+00    0,000000000e+00    0,000000000e+00    0,000000000e+00
      492000000    2,817270160e-02   -1,209950820e-02   -2,897572219e-01    6,023880243e-01    0,000000000e+00    0,000000000e+00    0,000000000e+00    0,000000000e+00
      506000000    3,658151254e-02   -5,604603514e-02    6,911641359e-02    6,580315232e-01    0,000000000e+00    0,000000000e+00    0,000000000e+00    0,000000000e+00
      520000000    1,312322542e-02   -9,827470779e-02    4,022101462e-01    5,251616836e-01    0,000000000e+00    0,000000000e+00    0,000000000e+00    0,000000000e+00
      534000000   -3,433085233e-02   -1,160040051e-01    6,238682270e-01    2,364529371e-01    0,000000000e+00    0,000000000e+00    0,000000000e+00    0,000000000e+00
      548000000   -7,746181637e-02   -9,963402152e-02    6,579114795e-01   -1,333519518e-01    0,000000000e+00    0,000000000e+00    0,000000000e+00    0,000000000e+00
      562000000   -9,341258556e-02   -6,576579809e-02    4,823783636e-01   -4,666436613e-01    0,000000000e+00    0,000000000e+00    0,000000000e+00    0,000000000e+00
      576000000   -8,628380299e-02   -4,466634616e-02    1,504377276e-01   -6,482310295e-01    0,000000000e+00    0,000000000e+00    0,000000000e+00    0,000000000e+00
      590000000   -8,078291267e-02   -4,158983007e-02   -2,197556496e-01   -6,266862750e-01    0,000000000e+00    0,000000000e+00    0,000000000e+00    0,000000000e+00
      604000000   -8,913782239e-02   -3,726363555e-02   -5,194390416e-01   -4,057271779e-01    0,000000000e+00    0,000000000e+00    0,000000000e+00    0,000000000e+00
      618000000   -9,694477171e-02   -1,558425464e-02   -6,534345746e-01   -5,852618441e-02    0,000000000e+00    0,000000000e+00    0,000000000e+00    0,000000000e+00
      632000000   -8,116940409e-02    1,485533360e-02   -5,756795406e-01    3,019269407e-01    0,000000000e+00    0,000000000e+00    0,000000000e+00    0,000000000e+00
      646000000   -4,246090353e-02    2,593919076e-02   -3,191854656e-01    5,568877459e-01    0,000000000e+00    0,000000000e+00    0,000000000e+00    0,000000000e+00
      660000000   -8,215609938e-03    5,958307534e-03    2,110419795e-02    6,297608614e-01    0,000000000e+00    0,000000000e+00    0,000000000e+00    0,000000000e+00
      674000000    1,027949620e-03   -3,049427271e-02    3,425342739e-01    5,188131332e-01    0,000000000e+00    0,000000000e+00    0,000000000e+00    0,000000000e+00
      688000000   -1,528888848e-02   -5,511929840e-02    5,593446493e-01    2,588467002e-01    0,000000000e+00    0,000000000e+00    0,000000000e+00    0,000000000e+00
      702000000   -3,280371055e-02   -5,965951085e-02    6,040875316e-01   -8,134731650e-02    0,000000000e+00    0,000000000e+00    0,000000000e+00    0,000000000e+00
      716000000   -3,788981959e-02   -5,604344606e-02    4,595813751e-01   -3,897753954e-01    0,000000000e+00    0,000000000e+00    0,000000000e+00    0,000000000e+00
      730000000   -3,142153844e-02   -6,451813877e-02    1,747205704e-01   -5,666595101e-01    0,000000000e+00    0,000000000e+00    0,000000000e+00    0,000000000e+00
      744000000   -4,042204469e-02   -8,775533736e-02   -1,524756998e-01   -5,635393262e-01    0,000000000e+00    0,000000000e+00    0,000000000e+00    0,000000000e+00
      758000000   -7,271292061e-02   -1,048670486e-01   -4,273607433e-01   -3,952253163e-01    0,000000000e+00    0,000000000e+00    0,000000000e+00    0,000000000e+00
      772000000   -1,143585891e-01   -9,432177991e-02   -5,742616057e-01   -1,061111018e-01    0,000000000e+00    0,000000000e+00    0,000000000e+00    0,000000000e+00
      786000000   -1,385150701e-01   -5,575004593e-02   -5,453576446e-01    2,204744220e-01    0,000000000e+00    0,000000000e+00    0,000000000e+00    0,000000000e+00
      800000000   -1,332863718e-01   -1,452931389e-02   -3,422928154e-01    4,800738692e-01    0,000000000e+00    0,000000000e+00    0,000000000e+00    0,000000000e+00
      814000000   -1,080863625e-01    8,857506327e-03   -3,576591611e-02    5,858495235e-01    0,000000000e+00    0,000000000e+00    0,000000000e+00    0,000000000e+00
      828000000   -8,537587523e-02    1,307560317e-02    2,791071534e-01    5,145335197e-01    0,000000000e+00    0,000000000e+00    0,000000000e+00    0,000000000e+00
      842000000   -7,116719335e-02    1,537810545e-02    5,030571818e-01    2,891557217e-01    0,000000000e+00    0,000000000e+00    0,000000000e+00    0,000000000e+00
      856000000   -5,276585370e-02    1,902346499e-02    5,710225701e-01   -1,810062304e-02    0,000000000e+00    0,000000000e+00    0,000000000e+00    0,000000000e+00
      870000000   -2,280697785e-02    1,512287464e-02    4,637360275e-01   -3,064368069e-01    0,000000000e+00    0,000000000e+00    0,000000000e+00    0,000000000e+00
      884000000    6,698911078e-03   -1,477992348e-02    2,309137285e-01   -4,880574644e-01    0,000000000e+00    0,000000000e+00    0,000000000e+00    0,000000000e+00
      898000000    1,132052206e-02   -6,365779042e-02   -5,174438283e-02   -5,260917544e-01    0,000000000e+00    0,000000000e+00    0,000000000e+00    0,000000000e+00
      912000000   -2,330590598e-02   -1,087438762e-01   -3,539898694e-01   -3,988965452e-01    0,000000000e+00    0,000000000e+00    0,000000000e+00    0,000000000e+00
      926000000   -7,513040304e-02   -1,221564785e-01   -5,293006897e-01   -1,571073085e-01    0,000000000e+00    0,000000000e+00    0,000000000e+00    0,000000000e+00
      940000000   -1,226640865e-01   -9,985069185e-02   -5,516168475e-01    1,567400247e-01    0,000000000e+00    0,000000000e+00    0,000000000e+00    0,000000000e+00
      954000000   -1,439142227e-01   -5,907879770e-02   -3,914748728e-01    4,470975399e-01    0,000000000e+00    0,000000000e+00    0,000000000e+00    0,000000000e+00
      968000000   -1,298520863e-01   -2,808253653e-02   -9,207793325e-02    6,011685133e-01    0,000000000e+00    0,000000000e+00    0,000000000e+00    0,000000000e+00
      982000000   -1,117649674e-01   -1,593094319e-02    2,446009815e-01    5,720165372e-01    0,000000000e+00    0,000000000e+00    0,000000000e+00    0,000000000e+00
      996000000   -1,045477241e-01   -1,246678922e-02    5,133202076e-01    3,656329811e-01    0,000000000e+00    0,000000000e+00    0,000000000e+00    0,000000000e+00
     1010000000   -1,023253202e-01   -5,030936096e-03    6,282581687e-01    5,140878633e-02    0,000000000e+00    0,000000000e+00    0,000000000e+00    0,000000000e+00
     1024000000   -9,536662698e-02    1,242960570e-03    5,613776445e-01   -2,713948786e-01    0,000000000e+00    0,000000000e+00    0,000000000e+00    0,000000000e+00
     1038000000   -7,342050225e-02   -1,571568428e-04    3,377178013e-01   -5,049989820e-01    0,000000000e+00    0,000000000e+00    0,000000000e+00    0,000000000e+00
     1052000000   -6,270532310e-02   -1,883154921e-02    3,194766119e-02   -5,833063722e-01    0,000000000e+00    0,000000000e+00    0,000000000e+00    0,000000000e+00
     1066000000   -6,666852534e-02   -3,177206218e-02   -2,659243643e-01   -4,983934462e-01    0,000000000e+00    0,000000000e+00    0,000000000e+00    0,000000000e+00
     1080000000   -8,315377682e-02   -3,188861534e-02   -4,805856943e-01   -2,711139917e-01    0,000000000e+00    0,000000000e+00    0,000000000e+00    0,000000000e+00
     1094000000   -8,031295240e-02   -1,883187704e-02   -5,317156911e-01    3,962279856e-02    0,000000000e+00    0,000000000e+00    0,000000000e+00    0,000000000e+00
     1108000000   -6,010859087e-02   -9,401617572e-03   -3,978708088e-01    3,268534243e-01    0,000000000e+00    0,000000000e+00    0,000000000e+00    0,000000000e+00
     1122000000   -3,267823160e-02   -3,622610867e-02   -1,351437718e-01    4,816676974e-01    0,000000000e+00    0,000000000e+00    0,000000000e+00    0,000000000e+00
     1136000000   -2,489874884e-02   -8,142343909e-02    1,622412205e-01    4,749803841e-01    0,000000000e+00    0,000000000e+00    0,000000000e+00    0,000000000e+00
     1150000000   -6,692306697e-02   -1,325409561e-01    4,173257351e-01    3,125456274e-01    0,000000000e+00    0,000000000e+00    0,000000000e+00    0,000000000e+00
     1164000000   -1,397463679e-01   -1,522458792e-01    5,641221404e-01    2,895099670e-02    0,000000000e+00    0,000000000e+00    0,000000000e+00    0,000000000e+00
     1178000000   -2,095468193e-01   -1,151508838e-01    5,329716802e-01   -3,148462772e-01    0,000000000e+00    0,000000000e+00    0,000000000e+00    0,000000000e+00
     1192000000   -2,457099408e-01   -4,756681621e-02    2,972267270e-01   -5,984269381e-01    0,000000000e+00    0,000000000e+00    0,000000000e+00    0,000000000e+00
     1206000000   -2,302150279e-01    3,225246817e-02   -6,815608591e-02   -6,990053654e-01    0,000000000e+00    0,000000000e+00    0,000000000e+00    0,000000000e+00
     1220000000   -1,895254105e-01    8,387950808e-02   -4,209918082e-01   -5,795982480e-01    0,000000000e+00    0,000000000e+00    0,000000000e+00    0,000000000e+00
     1234000000   -1,296413094e-01    1,031725258e-01   -6,473721862e-01   -2,942566276e-01    0,000000000e+00    0,000000000e+00    0,000000000e+00    0,000000000e+00
     1248000000   -6,673325598e-02    1,015836298e-01   -6,745718122e-01    6,692350656e-02    0,000000000e+00    0,000000000e+00    0,000000000e+00    0,000000000e+00
     1262000000   -1,484645996e-02    6,143490970e-02   -5,177924037e-01    3,703693449e-01    0,000000000e+00    0,000000000e+00    0,000000000e+00    0,000000000e+00
     1276000000    2,253294922e-02   -9,480804438e-04   -2,458290905e-01    5,479769111e-01    0,000000000e+00    0,000000000e+00    0,000000000e+00    0,000000000e+00
     1290000000    2,342452854e-02   -8,889497072e-02    7,150923461e-02    5,775313973e-01    0,000000000e+00    0,000000000e+00    0,000000000e+00    0,000000000e+00
     1304000000   -3,196528926e-02   -1,724030674e-01    3,692881167e-01    4,586215317e-01    0,000000000e+00    0,000000000e+00    0,000000000e+00    0,000000000e+00
     1318000000   -1,339582056e-01   -2,162413001e-01    5,846678615e-01    2,228371501e-01    0,000000000e+00    0,000000000e+00    0,000000000e+00    0,000000000e+00
     1332000000   -2,504102588e-01   -1,878869534e-01    6,565533876e-01   -1,301063746e-01    0,000000000e+00    0,000000000e+00    0,000000000e+00    0,000000000e+00
     1346000000   -3,287886381e-01   -9,233151376e-02    5,189257264e-01   -4,698532820e-01    0,000000000e+00    0,000000000e+00    0,000000000e+00    0,000000000e+00
     1360000000   -3,337298334e-01    2,264007740e-02    1,884078830e-01   -6,563869715e-01    0,000000000e+00    0,000000000e+00    0,000000000e+00    0,000000000e+00
     1374000000   -2,820764184e-01    1,075375900e-01   -1,588973105e-01   -5,940688848e-01    0,000000000e+00    0,000000000e+00    0,000000000e+00    0,000000000e+00
     1388000000   -2,093170434e-01    1,323324889e-01   -4,000009298e-01   -3,798372447e-01    0,000000000e+00    0,000000000e+00    0,000000000e+00    0,000000000e+00
     1402000000   -1,460666358e-01    1,404602081e-01   -4,811739028e-01   -5,605646223e-02    0,000000000e+00    0,000000000e+00    0,000000000e+00    0,000000000e+00
     1416000000   -9,432771802e-02    1,137920469e-01   -3,821393251e-01    2,344235778e-01    0,000000000e+00    0,000000000e+00    0,000000000e+00    0,000000000e+00
     1430000000   -5,564043671e-02    6,918893009e-02   -1,582822055e-01    4,379778802e-01    0,000000000e+00    0,000000000e+00    0,000000000e+00    0,000000000e+00
     1444000000   -3,835676238e-02    4,929879215e-03    1,622396708e-01    5,357406139e-01    0,000000000e+00    0,000000000e+00    0,000000000e+00    0,000000000e+00
     1458000000   -6,175127253e-02   -6,857819855e-02    4,912337363e-01    4,867507815e-01    0,000000000e+00    0,000000000e+00    0,000000000e+00    0,000000000e+00
     1472000000   -1,356509030e-01   -1,269804090e-01    7,604929805e-01    2,481269836e-01    0,000000000e+00    0,000000000e+00    0,000000000e+00    0,000000000e+00
     1486000000   -2,360711247e-01   -1,147594601e-01    8,922168016e-01   -8,855286986e-02    0,000000000e+00    0,000000000e+00    0,000000000e+00    0,000000000e+00
     1500000000   -2,901577652e-01   -4,073233902e-02    7,869178057e-01   -4,470352829e-01    0,000000000e+00    0,000000000e+00    0,000000000e+00    0,000000000e+00
