! NanoVNA-App
! Date: 2025-09-25 15:10:19
! Start: 100MHz Stop: 1,5GHz Points: 101
! S-Parameter data: F S11 S21 S12 S22
# Hz S RI R 50
!     Frequency           S11_Real           S11_Imag           S21_Real           S21_Imag           S12_Real           S12_Imag           S22_Real           S22_Imag
      100000000    3,115377203e-02    2,864436060e-02    4,349075258e-01   -6,685773134e-01    0,000000000e+00    0,000000000e+00    0,000000000e+00    0,000000000e+00
      114000000    5,761271715e-02    5,471268203e-03    7,754718885e-03   -7,910719514e-01    0,000000000e+00    0,000000000e+00    0,000000000e+00    0,000000000e+00
      128000000    6,730607897e-02   -3,783331439e-02   -4,101920128e-01   -6,711507440e-01    0,000000000e+00    0,000000000e+00    0,000000000e+00    0,000000000e+00
      142000000    4,475129396e-02   -8,427517861e-02   -7,027499080e-01   -3,534094691e-01    0,000000000e+00    0,000000000e+00    0,000000000e+00    0,000000000e+00
      156000000   -6,052014418e-03   -1,065459773e-01   -7,861744761e-01    7,363093644e-02    0,000000000e+00    0,000000000e+00    0,000000000e+00    0,000000000e+00
      170000000   -5,767886341e-02   -9,065171331e-02   -6,275206804e-01    4,868157804e-01    0,000000000e+00    0,000000000e+00    0,000000000e+00    0,000000000e+00
      184000000   -8,373810351e-02   -4,948726669e-02   -2,650341690e-01    7,512348890e-01    0,000000000e+00    0,000000000e+00    0,000000000e+00    0,000000000e+00
      198000000   -7,963271439e-02   -1,043922361e-02    1,831974238e-01    7,730706930e-01    0,000000000e+00    0,000000000e+00    0,000000000e+00    0,000000000e+00
      212000000   -6,231927872e-02    1,319364458e-02    5,694688559e-01    5,491613746e-01    0,000000000e+00    0,000000000e+00    0,000000000e+00    0,000000000e+00
      226000000   -4,332756624e-02    2,767055109e-02    7,707497478e-01    1,545266658e-01    0,000000000e+00    0,000000000e+00    0,000000000e+00    0,000000000e+00
      240000000   -1,822325774e-02    3,848893940e-02    7,268748879e-01   -2,818630338e-01    0,000000000e+00    0,000000000e+00    0,000000000e+00    0,000000000e+00
      254000000    1,719227247e-02    3,520243242e-02    4,580745399e-01   -6,201785207e-01    0,000000000e+00    0,000000000e+00    0,000000000e+00    0,000000000e+00
      268000000    4,879312590e-02    5,638052709e-03    5,888903514e-02   -7,599217296e-01    0,000000000e+00    0,000000000e+00    0,000000000e+00    0,000000000e+00
      282000000    5,345508084e-02   -4,177911952e-02   -3,488014340e-01   -6,715837717e-01    0,000000000e+00    0,000000000e+00    0,000000000e+00    0,000000000e+00
      296000000    2,409857884e-02   -7,950399071e-02   -6,517721415e-01   -3,854093552e-01    0,000000000e+00    0,000000000e+00    0,000000000e+00    0,000000000e+00
      310000000   -1,787981577e-02   -8,312896639e-02   -7,640053034e-01    1,989552565e-02    0,000000000e+00    0,000000000e+00    0,000000000e+00    0,000000000e+00
      324000000   -4,161254317e-02   -5,908239260e-02   -6,320796609e-01    4,305034578e-01    0,000000000e+00    0,000000000e+00    0,000000000e+00    0,000000000e+00
      338000000   -3,448525816e-02   -3,667839989e-02   -2,953357697e-01    6,989381313e-01    0,000000000e+00    0,000000000e+00    0,000000000e+00    0,000000000e+00
      352000000   -1,750217937e-02   -4,096222669e-02    1,253316253e-01    7,410297990e-01    0,000000000e+00    0,000000000e+00    0,000000000e+00    0,000000000e+00
      366000000   -1,911605150e-02   -6,201843172e-02    4,983185232e-01    5,543224216e-01    0,000000000e+00    0,000000000e+00    0,000000000e+00    0,000000000e+00
      380000000   -4,440377280e-02   -7,290518284e-02    7,135398984e-01    1,998995245e-01    0,000000000e+00    0,000000000e+00    0,000000000e+00    0,000000000e+00
      394000000   -7,092934847e-02   -5,824092776e-02    7,039881349e-01   -2,166771591e-01    0,000000000e+00    0,000000000e+00    0,000000000e+00    0,000000000e+00
      408000000   -7,676496357e-02   -3,018330596e-02    4,711283743e-01   -5,593912601e-01    0,000000000e+00    0,000000000e+00    0,000000000e+00    0,000000000e+00
      422000000   -6,550728530e-02   -1,148276124e-02    9,303759038e-02   -7,178149819e-01    0,000000000e+00    0,000000000e+00    0,000000000e+00    0,000000000e+00
      436000000   -5,257068202e-02   -4,623026587e-03   -3,021517694e-01   -6,475288272e-01    0,000000000e+00    0,000000000e+00    0,000000000e+00    0,000000000e+00
      450000000   -4,489330202e-02    1,503950916e-03   -5,939241052e-01   -3,785951138e-01    0,000000000e+00    0,000000000e+00    0,000000000e+00    0,000000000e+00
      464000000   -2,936307155e-02    1,140529383e-02   -6,913783550e-01   -1,699304848e-04    0,000000000e+00    0,000000000e+00    0,000000000e+00    0,000000000e+00
      478000000   -1,255862066e-03    1,109207422e-02   -5,736495256e-01    3,626401126e-01    0,000000000e+00    0,000000000e+00    0,000000000e+00    0,000000000e+00
      492000000    2,806184255e-02   -1,249429304e-02   -2,885910869e-01    6,014798880e-01    0,000000000e+00    0,000000000e+00    0,000000000e+00    0,000000000e+00
      506000000    3,654893860e-02   -5,566419661e-02    6,970169395e-02    6,581782699e-01    0,000000000e+00    0,000000000e+00    0,000000000e+00    0,000000000e+00
      520000000    1,221448835e-02   -9,837525338e-02    4,015856981e-01    5,224567652e-01    0,000000000e+00    0,000000000e+00    0,000000000e+00    0,000000000e+00
      534000000   -3,427391127e-02   -1,159026027e-01    6,242843270e-01    2,368351519e-01    0,000000000e+00    0,000000000e+00    0,000000000e+00    0,000000000e+00
      548000000   -7,777182758e-02   -9,900277108e-02    6,577277184e-01   -1,334463358e-01    0,000000000e+00    0,000000000e+00    0,000000000e+00    0,000000000e+00
      562000000   -9,310875088e-02   -6,595917046e-02    4,820621908e-01   -4,662876427e-01    0,000000000e+00    0,000000000e+00    0,000000000e+00    0,000000000e+00
      576000000   -8,590353280e-02   -4,474027082e-02    1,511053592e-01   -6,478419304e-01    0,000000000e+00    0,000000000e+00    0,000000000e+00    0,000000000e+00
      590000000   -8,073157817e-02   -4,149484634e-02   -2,218865454e-01   -6,277081966e-01    0,000000000e+00    0,000000000e+00    0,000000000e+00    0,000000000e+00
      604000000   -8,939532936e-02   -3,742403910e-02   -5,200638771e-01   -4,061149657e-01    0,000000000e+00    0,000000000e+00    0,000000000e+00    0,000000000e+00
      618000000   -9,677214175e-02   -1,561798435e-02   -6,534733772e-01   -5,874764919e-02    0,000000000e+00    0,000000000e+00    0,000000000e+00    0,000000000e+00
      632000000   -8,069223166e-02    1,505679265e-02   -5,752134919e-01    3,028388321e-01    0,000000000e+00    0,000000000e+00    0,000000000e+00    0,000000000e+00
      646000000   -4,237785935e-02    2,644884214e-02   -3,191039860e-01    5,554568768e-01    0,000000000e+00    0,000000000e+00    0,000000000e+00    0,000000000e+00
      660000000   -7,668882608e-03    6,620705128e-03    2,074116096e-02    6,290914416e-01    0,000000000e+00    0,000000000e+00    0,000000000e+00    0,000000000e+00
      674000000    1,423187903e-03   -3,051429428e-02    3,423367441e-01    5,186983347e-01    0,000000000e+00    0,000000000e+00    0,000000000e+00    0,000000000e+00
      688000000   -1,420998946e-02   -5,521420017e-02    5,587711334e-01    2,582632899e-01    0,000000000e+00    0,000000000e+00    0,000000000e+00    0,000000000e+00
      702000000   -3,377154469e-02   -5,859077349e-02    6,082441211e-01   -8,093767613e-02    0,000000000e+00    0,000000000e+00    0,000000000e+00    0,000000000e+00
      716000000   -3,652696311e-02   -5,598071963e-02    4,595493972e-01   -3,897046745e-01    0,000000000e+00    0,000000000e+00    0,000000000e+00    0,000000000e+00
      730000000   -3,237007186e-02   -6,534444541e-02    1,736092418e-01   -5,660027266e-01    0,000000000e+00    0,000000000e+00    0,000000000e+00    0,000000000e+00
      744000000   -4,090504348e-02   -8,804549277e-02   -1,528421491e-01   -5,640624166e-01    0,000000000e+00    0,000000000e+00    0,000000000e+00    0,000000000e+00
      758000000   -7,259955257e-02   -1,048507094e-01   -4,273841977e-01   -3,942804933e-01    0,000000000e+00    0,000000000e+00    0,000000000e+00    0,000000000e+00
      772000000   -1,142133698e-01   -9,429519624e-02   -5,742467046e-01   -1,057106033e-01    0,000000000e+00    0,000000000e+00    0,000000000e+00    0,000000000e+00
      786000000   -1,382196695e-01   -5,633366853e-02   -5,444959998e-01    2,209645957e-01    0,000000000e+00    0,000000000e+00    0,000000000e+00    0,000000000e+00
      800000000   -1,333081722e-01   -1,514181215e-02   -3,424833417e-01    4,792696834e-01    0,000000000e+00    0,000000000e+00    0,000000000e+00    0,000000000e+00
      814000000   -1,083438396e-01    8,727294393e-03   -3,356860578e-02    5,853337049e-01    0,000000000e+00    0,000000000e+00    0,000000000e+00    0,000000000e+00
      828000000   -8,506576717e-02    1,317916065e-02    2,771568298e-01    5,137134194e-01    0,000000000e+00    0,000000000e+00    0,000000000e+00    0,000000000e+00
      842000000   -7,081165165e-02    1,451988891e-02    5,028223991e-01    2,904814482e-01    0,000000000e+00    0,000000000e+00    0,000000000e+00    0,000000000e+00
      856000000   -5,283492059e-02    1,973300986e-02    5,704854131e-01   -1,794400811e-02    0,000000000e+00    0,000000000e+00    0,000000000e+00    0,000000000e+00
      870000000   -2,262274921e-02    1,486314368e-02    4,635726511e-01   -3,067897558e-01    0,000000000e+00    0,000000000e+00    0,000000000e+00    0,000000000e+00
      884000000    6,065433379e-03   -1,506078057e-02    2,304713875e-01   -4,877948463e-01    0,000000000e+00    0,000000000e+00    0,000000000e+00    0,000000000e+00
      898000000    1,152402256e-02   -6,358692050e-02   -5,203356594e-02   -5,262177587e-01    0,000000000e+00    0,000000000e+00    0,000000000e+00    0,000000000e+00
      912000000   -2,429804578e-02   -1,077262759e-01   -3,569432199e-01   -3,922760189e-01    0,000000000e+00    0,000000000e+00    0,000000000e+00    0,000000000e+00
      926000000   -7,387773693e-02   -1,232357323e-01   -5,307319164e-01   -1,589391679e-01    0,000000000e+00    0,000000000e+00    0,000000000e+00    0,000000000e+00
      940000000   -1,248636767e-01   -1,046926975e-01   -5,530832410e-01    1,533572823e-01    0,000000000e+00    0,000000000e+00    0,000000000e+00    0,000000000e+00
      954000000   -1,437301487e-01   -5,799736828e-02   -3,916332424e-01    4,461759627e-01    0,000000000e+00    0,000000000e+00    0,000000000e+00    0,000000000e+00
      968000000   -1,291858405e-01   -2,721622400e-02   -8,884258568e-02    6,029847264e-01    0,000000000e+00    0,000000000e+00    0,000000000e+00    0,000000000e+00
      982000000   -1,170643121e-01   -1,816854626e-02    2,463693023e-01    5,718055964e-01    0,000000000e+00    0,000000000e+00    0,000000000e+00    0,000000000e+00
      996000000   -1,074377745e-01   -1,186261326e-02    5,131216645e-01    3,672759235e-01    0,000000000e+00    0,000000000e+00    0,000000000e+00    0,000000000e+00
     1010000000   -9,987434745e-02   -6,183935329e-03    6,267142892e-01    5,143903196e-02    0,000000000e+00    0,000000000e+00    0,000000000e+00    0,000000000e+00
     1024000000   -9,218318760e-02   -2,566124545e-03    5,599657297e-01   -2,716923356e-01    0,000000000e+00    0,000000000e+00    0,000000000e+00    0,000000000e+00
     1038000000   -7,893128693e-02   -6,181939389e-04    3,382164240e-01   -5,034099817e-01    0,000000000e+00    0,000000000e+00    0,000000000e+00    0,000000000e+00
     1052000000   -6,302614510e-02   -1,338090189e-02    3,252483532e-02   -5,860831141e-01    0,000000000e+00    0,000000000e+00    0,000000000e+00    0,000000000e+00
     1066000000   -6,965977699e-02   -2,774703875e-02   -2,659877241e-01   -5,008616447e-01    0,000000000e+00    0,000000000e+00    0,000000000e+00    0,000000000e+00
     1080000000   -7,808601111e-02   -3,002995998e-02   -4,797734618e-01   -2,718203664e-01    0,000000000e+00    0,000000000e+00    0,000000000e+00    0,000000000e+00
     1094000000   -8,016440272e-02   -1,954488456e-02   -5,322808027e-01    4,362495244e-02    0,000000000e+00    0,000000000e+00    0,000000000e+00    0,000000000e+00
     1108000000   -5,556367338e-02   -1,159815956e-02   -4,004665315e-01    3,268647194e-01    0,000000000e+00    0,000000000e+00    0,000000000e+00    0,000000000e+00
     1122000000   -2,964955941e-02   -3,186802566e-02   -1,378988624e-01    4,800668061e-01    0,000000000e+00    0,000000000e+00    0,000000000e+00    0,000000000e+00
     1136000000   -3,038864397e-02   -8,289585263e-02    1,633149236e-01    4,722993076e-01    0,000000000e+00    0,000000000e+00    0,000000000e+00    0,000000000e+00
     1150000000   -6,105988100e-02   -1,321790069e-01    4,200822413e-01    3,137963712e-01    0,000000000e+00    0,000000000e+00    0,000000000e+00    0,000000000e+00
     1164000000   -1,387332082e-01   -1,504911631e-01    5,644869208e-01    2,554834448e-02    0,000000000e+00    0,000000000e+00    0,000000000e+00    0,000000000e+00
     1178000000   -2,113098055e-01   -1,181091443e-01    5,313594341e-01   -3,171011209e-01    0,000000000e+00    0,000000000e+00    0,000000000e+00    0,000000000e+00
     1192000000   -2,474126965e-01   -3,888150305e-02    2,987355888e-01   -5,965500474e-01    0,000000000e+00    0,000000000e+00    0,000000000e+00    0,000000000e+00
     1206000000   -2,299668640e-01    3,609023243e-02   -6,658127159e-02   -6,999553442e-01    0,000000000e+00    0,000000000e+00    0,000000000e+00    0,000000000e+00
     1220000000   -1,847494841e-01    7,945909351e-02   -4,187816381e-01   -5,800604224e-01    0,000000000e+00    0,000000000e+00    0,000000000e+00    0,000000000e+00
     1234000000   -1,266018450e-01    1,035948917e-01   -6,432830691e-01   -2,923582494e-01    0,000000000e+00    0,000000000e+00    0,000000000e+00    0,000000000e+00
     1248000000   -6,640322506e-02    9,503068775e-02   -6,730059385e-01    6,243258342e-02    0,000000000e+00    0,000000000e+00    0,000000000e+00    0,000000000e+00
     1262000000   -1,510137226e-02    6,355586648e-02   -5,220587254e-01    3,672852516e-01    0,000000000e+00    0,000000000e+00    0,000000000e+00    0,000000000e+00
     1276000000    2,642269805e-02   -1,315921429e-03   -2,419995070e-01    5,468982458e-01    0,000000000e+00    0,000000000e+00    0,000000000e+00    0,000000000e+00
     1290000000    2,088510618e-02   -9,104931355e-02    7,520765066e-02    5,717057586e-01    0,000000000e+00    0,000000000e+00    0,000000000e+00    0,000000000e+00
     1304000000   -3,060455434e-02   -1,703419834e-01    3,663628399e-01    4,634343982e-01    0,000000000e+00    0,000000000e+00    0,000000000e+00    0,000000000e+00
     1318000000   -1,315294802e-01   -2,159274518e-01    5,867438912e-01    2,199069560e-01    0,000000000e+00    0,000000000e+00    0,000000000e+00    0,000000000e+00
     1332000000   -2,521965504e-01   -1,915388107e-01    6,580421925e-01   -1,306591928e-01    0,000000000e+00    0,000000000e+00    0,000000000e+00    0,000000000e+00
     1346000000   -3,329713941e-01   -9,050010145e-02    5,055747628e-01   -4,608307779e-01    0,000000000e+00    0,000000000e+00    0,000000000e+00    0,000000000e+00
     1360000000   -3,355127871e-01    2,120060846e-02    1,933499426e-01   -6,494550705e-01    0,000000000e+00    0,000000000e+00    0,000000000e+00    0,000000000e+00
     1374000000   -2,773014009e-01    1,026602089e-01   -1,526405811e-01   -6,028014421e-01    0,000000000e+00    0,000000000e+00    0,000000000e+00    0,000000000e+00
     1388000000   -2,109202296e-01    1,412380785e-01   -4,031128883e-01   -3,700318038e-01    0,000000000e+00    0,000000000e+00    0,000000000e+00    0,000000000e+00
     1402000000   -1,525907815e-01    1,398562640e-01   -4,877145588e-01   -5,588934571e-02    0,000000000e+00    0,000000000e+00    0,000000000e+00    0,000000000e+00
     1416000000   -9,679676592e-02    1,154265329e-01   -3,714737892e-01    2,432447821e-01    0,000000000e+00    0,000000000e+00    0,000000000e+00    0,000000000e+00
     1430000000   -4,966870323e-02    7,616866380e-02   -1,356380880e-01    4,523561895e-01    0,000000000e+00    0,000000000e+00    0,000000000e+00    0,000000000e+00
     1444000000   -3,428264335e-02    4,317033105e-03    1,704521477e-01    5,386449695e-01    0,000000000e+00    0,000000000e+00    0,000000000e+00    0,000000000e+00
     1458000000   -6,800846756e-02   -6,964744627e-02    4,797474146e-01    4,813789725e-01    0,000000000e+00    0,000000000e+00    0,000000000e+00    0,000000000e+00
     1472000000   -1,312414259e-01   -1,217010394e-01    7,712209225e-01    2,689346969e-01    0,000000000e+00    0,000000000e+00    0,000000000e+00    0,000000000e+00
     1486000000   -2,282564491e-01   -1,106439680e-01    8,995908499e-01   -8,012133092e-02    0,000000000e+00    0,000000000e+00    0,000000000e+00    0,000000000e+00
     1500000000   -2,900163829e-01   -5,170943588e-02    7,960217595e-01   -4,495411515e-01    0,000000000e+00    0,000000000e+00    0,000000000e+00    0,000000000e+00
