! NanoVNA-App
! Date: 2025-09-25 15:05:15
! Start: 100MHz Stop: 1,5GHz Points: 101
! S-Parameter data: F S11 S21 S12 S22
# Hz S RI R 50
!     Frequency           S11_Real           S11_Imag           S21_Real           S21_Imag           S12_Real           S12_Imag           S22_Real           S22_Imag
      100000000    3,111648373e-02    2,861007862e-02    4,348146319e-01   -6,687105298e-01    0,000000000e+00    0,000000000e+00    0,000000000e+00    0,000000000e+00
      114000000    5,754981190e-02    5,494497251e-03    7,741474081e-03   -7,911539674e-01    0,000000000e+00    0,000000000e+00    0,000000000e+00    0,000000000e+00
      128000000    6,716218591e-02   -3,778703511e-02   -4,103301167e-01   -6,708900332e-01    0,000000000e+00    0,000000000e+00    0,000000000e+00    0,000000000e+00
      142000000    4,464915395e-02   -8,416159451e-02   -7,028754354e-01   -3,532958925e-01    0,000000000e+00    0,000000000e+00    0,000000000e+00    0,000000000e+00
      156000000   -5,895623006e-03   -1,059830338e-01   -7,860761881e-01    7,268507779e-02    0,000000000e+00    0,000000000e+00    0,000000000e+00    0,000000000e+00
      170000000   -5,762606114e-02   -9,061468393e-02   -6,275499463e-01    4,871774316e-01    0,000000000e+00    0,000000000e+00    0,000000000e+00    0,000000000e+00
      184000000   -8,360765874e-02   -4,945712164e-02   -2,647128403e-01    7,509021759e-01    0,000000000e+00    0,000000000e+00    0,000000000e+00    0,000000000e+00
      198000000   -7,955960929e-02   -1,046461146e-02    1,834448576e-01    7,728598118e-01    0,000000000e+00    0,000000000e+00    0,000000000e+00    0,000000000e+00
      212000000   -6,217212230e-02    1,311237086e-02    5,692284107e-01    5,489265323e-01    0,000000000e+00    0,000000000e+00    0,000000000e+00    0,000000000e+00
      226000000   -4,316453636e-02    2,759278379e-02    7,706949711e-01    1,543607265e-01    0,000000000e+00    0,000000000e+00    0,000000000e+00    0,000000000e+00
      240000000   -1,821589284e-02    3,835459426e-02    7,267909646e-01   -2,819125950e-01    0,000000000e+00    0,000000000e+00    0,000000000e+00    0,000000000e+00
      254000000    1,716060750e-02    3,511808440e-02    4,577631652e-01   -6,202479005e-01    0,000000000e+00    0,000000000e+00    0,000000000e+00    0,000000000e+00
      268000000    4,867793247e-02    5,505132023e-03    5,846871436e-02   -7,601455450e-01    0,000000000e+00    0,000000000e+00    0,000000000e+00    0,000000000e+00
      282000000    5,334032699e-02   -4,175538197e-02   -3,492806256e-01   -6,717860103e-01    0,000000000e+00    0,000000000e+00    0,000000000e+00    0,000000000e+00
      296000000    2,401462942e-02   -7,940104604e-02   -6,524568796e-01   -3,851971626e-01    0,000000000e+00    0,000000000e+00    0,000000000e+00    0,000000000e+00
      310000000   -1,805141941e-02   -8,321870863e-02   -7,643338442e-01    2,132221684e-02    0,000000000e+00    0,000000000e+00    0,000000000e+00    0,000000000e+00
      324000000   -4,170823842e-02   -5,847350881e-02   -6,317016482e-01    4,317153394e-01    0,000000000e+00    0,000000000e+00    0,000000000e+00    0,000000000e+00
      338000000   -3,409888595e-02   -3,708625957e-02   -2,963953316e-01    7,021715045e-01    0,000000000e+00    0,000000000e+00    0,000000000e+00    0,000000000e+00
      352000000   -1,712178998e-02   -4,063671455e-02    1,257961541e-01    7,418396473e-01    0,000000000e+00    0,000000000e+00    0,000000000e+00    0,000000000e+00
      366000000   -1,905698329e-02   -6,185990199e-02    4,986118376e-01    5,542929769e-01    0,000000000e+00    0,000000000e+00    0,000000000e+00    0,000000000e+00
      380000000   -4,434560239e-02   -7,304473966e-02    7,130423188e-01    1,994073987e-01    0,000000000e+00    0,000000000e+00    0,000000000e+00    0,000000000e+00
      394000000   -7,058756053e-02   -5,823837221e-02    7,041034102e-01   -2,169490904e-01    0,000000000e+00    0,000000000e+00    0,000000000e+00    0,000000000e+00
      408000000   -7,734654099e-02   -3,041499108e-02    4,704065323e-01   -5,603802800e-01    0,000000000e+00    0,000000000e+00    0,000000000e+00    0,000000000e+00
      422000000   -6,572479755e-02   -1,127950288e-02    9,256852418e-02   -7,176204324e-01    0,000000000e+00    0,000000000e+00    0,000000000e+00    0,000000000e+00
      436000000   -5,324200541e-02   -4,239669535e-03   -3,024720848e-01   -6,473875046e-01    0,000000000e+00    0,000000000e+00    0,000000000e+00    0,000000000e+00
      450000000   -4,465254396e-02    1,694103354e-03   -5,931420326e-01   -3,780733943e-01    0,000000000e+00    0,000000000e+00    0,000000000e+00    0,000000000e+00
      464000000   -2,923247404e-02    1,182937063e-02   -6,906546950e-01    5,996230757e-04    0,000000000e+00    0,000000000e+00    0,000000000e+00    0,000000000e+00
      478000000   -5,446216092e-04    1,135009900e-02   -5,723162889e-01    3,633798361e-01    0,000000000e+00    0,000000000e+00    0,000000000e+00    0,000000000e+00
      492000000    2,806059457e-02   -1,289597340e-02   -2,888177335e-01    6,016562581e-01    0,000000000e+00    0,000000000e+00    0,000000000e+00    0,000000000e+00
      506000000    3,624980897e-02   -5,608546361e-02    6,831323355e-02    6,591324210e-01    0,000000000e+00    0,000000000e+00    0,000000000e+00    0,000000000e+00
      520000000    1,237395313e-02   -9,837760776e-02    3,993346095e-01    5,245545506e-01    0,000000000e+00    0,000000000e+00    0,000000000e+00    0,000000000e+00
      534000000   -3,427313268e-02   -1,155408397e-01    6,241081953e-01    2,368517965e-01    0,000000000e+00    0,000000000e+00    0,000000000e+00    0,000000000e+00
      548000000   -7,757065445e-02   -9,844540060e-02    6,575573087e-01   -1,331808865e-01    0,000000000e+00    0,000000000e+00    0,000000000e+00    0,000000000e+00
      562000000   -9,285616875e-02   -6,594372541e-02    4,821656048e-01   -4,665134847e-01    0,000000000e+00    0,000000000e+00    0,000000000e+00    0,000000000e+00
      576000000   -8,590555936e-02   -4,446439818e-02    1,504084766e-01   -6,486310959e-01    0,000000000e+00    0,000000000e+00    0,000000000e+00    0,000000000e+00
      590000000   -8,075767756e-02   -4,189040884e-02   -2,209956795e-01   -6,290876269e-01    0,000000000e+00    0,000000000e+00    0,000000000e+00    0,000000000e+00
      604000000   -8,923127502e-02   -3,689650074e-02   -5,199809670e-01   -4,053618908e-01    0,000000000e+00    0,000000000e+00    0,000000000e+00    0,000000000e+00
      618000000   -9,610755742e-02   -1,512903441e-02   -6,528167129e-01   -5,811696127e-02    0,000000000e+00    0,000000000e+00    0,000000000e+00    0,000000000e+00
      632000000   -8,110836148e-02    1,571366377e-02   -5,753382444e-01    3,035210073e-01    0,000000000e+00    0,000000000e+00    0,000000000e+00    0,000000000e+00
      646000000   -4,267046228e-02    2,615569718e-02   -3,192431331e-01    5,563886166e-01    0,000000000e+00    0,000000000e+00    0,000000000e+00    0,000000000e+00
      660000000   -8,140305057e-03    5,990196951e-03    2,193137445e-02    6,297454238e-01    0,000000000e+00    0,000000000e+00    0,000000000e+00    0,000000000e+00
      674000000    1,741838525e-03   -2,978336439e-02    3,423805833e-01    5,185698867e-01    0,000000000e+00    0,000000000e+00    0,000000000e+00    0,000000000e+00
      688000000   -1,433597971e-02   -5,640359223e-02    5,591015816e-01    2,583886087e-01    0,000000000e+00    0,000000000e+00    0,000000000e+00    0,000000000e+00
      702000000   -3,426541016e-02   -5,957262963e-02    6,050076485e-01   -8,006227016e-02    0,000000000e+00    0,000000000e+00    0,000000000e+00    0,000000000e+00
      716000000   -3,679439798e-02   -5,597897992e-02    4,595593214e-01   -3,899421394e-01    0,000000000e+00    0,000000000e+00    0,000000000e+00    0,000000000e+00
      730000000   -3,255242109e-02   -6,588983536e-02    1,737854928e-01   -5,665974617e-01    0,000000000e+00    0,000000000e+00    0,000000000e+00    0,000000000e+00
      744000000   -4,160130396e-02   -8,799673617e-02   -1,530038565e-01   -5,636464953e-01    0,000000000e+00    0,000000000e+00    0,000000000e+00    0,000000000e+00
      758000000   -7,222524285e-02   -1,037178561e-01   -4,279781580e-01   -3,944909573e-01    0,000000000e+00    0,000000000e+00    0,000000000e+00    0,000000000e+00
      772000000   -1,139120832e-01   -9,269787371e-02   -5,745313764e-01   -1,049394831e-01    0,000000000e+00    0,000000000e+00    0,000000000e+00    0,000000000e+00
      786000000   -1,378038377e-01   -5,584739894e-02   -5,440536141e-01    2,220052034e-01    0,000000000e+00    0,000000000e+00    0,000000000e+00    0,000000000e+00
      800000000   -1,311434805e-01   -1,439335383e-02   -3,417417109e-01    4,796371162e-01    0,000000000e+00    0,000000000e+00    0,000000000e+00    0,000000000e+00
      814000000   -1,074926183e-01    7,213889621e-03   -3,316311538e-02    5,866584182e-01    0,000000000e+00    0,000000000e+00    0,000000000e+00    0,000000000e+00
      828000000   -8,574679494e-02    1,253934205e-02    2,781195343e-01    5,137847662e-01    0,000000000e+00    0,000000000e+00    0,000000000e+00    0,000000000e+00
      842000000   -7,137043029e-02    1,348393597e-02    5,020425320e-01    2,895582318e-01    0,000000000e+00    0,000000000e+00    0,000000000e+00    0,000000000e+00
      856000000   -5,314423144e-02    1,855923235e-02    5,707456470e-01   -1,788214222e-02    0,000000000e+00    0,000000000e+00    0,000000000e+00    0,000000000e+00
      870000000   -2,437915094e-02    1,415877510e-02    4,632056653e-01   -3,064812124e-01    0,000000000e+00    0,000000000e+00    0,000000000e+00    0,000000000e+00
      884000000    5,548055749e-03   -1,340519451e-02    2,307225466e-01   -4,883442223e-01    0,000000000e+00    0,000000000e+00    0,000000000e+00    0,000000000e+00
      898000000    1,191337127e-02   -6,206254661e-02   -5,318625271e-02   -5,246102810e-01    0,000000000e+00    0,000000000e+00    0,000000000e+00    0,000000000e+00
      912000000   -2,358704060e-02   -1,067850739e-01   -3,672319353e-01   -3,962004483e-01    0,000000000e+00    0,000000000e+00    0,000000000e+00    0,000000000e+00
      926000000   -7,519597560e-02   -1,239223778e-01   -5,320049524e-01   -1,588919014e-01    0,000000000e+00    0,000000000e+00    0,000000000e+00    0,000000000e+00
      940000000   -1,203069836e-01   -1,048576906e-01   -5,508274436e-01    1,551237404e-01    0,000000000e+00    0,000000000e+00    0,000000000e+00    0,000000000e+00
      954000000   -1,379159391e-01   -6,027177349e-02   -3,939312696e-01    4,475281239e-01    0,000000000e+00    0,000000000e+00    0,000000000e+00    0,000000000e+00
      968000000   -1,294867098e-01   -3,051035665e-02   -9,074513614e-02    6,025477648e-01    0,000000000e+00    0,000000000e+00    0,000000000e+00    0,000000000e+00
      982000000   -1,171933040e-01   -1,839837246e-02    2,463985831e-01    5,720641613e-01    0,000000000e+00    0,000000000e+00    0,000000000e+00    0,000000000e+00
      996000000   -1,087689698e-01   -1,206934638e-02    5,156358480e-01    3,658632338e-01    0,000000000e+00    0,000000000e+00    0,000000000e+00    0,000000000e+00
     1010000000   -1,013716683e-01   -6,086355541e-03    6,299645305e-01    4,931673780e-02    0,000000000e+00    0,000000000e+00    0,000000000e+00    0,000000000e+00
     1024000000   -9,275295585e-02    4,473255947e-03    5,603595972e-01   -2,731114328e-01    0,000000000e+00    0,000000000e+00    0,000000000e+00    0,000000000e+00
     1038000000   -7,387012243e-02   -1,677777967e-03    3,369472921e-01   -5,057601333e-01    0,000000000e+00    0,000000000e+00    0,000000000e+00    0,000000000e+00
     1052000000   -6,614720821e-02   -1,737354137e-02    3,224479035e-02   -5,846076012e-01    0,000000000e+00    0,000000000e+00    0,000000000e+00    0,000000000e+00
     1066000000   -7,221125066e-02   -3,552640602e-02   -2,703232765e-01   -5,010713935e-01    0,000000000e+00    0,000000000e+00    0,000000000e+00    0,000000000e+00
     1080000000   -7,855746895e-02   -3,151900321e-02   -4,814683199e-01   -2,688834071e-01    0,000000000e+00    0,000000000e+00    0,000000000e+00    0,000000000e+00
     1094000000   -8,169534802e-02   -1,468964852e-02   -5,314644575e-01    4,587044939e-02    0,000000000e+00    0,000000000e+00    0,000000000e+00    0,000000000e+00
     1108000000   -5,637852103e-02   -1,192353200e-02   -3,966123462e-01    3,260596693e-01    0,000000000e+00    0,000000000e+00    0,000000000e+00    0,000000000e+00
     1122000000   -3,548142686e-02   -3,639344126e-02   -1,312263757e-01    4,803804159e-01    0,000000000e+00    0,000000000e+00    0,000000000e+00    0,000000000e+00
     1136000000   -2,985100262e-02   -8,100292087e-02    1,663651019e-01    4,706553817e-01    0,000000000e+00    0,000000000e+00    0,000000000e+00    0,000000000e+00
     1150000000   -6,183439121e-02   -1,350146085e-01    4,189471900e-01    3,104066849e-01    0,000000000e+00    0,000000000e+00    0,000000000e+00    0,000000000e+00
     1164000000   -1,396663189e-01   -1,520188451e-01    5,601738691e-01    2,455044352e-02    0,000000000e+00    0,000000000e+00    0,000000000e+00    0,000000000e+00
     1178000000   -2,123674154e-01   -1,213924438e-01    5,257756710e-01   -3,150516748e-01    0,000000000e+00    0,000000000e+00    0,000000000e+00    0,000000000e+00
     1192000000   -2,472661734e-01   -4,075315222e-02    2,963741422e-01   -5,959490538e-01    0,000000000e+00    0,000000000e+00    0,000000000e+00    0,000000000e+00
     1206000000   -2,365658730e-01    3,393854573e-02   -6,733814627e-02   -6,979318261e-01    0,000000000e+00    0,000000000e+00    0,000000000e+00    0,000000000e+00
     1220000000   -1,825214624e-01    8,454103768e-02   -4,201104343e-01   -5,741602182e-01    0,000000000e+00    0,000000000e+00    0,000000000e+00    0,000000000e+00
     1234000000   -1,256879717e-01    1,073504314e-01   -6,391068697e-01   -2,899590433e-01    0,000000000e+00    0,000000000e+00    0,000000000e+00    0,000000000e+00
     1248000000   -6,645220518e-02    1,007531583e-01   -6,757870913e-01    6,716492772e-02    0,000000000e+00    0,000000000e+00    0,000000000e+00    0,000000000e+00
     1262000000   -1,553097740e-02    6,213692948e-02   -5,202172399e-01    3,638626933e-01    0,000000000e+00    0,000000000e+00    0,000000000e+00    0,000000000e+00
     1276000000    2,373016439e-02   -5,596682429e-03   -2,433181554e-01    5,393752456e-01    0,000000000e+00    0,000000000e+00    0,000000000e+00    0,000000000e+00
     1290000000    1,890503615e-02   -8,770484477e-02    6,594260037e-02    5,738723278e-01    0,000000000e+00    0,000000000e+00    0,000000000e+00    0,000000000e+00
     1304000000   -3,272368014e-02   -1,691401899e-01    3,661862612e-01    4,717656672e-01    0,000000000e+00    0,000000000e+00    0,000000000e+00    0,000000000e+00
     1318000000   -1,352060288e-01   -2,112087458e-01    5,798738003e-01    2,225827575e-01    0,000000000e+00    0,000000000e+00    0,000000000e+00    0,000000000e+00
     1332000000   -2,568421960e-01   -1,917336583e-01    6,487253904e-01   -1,297670305e-01    0,000000000e+00    0,000000000e+00    0,000000000e+00    0,000000000e+00
     1346000000   -3,280998468e-01   -8,623238653e-02    5,090405941e-01   -4,534721673e-01    0,000000000e+00    0,000000000e+00    0,000000000e+00    0,000000000e+00
     1360000000   -3,375191689e-01    2,371433564e-02    1,887340248e-01   -6,380279660e-01    0,000000000e+00    0,000000000e+00    0,000000000e+00    0,000000000e+00
     1374000000   -2,804540694e-01    1,020992398e-01   -1,571814716e-01   -6,042165160e-01    0,000000000e+00    0,000000000e+00    0,000000000e+00    0,000000000e+00
     1388000000   -2,119790465e-01    1,358961761e-01   -4,010010660e-01   -3,758665025e-01    0,000000000e+00    0,000000000e+00    0,000000000e+00    0,000000000e+00
     1402000000   -1,538481116e-01    1,394524723e-01   -4,833495617e-01   -5,693828315e-02    0,000000000e+00    0,000000000e+00    0,000000000e+00    0,000000000e+00
     1416000000   -9,836646914e-02    1,188272014e-01   -3,802725971e-01    2,398514152e-01    0,000000000e+00    0,000000000e+00    0,000000000e+00    0,000000000e+00
     1430000000   -4,804570600e-02    7,339795679e-02   -1,531547606e-01    4,647134542e-01    0,000000000e+00    0,000000000e+00    0,000000000e+00    0,000000000e+00
     1444000000   -3,291052580e-02   -9,586829692e-04    1,717367768e-01    5,359387994e-01    0,000000000e+00    0,000000000e+00    0,000000000e+00    0,000000000e+00
     1458000000   -6,062102318e-02   -7,681280375e-02    4,874953926e-01    4,647114575e-01    0,000000000e+00    0,000000000e+00    0,000000000e+00    0,000000000e+00
     1472000000   -1,337282211e-01   -1,300220042e-01    7,730068564e-01    2,561748326e-01    0,000000000e+00    0,000000000e+00    0,000000000e+00    0,000000000e+00
     1486000000   -2,319210768e-01   -1,166820824e-01    8,915740252e-01   -7,604628056e-02    0,000000000e+00    0,000000000e+00    0,000000000e+00    0,000000000e+00
     1500000000   -2,835084200e-01   -4,523403198e-02    8,086500764e-01   -4,465196431e-01    0,000000000e+00    0,000000000e+00    0,000000000e+00    0,000000000e+00
