! NanoVNA-App
! Date: 2025-09-25 15:09:19
! Start: 100MHz Stop: 1,5GHz Points: 101
! S-Parameter data: F S11 S21 S12 S22
# Hz S RI R 50
!     Frequency           S11_Real           S11_Imag           S21_Real           S21_Imag           S12_Real           S12_Imag           S22_Real           S22_Imag
      100000000    3,115595691e-02    2,863709442e-02    4,348546267e-01   -6,686137915e-01    0,000000000e+00    0,000000000e+00    0,000000000e+00    0,000000000e+00
      114000000    5,756928027e-02    5,507476162e-03    7,885928266e-03   -7,910147905e-01    0,000000000e+00    0,000000000e+00    0,000000000e+00    0,000000000e+00
      128000000    6,731664389e-02   -3,787428513e-02   -4,103378952e-01   -6,712685823e-01    0,000000000e+00    0,000000000e+00    0,000000000e+00    0,000000000e+00
      142000000    4,472408444e-02   -8,423447609e-02   -7,030343413e-01   -3,532455266e-01    0,000000000e+00    0,000000000e+00    0,000000000e+00    0,000000000e+00
      156000000   -6,152597256e-03   -1,058105826e-01   -7,856181860e-01    7,265283912e-02    0,000000000e+00    0,000000000e+00    0,000000000e+00    0,000000000e+00
      170000000   -5,768069997e-02   -9,066294134e-02   -6,276260614e-01    4,868623316e-01    0,000000000e+00    0,000000000e+00    0,000000000e+00    0,000000000e+00
      184000000   -8,367216587e-02   -4,945769161e-02   -2,649038434e-01    7,508296967e-01    0,000000000e+00    0,000000000e+00    0,000000000e+00    0,000000000e+00
      198000000   -7,966611534e-02   -1,048173755e-02    1,838123947e-01    7,733672261e-01    0,000000000e+00    0,000000000e+00    0,000000000e+00    0,000000000e+00
      212000000   -6,224960461e-02    1,315922663e-02    5,691527128e-01    5,490198135e-01    0,000000000e+00    0,000000000e+00    0,000000000e+00    0,000000000e+00
      226000000   -4,332612455e-02    2,763919719e-02    7,707140446e-01    1,545004696e-01    0,000000000e+00    0,000000000e+00    0,000000000e+00    0,000000000e+00
      240000000   -1,818682253e-02    3,850959241e-02    7,269448042e-01   -2,820419967e-01    0,000000000e+00    0,000000000e+00    0,000000000e+00    0,000000000e+00
      254000000    1,718272455e-02    3,518346697e-02    4,579212070e-01   -6,202281713e-01    0,000000000e+00    0,000000000e+00    0,000000000e+00    0,000000000e+00
      268000000    4,878089204e-02    5,614002701e-03    5,859102681e-02   -7,601518035e-01    0,000000000e+00    0,000000000e+00    0,000000000e+00    0,000000000e+00
      282000000    5,351128429e-02   -4,185575247e-02   -3,491248190e-01   -6,718497872e-01    0,000000000e+00    0,000000000e+00    0,000000000e+00    0,000000000e+00
      296000000    2,405178733e-02   -7,951684296e-02   -6,517293453e-01   -3,852359653e-01    0,000000000e+00    0,000000000e+00    0,000000000e+00    0,000000000e+00
      310000000   -1,803046092e-02   -8,328194916e-02   -7,633970380e-01    1,937614195e-02    0,000000000e+00    0,000000000e+00    0,000000000e+00    0,000000000e+00
      324000000   -4,181454331e-02   -5,901412666e-02   -6,316873431e-01    4,313596785e-01    0,000000000e+00    0,000000000e+00    0,000000000e+00    0,000000000e+00
      338000000   -3,417496756e-02   -3,686445579e-02   -2,967907488e-01    7,002264261e-01    0,000000000e+00    0,000000000e+00    0,000000000e+00    0,000000000e+00
      352000000   -1,726620272e-02   -4,072518647e-02    1,259801090e-01    7,403888702e-01    0,000000000e+00    0,000000000e+00    0,000000000e+00    0,000000000e+00
      366000000   -1,932658628e-02   -6,206889823e-02    4,981729686e-01    5,542284250e-01    0,000000000e+00    0,000000000e+00    0,000000000e+00    0,000000000e+00
      380000000   -4,440746456e-02   -7,255171984e-02    7,131140828e-01    1,998322010e-01    0,000000000e+00    0,000000000e+00    0,000000000e+00    0,000000000e+00
      394000000   -7,080916315e-02   -5,788971111e-02    7,044379115e-01   -2,160252929e-01    0,000000000e+00    0,000000000e+00    0,000000000e+00    0,000000000e+00
      408000000   -7,703556120e-02   -3,050940298e-02    4,706432521e-01   -5,591512322e-01    0,000000000e+00    0,000000000e+00    0,000000000e+00    0,000000000e+00
      422000000   -6,553249806e-02   -1,117759570e-02    9,358871728e-02   -7,174541950e-01    0,000000000e+00    0,000000000e+00    0,000000000e+00    0,000000000e+00
      436000000   -5,312742293e-02   -4,415752366e-03   -3,020150363e-01   -6,472960711e-01    0,000000000e+00    0,000000000e+00    0,000000000e+00    0,000000000e+00
      450000000   -4,423440248e-02    1,805359148e-03   -5,927501321e-01   -3,779426217e-01    0,000000000e+00    0,000000000e+00    0,000000000e+00    0,000000000e+00
      464000000   -2,949303761e-02    1,111359708e-02   -6,910788417e-01   -3,676041961e-04    0,000000000e+00    0,000000000e+00    0,000000000e+00    0,000000000e+00
      478000000   -1,032172120e-03    1,087567210e-02   -5,732640624e-01    3,633937538e-01    0,000000000e+00    0,000000000e+00    0,000000000e+00    0,000000000e+00
      492000000    2,765168995e-02   -1,229385007e-02   -2,892098427e-01    6,024942398e-01    0,000000000e+00    0,000000000e+00    0,000000000e+00    0,000000000e+00
      506000000    3,629291430e-02   -5,593973026e-02    6,898076087e-02    6,585396528e-01    0,000000000e+00    0,000000000e+00    0,000000000e+00    0,000000000e+00
      520000000    1,337015349e-02   -9,845457971e-02    4,051201940e-01    5,271962285e-01    0,000000000e+00    0,000000000e+00    0,000000000e+00    0,000000000e+00
      534000000   -3,374904022e-02   -1,161215082e-01    6,242956519e-01    2,361394912e-01    0,000000000e+00    0,000000000e+00    0,000000000e+00    0,000000000e+00
      548000000   -7,718390971e-02   -9,910490364e-02    6,583083868e-01   -1,333031803e-01    0,000000000e+00    0,000000000e+00    0,000000000e+00    0,000000000e+00
      562000000   -9,337253124e-02   -6,638637185e-02    4,821164906e-01   -4,671276212e-01    0,000000000e+00    0,000000000e+00    0,000000000e+00    0,000000000e+00
      576000000   -8,651578426e-02   -4,432670772e-02    1,500694156e-01   -6,484907866e-01    0,000000000e+00    0,000000000e+00    0,000000000e+00    0,000000000e+00
      590000000   -8,079513907e-02   -4,157837480e-02   -2,200857848e-01   -6,257186532e-01    0,000000000e+00    0,000000000e+00    0,000000000e+00    0,000000000e+00
      604000000   -8,915403485e-02   -3,707565367e-02   -5,199382901e-01   -4,067789614e-01    0,000000000e+00    0,000000000e+00    0,000000000e+00    0,000000000e+00
      618000000   -9,660795331e-02   -1,552834921e-02   -6,531860828e-01   -5,836783722e-02    0,000000000e+00    0,000000000e+00    0,000000000e+00    0,000000000e+00
      632000000   -8,155285567e-02    1,547205914e-02   -5,757571459e-01    3,025216162e-01    0,000000000e+00    0,000000000e+00    0,000000000e+00    0,000000000e+00
      646000000   -4,245804250e-02    2,645418234e-02   -3,186353743e-01    5,564533472e-01    0,000000000e+00    0,000000000e+00    0,000000000e+00    0,000000000e+00
      660000000   -7,345028222e-03    5,479609594e-03    2,144598961e-02    6,297512054e-01    0,000000000e+00    0,000000000e+00    0,000000000e+00    0,000000000e+00
      674000000    5,093149375e-04   -3,016461059e-02    3,413935304e-01    5,196286440e-01    0,000000000e+00    0,000000000e+00    0,000000000e+00    0,000000000e+00
      688000000   -1,455902494e-02   -5,494457856e-02    5,590081811e-01    2,583624125e-01    0,000000000e+00    0,000000000e+00    0,000000000e+00    0,000000000e+00
      702000000   -3,237433732e-02   -5,984307453e-02    6,074429750e-01   -8,229519427e-02    0,000000000e+00    0,000000000e+00    0,000000000e+00    0,000000000e+00
      716000000   -3,651317209e-02   -5,565413833e-02    4,599218071e-01   -3,896578550e-01    0,000000000e+00    0,000000000e+00    0,000000000e+00    0,000000000e+00
      730000000   -3,206612915e-02   -6,456737965e-02    1,747755259e-01   -5,668241978e-01    0,000000000e+00    0,000000000e+00    0,000000000e+00    0,000000000e+00
      744000000   -4,094967991e-02   -8,823966235e-02   -1,531297863e-01   -5,632740855e-01    0,000000000e+00    0,000000000e+00    0,000000000e+00    0,000000000e+00
      758000000   -7,202676684e-02   -1,039223671e-01   -4,277181625e-01   -3,953220248e-01    0,000000000e+00    0,000000000e+00    0,000000000e+00    0,000000000e+00
      772000000   -1,133165061e-01   -9,423355013e-02   -5,744789839e-01   -1,052182242e-01    0,000000000e+00    0,000000000e+00    0,000000000e+00    0,000000000e+00
      786000000   -1,382670850e-01   -5,578472838e-02   -5,450873375e-01    2,212253958e-01    0,000000000e+00    0,000000000e+00    0,000000000e+00    0,000000000e+00
      800000000   -1,330680847e-01   -1,499881875e-02   -3,415907621e-01    4,796816409e-01    0,000000000e+00    0,000000000e+00    0,000000000e+00    0,000000000e+00
      814000000   -1,081506014e-01    8,229187690e-03   -3,407385200e-02    5,861088634e-01    0,000000000e+00    0,000000000e+00    0,000000000e+00    0,000000000e+00
      828000000   -8,527060598e-02    1,334574819e-02    2,782670557e-01    5,152189136e-01    0,000000000e+00    0,000000000e+00    0,000000000e+00    0,000000000e+00
      842000000   -7,049668580e-02    1,520618424e-02    5,020669103e-01    2,889779508e-01    0,000000000e+00    0,000000000e+00    0,000000000e+00    0,000000000e+00
      856000000   -5,218112469e-02    1,892746240e-02    5,704153180e-01   -1,817380451e-02    0,000000000e+00    0,000000000e+00    0,000000000e+00    0,000000000e+00
      870000000   -2,262182161e-02    1,467099041e-02    4,641493857e-01   -3,067114651e-01    0,000000000e+00    0,000000000e+00    0,000000000e+00    0,000000000e+00
      884000000    5,724047311e-03   -1,403717510e-02    2,297148257e-01   -4,877861738e-01    0,000000000e+00    0,000000000e+00    0,000000000e+00    0,000000000e+00
      898000000    1,234755293e-02   -6,362415850e-02   -5,173228309e-02   -5,265116692e-01    0,000000000e+00    0,000000000e+00    0,000000000e+00    0,000000000e+00
      912000000   -2,389370278e-02   -1,079873815e-01   -3,526506424e-01   -3,959262669e-01    0,000000000e+00    0,000000000e+00    0,000000000e+00    0,000000000e+00
      926000000   -7,501608133e-02   -1,245195642e-01   -5,308944583e-01   -1,595421880e-01    0,000000000e+00    0,000000000e+00    0,000000000e+00    0,000000000e+00
      940000000   -1,212818548e-01   -1,048486978e-01   -5,528185964e-01    1,552746147e-01    0,000000000e+00    0,000000000e+00    0,000000000e+00    0,000000000e+00
      954000000   -1,441347003e-01   -6,194476411e-02   -3,914683163e-01    4,463168383e-01    0,000000000e+00    0,000000000e+00    0,000000000e+00    0,000000000e+00
      968000000   -1,314304620e-01   -3,084217384e-02   -9,247548878e-02    6,008970737e-01    0,000000000e+00    0,000000000e+00    0,000000000e+00    0,000000000e+00
      982000000   -1,168287098e-01   -1,633319817e-02    2,447617203e-01    5,727374554e-01    0,000000000e+00    0,000000000e+00    0,000000000e+00    0,000000000e+00
      996000000   -1,074555591e-01   -1,649161056e-02    5,121594667e-01    3,651318252e-01    0,000000000e+00    0,000000000e+00    0,000000000e+00    0,000000000e+00
     1010000000   -1,020374075e-01   -1,055551507e-02    6,298496723e-01    5,223095417e-02    0,000000000e+00    0,000000000e+00    0,000000000e+00    0,000000000e+00
     1024000000   -8,901412785e-02    5,185091504e-05    5,611395836e-01   -2,704885006e-01    0,000000000e+00    0,000000000e+00    0,000000000e+00    0,000000000e+00
     1038000000   -7,727330178e-02   -3,579266369e-03    3,393040299e-01   -5,032448173e-01    0,000000000e+00    0,000000000e+00    0,000000000e+00    0,000000000e+00
     1052000000   -6,480340660e-02   -1,932611503e-02    3,244791180e-02   -5,853926539e-01    0,000000000e+00    0,000000000e+00    0,000000000e+00    0,000000000e+00
     1066000000   -6,691651791e-02   -3,341062739e-02   -2,614192367e-01   -5,014139414e-01    0,000000000e+00    0,000000000e+00    0,000000000e+00    0,000000000e+00
     1080000000   -7,829137892e-02   -2,995528840e-02   -4,803646505e-01   -2,709317505e-01    0,000000000e+00    0,000000000e+00    0,000000000e+00    0,000000000e+00
     1094000000   -7,981003821e-02   -1,520692930e-02   -5,338992476e-01    3,909727186e-02    0,000000000e+00    0,000000000e+00    0,000000000e+00    0,000000000e+00
     1108000000   -5,855589733e-02   -1,466546115e-02   -3,966166675e-01    3,268248141e-01    0,000000000e+00    0,000000000e+00    0,000000000e+00    0,000000000e+00
     1122000000   -3,366366774e-02   -3,456338122e-02   -1,358563900e-01    4,815860689e-01    0,000000000e+00    0,000000000e+00    0,000000000e+00    0,000000000e+00
     1136000000   -3,040937893e-02   -8,767259866e-02    1,643917263e-01    4,730407298e-01    0,000000000e+00    0,000000000e+00    0,000000000e+00    0,000000000e+00
     1150000000   -6,566449255e-02   -1,373472363e-01    4,190990925e-01    3,131077588e-01    0,000000000e+00    0,000000000e+00    0,000000000e+00    0,000000000e+00
     1164000000   -1,412223727e-01   -1,514328718e-01    5,623782277e-01    2,904586494e-02    0,000000000e+00    0,000000000e+00    0,000000000e+00    0,000000000e+00
     1178000000   -2,087764144e-01   -1,162467301e-01    5,313668251e-01   -3,168796301e-01    0,000000000e+00    0,000000000e+00    0,000000000e+00    0,000000000e+00
     1192000000   -2,473798990e-01   -4,870757833e-02    2,971564829e-01   -5,971783400e-01    0,000000000e+00    0,000000000e+00    0,000000000e+00    0,000000000e+00
     1206000000   -2,268188745e-01    3,420653567e-02   -6,658355892e-02   -7,008987069e-01    0,000000000e+00    0,000000000e+00    0,000000000e+00    0,000000000e+00
     1220000000   -1,820578724e-01    8,475356549e-02   -4,170198739e-01   -5,794756413e-01    0,000000000e+00    0,000000000e+00    0,000000000e+00    0,000000000e+00
     1234000000   -1,287466735e-01    1,053115502e-01   -6,471144557e-01   -2,936236262e-01    0,000000000e+00    0,000000000e+00    0,000000000e+00    0,000000000e+00
     1248000000   -6,773670763e-02    9,693561494e-02   -6,750065684e-01    6,629303098e-02    0,000000000e+00    0,000000000e+00    0,000000000e+00    0,000000000e+00
     1262000000   -1,417569723e-02    5,934737995e-02   -5,211241841e-01    3,664482236e-01    0,000000000e+00    0,000000000e+00    0,000000000e+00    0,000000000e+00
     1276000000    2,136618458e-02    9,958476294e-04   -2,507345676e-01    5,496885180e-01    0,000000000e+00    0,000000000e+00    0,000000000e+00    0,000000000e+00
     1290000000    2,406469919e-02   -8,817510307e-02    7,521504164e-02    5,792329311e-01    0,000000000e+00    0,000000000e+00    0,000000000e+00    0,000000000e+00
     1304000000   -3,304658085e-02   -1,686738878e-01    3,689554930e-01    4,707601070e-01    0,000000000e+00    0,000000000e+00    0,000000000e+00    0,000000000e+00
     1318000000   -1,327837706e-01   -2,154603899e-01    5,868971348e-01    2,208088636e-01    0,000000000e+00    0,000000000e+00    0,000000000e+00    0,000000000e+00
     1332000000   -2,534603775e-01   -1,857577264e-01    6,541816592e-01   -1,257293820e-01    0,000000000e+00    0,000000000e+00    0,000000000e+00    0,000000000e+00
     1346000000   -3,354668319e-01   -8,970172703e-02    5,025816560e-01   -4,565881789e-01    0,000000000e+00    0,000000000e+00    0,000000000e+00    0,000000000e+00
     1360000000   -3,383419216e-01    1,900293119e-02    1,861966103e-01   -6,492173076e-01    0,000000000e+00    0,000000000e+00    0,000000000e+00    0,000000000e+00
     1374000000   -2,849558592e-01    9,899326414e-02   -1,595350951e-01   -6,055746675e-01    0,000000000e+00    0,000000000e+00    0,000000000e+00    0,000000000e+00
     1388000000   -2,139032930e-01    1,381635070e-01   -4,114027619e-01   -3,822275400e-01    0,000000000e+00    0,000000000e+00    0,000000000e+00    0,000000000e+00
     1402000000   -1,515441686e-01    1,389392763e-01   -4,758562744e-01   -5,553439632e-02    0,000000000e+00    0,000000000e+00    0,000000000e+00    0,000000000e+00
     1416000000   -9,179563075e-02    1,136622801e-01   -3,736965954e-01    2,354246229e-01    0,000000000e+00    0,000000000e+00    0,000000000e+00    0,000000000e+00
     1430000000   -5,216803402e-02    6,966559589e-02   -1,569439918e-01    4,548572600e-01    0,000000000e+00    0,000000000e+00    0,000000000e+00    0,000000000e+00
     1444000000   -3,857634962e-02    9,828492068e-03    1,620472074e-01    5,465154052e-01    0,000000000e+00    0,000000000e+00    0,000000000e+00    0,000000000e+00
     1458000000   -6,360082328e-02   -7,813712955e-02    4,760734737e-01    4,751625657e-01    0,000000000e+00    0,000000000e+00    0,000000000e+00    0,000000000e+00
     1472000000   -1,409727037e-01   -1,198406368e-01    7,539271116e-01    2,532689571e-01    0,000000000e+00    0,000000000e+00    0,000000000e+00    0,000000000e+00
     1486000000   -2,305728644e-01   -1,116903201e-01    8,810706735e-01   -6,911770254e-02    0,000000000e+00    0,000000000e+00    0,000000000e+00    0,000000000e+00
     1500000000   -2,853154838e-01   -6,034914777e-02    7,972831726e-01   -4,667474926e-01    0,000000000e+00    0,000000000e+00    0,000000000e+00    0,000000000e+00
