! NanoVNA-App
! Date: 2025-09-25 15:11:22
! Start: 100MHz Stop: 1,5GHz Points: 101
! S-Parameter data: F S11 S21 S12 S22
# Hz S RI R 50
!     Frequency           S11_Real           S11_Imag           S21_Real           S21_Imag           S12_Real           S12_Imag           S22_Real           S22_Imag
      100000000    3,115523607e-02    2,864749357e-02    4,348658025e-01   -6,685578823e-01    0,000000000e+00    0,000000000e+00    0,000000000e+00    0,000000000e+00
      114000000    5,757399276e-02    5,500914063e-03    7,867146283e-03   -7,908735871e-01    0,000000000e+00    0,000000000e+00    0,000000000e+00    0,000000000e+00
      128000000    6,726932526e-02   -3,786634281e-02   -4,103287458e-01   -6,714543104e-01    0,000000000e+00    0,000000000e+00    0,000000000e+00    0,000000000e+00
      142000000    4,468252510e-02   -8,419690281e-02   -7,028195858e-01   -3,534799516e-01    0,000000000e+00    0,000000000e+00    0,000000000e+00    0,000000000e+00
      156000000   -5,790441297e-03   -1,067217961e-01   -7,866185308e-01    7,379895449e-02    0,000000000e+00    0,000000000e+00    0,000000000e+00    0,000000000e+00
      170000000   -5,764826760e-02   -9,066987783e-02   -6,276268363e-01    4,871498048e-01    0,000000000e+00    0,000000000e+00    0,000000000e+00    0,000000000e+00
      184000000   -8,368255198e-02   -4,945828393e-02   -2,648531199e-01    7,509544492e-01    0,000000000e+00    0,000000000e+00    0,000000000e+00    0,000000000e+00
      198000000   -7,965869457e-02   -1,045601163e-02    1,834745556e-01    7,733935714e-01    0,000000000e+00    0,000000000e+00    0,000000000e+00    0,000000000e+00
      212000000   -6,224234030e-02    1,316676382e-02    5,693841577e-01    5,492528081e-01    0,000000000e+00    0,000000000e+00    0,000000000e+00    0,000000000e+00
      226000000   -4,333011061e-02    2,764873393e-02    7,708552480e-01    1,545753032e-01    0,000000000e+00    0,000000000e+00    0,000000000e+00    0,000000000e+00
      240000000   -1,818867214e-02    3,847480938e-02    7,267429233e-01   -2,818622887e-01    0,000000000e+00    0,000000000e+00    0,000000000e+00    0,000000000e+00
      254000000    1,720502041e-02    3,521048650e-02    4,581521749e-01   -6,198841929e-01    0,000000000e+00    0,000000000e+00    0,000000000e+00    0,000000000e+00
      268000000    4,880838841e-02    5,624292418e-03    5,887004733e-02   -7,598319650e-01    0,000000000e+00    0,000000000e+00    0,000000000e+00    0,000000000e+00
      282000000    5,347901210e-02   -4,177181050e-02   -3,487886488e-01   -6,713565588e-01    0,000000000e+00    0,000000000e+00    0,000000000e+00    0,000000000e+00
      296000000    2,405883372e-02   -7,954035699e-02   -6,521107554e-01   -3,854009509e-01    0,000000000e+00    0,000000000e+00    0,000000000e+00    0,000000000e+00
      310000000   -1,782317646e-02   -8,306780457e-02   -7,626010776e-01    2,077520266e-02    0,000000000e+00    0,000000000e+00    0,000000000e+00    0,000000000e+00
      324000000   -4,161305726e-02   -5,899438262e-02   -6,321093440e-01    4,301570654e-01    0,000000000e+00    0,000000000e+00    0,000000000e+00    0,000000000e+00
      338000000   -3,421375528e-02   -3,683302179e-02   -2,976990044e-01    7,015538812e-01    0,000000000e+00    0,000000000e+00    0,000000000e+00    0,000000000e+00
      352000000   -1,762086153e-02   -4,085794091e-02    1,255474836e-01    7,431032062e-01    0,000000000e+00    0,000000000e+00    0,000000000e+00    0,000000000e+00
      366000000   -1,937676221e-02   -6,195522472e-02    4,978453815e-01    5,542953014e-01    0,000000000e+00    0,000000000e+00    0,000000000e+00    0,000000000e+00
      380000000   -4,435662925e-02   -7,271207869e-02    7,128866315e-01    1,995449811e-01    0,000000000e+00    0,000000000e+00    0,000000000e+00    0,000000000e+00
      394000000   -7,096615434e-02   -5,786046758e-02    7,042704821e-01   -2,159670442e-01    0,000000000e+00    0,000000000e+00    0,000000000e+00    0,000000000e+00
      408000000   -7,683513314e-02   -3,047181852e-02    4,709929526e-01   -5,609825850e-01    0,000000000e+00    0,000000000e+00    0,000000000e+00    0,000000000e+00
      422000000   -6,549717486e-02   -1,094648242e-02    9,368356317e-02   -7,169361711e-01    0,000000000e+00    0,000000000e+00    0,000000000e+00    0,000000000e+00
      436000000   -5,303234234e-02   -4,507735372e-03   -3,011022508e-01   -6,472616196e-01    0,000000000e+00    0,000000000e+00    0,000000000e+00    0,000000000e+00
      450000000   -4,467663541e-02    1,871970133e-03   -5,929082632e-01   -3,781403005e-01    0,000000000e+00    0,000000000e+00    0,000000000e+00    0,000000000e+00
      464000000   -2,937545069e-02    1,143673155e-02   -6,912563443e-01   -2,639957893e-05    0,000000000e+00    0,000000000e+00    0,000000000e+00    0,000000000e+00
      478000000   -1,107564778e-03    1,093455870e-02   -5,738671422e-01    3,628742993e-01    0,000000000e+00    0,000000000e+00    0,000000000e+00    0,000000000e+00
      492000000    2,765505388e-02   -1,218699198e-02   -2,892067432e-01    6,022452712e-01    0,000000000e+00    0,000000000e+00    0,000000000e+00    0,000000000e+00
      506000000    3,610160202e-02   -5,589657649e-02    6,902506202e-02    6,589829326e-01    0,000000000e+00    0,000000000e+00    0,000000000e+00    0,000000000e+00
      520000000    1,191348117e-02   -9,828329086e-02    4,020030499e-01    5,220260620e-01    0,000000000e+00    0,000000000e+00    0,000000000e+00    0,000000000e+00
      534000000   -3,438888118e-02   -1,162775159e-01    6,238629818e-01    2,367840260e-01    0,000000000e+00    0,000000000e+00    0,000000000e+00    0,000000000e+00
      548000000   -7,778352499e-02   -9,966299683e-02    6,579283476e-01   -1,332216710e-01    0,000000000e+00    0,000000000e+00    0,000000000e+00    0,000000000e+00
      562000000   -9,323991090e-02   -6,595139951e-02    4,823478460e-01   -4,663696885e-01    0,000000000e+00    0,000000000e+00    0,000000000e+00    0,000000000e+00
      576000000   -8,641888946e-02   -4,428843036e-02    1,511208862e-01   -6,478307247e-01    0,000000000e+00    0,000000000e+00    0,000000000e+00    0,000000000e+00
      590000000   -8,080013841e-02   -4,160811752e-02   -2,181186080e-01   -6,264857054e-01    0,000000000e+00    0,000000000e+00    0,000000000e+00    0,000000000e+00
      604000000   -8,896688372e-02   -3,753581271e-02   -5,198123455e-01   -4,068597853e-01    0,000000000e+00    0,000000000e+00    0,000000000e+00    0,000000000e+00
      618000000   -9,669945389e-02   -1,476114243e-02   -6,534006000e-01   -5,817660317e-02    0,000000000e+00    0,000000000e+00    0,000000000e+00    0,000000000e+00
      632000000   -8,067577332e-02    1,531497948e-02   -5,756991506e-01    3,026285470e-01    0,000000000e+00    0,000000000e+00    0,000000000e+00    0,000000000e+00
      646000000   -4,272338748e-02    2,585335448e-02   -3,186352253e-01    5,566544533e-01    0,000000000e+00    0,000000000e+00    0,000000000e+00    0,000000000e+00
      660000000   -8,254396729e-03    6,120534148e-03    2,077028900e-02    6,290825605e-01    0,000000000e+00    0,000000000e+00    0,000000000e+00    0,000000000e+00
      674000000    6,898057763e-04   -3,038971871e-02    3,413810432e-01    5,193631649e-01    0,000000000e+00    0,000000000e+00    0,000000000e+00    0,000000000e+00
      688000000   -1,480890904e-02   -5,641981959e-02    5,585275888e-01    2,590093315e-01    0,000000000e+00    0,000000000e+00    0,000000000e+00    0,000000000e+00
      702000000   -3,375191242e-02   -5,888714641e-02    6,075320840e-01   -7,828696072e-02    0,000000000e+00    0,000000000e+00    0,000000000e+00    0,000000000e+00
      716000000   -3,773026913e-02   -5,544481426e-02    4,597083032e-01   -3,901839554e-01    0,000000000e+00    0,000000000e+00    0,000000000e+00    0,000000000e+00
      730000000   -3,255899251e-02   -6,512664258e-02    1,742974818e-01   -5,666803718e-01    0,000000000e+00    0,000000000e+00    0,000000000e+00    0,000000000e+00
      744000000   -4,050299153e-02   -8,900917321e-02   -1,526553929e-01   -5,643563271e-01    0,000000000e+00    0,000000000e+00    0,000000000e+00    0,000000000e+00
      758000000   -7,217022032e-02   -1,038846895e-01   -4,276783168e-01   -3,953110576e-01    0,000000000e+00    0,000000000e+00    0,000000000e+00    0,000000000e+00
      772000000   -1,141437739e-01   -9,316024929e-02   -5,739313960e-01   -1,057635322e-01    0,000000000e+00    0,000000000e+00    0,000000000e+00    0,000000000e+00
      786000000   -1,393848211e-01   -5,569304153e-02   -5,455334783e-01    2,203998268e-01    0,000000000e+00    0,000000000e+00    0,000000000e+00    0,000000000e+00
      800000000   -1,322996020e-01   -1,479145885e-02   -3,417353630e-01    4,802507162e-01    0,000000000e+00    0,000000000e+00    0,000000000e+00    0,000000000e+00
      814000000   -1,078173295e-01    8,304626681e-03   -3,452479467e-02    5,861449838e-01    0,000000000e+00    0,000000000e+00    0,000000000e+00    0,000000000e+00
      828000000   -8,535888791e-02    1,388132852e-02    2,792032957e-01    5,142863393e-01    0,000000000e+00    0,000000000e+00    0,000000000e+00    0,000000000e+00
      842000000   -7,026352733e-02    1,476287562e-02    5,024878979e-01    2,896830142e-01    0,000000000e+00    0,000000000e+00    0,000000000e+00    0,000000000e+00
      856000000   -5,186339095e-02    1,909532025e-02    5,711467266e-01   -1,798392273e-02    0,000000000e+00    0,000000000e+00    0,000000000e+00    0,000000000e+00
      870000000   -2,301768214e-02    1,484536286e-02    4,634989798e-01   -3,063648641e-01    0,000000000e+00    0,000000000e+00    0,000000000e+00    0,000000000e+00
      884000000    6,662355270e-03   -1,442801580e-02    2,310765237e-01   -4,883959889e-01    0,000000000e+00    0,000000000e+00    0,000000000e+00    0,000000000e+00
      898000000    1,195550710e-02   -6,351819634e-02   -5,121777952e-02   -5,257551074e-01    0,000000000e+00    0,000000000e+00    0,000000000e+00    0,000000000e+00
      912000000   -2,270190232e-02   -1,079865918e-01   -3,601118326e-01   -3,946255445e-01    0,000000000e+00    0,000000000e+00    0,000000000e+00    0,000000000e+00
      926000000   -7,383248210e-02   -1,247944161e-01   -5,303020477e-01   -1,598599553e-01    0,000000000e+00    0,000000000e+00    0,000000000e+00    0,000000000e+00
      940000000   -1,212524697e-01   -1,019479409e-01   -5,498319268e-01    1,551332325e-01    0,000000000e+00    0,000000000e+00    0,000000000e+00    0,000000000e+00
      954000000   -1,434580237e-01   -6,316354871e-02   -3,913532197e-01    4,473141432e-01    0,000000000e+00    0,000000000e+00    0,000000000e+00    0,000000000e+00
      968000000   -1,300945133e-01   -2,936590463e-02   -9,249297529e-02    6,039646268e-01    0,000000000e+00    0,000000000e+00    0,000000000e+00    0,000000000e+00
      982000000   -1,180511862e-01   -1,629124396e-02    2,442761213e-01    5,704450011e-01    0,000000000e+00    0,000000000e+00    0,000000000e+00    0,000000000e+00
      996000000   -1,056137159e-01   -1,039547566e-02    5,123128295e-01    3,675164878e-01    0,000000000e+00    0,000000000e+00    0,000000000e+00    0,000000000e+00
     1010000000   -1,052429825e-01   -6,149160210e-03    6,276015639e-01    5,083376169e-02    0,000000000e+00    0,000000000e+00    0,000000000e+00    0,000000000e+00
     1024000000   -8,805206418e-02    9,033742826e-04    5,606668591e-01   -2,724148333e-01    0,000000000e+00    0,000000000e+00    0,000000000e+00    0,000000000e+00
     1038000000   -7,661288977e-02   -2,866870724e-03    3,353440464e-01   -5,040446520e-01    0,000000000e+00    0,000000000e+00    0,000000000e+00    0,000000000e+00
     1052000000   -6,373770535e-02   -1,854260080e-02    3,217295557e-02   -5,842780471e-01    0,000000000e+00    0,000000000e+00    0,000000000e+00    0,000000000e+00
     1066000000   -6,759528816e-02   -3,153694049e-02   -2,708371878e-01   -5,026600957e-01    0,000000000e+00    0,000000000e+00    0,000000000e+00    0,000000000e+00
     1080000000   -8,276484907e-02   -3,267025203e-02   -4,783892930e-01   -2,715041041e-01    0,000000000e+00    0,000000000e+00    0,000000000e+00    0,000000000e+00
     1094000000   -7,973904908e-02   -1,987590082e-02   -5,309202075e-01    4,207887501e-02    0,000000000e+00    0,000000000e+00    0,000000000e+00    0,000000000e+00
     1108000000   -6,061798334e-02   -1,051377412e-02   -3,988083303e-01    3,266032338e-01    0,000000000e+00    0,000000000e+00    0,000000000e+00    0,000000000e+00
     1122000000   -3,409380466e-02   -3,736144304e-02   -1,366651654e-01    4,812396467e-01    0,000000000e+00    0,000000000e+00    0,000000000e+00    0,000000000e+00
     1136000000   -2,762818709e-02   -8,241382986e-02    1,604203731e-01    4,763483405e-01    0,000000000e+00    0,000000000e+00    0,000000000e+00    0,000000000e+00
     1150000000   -6,512837112e-02   -1,380067766e-01    4,179916084e-01    3,119572401e-01    0,000000000e+00    0,000000000e+00    0,000000000e+00    0,000000000e+00
     1164000000   -1,341509968e-01   -1,522956342e-01    5,629686117e-01    2,466143668e-02    0,000000000e+00    0,000000000e+00    0,000000000e+00    0,000000000e+00
     1178000000   -2,122525126e-01   -1,226413101e-01    5,295094252e-01   -3,134956062e-01    0,000000000e+00    0,000000000e+00    0,000000000e+00    0,000000000e+00
     1192000000   -2,464704961e-01   -3,984533995e-02    2,959671021e-01   -5,963066220e-01    0,000000000e+00    0,000000000e+00    0,000000000e+00    0,000000000e+00
     1206000000   -2,343280762e-01    3,101689368e-02   -6,495625526e-02   -6,968595982e-01    0,000000000e+00    0,000000000e+00    0,000000000e+00    0,000000000e+00
     1220000000   -1,891625375e-01    8,341214061e-02   -4,214660823e-01   -5,803723335e-01    0,000000000e+00    0,000000000e+00    0,000000000e+00    0,000000000e+00
     1234000000   -1,247290745e-01    1,062957123e-01   -6,467388868e-01   -2,877143323e-01    0,000000000e+00    0,000000000e+00    0,000000000e+00    0,000000000e+00
     1248000000   -6,750197709e-02    9,562705457e-02   -6,792094707e-01    6,135036796e-02    0,000000000e+00    0,000000000e+00    0,000000000e+00    0,000000000e+00
     1262000000   -9,918577969e-03    5,988386273e-02   -5,159817338e-01    3,685048223e-01    0,000000000e+00    0,000000000e+00    0,000000000e+00    0,000000000e+00
     1276000000    2,337007970e-02   -3,982575610e-03   -2,458885759e-01    5,424306989e-01    0,000000000e+00    0,000000000e+00    0,000000000e+00    0,000000000e+00
     1290000000    2,263317630e-02   -9,065530449e-02    7,004947215e-02    5,777676702e-01    0,000000000e+00    0,000000000e+00    0,000000000e+00    0,000000000e+00
     1304000000   -3,120439127e-02   -1,699789613e-01    3,631450832e-01    4,683464170e-01    0,000000000e+00    0,000000000e+00    0,000000000e+00    0,000000000e+00
     1318000000   -1,363831013e-01   -2,155028731e-01    5,862340331e-01    2,173060328e-01    0,000000000e+00    0,000000000e+00    0,000000000e+00    0,000000000e+00
     1332000000   -2,563658059e-01   -1,900940984e-01    6,468331814e-01   -1,277250946e-01    0,000000000e+00    0,000000000e+00    0,000000000e+00    0,000000000e+00
     1346000000   -3,259338439e-01   -8,648202568e-02    5,045854449e-01   -4,621886313e-01    0,000000000e+00    0,000000000e+00    0,000000000e+00    0,000000000e+00
     1360000000   -3,309728503e-01    2,687318996e-02    1,894428879e-01   -6,419041753e-01    0,000000000e+00    0,000000000e+00    0,000000000e+00    0,000000000e+00
     1374000000   -2,850391865e-01    1,027557030e-01   -1,580185145e-01   -6,001526117e-01    0,000000000e+00    0,000000000e+00    0,000000000e+00    0,000000000e+00
     1388000000   -2,108135074e-01    1,361320019e-01   -3,995462954e-01   -3,777625263e-01    0,000000000e+00    0,000000000e+00    0,000000000e+00    0,000000000e+00
     1402000000   -1,518501639e-01    1,345371306e-01   -4,780755043e-01   -6,659653038e-02    0,000000000e+00    0,000000000e+00    0,000000000e+00    0,000000000e+00
     1416000000   -9,700535983e-02    1,184961200e-01   -3,693273962e-01    2,373106629e-01    0,000000000e+00    0,000000000e+00    0,000000000e+00    0,000000000e+00
     1430000000   -5,597037822e-02    7,172992080e-02   -1,350632459e-01    4,803884625e-01    0,000000000e+00    0,000000000e+00    0,000000000e+00    0,000000000e+00
     1444000000   -3,124742955e-02    4,602563567e-03    1,725412011e-01    5,389350057e-01    0,000000000e+00    0,000000000e+00    0,000000000e+00    0,000000000e+00
     1458000000   -6,668603420e-02   -7,038862258e-02    4,841399789e-01    4,808455706e-01    0,000000000e+00    0,000000000e+00    0,000000000e+00    0,000000000e+00
     1472000000   -1,389400214e-01   -1,213334054e-01    7,604724765e-01    2,688210309e-01    0,000000000e+00    0,000000000e+00    0,000000000e+00    0,000000000e+00
     1486000000   -2,285662889e-01   -1,240579858e-01    9,014075398e-01   -8,148870617e-02    0,000000000e+00    0,000000000e+00    0,000000000e+00    0,000000000e+00
     1500000000   -2,892626822e-01   -4,426631704e-02    8,072529435e-01   -4,508340061e-01    0,000000000e+00    0,000000000e+00    0,000000000e+00    0,000000000e+00
