! NanoVNA-App
! Date: 2025-09-25 15:09:12
! Start: 100MHz Stop: 1,5GHz Points: 101
! S-Parameter data: F S11 S21 S12 S22
# Hz S RI R 50
!     Frequency           S11_Real           S11_Imag           S21_Real           S21_Imag           S12_Real           S12_Imag           S22_Real           S22_Imag
      100000000    3,115558997e-02    2,865754999e-02    4,348791540e-01   -6,686342359e-01    0,000000000e+00    0,000000000e+00    0,000000000e+00    0,000000000e+00
      114000000    5,757986009e-02    5,523297936e-03    7,845112123e-03   -7,910169363e-01    0,000000000e+00    0,000000000e+00    0,000000000e+00    0,000000000e+00
      128000000    6,728246808e-02   -3,780484572e-02   -4,102254510e-01   -6,709475517e-01    0,000000000e+00    0,000000000e+00    0,000000000e+00    0,000000000e+00
      142000000    4,473375902e-02   -8,420913666e-02   -7,027248144e-01   -3,532411456e-01    0,000000000e+00    0,000000000e+00    0,000000000e+00    0,000000000e+00
      156000000   -5,392686464e-03   -1,065140367e-01   -7,871620655e-01    7,315549999e-02    0,000000000e+00    0,000000000e+00    0,000000000e+00    0,000000000e+00
      170000000   -5,765100569e-02   -9,058841318e-02   -6,276981831e-01    4,870625138e-01    0,000000000e+00    0,000000000e+00    0,000000000e+00    0,000000000e+00
      184000000   -8,368414640e-02   -4,941928387e-02   -2,651000619e-01    7,514056563e-01    0,000000000e+00    0,000000000e+00    0,000000000e+00    0,000000000e+00
      198000000   -7,964141667e-02   -1,048783585e-02    1,836263388e-01    7,733586431e-01    0,000000000e+00    0,000000000e+00    0,000000000e+00    0,000000000e+00
      212000000   -6,230694801e-02    1,315777097e-02    5,691533685e-01    5,487797856e-01    0,000000000e+00    0,000000000e+00    0,000000000e+00    0,000000000e+00
      226000000   -4,332070053e-02    2,763726376e-02    7,707714438e-01    1,545093358e-01    0,000000000e+00    0,000000000e+00    0,000000000e+00    0,000000000e+00
      240000000   -1,822086237e-02    3,845253959e-02    7,268394232e-01   -2,818908989e-01    0,000000000e+00    0,000000000e+00    0,000000000e+00    0,000000000e+00
      254000000    1,717115380e-02    3,516373038e-02    4,578590989e-01   -6,200984120e-01    0,000000000e+00    0,000000000e+00    0,000000000e+00    0,000000000e+00
      268000000    4,882872850e-02    5,609561689e-03    5,874656886e-02   -7,602253556e-01    0,000000000e+00    0,000000000e+00    0,000000000e+00    0,000000000e+00
      282000000    5,352998152e-02   -4,181993753e-02   -3,488094807e-01   -6,716813445e-01    0,000000000e+00    0,000000000e+00    0,000000000e+00    0,000000000e+00
      296000000    2,398376726e-02   -7,943792641e-02   -6,518043280e-01   -3,853026330e-01    0,000000000e+00    0,000000000e+00    0,000000000e+00    0,000000000e+00
      310000000   -1,780905947e-02   -8,312822133e-02   -7,627955675e-01    1,932565309e-02    0,000000000e+00    0,000000000e+00    0,000000000e+00    0,000000000e+00
      324000000   -4,185628146e-02   -5,878243968e-02   -6,325494051e-01    4,314478934e-01    0,000000000e+00    0,000000000e+00    0,000000000e+00    0,000000000e+00
      338000000   -3,424226120e-02   -3,690708801e-02   -2,987829447e-01    7,014145255e-01    0,000000000e+00    0,000000000e+00    0,000000000e+00    0,000000000e+00
      352000000   -1,751005463e-02   -4,085521027e-02    1,248873398e-01    7,421606183e-01    0,000000000e+00    0,000000000e+00    0,000000000e+00    0,000000000e+00
      366000000   -1,931502670e-02   -6,222325191e-02    4,984881282e-01    5,547220111e-01    0,000000000e+00    0,000000000e+00    0,000000000e+00    0,000000000e+00
      380000000   -4,433122277e-02   -7,258024067e-02    7,134426832e-01    1,999257356e-01    0,000000000e+00    0,000000000e+00    0,000000000e+00    0,000000000e+00
      394000000   -7,094782591e-02   -5,822037905e-02    7,040085196e-01   -2,168395072e-01    0,000000000e+00    0,000000000e+00    0,000000000e+00    0,000000000e+00
      408000000   -7,704382390e-02   -3,057316877e-02    4,711950421e-01   -5,603012443e-01    0,000000000e+00    0,000000000e+00    0,000000000e+00    0,000000000e+00
      422000000   -6,512566656e-02   -1,137463842e-02    9,439297020e-02   -7,181710601e-01    0,000000000e+00    0,000000000e+00    0,000000000e+00    0,000000000e+00
      436000000   -5,281214789e-02   -4,357115366e-03   -3,011221886e-01   -6,466047764e-01    0,000000000e+00    0,000000000e+00    0,000000000e+00    0,000000000e+00
      450000000   -4,460315406e-02    1,699552522e-03   -5,930160284e-01   -3,780761063e-01    0,000000000e+00    0,000000000e+00    0,000000000e+00    0,000000000e+00
      464000000   -2,930987254e-02    1,125831902e-02   -6,909655333e-01   -1,177107770e-04    0,000000000e+00    0,000000000e+00    0,000000000e+00    0,000000000e+00
      478000000   -7,813695120e-04    1,143675111e-02   -5,733694434e-01    3,631047606e-01    0,000000000e+00    0,000000000e+00    0,000000000e+00    0,000000000e+00
      492000000    2,752616070e-02   -1,263065450e-02   -2,899506092e-01    6,013819575e-01    0,000000000e+00    0,000000000e+00    0,000000000e+00    0,000000000e+00
      506000000    3,630310297e-02   -5,553253740e-02    6,918495148e-02    6,590236425e-01    0,000000000e+00    0,000000000e+00    0,000000000e+00    0,000000000e+00
      520000000    1,222010981e-02   -9,929802269e-02    4,048482478e-01    5,244911909e-01    0,000000000e+00    0,000000000e+00    0,000000000e+00    0,000000000e+00
      534000000   -3,377594426e-02   -1,161545217e-01    6,245656610e-01    2,366051227e-01    0,000000000e+00    0,000000000e+00    0,000000000e+00    0,000000000e+00
      548000000   -7,742948085e-02   -9,949415177e-02    6,579909325e-01   -1,331677735e-01    0,000000000e+00    0,000000000e+00    0,000000000e+00    0,000000000e+00
      562000000   -9,322565794e-02   -6,632202864e-02    4,814833701e-01   -4,677924216e-01    0,000000000e+00    0,000000000e+00    0,000000000e+00    0,000000000e+00
      576000000   -8,670409024e-02   -4,456041753e-02    1,502175629e-01   -6,485108137e-01    0,000000000e+00    0,000000000e+00    0,000000000e+00    0,000000000e+00
      590000000   -8,085136861e-02   -4,169191048e-02   -2,180582136e-01   -6,284993887e-01    0,000000000e+00    0,000000000e+00    0,000000000e+00    0,000000000e+00
      604000000   -8,909603208e-02   -3,724360839e-02   -5,207003355e-01   -4,061882794e-01    0,000000000e+00    0,000000000e+00    0,000000000e+00    0,000000000e+00
      618000000   -9,623961151e-02   -1,526805479e-02   -6,527711749e-01   -5,873968825e-02    0,000000000e+00    0,000000000e+00    0,000000000e+00    0,000000000e+00
      632000000   -8,106584847e-02    1,577087864e-02   -5,751171112e-01    3,026973605e-01    0,000000000e+00    0,000000000e+00    0,000000000e+00    0,000000000e+00
      646000000   -4,240252078e-02    2,606508322e-02   -3,189159632e-01    5,560288429e-01    0,000000000e+00    0,000000000e+00    0,000000000e+00    0,000000000e+00
      660000000   -8,205318823e-03    5,604556296e-03    2,261950262e-02    6,286942363e-01    0,000000000e+00    0,000000000e+00    0,000000000e+00    0,000000000e+00
      674000000    1,182530774e-03   -2,933191508e-02    3,421428502e-01    5,187171102e-01    0,000000000e+00    0,000000000e+00    0,000000000e+00    0,000000000e+00
      688000000   -1,467560790e-02   -5,611799657e-02    5,587567091e-01    2,586204112e-01    0,000000000e+00    0,000000000e+00    0,000000000e+00    0,000000000e+00
      702000000   -3,356892988e-02   -5,962281302e-02    6,044628620e-01   -7,798370719e-02    0,000000000e+00    0,000000000e+00    0,000000000e+00    0,000000000e+00
      716000000   -3,733618930e-02   -5,514346436e-02    4,596559405e-01   -3,897487521e-01    0,000000000e+00    0,000000000e+00    0,000000000e+00    0,000000000e+00
      730000000   -3,240368888e-02   -6,463848799e-02    1,743386537e-01   -5,655040145e-01    0,000000000e+00    0,000000000e+00    0,000000000e+00    0,000000000e+00
      744000000   -4,103564471e-02   -8,828161657e-02   -1,532931626e-01   -5,641444325e-01    0,000000000e+00    0,000000000e+00    0,000000000e+00    0,000000000e+00
      758000000   -7,258501649e-02   -1,041677743e-01   -4,270687699e-01   -3,945020139e-01    0,000000000e+00    0,000000000e+00    0,000000000e+00    0,000000000e+00
      772000000   -1,147264317e-01   -9,397371858e-02   -5,745342374e-01   -1,057879478e-01    0,000000000e+00    0,000000000e+00    0,000000000e+00    0,000000000e+00
      786000000   -1,385577172e-01   -5,547039956e-02   -5,447638035e-01    2,207781225e-01    0,000000000e+00    0,000000000e+00    0,000000000e+00    0,000000000e+00
      800000000   -1,329445541e-01   -1,390939951e-02   -3,420634568e-01    4,800373316e-01    0,000000000e+00    0,000000000e+00    0,000000000e+00    0,000000000e+00
      814000000   -1,077653989e-01    8,033553138e-03   -3,563807905e-02    5,859251618e-01    0,000000000e+00    0,000000000e+00    0,000000000e+00    0,000000000e+00
      828000000   -8,522988856e-02    1,374787651e-02    2,785288095e-01    5,139315128e-01    0,000000000e+00    0,000000000e+00    0,000000000e+00    0,000000000e+00
      842000000   -7,083832473e-02    1,429743506e-02    5,030856729e-01    2,895618379e-01    0,000000000e+00    0,000000000e+00    0,000000000e+00    0,000000000e+00
      856000000   -5,212596804e-02    1,934801973e-02    5,706259012e-01   -1,790931821e-02    0,000000000e+00    0,000000000e+00    0,000000000e+00    0,000000000e+00
      870000000   -2,271386795e-02    1,474521589e-02    4,637315571e-01   -3,066825271e-01    0,000000000e+00    0,000000000e+00    0,000000000e+00    0,000000000e+00
      884000000    5,547086243e-03   -1,407390833e-02    2,304096371e-01   -4,891106784e-01    0,000000000e+00    0,000000000e+00    0,000000000e+00    0,000000000e+00
      898000000    1,153547596e-02   -6,372070312e-02   -5,274396762e-02   -5,261708498e-01    0,000000000e+00    0,000000000e+00    0,000000000e+00    0,000000000e+00
      912000000   -2,313753404e-02   -1,082747132e-01   -3,677423894e-01   -4,052923024e-01    0,000000000e+00    0,000000000e+00    0,000000000e+00    0,000000000e+00
      926000000   -7,611790299e-02   -1,223867238e-01   -5,303915143e-01   -1,571178734e-01    0,000000000e+00    0,000000000e+00    0,000000000e+00    0,000000000e+00
      940000000   -1,209332421e-01   -1,027762294e-01   -5,527395606e-01    1,558854878e-01    0,000000000e+00    0,000000000e+00    0,000000000e+00    0,000000000e+00
      954000000   -1,428207457e-01   -6,343039125e-02   -3,919080794e-01    4,453764558e-01    0,000000000e+00    0,000000000e+00    0,000000000e+00    0,000000000e+00
      968000000   -1,295738071e-01   -2,862362564e-02   -8,993751556e-02    6,004562378e-01    0,000000000e+00    0,000000000e+00    0,000000000e+00    0,000000000e+00
      982000000   -1,157218963e-01   -1,866160706e-02    2,476656139e-01    5,713381171e-01    0,000000000e+00    0,000000000e+00    0,000000000e+00    0,000000000e+00
      996000000   -1,045073196e-01   -1,595412008e-02    5,114775300e-01    3,665875196e-01    0,000000000e+00    0,000000000e+00    0,000000000e+00    0,000000000e+00
     1010000000   -1,019024700e-01   -6,280140951e-03    6,287512779e-01    5,388551205e-02    0,000000000e+00    0,000000000e+00    0,000000000e+00    0,000000000e+00
     1024000000   -9,394349158e-02    2,984216204e-03    5,607946515e-01   -2,718479633e-01    0,000000000e+00    0,000000000e+00    0,000000000e+00    0,000000000e+00
     1038000000   -7,478360832e-02    2,332679695e-03    3,372955620e-01   -5,027235150e-01    0,000000000e+00    0,000000000e+00    0,000000000e+00    0,000000000e+00
     1052000000   -6,634484977e-02   -1,849399693e-02    3,232726827e-02   -5,843674541e-01    0,000000000e+00    0,000000000e+00    0,000000000e+00    0,000000000e+00
     1066000000   -6,978471577e-02   -2,863499336e-02   -2,683280408e-01   -5,031692386e-01    0,000000000e+00    0,000000000e+00    0,000000000e+00    0,000000000e+00
     1080000000   -7,911267132e-02   -3,099796921e-02   -4,805694520e-01   -2,701305151e-01    0,000000000e+00    0,000000000e+00    0,000000000e+00    0,000000000e+00
     1094000000   -8,369854093e-02   -2,022680081e-02   -5,328589678e-01    4,143611714e-02    0,000000000e+00    0,000000000e+00    0,000000000e+00    0,000000000e+00
     1108000000   -5,597927421e-02   -1,418409497e-02   -3,977578878e-01    3,257370889e-01    0,000000000e+00    0,000000000e+00    0,000000000e+00    0,000000000e+00
     1122000000   -2,822704241e-02   -3,785379604e-02   -1,361120492e-01    4,830799699e-01    0,000000000e+00    0,000000000e+00    0,000000000e+00    0,000000000e+00
     1136000000   -2,482084371e-02   -8,257428557e-02    1,604493111e-01    4,747387171e-01    0,000000000e+00    0,000000000e+00    0,000000000e+00    0,000000000e+00
     1150000000   -6,599067152e-02   -1,320066601e-01    4,210923016e-01    3,125493824e-01    0,000000000e+00    0,000000000e+00    0,000000000e+00    0,000000000e+00
     1164000000   -1,388581246e-01   -1,506985128e-01    5,646106005e-01    2,722833492e-02    0,000000000e+00    0,000000000e+00    0,000000000e+00    0,000000000e+00
     1178000000   -2,138562500e-01   -1,196545735e-01    5,321583748e-01   -3,178836703e-01    0,000000000e+00    0,000000000e+00    0,000000000e+00    0,000000000e+00
     1192000000   -2,502174079e-01   -4,326130077e-02    3,019737601e-01   -6,017684937e-01    0,000000000e+00    0,000000000e+00    0,000000000e+00    0,000000000e+00
     1206000000   -2,299557924e-01    3,264244273e-02   -6,443650275e-02   -6,977850795e-01    0,000000000e+00    0,000000000e+00    0,000000000e+00    0,000000000e+00
     1220000000   -1,874535084e-01    8,123358339e-02   -4,227730632e-01   -5,807832479e-01    0,000000000e+00    0,000000000e+00    0,000000000e+00    0,000000000e+00
     1234000000   -1,281992793e-01    1,019003391e-01   -6,472513080e-01   -2,927351594e-01    0,000000000e+00    0,000000000e+00    0,000000000e+00    0,000000000e+00
     1248000000   -6,506584585e-02    9,567721188e-02   -6,754572392e-01    6,505324692e-02    0,000000000e+00    0,000000000e+00    0,000000000e+00    0,000000000e+00
     1262000000   -1,260424126e-02    6,674296409e-02   -5,202848315e-01    3,706305921e-01    0,000000000e+00    0,000000000e+00    0,000000000e+00    0,000000000e+00
     1276000000    2,653195523e-02   -4,302323330e-03   -2,401621491e-01    5,415085554e-01    0,000000000e+00    0,000000000e+00    0,000000000e+00    0,000000000e+00
     1290000000    2,159081772e-02   -8,753193170e-02    7,401484251e-02    5,772149563e-01    0,000000000e+00    0,000000000e+00    0,000000000e+00    0,000000000e+00
     1304000000   -3,333012015e-02   -1,680204123e-01    3,615126908e-01    4,640256763e-01    0,000000000e+00    0,000000000e+00    0,000000000e+00    0,000000000e+00
     1318000000   -1,316600442e-01   -2,132679373e-01    5,888423920e-01    2,205172032e-01    0,000000000e+00    0,000000000e+00    0,000000000e+00    0,000000000e+00
     1332000000   -2,540760040e-01   -1,886877567e-01    6,496666670e-01   -1,265211254e-01    0,000000000e+00    0,000000000e+00    0,000000000e+00    0,000000000e+00
     1346000000   -3,333984613e-01   -9,054484218e-02    5,091338158e-01   -4,612214267e-01    0,000000000e+00    0,000000000e+00    0,000000000e+00    0,000000000e+00
     1360000000   -3,367859721e-01    2,354015037e-02    1,911476701e-01   -6,487251520e-01    0,000000000e+00    0,000000000e+00    0,000000000e+00    0,000000000e+00
     1374000000   -2,768314481e-01    1,017904431e-01   -1,571818739e-01   -6,054273844e-01    0,000000000e+00    0,000000000e+00    0,000000000e+00    0,000000000e+00
     1388000000   -2,147764564e-01    1,372014582e-01   -4,081739783e-01   -3,803880513e-01    0,000000000e+00    0,000000000e+00    0,000000000e+00    0,000000000e+00
     1402000000   -1,498458087e-01    1,406925321e-01   -4,791221619e-01   -5,749299750e-02    0,000000000e+00    0,000000000e+00    0,000000000e+00    0,000000000e+00
     1416000000   -1,016243994e-01    1,156877875e-01   -3,788224757e-01    2,468050420e-01    0,000000000e+00    0,000000000e+00    0,000000000e+00    0,000000000e+00
     1430000000   -5,358542129e-02    7,295113057e-02   -1,523581147e-01    4,581398368e-01    0,000000000e+00    0,000000000e+00    0,000000000e+00    0,000000000e+00
     1444000000   -3,730630502e-02   -2,170258813e-04    1,663781255e-01    5,277047157e-01    0,000000000e+00    0,000000000e+00    0,000000000e+00    0,000000000e+00
     1458000000   -6,893395633e-02   -7,009676844e-02    4,759385288e-01    4,765303731e-01    0,000000000e+00    0,000000000e+00    0,000000000e+00    0,000000000e+00
     1472000000   -1,384267509e-01   -1,263582557e-01    7,591663003e-01    2,529957891e-01    0,000000000e+00    0,000000000e+00    0,000000000e+00    0,000000000e+00
     1486000000   -2,249284238e-01   -1,212897971e-01    9,095351696e-01   -9,245121479e-02    0,000000000e+00    0,000000000e+00    0,000000000e+00    0,000000000e+00
     1500000000   -2,892780006e-01   -4,297649488e-02    8,116902709e-01   -4,356113970e-01    0,000000000e+00    0,000000000e+00    0,000000000e+00    0,000000000e+00
