! NanoVNA-App
! Date: 2025-09-25 15:06:53
! Start: 100MHz Stop: 1,5GHz Points: 101
! S-Parameter data: F S11 S21 S12 S22
# Hz S RI R 50
!     Frequency           S11_Real           S11_Imag           S21_Real           S21_Imag           S12_Real           S12_Imag           S22_Real           S22_Imag
      100000000    3,116156347e-02    2,864926495e-02    4,348877072e-01   -6,686769128e-01    0,000000000e+00    0,000000000e+00    0,000000000e+00    0,000000000e+00
      114000000    5,759938434e-02    5,510638468e-03    7,724578958e-03   -7,909461856e-01    0,000000000e+00    0,000000000e+00    0,000000000e+00    0,000000000e+00
      128000000    6,728115678e-02   -3,780866042e-02   -4,103471935e-01   -6,709576249e-01    0,000000000e+00    0,000000000e+00    0,000000000e+00    0,000000000e+00
      142000000    4,473484308e-02   -8,422151208e-02   -7,029196024e-01   -3,531080782e-01    0,000000000e+00    0,000000000e+00    0,000000000e+00    0,000000000e+00
      156000000   -6,134963594e-03   -1,058033183e-01   -7,855894566e-01    7,270794362e-02    0,000000000e+00    0,000000000e+00    0,000000000e+00    0,000000000e+00
      170000000   -5,773185566e-02   -9,066604078e-02   -6,276425719e-01    4,869863093e-01    0,000000000e+00    0,000000000e+00    0,000000000e+00    0,000000000e+00
      184000000   -8,370112628e-02   -4,946652800e-02   -2,650294900e-01    7,511415482e-01    0,000000000e+00    0,000000000e+00    0,000000000e+00    0,000000000e+00
      198000000   -7,963322848e-02   -1,045427006e-02    1,833390594e-01    7,730073333e-01    0,000000000e+00    0,000000000e+00    0,000000000e+00    0,000000000e+00
      212000000   -6,226621568e-02    1,316623390e-02    5,688207150e-01    5,493057966e-01    0,000000000e+00    0,000000000e+00    0,000000000e+00    0,000000000e+00
      226000000   -4,324769601e-02    2,763641812e-02    7,707625628e-01    1,545883268e-01    0,000000000e+00    0,000000000e+00    0,000000000e+00    0,000000000e+00
      240000000   -1,816178858e-02    3,851005062e-02    7,268282175e-01   -2,819696963e-01    0,000000000e+00    0,000000000e+00    0,000000000e+00    0,000000000e+00
      254000000    1,719757356e-02    3,515767306e-02    4,581239522e-01   -6,201205850e-01    0,000000000e+00    0,000000000e+00    0,000000000e+00    0,000000000e+00
      268000000    4,876876995e-02    5,602582823e-03    5,864952505e-02   -7,602279782e-01    0,000000000e+00    0,000000000e+00    0,000000000e+00    0,000000000e+00
      282000000    5,352160707e-02   -4,184408486e-02   -3,492245972e-01   -6,717014909e-01    0,000000000e+00    0,000000000e+00    0,000000000e+00    0,000000000e+00
      296000000    2,403946966e-02   -7,947602868e-02   -6,518561840e-01   -3,855839372e-01    0,000000000e+00    0,000000000e+00    0,000000000e+00    0,000000000e+00
      310000000   -1,790432632e-02   -8,304961771e-02   -7,643057704e-01    1,953046396e-02    0,000000000e+00    0,000000000e+00    0,000000000e+00    0,000000000e+00
      324000000   -4,167071357e-02   -5,891341716e-02   -6,323306561e-01    4,315454960e-01    0,000000000e+00    0,000000000e+00    0,000000000e+00    0,000000000e+00
      338000000   -3,436155990e-02   -3,701569885e-02   -2,948858738e-01    6,998165250e-01    0,000000000e+00    0,000000000e+00    0,000000000e+00    0,000000000e+00
      352000000   -1,739618741e-02   -4,072209820e-02    1,240141466e-01    7,420651317e-01    0,000000000e+00    0,000000000e+00    0,000000000e+00    0,000000000e+00
      366000000   -1,950422488e-02   -6,177053228e-02    4,970564842e-01    5,543922186e-01    0,000000000e+00    0,000000000e+00    0,000000000e+00    0,000000000e+00
      380000000   -4,439518973e-02   -7,274316996e-02    7,132645845e-01    2,000526637e-01    0,000000000e+00    0,000000000e+00    0,000000000e+00    0,000000000e+00
      394000000   -7,084538043e-02   -5,792307481e-02    7,046621442e-01   -2,163632661e-01    0,000000000e+00    0,000000000e+00    0,000000000e+00    0,000000000e+00
      408000000   -7,689838856e-02   -3,057766333e-02    4,707711935e-01   -5,600191951e-01    0,000000000e+00    0,000000000e+00    0,000000000e+00    0,000000000e+00
      422000000   -6,568106264e-02   -1,107091643e-02    9,314228594e-02   -7,176379561e-01    0,000000000e+00    0,000000000e+00    0,000000000e+00    0,000000000e+00
      436000000   -5,274749547e-02   -4,578803666e-03   -3,008804917e-01   -6,476283073e-01    0,000000000e+00    0,000000000e+00    0,000000000e+00    0,000000000e+00
      450000000   -4,462416470e-02    1,620895695e-03   -5,934378505e-01   -3,775781691e-01    0,000000000e+00    0,000000000e+00    0,000000000e+00    0,000000000e+00
      464000000   -2,938014269e-02    1,151138637e-02   -6,914667487e-01    5,080760457e-05    0,000000000e+00    0,000000000e+00    0,000000000e+00    0,000000000e+00
      478000000   -1,105297823e-03    1,096887514e-02   -5,733453631e-01    3,630561531e-01    0,000000000e+00    0,000000000e+00    0,000000000e+00    0,000000000e+00
      492000000    2,795002609e-02   -1,264705975e-02   -2,886413634e-01    6,023607850e-01    0,000000000e+00    0,000000000e+00    0,000000000e+00    0,000000000e+00
      506000000    3,665735200e-02   -5,579332262e-02    6,990341097e-02    6,584993601e-01    0,000000000e+00    0,000000000e+00    0,000000000e+00    0,000000000e+00
      520000000    1,350664068e-02   -9,775612503e-02    4,027505219e-01    5,273422003e-01    0,000000000e+00    0,000000000e+00    0,000000000e+00    0,000000000e+00
      534000000   -3,404426202e-02   -1,163404956e-01    6,240820289e-01    2,360366136e-01    0,000000000e+00    0,000000000e+00    0,000000000e+00    0,000000000e+00
      548000000   -7,763042301e-02   -9,912077338e-02    6,575822234e-01   -1,332192570e-01    0,000000000e+00    0,000000000e+00    0,000000000e+00    0,000000000e+00
      562000000   -9,286253154e-02   -6,646566093e-02    4,815586805e-01   -4,671860933e-01    0,000000000e+00    0,000000000e+00    0,000000000e+00    0,000000000e+00
      576000000   -8,631859720e-02   -4,410622269e-02    1,507027149e-01   -6,477267146e-01    0,000000000e+00    0,000000000e+00    0,000000000e+00    0,000000000e+00
      590000000   -8,070072532e-02   -4,173495993e-02   -2,220730931e-01   -6,272286177e-01    0,000000000e+00    0,000000000e+00    0,000000000e+00    0,000000000e+00
      604000000   -8,913136274e-02   -3,747701645e-02   -5,193914175e-01   -4,068851173e-01    0,000000000e+00    0,000000000e+00    0,000000000e+00    0,000000000e+00
      618000000   -9,640061110e-02   -1,556090359e-02   -6,530290246e-01   -5,848512053e-02    0,000000000e+00    0,000000000e+00    0,000000000e+00    0,000000000e+00
      632000000   -8,117067069e-02    1,550233550e-02   -5,749291182e-01    3,028663695e-01    0,000000000e+00    0,000000000e+00    0,000000000e+00    0,000000000e+00
      646000000   -4,329084978e-02    2,657615393e-02   -3,188384771e-01    5,560239553e-01    0,000000000e+00    0,000000000e+00    0,000000000e+00    0,000000000e+00
      660000000   -8,153044619e-03    5,496307742e-03    2,185438760e-02    6,302896738e-01    0,000000000e+00    0,000000000e+00    0,000000000e+00    0,000000000e+00
      674000000    1,297906274e-03   -3,069473058e-02    3,428885937e-01    5,183604360e-01    0,000000000e+00    0,000000000e+00    0,000000000e+00    0,000000000e+00
      688000000   -1,532774977e-02   -5,488939583e-02    5,591181517e-01    2,589959800e-01    0,000000000e+00    0,000000000e+00    0,000000000e+00    0,000000000e+00
      702000000   -3,319145367e-02   -5,967362970e-02    6,056224704e-01   -8,174533397e-02    0,000000000e+00    0,000000000e+00    0,000000000e+00    0,000000000e+00
      716000000   -3,768048063e-02   -5,591357499e-02    4,596359134e-01   -3,892098367e-01    0,000000000e+00    0,000000000e+00    0,000000000e+00    0,000000000e+00
      730000000   -3,165478259e-02   -6,557527930e-02    1,747881025e-01   -5,669946671e-01    0,000000000e+00    0,000000000e+00    0,000000000e+00    0,000000000e+00
      744000000   -3,972253948e-02   -8,853874356e-02   -1,527078301e-01   -5,632510781e-01    0,000000000e+00    0,000000000e+00    0,000000000e+00    0,000000000e+00
      758000000   -7,225827128e-02   -1,044518203e-01   -4,271215498e-01   -3,943283260e-01    0,000000000e+00    0,000000000e+00    0,000000000e+00    0,000000000e+00
      772000000   -1,134052351e-01   -9,405200928e-02   -5,740724802e-01   -1,060755625e-01    0,000000000e+00    0,000000000e+00    0,000000000e+00    0,000000000e+00
      786000000   -1,392143965e-01   -5,658100918e-02   -5,451896787e-01    2,208544314e-01    0,000000000e+00    0,000000000e+00    0,000000000e+00    0,000000000e+00
      800000000   -1,327723563e-01   -1,537301205e-02   -3,420684934e-01    4,807516336e-01    0,000000000e+00    0,000000000e+00    0,000000000e+00    0,000000000e+00
      814000000   -1,088437065e-01    8,448437788e-03   -3,364100307e-02    5,868015885e-01    0,000000000e+00    0,000000000e+00    0,000000000e+00    0,000000000e+00
      828000000   -8,591825515e-02    1,315176766e-02    2,790285051e-01    5,138653517e-01    0,000000000e+00    0,000000000e+00    0,000000000e+00    0,000000000e+00
      842000000   -7,051374018e-02    1,547721494e-02    5,031281710e-01    2,888954878e-01    0,000000000e+00    0,000000000e+00    0,000000000e+00    0,000000000e+00
      856000000   -5,190460756e-02    1,955500245e-02    5,704960823e-01   -1,763021573e-02    0,000000000e+00    0,000000000e+00    0,000000000e+00    0,000000000e+00
      870000000   -2,248761244e-02    1,460738946e-02    4,632864594e-01   -3,059352934e-01    0,000000000e+00    0,000000000e+00    0,000000000e+00    0,000000000e+00
      884000000    5,784599576e-03   -1,429078821e-02    2,310099006e-01   -4,882080853e-01    0,000000000e+00    0,000000000e+00    0,000000000e+00    0,000000000e+00
      898000000    1,173305884e-02   -6,394178420e-02   -5,326293409e-02   -5,268080831e-01    0,000000000e+00    0,000000000e+00    0,000000000e+00    0,000000000e+00
      912000000   -2,287512086e-02   -1,081207320e-01   -3,662807345e-01   -4,076339006e-01    0,000000000e+00    0,000000000e+00    0,000000000e+00    0,000000000e+00
      926000000   -7,549665123e-02   -1,226238906e-01   -5,312633514e-01   -1,573123336e-01    0,000000000e+00    0,000000000e+00    0,000000000e+00    0,000000000e+00
      940000000   -1,250707507e-01   -1,016315743e-01   -5,533074737e-01    1,555199623e-01    0,000000000e+00    0,000000000e+00    0,000000000e+00    0,000000000e+00
      954000000   -1,440552622e-01   -6,189184636e-02   -3,932673633e-01    4,462728798e-01    0,000000000e+00    0,000000000e+00    0,000000000e+00    0,000000000e+00
      968000000   -1,309803277e-01   -2,495842986e-02   -9,312339872e-02    6,027632356e-01    0,000000000e+00    0,000000000e+00    0,000000000e+00    0,000000000e+00
      982000000   -1,173073053e-01   -1,498525776e-02    2,425713837e-01    5,709505081e-01    0,000000000e+00    0,000000000e+00    0,000000000e+00    0,000000000e+00
      996000000   -1,045905724e-01   -1,327456627e-02    5,154047012e-01    3,665466309e-01    0,000000000e+00    0,000000000e+00    0,000000000e+00    0,000000000e+00
     1010000000   -1,027796119e-01   -5,965933669e-03    6,277792454e-01    5,391997099e-02    0,000000000e+00    0,000000000e+00    0,000000000e+00    0,000000000e+00
     1024000000   -9,428068995e-02    2,619374543e-03    5,631517768e-01   -2,700756788e-01    0,000000000e+00    0,000000000e+00    0,000000000e+00    0,000000000e+00
     1038000000   -7,835701853e-02   -8,576893597e-04    3,388001919e-01   -5,025849342e-01    0,000000000e+00    0,000000000e+00    0,000000000e+00    0,000000000e+00
     1052000000   -6,664387137e-02   -1,773498394e-02    3,372140229e-02   -5,852088332e-01    0,000000000e+00    0,000000000e+00    0,000000000e+00    0,000000000e+00
     1066000000   -6,829135865e-02   -3,391266987e-02   -2,683667541e-01   -4,989281297e-01    0,000000000e+00    0,000000000e+00    0,000000000e+00    0,000000000e+00
     1080000000   -8,456277847e-02   -3,098078817e-02   -4,784112573e-01   -2,694334686e-01    0,000000000e+00    0,000000000e+00    0,000000000e+00    0,000000000e+00
     1094000000   -8,425361663e-02   -1,939899661e-02   -5,316853523e-01    4,183042422e-02    0,000000000e+00    0,000000000e+00    0,000000000e+00    0,000000000e+00
     1108000000   -5,664359406e-02   -1,490794960e-02   -4,012914896e-01    3,273403645e-01    0,000000000e+00    0,000000000e+00    0,000000000e+00    0,000000000e+00
     1122000000   -3,442728147e-02   -3,662797064e-02   -1,377546787e-01    4,808866382e-01    0,000000000e+00    0,000000000e+00    0,000000000e+00    0,000000000e+00
     1136000000   -2,930396609e-02   -8,638632298e-02    1,638263166e-01    4,737027884e-01    0,000000000e+00    0,000000000e+00    0,000000000e+00    0,000000000e+00
     1150000000   -6,710855663e-02   -1,395007968e-01    4,204894006e-01    3,110315204e-01    0,000000000e+00    0,000000000e+00    0,000000000e+00    0,000000000e+00
     1164000000   -1,394540071e-01   -1,501884907e-01    5,645195246e-01    2,564910986e-02    0,000000000e+00    0,000000000e+00    0,000000000e+00    0,000000000e+00
     1178000000   -2,071096003e-01   -1,202486083e-01    5,322991610e-01   -3,175201416e-01    0,000000000e+00    0,000000000e+00    0,000000000e+00    0,000000000e+00
     1192000000   -2,459160835e-01   -3,910801932e-02    2,980528772e-01   -5,996127129e-01    0,000000000e+00    0,000000000e+00    0,000000000e+00    0,000000000e+00
     1206000000   -2,320088297e-01    2,891849726e-02   -7,001601905e-02   -6,977557540e-01    0,000000000e+00    0,000000000e+00    0,000000000e+00    0,000000000e+00
     1220000000   -1,827936620e-01    8,473230153e-02   -4,236573279e-01   -5,809506774e-01    0,000000000e+00    0,000000000e+00    0,000000000e+00    0,000000000e+00
     1234000000   -1,234303862e-01    1,065592021e-01   -6,461378336e-01   -2,913844883e-01    0,000000000e+00    0,000000000e+00    0,000000000e+00    0,000000000e+00
     1248000000   -6,813860685e-02    9,637538344e-02   -6,796110272e-01    6,644948572e-02    0,000000000e+00    0,000000000e+00    0,000000000e+00    0,000000000e+00
     1262000000   -9,432841092e-03    6,289941818e-02   -5,193318725e-01    3,701778352e-01    0,000000000e+00    0,000000000e+00    0,000000000e+00    0,000000000e+00
     1276000000    2,257906459e-02   -3,752315533e-04   -2,414875180e-01    5,507545471e-01    0,000000000e+00    0,000000000e+00    0,000000000e+00    0,000000000e+00
     1290000000    1,871805079e-02   -8,721560240e-02    6,674679369e-02    5,735812783e-01    0,000000000e+00    0,000000000e+00    0,000000000e+00    0,000000000e+00
     1304000000   -3,258073330e-02   -1,728583574e-01    3,606843650e-01    4,628496170e-01    0,000000000e+00    0,000000000e+00    0,000000000e+00    0,000000000e+00
     1318000000   -1,353897899e-01   -2,107583284e-01    5,751577616e-01    2,259131968e-01    0,000000000e+00    0,000000000e+00    0,000000000e+00    0,000000000e+00
     1332000000   -2,573843598e-01   -1,852928996e-01    6,483534575e-01   -1,277700067e-01    0,000000000e+00    0,000000000e+00    0,000000000e+00    0,000000000e+00
     1346000000   -3,356950879e-01   -8,617094904e-02    5,084704757e-01   -4,527924657e-01    0,000000000e+00    0,000000000e+00    0,000000000e+00    0,000000000e+00
     1360000000   -3,342739046e-01    2,005667426e-02    1,857672632e-01   -6,496672630e-01    0,000000000e+00    0,000000000e+00    0,000000000e+00    0,000000000e+00
     1374000000   -2,798334956e-01    1,057609469e-01   -1,529913396e-01   -6,015697122e-01    0,000000000e+00    0,000000000e+00    0,000000000e+00    0,000000000e+00
     1388000000   -2,169356495e-01    1,378470808e-01   -4,133517444e-01   -3,786718249e-01    0,000000000e+00    0,000000000e+00    0,000000000e+00    0,000000000e+00
     1402000000   -1,510369182e-01    1,382895112e-01   -4,839252830e-01   -5,968313664e-02    0,000000000e+00    0,000000000e+00    0,000000000e+00    0,000000000e+00
     1416000000   -9,075564146e-02    1,127269194e-01   -3,697949350e-01    2,448874414e-01    0,000000000e+00    0,000000000e+00    0,000000000e+00    0,000000000e+00
     1430000000   -5,656212568e-02    7,019569725e-02   -1,359614283e-01    4,677136838e-01    0,000000000e+00    0,000000000e+00    0,000000000e+00    0,000000000e+00
     1444000000   -4,083466157e-02    3,931078594e-03    1,573099643e-01    5,274748802e-01    0,000000000e+00    0,000000000e+00    0,000000000e+00    0,000000000e+00
     1458000000   -6,208515540e-02   -7,347787172e-02    4,840530753e-01    4,796817601e-01    0,000000000e+00    0,000000000e+00    0,000000000e+00    0,000000000e+00
     1472000000   -1,390271783e-01   -1,245474443e-01    7,662332058e-01    2,616283596e-01    0,000000000e+00    0,000000000e+00    0,000000000e+00    0,000000000e+00
     1486000000   -2,330301702e-01   -1,110533401e-01    8,870068192e-01   -8,743868023e-02    0,000000000e+00    0,000000000e+00    0,000000000e+00    0,000000000e+00
     1500000000   -2,926369905e-01   -4,500322044e-02    8,133828044e-01   -4,371597469e-01    0,000000000e+00    0,000000000e+00    0,000000000e+00    0,000000000e+00
