! NanoVNA-App
! Date: 2025-09-25 15:09:39
! Start: 100MHz Stop: 1,5GHz Points: 101
! S-Parameter data: F S11 S21 S12 S22
# Hz S RI R 50
!     Frequency           S11_Real           S11_Imag           S21_Real           S21_Imag           S12_Real           S12_Imag           S22_Real           S22_Imag
      100000000    3,116360679e-02    2,865888178e-02    4,348792136e-01   -6,686050296e-01    0,000000000e+00    0,000000000e+00    0,000000000e+00    0,000000000e+00
      114000000    5,758867040e-02    5,473775789e-03    7,676640525e-03   -7,909365892e-01    0,000000000e+00    0,000000000e+00    0,000000000e+00    0,000000000e+00
      128000000    6,723407656e-02   -3,778698295e-02   -4,101506472e-01   -6,711379886e-01    0,000000000e+00    0,000000000e+00    0,000000000e+00    0,000000000e+00
      142000000    4,474582151e-02   -8,424828947e-02   -7,029741406e-01   -3,530833721e-01    0,000000000e+00    0,000000000e+00    0,000000000e+00    0,000000000e+00
      156000000   -6,222255994e-03   -1,060894281e-01   -7,855103016e-01    7,289911807e-02    0,000000000e+00    0,000000000e+00    0,000000000e+00    0,000000000e+00
      170000000   -5,768036842e-02   -9,069398791e-02   -6,274470687e-01    4,867976904e-01    0,000000000e+00    0,000000000e+00    0,000000000e+00    0,000000000e+00
      184000000   -8,370758593e-02   -4,945372045e-02   -2,651078999e-01    7,510547638e-01    0,000000000e+00    0,000000000e+00    0,000000000e+00    0,000000000e+00
      198000000   -7,964581251e-02   -1,047053654e-02    1,833271384e-01    7,732242346e-01    0,000000000e+00    0,000000000e+00    0,000000000e+00    0,000000000e+00
      212000000   -6,225436553e-02    1,313976664e-02    5,692303777e-01    5,492025018e-01    0,000000000e+00    0,000000000e+00    0,000000000e+00    0,000000000e+00
      226000000   -4,323456064e-02    2,771029435e-02    7,707513571e-01    1,545523107e-01    0,000000000e+00    0,000000000e+00    0,000000000e+00    0,000000000e+00
      240000000   -1,823652908e-02    3,849309310e-02    7,268422842e-01   -2,817023098e-01    0,000000000e+00    0,000000000e+00    0,000000000e+00    0,000000000e+00
      254000000    1,718246378e-02    3,516544029e-02    4,581246674e-01   -6,203943491e-01    0,000000000e+00    0,000000000e+00    0,000000000e+00    0,000000000e+00
      268000000    4,880386591e-02    5,594288465e-03    5,875271559e-02   -7,605866194e-01    0,000000000e+00    0,000000000e+00    0,000000000e+00    0,000000000e+00
      282000000    5,347762629e-02   -4,174698144e-02   -3,487760425e-01   -6,712383032e-01    0,000000000e+00    0,000000000e+00    0,000000000e+00    0,000000000e+00
      296000000    2,399522811e-02   -7,956885546e-02   -6,520903707e-01   -3,853615820e-01    0,000000000e+00    0,000000000e+00    0,000000000e+00    0,000000000e+00
      310000000   -1,800407283e-02   -8,316510916e-02   -7,630794048e-01    2,104151808e-02    0,000000000e+00    0,000000000e+00    0,000000000e+00    0,000000000e+00
      324000000   -4,171959683e-02   -5,894211307e-02   -6,326953769e-01    4,311126769e-01    0,000000000e+00    0,000000000e+00    0,000000000e+00    0,000000000e+00
      338000000   -3,421020508e-02   -3,676123917e-02   -2,966149449e-01    6,990221739e-01    0,000000000e+00    0,000000000e+00    0,000000000e+00    0,000000000e+00
      352000000   -1,750663109e-02   -4,082908109e-02    1,257370263e-01    7,417362928e-01    0,000000000e+00    0,000000000e+00    0,000000000e+00    0,000000000e+00
      366000000   -1,935627498e-02   -6,210466474e-02    4,978493154e-01    5,544382930e-01    0,000000000e+00    0,000000000e+00    0,000000000e+00    0,000000000e+00
      380000000   -4,445619136e-02   -7,294464111e-02    7,131672502e-01    1,992972493e-01    0,000000000e+00    0,000000000e+00    0,000000000e+00    0,000000000e+00
      394000000   -7,110853493e-02   -5,796881020e-02    7,037514448e-01   -2,162292451e-01    0,000000000e+00    0,000000000e+00    0,000000000e+00    0,000000000e+00
      408000000   -7,705273479e-02   -3,027180955e-02    4,695647657e-01   -5,595696568e-01    0,000000000e+00    0,000000000e+00    0,000000000e+00    0,000000000e+00
      422000000   -6,544966996e-02   -1,139367558e-02    9,312472492e-02   -7,183002830e-01    0,000000000e+00    0,000000000e+00    0,000000000e+00    0,000000000e+00
      436000000   -5,273468420e-02   -4,445524421e-03   -3,022463024e-01   -6,471870542e-01    0,000000000e+00    0,000000000e+00    0,000000000e+00    0,000000000e+00
      450000000   -4,467022792e-02    1,782300416e-03   -5,931525826e-01   -3,781515956e-01    0,000000000e+00    0,000000000e+00    0,000000000e+00    0,000000000e+00
      464000000   -2,946570329e-02    1,096199919e-02   -6,911478043e-01   -1,516066368e-05    0,000000000e+00    0,000000000e+00    0,000000000e+00    0,000000000e+00
      478000000   -1,476691803e-03    1,129920688e-02   -5,731953979e-01    3,632160425e-01    0,000000000e+00    0,000000000e+00    0,000000000e+00    0,000000000e+00
      492000000    2,792174369e-02   -1,185673941e-02   -2,896532118e-01    6,017570496e-01    0,000000000e+00    0,000000000e+00    0,000000000e+00    0,000000000e+00
      506000000    3,674634174e-02   -5,591592565e-02    6,956724077e-02    6,582998037e-01    0,000000000e+00    0,000000000e+00    0,000000000e+00    0,000000000e+00
      520000000    1,232295111e-02   -9,868031740e-02    4,046574235e-01    5,262169838e-01    0,000000000e+00    0,000000000e+00    0,000000000e+00    0,000000000e+00
      534000000   -3,436961398e-02   -1,164618209e-01    6,243520975e-01    2,362126708e-01    0,000000000e+00    0,000000000e+00    0,000000000e+00    0,000000000e+00
      548000000   -7,752106339e-02   -9,922961891e-02    6,582006216e-01   -1,331443638e-01    0,000000000e+00    0,000000000e+00    0,000000000e+00    0,000000000e+00
      562000000   -9,382396191e-02   -6,618162990e-02    4,821037054e-01   -4,671674073e-01    0,000000000e+00    0,000000000e+00    0,000000000e+00    0,000000000e+00
      576000000   -8,624368906e-02   -4,477015138e-02    1,505876184e-01   -6,487435699e-01    0,000000000e+00    0,000000000e+00    0,000000000e+00    0,000000000e+00
      590000000   -8,077509701e-02   -4,168547317e-02   -2,205387950e-01   -6,267430186e-01    0,000000000e+00    0,000000000e+00    0,000000000e+00    0,000000000e+00
      604000000   -8,862339705e-02   -3,743786365e-02   -5,190663934e-01   -4,063638449e-01    0,000000000e+00    0,000000000e+00    0,000000000e+00    0,000000000e+00
      618000000   -9,698831290e-02   -1,544803567e-02   -6,534941196e-01   -5,837566033e-02    0,000000000e+00    0,000000000e+00    0,000000000e+00    0,000000000e+00
      632000000   -8,113577962e-02    1,554181613e-02   -5,753276944e-01    3,028648496e-01    0,000000000e+00    0,000000000e+00    0,000000000e+00    0,000000000e+00
      646000000   -4,337969422e-02    2,640486322e-02   -3,184496164e-01    5,560673475e-01    0,000000000e+00    0,000000000e+00    0,000000000e+00    0,000000000e+00
      660000000   -6,909606047e-03    6,073215976e-03    2,150139026e-02    6,312506199e-01    0,000000000e+00    0,000000000e+00    0,000000000e+00    0,000000000e+00
      674000000    5,268370733e-04   -3,053522483e-02    3,428089619e-01    5,194653273e-01    0,000000000e+00    0,000000000e+00    0,000000000e+00    0,000000000e+00
      688000000   -1,450053230e-02   -5,500727147e-02    5,588096380e-01    2,584966123e-01    0,000000000e+00    0,000000000e+00    0,000000000e+00    0,000000000e+00
      702000000   -3,337815776e-02   -5,899729580e-02    6,038345695e-01   -8,195407689e-02    0,000000000e+00    0,000000000e+00    0,000000000e+00    0,000000000e+00
      716000000   -3,643409535e-02   -5,588201806e-02    4,597752690e-01   -3,894152045e-01    0,000000000e+00    0,000000000e+00    0,000000000e+00    0,000000000e+00
      730000000   -3,134932369e-02   -6,479547173e-02    1,745508164e-01   -5,660659671e-01    0,000000000e+00    0,000000000e+00    0,000000000e+00    0,000000000e+00
      744000000   -4,039192945e-02   -8,770661801e-02   -1,529154330e-01   -5,637292862e-01    0,000000000e+00    0,000000000e+00    0,000000000e+00    0,000000000e+00
      758000000   -7,316146046e-02   -1,047922894e-01   -4,273781180e-01   -3,945778310e-01    0,000000000e+00    0,000000000e+00    0,000000000e+00    0,000000000e+00
      772000000   -1,144380122e-01   -9,462036192e-02   -5,745022893e-01   -1,059439257e-01    0,000000000e+00    0,000000000e+00    0,000000000e+00    0,000000000e+00
      786000000   -1,390117109e-01   -5,668247119e-02   -5,451048613e-01    2,212673426e-01    0,000000000e+00    0,000000000e+00    0,000000000e+00    0,000000000e+00
      800000000   -1,331717670e-01   -1,432897244e-02   -3,410065472e-01    4,794798493e-01    0,000000000e+00    0,000000000e+00    0,000000000e+00    0,000000000e+00
      814000000   -1,089730784e-01    8,186378516e-03   -3,416554630e-02    5,855565071e-01    0,000000000e+00    0,000000000e+00    0,000000000e+00    0,000000000e+00
      828000000   -8,566947281e-02    1,269380748e-02    2,778146267e-01    5,147833824e-01    0,000000000e+00    0,000000000e+00    0,000000000e+00    0,000000000e+00
      842000000   -7,070316374e-02    1,539702527e-02    5,030483007e-01    2,895179987e-01    0,000000000e+00    0,000000000e+00    0,000000000e+00    0,000000000e+00
      856000000   -5,189167336e-02    1,939983852e-02    5,705106258e-01   -1,779009216e-02    0,000000000e+00    0,000000000e+00    0,000000000e+00    0,000000000e+00
      870000000   -2,268349193e-02    1,481317077e-02    4,638078213e-01   -3,066436648e-01    0,000000000e+00    0,000000000e+00    0,000000000e+00    0,000000000e+00
      884000000    6,363693625e-03   -1,469304599e-02    2,301283926e-01   -4,891423285e-01    0,000000000e+00    0,000000000e+00    0,000000000e+00    0,000000000e+00
      898000000    1,241781842e-02   -6,347230077e-02   -5,117323995e-02   -5,260370970e-01    0,000000000e+00    0,000000000e+00    0,000000000e+00    0,000000000e+00
      912000000   -2,280686609e-02   -1,079751998e-01   -3,654618859e-01   -3,959946930e-01    0,000000000e+00    0,000000000e+00    0,000000000e+00    0,000000000e+00
      926000000   -7,399170846e-02   -1,233069003e-01   -5,302792788e-01   -1,581054479e-01    0,000000000e+00    0,000000000e+00    0,000000000e+00    0,000000000e+00
      940000000   -1,215878800e-01   -1,008705199e-01   -5,521667004e-01    1,568785608e-01    0,000000000e+00    0,000000000e+00    0,000000000e+00    0,000000000e+00
      954000000   -1,416231990e-01   -5,897080898e-02   -3,921512067e-01    4,477262795e-01    0,000000000e+00    0,000000000e+00    0,000000000e+00    0,000000000e+00
      968000000   -1,338767111e-01   -2,587196603e-02   -9,294679016e-02    6,051174402e-01    0,000000000e+00    0,000000000e+00    0,000000000e+00    0,000000000e+00
      982000000   -1,171851829e-01   -1,793159917e-02    2,456246614e-01    5,719793439e-01    0,000000000e+00    0,000000000e+00    0,000000000e+00    0,000000000e+00
      996000000   -1,065778956e-01   -1,070411783e-02    5,122460127e-01    3,652594388e-01    0,000000000e+00    0,000000000e+00    0,000000000e+00    0,000000000e+00
     1010000000   -1,056611314e-01   -8,077581413e-03    6,283867955e-01    4,971376061e-02    0,000000000e+00    0,000000000e+00    0,000000000e+00    0,000000000e+00
     1024000000   -9,105543047e-02    2,471442567e-03    5,598597527e-01   -2,729435563e-01    0,000000000e+00    0,000000000e+00    0,000000000e+00    0,000000000e+00
     1038000000   -7,669439912e-02    6,269135629e-04    3,366623819e-01   -5,040789247e-01    0,000000000e+00    0,000000000e+00    0,000000000e+00    0,000000000e+00
     1052000000   -6,246110797e-02   -1,621156000e-02    3,545938432e-02   -5,836461782e-01    0,000000000e+00    0,000000000e+00    0,000000000e+00    0,000000000e+00
     1066000000   -6,933697313e-02   -2,832674421e-02   -2,631364465e-01   -5,008155704e-01    0,000000000e+00    0,000000000e+00    0,000000000e+00    0,000000000e+00
     1080000000   -8,425967395e-02   -3,020947240e-02   -4,797600210e-01   -2,703032494e-01    0,000000000e+00    0,000000000e+00    0,000000000e+00    0,000000000e+00
     1094000000   -8,426465839e-02   -1,642279141e-02   -5,328774452e-01    4,081012309e-02    0,000000000e+00    0,000000000e+00    0,000000000e+00    0,000000000e+00
     1108000000   -5,894043669e-02   -8,607306518e-03   -3,979214728e-01    3,279455602e-01    0,000000000e+00    0,000000000e+00    0,000000000e+00    0,000000000e+00
     1122000000   -2,765692212e-02   -3,601837903e-02   -1,354404241e-01    4,815231860e-01    0,000000000e+00    0,000000000e+00    0,000000000e+00    0,000000000e+00
     1136000000   -2,615071647e-02   -8,218391985e-02    1,624773741e-01    4,711465240e-01    0,000000000e+00    0,000000000e+00    0,000000000e+00    0,000000000e+00
     1150000000   -6,514348090e-02   -1,382646561e-01    4,184692800e-01    3,150877357e-01    0,000000000e+00    0,000000000e+00    0,000000000e+00    0,000000000e+00
     1164000000   -1,409474015e-01   -1,533570141e-01    5,662302375e-01    2,889024280e-02    0,000000000e+00    0,000000000e+00    0,000000000e+00    0,000000000e+00
     1178000000   -2,138951570e-01   -1,222290769e-01    5,302135348e-01   -3,148236573e-01    0,000000000e+00    0,000000000e+00    0,000000000e+00    0,000000000e+00
     1192000000   -2,460990399e-01   -3,880241513e-02    2,961953878e-01   -5,980300307e-01    0,000000000e+00    0,000000000e+00    0,000000000e+00    0,000000000e+00
     1206000000   -2,369600534e-01    3,735161200e-02   -6,663003564e-02   -6,998620033e-01    0,000000000e+00    0,000000000e+00    0,000000000e+00    0,000000000e+00
     1220000000   -1,812982708e-01    8,696062863e-02   -4,155240953e-01   -5,800713897e-01    0,000000000e+00    0,000000000e+00    0,000000000e+00    0,000000000e+00
     1234000000   -1,277312934e-01    1,055191010e-01   -6,493288279e-01   -2,923360765e-01    0,000000000e+00    0,000000000e+00    0,000000000e+00    0,000000000e+00
     1248000000   -6,749229878e-02    9,592542797e-02   -6,802884340e-01    6,432695687e-02    0,000000000e+00    0,000000000e+00    0,000000000e+00    0,000000000e+00
     1262000000   -1,076781284e-02    6,400716305e-02   -5,179122686e-01    3,723567128e-01    0,000000000e+00    0,000000000e+00    0,000000000e+00    0,000000000e+00
     1276000000    2,340805158e-02    1,384776551e-04   -2,448244989e-01    5,466710329e-01    0,000000000e+00    0,000000000e+00    0,000000000e+00    0,000000000e+00
     1290000000    1,816385053e-02   -8,966754377e-02    6,722342223e-02    5,783805847e-01    0,000000000e+00    0,000000000e+00    0,000000000e+00    0,000000000e+00
     1304000000   -3,192383051e-02   -1,745060235e-01    3,686768413e-01    4,602943659e-01    0,000000000e+00    0,000000000e+00    0,000000000e+00    0,000000000e+00
     1318000000   -1,356889755e-01   -2,114090025e-01    5,802609921e-01    2,239740342e-01    0,000000000e+00    0,000000000e+00    0,000000000e+00    0,000000000e+00
     1332000000   -2,516249120e-01   -1,884619594e-01    6,546671987e-01   -1,268686801e-01    0,000000000e+00    0,000000000e+00    0,000000000e+00    0,000000000e+00
     1346000000   -3,280779421e-01   -9,349308908e-02    5,163871050e-01   -4,639168382e-01    0,000000000e+00    0,000000000e+00    0,000000000e+00    0,000000000e+00
     1360000000   -3,357191682e-01    2,084152587e-02    1,824105531e-01   -6,520434618e-01    0,000000000e+00    0,000000000e+00    0,000000000e+00    0,000000000e+00
     1374000000   -2,868900299e-01    1,066857502e-01   -1,633882672e-01   -5,986381769e-01    0,000000000e+00    0,000000000e+00    0,000000000e+00    0,000000000e+00
     1388000000   -2,146586627e-01    1,302824467e-01   -4,048562646e-01   -3,841313124e-01    0,000000000e+00    0,000000000e+00    0,000000000e+00    0,000000000e+00
     1402000000   -1,464393437e-01    1,388967335e-01   -4,775850773e-01   -6,091056392e-02    0,000000000e+00    0,000000000e+00    0,000000000e+00    0,000000000e+00
     1416000000   -9,952899814e-02    1,165877432e-01   -3,871424496e-01    2,440327406e-01    0,000000000e+00    0,000000000e+00    0,000000000e+00    0,000000000e+00
     1430000000   -5,340865254e-02    7,061821967e-02   -1,211272702e-01    4,661202133e-01    0,000000000e+00    0,000000000e+00    0,000000000e+00    0,000000000e+00
     1444000000   -4,087237269e-02    5,506284288e-05    1,614076644e-01    5,287786126e-01    0,000000000e+00    0,000000000e+00    0,000000000e+00    0,000000000e+00
     1458000000   -6,112521514e-02   -7,354826480e-02    4,958962798e-01    4,668134153e-01    0,000000000e+00    0,000000000e+00    0,000000000e+00    0,000000000e+00
     1472000000   -1,409605891e-01   -1,230910793e-01    7,498179078e-01    2,587904930e-01    0,000000000e+00    0,000000000e+00    0,000000000e+00    0,000000000e+00
     1486000000   -2,322426140e-01   -1,140743718e-01    8,959152102e-01   -7,949528843e-02    0,000000000e+00    0,000000000e+00    0,000000000e+00    0,000000000e+00
     1500000000   -2,836739123e-01   -4,622939229e-02    8,053647280e-01   -4,452180862e-01    0,000000000e+00    0,000000000e+00    0,000000000e+00    0,000000000e+00
