! NanoVNA-App
! Date: 2025-09-25 15:10:01
! Start: 100MHz Stop: 1,5GHz Points: 101
! S-Parameter data: F S11 S21 S12 S22
# Hz S RI R 50
!     Frequency           S11_Real           S11_Imag           S21_Real           S21_Imag           S12_Real           S12_Imag           S22_Real           S22_Imag
      100000000    3,116074391e-02    2,865613811e-02    4,349077344e-01   -6,685926318e-01    0,000000000e+00    0,000000000e+00    0,000000000e+00    0,000000000e+00
      114000000    5,761093646e-02    5,497938488e-03    7,832066156e-03   -7,911168933e-01    0,000000000e+00    0,000000000e+00    0,000000000e+00    0,000000000e+00
      128000000    6,728064269e-02   -3,784789890e-02   -4,101716280e-01   -6,711405516e-01    0,000000000e+00    0,000000000e+00    0,000000000e+00    0,000000000e+00
      142000000    4,469050840e-02   -8,421868086e-02   -7,026785016e-01   -3,532353938e-01    0,000000000e+00    0,000000000e+00    0,000000000e+00    0,000000000e+00
      156000000   -5,634587258e-03   -1,067978516e-01   -7,870405316e-01    7,404509932e-02    0,000000000e+00    0,000000000e+00    0,000000000e+00    0,000000000e+00
      170000000   -5,769678205e-02   -9,069558233e-02   -6,274804473e-01    4,868712127e-01    0,000000000e+00    0,000000000e+00    0,000000000e+00    0,000000000e+00
      184000000   -8,370642364e-02   -4,949954897e-02   -2,651432753e-01    7,510035634e-01    0,000000000e+00    0,000000000e+00    0,000000000e+00    0,000000000e+00
      198000000   -7,966084778e-02   -1,044102106e-02    1,834366322e-01    7,727459073e-01    0,000000000e+00    0,000000000e+00    0,000000000e+00    0,000000000e+00
      212000000   -6,227027625e-02    1,313871611e-02    5,689558387e-01    5,492203832e-01    0,000000000e+00    0,000000000e+00    0,000000000e+00    0,000000000e+00
      226000000   -4,334401712e-02    2,769823745e-02    7,708030939e-01    1,545940936e-01    0,000000000e+00    0,000000000e+00    0,000000000e+00    0,000000000e+00
      240000000   -1,825868152e-02    3,852349892e-02    7,268615365e-01   -2,820020616e-01    0,000000000e+00    0,000000000e+00    0,000000000e+00    0,000000000e+00
      254000000    1,719282009e-02    3,520663083e-02    4,581359923e-01   -6,201379895e-01    0,000000000e+00    0,000000000e+00    0,000000000e+00    0,000000000e+00
      268000000    4,876812175e-02    5,616281182e-03    5,874807015e-02   -7,600571513e-01    0,000000000e+00    0,000000000e+00    0,000000000e+00    0,000000000e+00
      282000000    5,347444490e-02   -4,176605120e-02   -3,493277431e-01   -6,721504927e-01    0,000000000e+00    0,000000000e+00    0,000000000e+00    0,000000000e+00
      296000000    2,411829121e-02   -7,943244278e-02   -6,518399715e-01   -3,856794238e-01    0,000000000e+00    0,000000000e+00    0,000000000e+00    0,000000000e+00
      310000000   -1,768388972e-02   -8,319498599e-02   -7,636330128e-01    1,939798705e-02    0,000000000e+00    0,000000000e+00    0,000000000e+00    0,000000000e+00
      324000000   -4,164776951e-02   -5,878128484e-02   -6,318544149e-01    4,310142696e-01    0,000000000e+00    0,000000000e+00    0,000000000e+00    0,000000000e+00
      338000000   -3,444381431e-02   -3,697035834e-02   -2,956824601e-01    7,020751834e-01    0,000000000e+00    0,000000000e+00    0,000000000e+00    0,000000000e+00
      352000000   -1,757034659e-02   -4,087008536e-02    1,252165735e-01    7,417539954e-01    0,000000000e+00    0,000000000e+00    0,000000000e+00    0,000000000e+00
      366000000   -1,930798963e-02   -6,200673804e-02    4,980581403e-01    5,555952191e-01    0,000000000e+00    0,000000000e+00    0,000000000e+00    0,000000000e+00
      380000000   -4,453219473e-02   -7,254073024e-02    7,132980227e-01    2,002487034e-01    0,000000000e+00    0,000000000e+00    0,000000000e+00    0,000000000e+00
      394000000   -7,082922757e-02   -5,820201337e-02    7,044566274e-01   -2,167556137e-01    0,000000000e+00    0,000000000e+00    0,000000000e+00    0,000000000e+00
      408000000   -7,697133720e-02   -3,049533814e-02    4,710966945e-01   -5,593721271e-01    0,000000000e+00    0,000000000e+00    0,000000000e+00    0,000000000e+00
      422000000   -6,542515010e-02   -1,139059663e-02    9,320998937e-02   -7,185889482e-01    0,000000000e+00    0,000000000e+00    0,000000000e+00    0,000000000e+00
      436000000   -5,282409489e-02   -4,485895392e-03   -3,014645576e-01   -6,479142904e-01    0,000000000e+00    0,000000000e+00    0,000000000e+00    0,000000000e+00
      450000000   -4,459903017e-02    1,645031269e-03   -5,930238962e-01   -3,779629469e-01    0,000000000e+00    0,000000000e+00    0,000000000e+00    0,000000000e+00
      464000000   -2,959850430e-02    1,134567708e-02   -6,913146377e-01    2,999056887e-04    0,000000000e+00    0,000000000e+00    0,000000000e+00    0,000000000e+00
      478000000   -9,711523307e-04    1,097016130e-02   -5,735301375e-01    3,629455566e-01    0,000000000e+00    0,000000000e+00    0,000000000e+00    0,000000000e+00
      492000000    2,754977532e-02   -1,231988613e-02   -2,893537283e-01    6,019558907e-01    0,000000000e+00    0,000000000e+00    0,000000000e+00    0,000000000e+00
      506000000    3,636266664e-02   -5,601388961e-02    6,882978231e-02    6,587679982e-01    0,000000000e+00    0,000000000e+00    0,000000000e+00    0,000000000e+00
      520000000    1,306396164e-02   -9,868928790e-02    4,012726545e-01    5,271017551e-01    0,000000000e+00    0,000000000e+00    0,000000000e+00    0,000000000e+00
      534000000   -3,440798819e-02   -1,160400361e-01    6,236478090e-01    2,364057153e-01    0,000000000e+00    0,000000000e+00    0,000000000e+00    0,000000000e+00
      548000000   -7,769297063e-02   -9,925181419e-02    6,579437256e-01   -1,332323998e-01    0,000000000e+00    0,000000000e+00    0,000000000e+00    0,000000000e+00
      562000000   -9,354813397e-02   -6,659701467e-02    4,812079072e-01   -4,670158029e-01    0,000000000e+00    0,000000000e+00    0,000000000e+00    0,000000000e+00
      576000000   -8,664438128e-02   -4,420382529e-02    1,503794193e-01   -6,481539607e-01    0,000000000e+00    0,000000000e+00    0,000000000e+00    0,000000000e+00
      590000000   -8,070930094e-02   -4,162779078e-02   -2,184919715e-01   -6,265216470e-01    0,000000000e+00    0,000000000e+00    0,000000000e+00    0,000000000e+00
      604000000   -8,884753287e-02   -3,747791052e-02   -5,198528171e-01   -4,059666991e-01    0,000000000e+00    0,000000000e+00    0,000000000e+00    0,000000000e+00
      618000000   -9,628337622e-02   -1,551098935e-02   -6,533245444e-01   -5,880756676e-02    0,000000000e+00    0,000000000e+00    0,000000000e+00    0,000000000e+00
      632000000   -8,071861416e-02    1,490291208e-02   -5,756605268e-01    3,030875027e-01    0,000000000e+00    0,000000000e+00    0,000000000e+00    0,000000000e+00
      646000000   -4,321617633e-02    2,614706755e-02   -3,187252581e-01    5,551691651e-01    0,000000000e+00    0,000000000e+00    0,000000000e+00    0,000000000e+00
      660000000   -7,499223109e-03    5,487714428e-03    2,046067826e-02    6,295090914e-01    0,000000000e+00    0,000000000e+00    0,000000000e+00    0,000000000e+00
      674000000    5,986202741e-04   -2,974102460e-02    3,422311246e-01    5,184606910e-01    0,000000000e+00    0,000000000e+00    0,000000000e+00    0,000000000e+00
      688000000   -1,520655397e-02   -5,601972714e-02    5,585586429e-01    2,586489618e-01    0,000000000e+00    0,000000000e+00    0,000000000e+00    0,000000000e+00
      702000000   -3,295645490e-02   -6,058757752e-02    6,044803262e-01   -8,089953661e-02    0,000000000e+00    0,000000000e+00    0,000000000e+00    0,000000000e+00
      716000000   -3,777996451e-02   -5,568144470e-02    4,595402479e-01   -3,900831640e-01    0,000000000e+00    0,000000000e+00    0,000000000e+00    0,000000000e+00
      730000000   -3,235766664e-02   -6,561779976e-02    1,744502932e-01   -5,652998090e-01    0,000000000e+00    0,000000000e+00    0,000000000e+00    0,000000000e+00
      744000000   -4,053511098e-02   -8,778823912e-02   -1,531944424e-01   -5,640830398e-01    0,000000000e+00    0,000000000e+00    0,000000000e+00    0,000000000e+00
      758000000   -7,254685462e-02   -1,040160879e-01   -4,277030826e-01   -3,948540986e-01    0,000000000e+00    0,000000000e+00    0,000000000e+00    0,000000000e+00
      772000000   -1,143404022e-01   -9,351855516e-02   -5,745581388e-01   -1,061510220e-01    0,000000000e+00    0,000000000e+00    0,000000000e+00    0,000000000e+00
      786000000   -1,384724230e-01   -5,564005300e-02   -5,450540185e-01    2,206513584e-01    0,000000000e+00    0,000000000e+00    0,000000000e+00    0,000000000e+00
      800000000   -1,334954798e-01   -1,419273857e-02   -3,418906033e-01    4,792029858e-01    0,000000000e+00    0,000000000e+00    0,000000000e+00    0,000000000e+00
      814000000   -1,078638360e-01    8,442263119e-03   -3,520978242e-02    5,859522820e-01    0,000000000e+00    0,000000000e+00    0,000000000e+00    0,000000000e+00
      828000000   -8,560921252e-02    1,383667719e-02    2,792950571e-01    5,144611597e-01    0,000000000e+00    0,000000000e+00    0,000000000e+00    0,000000000e+00
      842000000   -7,082498819e-02    1,560947392e-02    5,028159618e-01    2,897001207e-01    0,000000000e+00    0,000000000e+00    0,000000000e+00    0,000000000e+00
      856000000   -5,300331488e-02    1,920702681e-02    5,706442595e-01   -1,767664589e-02    0,000000000e+00    0,000000000e+00    0,000000000e+00    0,000000000e+00
      870000000   -2,327621542e-02    1,418206282e-02    4,629382193e-01   -3,063890636e-01    0,000000000e+00    0,000000000e+00    0,000000000e+00    0,000000000e+00
      884000000    5,483961198e-03   -1,405145228e-02    2,309672236e-01   -4,882974923e-01    0,000000000e+00    0,000000000e+00    0,000000000e+00    0,000000000e+00
      898000000    1,259675436e-02   -6,337026507e-02   -5,198249593e-02   -5,264167190e-01    0,000000000e+00    0,000000000e+00    0,000000000e+00    0,000000000e+00
      912000000   -2,353084274e-02   -1,076351926e-01   -3,544510603e-01   -3,953980505e-01    0,000000000e+00    0,000000000e+00    0,000000000e+00    0,000000000e+00
      926000000   -7,495245337e-02   -1,221291050e-01   -5,317602158e-01   -1,575169265e-01    0,000000000e+00    0,000000000e+00    0,000000000e+00    0,000000000e+00
      940000000   -1,236239150e-01   -1,009779051e-01   -5,530266762e-01    1,578486711e-01    0,000000000e+00    0,000000000e+00    0,000000000e+00    0,000000000e+00
      954000000   -1,390945017e-01   -6,155794486e-02   -3,902551830e-01    4,461421371e-01    0,000000000e+00    0,000000000e+00    0,000000000e+00    0,000000000e+00
      968000000   -1,328516901e-01   -2,946094424e-02   -9,361932427e-02    6,032595634e-01    0,000000000e+00    0,000000000e+00    0,000000000e+00    0,000000000e+00
      982000000   -1,145161018e-01   -1,385384612e-02    2,456594408e-01    5,723379850e-01    0,000000000e+00    0,000000000e+00    0,000000000e+00    0,000000000e+00
      996000000   -1,066307873e-01   -1,120620314e-02    5,122859478e-01    3,663317561e-01    0,000000000e+00    0,000000000e+00    0,000000000e+00    0,000000000e+00
     1010000000   -1,040986329e-01   -3,721790155e-03    6,289303303e-01    5,122476071e-02    0,000000000e+00    0,000000000e+00    0,000000000e+00    0,000000000e+00
     1024000000   -8,983125538e-02   -1,782715903e-03    5,590571165e-01   -2,700673640e-01    0,000000000e+00    0,000000000e+00    0,000000000e+00    0,000000000e+00
     1038000000   -7,367528230e-02   -1,762506668e-03    3,374815583e-01   -5,035943985e-01    0,000000000e+00    0,000000000e+00    0,000000000e+00    0,000000000e+00
     1052000000   -6,793501228e-02   -1,779937185e-02    3,323151171e-02   -5,841401219e-01    0,000000000e+00    0,000000000e+00    0,000000000e+00    0,000000000e+00
     1066000000   -7,202862948e-02   -3,299536183e-02   -2,707163393e-01   -5,007418394e-01    0,000000000e+00    0,000000000e+00    0,000000000e+00    0,000000000e+00
     1080000000   -8,397942036e-02   -2,783743665e-02   -4,791375101e-01   -2,724318504e-01    0,000000000e+00    0,000000000e+00    0,000000000e+00    0,000000000e+00
     1094000000   -7,867525518e-02   -1,758371107e-02   -5,321595073e-01    4,183977842e-02    0,000000000e+00    0,000000000e+00    0,000000000e+00    0,000000000e+00
     1108000000   -5,657614395e-02   -8,926347829e-03   -3,988605738e-01    3,256804347e-01    0,000000000e+00    0,000000000e+00    0,000000000e+00    0,000000000e+00
     1122000000   -3,124838322e-02   -3,835215792e-02   -1,370088458e-01    4,812467396e-01    0,000000000e+00    0,000000000e+00    0,000000000e+00    0,000000000e+00
     1136000000   -2,990888618e-02   -8,353544027e-02    1,642267108e-01    4,736747742e-01    0,000000000e+00    0,000000000e+00    0,000000000e+00    0,000000000e+00
     1150000000   -6,359716505e-02   -1,340300739e-01    4,184072912e-01    3,114359975e-01    0,000000000e+00    0,000000000e+00    0,000000000e+00    0,000000000e+00
     1164000000   -1,356047094e-01   -1,493553966e-01    5,637390018e-01    2,887323685e-02    0,000000000e+00    0,000000000e+00    0,000000000e+00    0,000000000e+00
     1178000000   -2,094946057e-01   -1,205354258e-01    5,325938463e-01   -3,149325848e-01    0,000000000e+00    0,000000000e+00    0,000000000e+00    0,000000000e+00
     1192000000   -2,446251810e-01   -4,606807604e-02    2,960647941e-01   -5,979828238e-01    0,000000000e+00    0,000000000e+00    0,000000000e+00    0,000000000e+00
     1206000000   -2,296183854e-01    3,123021312e-02   -6,784258038e-02   -6,955036521e-01    0,000000000e+00    0,000000000e+00    0,000000000e+00    0,000000000e+00
     1220000000   -1,818223000e-01    8,854901791e-02   -4,168907106e-01   -5,799309611e-01    0,000000000e+00    0,000000000e+00    0,000000000e+00    0,000000000e+00
     1234000000   -1,249453649e-01    1,069352329e-01   -6,483454704e-01   -2,877608240e-01    0,000000000e+00    0,000000000e+00    0,000000000e+00    0,000000000e+00
     1248000000   -6,767837703e-02    1,002494022e-01   -6,795361638e-01    6,841468811e-02    0,000000000e+00    0,000000000e+00    0,000000000e+00    0,000000000e+00
     1262000000   -1,475068647e-02    6,369783729e-02   -5,219871998e-01    3,715915680e-01    0,000000000e+00    0,000000000e+00    0,000000000e+00    0,000000000e+00
     1276000000    1,949445345e-02   -4,441467579e-03   -2,443552017e-01    5,442968011e-01    0,000000000e+00    0,000000000e+00    0,000000000e+00    0,000000000e+00
     1290000000    2,118008584e-02   -9,009233862e-02    6,965509802e-02    5,727467537e-01    0,000000000e+00    0,000000000e+00    0,000000000e+00    0,000000000e+00
     1304000000   -3,089535423e-02   -1,724007726e-01    3,669304550e-01    4,617282152e-01    0,000000000e+00    0,000000000e+00    0,000000000e+00    0,000000000e+00
     1318000000   -1,364473552e-01   -2,170997858e-01    5,854464769e-01    2,189357728e-01    0,000000000e+00    0,000000000e+00    0,000000000e+00    0,000000000e+00
     1332000000   -2,574178874e-01   -1,877884865e-01    6,537926793e-01   -1,254759282e-01    0,000000000e+00    0,000000000e+00    0,000000000e+00    0,000000000e+00
     1346000000   -3,291435242e-01   -8,927357197e-02    5,079182386e-01   -4,574261010e-01    0,000000000e+00    0,000000000e+00    0,000000000e+00    0,000000000e+00
     1360000000   -3,379768133e-01    2,601674385e-02    1,871620715e-01   -6,436485052e-01    0,000000000e+00    0,000000000e+00    0,000000000e+00    0,000000000e+00
     1374000000   -2,771676183e-01    1,065181717e-01   -1,531477720e-01   -5,982379317e-01    0,000000000e+00    0,000000000e+00    0,000000000e+00    0,000000000e+00
     1388000000   -2,116438746e-01    1,375094503e-01   -4,121983647e-01   -3,680239320e-01    0,000000000e+00    0,000000000e+00    0,000000000e+00    0,000000000e+00
     1402000000   -1,532381326e-01    1,419088393e-01   -4,765530825e-01   -5,984011665e-02    0,000000000e+00    0,000000000e+00    0,000000000e+00    0,000000000e+00
     1416000000   -8,973211795e-02    1,210131422e-01   -3,764901757e-01    2,487542629e-01    0,000000000e+00    0,000000000e+00    0,000000000e+00    0,000000000e+00
     1430000000   -5,455509573e-02    7,385679334e-02   -1,558653116e-01    4,779853225e-01    0,000000000e+00    0,000000000e+00    0,000000000e+00    0,000000000e+00
     1444000000   -3,990226611e-02    6,371797062e-03    1,508463919e-01    5,368728042e-01    0,000000000e+00    0,000000000e+00    0,000000000e+00    0,000000000e+00
     1458000000   -6,540603191e-02   -7,420786470e-02    4,810450077e-01    4,694927633e-01    0,000000000e+00    0,000000000e+00    0,000000000e+00    0,000000000e+00
     1472000000   -1,379120797e-01   -1,249849051e-01    7,616118789e-01    2,674791217e-01    0,000000000e+00    0,000000000e+00    0,000000000e+00    0,000000000e+00
     1486000000   -2,307535261e-01   -1,127591878e-01    8,859128952e-01   -7,892359793e-02    0,000000000e+00    0,000000000e+00    0,000000000e+00    0,000000000e+00
     1500000000   -2,900889814e-01   -5,124140158e-02    7,943544984e-01   -4,645657241e-01    0,000000000e+00    0,000000000e+00    0,000000000e+00    0,000000000e+00
