! NanoVNA-App
! Date: 2025-09-25 15:08:59
! Start: 100MHz Stop: 1,5GHz Points: 101
! S-Parameter data: F S11 S21 S12 S22
# Hz S RI R 50
!     Frequency           S11_Real           S11_Imag           S21_Real           S21_Imag           S12_Real           S12_Imag           S22_Real           S22_Imag
      100000000    3,115200438e-02    2,864578553e-02    4,348917603e-01   -6,686044931e-01    0,000000000e+00    0,000000000e+00    0,000000000e+00    0,000000000e+00
      114000000    5,759125203e-02    5,481223110e-03    7,641025353e-03   -7,910475731e-01    0,000000000e+00    0,000000000e+00    0,000000000e+00    0,000000000e+00
      128000000    6,731100380e-02   -3,784976155e-02   -4,103953838e-01   -6,712021828e-01    0,000000000e+00    0,000000000e+00    0,000000000e+00    0,000000000e+00
      142000000    4,473714158e-02   -8,422141522e-02   -7,028154135e-01   -3,531657457e-01    0,000000000e+00    0,000000000e+00    0,000000000e+00    0,000000000e+00
      156000000   -5,572275259e-03   -1,069832221e-01   -7,872604132e-01    7,407572120e-02    0,000000000e+00    0,000000000e+00    0,000000000e+00    0,000000000e+00
      170000000   -5,761216208e-02   -9,067007899e-02   -6,276412010e-01    4,870860279e-01    0,000000000e+00    0,000000000e+00    0,000000000e+00    0,000000000e+00
      184000000   -8,368636668e-02   -4,946733639e-02   -2,649129331e-01    7,511063814e-01    0,000000000e+00    0,000000000e+00    0,000000000e+00    0,000000000e+00
      198000000   -7,962723076e-02   -1,046158560e-02    1,834173501e-01    7,732823491e-01    0,000000000e+00    0,000000000e+00    0,000000000e+00    0,000000000e+00
      212000000   -6,229383126e-02    1,315623708e-02    5,691950917e-01    5,489938855e-01    0,000000000e+00    0,000000000e+00    0,000000000e+00    0,000000000e+00
      226000000   -4,330327362e-02    2,774063870e-02    7,705620527e-01    1,546012610e-01    0,000000000e+00    0,000000000e+00    0,000000000e+00    0,000000000e+00
      240000000   -1,824961603e-02    3,850255907e-02    7,267487645e-01   -2,819651067e-01    0,000000000e+00    0,000000000e+00    0,000000000e+00    0,000000000e+00
      254000000    1,717861183e-02    3,518543020e-02    4,582210481e-01   -6,201086044e-01    0,000000000e+00    0,000000000e+00    0,000000000e+00    0,000000000e+00
      268000000    4,880794138e-02    5,611405708e-03    5,864600465e-02   -7,604077458e-01    0,000000000e+00    0,000000000e+00    0,000000000e+00    0,000000000e+00
      282000000    5,344050378e-02   -4,180137068e-02   -3,491484225e-01   -6,718063951e-01    0,000000000e+00    0,000000000e+00    0,000000000e+00    0,000000000e+00
      296000000    2,399205230e-02   -7,944478095e-02   -6,520233154e-01   -3,857263327e-01    0,000000000e+00    0,000000000e+00    0,000000000e+00    0,000000000e+00
      310000000   -1,783242449e-02   -8,334065974e-02   -7,633556724e-01    2,100811340e-02    0,000000000e+00    0,000000000e+00    0,000000000e+00    0,000000000e+00
      324000000   -4,181747884e-02   -5,868498236e-02   -6,325030923e-01    4,310958982e-01    0,000000000e+00    0,000000000e+00    0,000000000e+00    0,000000000e+00
      338000000   -3,423162922e-02   -3,699757531e-02   -2,952752709e-01    7,016848326e-01    0,000000000e+00    0,000000000e+00    0,000000000e+00    0,000000000e+00
      352000000   -1,749202237e-02   -4,095459357e-02    1,251361072e-01    7,425755262e-01    0,000000000e+00    0,000000000e+00    0,000000000e+00    0,000000000e+00
      366000000   -1,916870661e-02   -6,205675751e-02    4,987618029e-01    5,543884635e-01    0,000000000e+00    0,000000000e+00    0,000000000e+00    0,000000000e+00
      380000000   -4,441918433e-02   -7,274840772e-02    7,130560279e-01    2,000820190e-01    0,000000000e+00    0,000000000e+00    0,000000000e+00    0,000000000e+00
      394000000   -7,100427896e-02   -5,770209059e-02    7,039670348e-01   -2,162926197e-01    0,000000000e+00    0,000000000e+00    0,000000000e+00    0,000000000e+00
      408000000   -7,677114010e-02   -3,042070195e-02    4,709424973e-01   -5,600775480e-01    0,000000000e+00    0,000000000e+00    0,000000000e+00    0,000000000e+00
      422000000   -6,535752863e-02   -1,119162422e-02    9,331261367e-02   -7,190495729e-01    0,000000000e+00    0,000000000e+00    0,000000000e+00    0,000000000e+00
      436000000   -5,286121741e-02   -4,277012777e-03   -3,025254309e-01   -6,470705271e-01    0,000000000e+00    0,000000000e+00    0,000000000e+00    0,000000000e+00
      450000000   -4,485018551e-02    1,600162941e-03   -5,936690569e-01   -3,780155778e-01    0,000000000e+00    0,000000000e+00    0,000000000e+00    0,000000000e+00
      464000000   -2,934348397e-02    1,147042122e-02   -6,913424134e-01    1,844765065e-04    0,000000000e+00    0,000000000e+00    0,000000000e+00    0,000000000e+00
      478000000   -1,255720621e-03    1,142606791e-02   -5,731732249e-01    3,633920848e-01    0,000000000e+00    0,000000000e+00    0,000000000e+00    0,000000000e+00
      492000000    2,805933356e-02   -1,248989161e-02   -2,891771495e-01    6,018751264e-01    0,000000000e+00    0,000000000e+00    0,000000000e+00    0,000000000e+00
      506000000    3,657660633e-02   -5,607791618e-02    6,928350776e-02    6,583883166e-01    0,000000000e+00    0,000000000e+00    0,000000000e+00    0,000000000e+00
      520000000    1,274954993e-02   -9,783790261e-02    4,026454985e-01    5,267148018e-01    0,000000000e+00    0,000000000e+00    0,000000000e+00    0,000000000e+00
      534000000   -3,444584832e-02   -1,157793403e-01    6,240429878e-01    2,363724858e-01    0,000000000e+00    0,000000000e+00    0,000000000e+00    0,000000000e+00
      548000000   -7,723530382e-02   -9,905727953e-02    6,583633423e-01   -1,333476454e-01    0,000000000e+00    0,000000000e+00    0,000000000e+00    0,000000000e+00
      562000000   -9,329877794e-02   -6,635759771e-02    4,814300835e-01   -4,672134221e-01    0,000000000e+00    0,000000000e+00    0,000000000e+00    0,000000000e+00
      576000000   -8,646466583e-02   -4,431653768e-02    1,498602182e-01   -6,485437751e-01    0,000000000e+00    0,000000000e+00    0,000000000e+00    0,000000000e+00
      590000000   -8,080743998e-02   -4,166604206e-02   -2,216723412e-01   -6,284442544e-01    0,000000000e+00    0,000000000e+00    0,000000000e+00    0,000000000e+00
      604000000   -8,894431591e-02   -3,752935678e-02   -5,197756886e-01   -4,062928557e-01    0,000000000e+00    0,000000000e+00    0,000000000e+00    0,000000000e+00
      618000000   -9,678371251e-02   -1,480465941e-02   -6,531836987e-01   -5,841097608e-02    0,000000000e+00    0,000000000e+00    0,000000000e+00    0,000000000e+00
      632000000   -8,155196905e-02    1,550150011e-02   -5,751377344e-01    3,033476174e-01    0,000000000e+00    0,000000000e+00    0,000000000e+00    0,000000000e+00
      646000000   -4,315390065e-02    2,595252730e-02   -3,195809424e-01    5,565182567e-01    0,000000000e+00    0,000000000e+00    0,000000000e+00    0,000000000e+00
      660000000   -7,751444355e-03    6,437346339e-03    1,982497796e-02    6,288195252e-01    0,000000000e+00    0,000000000e+00    0,000000000e+00    0,000000000e+00
      674000000    6,061177701e-04   -2,968306653e-02    3,423087299e-01    5,186152458e-01    0,000000000e+00    0,000000000e+00    0,000000000e+00    0,000000000e+00
      688000000   -1,548449975e-02   -5,550018325e-02    5,586906672e-01    2,584864199e-01    0,000000000e+00    0,000000000e+00    0,000000000e+00    0,000000000e+00
      702000000   -3,302950412e-02   -5,937159806e-02    6,053890586e-01   -8,072388917e-02    0,000000000e+00    0,000000000e+00    0,000000000e+00    0,000000000e+00
      716000000   -3,725318611e-02   -5,516604334e-02    4,596089721e-01   -3,899867237e-01    0,000000000e+00    0,000000000e+00    0,000000000e+00    0,000000000e+00
      730000000   -3,136713803e-02   -6,537310034e-02    1,741799563e-01   -5,670338869e-01    0,000000000e+00    0,000000000e+00    0,000000000e+00    0,000000000e+00
      744000000   -4,064633325e-02   -8,891770989e-02   -1,534640789e-01   -5,643931627e-01    0,000000000e+00    0,000000000e+00    0,000000000e+00    0,000000000e+00
      758000000   -7,275813073e-02   -1,046130583e-01   -4,266940951e-01   -3,946475387e-01    0,000000000e+00    0,000000000e+00    0,000000000e+00    0,000000000e+00
      772000000   -1,144605428e-01   -9,417548031e-02   -5,744853020e-01   -1,057429239e-01    0,000000000e+00    0,000000000e+00    0,000000000e+00    0,000000000e+00
      786000000   -1,386160702e-01   -5,681660771e-02   -5,451039076e-01    2,210621536e-01    0,000000000e+00    0,000000000e+00    0,000000000e+00    0,000000000e+00
      800000000   -1,324487180e-01   -1,528909616e-02   -3,421173394e-01    4,799477160e-01    0,000000000e+00    0,000000000e+00    0,000000000e+00    0,000000000e+00
      814000000   -1,079539731e-01    8,336061612e-03   -3,429261968e-02    5,847098827e-01    0,000000000e+00    0,000000000e+00    0,000000000e+00    0,000000000e+00
      828000000   -8,565720916e-02    1,295262948e-02    2,786901891e-01    5,143108964e-01    0,000000000e+00    0,000000000e+00    0,000000000e+00    0,000000000e+00
      842000000   -7,088956237e-02    1,456820592e-02    5,030673742e-01    2,885241807e-01    0,000000000e+00    0,000000000e+00    0,000000000e+00    0,000000000e+00
      856000000   -5,295164138e-02    1,973094605e-02    5,707708597e-01   -1,759566925e-02    0,000000000e+00    0,000000000e+00    0,000000000e+00    0,000000000e+00
      870000000   -2,253623120e-02    1,448946632e-02    4,631680548e-01   -3,073284030e-01    0,000000000e+00    0,000000000e+00    0,000000000e+00    0,000000000e+00
      884000000    6,217649672e-03   -1,399443671e-02    2,303654104e-01   -4,875074923e-01    0,000000000e+00    0,000000000e+00    0,000000000e+00    0,000000000e+00
      898000000    1,214398816e-02   -6,401747465e-02   -5,069932342e-02   -5,258692503e-01    0,000000000e+00    0,000000000e+00    0,000000000e+00    0,000000000e+00
      912000000   -2,272645384e-02   -1,085838452e-01   -3,522281945e-01   -4,006402194e-01    0,000000000e+00    0,000000000e+00    0,000000000e+00    0,000000000e+00
      926000000   -7,559636980e-02   -1,230552197e-01   -5,289728642e-01   -1,561395526e-01    0,000000000e+00    0,000000000e+00    0,000000000e+00    0,000000000e+00
      940000000   -1,220015511e-01   -1,047926471e-01   -5,518223643e-01    1,548079401e-01    0,000000000e+00    0,000000000e+00    0,000000000e+00    0,000000000e+00
      954000000   -1,443454772e-01   -6,153677776e-02   -3,931602538e-01    4,452176094e-01    0,000000000e+00    0,000000000e+00    0,000000000e+00    0,000000000e+00
      968000000   -1,305431128e-01   -2,584254742e-02   -9,221307933e-02    6,058697104e-01    0,000000000e+00    0,000000000e+00    0,000000000e+00    0,000000000e+00
      982000000   -1,139417514e-01   -1,841630600e-02    2,454852015e-01    5,721706748e-01    0,000000000e+00    0,000000000e+00    0,000000000e+00    0,000000000e+00
      996000000   -1,088518351e-01   -1,511558518e-02    5,130919814e-01    3,650862873e-01    0,000000000e+00    0,000000000e+00    0,000000000e+00    0,000000000e+00
     1010000000   -1,027111411e-01   -1,064451877e-02    6,293302178e-01    5,313444510e-02    0,000000000e+00    0,000000000e+00    0,000000000e+00    0,000000000e+00
     1024000000   -8,923526853e-02    5,110061611e-04    5,592532158e-01   -2,736361325e-01    0,000000000e+00    0,000000000e+00    0,000000000e+00    0,000000000e+00
     1038000000   -7,437598705e-02   -4,414816853e-03    3,370174170e-01   -5,034054518e-01    0,000000000e+00    0,000000000e+00    0,000000000e+00    0,000000000e+00
     1052000000   -6,177539006e-02   -1,684190519e-02    3,305724263e-02   -5,846801996e-01    0,000000000e+00    0,000000000e+00    0,000000000e+00    0,000000000e+00
     1066000000   -7,217590511e-02   -3,304705396e-02   -2,651898861e-01   -5,012301207e-01    0,000000000e+00    0,000000000e+00    0,000000000e+00    0,000000000e+00
     1080000000   -8,414915949e-02   -2,851408534e-02   -4,810547531e-01   -2,715381980e-01    0,000000000e+00    0,000000000e+00    0,000000000e+00    0,000000000e+00
     1094000000   -7,774693519e-02   -1,824392192e-02   -5,337200761e-01    4,200443253e-02    0,000000000e+00    0,000000000e+00    0,000000000e+00    0,000000000e+00
     1108000000   -6,165071204e-02   -1,325096190e-02   -3,983764946e-01    3,248369992e-01    0,000000000e+00    0,000000000e+00    0,000000000e+00    0,000000000e+00
     1122000000   -3,208817169e-02   -3,914747387e-02   -1,372913122e-01    4,837493598e-01    0,000000000e+00    0,000000000e+00    0,000000000e+00    0,000000000e+00
     1136000000   -2,960907482e-02   -8,327576518e-02    1,618907750e-01    4,743762612e-01    0,000000000e+00    0,000000000e+00    0,000000000e+00    0,000000000e+00
     1150000000   -6,780075282e-02   -1,372274309e-01    4,206780493e-01    3,103993833e-01    0,000000000e+00    0,000000000e+00    0,000000000e+00    0,000000000e+00
     1164000000   -1,365570128e-01   -1,565697342e-01    5,634636879e-01    2,878294885e-02    0,000000000e+00    0,000000000e+00    0,000000000e+00    0,000000000e+00
     1178000000   -2,085130513e-01   -1,196961850e-01    5,356377363e-01   -3,121455014e-01    0,000000000e+00    0,000000000e+00    0,000000000e+00    0,000000000e+00
     1192000000   -2,486612350e-01   -4,655544832e-02    2,961201966e-01   -6,008848548e-01    0,000000000e+00    0,000000000e+00    0,000000000e+00    0,000000000e+00
     1206000000   -2,311618626e-01    3,212759644e-02   -6,189639866e-02   -7,009109855e-01    0,000000000e+00    0,000000000e+00    0,000000000e+00    0,000000000e+00
     1220000000   -1,838696748e-01    8,782656491e-02   -4,201515019e-01   -5,769162774e-01    0,000000000e+00    0,000000000e+00    0,000000000e+00    0,000000000e+00
     1234000000   -1,278825849e-01    1,043206379e-01   -6,477403641e-01   -2,840314806e-01    0,000000000e+00    0,000000000e+00    0,000000000e+00    0,000000000e+00
     1248000000   -7,122258842e-02    9,844546765e-02   -6,766182184e-01    6,224023551e-02    0,000000000e+00    0,000000000e+00    0,000000000e+00    0,000000000e+00
     1262000000   -1,593152620e-02    6,012288481e-02   -5,213376284e-01    3,666231036e-01    0,000000000e+00    0,000000000e+00    0,000000000e+00    0,000000000e+00
     1276000000    2,566054277e-02    2,178033901e-04   -2,452522218e-01    5,522116423e-01    0,000000000e+00    0,000000000e+00    0,000000000e+00    0,000000000e+00
     1290000000    2,088574320e-02   -9,034298360e-02    7,348185033e-02    5,722182393e-01    0,000000000e+00    0,000000000e+00    0,000000000e+00    0,000000000e+00
     1304000000   -3,618086502e-02   -1,687500328e-01    3,629811406e-01    4,615268111e-01    0,000000000e+00    0,000000000e+00    0,000000000e+00    0,000000000e+00
     1318000000   -1,338769495e-01   -2,126541287e-01    5,830568671e-01    2,209531367e-01    0,000000000e+00    0,000000000e+00    0,000000000e+00    0,000000000e+00
     1332000000   -2,559121251e-01   -1,867811680e-01    6,453779340e-01   -1,173803285e-01    0,000000000e+00    0,000000000e+00    0,000000000e+00    0,000000000e+00
     1346000000   -3,352784216e-01   -8,942541480e-02    5,054482222e-01   -4,664426446e-01    0,000000000e+00    0,000000000e+00    0,000000000e+00    0,000000000e+00
     1360000000   -3,334760964e-01    2,855423465e-02    1,999548078e-01   -6,399627924e-01    0,000000000e+00    0,000000000e+00    0,000000000e+00    0,000000000e+00
     1374000000   -2,768911421e-01    1,045951098e-01   -1,508592963e-01   -6,090335250e-01    0,000000000e+00    0,000000000e+00    0,000000000e+00    0,000000000e+00
     1388000000   -2,136747241e-01    1,364004761e-01   -4,027203619e-01   -3,724705577e-01    0,000000000e+00    0,000000000e+00    0,000000000e+00    0,000000000e+00
     1402000000   -1,535690129e-01    1,386066675e-01   -4,839408398e-01   -6,564000249e-02    0,000000000e+00    0,000000000e+00    0,000000000e+00    0,000000000e+00
     1416000000   -9,767685086e-02    1,193373427e-01   -3,849814236e-01    2,475198209e-01    0,000000000e+00    0,000000000e+00    0,000000000e+00    0,000000000e+00
     1430000000   -5,507265031e-02    7,117163390e-02   -1,554365754e-01    4,417247176e-01    0,000000000e+00    0,000000000e+00    0,000000000e+00    0,000000000e+00
     1444000000   -3,479477018e-02    7,710509934e-03    1,743585467e-01    5,500943065e-01    0,000000000e+00    0,000000000e+00    0,000000000e+00    0,000000000e+00
     1458000000   -5,998781696e-02   -7,212413102e-02    4,843030274e-01    4,722999334e-01    0,000000000e+00    0,000000000e+00    0,000000000e+00    0,000000000e+00
     1472000000   -1,339283884e-01   -1,203382537e-01    7,722103000e-01    2,629117966e-01    0,000000000e+00    0,000000000e+00    0,000000000e+00    0,000000000e+00
     1486000000   -2,330127209e-01   -1,121438742e-01    8,786585927e-01   -7,135220617e-02    0,000000000e+00    0,000000000e+00    0,000000000e+00    0,000000000e+00
     1500000000   -2,908767760e-01   -4,531554878e-02    8,031138778e-01   -4,564292133e-01    0,000000000e+00    0,000000000e+00    0,000000000e+00    0,000000000e+00
