! NanoVNA-App
! Date: 2025-09-25 15:08:23
! Start: 100MHz Stop: 1,5GHz Points: 101
! S-Parameter data: F S11 S21 S12 S22
# Hz S RI R 50
!     Frequency           S11_Real           S11_Imag           S21_Real           S21_Imag           S12_Real           S12_Imag           S22_Real           S22_Imag
      100000000    3,114936687e-02    2,865875885e-02    4,348145723e-01   -6,685498357e-01    0,000000000e+00    0,000000000e+00    0,000000000e+00    0,000000000e+00
      114000000    5,758557469e-02    5,522975232e-03    7,699536625e-03   -7,910071611e-01    0,000000000e+00    0,000000000e+00    0,000000000e+00    0,000000000e+00
      128000000    6,725985557e-02   -3,786976263e-02   -4,104085565e-01   -6,712082028e-01    0,000000000e+00    0,000000000e+00    0,000000000e+00    0,000000000e+00
      142000000    4,470535740e-02   -8,420640975e-02   -7,028418779e-01   -3,532634676e-01    0,000000000e+00    0,000000000e+00    0,000000000e+00    0,000000000e+00
      156000000   -5,251712631e-03   -1,067884192e-01   -7,874778509e-01    7,357653975e-02    0,000000000e+00    0,000000000e+00    0,000000000e+00    0,000000000e+00
      170000000   -5,768789724e-02   -9,065110236e-02   -6,274952292e-01    4,869379699e-01    0,000000000e+00    0,000000000e+00    0,000000000e+00    0,000000000e+00
      184000000   -8,369133621e-02   -4,949325696e-02   -2,651117444e-01    7,509909272e-01    0,000000000e+00    0,000000000e+00    0,000000000e+00    0,000000000e+00
      198000000   -7,963027805e-02   -1,044335309e-02    1,835817695e-01    7,730641961e-01    0,000000000e+00    0,000000000e+00    0,000000000e+00    0,000000000e+00
      212000000   -6,229875982e-02    1,317420136e-02    5,693854690e-01    5,492994189e-01    0,000000000e+00    0,000000000e+00    0,000000000e+00    0,000000000e+00
      226000000   -4,330786318e-02    2,766185254e-02    7,707785964e-01    1,545340568e-01    0,000000000e+00    0,000000000e+00    0,000000000e+00    0,000000000e+00
      240000000   -1,817857288e-02    3,854907677e-02    7,268750072e-01   -2,819589376e-01    0,000000000e+00    0,000000000e+00    0,000000000e+00    0,000000000e+00
      254000000    1,720159687e-02    3,520347551e-02    4,578754902e-01   -6,203126907e-01    0,000000000e+00    0,000000000e+00    0,000000000e+00    0,000000000e+00
      268000000    4,886667803e-02    5,591227673e-03    5,868412554e-02   -7,601274252e-01    0,000000000e+00    0,000000000e+00    0,000000000e+00    0,000000000e+00
      282000000    5,343223363e-02   -4,179878905e-02   -3,491821587e-01   -6,717453003e-01    0,000000000e+00    0,000000000e+00    0,000000000e+00    0,000000000e+00
      296000000    2,409191988e-02   -7,963814586e-02   -6,516221762e-01   -3,849802613e-01    0,000000000e+00    0,000000000e+00    0,000000000e+00    0,000000000e+00
      310000000   -1,800171658e-02   -8,318741620e-02   -7,634360790e-01    1,912591420e-02    0,000000000e+00    0,000000000e+00    0,000000000e+00    0,000000000e+00
      324000000   -4,163343087e-02   -5,881777778e-02   -6,321153641e-01    4,307507277e-01    0,000000000e+00    0,000000000e+00    0,000000000e+00    0,000000000e+00
      338000000   -3,424393758e-02   -3,689996526e-02   -2,970161736e-01    6,992722154e-01    0,000000000e+00    0,000000000e+00    0,000000000e+00    0,000000000e+00
      352000000   -1,714209281e-02   -4,050603136e-02    1,248041987e-01    7,421905994e-01    0,000000000e+00    0,000000000e+00    0,000000000e+00    0,000000000e+00
      366000000   -1,945681684e-02   -6,215005741e-02    4,983007908e-01    5,547125936e-01    0,000000000e+00    0,000000000e+00    0,000000000e+00    0,000000000e+00
      380000000   -4,445257038e-02   -7,281376421e-02    7,135553956e-01    1,995543540e-01    0,000000000e+00    0,000000000e+00    0,000000000e+00    0,000000000e+00
      394000000   -7,091167569e-02   -5,814772099e-02    7,039154172e-01   -2,159411162e-01    0,000000000e+00    0,000000000e+00    0,000000000e+00    0,000000000e+00
      408000000   -7,694590837e-02   -3,030855581e-02    4,710628986e-01   -5,596033335e-01    0,000000000e+00    0,000000000e+00    0,000000000e+00    0,000000000e+00
      422000000   -6,555169076e-02   -1,085630804e-02    9,415785223e-02   -7,175790668e-01    0,000000000e+00    0,000000000e+00    0,000000000e+00    0,000000000e+00
      436000000   -5,285831913e-02   -4,394969903e-03   -3,029607236e-01   -6,471005678e-01    0,000000000e+00    0,000000000e+00    0,000000000e+00    0,000000000e+00
      450000000   -4,436185211e-02    1,468255417e-03   -5,931520462e-01   -3,780807257e-01    0,000000000e+00    0,000000000e+00    0,000000000e+00    0,000000000e+00
      464000000   -2,959019877e-02    1,114479825e-02   -6,914696097e-01    7,918749179e-05    0,000000000e+00    0,000000000e+00    0,000000000e+00    0,000000000e+00
      478000000   -1,388138859e-03    1,139828097e-02   -5,737207532e-01    3,636251688e-01    0,000000000e+00    0,000000000e+00    0,000000000e+00    0,000000000e+00
      492000000    2,802327275e-02   -1,231652033e-02   -2,897331417e-01    6,021923423e-01    0,000000000e+00    0,000000000e+00    0,000000000e+00    0,000000000e+00
      506000000    3,659451753e-02   -5,579736084e-02    6,967367232e-02    6,585599780e-01    0,000000000e+00    0,000000000e+00    0,000000000e+00    0,000000000e+00
      520000000    1,205524057e-02   -9,890421480e-02    4,019079506e-01    5,220436454e-01    0,000000000e+00    0,000000000e+00    0,000000000e+00    0,000000000e+00
      534000000   -3,435105458e-02   -1,159247532e-01    6,234922409e-01    2,365963757e-01    0,000000000e+00    0,000000000e+00    0,000000000e+00    0,000000000e+00
      548000000   -7,726448029e-02   -9,894190729e-02    6,584647894e-01   -1,331957579e-01    0,000000000e+00    0,000000000e+00    0,000000000e+00    0,000000000e+00
      562000000   -9,330317378e-02   -6,636693329e-02    4,817779660e-01   -4,671218693e-01    0,000000000e+00    0,000000000e+00    0,000000000e+00    0,000000000e+00
      576000000   -8,599146456e-02   -4,450905323e-02    1,511870474e-01   -6,485142708e-01    0,000000000e+00    0,000000000e+00    0,000000000e+00    0,000000000e+00
      590000000   -8,089040965e-02   -4,172189534e-02   -2,199901193e-01   -6,291487813e-01    0,000000000e+00    0,000000000e+00    0,000000000e+00    0,000000000e+00
      604000000   -8,864880353e-02   -3,729199991e-02   -5,192720294e-01   -4,062452912e-01    0,000000000e+00    0,000000000e+00    0,000000000e+00    0,000000000e+00
      618000000   -9,681043029e-02   -1,537359226e-02   -6,538441181e-01   -5,876288563e-02    0,000000000e+00    0,000000000e+00    0,000000000e+00    0,000000000e+00
      632000000   -8,100650460e-02    1,472677942e-02   -5,752339363e-01    3,029846847e-01    0,000000000e+00    0,000000000e+00    0,000000000e+00    0,000000000e+00
      646000000   -4,339226335e-02    2,627186291e-02   -3,191545308e-01    5,571228862e-01    0,000000000e+00    0,000000000e+00    0,000000000e+00    0,000000000e+00
      660000000   -7,848947309e-03    5,633070134e-03    2,106136456e-02    6,296938062e-01    0,000000000e+00    0,000000000e+00    0,000000000e+00    0,000000000e+00
      674000000    1,462073298e-03   -3,066587262e-02    3,425956666e-01    5,192192197e-01    0,000000000e+00    0,000000000e+00    0,000000000e+00    0,000000000e+00
      688000000   -1,533471327e-02   -5,594920367e-02    5,585042834e-01    2,585778534e-01    0,000000000e+00    0,000000000e+00    0,000000000e+00    0,000000000e+00
      702000000   -3,408930078e-02   -5,919819325e-02    6,057933569e-01   -8,287901431e-02    0,000000000e+00    0,000000000e+00    0,000000000e+00    0,000000000e+00
      716000000   -3,665596619e-02   -5,627779663e-02    4,602564871e-01   -3,902403414e-01    0,000000000e+00    0,000000000e+00    0,000000000e+00    0,000000000e+00
      730000000   -3,140892461e-02   -6,456445903e-02    1,741867512e-01   -5,663826466e-01    0,000000000e+00    0,000000000e+00    0,000000000e+00    0,000000000e+00
      744000000   -4,031227902e-02   -8,885464072e-02   -1,530088633e-01   -5,642153025e-01    0,000000000e+00    0,000000000e+00    0,000000000e+00    0,000000000e+00
      758000000   -7,134605199e-02   -1,050242856e-01   -4,277432859e-01   -3,945133984e-01    0,000000000e+00    0,000000000e+00    0,000000000e+00    0,000000000e+00
      772000000   -1,135556549e-01   -9,329997003e-02   -5,743566155e-01   -1,059087142e-01    0,000000000e+00    0,000000000e+00    0,000000000e+00    0,000000000e+00
      786000000   -1,387424171e-01   -5,555604026e-02   -5,452958941e-01    2,205424011e-01    0,000000000e+00    0,000000000e+00    0,000000000e+00    0,000000000e+00
      800000000   -1,331714243e-01   -1,421277504e-02   -3,412897587e-01    4,800942540e-01    0,000000000e+00    0,000000000e+00    0,000000000e+00    0,000000000e+00
      814000000   -1,085422859e-01    8,333235979e-03   -3,438703716e-02    5,856793523e-01    0,000000000e+00    0,000000000e+00    0,000000000e+00    0,000000000e+00
      828000000   -8,550181985e-02    1,277880650e-02    2,786561549e-01    5,150530934e-01    0,000000000e+00    0,000000000e+00    0,000000000e+00    0,000000000e+00
      842000000   -7,029306144e-02    1,457777992e-02    5,024706125e-01    2,897877097e-01    0,000000000e+00    0,000000000e+00    0,000000000e+00    0,000000000e+00
      856000000   -5,274676159e-02    1,882520132e-02    5,706081390e-01   -1,801162586e-02    0,000000000e+00    0,000000000e+00    0,000000000e+00    0,000000000e+00
      870000000   -2,266496234e-02    1,386036724e-02    4,634828866e-01   -3,064331412e-01    0,000000000e+00    0,000000000e+00    0,000000000e+00    0,000000000e+00
      884000000    6,408712827e-03   -1,407096535e-02    2,307174206e-01   -4,882224202e-01    0,000000000e+00    0,000000000e+00    0,000000000e+00    0,000000000e+00
      898000000    1,159907598e-02   -6,338001788e-02   -5,295870826e-02   -5,273616314e-01    0,000000000e+00    0,000000000e+00    0,000000000e+00    0,000000000e+00
      912000000   -2,315440774e-02   -1,092064157e-01   -3,546100855e-01   -4,060611725e-01    0,000000000e+00    0,000000000e+00    0,000000000e+00    0,000000000e+00
      926000000   -7,388494164e-02   -1,228808984e-01   -5,295867920e-01   -1,564602554e-01    0,000000000e+00    0,000000000e+00    0,000000000e+00    0,000000000e+00
      940000000   -1,244824529e-01   -1,015227586e-01   -5,531333089e-01    1,574854702e-01    0,000000000e+00    0,000000000e+00    0,000000000e+00    0,000000000e+00
      954000000   -1,389030665e-01   -6,124348566e-02   -3,909591436e-01    4,448953569e-01    0,000000000e+00    0,000000000e+00    0,000000000e+00    0,000000000e+00
      968000000   -1,309547573e-01   -3,112613037e-02   -9,188416600e-02    6,027809978e-01    0,000000000e+00    0,000000000e+00    0,000000000e+00    0,000000000e+00
      982000000   -1,175475046e-01   -1,592097059e-02    2,460162491e-01    5,733815432e-01    0,000000000e+00    0,000000000e+00    0,000000000e+00    0,000000000e+00
      996000000   -1,041563600e-01   -1,182078477e-02    5,134754181e-01    3,676328063e-01    0,000000000e+00    0,000000000e+00    0,000000000e+00    0,000000000e+00
     1010000000   -1,011161506e-01   -1,011382695e-02    6,286668181e-01    5,238794908e-02    0,000000000e+00    0,000000000e+00    0,000000000e+00    0,000000000e+00
     1024000000   -8,913110942e-02    1,084413379e-03    5,612114072e-01   -2,710607946e-01    0,000000000e+00    0,000000000e+00    0,000000000e+00    0,000000000e+00
     1038000000   -7,443495840e-02    2,025679452e-03    3,365405798e-01   -5,044992566e-01    0,000000000e+00    0,000000000e+00    0,000000000e+00    0,000000000e+00
     1052000000   -6,351572275e-02   -1,885624044e-02    3,400604054e-02   -5,854882002e-01    0,000000000e+00    0,000000000e+00    0,000000000e+00    0,000000000e+00
     1066000000   -7,387738675e-02   -3,061921149e-02   -2,691248655e-01   -5,020458698e-01    0,000000000e+00    0,000000000e+00    0,000000000e+00    0,000000000e+00
     1080000000   -7,983328402e-02   -2,800367028e-02   -4,801074564e-01   -2,711797953e-01    0,000000000e+00    0,000000000e+00    0,000000000e+00    0,000000000e+00
     1094000000   -7,911522686e-02   -1,943164691e-02   -5,345081687e-01    3,954764083e-02    0,000000000e+00    0,000000000e+00    0,000000000e+00    0,000000000e+00
     1108000000   -5,636567622e-02   -1,153392624e-02   -3,991210759e-01    3,263055980e-01    0,000000000e+00    0,000000000e+00    0,000000000e+00    0,000000000e+00
     1122000000   -3,074900620e-02   -3,925582021e-02   -1,377406418e-01    4,809211493e-01    0,000000000e+00    0,000000000e+00    0,000000000e+00    0,000000000e+00
     1136000000   -3,071131557e-02   -8,465141058e-02    1,616615057e-01    4,743635654e-01    0,000000000e+00    0,000000000e+00    0,000000000e+00    0,000000000e+00
     1150000000   -6,370756775e-02   -1,342739016e-01    4,176705778e-01    3,111903965e-01    0,000000000e+00    0,000000000e+00    0,000000000e+00    0,000000000e+00
     1164000000   -1,373783201e-01   -1,551971585e-01    5,634771585e-01    3,028540872e-02    0,000000000e+00    0,000000000e+00    0,000000000e+00    0,000000000e+00
     1178000000   -2,127347589e-01   -1,154853180e-01    5,297213793e-01   -3,147361279e-01    0,000000000e+00    0,000000000e+00    0,000000000e+00    0,000000000e+00
     1192000000   -2,444276363e-01   -4,409898072e-02    2,952450514e-01   -5,968214869e-01    0,000000000e+00    0,000000000e+00    0,000000000e+00    0,000000000e+00
     1206000000   -2,324600816e-01    2,826866321e-02   -6,464063376e-02   -7,019295096e-01    0,000000000e+00    0,000000000e+00    0,000000000e+00    0,000000000e+00
     1220000000   -1,907874346e-01    8,502388000e-02   -4,197371602e-01   -5,763661861e-01    0,000000000e+00    0,000000000e+00    0,000000000e+00    0,000000000e+00
     1234000000   -1,240933314e-01    1,036942527e-01   -6,421052217e-01   -2,925603688e-01    0,000000000e+00    0,000000000e+00    0,000000000e+00    0,000000000e+00
     1248000000   -6,750730425e-02    1,002171338e-01   -6,774652600e-01    6,177781150e-02    0,000000000e+00    0,000000000e+00    0,000000000e+00    0,000000000e+00
     1262000000   -9,925073013e-03    5,791047961e-02   -5,180089474e-01    3,705695570e-01    0,000000000e+00    0,000000000e+00    0,000000000e+00    0,000000000e+00
     1276000000    1,953884214e-02   -5,186385009e-03   -2,460328043e-01    5,476162434e-01    0,000000000e+00    0,000000000e+00    0,000000000e+00    0,000000000e+00
     1290000000    1,695224084e-02   -8,268612623e-02    6,637347490e-02    5,804603100e-01    0,000000000e+00    0,000000000e+00    0,000000000e+00    0,000000000e+00
     1304000000   -3,455813974e-02   -1,707732975e-01    3,623126447e-01    4,668129683e-01    0,000000000e+00    0,000000000e+00    0,000000000e+00    0,000000000e+00
     1318000000   -1,349410862e-01   -2,094957680e-01    5,846726298e-01    2,290809453e-01    0,000000000e+00    0,000000000e+00    0,000000000e+00    0,000000000e+00
     1332000000   -2,535384297e-01   -1,881254762e-01    6,489051580e-01   -1,248770729e-01    0,000000000e+00    0,000000000e+00    0,000000000e+00    0,000000000e+00
     1346000000   -3,314840794e-01   -9,420525283e-02    5,090132952e-01   -4,678098857e-01    0,000000000e+00    0,000000000e+00    0,000000000e+00    0,000000000e+00
     1360000000   -3,308179975e-01    2,216222696e-02    1,944511682e-01   -6,451804042e-01    0,000000000e+00    0,000000000e+00    0,000000000e+00    0,000000000e+00
     1374000000   -2,778422832e-01    1,033521965e-01   -1,541092694e-01   -6,002270579e-01    0,000000000e+00    0,000000000e+00    0,000000000e+00    0,000000000e+00
     1388000000   -2,145244032e-01    1,389603317e-01   -4,056317806e-01   -3,769320250e-01    0,000000000e+00    0,000000000e+00    0,000000000e+00    0,000000000e+00
     1402000000   -1,513085663e-01    1,314886659e-01   -4,826301038e-01   -6,599900872e-02    0,000000000e+00    0,000000000e+00    0,000000000e+00    0,000000000e+00
     1416000000   -9,699270874e-02    1,193573624e-01   -3,787979484e-01    2,327585518e-01    0,000000000e+00    0,000000000e+00    0,000000000e+00    0,000000000e+00
     1430000000   -5,440886319e-02    7,247918844e-02   -1,527634561e-01    4,546488225e-01    0,000000000e+00    0,000000000e+00    0,000000000e+00    0,000000000e+00
     1444000000   -3,917229176e-02    1,821215992e-04    1,630147249e-01    5,261809230e-01    0,000000000e+00    0,000000000e+00    0,000000000e+00    0,000000000e+00
     1458000000   -6,147265062e-02   -7,114418596e-02    4,789189100e-01    4,909168184e-01    0,000000000e+00    0,000000000e+00    0,000000000e+00    0,000000000e+00
     1472000000   -1,357101947e-01   -1,201787144e-01    7,698831558e-01    2,659564018e-01    0,000000000e+00    0,000000000e+00    0,000000000e+00    0,000000000e+00
     1486000000   -2,309665382e-01   -1,080331877e-01    8,795930743e-01   -6,963613629e-02    0,000000000e+00    0,000000000e+00    0,000000000e+00    0,000000000e+00
     1500000000   -2,881451249e-01   -4,691307247e-02    7,943469286e-01   -4,678007960e-01    0,000000000e+00    0,000000000e+00    0,000000000e+00    0,000000000e+00
