! NanoVNA-App
! Date: 2025-09-25 15:06:43
! Start: 100MHz Stop: 1,5GHz Points: 101
! S-Parameter data: F S11 S21 S12 S22
# Hz S RI R 50
!     Frequency           S11_Real           S11_Imag           S21_Real           S21_Imag           S12_Real           S12_Imag           S22_Real           S22_Imag
      100000000    3,116281331e-02    2,864099853e-02    4,349031448e-01   -6,686878800e-01    0,000000000e+00    0,000000000e+00    0,000000000e+00    0,000000000e+00
      114000000    5,761722848e-02    5,503796972e-03    7,773951162e-03   -7,911539078e-01    0,000000000e+00    0,000000000e+00    0,000000000e+00    0,000000000e+00
      128000000    6,729810685e-02   -3,783724084e-02   -4,104744494e-01   -6,713218093e-01    0,000000000e+00    0,000000000e+00    0,000000000e+00    0,000000000e+00
      142000000    4,470381513e-02   -8,418478072e-02   -7,031369209e-01   -3,532864451e-01    0,000000000e+00    0,000000000e+00    0,000000000e+00    0,000000000e+00
      156000000   -5,556499586e-03   -1,069727764e-01   -7,871572971e-01    7,419857383e-02    0,000000000e+00    0,000000000e+00    0,000000000e+00    0,000000000e+00
      170000000   -5,759809911e-02   -9,055563807e-02   -6,275670528e-01    4,868697524e-01    0,000000000e+00    0,000000000e+00    0,000000000e+00    0,000000000e+00
      184000000   -8,368647844e-02   -4,950044304e-02   -2,648304105e-01    7,510155439e-01    0,000000000e+00    0,000000000e+00    0,000000000e+00    0,000000000e+00
      198000000   -7,961378992e-02   -1,046644989e-02    1,835193038e-01    7,728731036e-01    0,000000000e+00    0,000000000e+00    0,000000000e+00    0,000000000e+00
      212000000   -6,227223575e-02    1,312905457e-02    5,691438317e-01    5,493624210e-01    0,000000000e+00    0,000000000e+00    0,000000000e+00    0,000000000e+00
      226000000   -4,333154857e-02    2,768437192e-02    7,707270384e-01    1,544986516e-01    0,000000000e+00    0,000000000e+00    0,000000000e+00    0,000000000e+00
      240000000   -1,822383516e-02    3,848775849e-02    7,267431617e-01   -2,819737196e-01    0,000000000e+00    0,000000000e+00    0,000000000e+00    0,000000000e+00
      254000000    1,724090986e-02    3,518743068e-02    4,582369030e-01   -6,202627420e-01    0,000000000e+00    0,000000000e+00    0,000000000e+00    0,000000000e+00
      268000000    4,876193404e-02    5,532387178e-03    5,866178125e-02   -7,603096366e-01    0,000000000e+00    0,000000000e+00    0,000000000e+00    0,000000000e+00
      282000000    5,343318731e-02   -4,175762087e-02   -3,489962220e-01   -6,716921926e-01    0,000000000e+00    0,000000000e+00    0,000000000e+00    0,000000000e+00
      296000000    2,413945459e-02   -7,957066596e-02   -6,520867944e-01   -3,853026330e-01    0,000000000e+00    0,000000000e+00    0,000000000e+00    0,000000000e+00
      310000000   -1,775003783e-02   -8,318182826e-02   -7,625386715e-01    1,974055730e-02    0,000000000e+00    0,000000000e+00    0,000000000e+00    0,000000000e+00
      324000000   -4,175373167e-02   -5,894023180e-02   -6,327497959e-01    4,310346544e-01    0,000000000e+00    0,000000000e+00    0,000000000e+00    0,000000000e+00
      338000000   -3,426477686e-02   -3,674415499e-02   -2,986800671e-01    6,988945603e-01    0,000000000e+00    0,000000000e+00    0,000000000e+00    0,000000000e+00
      352000000   -1,741635054e-02   -4,073325917e-02    1,259482354e-01    7,418327928e-01    0,000000000e+00    0,000000000e+00    0,000000000e+00    0,000000000e+00
      366000000   -1,920678280e-02   -6,215620041e-02    4,983353317e-01    5,541599393e-01    0,000000000e+00    0,000000000e+00    0,000000000e+00    0,000000000e+00
      380000000   -4,455693439e-02   -7,265801728e-02    7,130297422e-01    1,997362673e-01    0,000000000e+00    0,000000000e+00    0,000000000e+00    0,000000000e+00
      394000000   -7,096815854e-02   -5,806941912e-02    7,043646574e-01   -2,160489559e-01    0,000000000e+00    0,000000000e+00    0,000000000e+00    0,000000000e+00
      408000000   -7,713566720e-02   -3,046973981e-02    4,712563753e-01   -5,602869987e-01    0,000000000e+00    0,000000000e+00    0,000000000e+00    0,000000000e+00
      422000000   -6,558836997e-02   -1,127166674e-02    9,261325002e-02   -7,175650597e-01    0,000000000e+00    0,000000000e+00    0,000000000e+00    0,000000000e+00
      436000000   -5,314264074e-02   -4,640703555e-03   -3,029597402e-01   -6,476128101e-01    0,000000000e+00    0,000000000e+00    0,000000000e+00    0,000000000e+00
      450000000   -4,468729720e-02    1,389157027e-03   -5,929341316e-01   -3,783228099e-01    0,000000000e+00    0,000000000e+00    0,000000000e+00    0,000000000e+00
      464000000   -2,938102931e-02    1,116482355e-02   -6,913216114e-01    1,132211910e-04    0,000000000e+00    0,000000000e+00    0,000000000e+00    0,000000000e+00
      478000000   -1,297419774e-03    1,098991372e-02   -5,729904175e-01    3,632836342e-01    0,000000000e+00    0,000000000e+00    0,000000000e+00    0,000000000e+00
      492000000    2,772471681e-02   -1,226837095e-02   -2,891612053e-01    6,017835736e-01    0,000000000e+00    0,000000000e+00    0,000000000e+00    0,000000000e+00
      506000000    3,666621819e-02   -5,550988019e-02    6,922569126e-02    6,591048837e-01    0,000000000e+00    0,000000000e+00    0,000000000e+00    0,000000000e+00
      520000000    1,297883969e-02   -9,829095006e-02    4,013651907e-01    5,281069875e-01    0,000000000e+00    0,000000000e+00    0,000000000e+00    0,000000000e+00
      534000000   -3,414541483e-02   -1,162552014e-01    6,240366697e-01    2,361398339e-01    0,000000000e+00    0,000000000e+00    0,000000000e+00    0,000000000e+00
      548000000   -7,745829225e-02   -9,943901002e-02    6,576526165e-01   -1,337317973e-01    0,000000000e+00    0,000000000e+00    0,000000000e+00    0,000000000e+00
      562000000   -9,327569604e-02   -6,660066545e-02    4,813393950e-01   -4,672090411e-01    0,000000000e+00    0,000000000e+00    0,000000000e+00    0,000000000e+00
      576000000   -8,645168692e-02   -4,436530545e-02    1,498210430e-01   -6,479853392e-01    0,000000000e+00    0,000000000e+00    0,000000000e+00    0,000000000e+00
      590000000   -8,082821220e-02   -4,158624262e-02   -2,189297229e-01   -6,285349131e-01    0,000000000e+00    0,000000000e+00    0,000000000e+00    0,000000000e+00
      604000000   -8,852954209e-02   -3,742424026e-02   -5,188797116e-01   -4,062041640e-01    0,000000000e+00    0,000000000e+00    0,000000000e+00    0,000000000e+00
      618000000   -9,606697410e-02   -1,492741890e-02   -6,530987620e-01   -5,806669965e-02    0,000000000e+00    0,000000000e+00    0,000000000e+00    0,000000000e+00
      632000000   -8,101543784e-02    1,552328561e-02   -5,753893256e-01    3,030771017e-01    0,000000000e+00    0,000000000e+00    0,000000000e+00    0,000000000e+00
      646000000   -4,341208562e-02    2,640469559e-02   -3,185801208e-01    5,564198494e-01    0,000000000e+00    0,000000000e+00    0,000000000e+00    0,000000000e+00
      660000000   -8,132482879e-03    5,846674554e-03    2,184922621e-02    6,289113164e-01    0,000000000e+00    0,000000000e+00    0,000000000e+00    0,000000000e+00
      674000000    4,761871533e-04   -3,038474731e-02    3,420068324e-01    5,183230639e-01    0,000000000e+00    0,000000000e+00    0,000000000e+00    0,000000000e+00
      688000000   -1,483205333e-02   -5,488276109e-02    5,587694049e-01    2,584163845e-01    0,000000000e+00    0,000000000e+00    0,000000000e+00    0,000000000e+00
      702000000   -3,430361673e-02   -5,895685405e-02    6,073554754e-01   -7,878006995e-02    0,000000000e+00    0,000000000e+00    0,000000000e+00    0,000000000e+00
      716000000   -3,776345402e-02   -5,540313572e-02    4,598502517e-01   -3,901272714e-01    0,000000000e+00    0,000000000e+00    0,000000000e+00    0,000000000e+00
      730000000   -3,176423162e-02   -6,453312933e-02    1,754111797e-01   -5,659617782e-01    0,000000000e+00    0,000000000e+00    0,000000000e+00    0,000000000e+00
      744000000   -3,988811001e-02   -8,885665983e-02   -1,534266025e-01   -5,636885166e-01    0,000000000e+00    0,000000000e+00    0,000000000e+00    0,000000000e+00
      758000000   -7,278119028e-02   -1,049022600e-01   -4,275190234e-01   -3,945035338e-01    0,000000000e+00    0,000000000e+00    0,000000000e+00    0,000000000e+00
      772000000   -1,142513379e-01   -9,441766143e-02   -5,743616819e-01   -1,060517877e-01    0,000000000e+00    0,000000000e+00    0,000000000e+00    0,000000000e+00
      786000000   -1,384089440e-01   -5,649266392e-02   -5,451010466e-01    2,203460336e-01    0,000000000e+00    0,000000000e+00    0,000000000e+00    0,000000000e+00
      800000000   -1,333131641e-01   -1,458809804e-02   -3,411396742e-01    4,797556102e-01    0,000000000e+00    0,000000000e+00    0,000000000e+00    0,000000000e+00
      814000000   -1,080832556e-01    9,127050638e-03   -3,366370499e-02    5,858016014e-01    0,000000000e+00    0,000000000e+00    0,000000000e+00    0,000000000e+00
      828000000   -8,546587080e-02    1,297092810e-02    2,785023153e-01    5,145296454e-01    0,000000000e+00    0,000000000e+00    0,000000000e+00    0,000000000e+00
      842000000   -7,089062780e-02    1,455549244e-02    5,021342039e-01    2,894345224e-01    0,000000000e+00    0,000000000e+00    0,000000000e+00    0,000000000e+00
      856000000   -5,250665173e-02    1,972459443e-02    5,705741048e-01   -1,756205782e-02    0,000000000e+00    0,000000000e+00    0,000000000e+00    0,000000000e+00
      870000000   -2,260535024e-02    1,409785636e-02    4,632359445e-01   -3,061950803e-01    0,000000000e+00    0,000000000e+00    0,000000000e+00    0,000000000e+00
      884000000    6,094668526e-03   -1,416888367e-02    2,301592082e-01   -4,889049828e-01    0,000000000e+00    0,000000000e+00    0,000000000e+00    0,000000000e+00
      898000000    1,132483315e-02   -6,381496787e-02   -5,186073482e-02   -5,267772675e-01    0,000000000e+00    0,000000000e+00    0,000000000e+00    0,000000000e+00
      912000000   -2,401195653e-02   -1,085720360e-01   -3,606176674e-01   -4,091386795e-01    0,000000000e+00    0,000000000e+00    0,000000000e+00    0,000000000e+00
      926000000   -7,361073047e-02   -1,244356334e-01   -5,291929245e-01   -1,577671766e-01    0,000000000e+00    0,000000000e+00    0,000000000e+00    0,000000000e+00
      940000000   -1,213684753e-01   -1,021590009e-01   -5,510043502e-01    1,579000950e-01    0,000000000e+00    0,000000000e+00    0,000000000e+00    0,000000000e+00
      954000000   -1,405164301e-01   -5,928312987e-02   -3,905467689e-01    4,478853345e-01    0,000000000e+00    0,000000000e+00    0,000000000e+00    0,000000000e+00
      968000000   -1,329386979e-01   -2,615941502e-02   -9,328216314e-02    6,025035381e-01    0,000000000e+00    0,000000000e+00    0,000000000e+00    0,000000000e+00
      982000000   -1,125222817e-01   -1,579098217e-02    2,479232401e-01    5,711975694e-01    0,000000000e+00    0,000000000e+00    0,000000000e+00    0,000000000e+00
      996000000   -1,039992422e-01   -1,321200281e-02    5,121533871e-01    3,659181595e-01    0,000000000e+00    0,000000000e+00    0,000000000e+00    0,000000000e+00
     1010000000   -1,027941480e-01   -1,042360440e-02    6,258614659e-01    5,147880316e-02    0,000000000e+00    0,000000000e+00    0,000000000e+00    0,000000000e+00
     1024000000   -9,390908480e-02    3,068787046e-03    5,634372830e-01   -2,725526094e-01    0,000000000e+00    0,000000000e+00    0,000000000e+00    0,000000000e+00
     1038000000   -7,346682996e-02    4,633349599e-04    3,385193348e-01   -5,037491322e-01    0,000000000e+00    0,000000000e+00    0,000000000e+00    0,000000000e+00
     1052000000   -6,579765677e-02   -1,749151573e-02    3,465955332e-02   -5,843284726e-01    0,000000000e+00    0,000000000e+00    0,000000000e+00    0,000000000e+00
     1066000000   -7,336609066e-02   -2,996525913e-02   -2,616451085e-01   -5,019837022e-01    0,000000000e+00    0,000000000e+00    0,000000000e+00    0,000000000e+00
     1080000000   -7,989834994e-02   -3,139822558e-02   -4,820055068e-01   -2,707780898e-01    0,000000000e+00    0,000000000e+00    0,000000000e+00    0,000000000e+00
     1094000000   -7,961519063e-02   -1,382522471e-02   -5,316741467e-01    4,053338617e-02    0,000000000e+00    0,000000000e+00    0,000000000e+00    0,000000000e+00
     1108000000   -5,703378841e-02   -1,674465090e-02   -3,987640738e-01    3,284675181e-01    0,000000000e+00    0,000000000e+00    0,000000000e+00    0,000000000e+00
     1122000000   -2,855435759e-02   -3,564469144e-02   -1,330543458e-01    4,813134670e-01    0,000000000e+00    0,000000000e+00    0,000000000e+00    0,000000000e+00
     1136000000   -2,554292418e-02   -8,342054486e-02    1,623694599e-01    4,749948084e-01    0,000000000e+00    0,000000000e+00    0,000000000e+00    0,000000000e+00
     1150000000   -6,748642772e-02   -1,310397089e-01    4,186839163e-01    3,093715906e-01    0,000000000e+00    0,000000000e+00    0,000000000e+00    0,000000000e+00
     1164000000   -1,335919499e-01   -1,511612982e-01    5,649337769e-01    2,739602514e-02    0,000000000e+00    0,000000000e+00    0,000000000e+00    0,000000000e+00
     1178000000   -2,096072435e-01   -1,208525226e-01    5,308032632e-01   -3,182823658e-01    0,000000000e+00    0,000000000e+00    0,000000000e+00    0,000000000e+00
     1192000000   -2,502450049e-01   -4,191287607e-02    2,951742411e-01   -5,973649621e-01    0,000000000e+00    0,000000000e+00    0,000000000e+00    0,000000000e+00
     1206000000   -2,306501120e-01    3,729982302e-02   -6,744001806e-02   -6,956247091e-01    0,000000000e+00    0,000000000e+00    0,000000000e+00    0,000000000e+00
     1220000000   -1,873092502e-01    8,648253232e-02   -4,172175527e-01   -5,791747570e-01    0,000000000e+00    0,000000000e+00    0,000000000e+00    0,000000000e+00
     1234000000   -1,275504529e-01    1,082659662e-01   -6,485796571e-01   -2,902889252e-01    0,000000000e+00    0,000000000e+00    0,000000000e+00    0,000000000e+00
     1248000000   -6,918974966e-02    9,630104899e-02   -6,794788837e-01    6,417440623e-02    0,000000000e+00    0,000000000e+00    0,000000000e+00    0,000000000e+00
     1262000000   -1,511828881e-02    6,010370329e-02   -5,200226307e-01    3,691229522e-01    0,000000000e+00    0,000000000e+00    0,000000000e+00    0,000000000e+00
     1276000000    2,247188240e-02   -4,155070987e-03   -2,452661693e-01    5,458303690e-01    0,000000000e+00    0,000000000e+00    0,000000000e+00    0,000000000e+00
     1290000000    2,548132464e-02   -8,746705204e-02    7,486796379e-02    5,737638474e-01    0,000000000e+00    0,000000000e+00    0,000000000e+00    0,000000000e+00
     1304000000   -2,589482628e-02   -1,678515822e-01    3,648754358e-01    4,677980840e-01    0,000000000e+00    0,000000000e+00    0,000000000e+00    0,000000000e+00
     1318000000   -1,340783089e-01   -2,112565041e-01    5,833618045e-01    2,246187925e-01    0,000000000e+00    0,000000000e+00    0,000000000e+00    0,000000000e+00
     1332000000   -2,501593232e-01   -1,905084103e-01    6,558867097e-01   -1,273826808e-01    0,000000000e+00    0,000000000e+00    0,000000000e+00    0,000000000e+00
     1346000000   -3,331225514e-01   -9,140010178e-02    5,022461414e-01   -4,673966169e-01    0,000000000e+00    0,000000000e+00    0,000000000e+00    0,000000000e+00
     1360000000   -3,366123736e-01    2,449712157e-02    1,895664483e-01   -6,440454125e-01    0,000000000e+00    0,000000000e+00    0,000000000e+00    0,000000000e+00
     1374000000   -2,818733752e-01    1,043983847e-01   -1,699760705e-01   -6,007004380e-01    0,000000000e+00    0,000000000e+00    0,000000000e+00    0,000000000e+00
     1388000000   -2,155728638e-01    1,395467520e-01   -4,009583294e-01   -3,788225353e-01    0,000000000e+00    0,000000000e+00    0,000000000e+00    0,000000000e+00
     1402000000   -1,526523530e-01    1,365254968e-01   -4,792140126e-01   -4,907405376e-02    0,000000000e+00    0,000000000e+00    0,000000000e+00    0,000000000e+00
     1416000000   -9,607828408e-02    1,163997874e-01   -3,761653602e-01    2,480933964e-01    0,000000000e+00    0,000000000e+00    0,000000000e+00    0,000000000e+00
     1430000000   -5,747716874e-02    7,340142131e-02   -1,281606853e-01    4,506632388e-01    0,000000000e+00    0,000000000e+00    0,000000000e+00    0,000000000e+00
     1444000000   -4,091764241e-02    9,450104088e-03    1,619980186e-01    5,358174443e-01    0,000000000e+00    0,000000000e+00    0,000000000e+00    0,000000000e+00
     1458000000   -6,645494699e-02   -7,499825954e-02    4,758148491e-01    4,763582349e-01    0,000000000e+00    0,000000000e+00    0,000000000e+00    0,000000000e+00
     1472000000   -1,396794468e-01   -1,257649362e-01    7,582047582e-01    2,533172071e-01    0,000000000e+00    0,000000000e+00    0,000000000e+00    0,000000000e+00
     1486000000   -2,291564941e-01   -1,109188050e-01    8,878499866e-01   -8,604619652e-02    0,000000000e+00    0,000000000e+00    0,000000000e+00    0,000000000e+00
     1500000000   -2,894956172e-01   -4,700411111e-02    8,176934123e-01   -4,388395250e-01    0,000000000e+00    0,000000000e+00    0,000000000e+00    0,000000000e+00
