! NanoVNA-App
! Date: 2025-09-25 15:06:42
! Start: 100MHz Stop: 1,5GHz Points: 101
! S-Parameter data: F S11 S21 S12 S22
# Hz S RI R 50
!     Frequency           S11_Real           S11_Imag           S21_Real           S21_Imag           S12_Real           S12_Imag           S22_Real           S22_Imag
      100000000    3,118158691e-02    2,865673229e-02    4,348494411e-01   -6,686576605e-01    0,000000000e+00    0,000000000e+00    0,000000000e+00    0,000000000e+00
      114000000    5,760049447e-02    5,510390271e-03    7,756488863e-03   -7,908540964e-01    0,000000000e+00    0,000000000e+00    0,000000000e+00    0,000000000e+00
      128000000    6,730486453e-02   -3,781001270e-02   -4,100759625e-01   -6,711088419e-01    0,000000000e+00    0,000000000e+00    0,000000000e+00    0,000000000e+00
      142000000    4,472149909e-02   -8,420321345e-02   -7,030077577e-01   -3,534034193e-01    0,000000000e+00    0,000000000e+00    0,000000000e+00    0,000000000e+00
      156000000   -5,444013979e-03   -1,068878248e-01   -7,873848677e-01    7,411330193e-02    0,000000000e+00    0,000000000e+00    0,000000000e+00    0,000000000e+00
      170000000   -5,760161951e-02   -9,067919105e-02   -6,276965737e-01    4,871023893e-01    0,000000000e+00    0,000000000e+00    0,000000000e+00    0,000000000e+00
      184000000   -8,366444707e-02   -4,946524277e-02   -2,650127709e-01    7,507451177e-01    0,000000000e+00    0,000000000e+00    0,000000000e+00    0,000000000e+00
      198000000   -7,964874059e-02   -1,046119630e-02    1,835019737e-01    7,729834318e-01    0,000000000e+00    0,000000000e+00    0,000000000e+00    0,000000000e+00
      212000000   -6,229937822e-02    1,316390932e-02    5,691781640e-01    5,492691398e-01    0,000000000e+00    0,000000000e+00    0,000000000e+00    0,000000000e+00
      226000000   -4,323156551e-02    2,763795108e-02    7,706665993e-01    1,544326544e-01    0,000000000e+00    0,000000000e+00    0,000000000e+00    0,000000000e+00
      240000000   -1,819727197e-02    3,848202154e-02    7,269039154e-01   -2,819844186e-01    0,000000000e+00    0,000000000e+00    0,000000000e+00    0,000000000e+00
      254000000    1,719706133e-02    3,518139571e-02    4,576102495e-01   -6,199711561e-01    0,000000000e+00    0,000000000e+00    0,000000000e+00    0,000000000e+00
      268000000    4,876998067e-02    5,573535338e-03    5,890798569e-02   -7,602204680e-01    0,000000000e+00    0,000000000e+00    0,000000000e+00    0,000000000e+00
      282000000    5,341040716e-02   -4,173733667e-02   -3,488791585e-01   -6,715834141e-01    0,000000000e+00    0,000000000e+00    0,000000000e+00    0,000000000e+00
      296000000    2,414978482e-02   -7,946848869e-02   -6,517383456e-01   -3,853846490e-01    0,000000000e+00    0,000000000e+00    0,000000000e+00    0,000000000e+00
      310000000   -1,790113375e-02   -8,297717571e-02   -7,633163333e-01    1,951112412e-02    0,000000000e+00    0,000000000e+00    0,000000000e+00    0,000000000e+00
      324000000   -4,168634489e-02   -5,874572694e-02   -6,320328712e-01    4,308560491e-01    0,000000000e+00    0,000000000e+00    0,000000000e+00    0,000000000e+00
      338000000   -3,401520848e-02   -3,696035594e-02   -2,969346046e-01    7,009418607e-01    0,000000000e+00    0,000000000e+00    0,000000000e+00    0,000000000e+00
      352000000   -1,711459644e-02   -4,087273031e-02    1,256133914e-01    7,421946526e-01    0,000000000e+00    0,000000000e+00    0,000000000e+00    0,000000000e+00
      366000000   -1,934243925e-02   -6,192369387e-02    4,985556006e-01    5,547733307e-01    0,000000000e+00    0,000000000e+00    0,000000000e+00    0,000000000e+00
      380000000   -4,435991496e-02   -7,291100919e-02    7,129755616e-01    1,997016221e-01    0,000000000e+00    0,000000000e+00    0,000000000e+00    0,000000000e+00
      394000000   -7,083643973e-02   -5,806701258e-02    7,049266696e-01   -2,164523154e-01    0,000000000e+00    0,000000000e+00    0,000000000e+00    0,000000000e+00
      408000000   -7,684843987e-02   -3,061822429e-02    4,702401757e-01   -5,602285266e-01    0,000000000e+00    0,000000000e+00    0,000000000e+00    0,000000000e+00
      422000000   -6,564914435e-02   -1,117632072e-02    9,356518835e-02   -7,173829675e-01    0,000000000e+00    0,000000000e+00    0,000000000e+00    0,000000000e+00
      436000000   -5,276396126e-02   -4,499442875e-03   -3,012531102e-01   -6,464811563e-01    0,000000000e+00    0,000000000e+00    0,000000000e+00    0,000000000e+00
      450000000   -4,470794648e-02    1,375861233e-03   -5,936506391e-01   -3,784813285e-01    0,000000000e+00    0,000000000e+00    0,000000000e+00    0,000000000e+00
      464000000   -2,935863659e-02    1,110494044e-02   -6,911600828e-01    1,211106064e-04    0,000000000e+00    0,000000000e+00    0,000000000e+00    0,000000000e+00
      478000000   -8,804617100e-04    1,105321106e-02   -5,733938813e-01    3,628540039e-01    0,000000000e+00    0,000000000e+00    0,000000000e+00    0,000000000e+00
      492000000    2,823475003e-02   -1,203727163e-02   -2,892322540e-01    6,018365622e-01    0,000000000e+00    0,000000000e+00    0,000000000e+00    0,000000000e+00
      506000000    3,675435856e-02   -5,620087683e-02    6,913866848e-02    6,583129168e-01    0,000000000e+00    0,000000000e+00    0,000000000e+00    0,000000000e+00
      520000000    1,255566254e-02   -9,881675988e-02    4,034441411e-01    5,243842602e-01    0,000000000e+00    0,000000000e+00    0,000000000e+00    0,000000000e+00
      534000000   -3,448133916e-02   -1,162042692e-01    6,240346432e-01    2,362396717e-01    0,000000000e+00    0,000000000e+00    0,000000000e+00    0,000000000e+00
      548000000   -7,722682506e-02   -9,906763583e-02    6,579537392e-01   -1,332619637e-01    0,000000000e+00    0,000000000e+00    0,000000000e+00    0,000000000e+00
      562000000   -9,333509952e-02   -6,654697657e-02    4,819716811e-01   -4,672442079e-01    0,000000000e+00    0,000000000e+00    0,000000000e+00    0,000000000e+00
      576000000   -8,649518341e-02   -4,445318505e-02    1,502635628e-01   -6,478909254e-01    0,000000000e+00    0,000000000e+00    0,000000000e+00    0,000000000e+00
      590000000   -8,077902347e-02   -4,163470864e-02   -2,210342288e-01   -6,268741488e-01    0,000000000e+00    0,000000000e+00    0,000000000e+00    0,000000000e+00
      604000000   -8,913689852e-02   -3,750899807e-02   -5,204599500e-01   -4,067142308e-01    0,000000000e+00    0,000000000e+00    0,000000000e+00    0,000000000e+00
      618000000   -9,628757089e-02   -1,472321060e-02   -6,529821157e-01   -5,804072320e-02    0,000000000e+00    0,000000000e+00    0,000000000e+00    0,000000000e+00
      632000000   -8,113890141e-02    1,550383028e-02   -5,750145316e-01    3,029229939e-01    0,000000000e+00    0,000000000e+00    0,000000000e+00    0,000000000e+00
      646000000   -4,218097404e-02    2,585253306e-02   -3,179842234e-01    5,559016466e-01    0,000000000e+00    0,000000000e+00    0,000000000e+00    0,000000000e+00
      660000000   -7,716384251e-03    5,492641125e-03    2,118061297e-02    6,278055906e-01    0,000000000e+00    0,000000000e+00    0,000000000e+00    0,000000000e+00
      674000000    1,435722341e-03   -3,030354902e-02    3,426321149e-01    5,194208622e-01    0,000000000e+00    0,000000000e+00    0,000000000e+00    0,000000000e+00
      688000000   -1,561989356e-02   -5,570734665e-02    5,586333871e-01    2,586761415e-01    0,000000000e+00    0,000000000e+00    0,000000000e+00    0,000000000e+00
      702000000   -3,295214847e-02   -5,978775769e-02    6,037918329e-01   -8,211115748e-02    0,000000000e+00    0,000000000e+00    0,000000000e+00    0,000000000e+00
      716000000   -3,772278875e-02   -5,534439906e-02    4,594140351e-01   -3,900063634e-01    0,000000000e+00    0,000000000e+00    0,000000000e+00    0,000000000e+00
      730000000   -3,237644210e-02   -6,575769931e-02    1,749951094e-01   -5,659363270e-01    0,000000000e+00    0,000000000e+00    0,000000000e+00    0,000000000e+00
      744000000   -3,986922279e-02   -8,884202689e-02   -1,519640982e-01   -5,637533665e-01    0,000000000e+00    0,000000000e+00    0,000000000e+00    0,000000000e+00
      758000000   -7,169268280e-02   -1,053063795e-01   -4,268588424e-01   -3,945817947e-01    0,000000000e+00    0,000000000e+00    0,000000000e+00    0,000000000e+00
      772000000   -1,145777032e-01   -9,402945638e-02   -5,744514465e-01   -1,055556759e-01    0,000000000e+00    0,000000000e+00    0,000000000e+00    0,000000000e+00
      786000000   -1,386011392e-01   -5,537455529e-02   -5,450988412e-01    2,204383910e-01    0,000000000e+00    0,000000000e+00    0,000000000e+00    0,000000000e+00
      800000000   -1,323505640e-01   -1,527376752e-02   -3,428104222e-01    4,798940718e-01    0,000000000e+00    0,000000000e+00    0,000000000e+00    0,000000000e+00
      814000000   -1,078180820e-01    8,740066551e-03   -3,449760005e-02    5,862711072e-01    0,000000000e+00    0,000000000e+00    0,000000000e+00    0,000000000e+00
      828000000   -8,574076742e-02    1,384359505e-02    2,798658013e-01    5,142122507e-01    0,000000000e+00    0,000000000e+00    0,000000000e+00    0,000000000e+00
      842000000   -6,995651871e-02    1,476328354e-02    5,030530095e-01    2,897516787e-01    0,000000000e+00    0,000000000e+00    0,000000000e+00    0,000000000e+00
      856000000   -5,200031027e-02    1,882842369e-02    5,710390806e-01   -1,803421602e-02    0,000000000e+00    0,000000000e+00    0,000000000e+00    0,000000000e+00
      870000000   -2,341235988e-02    1,417281106e-02    4,628565609e-01   -3,060970604e-01    0,000000000e+00    0,000000000e+00    0,000000000e+00    0,000000000e+00
      884000000    5,719385576e-03   -1,481658779e-02    2,309743166e-01   -4,881544113e-01    0,000000000e+00    0,000000000e+00    0,000000000e+00    0,000000000e+00
      898000000    1,190268062e-02   -6,368729472e-02   -5,275788531e-02   -5,262730718e-01    0,000000000e+00    0,000000000e+00    0,000000000e+00    0,000000000e+00
      912000000   -2,364705317e-02   -1,078625917e-01   -3,671131134e-01   -4,090615213e-01    0,000000000e+00    0,000000000e+00    0,000000000e+00    0,000000000e+00
      926000000   -7,659988105e-02   -1,221599132e-01   -5,328231454e-01   -1,577521712e-01    0,000000000e+00    0,000000000e+00    0,000000000e+00    0,000000000e+00
      940000000   -1,253693998e-01   -1,017581448e-01   -5,534965396e-01    1,557716727e-01    0,000000000e+00    0,000000000e+00    0,000000000e+00    0,000000000e+00
      954000000   -1,418387145e-01   -5,904094130e-02   -3,910305798e-01    4,467202723e-01    0,000000000e+00    0,000000000e+00    0,000000000e+00    0,000000000e+00
      968000000   -1,336092949e-01   -2,591631562e-02   -9,272729605e-02    6,028061509e-01    0,000000000e+00    0,000000000e+00    0,000000000e+00    0,000000000e+00
      982000000   -1,178348660e-01   -1,731827483e-02    2,467791885e-01    5,703770518e-01    0,000000000e+00    0,000000000e+00    0,000000000e+00    0,000000000e+00
      996000000   -1,063773036e-01   -1,150870137e-02    5,140661001e-01    3,659693897e-01    0,000000000e+00    0,000000000e+00    0,000000000e+00    0,000000000e+00
     1010000000   -1,012340412e-01   -9,957445785e-03    6,286240220e-01    5,297035724e-02    0,000000000e+00    0,000000000e+00    0,000000000e+00    0,000000000e+00
     1024000000   -9,004469216e-02   -5,312684807e-04    5,625652075e-01   -2,716518939e-01    0,000000000e+00    0,000000000e+00    0,000000000e+00    0,000000000e+00
     1038000000   -7,503436506e-02    8,723258507e-04    3,390300572e-01   -5,013222098e-01    0,000000000e+00    0,000000000e+00    0,000000000e+00    0,000000000e+00
     1052000000   -6,390091032e-02   -1,708628051e-02    2,972373366e-02   -5,841219425e-01    0,000000000e+00    0,000000000e+00    0,000000000e+00    0,000000000e+00
     1066000000   -7,204702497e-02   -3,154712543e-02   -2,655091882e-01   -5,008383989e-01    0,000000000e+00    0,000000000e+00    0,000000000e+00    0,000000000e+00
     1080000000   -8,062621206e-02   -2,773576789e-02   -4,796999693e-01   -2,697571814e-01    0,000000000e+00    0,000000000e+00    0,000000000e+00    0,000000000e+00
     1094000000   -8,315165341e-02   -1,393764652e-02   -5,304365158e-01    4,013768956e-02    0,000000000e+00    0,000000000e+00    0,000000000e+00    0,000000000e+00
     1108000000   -5,545092374e-02   -1,292614266e-02   -3,979832232e-01    3,270791471e-01    0,000000000e+00    0,000000000e+00    0,000000000e+00    0,000000000e+00
     1122000000   -3,478105739e-02   -3,800133243e-02   -1,355509162e-01    4,845634103e-01    0,000000000e+00    0,000000000e+00    0,000000000e+00    0,000000000e+00
     1136000000   -2,676294744e-02   -8,840986341e-02    1,628594846e-01    4,726594090e-01    0,000000000e+00    0,000000000e+00    0,000000000e+00    0,000000000e+00
     1150000000   -6,348886341e-02   -1,336028874e-01    4,193580747e-01    3,111361265e-01    0,000000000e+00    0,000000000e+00    0,000000000e+00    0,000000000e+00
     1164000000   -1,352210641e-01   -1,493057758e-01    5,633137226e-01    2,634456940e-02    0,000000000e+00    0,000000000e+00    0,000000000e+00    0,000000000e+00
     1178000000   -2,099307626e-01   -1,215999946e-01    5,282113552e-01   -3,184771240e-01    0,000000000e+00    0,000000000e+00    0,000000000e+00    0,000000000e+00
     1192000000   -2,505739629e-01   -4,265082255e-02    2,999027669e-01   -5,968242884e-01    0,000000000e+00    0,000000000e+00    0,000000000e+00    0,000000000e+00
     1206000000   -2,327420861e-01    3,748719394e-02   -6,581018865e-02   -6,958145499e-01    0,000000000e+00    0,000000000e+00    0,000000000e+00    0,000000000e+00
     1220000000   -1,880850345e-01    8,616005629e-02   -4,215449393e-01   -5,770279169e-01    0,000000000e+00    0,000000000e+00    0,000000000e+00    0,000000000e+00
     1234000000   -1,267848313e-01    1,069211289e-01   -6,442229152e-01   -2,923977077e-01    0,000000000e+00    0,000000000e+00    0,000000000e+00    0,000000000e+00
     1248000000   -6,430832297e-02    9,922455251e-02   -6,740847826e-01    6,786118448e-02    0,000000000e+00    0,000000000e+00    0,000000000e+00    0,000000000e+00
     1262000000   -1,199424732e-02    6,089733914e-02   -5,168957114e-01    3,651032746e-01    0,000000000e+00    0,000000000e+00    0,000000000e+00    0,000000000e+00
     1276000000    2,654676884e-02   -3,087872639e-03   -2,404033244e-01    5,469872355e-01    0,000000000e+00    0,000000000e+00    0,000000000e+00    0,000000000e+00
     1290000000    2,177272364e-02   -8,877642453e-02    6,764762849e-02    5,771719217e-01    0,000000000e+00    0,000000000e+00    0,000000000e+00    0,000000000e+00
     1304000000   -3,065386042e-02   -1,724344343e-01    3,681667447e-01    4,607422948e-01    0,000000000e+00    0,000000000e+00    0,000000000e+00    0,000000000e+00
     1318000000   -1,347261220e-01   -2,153292298e-01    5,870508552e-01    2,193406522e-01    0,000000000e+00    0,000000000e+00    0,000000000e+00    0,000000000e+00
     1332000000   -2,519063354e-01   -1,900729537e-01    6,603778005e-01   -1,263763905e-01    0,000000000e+00    0,000000000e+00    0,000000000e+00    0,000000000e+00
     1346000000   -3,294362426e-01   -9,294334054e-02    5,107421279e-01   -4,657510221e-01    0,000000000e+00    0,000000000e+00    0,000000000e+00    0,000000000e+00
     1360000000   -3,302719891e-01    2,986734547e-02    1,925064772e-01   -6,396428943e-01    0,000000000e+00    0,000000000e+00    0,000000000e+00    0,000000000e+00
     1374000000   -2,812242806e-01    1,030942127e-01   -1,633902788e-01   -5,955280066e-01    0,000000000e+00    0,000000000e+00    0,000000000e+00    0,000000000e+00
     1388000000   -2,101368755e-01    1,361097246e-01   -4,013941288e-01   -3,765896261e-01    0,000000000e+00    0,000000000e+00    0,000000000e+00    0,000000000e+00
     1402000000   -1,505289227e-01    1,342597157e-01   -4,850807786e-01   -6,486605108e-02    0,000000000e+00    0,000000000e+00    0,000000000e+00    0,000000000e+00
     1416000000   -9,458570182e-02    1,197383553e-01   -3,750950992e-01    2,488862276e-01    0,000000000e+00    0,000000000e+00    0,000000000e+00    0,000000000e+00
     1430000000   -4,792736098e-02    7,205194235e-02   -1,475201994e-01    4,377851784e-01    0,000000000e+00    0,000000000e+00    0,000000000e+00    0,000000000e+00
     1444000000   -3,984433040e-02    5,398025271e-03    1,489714831e-01    5,429703593e-01    0,000000000e+00    0,000000000e+00    0,000000000e+00    0,000000000e+00
     1458000000   -6,258818507e-02   -7,468889654e-02    4,905275702e-01    4,756283760e-01    0,000000000e+00    0,000000000e+00    0,000000000e+00    0,000000000e+00
     1472000000   -1,404836476e-01   -1,217650697e-01    7,566971183e-01    2,724781930e-01    0,000000000e+00    0,000000000e+00    0,000000000e+00    0,000000000e+00
     1486000000   -2,303406298e-01   -1,145047918e-01    8,800270557e-01   -8,217012137e-02    0,000000000e+00    0,000000000e+00    0,000000000e+00    0,000000000e+00
     1500000000   -2,843379974e-01   -4,556517676e-02    8,081269264e-01   -4,451549053e-01    0,000000000e+00    0,000000000e+00    0,000000000e+00    0,000000000e+00
