! NanoVNA-App
! Date: 2025-09-25 15:07:34
! Start: 100MHz Stop: 1,5GHz Points: 101
! S-Parameter data: F S11 S21 S12 S22
# Hz S RI R 50
!     Frequency           S11_Real           S11_Imag           S21_Real           S21_Imag           S12_Real           S12_Imag           S22_Real           S22_Imag
      100000000    3,116877936e-02    2,865484729e-02    4,348172247e-01   -6,686408520e-01    0,000000000e+00    0,000000000e+00    0,000000000e+00    0,000000000e+00
      114000000    5,758834630e-02    5,496351048e-03    7,615836803e-03   -7,908403873e-01    0,000000000e+00    0,000000000e+00    0,000000000e+00    0,000000000e+00
      128000000    6,727712601e-02   -3,780585900e-02   -4,101478159e-01   -6,708848476e-01    0,000000000e+00    0,000000000e+00    0,000000000e+00    0,000000000e+00
      142000000    4,474898055e-02   -8,425370604e-02   -7,029938102e-01   -3,532654047e-01    0,000000000e+00    0,000000000e+00    0,000000000e+00    0,000000000e+00
      156000000   -6,293191575e-03   -1,060781255e-01   -7,855309248e-01    7,292867452e-02    0,000000000e+00    0,000000000e+00    0,000000000e+00    0,000000000e+00
      170000000   -5,763799325e-02   -9,058444202e-02   -6,275645494e-01    4,867685437e-01    0,000000000e+00    0,000000000e+00    0,000000000e+00    0,000000000e+00
      184000000   -8,368680626e-02   -4,945326224e-02   -2,650632560e-01    7,512111664e-01    0,000000000e+00    0,000000000e+00    0,000000000e+00    0,000000000e+00
      198000000   -7,965225726e-02   -1,044448279e-02    1,832745373e-01    7,731826901e-01    0,000000000e+00    0,000000000e+00    0,000000000e+00    0,000000000e+00
      212000000   -6,226927787e-02    1,314681489e-02    5,691203475e-01    5,492102504e-01    0,000000000e+00    0,000000000e+00    0,000000000e+00    0,000000000e+00
      226000000   -4,332088679e-02    2,767442539e-02    7,707626224e-01    1,545518339e-01    0,000000000e+00    0,000000000e+00    0,000000000e+00    0,000000000e+00
      240000000   -1,824836247e-02    3,847564012e-02    7,267650366e-01   -2,819845378e-01    0,000000000e+00    0,000000000e+00    0,000000000e+00    0,000000000e+00
      254000000    1,722093299e-02    3,520627320e-02    4,581151903e-01   -6,201463342e-01    0,000000000e+00    0,000000000e+00    0,000000000e+00    0,000000000e+00
      268000000    4,876001552e-02    5,560888909e-03    5,856208503e-02   -7,604796886e-01    0,000000000e+00    0,000000000e+00    0,000000000e+00    0,000000000e+00
      282000000    5,343943462e-02   -4,173454270e-02   -3,493855596e-01   -6,717525721e-01    0,000000000e+00    0,000000000e+00    0,000000000e+00    0,000000000e+00
      296000000    2,407611720e-02   -7,965423167e-02   -6,519171000e-01   -3,850785494e-01    0,000000000e+00    0,000000000e+00    0,000000000e+00    0,000000000e+00
      310000000   -1,790769771e-02   -8,305093646e-02   -7,631685734e-01    2,111970261e-02    0,000000000e+00    0,000000000e+00    0,000000000e+00    0,000000000e+00
      324000000   -4,175723717e-02   -5,900717154e-02   -6,326975822e-01    4,305556118e-01    0,000000000e+00    0,000000000e+00    0,000000000e+00    0,000000000e+00
      338000000   -3,437640890e-02   -3,687076643e-02   -2,941001058e-01    7,005431056e-01    0,000000000e+00    0,000000000e+00    0,000000000e+00    0,000000000e+00
      352000000   -1,735318266e-02   -4,061757028e-02    1,247614250e-01    7,419785261e-01    0,000000000e+00    0,000000000e+00    0,000000000e+00    0,000000000e+00
      366000000   -1,908780076e-02   -6,175617874e-02    4,978972971e-01    5,554538369e-01    0,000000000e+00    0,000000000e+00    0,000000000e+00    0,000000000e+00
      380000000   -4,446130618e-02   -7,280810922e-02    7,131260037e-01    1,995223463e-01    0,000000000e+00    0,000000000e+00    0,000000000e+00    0,000000000e+00
      394000000   -7,089650631e-02   -5,783752352e-02    7,042604685e-01   -2,165225893e-01    0,000000000e+00    0,000000000e+00    0,000000000e+00    0,000000000e+00
      408000000   -7,695457339e-02   -3,055244498e-02    4,708960950e-01   -5,600624681e-01    0,000000000e+00    0,000000000e+00    0,000000000e+00    0,000000000e+00
      422000000   -6,552474946e-02   -1,139167883e-02    9,266933054e-02   -7,179251909e-01    0,000000000e+00    0,000000000e+00    0,000000000e+00    0,000000000e+00
      436000000   -5,281314999e-02   -4,693688825e-03   -3,025479019e-01   -6,476266980e-01    0,000000000e+00    0,000000000e+00    0,000000000e+00    0,000000000e+00
      450000000   -4,472857714e-02    1,894218614e-03   -5,933096409e-01   -3,784709275e-01    0,000000000e+00    0,000000000e+00    0,000000000e+00    0,000000000e+00
      464000000   -2,953101322e-02    1,104549412e-02   -6,909891963e-01   -2,817407076e-04    0,000000000e+00    0,000000000e+00    0,000000000e+00    0,000000000e+00
      478000000   -9,140563780e-04    1,106050797e-02   -5,732703209e-01    3,636309803e-01    0,000000000e+00    0,000000000e+00    0,000000000e+00    0,000000000e+00
      492000000    2,814430371e-02   -1,215772144e-02   -2,891830802e-01    6,022601724e-01    0,000000000e+00    0,000000000e+00    0,000000000e+00    0,000000000e+00
      506000000    3,625126183e-02   -5,585968122e-02    6,914311647e-02    6,585850716e-01    0,000000000e+00    0,000000000e+00    0,000000000e+00    0,000000000e+00
      520000000    1,319301687e-02   -9,891879559e-02    4,017782807e-01    5,254268050e-01    0,000000000e+00    0,000000000e+00    0,000000000e+00    0,000000000e+00
      534000000   -3,454034030e-02   -1,157922223e-01    6,236129403e-01    2,362567037e-01    0,000000000e+00    0,000000000e+00    0,000000000e+00    0,000000000e+00
      548000000   -7,761046290e-02   -9,928773344e-02    6,577870846e-01   -1,338869035e-01    0,000000000e+00    0,000000000e+00    0,000000000e+00    0,000000000e+00
      562000000   -9,318576753e-02   -6,630019099e-02    4,820230007e-01   -4,664439559e-01    0,000000000e+00    0,000000000e+00    0,000000000e+00    0,000000000e+00
      576000000   -8,593219519e-02   -4,462208226e-02    1,507318765e-01   -6,480658650e-01    0,000000000e+00    0,000000000e+00    0,000000000e+00    0,000000000e+00
      590000000   -8,062152565e-02   -4,166525230e-02   -2,179433852e-01   -6,256712675e-01    0,000000000e+00    0,000000000e+00    0,000000000e+00    0,000000000e+00
      604000000   -8,878292888e-02   -3,765422478e-02   -5,195391178e-01   -4,058853686e-01    0,000000000e+00    0,000000000e+00    0,000000000e+00    0,000000000e+00
      618000000   -9,698285162e-02   -1,483065635e-02   -6,532136798e-01   -5,816134810e-02    0,000000000e+00    0,000000000e+00    0,000000000e+00    0,000000000e+00
      632000000   -8,141290396e-02    1,529697422e-02   -5,753115416e-01    3,031466901e-01    0,000000000e+00    0,000000000e+00    0,000000000e+00    0,000000000e+00
      646000000   -4,317477345e-02    2,621527761e-02   -3,180089295e-01    5,558176637e-01    0,000000000e+00    0,000000000e+00    0,000000000e+00    0,000000000e+00
      660000000   -7,934570312e-03    6,525187287e-03    2,153099142e-02    6,296674013e-01    0,000000000e+00    0,000000000e+00    0,000000000e+00    0,000000000e+00
      674000000    9,708622820e-04   -2,982161008e-02    3,427051604e-01    5,188078880e-01    0,000000000e+00    0,000000000e+00    0,000000000e+00    0,000000000e+00
      688000000   -1,427950617e-02   -5,561959371e-02    5,585787296e-01    2,582289875e-01    0,000000000e+00    0,000000000e+00    0,000000000e+00    0,000000000e+00
      702000000   -3,243262321e-02   -5,954449996e-02    6,043011546e-01   -8,273468912e-02    0,000000000e+00    0,000000000e+00    0,000000000e+00    0,000000000e+00
      716000000   -3,670269251e-02   -5,520410836e-02    4,602610469e-01   -3,898797631e-01    0,000000000e+00    0,000000000e+00    0,000000000e+00    0,000000000e+00
      730000000   -3,129554167e-02   -6,565216184e-02    1,743016690e-01   -5,661013126e-01    0,000000000e+00    0,000000000e+00    0,000000000e+00    0,000000000e+00
      744000000   -4,087734595e-02   -8,827795833e-02   -1,524232328e-01   -5,634893179e-01    0,000000000e+00    0,000000000e+00    0,000000000e+00    0,000000000e+00
      758000000   -7,189235836e-02   -1,040990129e-01   -4,277489781e-01   -3,944871128e-01    0,000000000e+00    0,000000000e+00    0,000000000e+00    0,000000000e+00
      772000000   -1,138667017e-01   -9,319084138e-02   -5,751135349e-01   -1,059237793e-01    0,000000000e+00    0,000000000e+00    0,000000000e+00    0,000000000e+00
      786000000   -1,394225657e-01   -5,560206622e-02   -5,446987748e-01    2,207727581e-01    0,000000000e+00    0,000000000e+00    0,000000000e+00    0,000000000e+00
      800000000   -1,332047582e-01   -1,433622930e-02   -3,414762914e-01    4,792850018e-01    0,000000000e+00    0,000000000e+00    0,000000000e+00    0,000000000e+00
      814000000   -1,087127775e-01    8,416730911e-03   -3,287502378e-02    5,867137909e-01    0,000000000e+00    0,000000000e+00    0,000000000e+00    0,000000000e+00
      828000000   -8,553062379e-02    1,280561369e-02    2,780527771e-01    5,137518644e-01    0,000000000e+00    0,000000000e+00    0,000000000e+00    0,000000000e+00
      842000000   -7,014746964e-02    1,463663485e-02    5,027473569e-01    2,897244990e-01    0,000000000e+00    0,000000000e+00    0,000000000e+00    0,000000000e+00
      856000000   -5,286899582e-02    1,882885955e-02    5,706959367e-01   -1,763585769e-02    0,000000000e+00    0,000000000e+00    0,000000000e+00    0,000000000e+00
      870000000   -2,285827324e-02    1,400837209e-02    4,635526538e-01   -3,067705035e-01    0,000000000e+00    0,000000000e+00    0,000000000e+00    0,000000000e+00
      884000000    6,384250708e-03   -1,449458301e-02    2,300661504e-01   -4,888973236e-01    0,000000000e+00    0,000000000e+00    0,000000000e+00    0,000000000e+00
      898000000    1,163018774e-02   -6,349259615e-02   -5,245716870e-02   -5,257354379e-01    0,000000000e+00    0,000000000e+00    0,000000000e+00    0,000000000e+00
      912000000   -2,429338358e-02   -1,071129963e-01   -3,591182232e-01   -4,113365114e-01    0,000000000e+00    0,000000000e+00    0,000000000e+00    0,000000000e+00
      926000000   -7,313155383e-02   -1,236902475e-01   -5,287069082e-01   -1,591685265e-01    0,000000000e+00    0,000000000e+00    0,000000000e+00    0,000000000e+00
      940000000   -1,242217720e-01   -1,047907323e-01   -5,538241267e-01    1,551422030e-01    0,000000000e+00    0,000000000e+00    0,000000000e+00    0,000000000e+00
      954000000   -1,395993829e-01   -6,192830577e-02   -3,912003040e-01    4,449807107e-01    0,000000000e+00    0,000000000e+00    0,000000000e+00    0,000000000e+00
      968000000   -1,340561807e-01   -2,809350751e-02   -9,313441068e-02    6,018247008e-01    0,000000000e+00    0,000000000e+00    0,000000000e+00    0,000000000e+00
      982000000   -1,119781658e-01   -1,458434574e-02    2,438045591e-01    5,723161101e-01    0,000000000e+00    0,000000000e+00    0,000000000e+00    0,000000000e+00
      996000000   -1,083267629e-01   -1,156917959e-02    5,128110051e-01    3,671812713e-01    0,000000000e+00    0,000000000e+00    0,000000000e+00    0,000000000e+00
     1010000000   -1,012187675e-01   -8,180681616e-03    6,292830110e-01    5,345434323e-02    0,000000000e+00    0,000000000e+00    0,000000000e+00    0,000000000e+00
     1024000000   -9,019081295e-02    2,237342065e-03    5,609769821e-01   -2,715929747e-01    0,000000000e+00    0,000000000e+00    0,000000000e+00    0,000000000e+00
     1038000000   -7,590791583e-02    1,509570400e-03    3,383043706e-01   -5,041446686e-01    0,000000000e+00    0,000000000e+00    0,000000000e+00    0,000000000e+00
     1052000000   -6,256365031e-02   -1,361415256e-02    3,301044554e-02   -5,878646970e-01    0,000000000e+00    0,000000000e+00    0,000000000e+00    0,000000000e+00
     1066000000   -7,207386196e-02   -3,220626339e-02   -2,692901790e-01   -5,050680637e-01    0,000000000e+00    0,000000000e+00    0,000000000e+00    0,000000000e+00
     1080000000   -8,188586682e-02   -3,296221420e-02   -4,808610678e-01   -2,685597241e-01    0,000000000e+00    0,000000000e+00    0,000000000e+00    0,000000000e+00
     1094000000   -7,765294611e-02   -1,774622872e-02   -5,327267051e-01    4,296257719e-02    0,000000000e+00    0,000000000e+00    0,000000000e+00    0,000000000e+00
     1108000000   -5,897459760e-02   -8,748884313e-03   -3,982684016e-01    3,259778917e-01    0,000000000e+00    0,000000000e+00    0,000000000e+00    0,000000000e+00
     1122000000   -3,398159519e-02   -3,385905549e-02   -1,361590624e-01    4,819364548e-01    0,000000000e+00    0,000000000e+00    0,000000000e+00    0,000000000e+00
     1136000000   -3,014283627e-02   -8,832245320e-02    1,610820889e-01    4,757094085e-01    0,000000000e+00    0,000000000e+00    0,000000000e+00    0,000000000e+00
     1150000000   -6,538361311e-02   -1,385105699e-01    4,172961414e-01    3,116931319e-01    0,000000000e+00    0,000000000e+00    0,000000000e+00    0,000000000e+00
     1164000000   -1,411084831e-01   -1,534273624e-01    5,655589104e-01    2,814667858e-02    0,000000000e+00    0,000000000e+00    0,000000000e+00    0,000000000e+00
     1178000000   -2,104066908e-01   -1,214965805e-01    5,317779183e-01   -3,153746128e-01    0,000000000e+00    0,000000000e+00    0,000000000e+00    0,000000000e+00
     1192000000   -2,520398200e-01   -4,554778337e-02    2,965010107e-01   -6,024837494e-01    0,000000000e+00    0,000000000e+00    0,000000000e+00    0,000000000e+00
     1206000000   -2,339347601e-01    2,959644608e-02   -6,710550934e-02   -6,983343363e-01    0,000000000e+00    0,000000000e+00    0,000000000e+00    0,000000000e+00
     1220000000   -1,875185519e-01    8,663831651e-02   -4,200892150e-01   -5,802928805e-01    0,000000000e+00    0,000000000e+00    0,000000000e+00    0,000000000e+00
     1234000000   -1,226352155e-01    1,046155021e-01   -6,426479220e-01   -2,934534848e-01    0,000000000e+00    0,000000000e+00    0,000000000e+00    0,000000000e+00
     1248000000   -6,820607930e-02    9,742792696e-02   -6,811296344e-01    6,478466839e-02    0,000000000e+00    0,000000000e+00    0,000000000e+00    0,000000000e+00
     1262000000   -9,316532873e-03    6,168854982e-02   -5,157663226e-01    3,711043596e-01    0,000000000e+00    0,000000000e+00    0,000000000e+00    0,000000000e+00
     1276000000    2,350368723e-02   -6,234253524e-04   -2,426869869e-01    5,466374755e-01    0,000000000e+00    0,000000000e+00    0,000000000e+00    0,000000000e+00
     1290000000    2,416804060e-02   -9,053443372e-02    6,837873161e-02    5,744615197e-01    0,000000000e+00    0,000000000e+00    0,000000000e+00    0,000000000e+00
     1304000000   -3,375255689e-02   -1,711767614e-01    3,628389239e-01    4,629267454e-01    0,000000000e+00    0,000000000e+00    0,000000000e+00    0,000000000e+00
     1318000000   -1,361419111e-01   -2,121875286e-01    5,873122215e-01    2,221537530e-01    0,000000000e+00    0,000000000e+00    0,000000000e+00    0,000000000e+00
     1332000000   -2,504285872e-01   -1,884774417e-01    6,599431634e-01   -1,282020956e-01    0,000000000e+00    0,000000000e+00    0,000000000e+00    0,000000000e+00
     1346000000   -3,294273019e-01   -8,736889809e-02    5,109033585e-01   -4,600222707e-01    0,000000000e+00    0,000000000e+00    0,000000000e+00    0,000000000e+00
     1360000000   -3,352129161e-01    2,494347468e-02    1,909048557e-01   -6,427050829e-01    0,000000000e+00    0,000000000e+00    0,000000000e+00    0,000000000e+00
     1374000000   -2,799635530e-01    9,819163382e-02   -1,526498944e-01   -6,061158180e-01    0,000000000e+00    0,000000000e+00    0,000000000e+00    0,000000000e+00
     1388000000   -2,115836591e-01    1,353844106e-01   -4,009510577e-01   -3,758237362e-01    0,000000000e+00    0,000000000e+00    0,000000000e+00    0,000000000e+00
     1402000000   -1,519488841e-01    1,427434385e-01   -4,829464853e-01   -6,030837819e-02    0,000000000e+00    0,000000000e+00    0,000000000e+00    0,000000000e+00
     1416000000   -1,064345017e-01    1,204274669e-01   -3,850699067e-01    2,518386543e-01    0,000000000e+00    0,000000000e+00    0,000000000e+00    0,000000000e+00
     1430000000   -5,551565439e-02    6,923695654e-02   -1,486098468e-01    4,396029711e-01    0,000000000e+00    0,000000000e+00    0,000000000e+00    0,000000000e+00
     1444000000   -3,594604507e-02    3,145517781e-03    1,729563326e-01    5,296782255e-01    0,000000000e+00    0,000000000e+00    0,000000000e+00    0,000000000e+00
     1458000000   -6,953929365e-02   -7,094122469e-02    4,866074324e-01    4,775848687e-01    0,000000000e+00    0,000000000e+00    0,000000000e+00    0,000000000e+00
     1472000000   -1,326443404e-01   -1,300860941e-01    7,662644982e-01    2,558722496e-01    0,000000000e+00    0,000000000e+00    0,000000000e+00    0,000000000e+00
     1486000000   -2,273118198e-01   -1,144632623e-01    8,889255524e-01   -7,699008286e-02    0,000000000e+00    0,000000000e+00    0,000000000e+00    0,000000000e+00
     1500000000   -2,865425944e-01   -5,363599956e-02    7,960095406e-01   -4,614437222e-01    0,000000000e+00    0,000000000e+00    0,000000000e+00    0,000000000e+00
