! NanoVNA-App
! Date: 2025-09-25 15:05:07
! Start: 100MHz Stop: 1,5GHz Points: 101
! S-Parameter data: F S11 S21 S12 S22
# Hz S RI R 50
!     Frequency           S11_Real           S11_Imag           S21_Real           S21_Imag           S12_Real           S12_Imag           S22_Real           S22_Imag
      100000000    3,110977635e-02    2,861884050e-02    4,347986579e-01   -6,686987281e-01    0,000000000e+00    0,000000000e+00    0,000000000e+00    0,000000000e+00
      114000000    5,752162263e-02    5,497057922e-03    7,575306110e-03   -7,910444140e-01    0,000000000e+00    0,000000000e+00    0,000000000e+00    0,000000000e+00
      128000000    6,721381098e-02   -3,778703883e-02   -4,103157222e-01   -6,711091399e-01    0,000000000e+00    0,000000000e+00    0,000000000e+00    0,000000000e+00
      142000000    4,466980323e-02   -8,413024992e-02   -7,030268312e-01   -3,532592058e-01    0,000000000e+00    0,000000000e+00    0,000000000e+00    0,000000000e+00
      156000000   -5,540688056e-03   -1,067942157e-01   -7,872048616e-01    7,421095669e-02    0,000000000e+00    0,000000000e+00    0,000000000e+00    0,000000000e+00
      170000000   -5,763252452e-02   -9,051623195e-02   -6,274670959e-01    4,869625866e-01    0,000000000e+00    0,000000000e+00    0,000000000e+00    0,000000000e+00
      184000000   -8,361320943e-02   -4,944135994e-02   -2,646732032e-01    7,509261370e-01    0,000000000e+00    0,000000000e+00    0,000000000e+00    0,000000000e+00
      198000000   -7,954043150e-02   -1,048058830e-02    1,835436523e-01    7,732167840e-01    0,000000000e+00    0,000000000e+00    0,000000000e+00    0,000000000e+00
      212000000   -6,225513294e-02    1,313016657e-02    5,692135096e-01    5,490068793e-01    0,000000000e+00    0,000000000e+00    0,000000000e+00    0,000000000e+00
      226000000   -4,328097403e-02    2,761298418e-02    7,708159089e-01    1,544465423e-01    0,000000000e+00    0,000000000e+00    0,000000000e+00    0,000000000e+00
      240000000   -1,822076179e-02    3,840947896e-02    7,268272638e-01   -2,820341885e-01    0,000000000e+00    0,000000000e+00    0,000000000e+00    0,000000000e+00
      254000000    1,711096056e-02    3,509417176e-02    4,576273859e-01   -6,203064322e-01    0,000000000e+00    0,000000000e+00    0,000000000e+00    0,000000000e+00
      268000000    4,867406934e-02    5,546875764e-03    5,856711790e-02   -7,603965998e-01    0,000000000e+00    0,000000000e+00    0,000000000e+00    0,000000000e+00
      282000000    5,343525484e-02   -4,178011045e-02   -3,494382799e-01   -6,712146997e-01    0,000000000e+00    0,000000000e+00    0,000000000e+00    0,000000000e+00
      296000000    2,387545072e-02   -7,940252870e-02   -6,518244147e-01   -3,850933611e-01    0,000000000e+00    0,000000000e+00    0,000000000e+00    0,000000000e+00
      310000000   -1,787310466e-02   -8,303024620e-02   -7,643194199e-01    2,068582363e-02    0,000000000e+00    0,000000000e+00    0,000000000e+00    0,000000000e+00
      324000000   -4,171423614e-02   -5,848338827e-02   -6,319556832e-01    4,311700463e-01    0,000000000e+00    0,000000000e+00    0,000000000e+00    0,000000000e+00
      338000000   -3,400684893e-02   -3,696704656e-02   -2,965323329e-01    6,990163326e-01    0,000000000e+00    0,000000000e+00    0,000000000e+00    0,000000000e+00
      352000000   -1,725902595e-02   -4,093257710e-02    1,269824356e-01    7,420095205e-01    0,000000000e+00    0,000000000e+00    0,000000000e+00    0,000000000e+00
      366000000   -1,924839057e-02   -6,204083189e-02    4,982168376e-01    5,544248223e-01    0,000000000e+00    0,000000000e+00    0,000000000e+00    0,000000000e+00
      380000000   -4,455406591e-02   -7,269366831e-02    7,131198049e-01    1,994125396e-01    0,000000000e+00    0,000000000e+00    0,000000000e+00    0,000000000e+00
      394000000   -7,060120255e-02   -5,820945278e-02    7,053492069e-01   -2,167299390e-01    0,000000000e+00    0,000000000e+00    0,000000000e+00    0,000000000e+00
      408000000   -7,726974040e-02   -3,075546399e-02    4,701141119e-01   -5,599161386e-01    0,000000000e+00    0,000000000e+00    0,000000000e+00    0,000000000e+00
      422000000   -6,575878710e-02   -1,150703523e-02    9,303020686e-02   -7,188624144e-01    0,000000000e+00    0,000000000e+00    0,000000000e+00    0,000000000e+00
      436000000   -5,349040404e-02   -4,637945443e-03   -3,031542301e-01   -6,475693583e-01    0,000000000e+00    0,000000000e+00    0,000000000e+00    0,000000000e+00
      450000000   -4,483472556e-02    1,696049003e-03   -5,934646130e-01   -3,780300915e-01    0,000000000e+00    0,000000000e+00    0,000000000e+00    0,000000000e+00
      464000000   -2,934704162e-02    1,139691006e-02   -6,910523772e-01    4,404947395e-04    0,000000000e+00    0,000000000e+00    0,000000000e+00    0,000000000e+00
      478000000   -5,760166678e-04    1,126348879e-02   -5,727569461e-01    3,634415567e-01    0,000000000e+00    0,000000000e+00    0,000000000e+00    0,000000000e+00
      492000000    2,772491425e-02   -1,270549092e-02   -2,887926102e-01    6,016817093e-01    0,000000000e+00    0,000000000e+00    0,000000000e+00    0,000000000e+00
      506000000    3,640983999e-02   -5,615769327e-02    6,965487450e-02    6,581576467e-01    0,000000000e+00    0,000000000e+00    0,000000000e+00    0,000000000e+00
      520000000    1,169234235e-02   -9,802278876e-02    4,028690755e-01    5,231730342e-01    0,000000000e+00    0,000000000e+00    0,000000000e+00    0,000000000e+00
      534000000   -3,419427946e-02   -1,158229038e-01    6,238070130e-01    2,360809147e-01    0,000000000e+00    0,000000000e+00    0,000000000e+00    0,000000000e+00
      548000000   -7,711914927e-02   -9,871461987e-02    6,584168077e-01   -1,332296282e-01    0,000000000e+00    0,000000000e+00    0,000000000e+00    0,000000000e+00
      562000000   -9,285382181e-02   -6,629834324e-02    4,819083810e-01   -4,668930769e-01    0,000000000e+00    0,000000000e+00    0,000000000e+00    0,000000000e+00
      576000000   -8,605372161e-02   -4,453574494e-02    1,506728381e-01   -6,470438242e-01    0,000000000e+00    0,000000000e+00    0,000000000e+00    0,000000000e+00
      590000000   -8,081081510e-02   -4,192066565e-02   -2,189500183e-01   -6,278172731e-01    0,000000000e+00    0,000000000e+00    0,000000000e+00    0,000000000e+00
      604000000   -8,923429251e-02   -3,788596019e-02   -5,207029581e-01   -4,062525630e-01    0,000000000e+00    0,000000000e+00    0,000000000e+00    0,000000000e+00
      618000000   -9,686662257e-02   -1,552023739e-02   -6,531943083e-01   -5,821419135e-02    0,000000000e+00    0,000000000e+00    0,000000000e+00    0,000000000e+00
      632000000   -8,103691787e-02    1,528664492e-02   -5,755047798e-01    3,033881783e-01    0,000000000e+00    0,000000000e+00    0,000000000e+00    0,000000000e+00
      646000000   -4,335238039e-02    2,651283331e-02   -3,183742762e-01    5,565075874e-01    0,000000000e+00    0,000000000e+00    0,000000000e+00    0,000000000e+00
      660000000   -7,684145123e-03    5,659660324e-03    2,207187377e-02    6,292493343e-01    0,000000000e+00    0,000000000e+00    0,000000000e+00    0,000000000e+00
      674000000    1,631611260e-03   -3,071515635e-02    3,419543505e-01    5,175715685e-01    0,000000000e+00    0,000000000e+00    0,000000000e+00    0,000000000e+00
      688000000   -1,524695009e-02   -5,562582985e-02    5,589017868e-01    2,582548857e-01    0,000000000e+00    0,000000000e+00    0,000000000e+00    0,000000000e+00
      702000000   -3,272746876e-02   -5,988826975e-02    6,047371030e-01   -7,958744466e-02    0,000000000e+00    0,000000000e+00    0,000000000e+00    0,000000000e+00
      716000000   -3,710890561e-02   -5,570574850e-02    4,588802755e-01   -3,902981281e-01    0,000000000e+00    0,000000000e+00    0,000000000e+00    0,000000000e+00
      730000000   -3,176385909e-02   -6,581762433e-02    1,733226180e-01   -5,661368966e-01    0,000000000e+00    0,000000000e+00    0,000000000e+00    0,000000000e+00
      744000000   -4,148863256e-02   -8,818222582e-02   -1,533508450e-01   -5,641981363e-01    0,000000000e+00    0,000000000e+00    0,000000000e+00    0,000000000e+00
      758000000   -7,216060162e-02   -1,039167494e-01   -4,277745783e-01   -3,939287961e-01    0,000000000e+00    0,000000000e+00    0,000000000e+00    0,000000000e+00
      772000000   -1,141137630e-01   -9,259470552e-02   -5,743159056e-01   -1,048147902e-01    0,000000000e+00    0,000000000e+00    0,000000000e+00    0,000000000e+00
      786000000   -1,385983825e-01   -5,531174690e-02   -5,442451239e-01    2,213130593e-01    0,000000000e+00    0,000000000e+00    0,000000000e+00    0,000000000e+00
      800000000   -1,318580061e-01   -1,508662943e-02   -3,407931030e-01    4,801467955e-01    0,000000000e+00    0,000000000e+00    0,000000000e+00    0,000000000e+00
      814000000   -1,071583927e-01    7,529487368e-03   -3,453458473e-02    5,849863887e-01    0,000000000e+00    0,000000000e+00    0,000000000e+00    0,000000000e+00
      828000000   -8,575779945e-02    1,224077959e-02    2,791874111e-01    5,146556497e-01    0,000000000e+00    0,000000000e+00    0,000000000e+00    0,000000000e+00
      842000000   -7,055427134e-02    1,429120079e-02    5,027298331e-01    2,896627784e-01    0,000000000e+00    0,000000000e+00    0,000000000e+00    0,000000000e+00
      856000000   -5,337569863e-02    1,899309270e-02    5,705790520e-01   -1,794287190e-02    0,000000000e+00    0,000000000e+00    0,000000000e+00    0,000000000e+00
      870000000   -2,430630475e-02    1,466702763e-02    4,633577764e-01   -3,067032397e-01    0,000000000e+00    0,000000000e+00    0,000000000e+00    0,000000000e+00
      884000000    5,028592423e-03   -1,420701388e-02    2,303835601e-01   -4,893646836e-01    0,000000000e+00    0,000000000e+00    0,000000000e+00    0,000000000e+00
      898000000    1,141874399e-02   -6,308341771e-02   -5,310303718e-02   -5,265396237e-01    0,000000000e+00    0,000000000e+00    0,000000000e+00    0,000000000e+00
      912000000   -2,300890721e-02   -1,072808430e-01   -3,555128276e-01   -4,093386531e-01    0,000000000e+00    0,000000000e+00    0,000000000e+00    0,000000000e+00
      926000000   -7,611647248e-02   -1,240704656e-01   -5,313478708e-01   -1,575990617e-01    0,000000000e+00    0,000000000e+00    0,000000000e+00    0,000000000e+00
      940000000   -1,201963499e-01   -1,019077674e-01   -5,525807142e-01    1,579577774e-01    0,000000000e+00    0,000000000e+00    0,000000000e+00    0,000000000e+00
      954000000   -1,402605325e-01   -5,949465930e-02   -3,912192583e-01    4,467245042e-01    0,000000000e+00    0,000000000e+00    0,000000000e+00    0,000000000e+00
      968000000   -1,339758486e-01   -2,632150427e-02   -9,326242656e-02    6,004981995e-01    0,000000000e+00    0,000000000e+00    0,000000000e+00    0,000000000e+00
      982000000   -1,171161979e-01   -1,664737612e-02    2,461374700e-01    5,738902092e-01    0,000000000e+00    0,000000000e+00    0,000000000e+00    0,000000000e+00
      996000000   -1,060060933e-01   -1,271820907e-02    5,160164833e-01    3,664099574e-01    0,000000000e+00    0,000000000e+00    0,000000000e+00    0,000000000e+00
     1010000000   -1,042300761e-01   -1,038848050e-02    6,282888055e-01    4,982011765e-02    0,000000000e+00    0,000000000e+00    0,000000000e+00    0,000000000e+00
     1024000000   -9,205435216e-02   -9,340962861e-04    5,601838231e-01   -2,729960978e-01    0,000000000e+00    0,000000000e+00    0,000000000e+00    0,000000000e+00
     1038000000   -7,713718712e-02    5,216962018e-05    3,353587687e-01   -5,067487359e-01    0,000000000e+00    0,000000000e+00    0,000000000e+00    0,000000000e+00
     1052000000   -6,168737262e-02   -1,184818149e-02    3,063233942e-02   -5,844901204e-01    0,000000000e+00    0,000000000e+00    0,000000000e+00    0,000000000e+00
     1066000000   -6,626837701e-02   -3,481803089e-02   -2,691644728e-01   -4,996709228e-01    0,000000000e+00    0,000000000e+00    0,000000000e+00    0,000000000e+00
     1080000000   -7,906196266e-02   -3,183645010e-02   -4,799084961e-01   -2,691614926e-01    0,000000000e+00    0,000000000e+00    0,000000000e+00    0,000000000e+00
     1094000000   -7,890176773e-02   -1,621549204e-02   -5,296708941e-01    4,629383609e-02    0,000000000e+00    0,000000000e+00    0,000000000e+00    0,000000000e+00
     1108000000   -5,751796812e-02   -8,825680241e-03   -3,936199248e-01    3,264708817e-01    0,000000000e+00    0,000000000e+00    0,000000000e+00    0,000000000e+00
     1122000000   -3,209088370e-02   -3,691777587e-02   -1,310863942e-01    4,814631939e-01    0,000000000e+00    0,000000000e+00    0,000000000e+00    0,000000000e+00
     1136000000   -2,983623184e-02   -8,100868762e-02    1,650774181e-01    4,714236259e-01    0,000000000e+00    0,000000000e+00    0,000000000e+00    0,000000000e+00
     1150000000   -6,832300127e-02   -1,354921609e-01    4,213182032e-01    3,079647720e-01    0,000000000e+00    0,000000000e+00    0,000000000e+00    0,000000000e+00
     1164000000   -1,383069605e-01   -1,548703909e-01    5,617652535e-01    2,503727004e-02    0,000000000e+00    0,000000000e+00    0,000000000e+00    0,000000000e+00
     1178000000   -2,104012221e-01   -1,239605770e-01    5,258023739e-01   -3,166849017e-01    0,000000000e+00    0,000000000e+00    0,000000000e+00    0,000000000e+00
     1192000000   -2,464327514e-01   -4,675659910e-02    2,948952615e-01   -5,967469811e-01    0,000000000e+00    0,000000000e+00    0,000000000e+00    0,000000000e+00
     1206000000   -2,372064292e-01    3,146951646e-02   -6,847103685e-02   -6,959088445e-01    0,000000000e+00    0,000000000e+00    0,000000000e+00    0,000000000e+00
     1220000000   -1,889595389e-01    8,020687103e-02   -4,203916490e-01   -5,733790398e-01    0,000000000e+00    0,000000000e+00    0,000000000e+00    0,000000000e+00
     1234000000   -1,321075857e-01    1,040416434e-01   -6,442796588e-01   -2,879812717e-01    0,000000000e+00    0,000000000e+00    0,000000000e+00    0,000000000e+00
     1248000000   -6,510204077e-02    9,616781771e-02   -6,659073234e-01    6,284204125e-02    0,000000000e+00    0,000000000e+00    0,000000000e+00    0,000000000e+00
     1262000000   -1,515544765e-02    6,214256585e-02   -5,182846785e-01    3,633050025e-01    0,000000000e+00    0,000000000e+00    0,000000000e+00    0,000000000e+00
     1276000000    2,155971713e-02   -2,101520222e-04   -2,473654300e-01    5,518409014e-01    0,000000000e+00    0,000000000e+00    0,000000000e+00    0,000000000e+00
     1290000000    1,942265965e-02   -8,825355768e-02    6,373506784e-02    5,688900948e-01    0,000000000e+00    0,000000000e+00    0,000000000e+00    0,000000000e+00
     1304000000   -3,039026819e-02   -1,673875302e-01    3,638692796e-01    4,643261731e-01    0,000000000e+00    0,000000000e+00    0,000000000e+00    0,000000000e+00
     1318000000   -1,305735111e-01   -2,133260369e-01    5,872341394e-01    2,214780599e-01    0,000000000e+00    0,000000000e+00    0,000000000e+00    0,000000000e+00
     1332000000   -2,523971796e-01   -1,903282255e-01    6,447832584e-01   -1,234136373e-01    0,000000000e+00    0,000000000e+00    0,000000000e+00    0,000000000e+00
     1346000000   -3,317102790e-01   -8,977168053e-02    5,116089582e-01   -4,490695596e-01    0,000000000e+00    0,000000000e+00    0,000000000e+00    0,000000000e+00
     1360000000   -3,335452974e-01    2,304062061e-02    1,975959390e-01   -6,406010985e-01    0,000000000e+00    0,000000000e+00    0,000000000e+00    0,000000000e+00
     1374000000   -2,850132287e-01    1,064062938e-01   -1,536205113e-01   -5,923896432e-01    0,000000000e+00    0,000000000e+00    0,000000000e+00    0,000000000e+00
     1388000000   -2,195122540e-01    1,407188326e-01   -4,037255943e-01   -3,765307069e-01    0,000000000e+00    0,000000000e+00    0,000000000e+00    0,000000000e+00
     1402000000   -1,488661617e-01    1,417718381e-01   -4,663599432e-01   -6,191070750e-02    0,000000000e+00    0,000000000e+00    0,000000000e+00    0,000000000e+00
     1416000000   -9,656009078e-02    1,154352129e-01   -3,729262650e-01    2,345543504e-01    0,000000000e+00    0,000000000e+00    0,000000000e+00    0,000000000e+00
     1430000000   -5,420639738e-02    7,703486085e-02   -1,585484743e-01    4,493429363e-01    0,000000000e+00    0,000000000e+00    0,000000000e+00    0,000000000e+00
     1444000000   -3,863471001e-02    4,409806337e-03    1,599769890e-01    5,366125703e-01    0,000000000e+00    0,000000000e+00    0,000000000e+00    0,000000000e+00
     1458000000   -6,116068736e-02   -6,848552823e-02    4,763270020e-01    4,953589439e-01    0,000000000e+00    0,000000000e+00    0,000000000e+00    0,000000000e+00
     1472000000   -1,384780556e-01   -1,206235141e-01    7,490062118e-01    2,674376369e-01    0,000000000e+00    0,000000000e+00    0,000000000e+00    0,000000000e+00
     1486000000   -2,275729775e-01   -1,207150146e-01    8,827071786e-01   -8,062140644e-02    0,000000000e+00    0,000000000e+00    0,000000000e+00    0,000000000e+00
     1500000000   -2,857530117e-01   -5,495167524e-02    8,128154278e-01   -4,485265017e-01    0,000000000e+00    0,000000000e+00    0,000000000e+00    0,000000000e+00
