! NanoVNA-App
! Date: 2025-09-25 15:05:23
! Start: 100MHz Stop: 1,5GHz Points: 101
! S-Parameter data: F S11 S21 S12 S22
# Hz S RI R 50
!     Frequency           S11_Real           S11_Imag           S21_Real           S21_Imag           S12_Real           S12_Imag           S22_Real           S22_Imag
      100000000    3,110499121e-02    2,861448750e-02    4,348071516e-01   -6,686517596e-01    0,000000000e+00    0,000000000e+00    0,000000000e+00    0,000000000e+00
      114000000    5,753688142e-02    5,481125321e-03    7,532496471e-03   -7,909461856e-01    0,000000000e+00    0,000000000e+00    0,000000000e+00    0,000000000e+00
      128000000    6,716901064e-02   -3,777375445e-02   -4,105070829e-01   -6,711496115e-01    0,000000000e+00    0,000000000e+00    0,000000000e+00    0,000000000e+00
      142000000    4,466782138e-02   -8,415202796e-02   -7,030020952e-01   -3,532101512e-01    0,000000000e+00    0,000000000e+00    0,000000000e+00    0,000000000e+00
      156000000   -5,531790201e-03   -1,069095358e-01   -7,873653173e-01    7,424899191e-02    0,000000000e+00    0,000000000e+00    0,000000000e+00    0,000000000e+00
      170000000   -5,759381503e-02   -9,055283666e-02   -6,276205778e-01    4,869923592e-01    0,000000000e+00    0,000000000e+00    0,000000000e+00    0,000000000e+00
      184000000   -8,360691369e-02   -4,941167682e-02   -2,645685375e-01    7,511141300e-01    0,000000000e+00    0,000000000e+00    0,000000000e+00    0,000000000e+00
      198000000   -7,955773175e-02   -1,045006979e-02    1,837752461e-01    7,733916640e-01    0,000000000e+00    0,000000000e+00    0,000000000e+00    0,000000000e+00
      212000000   -6,218447536e-02    1,309944224e-02    5,693797469e-01    5,490286350e-01    0,000000000e+00    0,000000000e+00    0,000000000e+00    0,000000000e+00
      226000000   -4,327843338e-02    2,760973573e-02    7,709275484e-01    1,544493139e-01    0,000000000e+00    0,000000000e+00    0,000000000e+00    0,000000000e+00
      240000000   -1,822415926e-02    3,839088976e-02    7,268834710e-01   -2,821318209e-01    0,000000000e+00    0,000000000e+00    0,000000000e+00    0,000000000e+00
      254000000    1,714125276e-02    3,507590294e-02    4,579162300e-01   -6,204968095e-01    0,000000000e+00    0,000000000e+00    0,000000000e+00    0,000000000e+00
      268000000    4,871902615e-02    5,527727306e-03    5,867186189e-02   -7,606236935e-01    0,000000000e+00    0,000000000e+00    0,000000000e+00    0,000000000e+00
      282000000    5,329223350e-02   -4,183787107e-02   -3,492394686e-01   -6,713926792e-01    0,000000000e+00    0,000000000e+00    0,000000000e+00    0,000000000e+00
      296000000    2,393559739e-02   -7,952243835e-02   -6,520552039e-01   -3,854681849e-01    0,000000000e+00    0,000000000e+00    0,000000000e+00    0,000000000e+00
      310000000   -1,797666401e-02   -8,313394338e-02   -7,629853487e-01    2,147793956e-02    0,000000000e+00    0,000000000e+00    0,000000000e+00    0,000000000e+00
      324000000   -4,170721397e-02   -5,879110098e-02   -6,326307654e-01    4,311817288e-01    0,000000000e+00    0,000000000e+00    0,000000000e+00    0,000000000e+00
      338000000   -3,420168906e-02   -3,688591719e-02   -2,962378860e-01    7,014605999e-01    0,000000000e+00    0,000000000e+00    0,000000000e+00    0,000000000e+00
      352000000   -1,711268164e-02   -4,069662467e-02    1,268849373e-01    7,430353761e-01    0,000000000e+00    0,000000000e+00    0,000000000e+00    0,000000000e+00
      366000000   -1,901945658e-02   -6,180370599e-02    4,979647994e-01    5,554729700e-01    0,000000000e+00    0,000000000e+00    0,000000000e+00    0,000000000e+00
      380000000   -4,426746443e-02   -7,287885249e-02    7,133691907e-01    1,995196790e-01    0,000000000e+00    0,000000000e+00    0,000000000e+00    0,000000000e+00
      394000000   -7,068439573e-02   -5,788499862e-02    7,045282125e-01   -2,160861194e-01    0,000000000e+00    0,000000000e+00    0,000000000e+00    0,000000000e+00
      408000000   -7,714655995e-02   -3,075893410e-02    4,700304866e-01   -5,602182746e-01    0,000000000e+00    0,000000000e+00    0,000000000e+00    0,000000000e+00
      422000000   -6,551922858e-02   -1,127777714e-02    9,297285974e-02   -7,175750732e-01    0,000000000e+00    0,000000000e+00    0,000000000e+00    0,000000000e+00
      436000000   -5,325309187e-02   -4,260268062e-03   -3,021057546e-01   -6,471682191e-01    0,000000000e+00    0,000000000e+00    0,000000000e+00    0,000000000e+00
      450000000   -4,490520805e-02    2,174785594e-03   -5,936403275e-01   -3,776089251e-01    0,000000000e+00    0,000000000e+00    0,000000000e+00    0,000000000e+00
      464000000   -2,946239710e-02    1,182688214e-02   -6,912769079e-01    8,368855342e-04    0,000000000e+00    0,000000000e+00    0,000000000e+00    0,000000000e+00
      478000000   -9,649138083e-04    1,133485325e-02   -5,729322433e-01    3,636623323e-01    0,000000000e+00    0,000000000e+00    0,000000000e+00    0,000000000e+00
      492000000    2,817011625e-02   -1,293194108e-02   -2,896753848e-01    6,018279791e-01    0,000000000e+00    0,000000000e+00    0,000000000e+00    0,000000000e+00
      506000000    3,649042547e-02   -5,619237199e-02    6,951107830e-02    6,586075425e-01    0,000000000e+00    0,000000000e+00    0,000000000e+00    0,000000000e+00
      520000000    1,269274671e-02   -9,901881218e-02    4,047864079e-01    5,265145302e-01    0,000000000e+00    0,000000000e+00    0,000000000e+00    0,000000000e+00
      534000000   -3,472102806e-02   -1,160471737e-01    6,236806512e-01    2,360474020e-01    0,000000000e+00    0,000000000e+00    0,000000000e+00    0,000000000e+00
      548000000   -7,730185986e-02   -9,850110114e-02    6,580117345e-01   -1,328157932e-01    0,000000000e+00    0,000000000e+00    0,000000000e+00    0,000000000e+00
      562000000   -9,327241778e-02   -6,584256142e-02    4,813140333e-01   -4,666845202e-01    0,000000000e+00    0,000000000e+00    0,000000000e+00    0,000000000e+00
      576000000   -8,638997376e-02   -4,458234459e-02    1,504660100e-01   -6,478207111e-01    0,000000000e+00    0,000000000e+00    0,000000000e+00    0,000000000e+00
      590000000   -8,081626147e-02   -4,209778458e-02   -2,214267552e-01   -6,276777983e-01    0,000000000e+00    0,000000000e+00    0,000000000e+00    0,000000000e+00
      604000000   -8,877132088e-02   -3,732263669e-02   -5,191718340e-01   -4,058905542e-01    0,000000000e+00    0,000000000e+00    0,000000000e+00    0,000000000e+00
      618000000   -9,665243328e-02   -1,482635830e-02   -6,530482769e-01   -5,798311159e-02    0,000000000e+00    0,000000000e+00    0,000000000e+00    0,000000000e+00
      632000000   -8,111816645e-02    1,472259220e-02   -5,748665929e-01    3,032372296e-01    0,000000000e+00    0,000000000e+00    0,000000000e+00    0,000000000e+00
      646000000   -4,237829894e-02    2,682728320e-02   -3,171224296e-01    5,561046600e-01    0,000000000e+00    0,000000000e+00    0,000000000e+00    0,000000000e+00
      660000000   -7,275696378e-03    6,791632157e-03    2,140221931e-02    6,306192279e-01    0,000000000e+00    0,000000000e+00    0,000000000e+00    0,000000000e+00
      674000000    1,716687228e-03   -3,063970618e-02    3,428631723e-01    5,186741352e-01    0,000000000e+00    0,000000000e+00    0,000000000e+00    0,000000000e+00
      688000000   -1,416425966e-02   -5,639239401e-02    5,590415001e-01    2,583779991e-01    0,000000000e+00    0,000000000e+00    0,000000000e+00    0,000000000e+00
      702000000   -3,267601877e-02   -6,055184454e-02    6,040983796e-01   -7,728940994e-02    0,000000000e+00    0,000000000e+00    0,000000000e+00    0,000000000e+00
      716000000   -3,764226660e-02   -5,665238947e-02    4,592882097e-01   -3,899559081e-01    0,000000000e+00    0,000000000e+00    0,000000000e+00    0,000000000e+00
      730000000   -3,209921345e-02   -6,568357348e-02    1,734421700e-01   -5,662088990e-01    0,000000000e+00    0,000000000e+00    0,000000000e+00    0,000000000e+00
      744000000   -4,176193103e-02   -8,810847253e-02   -1,538012326e-01   -5,635510087e-01    0,000000000e+00    0,000000000e+00    0,000000000e+00    0,000000000e+00
      758000000   -7,331740856e-02   -1,043713465e-01   -4,274483621e-01   -3,936594129e-01    0,000000000e+00    0,000000000e+00    0,000000000e+00    0,000000000e+00
      772000000   -1,136538461e-01   -9,261226654e-02   -5,750952959e-01   -1,052599624e-01    0,000000000e+00    0,000000000e+00    0,000000000e+00    0,000000000e+00
      786000000   -1,381667852e-01   -5,607388541e-02   -5,442897677e-01    2,214844078e-01    0,000000000e+00    0,000000000e+00    0,000000000e+00    0,000000000e+00
      800000000   -1,321100891e-01   -1,422363613e-02   -3,403501809e-01    4,801444709e-01    0,000000000e+00    0,000000000e+00    0,000000000e+00    0,000000000e+00
      814000000   -1,070518941e-01    7,986765355e-03   -3,502900898e-02    5,856148005e-01    0,000000000e+00    0,000000000e+00    0,000000000e+00    0,000000000e+00
      828000000   -8,531961590e-02    1,177350990e-02    2,788880467e-01    5,143691301e-01    0,000000000e+00    0,000000000e+00    0,000000000e+00    0,000000000e+00
      842000000   -7,136546820e-02    1,459245477e-02    5,027784109e-01    2,892839313e-01    0,000000000e+00    0,000000000e+00    0,000000000e+00    0,000000000e+00
      856000000   -5,295686051e-02    1,898576878e-02    5,705454350e-01   -1,784056425e-02    0,000000000e+00    0,000000000e+00    0,000000000e+00    0,000000000e+00
      870000000   -2,388501912e-02    1,477992814e-02    4,637408257e-01   -3,068603575e-01    0,000000000e+00    0,000000000e+00    0,000000000e+00    0,000000000e+00
      884000000    5,036519840e-03   -1,329204068e-02    2,307160348e-01   -4,878511727e-01    0,000000000e+00    0,000000000e+00    0,000000000e+00    0,000000000e+00
      898000000    1,201778371e-02   -6,264291704e-02   -5,193275958e-02   -5,269641876e-01    0,000000000e+00    0,000000000e+00    0,000000000e+00    0,000000000e+00
      912000000   -2,317263931e-02   -1,071332321e-01   -3,525600135e-01   -3,977198899e-01    0,000000000e+00    0,000000000e+00    0,000000000e+00    0,000000000e+00
      926000000   -7,349734008e-02   -1,222889274e-01   -5,304229259e-01   -1,558313370e-01    0,000000000e+00    0,000000000e+00    0,000000000e+00    0,000000000e+00
      940000000   -1,213195622e-01   -1,011718512e-01   -5,512545109e-01    1,566028148e-01    0,000000000e+00    0,000000000e+00    0,000000000e+00    0,000000000e+00
      954000000   -1,436385363e-01   -6,076478586e-02   -3,920710087e-01    4,467380345e-01    0,000000000e+00    0,000000000e+00    0,000000000e+00    0,000000000e+00
      968000000   -1,334785968e-01   -2,988068387e-02   -9,239048511e-02    6,046315432e-01    0,000000000e+00    0,000000000e+00    0,000000000e+00    0,000000000e+00
      982000000   -1,169448867e-01   -1,982544735e-02    2,461571991e-01    5,703514814e-01    0,000000000e+00    0,000000000e+00    0,000000000e+00    0,000000000e+00
      996000000   -1,089844704e-01   -1,299434062e-02    5,164586306e-01    3,668020368e-01    0,000000000e+00    0,000000000e+00    0,000000000e+00    0,000000000e+00
     1010000000   -1,014140993e-01   -5,920115393e-03    6,290333867e-01    4,978379235e-02    0,000000000e+00    0,000000000e+00    0,000000000e+00    0,000000000e+00
     1024000000   -9,392257035e-02   -1,703110407e-03    5,613642931e-01   -2,734555900e-01    0,000000000e+00    0,000000000e+00    0,000000000e+00    0,000000000e+00
     1038000000   -7,350124419e-02   -2,872329205e-03    3,366571367e-01   -5,072972178e-01    0,000000000e+00    0,000000000e+00    0,000000000e+00    0,000000000e+00
     1052000000   -6,571886688e-02   -1,423643157e-02    2,962014079e-02   -5,845411420e-01    0,000000000e+00    0,000000000e+00    0,000000000e+00    0,000000000e+00
     1066000000   -7,149704546e-02   -3,365338594e-02   -2,694076300e-01   -4,984639287e-01    0,000000000e+00    0,000000000e+00    0,000000000e+00    0,000000000e+00
     1080000000   -8,200239390e-02   -3,502846137e-02   -4,810802341e-01   -2,675426602e-01    0,000000000e+00    0,000000000e+00    0,000000000e+00    0,000000000e+00
     1094000000   -8,312582970e-02   -1,623104513e-02   -5,300381780e-01    4,524478689e-02    0,000000000e+00    0,000000000e+00    0,000000000e+00    0,000000000e+00
     1108000000   -6,179954484e-02   -1,212304179e-02   -3,936066031e-01    3,284135759e-01    0,000000000e+00    0,000000000e+00    0,000000000e+00    0,000000000e+00
     1122000000   -3,529248387e-02   -3,511555865e-02   -1,341499388e-01    4,819581509e-01    0,000000000e+00    0,000000000e+00    0,000000000e+00    0,000000000e+00
     1136000000   -2,905492857e-02   -8,636659384e-02    1,656063497e-01    4,693596363e-01    0,000000000e+00    0,000000000e+00    0,000000000e+00    0,000000000e+00
     1150000000   -6,399216503e-02   -1,377407163e-01    4,181380868e-01    3,100092709e-01    0,000000000e+00    0,000000000e+00    0,000000000e+00    0,000000000e+00
     1164000000   -1,406452358e-01   -1,535285711e-01    5,595334768e-01    2,390835062e-02    0,000000000e+00    0,000000000e+00    0,000000000e+00    0,000000000e+00
     1178000000   -2,107317150e-01   -1,232897565e-01    5,293812752e-01   -3,113626242e-01    0,000000000e+00    0,000000000e+00    0,000000000e+00    0,000000000e+00
     1192000000   -2,489909828e-01   -4,071594775e-02    2,917910218e-01   -5,942136645e-01    0,000000000e+00    0,000000000e+00    0,000000000e+00    0,000000000e+00
     1206000000   -2,353477329e-01    3,197116777e-02   -6,431569904e-02   -6,968178153e-01    0,000000000e+00    0,000000000e+00    0,000000000e+00    0,000000000e+00
     1220000000   -1,866583973e-01    8,950167894e-02   -4,169949889e-01   -5,776708126e-01    0,000000000e+00    0,000000000e+00    0,000000000e+00    0,000000000e+00
     1234000000   -1,301092952e-01    1,061330214e-01   -6,436938047e-01   -2,902841568e-01    0,000000000e+00    0,000000000e+00    0,000000000e+00    0,000000000e+00
     1248000000   -7,102506608e-02    9,728660434e-02   -6,740370989e-01    6,186367199e-02    0,000000000e+00    0,000000000e+00    0,000000000e+00    0,000000000e+00
     1262000000   -9,717828594e-03    5,876911432e-02   -5,184475780e-01    3,684473336e-01    0,000000000e+00    0,000000000e+00    0,000000000e+00    0,000000000e+00
     1276000000    2,806409635e-02   -3,717611980e-05   -2,397384048e-01    5,441497564e-01    0,000000000e+00    0,000000000e+00    0,000000000e+00    0,000000000e+00
     1290000000    2,146320418e-02   -8,436016738e-02    6,459468603e-02    5,751323700e-01    0,000000000e+00    0,000000000e+00    0,000000000e+00    0,000000000e+00
     1304000000   -3,070500121e-02   -1,702986807e-01    3,647749126e-01    4,650720656e-01    0,000000000e+00    0,000000000e+00    0,000000000e+00    0,000000000e+00
     1318000000   -1,345673203e-01   -2,177114040e-01    5,813995600e-01    2,198269069e-01    0,000000000e+00    0,000000000e+00    0,000000000e+00    0,000000000e+00
     1332000000   -2,545277476e-01   -1,927513927e-01    6,489821076e-01   -1,301607788e-01    0,000000000e+00    0,000000000e+00    0,000000000e+00    0,000000000e+00
     1346000000   -3,295689225e-01   -9,537890553e-02    5,108587146e-01   -4,583771229e-01    0,000000000e+00    0,000000000e+00    0,000000000e+00    0,000000000e+00
     1360000000   -3,367250264e-01    2,868856490e-02    1,892746985e-01   -6,404483318e-01    0,000000000e+00    0,000000000e+00    0,000000000e+00    0,000000000e+00
     1374000000   -2,832361162e-01    1,028172150e-01   -1,594078541e-01   -6,026450992e-01    0,000000000e+00    0,000000000e+00    0,000000000e+00    0,000000000e+00
     1388000000   -2,122122794e-01    1,324925423e-01   -3,955067694e-01   -3,750658035e-01    0,000000000e+00    0,000000000e+00    0,000000000e+00    0,000000000e+00
     1402000000   -1,499610096e-01    1,418398768e-01   -4,779838622e-01   -5,390201882e-02    0,000000000e+00    0,000000000e+00    0,000000000e+00    0,000000000e+00
     1416000000   -9,989831597e-02    1,148432270e-01   -3,742452264e-01    2,398436219e-01    0,000000000e+00    0,000000000e+00    0,000000000e+00    0,000000000e+00
     1430000000   -5,691486597e-02    7,020382583e-02   -1,484374702e-01    4,485378563e-01    0,000000000e+00    0,000000000e+00    0,000000000e+00    0,000000000e+00
     1444000000   -3,552856669e-02    3,637725953e-03    1,545346975e-01    5,288175941e-01    0,000000000e+00    0,000000000e+00    0,000000000e+00    0,000000000e+00
     1458000000   -6,345736980e-02   -7,085114717e-02    4,784867465e-01    4,891165495e-01    0,000000000e+00    0,000000000e+00    0,000000000e+00    0,000000000e+00
     1472000000   -1,387284696e-01   -1,255198270e-01    7,406110168e-01    2,595585585e-01    0,000000000e+00    0,000000000e+00    0,000000000e+00    0,000000000e+00
     1486000000   -2,277061939e-01   -1,119884923e-01    8,873965144e-01   -6,809467822e-02    0,000000000e+00    0,000000000e+00    0,000000000e+00    0,000000000e+00
     1500000000   -2,904942036e-01   -4,269038886e-02    8,187379241e-01   -4,404124916e-01    0,000000000e+00    0,000000000e+00    0,000000000e+00    0,000000000e+00
