! NanoVNA-App
! Date: 2025-09-25 15:07:19
! Start: 100MHz Stop: 1,5GHz Points: 101
! S-Parameter data: F S11 S21 S12 S22
# Hz S RI R 50
!     Frequency           S11_Real           S11_Imag           S21_Real           S21_Imag           S12_Real           S12_Imag           S22_Real           S22_Imag
      100000000    3,114734404e-02    2,865521610e-02    4,348357618e-01   -6,686502099e-01    0,000000000e+00    0,000000000e+00    0,000000000e+00    0,000000000e+00
      114000000    5,755278841e-02    5,512753967e-03    7,803703658e-03   -7,909772396e-01    0,000000000e+00    0,000000000e+00    0,000000000e+00    0,000000000e+00
      128000000    6,730403751e-02   -3,787371144e-02   -4,103073776e-01   -6,710501313e-01    0,000000000e+00    0,000000000e+00    0,000000000e+00    0,000000000e+00
      142000000    4,471002892e-02   -8,421470225e-02   -7,029608488e-01   -3,532376885e-01    0,000000000e+00    0,000000000e+00    0,000000000e+00    0,000000000e+00
      156000000   -5,729460157e-03   -1,067436561e-01   -7,866919637e-01    7,391379029e-02    0,000000000e+00    0,000000000e+00    0,000000000e+00    0,000000000e+00
      170000000   -5,771076679e-02   -9,057420492e-02   -6,274462938e-01    4,869234860e-01    0,000000000e+00    0,000000000e+00    0,000000000e+00    0,000000000e+00
      184000000   -8,376282454e-02   -4,947282746e-02   -2,649367154e-01    7,511321306e-01    0,000000000e+00    0,000000000e+00    0,000000000e+00    0,000000000e+00
      198000000   -7,965741307e-02   -1,050038915e-02    1,835364997e-01    7,729576826e-01    0,000000000e+00    0,000000000e+00    0,000000000e+00    0,000000000e+00
      212000000   -6,229749322e-02    1,320365164e-02    5,690577030e-01    5,490629077e-01    0,000000000e+00    0,000000000e+00    0,000000000e+00    0,000000000e+00
      226000000   -4,332674667e-02    2,771059982e-02    7,708522081e-01    1,544615924e-01    0,000000000e+00    0,000000000e+00    0,000000000e+00    0,000000000e+00
      240000000   -1,820196770e-02    3,846843541e-02    7,267547846e-01   -2,817331553e-01    0,000000000e+00    0,000000000e+00    0,000000000e+00    0,000000000e+00
      254000000    1,720582508e-02    3,520914167e-02    4,580399096e-01   -6,202228665e-01    0,000000000e+00    0,000000000e+00    0,000000000e+00    0,000000000e+00
      268000000    4,875527695e-02    5,628682207e-03    5,859727785e-02   -7,604801059e-01    0,000000000e+00    0,000000000e+00    0,000000000e+00    0,000000000e+00
      282000000    5,344652012e-02   -4,176889732e-02   -3,487617075e-01   -6,715427041e-01    0,000000000e+00    0,000000000e+00    0,000000000e+00    0,000000000e+00
      296000000    2,404459566e-02   -7,955103368e-02   -6,517415047e-01   -3,853700161e-01    0,000000000e+00    0,000000000e+00    0,000000000e+00    0,000000000e+00
      310000000   -1,779053546e-02   -8,320631832e-02   -7,634153962e-01    1,944128983e-02    0,000000000e+00    0,000000000e+00    0,000000000e+00    0,000000000e+00
      324000000   -4,161237553e-02   -5,870341137e-02   -6,318190694e-01    4,312825203e-01    0,000000000e+00    0,000000000e+00    0,000000000e+00    0,000000000e+00
      338000000   -3,435957432e-02   -3,693051264e-02   -2,985075414e-01    7,012262344e-01    0,000000000e+00    0,000000000e+00    0,000000000e+00    0,000000000e+00
      352000000   -1,736751013e-02   -4,084883258e-02    1,259697974e-01    7,424155474e-01    0,000000000e+00    0,000000000e+00    0,000000000e+00    0,000000000e+00
      366000000   -1,915651187e-02   -6,194873154e-02    4,985246956e-01    5,545570254e-01    0,000000000e+00    0,000000000e+00    0,000000000e+00    0,000000000e+00
      380000000   -4,423040897e-02   -7,276396453e-02    7,133140564e-01    1,995173544e-01    0,000000000e+00    0,000000000e+00    0,000000000e+00    0,000000000e+00
      394000000   -7,090919465e-02   -5,805503577e-02    7,036953568e-01   -2,159456760e-01    0,000000000e+00    0,000000000e+00    0,000000000e+00    0,000000000e+00
      408000000   -7,712487876e-02   -3,030437604e-02    4,703178108e-01   -5,589716434e-01    0,000000000e+00    0,000000000e+00    0,000000000e+00    0,000000000e+00
      422000000   -6,533236802e-02   -1,107747480e-02    9,367179126e-02   -7,169228196e-01    0,000000000e+00    0,000000000e+00    0,000000000e+00    0,000000000e+00
      436000000   -5,312058702e-02   -4,357675556e-03   -3,023585975e-01   -6,473249197e-01    0,000000000e+00    0,000000000e+00    0,000000000e+00    0,000000000e+00
      450000000   -4,460066929e-02    1,492629177e-03   -5,928775072e-01   -3,780690730e-01    0,000000000e+00    0,000000000e+00    0,000000000e+00    0,000000000e+00
      464000000   -2,912992984e-02    1,135773584e-02   -6,911931634e-01   -8,950527445e-06    0,000000000e+00    0,000000000e+00    0,000000000e+00    0,000000000e+00
      478000000   -9,323453414e-04    1,105216239e-02   -5,729381442e-01    3,636339009e-01    0,000000000e+00    0,000000000e+00    0,000000000e+00    0,000000000e+00
      492000000    2,768038772e-02   -1,246060431e-02   -2,893647850e-01    6,021370888e-01    0,000000000e+00    0,000000000e+00    0,000000000e+00    0,000000000e+00
      506000000    3,646466136e-02   -5,604439601e-02    6,927646697e-02    6,592926383e-01    0,000000000e+00    0,000000000e+00    0,000000000e+00    0,000000000e+00
      520000000    1,285516657e-02   -9,857930243e-02    4,013361931e-01    5,255048871e-01    0,000000000e+00    0,000000000e+00    0,000000000e+00    0,000000000e+00
      534000000   -3,380401805e-02   -1,162193716e-01    6,242132783e-01    2,358570993e-01    0,000000000e+00    0,000000000e+00    0,000000000e+00    0,000000000e+00
      548000000   -7,718695700e-02   -9,922457486e-02    6,585668325e-01   -1,331520081e-01    0,000000000e+00    0,000000000e+00    0,000000000e+00    0,000000000e+00
      562000000   -9,293735027e-02   -6,584890187e-02    4,818652868e-01   -4,662871957e-01    0,000000000e+00    0,000000000e+00    0,000000000e+00    0,000000000e+00
      576000000   -8,626046032e-02   -4,432387650e-02    1,501905024e-01   -6,485980749e-01    0,000000000e+00    0,000000000e+00    0,000000000e+00    0,000000000e+00
      590000000   -8,090424538e-02   -4,179483280e-02   -2,176687568e-01   -6,275987625e-01    0,000000000e+00    0,000000000e+00    0,000000000e+00    0,000000000e+00
      604000000   -8,874303848e-02   -3,706355020e-02   -5,196725726e-01   -4,058689177e-01    0,000000000e+00    0,000000000e+00    0,000000000e+00    0,000000000e+00
      618000000   -9,666541964e-02   -1,575321518e-02   -6,532440782e-01   -5,878855661e-02    0,000000000e+00    0,000000000e+00    0,000000000e+00    0,000000000e+00
      632000000   -8,073301613e-02    1,479556225e-02   -5,747038126e-01    3,026663959e-01    0,000000000e+00    0,000000000e+00    0,000000000e+00    0,000000000e+00
      646000000   -4,246661812e-02    2,638841048e-02   -3,184459805e-01    5,556811094e-01    0,000000000e+00    0,000000000e+00    0,000000000e+00    0,000000000e+00
      660000000   -7,909487933e-03    5,517121870e-03    2,067871951e-02    6,299828291e-01    0,000000000e+00    0,000000000e+00    0,000000000e+00    0,000000000e+00
      674000000    1,106628100e-03   -3,067492321e-02    3,426018953e-01    5,189775229e-01    0,000000000e+00    0,000000000e+00    0,000000000e+00    0,000000000e+00
      688000000   -1,501683705e-02   -5,523641035e-02    5,589607358e-01    2,590472996e-01    0,000000000e+00    0,000000000e+00    0,000000000e+00    0,000000000e+00
      702000000   -3,397041932e-02   -6,022746488e-02    6,034749150e-01   -8,150489628e-02    0,000000000e+00    0,000000000e+00    0,000000000e+00    0,000000000e+00
      716000000   -3,662117571e-02   -5,510963127e-02    4,592110217e-01   -3,891909122e-01    0,000000000e+00    0,000000000e+00    0,000000000e+00    0,000000000e+00
      730000000   -3,239531070e-02   -6,475342810e-02    1,745289117e-01   -5,661426783e-01    0,000000000e+00    0,000000000e+00    0,000000000e+00    0,000000000e+00
      744000000   -3,984960169e-02   -8,842696249e-02   -1,525851339e-01   -5,634667873e-01    0,000000000e+00    0,000000000e+00    0,000000000e+00    0,000000000e+00
      758000000   -7,270199060e-02   -1,050596610e-01   -4,270656407e-01   -3,942189515e-01    0,000000000e+00    0,000000000e+00    0,000000000e+00    0,000000000e+00
      772000000   -1,138200238e-01   -9,452033788e-02   -5,745074749e-01   -1,060685813e-01    0,000000000e+00    0,000000000e+00    0,000000000e+00    0,000000000e+00
      786000000   -1,394549608e-01   -5,584424362e-02   -5,446792245e-01    2,207594514e-01    0,000000000e+00    0,000000000e+00    0,000000000e+00    0,000000000e+00
      800000000   -1,333415657e-01   -1,489182655e-02   -3,422028720e-01    4,798973799e-01    0,000000000e+00    0,000000000e+00    0,000000000e+00    0,000000000e+00
      814000000   -1,076654121e-01    8,329308592e-03   -3,495448828e-02    5,853560567e-01    0,000000000e+00    0,000000000e+00    0,000000000e+00    0,000000000e+00
      828000000   -8,592909575e-02    1,323266979e-02    2,789429128e-01    5,140799880e-01    0,000000000e+00    0,000000000e+00    0,000000000e+00    0,000000000e+00
      842000000   -7,070795447e-02    1,523787249e-02    5,029549599e-01    2,893756926e-01    0,000000000e+00    0,000000000e+00    0,000000000e+00    0,000000000e+00
      856000000   -5,216475949e-02    1,874156855e-02    5,702037215e-01   -1,802150719e-02    0,000000000e+00    0,000000000e+00    0,000000000e+00    0,000000000e+00
      870000000   -2,311783843e-02    1,375762746e-02    4,637666643e-01   -3,064569235e-01    0,000000000e+00    0,000000000e+00    0,000000000e+00    0,000000000e+00
      884000000    5,330987740e-03   -1,442695409e-02    2,300621420e-01   -4,874922335e-01    0,000000000e+00    0,000000000e+00    0,000000000e+00    0,000000000e+00
      898000000    1,160841435e-02   -6,368305534e-02   -5,159933120e-02   -5,265711546e-01    0,000000000e+00    0,000000000e+00    0,000000000e+00    0,000000000e+00
      912000000   -2,330693044e-02   -1,085601747e-01   -3,657970130e-01   -4,077471495e-01    0,000000000e+00    0,000000000e+00    0,000000000e+00    0,000000000e+00
      926000000   -7,577275485e-02   -1,252918392e-01   -5,319411159e-01   -1,599241346e-01    0,000000000e+00    0,000000000e+00    0,000000000e+00    0,000000000e+00
      940000000   -1,209853739e-01   -1,034686863e-01   -5,515418053e-01    1,555442065e-01    0,000000000e+00    0,000000000e+00    0,000000000e+00    0,000000000e+00
      954000000   -1,396891326e-01   -6,150612235e-02   -3,915225565e-01    4,462621808e-01    0,000000000e+00    0,000000000e+00    0,000000000e+00    0,000000000e+00
      968000000   -1,295367628e-01   -2,641196363e-02   -9,207067639e-02    6,036314368e-01    0,000000000e+00    0,000000000e+00    0,000000000e+00    0,000000000e+00
      982000000   -1,147605926e-01   -1,929517649e-02    2,433649004e-01    5,716595650e-01    0,000000000e+00    0,000000000e+00    0,000000000e+00    0,000000000e+00
      996000000   -1,060945839e-01   -1,655180752e-02    5,129022598e-01    3,663775027e-01    0,000000000e+00    0,000000000e+00    0,000000000e+00    0,000000000e+00
     1010000000   -9,974265844e-02   -7,300263736e-03    6,271478534e-01    5,130154267e-02    0,000000000e+00    0,000000000e+00    0,000000000e+00    0,000000000e+00
     1024000000   -9,330608696e-02   -1,729212585e-03    5,625582933e-01   -2,692146599e-01    0,000000000e+00    0,000000000e+00    0,000000000e+00    0,000000000e+00
     1038000000   -7,856994122e-02    3,506618086e-04    3,387656510e-01   -5,030759573e-01    0,000000000e+00    0,000000000e+00    0,000000000e+00    0,000000000e+00
     1052000000   -6,188048050e-02   -1,541225426e-02    3,509364650e-02   -5,854892135e-01    0,000000000e+00    0,000000000e+00    0,000000000e+00    0,000000000e+00
     1066000000   -7,024073601e-02   -3,360379487e-02   -2,611751258e-01   -5,019706488e-01    0,000000000e+00    0,000000000e+00    0,000000000e+00    0,000000000e+00
     1080000000   -7,902365178e-02   -3,325488418e-02   -4,818396270e-01   -2,698599994e-01    0,000000000e+00    0,000000000e+00    0,000000000e+00    0,000000000e+00
     1094000000   -7,824894786e-02   -1,551817823e-02   -5,352929235e-01    4,247073829e-02    0,000000000e+00    0,000000000e+00    0,000000000e+00    0,000000000e+00
     1108000000   -5,928232893e-02   -1,009507012e-02   -3,980547488e-01    3,247124255e-01    0,000000000e+00    0,000000000e+00    0,000000000e+00    0,000000000e+00
     1122000000   -3,280374780e-02   -3,364381567e-02   -1,382133365e-01    4,824865162e-01    0,000000000e+00    0,000000000e+00    0,000000000e+00    0,000000000e+00
     1136000000   -3,062124364e-02   -8,568187058e-02    1,647163481e-01    4,731540978e-01    0,000000000e+00    0,000000000e+00    0,000000000e+00    0,000000000e+00
     1150000000   -6,408300251e-02   -1,328629106e-01    4,189663231e-01    3,125465214e-01    0,000000000e+00    0,000000000e+00    0,000000000e+00    0,000000000e+00
     1164000000   -1,390879601e-01   -1,495387405e-01    5,645422935e-01    2,458591014e-02    0,000000000e+00    0,000000000e+00    0,000000000e+00    0,000000000e+00
     1178000000   -2,133724540e-01   -1,161485687e-01    5,282091498e-01   -3,149681091e-01    0,000000000e+00    0,000000000e+00    0,000000000e+00    0,000000000e+00
     1192000000   -2,447768152e-01   -4,211562872e-02    3,007980585e-01   -5,965770483e-01    0,000000000e+00    0,000000000e+00    0,000000000e+00    0,000000000e+00
     1206000000   -2,342441082e-01    3,031571768e-02   -6,431349367e-02   -7,000640631e-01    0,000000000e+00    0,000000000e+00    0,000000000e+00    0,000000000e+00
     1220000000   -1,863746196e-01    8,780200779e-02   -4,202677310e-01   -5,758802295e-01    0,000000000e+00    0,000000000e+00    0,000000000e+00    0,000000000e+00
     1234000000   -1,308100522e-01    1,024875715e-01   -6,442175508e-01   -2,917973101e-01    0,000000000e+00    0,000000000e+00    0,000000000e+00    0,000000000e+00
     1248000000   -6,910148263e-02    9,864678234e-02   -6,727568507e-01    6,832817197e-02    0,000000000e+00    0,000000000e+00    0,000000000e+00    0,000000000e+00
     1262000000   -8,791446686e-03    5,892531946e-02   -5,144791603e-01    3,691872656e-01    0,000000000e+00    0,000000000e+00    0,000000000e+00    0,000000000e+00
     1276000000    2,568973787e-02   -9,289360023e-04   -2,407445759e-01    5,508206487e-01    0,000000000e+00    0,000000000e+00    0,000000000e+00    0,000000000e+00
     1290000000    2,124403417e-02   -8,560291678e-02    6,792688370e-02    5,794600248e-01    0,000000000e+00    0,000000000e+00    0,000000000e+00    0,000000000e+00
     1304000000   -3,154789656e-02   -1,687830240e-01    3,640518785e-01    4,659084976e-01    0,000000000e+00    0,000000000e+00    0,000000000e+00    0,000000000e+00
     1318000000   -1,322877556e-01   -2,105664611e-01    5,866170526e-01    2,212822139e-01    0,000000000e+00    0,000000000e+00    0,000000000e+00    0,000000000e+00
     1332000000   -2,511350811e-01   -1,919976622e-01    6,568219662e-01   -1,320106238e-01    0,000000000e+00    0,000000000e+00    0,000000000e+00    0,000000000e+00
     1346000000   -3,356662095e-01   -8,996582776e-02    5,022526383e-01   -4,665303528e-01    0,000000000e+00    0,000000000e+00    0,000000000e+00    0,000000000e+00
     1360000000   -3,300544322e-01    2,557685785e-02    1,966743022e-01   -6,498717070e-01    0,000000000e+00    0,000000000e+00    0,000000000e+00    0,000000000e+00
     1374000000   -2,783578336e-01    1,033813953e-01   -1,523215920e-01   -6,083160043e-01    0,000000000e+00    0,000000000e+00    0,000000000e+00    0,000000000e+00
     1388000000   -2,086147815e-01    1,383273751e-01   -4,027127624e-01   -3,826895356e-01    0,000000000e+00    0,000000000e+00    0,000000000e+00    0,000000000e+00
     1402000000   -1,507994533e-01    1,393682808e-01   -4,800452292e-01   -5,499754101e-02    0,000000000e+00    0,000000000e+00    0,000000000e+00    0,000000000e+00
     1416000000   -9,746543318e-02    1,203937232e-01   -3,819932640e-01    2,522036731e-01    0,000000000e+00    0,000000000e+00    0,000000000e+00    0,000000000e+00
     1430000000   -4,668432474e-02    7,799770683e-02   -1,173824444e-01    4,504960179e-01    0,000000000e+00    0,000000000e+00    0,000000000e+00    0,000000000e+00
     1444000000   -3,753393888e-02    5,757266190e-03    1,621773094e-01    5,481845140e-01    0,000000000e+00    0,000000000e+00    0,000000000e+00    0,000000000e+00
     1458000000   -6,386708468e-02   -7,362513989e-02    4,975603521e-01    4,820267856e-01    0,000000000e+00    0,000000000e+00    0,000000000e+00    0,000000000e+00
     1472000000   -1,350853592e-01   -1,144057736e-01    7,560437322e-01    2,716282904e-01    0,000000000e+00    0,000000000e+00    0,000000000e+00    0,000000000e+00
     1486000000   -2,288462073e-01   -1,145365909e-01    8,858466148e-01   -9,588823467e-02    0,000000000e+00    0,000000000e+00    0,000000000e+00    0,000000000e+00
     1500000000   -2,847174108e-01   -5,020797998e-02    8,074481487e-01   -4,712658226e-01    0,000000000e+00    0,000000000e+00    0,000000000e+00    0,000000000e+00
