! NanoVNA-App
! Date: 2025-09-25 15:07:23
! Start: 100MHz Stop: 1,5GHz Points: 101
! S-Parameter data: F S11 S21 S12 S22
# Hz S RI R 50
!     Frequency           S11_Real           S11_Imag           S21_Real           S21_Imag           S12_Real           S12_Imag           S22_Real           S22_Imag
      100000000    3,114807792e-02    2,863670886e-02    4,348321855e-01   -6,686143279e-01    0,000000000e+00    0,000000000e+00    0,000000000e+00    0,000000000e+00
      114000000    5,757993087e-02    5,483426619e-03    7,690398488e-03   -7,910518050e-01    0,000000000e+00    0,000000000e+00    0,000000000e+00    0,000000000e+00
      128000000    6,730119139e-02   -3,785857931e-02   -4,102764726e-01   -6,710847020e-01    0,000000000e+00    0,000000000e+00    0,000000000e+00    0,000000000e+00
      142000000    4,471549019e-02   -8,417668194e-02   -7,028856277e-01   -3,533223271e-01    0,000000000e+00    0,000000000e+00    0,000000000e+00    0,000000000e+00
      156000000   -5,686814431e-03   -1,068721935e-01   -7,871277332e-01    7,407246530e-02    0,000000000e+00    0,000000000e+00    0,000000000e+00    0,000000000e+00
      170000000   -5,767635256e-02   -9,061170369e-02   -6,273439527e-01    4,869741797e-01    0,000000000e+00    0,000000000e+00    0,000000000e+00    0,000000000e+00
      184000000   -8,367362618e-02   -4,946604744e-02   -2,650555670e-01    7,512620687e-01    0,000000000e+00    0,000000000e+00    0,000000000e+00    0,000000000e+00
      198000000   -7,962087542e-02   -1,045981608e-02    1,836350560e-01    7,731566429e-01    0,000000000e+00    0,000000000e+00    0,000000000e+00    0,000000000e+00
      212000000   -6,228275225e-02    1,321818214e-02    5,694123507e-01    5,490950942e-01    0,000000000e+00    0,000000000e+00    0,000000000e+00    0,000000000e+00
      226000000   -4,330916330e-02    2,771578357e-02    7,707234621e-01    1,544436067e-01    0,000000000e+00    0,000000000e+00    0,000000000e+00    0,000000000e+00
      240000000   -1,821865514e-02    3,847014904e-02    7,268102169e-01   -2,819146514e-01    0,000000000e+00    0,000000000e+00    0,000000000e+00    0,000000000e+00
      254000000    1,716702431e-02    3,516539931e-02    4,582229555e-01   -6,202603579e-01    0,000000000e+00    0,000000000e+00    0,000000000e+00    0,000000000e+00
      268000000    4,879776016e-02    5,607921630e-03    5,877614021e-02   -7,601660490e-01    0,000000000e+00    0,000000000e+00    0,000000000e+00    0,000000000e+00
      282000000    5,347769707e-02   -4,185700044e-02   -3,489951193e-01   -6,717061400e-01    0,000000000e+00    0,000000000e+00    0,000000000e+00    0,000000000e+00
      296000000    2,402231656e-02   -7,942853123e-02   -6,516563892e-01   -3,851553500e-01    0,000000000e+00    0,000000000e+00    0,000000000e+00    0,000000000e+00
      310000000   -1,776184514e-02   -8,311086148e-02   -7,644324303e-01    2,025011554e-02    0,000000000e+00    0,000000000e+00    0,000000000e+00    0,000000000e+00
      324000000   -4,175407439e-02   -5,890003964e-02   -6,323882937e-01    4,306130409e-01    0,000000000e+00    0,000000000e+00    0,000000000e+00    0,000000000e+00
      338000000   -3,445425630e-02   -3,693889827e-02   -2,953727245e-01    6,993798018e-01    0,000000000e+00    0,000000000e+00    0,000000000e+00    0,000000000e+00
      352000000   -1,724461839e-02   -4,072268680e-02    1,251365393e-01    7,423999906e-01    0,000000000e+00    0,000000000e+00    0,000000000e+00    0,000000000e+00
      366000000   -1,953906752e-02   -6,208337471e-02    4,980358779e-01    5,538878441e-01    0,000000000e+00    0,000000000e+00    0,000000000e+00    0,000000000e+00
      380000000   -4,433802515e-02   -7,297857851e-02    7,136331797e-01    1,996145248e-01    0,000000000e+00    0,000000000e+00    0,000000000e+00    0,000000000e+00
      394000000   -7,072210312e-02   -5,818011612e-02    7,044620514e-01   -2,161683440e-01    0,000000000e+00    0,000000000e+00    0,000000000e+00    0,000000000e+00
      408000000   -7,708349079e-02   -3,066126443e-02    4,706818163e-01   -5,603838563e-01    0,000000000e+00    0,000000000e+00    0,000000000e+00    0,000000000e+00
      422000000   -6,567721069e-02   -1,099006180e-02    9,248767793e-02   -7,172691822e-01    0,000000000e+00    0,000000000e+00    0,000000000e+00    0,000000000e+00
      436000000   -5,285181105e-02   -4,476351663e-03   -3,013412356e-01   -6,475709677e-01    0,000000000e+00    0,000000000e+00    0,000000000e+00    0,000000000e+00
      450000000   -4,464837909e-02    1,492328360e-03   -5,931633115e-01   -3,781876862e-01    0,000000000e+00    0,000000000e+00    0,000000000e+00    0,000000000e+00
      464000000   -2,939929627e-02    1,111797802e-02   -6,913878322e-01   -6,305804709e-05    0,000000000e+00    0,000000000e+00    0,000000000e+00    0,000000000e+00
      478000000   -1,435844344e-03    1,117507648e-02   -5,735854506e-01    3,637207448e-01    0,000000000e+00    0,000000000e+00    0,000000000e+00    0,000000000e+00
      492000000    2,788455598e-02   -1,220420003e-02   -2,890566587e-01    6,022914648e-01    0,000000000e+00    0,000000000e+00    0,000000000e+00    0,000000000e+00
      506000000    3,627905250e-02   -5,608654022e-02    6,943931431e-02    6,583812237e-01    0,000000000e+00    0,000000000e+00    0,000000000e+00    0,000000000e+00
      520000000    1,269048173e-02   -9,818360209e-02    4,007874727e-01    5,280238986e-01    0,000000000e+00    0,000000000e+00    0,000000000e+00    0,000000000e+00
      534000000   -3,438767418e-02   -1,158011779e-01    6,236489415e-01    2,362766415e-01    0,000000000e+00    0,000000000e+00    0,000000000e+00    0,000000000e+00
      548000000   -7,709277421e-02   -9,926773608e-02    6,585015655e-01   -1,331846863e-01    0,000000000e+00    0,000000000e+00    0,000000000e+00    0,000000000e+00
      562000000   -9,324049205e-02   -6,578759104e-02    4,816209376e-01   -4,669750333e-01    0,000000000e+00    0,000000000e+00    0,000000000e+00    0,000000000e+00
      576000000   -8,647419512e-02   -4,429422319e-02    1,498867124e-01   -6,475943923e-01    0,000000000e+00    0,000000000e+00    0,000000000e+00    0,000000000e+00
      590000000   -8,076579869e-02   -4,188817367e-02   -2,188026905e-01   -6,287614107e-01    0,000000000e+00    0,000000000e+00    0,000000000e+00    0,000000000e+00
      604000000   -8,869310468e-02   -3,739872947e-02   -5,196366906e-01   -4,057450294e-01    0,000000000e+00    0,000000000e+00    0,000000000e+00    0,000000000e+00
      618000000   -9,703443199e-02   -1,512541808e-02   -6,531394124e-01   -5,842255428e-02    0,000000000e+00    0,000000000e+00    0,000000000e+00    0,000000000e+00
      632000000   -8,090577275e-02    1,564365625e-02   -5,752682686e-01    3,027850688e-01    0,000000000e+00    0,000000000e+00    0,000000000e+00    0,000000000e+00
      646000000   -4,267099500e-02    2,586921118e-02   -3,194304407e-01    5,565957427e-01    0,000000000e+00    0,000000000e+00    0,000000000e+00    0,000000000e+00
      660000000   -8,143587969e-03    6,057918072e-03    2,019808628e-02    6,286116242e-01    0,000000000e+00    0,000000000e+00    0,000000000e+00    0,000000000e+00
      674000000    6,536376895e-04   -2,985082567e-02    3,422024846e-01    5,187747478e-01    0,000000000e+00    0,000000000e+00    0,000000000e+00    0,000000000e+00
      688000000   -1,437790785e-02   -5,516043305e-02    5,589693189e-01    2,581115067e-01    0,000000000e+00    0,000000000e+00    0,000000000e+00    0,000000000e+00
      702000000   -3,356282786e-02   -5,923378095e-02    6,052912474e-01   -8,079448342e-02    0,000000000e+00    0,000000000e+00    0,000000000e+00    0,000000000e+00
      716000000   -3,644407913e-02   -5,583940074e-02    4,596146941e-01   -3,893372416e-01    0,000000000e+00    0,000000000e+00    0,000000000e+00    0,000000000e+00
      730000000   -3,156279027e-02   -6,480403244e-02    1,746100187e-01   -5,660713911e-01    0,000000000e+00    0,000000000e+00    0,000000000e+00    0,000000000e+00
      744000000   -4,005134478e-02   -8,776966482e-02   -1,536180228e-01   -5,635610223e-01    0,000000000e+00    0,000000000e+00    0,000000000e+00    0,000000000e+00
      758000000   -7,225817442e-02   -1,041993201e-01   -4,274671972e-01   -3,947641253e-01    0,000000000e+00    0,000000000e+00    0,000000000e+00    0,000000000e+00
      772000000   -1,132101417e-01   -9,387748688e-02   -5,741671920e-01   -1,056256369e-01    0,000000000e+00    0,000000000e+00    0,000000000e+00    0,000000000e+00
      786000000   -1,390747279e-01   -5,655783415e-02   -5,446393490e-01    2,208685279e-01    0,000000000e+00    0,000000000e+00    0,000000000e+00    0,000000000e+00
      800000000   -1,329317242e-01   -1,412220020e-02   -3,415944576e-01    4,796177149e-01    0,000000000e+00    0,000000000e+00    0,000000000e+00    0,000000000e+00
      814000000   -1,078609526e-01    8,296916261e-03   -3,417251632e-02    5,869591236e-01    0,000000000e+00    0,000000000e+00    0,000000000e+00    0,000000000e+00
      828000000   -8,592844009e-02    1,289721113e-02    2,792243659e-01    5,157309771e-01    0,000000000e+00    0,000000000e+00    0,000000000e+00    0,000000000e+00
      842000000   -7,025801390e-02    1,436902862e-02    5,029882193e-01    2,896929383e-01    0,000000000e+00    0,000000000e+00    0,000000000e+00    0,000000000e+00
      856000000   -5,291986465e-02    1,937176473e-02    5,707077384e-01   -1,792449132e-02    0,000000000e+00    0,000000000e+00    0,000000000e+00    0,000000000e+00
      870000000   -2,277309634e-02    1,468727458e-02    4,639149904e-01   -3,070759177e-01    0,000000000e+00    0,000000000e+00    0,000000000e+00    0,000000000e+00
      884000000    5,887620617e-03   -1,511182543e-02    2,312346548e-01   -4,876737297e-01    0,000000000e+00    0,000000000e+00    0,000000000e+00    0,000000000e+00
      898000000    1,200354751e-02   -6,322740763e-02   -5,236172304e-02   -5,263705850e-01    0,000000000e+00    0,000000000e+00    0,000000000e+00    0,000000000e+00
      912000000   -2,378562279e-02   -1,083978936e-01   -3,622682989e-01   -4,090502858e-01    0,000000000e+00    0,000000000e+00    0,000000000e+00    0,000000000e+00
      926000000   -7,505615801e-02   -1,220782846e-01   -5,291698575e-01   -1,561817527e-01    0,000000000e+00    0,000000000e+00    0,000000000e+00    0,000000000e+00
      940000000   -1,212720573e-01   -1,048702821e-01   -5,516434312e-01    1,542346328e-01    0,000000000e+00    0,000000000e+00    0,000000000e+00    0,000000000e+00
      954000000   -1,444312930e-01   -6,205145270e-02   -3,918007910e-01    4,485801756e-01    0,000000000e+00    0,000000000e+00    0,000000000e+00    0,000000000e+00
      968000000   -1,305377632e-01   -2,618733048e-02   -9,080968052e-02    6,028471589e-01    0,000000000e+00    0,000000000e+00    0,000000000e+00    0,000000000e+00
      982000000   -1,132982373e-01   -1,822970808e-02    2,450726330e-01    5,733434558e-01    0,000000000e+00    0,000000000e+00    0,000000000e+00    0,000000000e+00
      996000000   -1,054694429e-01   -1,542201266e-02    5,123752952e-01    3,671474159e-01    0,000000000e+00    0,000000000e+00    0,000000000e+00    0,000000000e+00
     1010000000   -1,058321223e-01   -9,029273875e-03    6,294924617e-01    5,435241386e-02    0,000000000e+00    0,000000000e+00    0,000000000e+00    0,000000000e+00
     1024000000   -9,411886334e-02   -3,160394961e-03    5,624754429e-01   -2,727030814e-01    0,000000000e+00    0,000000000e+00    0,000000000e+00    0,000000000e+00
     1038000000   -7,374328375e-02   -2,453020541e-03    3,377390206e-01   -5,044754148e-01    0,000000000e+00    0,000000000e+00    0,000000000e+00    0,000000000e+00
     1052000000   -6,821227074e-02   -1,911088452e-02    3,196087480e-02   -5,842596292e-01    0,000000000e+00    0,000000000e+00    0,000000000e+00    0,000000000e+00
     1066000000   -6,943787634e-02   -2,719253674e-02   -2,670349479e-01   -5,008947253e-01    0,000000000e+00    0,000000000e+00    0,000000000e+00    0,000000000e+00
     1080000000   -7,766797394e-02   -3,240069374e-02   -4,823592007e-01   -2,694485784e-01    0,000000000e+00    0,000000000e+00    0,000000000e+00    0,000000000e+00
     1094000000   -7,780184597e-02   -1,536389906e-02   -5,313565731e-01    4,013438150e-02    0,000000000e+00    0,000000000e+00    0,000000000e+00    0,000000000e+00
     1108000000   -5,755550787e-02   -9,190225974e-03   -4,011039138e-01    3,250591159e-01    0,000000000e+00    0,000000000e+00    0,000000000e+00    0,000000000e+00
     1122000000   -3,288790211e-02   -3,367182240e-02   -1,353534609e-01    4,819910228e-01    0,000000000e+00    0,000000000e+00    0,000000000e+00    0,000000000e+00
     1136000000   -3,086292185e-02   -8,612293750e-02    1,625377983e-01    4,730294049e-01    0,000000000e+00    0,000000000e+00    0,000000000e+00    0,000000000e+00
     1150000000   -6,881308556e-02   -1,368082017e-01    4,201008677e-01    3,130091131e-01    0,000000000e+00    0,000000000e+00    0,000000000e+00    0,000000000e+00
     1164000000   -1,367095560e-01   -1,512372941e-01    5,637302995e-01    2,545598708e-02    0,000000000e+00    0,000000000e+00    0,000000000e+00    0,000000000e+00
     1178000000   -2,102225572e-01   -1,208695769e-01    5,320668817e-01   -3,169740438e-01    0,000000000e+00    0,000000000e+00    0,000000000e+00    0,000000000e+00
     1192000000   -2,505627275e-01   -4,211898148e-02    2,935139239e-01   -5,977532268e-01    0,000000000e+00    0,000000000e+00    0,000000000e+00    0,000000000e+00
     1206000000   -2,367420346e-01    3,466663137e-02   -7,118482143e-02   -6,971062422e-01    0,000000000e+00    0,000000000e+00    0,000000000e+00    0,000000000e+00
     1220000000   -1,888008118e-01    8,076035976e-02   -4,239203930e-01   -5,788690448e-01    0,000000000e+00    0,000000000e+00    0,000000000e+00    0,000000000e+00
     1234000000   -1,293275058e-01    1,063171849e-01   -6,448508501e-01   -2,894296050e-01    0,000000000e+00    0,000000000e+00    0,000000000e+00    0,000000000e+00
     1248000000   -6,984700263e-02    9,774563462e-02   -6,765589118e-01    6,032140180e-02    0,000000000e+00    0,000000000e+00    0,000000000e+00    0,000000000e+00
     1262000000   -1,397399046e-02    6,241668016e-02   -5,257588029e-01    3,664779067e-01    0,000000000e+00    0,000000000e+00    0,000000000e+00    0,000000000e+00
     1276000000    2,400733717e-02    1,039865077e-03   -2,446416169e-01    5,454030633e-01    0,000000000e+00    0,000000000e+00    0,000000000e+00    0,000000000e+00
     1290000000    2,285240963e-02   -9,202331305e-02    7,183054835e-02    5,724832416e-01    0,000000000e+00    0,000000000e+00    0,000000000e+00    0,000000000e+00
     1304000000   -3,201656789e-02   -1,697933078e-01    3,648637235e-01    4,647704065e-01    0,000000000e+00    0,000000000e+00    0,000000000e+00    0,000000000e+00
     1318000000   -1,321540624e-01   -2,116453499e-01    5,869672298e-01    2,176922411e-01    0,000000000e+00    0,000000000e+00    0,000000000e+00    0,000000000e+00
     1332000000   -2,532094419e-01   -1,900514364e-01    6,576840878e-01   -1,329744905e-01    0,000000000e+00    0,000000000e+00    0,000000000e+00    0,000000000e+00
     1346000000   -3,371071517e-01   -8,695346862e-02    5,061451197e-01   -4,625783861e-01    0,000000000e+00    0,000000000e+00    0,000000000e+00    0,000000000e+00
     1360000000   -3,312590122e-01    2,450022660e-02    1,944250017e-01   -6,424257159e-01    0,000000000e+00    0,000000000e+00    0,000000000e+00    0,000000000e+00
     1374000000   -2,791683972e-01    1,004687920e-01   -1,525734663e-01   -6,029419303e-01    0,000000000e+00    0,000000000e+00    0,000000000e+00    0,000000000e+00
     1388000000   -2,107926309e-01    1,370596439e-01   -4,082662761e-01   -3,688360155e-01    0,000000000e+00    0,000000000e+00    0,000000000e+00    0,000000000e+00
     1402000000   -1,533261836e-01    1,350696385e-01   -4,855258465e-01   -6,435862184e-02    0,000000000e+00    0,000000000e+00    0,000000000e+00    0,000000000e+00
     1416000000   -9,631486237e-02    1,155870780e-01   -3,814908862e-01    2,496830821e-01    0,000000000e+00    0,000000000e+00    0,000000000e+00    0,000000000e+00
     1430000000   -5,453777313e-02    6,612522900e-02   -1,517167836e-01    4,465206265e-01    0,000000000e+00    0,000000000e+00    0,000000000e+00    0,000000000e+00
     1444000000   -2,999363840e-02    7,580019999e-03    1,698491424e-01    5,354536772e-01    0,000000000e+00    0,000000000e+00    0,000000000e+00    0,000000000e+00
     1458000000   -5,964563414e-02   -7,236700505e-02    4,901398122e-01    4,734882414e-01    0,000000000e+00    0,000000000e+00    0,000000000e+00    0,000000000e+00
     1472000000   -1,368854940e-01   -1,209548190e-01    7,626212835e-01    2,678823173e-01    0,000000000e+00    0,000000000e+00    0,000000000e+00    0,000000000e+00
     1486000000   -2,296787947e-01   -1,127350777e-01    9,021033049e-01   -9,248217195e-02    0,000000000e+00    0,000000000e+00    0,000000000e+00    0,000000000e+00
     1500000000   -2,889730334e-01   -4,771434143e-02    7,956761122e-01   -4,559403956e-01    0,000000000e+00    0,000000000e+00    0,000000000e+00    0,000000000e+00
