! NanoVNA-App
! Date: 2025-09-25 15:11:36
! Start: 100MHz Stop: 1,5GHz Points: 101
! S-Parameter data: F S11 S21 S12 S22
# Hz S RI R 50
!     Frequency           S11_Real           S11_Imag           S21_Real           S21_Imag           S12_Real           S12_Imag           S22_Real           S22_Imag
      100000000    3,115448914e-02    2,864100598e-02    4,348303974e-01   -6,686224937e-01    0,000000000e+00    0,000000000e+00    0,000000000e+00    0,000000000e+00
      114000000    5,756783485e-02    5,519231316e-03    7,720037829e-03   -7,910460830e-01    0,000000000e+00    0,000000000e+00    0,000000000e+00    0,000000000e+00
      128000000    6,722802669e-02   -3,784855828e-02   -4,103349447e-01   -6,711780429e-01    0,000000000e+00    0,000000000e+00    0,000000000e+00    0,000000000e+00
      142000000    4,471667856e-02   -8,420649171e-02   -7,028985023e-01   -3,533908725e-01    0,000000000e+00    0,000000000e+00    0,000000000e+00    0,000000000e+00
      156000000   -5,341427866e-03   -1,067927554e-01   -7,875538468e-01    7,348821312e-02    0,000000000e+00    0,000000000e+00    0,000000000e+00    0,000000000e+00
      170000000   -5,769966915e-02   -9,062918276e-02   -6,275200844e-01    4,869212806e-01    0,000000000e+00    0,000000000e+00    0,000000000e+00    0,000000000e+00
      184000000   -8,372040838e-02   -4,948322102e-02   -2,651262879e-01    7,510218620e-01    0,000000000e+00    0,000000000e+00    0,000000000e+00    0,000000000e+00
      198000000   -7,963914424e-02   -1,047622412e-02    1,831924766e-01    7,728996277e-01    0,000000000e+00    0,000000000e+00    0,000000000e+00    0,000000000e+00
      212000000   -6,231761724e-02    1,319399942e-02    5,690814257e-01    5,492359400e-01    0,000000000e+00    0,000000000e+00    0,000000000e+00    0,000000000e+00
      226000000   -4,333884642e-02    2,768910676e-02    7,707101107e-01    1,545179039e-01    0,000000000e+00    0,000000000e+00    0,000000000e+00    0,000000000e+00
      240000000   -1,824935712e-02    3,849839419e-02    7,268459201e-01   -2,818572819e-01    0,000000000e+00    0,000000000e+00    0,000000000e+00    0,000000000e+00
      254000000    1,721931249e-02    3,522572294e-02    4,578208625e-01   -6,199393868e-01    0,000000000e+00    0,000000000e+00    0,000000000e+00    0,000000000e+00
      268000000    4,879100248e-02    5,571165588e-03    5,876152217e-02   -7,599269748e-01    0,000000000e+00    0,000000000e+00    0,000000000e+00    0,000000000e+00
      282000000    5,345325544e-02   -4,174698889e-02   -3,489174545e-01   -6,721025705e-01    0,000000000e+00    0,000000000e+00    0,000000000e+00    0,000000000e+00
      296000000    2,394706383e-02   -7,957593352e-02   -6,515252590e-01   -3,855296671e-01    0,000000000e+00    0,000000000e+00    0,000000000e+00    0,000000000e+00
      310000000   -1,779839210e-02   -8,321420848e-02   -7,640444040e-01    1,969159953e-02    0,000000000e+00    0,000000000e+00    0,000000000e+00    0,000000000e+00
      324000000   -4,158626124e-02   -5,872236937e-02   -6,311520934e-01    4,310535491e-01    0,000000000e+00    0,000000000e+00    0,000000000e+00    0,000000000e+00
      338000000   -3,439313173e-02   -3,656457365e-02   -2,951704860e-01    7,002297044e-01    0,000000000e+00    0,000000000e+00    0,000000000e+00    0,000000000e+00
      352000000   -1,753605343e-02   -4,102583975e-02    1,255792975e-01    7,419070005e-01    0,000000000e+00    0,000000000e+00    0,000000000e+00    0,000000000e+00
      366000000   -1,938692667e-02   -6,184253097e-02    4,986452758e-01    5,546547771e-01    0,000000000e+00    0,000000000e+00    0,000000000e+00    0,000000000e+00
      380000000   -4,435903952e-02   -7,253534347e-02    7,135574818e-01    2,003437728e-01    0,000000000e+00    0,000000000e+00    0,000000000e+00    0,000000000e+00
      394000000   -7,069523633e-02   -5,804389715e-02    7,043312192e-01   -2,167582661e-01    0,000000000e+00    0,000000000e+00    0,000000000e+00    0,000000000e+00
      408000000   -7,710715383e-02   -3,036214598e-02    4,707665741e-01   -5,594627261e-01    0,000000000e+00    0,000000000e+00    0,000000000e+00    0,000000000e+00
      422000000   -6,516081840e-02   -1,105834078e-02    9,368753433e-02   -7,180518508e-01    0,000000000e+00    0,000000000e+00    0,000000000e+00    0,000000000e+00
      436000000   -5,272920802e-02   -4,344584886e-03   -3,015688062e-01   -6,470172405e-01    0,000000000e+00    0,000000000e+00    0,000000000e+00    0,000000000e+00
      450000000   -4,450869188e-02    1,676379004e-03   -5,929820538e-01   -3,779796064e-01    0,000000000e+00    0,000000000e+00    0,000000000e+00    0,000000000e+00
      464000000   -2,946484648e-02    1,132258680e-02   -6,913532019e-01    1,248583867e-04    0,000000000e+00    0,000000000e+00    0,000000000e+00    0,000000000e+00
      478000000   -1,250122674e-03    1,124955993e-02   -5,734027624e-01    3,638816774e-01    0,000000000e+00    0,000000000e+00    0,000000000e+00    0,000000000e+00
      492000000    2,754013240e-02   -1,232472062e-02   -2,896876335e-01    6,018169522e-01    0,000000000e+00    0,000000000e+00    0,000000000e+00    0,000000000e+00
      506000000    3,641192243e-02   -5,545691028e-02    6,972344965e-02    6,587280035e-01    0,000000000e+00    0,000000000e+00    0,000000000e+00    0,000000000e+00
      520000000    1,319712214e-02   -9,858881682e-02    4,041355550e-01    5,243316889e-01    0,000000000e+00    0,000000000e+00    0,000000000e+00    0,000000000e+00
      534000000   -3,425212204e-02   -1,161036268e-01    6,238610744e-01    2,360793203e-01    0,000000000e+00    0,000000000e+00    0,000000000e+00    0,000000000e+00
      548000000   -7,725850493e-02   -9,927479923e-02    6,582634449e-01   -1,329750419e-01    0,000000000e+00    0,000000000e+00    0,000000000e+00    0,000000000e+00
      562000000   -9,336306900e-02   -6,637746841e-02    4,820538163e-01   -4,665572941e-01    0,000000000e+00    0,000000000e+00    0,000000000e+00    0,000000000e+00
      576000000   -8,610346168e-02   -4,458324611e-02    1,512375474e-01   -6,477610469e-01    0,000000000e+00    0,000000000e+00    0,000000000e+00    0,000000000e+00
      590000000   -8,078230917e-02   -4,155720398e-02   -2,209456116e-01   -6,261494756e-01    0,000000000e+00    0,000000000e+00    0,000000000e+00    0,000000000e+00
      604000000   -8,871662617e-02   -3,718144074e-02   -5,191022754e-01   -4,059115946e-01    0,000000000e+00    0,000000000e+00    0,000000000e+00    0,000000000e+00
      618000000   -9,666655958e-02   -1,550392620e-02   -6,535744667e-01   -5,890024081e-02    0,000000000e+00    0,000000000e+00    0,000000000e+00    0,000000000e+00
      632000000   -8,081572503e-02    1,498276740e-02   -5,754824281e-01    3,031690717e-01    0,000000000e+00    0,000000000e+00    0,000000000e+00    0,000000000e+00
      646000000   -4,330762476e-02    2,669447474e-02   -3,191036880e-01    5,554437041e-01    0,000000000e+00    0,000000000e+00    0,000000000e+00    0,000000000e+00
      660000000   -8,081309497e-03    5,513234995e-03    2,054566890e-02    6,287790537e-01    0,000000000e+00    0,000000000e+00    0,000000000e+00    0,000000000e+00
      674000000    1,721364213e-03   -2,989652567e-02    3,427596390e-01    5,181437731e-01    0,000000000e+00    0,000000000e+00    0,000000000e+00    0,000000000e+00
      688000000   -1,533222105e-02   -5,614261329e-02    5,591474771e-01    2,588082552e-01    0,000000000e+00    0,000000000e+00    0,000000000e+00    0,000000000e+00
      702000000   -3,417237476e-02   -6,012387574e-02    6,050139666e-01   -7,898350060e-02    0,000000000e+00    0,000000000e+00    0,000000000e+00    0,000000000e+00
      716000000   -3,769007325e-02   -5,518276617e-02    4,596503973e-01   -3,894542158e-01    0,000000000e+00    0,000000000e+00    0,000000000e+00    0,000000000e+00
      730000000   -3,257961944e-02   -6,522140652e-02    1,742690504e-01   -5,660710931e-01    0,000000000e+00    0,000000000e+00    0,000000000e+00    0,000000000e+00
      744000000   -3,983812034e-02   -8,769181371e-02   -1,532683372e-01   -5,643697977e-01    0,000000000e+00    0,000000000e+00    0,000000000e+00    0,000000000e+00
      758000000   -7,217659056e-02   -1,043165475e-01   -4,275864065e-01   -3,946000040e-01    0,000000000e+00    0,000000000e+00    0,000000000e+00    0,000000000e+00
      772000000   -1,132940874e-01   -9,448144585e-02   -5,745002627e-01   -1,062326506e-01    0,000000000e+00    0,000000000e+00    0,000000000e+00    0,000000000e+00
      786000000   -1,384898871e-01   -5,591627955e-02   -5,454961061e-01    2,205678225e-01    0,000000000e+00    0,000000000e+00    0,000000000e+00    0,000000000e+00
      800000000   -1,334871352e-01   -1,432599965e-02   -3,417361975e-01    4,802128673e-01    0,000000000e+00    0,000000000e+00    0,000000000e+00    0,000000000e+00
      814000000   -1,089555845e-01    8,362859488e-03   -3,524291515e-02    5,866711140e-01    0,000000000e+00    0,000000000e+00    0,000000000e+00    0,000000000e+00
      828000000   -8,590381593e-02    1,346081402e-02    2,776135206e-01    5,152024031e-01    0,000000000e+00    0,000000000e+00    0,000000000e+00    0,000000000e+00
      842000000   -7,035507262e-02    1,487166155e-02    5,025099516e-01    2,896773219e-01    0,000000000e+00    0,000000000e+00    0,000000000e+00    0,000000000e+00
      856000000   -5,275196210e-02    1,958954707e-02    5,706719160e-01   -1,823349111e-02    0,000000000e+00    0,000000000e+00    0,000000000e+00    0,000000000e+00
      870000000   -2,306642570e-02    1,396038570e-02    4,639107883e-01   -3,068433404e-01    0,000000000e+00    0,000000000e+00    0,000000000e+00    0,000000000e+00
      884000000    5,917717703e-03   -1,411940437e-02    2,308069468e-01   -4,866748452e-01    0,000000000e+00    0,000000000e+00    0,000000000e+00    0,000000000e+00
      898000000    1,150170714e-02   -6,375166774e-02   -5,288488045e-02   -5,269181132e-01    0,000000000e+00    0,000000000e+00    0,000000000e+00    0,000000000e+00
      912000000   -2,369509265e-02   -1,086978093e-01   -3,553617001e-01   -4,069692492e-01    0,000000000e+00    0,000000000e+00    0,000000000e+00    0,000000000e+00
      926000000   -7,372959703e-02   -1,247155294e-01   -5,294421911e-01   -1,582023203e-01    0,000000000e+00    0,000000000e+00    0,000000000e+00    0,000000000e+00
      940000000   -1,228800938e-01   -1,013131961e-01   -5,516977310e-01    1,569655836e-01    0,000000000e+00    0,000000000e+00    0,000000000e+00    0,000000000e+00
      954000000   -1,397753358e-01   -6,206117943e-02   -3,916240036e-01    4,458725750e-01    0,000000000e+00    0,000000000e+00    0,000000000e+00    0,000000000e+00
      968000000   -1,327428222e-01   -3,042570688e-02   -9,486794472e-02    6,037821174e-01    0,000000000e+00    0,000000000e+00    0,000000000e+00    0,000000000e+00
      982000000   -1,155951470e-01   -1,312413160e-02    2,455361336e-01    5,727919340e-01    0,000000000e+00    0,000000000e+00    0,000000000e+00    0,000000000e+00
      996000000   -1,087310091e-01   -1,273771748e-02    5,121986270e-01    3,678814769e-01    0,000000000e+00    0,000000000e+00    0,000000000e+00    0,000000000e+00
     1010000000   -1,043572277e-01   -9,511526674e-03    6,285594702e-01    5,205225572e-02    0,000000000e+00    0,000000000e+00    0,000000000e+00    0,000000000e+00
     1024000000   -9,112206846e-02   -2,643759130e-03    5,617135763e-01   -2,691872716e-01    0,000000000e+00    0,000000000e+00    0,000000000e+00    0,000000000e+00
     1038000000   -7,269416749e-02   -1,731486642e-03    3,346046805e-01   -5,037829876e-01    0,000000000e+00    0,000000000e+00    0,000000000e+00    0,000000000e+00
     1052000000   -6,391771883e-02   -1,437697001e-02    3,171889484e-02   -5,846178532e-01    0,000000000e+00    0,000000000e+00    0,000000000e+00    0,000000000e+00
     1066000000   -7,010167837e-02   -2,856957167e-02   -2,674430907e-01   -5,030241013e-01    0,000000000e+00    0,000000000e+00    0,000000000e+00    0,000000000e+00
     1080000000   -8,592441678e-02   -2,977076732e-02   -4,793228507e-01   -2,704208493e-01    0,000000000e+00    0,000000000e+00    0,000000000e+00    0,000000000e+00
     1094000000   -7,782498747e-02   -1,468717773e-02   -5,317816138e-01    4,156463966e-02    0,000000000e+00    0,000000000e+00    0,000000000e+00    0,000000000e+00
     1108000000   -5,652358755e-02   -1,328660641e-02   -3,968966901e-01    3,259859681e-01    0,000000000e+00    0,000000000e+00    0,000000000e+00    0,000000000e+00
     1122000000   -2,825341746e-02   -3,691143543e-02   -1,377044916e-01    4,805833399e-01    0,000000000e+00    0,000000000e+00    0,000000000e+00    0,000000000e+00
     1136000000   -2,607729472e-02   -8,450913429e-02    1,637134403e-01    4,736777246e-01    0,000000000e+00    0,000000000e+00    0,000000000e+00    0,000000000e+00
     1150000000   -6,537006050e-02   -1,374052465e-01    4,188348949e-01    3,132839501e-01    0,000000000e+00    0,000000000e+00    0,000000000e+00    0,000000000e+00
     1164000000   -1,337710917e-01   -1,547344923e-01    5,651479363e-01    2,822984010e-02    0,000000000e+00    0,000000000e+00    0,000000000e+00    0,000000000e+00
     1178000000   -2,162411213e-01   -1,191013530e-01    5,297176242e-01   -3,154097199e-01    0,000000000e+00    0,000000000e+00    0,000000000e+00    0,000000000e+00
     1192000000   -2,481157482e-01   -4,081427306e-02    2,939591110e-01   -5,964080691e-01    0,000000000e+00    0,000000000e+00    0,000000000e+00    0,000000000e+00
     1206000000   -2,314049751e-01    3,014596924e-02   -6,626836956e-02   -6,997089982e-01    0,000000000e+00    0,000000000e+00    0,000000000e+00    0,000000000e+00
     1220000000   -1,826252490e-01    8,343824744e-02   -4,196017087e-01   -5,783647895e-01    0,000000000e+00    0,000000000e+00    0,000000000e+00    0,000000000e+00
     1234000000   -1,295124441e-01    1,010077447e-01   -6,493459940e-01   -2,952256501e-01    0,000000000e+00    0,000000000e+00    0,000000000e+00    0,000000000e+00
     1248000000   -6,543744355e-02    9,473878145e-02   -6,789891124e-01    6,340108812e-02    0,000000000e+00    0,000000000e+00    0,000000000e+00    0,000000000e+00
     1262000000   -8,591502905e-03    6,322739273e-02   -5,145333409e-01    3,676719666e-01    0,000000000e+00    0,000000000e+00    0,000000000e+00    0,000000000e+00
     1276000000    2,709857002e-02   -3,426306357e-04   -2,391622066e-01    5,483509302e-01    0,000000000e+00    0,000000000e+00    0,000000000e+00    0,000000000e+00
     1290000000    2,071372420e-02   -8,476813883e-02    6,949123740e-02    5,795866251e-01    0,000000000e+00    0,000000000e+00    0,000000000e+00    0,000000000e+00
     1304000000   -3,482105955e-02   -1,677297205e-01    3,641861081e-01    4,666473567e-01    0,000000000e+00    0,000000000e+00    0,000000000e+00    0,000000000e+00
     1318000000   -1,284317970e-01   -2,128624320e-01    5,869300365e-01    2,226634473e-01    0,000000000e+00    0,000000000e+00    0,000000000e+00    0,000000000e+00
     1332000000   -2,562105656e-01   -1,864031404e-01    6,500806212e-01   -1,223547459e-01    0,000000000e+00    0,000000000e+00    0,000000000e+00    0,000000000e+00
     1346000000   -3,325029016e-01   -8,786272258e-02    5,127353668e-01   -4,546330571e-01    0,000000000e+00    0,000000000e+00    0,000000000e+00    0,000000000e+00
     1360000000   -3,313941360e-01    2,632293478e-02    1,869307458e-01   -6,452888250e-01    0,000000000e+00    0,000000000e+00    0,000000000e+00    0,000000000e+00
     1374000000   -2,804665864e-01    1,026811227e-01   -1,639271230e-01   -6,107135415e-01    0,000000000e+00    0,000000000e+00    0,000000000e+00    0,000000000e+00
     1388000000   -2,091832012e-01    1,380371600e-01   -3,989771903e-01   -3,722630441e-01    0,000000000e+00    0,000000000e+00    0,000000000e+00    0,000000000e+00
     1402000000   -1,472968310e-01    1,361002624e-01   -4,807623327e-01   -6,089716777e-02    0,000000000e+00    0,000000000e+00    0,000000000e+00    0,000000000e+00
     1416000000   -9,093033522e-02    1,196851060e-01   -3,736964166e-01    2,522462904e-01    0,000000000e+00    0,000000000e+00    0,000000000e+00    0,000000000e+00
     1430000000   -5,130969360e-02    7,232056558e-02   -1,612783521e-01    4,455162883e-01    0,000000000e+00    0,000000000e+00    0,000000000e+00    0,000000000e+00
     1444000000   -3,694725037e-02    1,886454877e-03    1,582337469e-01    5,418040156e-01    0,000000000e+00    0,000000000e+00    0,000000000e+00    0,000000000e+00
     1458000000   -6,505151093e-02   -7,460167259e-02    4,850106239e-01    4,675805569e-01    0,000000000e+00    0,000000000e+00    0,000000000e+00    0,000000000e+00
     1472000000   -1,373068839e-01   -1,264461130e-01    7,654371262e-01    2,525592744e-01    0,000000000e+00    0,000000000e+00    0,000000000e+00    0,000000000e+00
     1486000000   -2,238755226e-01   -1,175824255e-01    8,997501731e-01   -7,652944326e-02    0,000000000e+00    0,000000000e+00    0,000000000e+00    0,000000000e+00
     1500000000   -2,902002335e-01   -4,812255129e-02    8,023718596e-01   -4,767999053e-01    0,000000000e+00    0,000000000e+00    0,000000000e+00    0,000000000e+00
