! NanoVNA-App
! Date: 2025-09-25 15:04:51
! Start: 100MHz Stop: 1,5GHz Points: 101
! S-Parameter data: F S11 S21 S12 S22
# Hz S RI R 50
!     Frequency           S11_Real           S11_Imag           S21_Real           S21_Imag           S12_Real           S12_Imag           S22_Real           S22_Imag
      100000000    3,110647760e-02    2,860634029e-02    4,348304868e-01   -6,687313318e-01    0,000000000e+00    0,000000000e+00    0,000000000e+00    0,000000000e+00
      114000000    5,753277987e-02    5,472896155e-03    7,605609484e-03   -7,911447287e-01    0,000000000e+00    0,000000000e+00    0,000000000e+00    0,000000000e+00
      128000000    6,716106832e-02   -3,781544417e-02   -4,104328156e-01   -6,710569263e-01    0,000000000e+00    0,000000000e+00    0,000000000e+00    0,000000000e+00
      142000000    4,466230795e-02   -8,413520455e-02   -7,027868629e-01   -3,529850245e-01    0,000000000e+00    0,000000000e+00    0,000000000e+00    0,000000000e+00
      156000000   -5,425436422e-03   -1,063886881e-01   -7,872021198e-01    7,330232114e-02    0,000000000e+00    0,000000000e+00    0,000000000e+00    0,000000000e+00
      170000000   -5,766482651e-02   -9,062157571e-02   -6,275368929e-01    4,870349169e-01    0,000000000e+00    0,000000000e+00    0,000000000e+00    0,000000000e+00
      184000000   -8,360904455e-02   -4,942816868e-02   -2,647572756e-01    7,514125705e-01    0,000000000e+00    0,000000000e+00    0,000000000e+00    0,000000000e+00
      198000000   -7,955469936e-02   -1,043764129e-02    1,836847067e-01    7,732489705e-01    0,000000000e+00    0,000000000e+00    0,000000000e+00    0,000000000e+00
      212000000   -6,221390143e-02    1,311317831e-02    5,691009760e-01    5,490140915e-01    0,000000000e+00    0,000000000e+00    0,000000000e+00    0,000000000e+00
      226000000   -4,319434240e-02    2,758585289e-02    7,707191706e-01    1,543906331e-01    0,000000000e+00    0,000000000e+00    0,000000000e+00    0,000000000e+00
      240000000   -1,822370477e-02    3,835465387e-02    7,268939018e-01   -2,821512222e-01    0,000000000e+00    0,000000000e+00    0,000000000e+00    0,000000000e+00
      254000000    1,712317578e-02    3,505572304e-02    4,579624832e-01   -6,203167439e-01    0,000000000e+00    0,000000000e+00    0,000000000e+00    0,000000000e+00
      268000000    4,866715893e-02    5,527268164e-03    5,868171528e-02   -7,601994276e-01    0,000000000e+00    0,000000000e+00    0,000000000e+00    0,000000000e+00
      282000000    5,334168300e-02   -4,189335555e-02   -3,493961394e-01   -6,713378429e-01    0,000000000e+00    0,000000000e+00    0,000000000e+00    0,000000000e+00
      296000000    2,400460467e-02   -7,940365374e-02   -6,522721648e-01   -3,852796555e-01    0,000000000e+00    0,000000000e+00    0,000000000e+00    0,000000000e+00
      310000000   -1,781380922e-02   -8,315312117e-02   -7,622860670e-01    2,067009360e-02    0,000000000e+00    0,000000000e+00    0,000000000e+00    0,000000000e+00
      324000000   -4,147945344e-02   -5,879918113e-02   -6,317502856e-01    4,312600195e-01    0,000000000e+00    0,000000000e+00    0,000000000e+00    0,000000000e+00
      338000000   -3,437519446e-02   -3,680867329e-02   -2,953225970e-01    7,021830678e-01    0,000000000e+00    0,000000000e+00    0,000000000e+00    0,000000000e+00
      352000000   -1,728829369e-02   -4,060053453e-02    1,262940764e-01    7,422223687e-01    0,000000000e+00    0,000000000e+00    0,000000000e+00    0,000000000e+00
      366000000   -1,943048276e-02   -6,176610664e-02    4,976493120e-01    5,546502471e-01    0,000000000e+00    0,000000000e+00    0,000000000e+00    0,000000000e+00
      380000000   -4,393618554e-02   -7,274061441e-02    7,136135697e-01    1,995150596e-01    0,000000000e+00    0,000000000e+00    0,000000000e+00    0,000000000e+00
      394000000   -7,087643445e-02   -5,795890465e-02    7,045889497e-01   -2,159942985e-01    0,000000000e+00    0,000000000e+00    0,000000000e+00    0,000000000e+00
      408000000   -7,703057677e-02   -3,056995198e-02    4,703932703e-01   -5,608114004e-01    0,000000000e+00    0,000000000e+00    0,000000000e+00    0,000000000e+00
      422000000   -6,582909822e-02   -1,120818034e-02    9,275832772e-02   -7,172571421e-01    0,000000000e+00    0,000000000e+00    0,000000000e+00    0,000000000e+00
      436000000   -5,335548148e-02   -4,448006395e-03   -3,026784658e-01   -6,471948624e-01    0,000000000e+00    0,000000000e+00    0,000000000e+00    0,000000000e+00
      450000000   -4,465506226e-02    1,950599253e-03   -5,932742953e-01   -3,774276376e-01    0,000000000e+00    0,000000000e+00    0,000000000e+00    0,000000000e+00
      464000000   -2,918452397e-02    1,193581428e-02   -6,908509135e-01    9,515560814e-04    0,000000000e+00    0,000000000e+00    0,000000000e+00    0,000000000e+00
      478000000   -7,851311238e-04    1,103876531e-02   -5,724777579e-01    3,634863794e-01    0,000000000e+00    0,000000000e+00    0,000000000e+00    0,000000000e+00
      492000000    2,816529572e-02   -1,279534213e-02   -2,886897326e-01    6,016831398e-01    0,000000000e+00    0,000000000e+00    0,000000000e+00    0,000000000e+00
      506000000    3,611612692e-02   -5,609884113e-02    6,883001328e-02    6,577427387e-01    0,000000000e+00    0,000000000e+00    0,000000000e+00    0,000000000e+00
      520000000    1,278771088e-02   -9,798528999e-02    4,000818431e-01    5,252928734e-01    0,000000000e+00    0,000000000e+00    0,000000000e+00    0,000000000e+00
      534000000   -3,434898704e-02   -1,160126477e-01    6,240530610e-01    2,357891798e-01    0,000000000e+00    0,000000000e+00    0,000000000e+00    0,000000000e+00
      548000000   -7,775202394e-02   -9,879922122e-02    6,576302052e-01   -1,333404779e-01    0,000000000e+00    0,000000000e+00    0,000000000e+00    0,000000000e+00
      562000000   -9,287801385e-02   -6,579672545e-02    4,819585085e-01   -4,665746689e-01    0,000000000e+00    0,000000000e+00    0,000000000e+00    0,000000000e+00
      576000000   -8,592834324e-02   -4,443569109e-02    1,501325667e-01   -6,469357610e-01    0,000000000e+00    0,000000000e+00    0,000000000e+00    0,000000000e+00
      590000000   -8,080600202e-02   -4,206552356e-02   -2,183488458e-01   -6,281799674e-01    0,000000000e+00    0,000000000e+00    0,000000000e+00    0,000000000e+00
      604000000   -8,916811645e-02   -3,723360226e-02   -5,203328729e-01   -4,054011703e-01    0,000000000e+00    0,000000000e+00    0,000000000e+00    0,000000000e+00
      618000000   -9,630379826e-02   -1,546123158e-02   -6,533694863e-01   -5,839766562e-02    0,000000000e+00    0,000000000e+00    0,000000000e+00    0,000000000e+00
      632000000   -8,082282543e-02    1,537682768e-02   -5,752168894e-01    3,029757440e-01    0,000000000e+00    0,000000000e+00    0,000000000e+00    0,000000000e+00
      646000000   -4,292171076e-02    2,603446506e-02   -3,187075853e-01    5,561197400e-01    0,000000000e+00    0,000000000e+00    0,000000000e+00    0,000000000e+00
      660000000   -7,731909864e-03    6,425791886e-03    2,100934833e-02    6,290783286e-01    0,000000000e+00    0,000000000e+00    0,000000000e+00    0,000000000e+00
      674000000    9,575288277e-04   -2,993527055e-02    3,426420093e-01    5,188976526e-01    0,000000000e+00    0,000000000e+00    0,000000000e+00    0,000000000e+00
      688000000   -1,370793767e-02   -5,554500595e-02    5,591084361e-01    2,584070265e-01    0,000000000e+00    0,000000000e+00    0,000000000e+00    0,000000000e+00
      702000000   -3,346644714e-02   -5,861612409e-02    6,070567369e-01   -8,295734227e-02    0,000000000e+00    0,000000000e+00    0,000000000e+00    0,000000000e+00
      716000000   -3,773501888e-02   -5,596396327e-02    4,592818320e-01   -3,904915750e-01    0,000000000e+00    0,000000000e+00    0,000000000e+00    0,000000000e+00
      730000000   -3,301649541e-02   -6,550702453e-02    1,732198000e-01   -5,662132502e-01    0,000000000e+00    0,000000000e+00    0,000000000e+00    0,000000000e+00
      744000000   -4,111827165e-02   -8,750159293e-02   -1,536088735e-01   -5,631861091e-01    0,000000000e+00    0,000000000e+00    0,000000000e+00    0,000000000e+00
      758000000   -7,326159626e-02   -1,035847589e-01   -4,276200235e-01   -3,940790594e-01    0,000000000e+00    0,000000000e+00    0,000000000e+00    0,000000000e+00
      772000000   -1,135123745e-01   -9,297136217e-02   -5,741203427e-01   -1,050476655e-01    0,000000000e+00    0,000000000e+00    0,000000000e+00    0,000000000e+00
      786000000   -1,378922015e-01   -5,459772795e-02   -5,439950824e-01    2,211105525e-01    0,000000000e+00    0,000000000e+00    0,000000000e+00    0,000000000e+00
      800000000   -1,314917654e-01   -1,494647749e-02   -3,401090205e-01    4,802105129e-01    0,000000000e+00    0,000000000e+00    0,000000000e+00    0,000000000e+00
      814000000   -1,075692624e-01    8,371013217e-03   -3,369970247e-02    5,859220028e-01    0,000000000e+00    0,000000000e+00    0,000000000e+00    0,000000000e+00
      828000000   -8,524685353e-02    1,237040199e-02    2,793901563e-01    5,131643414e-01    0,000000000e+00    0,000000000e+00    0,000000000e+00    0,000000000e+00
      842000000   -7,088929415e-02    1,435223315e-02    5,026168823e-01    2,891261876e-01    0,000000000e+00    0,000000000e+00    0,000000000e+00    0,000000000e+00
      856000000   -5,345641822e-02    1,905496046e-02    5,701811910e-01   -1,845908724e-02    0,000000000e+00    0,000000000e+00    0,000000000e+00    0,000000000e+00
      870000000   -2,338817529e-02    1,418467984e-02    4,634055495e-01   -3,064850569e-01    0,000000000e+00    0,000000000e+00    0,000000000e+00    0,000000000e+00
      884000000    4,867333919e-03   -1,394854113e-02    2,306563407e-01   -4,878471792e-01    0,000000000e+00    0,000000000e+00    0,000000000e+00    0,000000000e+00
      898000000    1,176934037e-02   -6,299403310e-02   -5,307578295e-02   -5,266113877e-01    0,000000000e+00    0,000000000e+00    0,000000000e+00    0,000000000e+00
      912000000   -2,225352637e-02   -1,077785045e-01   -3,586347699e-01   -3,947811127e-01    0,000000000e+00    0,000000000e+00    0,000000000e+00    0,000000000e+00
      926000000   -7,658676803e-02   -1,232602075e-01   -5,316445231e-01   -1,572265923e-01    0,000000000e+00    0,000000000e+00    0,000000000e+00    0,000000000e+00
      940000000   -1,216752604e-01   -1,047625840e-01   -5,526446700e-01    1,556387097e-01    0,000000000e+00    0,000000000e+00    0,000000000e+00    0,000000000e+00
      954000000   -1,403136253e-01   -6,456119567e-02   -3,914270997e-01    4,468385577e-01    0,000000000e+00    0,000000000e+00    0,000000000e+00    0,000000000e+00
      968000000   -1,291446239e-01   -3,036617301e-02   -9,028498083e-02    6,031572223e-01    0,000000000e+00    0,000000000e+00    0,000000000e+00    0,000000000e+00
      982000000   -1,133909971e-01   -1,533531304e-02    2,459862977e-01    5,741695166e-01    0,000000000e+00    0,000000000e+00    0,000000000e+00    0,000000000e+00
      996000000   -1,078182831e-01   -1,715422608e-02    5,145066381e-01    3,683212698e-01    0,000000000e+00    0,000000000e+00    0,000000000e+00    0,000000000e+00
     1010000000   -1,068636402e-01   -7,060834672e-03    6,312205791e-01    4,933550954e-02    0,000000000e+00    0,000000000e+00    0,000000000e+00    0,000000000e+00
     1024000000   -9,501317143e-02    7,236773381e-04    5,629048944e-01   -2,745199203e-01    0,000000000e+00    0,000000000e+00    0,000000000e+00    0,000000000e+00
     1038000000   -7,447171956e-02    3,583582351e-03    3,350792229e-01   -5,057627559e-01    0,000000000e+00    0,000000000e+00    0,000000000e+00    0,000000000e+00
     1052000000   -6,032411382e-02   -1,731761917e-02    3,121978790e-02   -5,865576267e-01    0,000000000e+00    0,000000000e+00    0,000000000e+00    0,000000000e+00
     1066000000   -7,171753049e-02   -3,174607083e-02   -2,661798000e-01   -4,995892346e-01    0,000000000e+00    0,000000000e+00    0,000000000e+00    0,000000000e+00
     1080000000   -8,131072670e-02   -3,489985317e-02   -4,835778773e-01   -2,680021524e-01    0,000000000e+00    0,000000000e+00    0,000000000e+00    0,000000000e+00
     1094000000   -7,793321460e-02   -1,776312664e-02   -5,324254632e-01    4,499728233e-02    0,000000000e+00    0,000000000e+00    0,000000000e+00    0,000000000e+00
     1108000000   -6,030451134e-02   -1,611307822e-02   -3,935942054e-01    3,248409033e-01    0,000000000e+00    0,000000000e+00    0,000000000e+00    0,000000000e+00
     1122000000   -2,849043906e-02   -3,788534552e-02   -1,335512698e-01    4,798544347e-01    0,000000000e+00    0,000000000e+00    0,000000000e+00    0,000000000e+00
     1136000000   -3,144507483e-02   -8,578612655e-02    1,614424884e-01    4,732479155e-01    0,000000000e+00    0,000000000e+00    0,000000000e+00    0,000000000e+00
     1150000000   -6,560358405e-02   -1,375027150e-01    4,191361368e-01    3,080321252e-01    0,000000000e+00    0,000000000e+00    0,000000000e+00    0,000000000e+00
     1164000000   -1,379750818e-01   -1,482824683e-01    5,621812344e-01    2,559016831e-02    0,000000000e+00    0,000000000e+00    0,000000000e+00    0,000000000e+00
     1178000000   -2,129113078e-01   -1,195835099e-01    5,270917416e-01   -3,144697845e-01    0,000000000e+00    0,000000000e+00    0,000000000e+00    0,000000000e+00
     1192000000   -2,447547466e-01   -4,090082273e-02    2,947682440e-01   -5,970587730e-01    0,000000000e+00    0,000000000e+00    0,000000000e+00    0,000000000e+00
     1206000000   -2,359808236e-01    3,470523655e-02   -6,863220781e-02   -6,970126629e-01    0,000000000e+00    0,000000000e+00    0,000000000e+00    0,000000000e+00
     1220000000   -1,906437874e-01    8,096230030e-02   -4,198747873e-01   -5,727334023e-01    0,000000000e+00    0,000000000e+00    0,000000000e+00    0,000000000e+00
     1234000000   -1,254093945e-01    1,070149764e-01   -6,407942772e-01   -2,885183096e-01    0,000000000e+00    0,000000000e+00    0,000000000e+00    0,000000000e+00
     1248000000   -6,582504511e-02    9,604410827e-02   -6,730253100e-01    6,421137601e-02    0,000000000e+00    0,000000000e+00    0,000000000e+00    0,000000000e+00
     1262000000   -1,088194270e-02    6,488587707e-02   -5,131632686e-01    3,682228327e-01    0,000000000e+00    0,000000000e+00    0,000000000e+00    0,000000000e+00
     1276000000    2,184377983e-02   -7,283714367e-04   -2,448655069e-01    5,445453525e-01    0,000000000e+00    0,000000000e+00    0,000000000e+00    0,000000000e+00
     1290000000    1,675667427e-02   -8,848877251e-02    6,698729843e-02    5,742626190e-01    0,000000000e+00    0,000000000e+00    0,000000000e+00    0,000000000e+00
     1304000000   -2,988156490e-02   -1,681484580e-01    3,625935614e-01    4,636064768e-01    0,000000000e+00    0,000000000e+00    0,000000000e+00    0,000000000e+00
     1318000000   -1,314152479e-01   -2,085361183e-01    5,825883746e-01    2,209909558e-01    0,000000000e+00    0,000000000e+00    0,000000000e+00    0,000000000e+00
     1332000000   -2,566426396e-01   -1,881835312e-01    6,436743140e-01   -1,227005869e-01    0,000000000e+00    0,000000000e+00    0,000000000e+00    0,000000000e+00
     1346000000   -3,318841159e-01   -9,354040027e-02    5,073742270e-01   -4,564556777e-01    0,000000000e+00    0,000000000e+00    0,000000000e+00    0,000000000e+00
     1360000000   -3,364094198e-01    1,949491538e-02    1,866961271e-01   -6,516784430e-01    0,000000000e+00    0,000000000e+00    0,000000000e+00    0,000000000e+00
     1374000000   -2,820796967e-01    1,067971364e-01   -1,518861204e-01   -6,000739932e-01    0,000000000e+00    0,000000000e+00    0,000000000e+00    0,000000000e+00
     1388000000   -2,131826431e-01    1,295817345e-01   -4,063914418e-01   -3,745906651e-01    0,000000000e+00    0,000000000e+00    0,000000000e+00    0,000000000e+00
     1402000000   -1,458431184e-01    1,346375346e-01   -4,750757813e-01   -6,365941465e-02    0,000000000e+00    0,000000000e+00    0,000000000e+00    0,000000000e+00
     1416000000   -1,003396958e-01    1,215608940e-01   -3,811903894e-01    2,365827858e-01    0,000000000e+00    0,000000000e+00    0,000000000e+00    0,000000000e+00
     1430000000   -4,928744957e-02    7,013889402e-02   -1,494213194e-01    4,261685312e-01    0,000000000e+00    0,000000000e+00    0,000000000e+00    0,000000000e+00
     1444000000   -3,982991725e-02    7,637063507e-03    1,621299535e-01    5,376788378e-01    0,000000000e+00    0,000000000e+00    0,000000000e+00    0,000000000e+00
     1458000000   -6,039713323e-02   -7,223415375e-02    4,814292192e-01    4,694410861e-01    0,000000000e+00    0,000000000e+00    0,000000000e+00    0,000000000e+00
     1472000000   -1,321664453e-01   -1,217049658e-01    7,542952895e-01    2,858512998e-01    0,000000000e+00    0,000000000e+00    0,000000000e+00    0,000000000e+00
     1486000000   -2,279369235e-01   -1,203596145e-01    9,067108631e-01   -8,160895109e-02    0,000000000e+00    0,000000000e+00    0,000000000e+00    0,000000000e+00
     1500000000   -2,878047228e-01   -5,560887232e-02    8,075139523e-01   -4,632996023e-01    0,000000000e+00    0,000000000e+00    0,000000000e+00    0,000000000e+00
