! NanoVNA-App
! Date: 2025-09-25 15:10:27
! Start: 100MHz Stop: 1,5GHz Points: 101
! S-Parameter data: F S11 S21 S12 S22
# Hz S RI R 50
!     Frequency           S11_Real           S11_Imag           S21_Real           S21_Imag           S12_Real           S12_Imag           S22_Real           S22_Imag
      100000000    3,115607053e-02    2,863958105e-02    4,349161088e-01   -6,685824990e-01    0,000000000e+00    0,000000000e+00    0,000000000e+00    0,000000000e+00
      114000000    5,760342255e-02    5,493189674e-03    7,668911945e-03   -7,909222245e-01    0,000000000e+00    0,000000000e+00    0,000000000e+00    0,000000000e+00
      128000000    6,728334725e-02   -3,781079501e-02   -4,103256464e-01   -6,710869074e-01    0,000000000e+00    0,000000000e+00    0,000000000e+00    0,000000000e+00
      142000000    4,470822588e-02   -8,422891796e-02   -7,029625177e-01   -3,531966805e-01    0,000000000e+00    0,000000000e+00    0,000000000e+00    0,000000000e+00
      156000000   -5,468755495e-03   -1,069248021e-01   -7,871639729e-01    7,404275984e-02    0,000000000e+00    0,000000000e+00    0,000000000e+00    0,000000000e+00
      170000000   -5,772186816e-02   -9,057696909e-02   -6,276256442e-01    4,869197011e-01    0,000000000e+00    0,000000000e+00    0,000000000e+00    0,000000000e+00
      184000000   -8,371055126e-02   -4,946396127e-02   -2,649494112e-01    7,508643866e-01    0,000000000e+00    0,000000000e+00    0,000000000e+00    0,000000000e+00
      198000000   -7,961236686e-02   -1,047727931e-02    1,832591295e-01    7,726882696e-01    0,000000000e+00    0,000000000e+00    0,000000000e+00    0,000000000e+00
      212000000   -6,227910146e-02    1,320051868e-02    5,691426396e-01    5,492768288e-01    0,000000000e+00    0,000000000e+00    0,000000000e+00    0,000000000e+00
      226000000   -4,330003262e-02    2,765431628e-02    7,707696557e-01    1,546840668e-01    0,000000000e+00    0,000000000e+00    0,000000000e+00    0,000000000e+00
      240000000   -1,828743331e-02    3,852903098e-02    7,268168330e-01   -2,819697857e-01    0,000000000e+00    0,000000000e+00    0,000000000e+00    0,000000000e+00
      254000000    1,721221581e-02    3,519406170e-02    4,580291212e-01   -6,202682853e-01    0,000000000e+00    0,000000000e+00    0,000000000e+00    0,000000000e+00
      268000000    4,884055629e-02    5,611748900e-03    5,846392363e-02   -7,601426244e-01    0,000000000e+00    0,000000000e+00    0,000000000e+00    0,000000000e+00
      282000000    5,352149904e-02   -4,174328595e-02   -3,491028249e-01   -6,719053388e-01    0,000000000e+00    0,000000000e+00    0,000000000e+00    0,000000000e+00
      296000000    2,402633242e-02   -7,947157323e-02   -6,516801119e-01   -3,856707811e-01    0,000000000e+00    0,000000000e+00    0,000000000e+00    0,000000000e+00
      310000000   -1,787882857e-02   -8,318474144e-02   -7,637570500e-01    1,929213665e-02    0,000000000e+00    0,000000000e+00    0,000000000e+00    0,000000000e+00
      324000000   -4,160004854e-02   -5,907610804e-02   -6,316407323e-01    4,307320714e-01    0,000000000e+00    0,000000000e+00    0,000000000e+00    0,000000000e+00
      338000000   -3,440752625e-02   -3,678819910e-02   -2,955183089e-01    7,018079162e-01    0,000000000e+00    0,000000000e+00    0,000000000e+00    0,000000000e+00
      352000000   -1,754927263e-02   -4,100466147e-02    1,251027435e-01    7,415255308e-01    0,000000000e+00    0,000000000e+00    0,000000000e+00    0,000000000e+00
      366000000   -1,936749928e-02   -6,188449264e-02    4,976400435e-01    5,542311668e-01    0,000000000e+00    0,000000000e+00    0,000000000e+00    0,000000000e+00
      380000000   -4,461322725e-02   -7,266047597e-02    7,132219672e-01    1,998143196e-01    0,000000000e+00    0,000000000e+00    0,000000000e+00    0,000000000e+00
      394000000   -7,071545720e-02   -5,785583705e-02    7,042000890e-01   -2,162486017e-01    0,000000000e+00    0,000000000e+00    0,000000000e+00    0,000000000e+00
      408000000   -7,711726427e-02   -3,032962419e-02    4,708991051e-01   -5,591604114e-01    0,000000000e+00    0,000000000e+00    0,000000000e+00    0,000000000e+00
      422000000   -6,539817899e-02   -1,121650264e-02    9,356471896e-02   -7,173457742e-01    0,000000000e+00    0,000000000e+00    0,000000000e+00    0,000000000e+00
      436000000   -5,301152915e-02   -4,413709044e-03   -3,019981384e-01   -6,473357081e-01    0,000000000e+00    0,000000000e+00    0,000000000e+00    0,000000000e+00
      450000000   -4,500347376e-02    1,456844155e-03   -5,929531455e-01   -3,783413768e-01    0,000000000e+00    0,000000000e+00    0,000000000e+00    0,000000000e+00
      464000000   -2,977464721e-02    1,153444871e-02   -6,913302541e-01   -3,782931890e-05    0,000000000e+00    0,000000000e+00    0,000000000e+00    0,000000000e+00
      478000000   -1,288913423e-03    1,137068216e-02   -5,736374259e-01    3,632377684e-01    0,000000000e+00    0,000000000e+00    0,000000000e+00    0,000000000e+00
      492000000    2,804077603e-02   -1,224353164e-02   -2,893061638e-01    6,018496156e-01    0,000000000e+00    0,000000000e+00    0,000000000e+00    0,000000000e+00
      506000000    3,635419533e-02   -5,594424158e-02    6,914732605e-02    6,579847932e-01    0,000000000e+00    0,000000000e+00    0,000000000e+00    0,000000000e+00
      520000000    1,318397559e-02   -9,765828401e-02    4,029729366e-01    5,266489387e-01    0,000000000e+00    0,000000000e+00    0,000000000e+00    0,000000000e+00
      534000000   -3,468431160e-02   -1,159146279e-01    6,240455508e-01    2,365697175e-01    0,000000000e+00    0,000000000e+00    0,000000000e+00    0,000000000e+00
      548000000   -7,748281211e-02   -9,929000586e-02    6,582594514e-01   -1,335289925e-01    0,000000000e+00    0,000000000e+00    0,000000000e+00    0,000000000e+00
      562000000   -9,316927195e-02   -6,641089916e-02    4,818766415e-01   -4,667008817e-01    0,000000000e+00    0,000000000e+00    0,000000000e+00    0,000000000e+00
      576000000   -8,629883826e-02   -4,435590282e-02    1,507170051e-01   -6,479625106e-01    0,000000000e+00    0,000000000e+00    0,000000000e+00    0,000000000e+00
      590000000   -8,068485558e-02   -4,171961918e-02   -2,181245089e-01   -6,280049086e-01    0,000000000e+00    0,000000000e+00    0,000000000e+00    0,000000000e+00
      604000000   -8,881294727e-02   -3,709292039e-02   -5,192013383e-01   -4,055937529e-01    0,000000000e+00    0,000000000e+00    0,000000000e+00    0,000000000e+00
      618000000   -9,664896876e-02   -1,472421363e-02   -6,532587409e-01   -5,795975775e-02    0,000000000e+00    0,000000000e+00    0,000000000e+00    0,000000000e+00
      632000000   -8,080796897e-02    1,470877137e-02   -5,754727721e-01    3,031952083e-01    0,000000000e+00    0,000000000e+00    0,000000000e+00    0,000000000e+00
      646000000   -4,339749739e-02    2,624128945e-02   -3,188062608e-01    5,549418330e-01    0,000000000e+00    0,000000000e+00    0,000000000e+00    0,000000000e+00
      660000000   -7,352737244e-03    5,450013094e-03    2,127626725e-02    6,299169064e-01    0,000000000e+00    0,000000000e+00    0,000000000e+00    0,000000000e+00
      674000000    1,519854646e-03   -3,056926839e-02    3,425295949e-01    5,178399086e-01    0,000000000e+00    0,000000000e+00    0,000000000e+00    0,000000000e+00
      688000000   -1,559827849e-02   -5,533258244e-02    5,586557984e-01    2,588143647e-01    0,000000000e+00    0,000000000e+00    0,000000000e+00    0,000000000e+00
      702000000   -3,410420194e-02   -5,907130614e-02    6,071589589e-01   -8,267509192e-02    0,000000000e+00    0,000000000e+00    0,000000000e+00    0,000000000e+00
      716000000   -3,714390844e-02   -5,626019463e-02    4,599473774e-01   -3,895398080e-01    0,000000000e+00    0,000000000e+00    0,000000000e+00    0,000000000e+00
      730000000   -3,228738159e-02   -6,442678720e-02    1,747391969e-01   -5,665669441e-01    0,000000000e+00    0,000000000e+00    0,000000000e+00    0,000000000e+00
      744000000   -4,073311388e-02   -8,810681105e-02   -1,534842104e-01   -5,646063685e-01    0,000000000e+00    0,000000000e+00    0,000000000e+00    0,000000000e+00
      758000000   -7,180140913e-02   -1,046675891e-01   -4,278352261e-01   -3,946567178e-01    0,000000000e+00    0,000000000e+00    0,000000000e+00    0,000000000e+00
      772000000   -1,141645983e-01   -9,327511489e-02   -5,743274093e-01   -1,060214341e-01    0,000000000e+00    0,000000000e+00    0,000000000e+00    0,000000000e+00
      786000000   -1,396164745e-01   -5,634623766e-02   -5,451123118e-01    2,209463120e-01    0,000000000e+00    0,000000000e+00    0,000000000e+00    0,000000000e+00
      800000000   -1,332563311e-01   -1,511241309e-02   -3,416645527e-01    4,796525240e-01    0,000000000e+00    0,000000000e+00    0,000000000e+00    0,000000000e+00
      814000000   -1,086500883e-01    8,729691617e-03   -3,463254496e-02    5,866531134e-01    0,000000000e+00    0,000000000e+00    0,000000000e+00    0,000000000e+00
      828000000   -8,517198265e-02    1,319856104e-02    2,785285711e-01    5,139094591e-01    0,000000000e+00    0,000000000e+00    0,000000000e+00    0,000000000e+00
      842000000   -7,111977041e-02    1,467253920e-02    5,024066567e-01    2,901091576e-01    0,000000000e+00    0,000000000e+00    0,000000000e+00    0,000000000e+00
      856000000   -5,226558819e-02    1,997272484e-02    5,701857209e-01   -1,777205244e-02    0,000000000e+00    0,000000000e+00    0,000000000e+00    0,000000000e+00
      870000000   -2,318898775e-02    1,465518959e-02    4,640329480e-01   -3,066612482e-01    0,000000000e+00    0,000000000e+00    0,000000000e+00    0,000000000e+00
      884000000    5,677122623e-03   -1,454272307e-02    2,304794937e-01   -4,881690741e-01    0,000000000e+00    0,000000000e+00    0,000000000e+00    0,000000000e+00
      898000000    1,239280496e-02   -6,397505105e-02   -5,188987777e-02   -5,272875428e-01    0,000000000e+00    0,000000000e+00    0,000000000e+00    0,000000000e+00
      912000000   -2,229392342e-02   -1,084638834e-01   -3,572082818e-01   -4,086460471e-01    0,000000000e+00    0,000000000e+00    0,000000000e+00    0,000000000e+00
      926000000   -7,342661172e-02   -1,237838939e-01   -5,288182497e-01   -1,590809822e-01    0,000000000e+00    0,000000000e+00    0,000000000e+00    0,000000000e+00
      940000000   -1,208848134e-01   -1,037241220e-01   -5,510714650e-01    1,548961848e-01    0,000000000e+00    0,000000000e+00    0,000000000e+00    0,000000000e+00
      954000000   -1,397731304e-01   -6,264718622e-02   -3,913982213e-01    4,476050436e-01    0,000000000e+00    0,000000000e+00    0,000000000e+00    0,000000000e+00
      968000000   -1,290941089e-01   -2,735836245e-02   -8,907700330e-02    6,027849317e-01    0,000000000e+00    0,000000000e+00    0,000000000e+00    0,000000000e+00
      982000000   -1,125747636e-01   -1,453644317e-02    2,464054376e-01    5,719309449e-01    0,000000000e+00    0,000000000e+00    0,000000000e+00    0,000000000e+00
      996000000   -1,088161319e-01   -1,539019682e-02    5,144717097e-01    3,672446907e-01    0,000000000e+00    0,000000000e+00    0,000000000e+00    0,000000000e+00
     1010000000   -1,008881107e-01   -1,034073066e-02    6,293703914e-01    5,171792954e-02    0,000000000e+00    0,000000000e+00    0,000000000e+00    0,000000000e+00
     1024000000   -9,588588774e-02    1,061679213e-03    5,605373383e-01   -2,709067762e-01    0,000000000e+00    0,000000000e+00    0,000000000e+00    0,000000000e+00
     1038000000   -7,435417920e-02    2,486743033e-03    3,372869790e-01   -5,040238500e-01    0,000000000e+00    0,000000000e+00    0,000000000e+00    0,000000000e+00
     1052000000   -6,455783546e-02   -1,885159127e-02    3,536123410e-02   -5,839809179e-01    0,000000000e+00    0,000000000e+00    0,000000000e+00    0,000000000e+00
     1066000000   -6,954187900e-02   -3,280819207e-02   -2,641769648e-01   -5,000389218e-01    0,000000000e+00    0,000000000e+00    0,000000000e+00    0,000000000e+00
     1080000000   -8,467593044e-02   -3,168022633e-02   -4,807806313e-01   -2,719782889e-01    0,000000000e+00    0,000000000e+00    0,000000000e+00    0,000000000e+00
     1094000000   -8,010311425e-02   -2,081146277e-02   -5,317834616e-01    4,159965366e-02    0,000000000e+00    0,000000000e+00    0,000000000e+00    0,000000000e+00
     1108000000   -6,017773598e-02   -1,030340232e-02   -3,991346657e-01    3,252314031e-01    0,000000000e+00    0,000000000e+00    0,000000000e+00    0,000000000e+00
     1122000000   -3,375378996e-02   -3,753916919e-02   -1,355199963e-01    4,814158678e-01    0,000000000e+00    0,000000000e+00    0,000000000e+00    0,000000000e+00
     1136000000   -3,010288253e-02   -8,808896691e-02    1,600192636e-01    4,742767215e-01    0,000000000e+00    0,000000000e+00    0,000000000e+00    0,000000000e+00
     1150000000   -6,690187752e-02   -1,326967478e-01    4,197121263e-01    3,109398782e-01    0,000000000e+00    0,000000000e+00    0,000000000e+00    0,000000000e+00
     1164000000   -1,342040598e-01   -1,512674242e-01    5,654376745e-01    2,273867279e-02    0,000000000e+00    0,000000000e+00    0,000000000e+00    0,000000000e+00
     1178000000   -2,131591588e-01   -1,220168546e-01    5,323291421e-01   -3,154258430e-01    0,000000000e+00    0,000000000e+00    0,000000000e+00    0,000000000e+00
     1192000000   -2,505170405e-01   -4,358649254e-02    2,959210575e-01   -5,968171954e-01    0,000000000e+00    0,000000000e+00    0,000000000e+00    0,000000000e+00
     1206000000   -2,369837612e-01    2,969838120e-02   -6,382536888e-02   -6,963748932e-01    0,000000000e+00    0,000000000e+00    0,000000000e+00    0,000000000e+00
     1220000000   -1,826478839e-01    8,081885427e-02   -4,220028222e-01   -5,791135430e-01    0,000000000e+00    0,000000000e+00    0,000000000e+00    0,000000000e+00
     1234000000   -1,290550083e-01    1,062243283e-01   -6,483092308e-01   -2,923371792e-01    0,000000000e+00    0,000000000e+00    0,000000000e+00    0,000000000e+00
     1248000000   -6,248204410e-02    9,634999186e-02   -6,703798771e-01    6,395386904e-02    0,000000000e+00    0,000000000e+00    0,000000000e+00    0,000000000e+00
     1262000000   -1,098702941e-02    6,045310944e-02   -5,178386569e-01    3,649335206e-01    0,000000000e+00    0,000000000e+00    0,000000000e+00    0,000000000e+00
     1276000000    2,371579409e-02   -8,458719240e-04   -2,443283647e-01    5,494120717e-01    0,000000000e+00    0,000000000e+00    0,000000000e+00    0,000000000e+00
     1290000000    1,810092106e-02   -8,792943507e-02    7,073261589e-02    5,786038637e-01    0,000000000e+00    0,000000000e+00    0,000000000e+00    0,000000000e+00
     1304000000   -2,953223325e-02   -1,687718779e-01    3,712639213e-01    4,606536329e-01    0,000000000e+00    0,000000000e+00    0,000000000e+00    0,000000000e+00
     1318000000   -1,317535341e-01   -2,189635038e-01    5,822919607e-01    2,160606831e-01    0,000000000e+00    0,000000000e+00    0,000000000e+00    0,000000000e+00
     1332000000   -2,533369064e-01   -1,883121133e-01    6,571196914e-01   -1,307974309e-01    0,000000000e+00    0,000000000e+00    0,000000000e+00    0,000000000e+00
     1346000000   -3,379209042e-01   -9,157661349e-02    5,043143034e-01   -4,662812054e-01    0,000000000e+00    0,000000000e+00    0,000000000e+00    0,000000000e+00
     1360000000   -3,370967805e-01    2,683246695e-02    1,964798123e-01   -6,427372098e-01    0,000000000e+00    0,000000000e+00    0,000000000e+00    0,000000000e+00
     1374000000   -2,753515244e-01    1,035865322e-01   -1,611210555e-01   -6,120070815e-01    0,000000000e+00    0,000000000e+00    0,000000000e+00    0,000000000e+00
     1388000000   -2,161011696e-01    1,360334903e-01   -4,096615911e-01   -3,748598695e-01    0,000000000e+00    0,000000000e+00    0,000000000e+00    0,000000000e+00
     1402000000   -1,514423788e-01    1,406683624e-01   -4,877462089e-01   -4,913288355e-02    0,000000000e+00    0,000000000e+00    0,000000000e+00    0,000000000e+00
     1416000000   -9,710320085e-02    1,103535816e-01   -3,819900751e-01    2,492650747e-01    0,000000000e+00    0,000000000e+00    0,000000000e+00    0,000000000e+00
     1430000000   -5,497977138e-02    7,485545427e-02   -1,265822351e-01    4,587380886e-01    0,000000000e+00    0,000000000e+00    0,000000000e+00    0,000000000e+00
     1444000000   -3,566825390e-02    5,873305723e-03    1,698527038e-01    5,405393243e-01    0,000000000e+00    0,000000000e+00    0,000000000e+00    0,000000000e+00
     1458000000   -6,417565793e-02   -7,058960944e-02    4,908268452e-01    4,732792974e-01    0,000000000e+00    0,000000000e+00    0,000000000e+00    0,000000000e+00
     1472000000   -1,422552764e-01   -1,252854019e-01    7,468170524e-01    2,661491334e-01    0,000000000e+00    0,000000000e+00    0,000000000e+00    0,000000000e+00
     1486000000   -2,255731821e-01   -1,157828718e-01    8,934480548e-01   -9,112696350e-02    0,000000000e+00    0,000000000e+00    0,000000000e+00    0,000000000e+00
     1500000000   -2,878816724e-01   -5,311306193e-02    8,125820160e-01   -4,666191638e-01    0,000000000e+00    0,000000000e+00    0,000000000e+00    0,000000000e+00
