! NanoVNA-App
! Date: 2025-09-25 15:06:50
! Start: 100MHz Stop: 1,5GHz Points: 101
! S-Parameter data: F S11 S21 S12 S22
# Hz S RI R 50
!     Frequency           S11_Real           S11_Imag           S21_Real           S21_Imag           S12_Real           S12_Imag           S22_Real           S22_Imag
      100000000    3,114975244e-02    2,865444683e-02    4,348873198e-01   -6,686314344e-01    0,000000000e+00    0,000000000e+00    0,000000000e+00    0,000000000e+00
      114000000    5,756471306e-02    5,517026410e-03    7,691508625e-03   -7,910141945e-01    0,000000000e+00    0,000000000e+00    0,000000000e+00    0,000000000e+00
      128000000    6,731965393e-02   -3,785927594e-02   -4,103615880e-01   -6,713156104e-01    0,000000000e+00    0,000000000e+00    0,000000000e+00    0,000000000e+00
      142000000    4,475532472e-02   -8,422536403e-02   -7,029002309e-01   -3,531320095e-01    0,000000000e+00    0,000000000e+00    0,000000000e+00    0,000000000e+00
      156000000   -5,916997325e-03   -1,065204442e-01   -7,862207294e-01    7,368700951e-02    0,000000000e+00    0,000000000e+00    0,000000000e+00    0,000000000e+00
      170000000   -5,768134445e-02   -9,063097090e-02   -6,275382638e-01    4,869865775e-01    0,000000000e+00    0,000000000e+00    0,000000000e+00    0,000000000e+00
      184000000   -8,371501416e-02   -4,943097755e-02   -2,648831308e-01    7,511243224e-01    0,000000000e+00    0,000000000e+00    0,000000000e+00    0,000000000e+00
      198000000   -7,966009527e-02   -1,047992613e-02    1,835138202e-01    7,730813026e-01    0,000000000e+00    0,000000000e+00    0,000000000e+00    0,000000000e+00
      212000000   -6,222654134e-02    1,317788381e-02    5,691344738e-01    5,490986705e-01    0,000000000e+00    0,000000000e+00    0,000000000e+00    0,000000000e+00
      226000000   -4,326792806e-02    2,772005647e-02    7,707662582e-01    1,544471681e-01    0,000000000e+00    0,000000000e+00    0,000000000e+00    0,000000000e+00
      240000000   -1,824646629e-02    3,851579130e-02    7,267106771e-01   -2,819322050e-01    0,000000000e+00    0,000000000e+00    0,000000000e+00    0,000000000e+00
      254000000    1,718902960e-02    3,517845646e-02    4,581595063e-01   -6,203652024e-01    0,000000000e+00    0,000000000e+00    0,000000000e+00    0,000000000e+00
      268000000    4,876952246e-02    5,620384123e-03    5,883311108e-02   -7,600789666e-01    0,000000000e+00    0,000000000e+00    0,000000000e+00    0,000000000e+00
      282000000    5,340652168e-02   -4,182024300e-02   -3,494395912e-01   -6,715981364e-01    0,000000000e+00    0,000000000e+00    0,000000000e+00    0,000000000e+00
      296000000    2,409501746e-02   -7,955516130e-02   -6,523212790e-01   -3,858450949e-01    0,000000000e+00    0,000000000e+00    0,000000000e+00    0,000000000e+00
      310000000   -1,800332963e-02   -8,298534900e-02   -7,636763453e-01    1,943127438e-02    0,000000000e+00    0,000000000e+00    0,000000000e+00    0,000000000e+00
      324000000   -4,176443070e-02   -5,856108665e-02   -6,315343380e-01    4,306606948e-01    0,000000000e+00    0,000000000e+00    0,000000000e+00    0,000000000e+00
      338000000   -3,425974771e-02   -3,687428311e-02   -2,966397703e-01    6,983585954e-01    0,000000000e+00    0,000000000e+00    0,000000000e+00    0,000000000e+00
      352000000   -1,724323072e-02   -4,069166258e-02    1,264552921e-01    7,415932417e-01    0,000000000e+00    0,000000000e+00    0,000000000e+00    0,000000000e+00
      366000000   -1,957770810e-02   -6,185638160e-02    4,970442057e-01    5,551035404e-01    0,000000000e+00    0,000000000e+00    0,000000000e+00    0,000000000e+00
      380000000   -4,418351501e-02   -7,250932604e-02    7,135415673e-01    1,999276876e-01    0,000000000e+00    0,000000000e+00    0,000000000e+00    0,000000000e+00
      394000000   -7,093004137e-02   -5,814246461e-02    7,041866183e-01   -2,163451910e-01    0,000000000e+00    0,000000000e+00    0,000000000e+00    0,000000000e+00
      408000000   -7,696229964e-02   -3,030367754e-02    4,710736275e-01   -5,595611930e-01    0,000000000e+00    0,000000000e+00    0,000000000e+00    0,000000000e+00
      422000000   -6,538400799e-02   -1,120465901e-02    9,310960770e-02   -7,168816328e-01    0,000000000e+00    0,000000000e+00    0,000000000e+00    0,000000000e+00
      436000000   -5,285874009e-02   -4,318401683e-03   -3,014875650e-01   -6,479536295e-01    0,000000000e+00    0,000000000e+00    0,000000000e+00    0,000000000e+00
      450000000   -4,468485713e-02    1,323470846e-03   -5,933257341e-01   -3,781418204e-01    0,000000000e+00    0,000000000e+00    0,000000000e+00    0,000000000e+00
      464000000   -2,948567830e-02    1,137962285e-02   -6,913150549e-01   -7,971411105e-05    0,000000000e+00    0,000000000e+00    0,000000000e+00    0,000000000e+00
      478000000   -1,364819473e-03    1,140308473e-02   -5,730896592e-01    3,638518751e-01    0,000000000e+00    0,000000000e+00    0,000000000e+00    0,000000000e+00
      492000000    2,811513096e-02   -1,229262911e-02   -2,898995578e-01    6,021404266e-01    0,000000000e+00    0,000000000e+00    0,000000000e+00    0,000000000e+00
      506000000    3,642201424e-02   -5,580300093e-02    6,903707236e-02    6,574354172e-01    0,000000000e+00    0,000000000e+00    0,000000000e+00    0,000000000e+00
      520000000    1,248229668e-02   -9,844556451e-02    4,026364982e-01    5,229303241e-01    0,000000000e+00    0,000000000e+00    0,000000000e+00    0,000000000e+00
      534000000   -3,432858363e-02   -1,164264157e-01    6,233871579e-01    2,356445789e-01    0,000000000e+00    0,000000000e+00    0,000000000e+00    0,000000000e+00
      548000000   -7,768719643e-02   -9,902437031e-02    6,580246091e-01   -1,328900307e-01    0,000000000e+00    0,000000000e+00    0,000000000e+00    0,000000000e+00
      562000000   -9,311707318e-02   -6,623803079e-02    4,818694890e-01   -4,672248065e-01    0,000000000e+00    0,000000000e+00    0,000000000e+00    0,000000000e+00
      576000000   -8,646597713e-02   -4,453918338e-02    1,497704238e-01   -6,482512355e-01    0,000000000e+00    0,000000000e+00    0,000000000e+00    0,000000000e+00
      590000000   -8,077450842e-02   -4,178112745e-02   -2,190674394e-01   -6,259896755e-01    0,000000000e+00    0,000000000e+00    0,000000000e+00    0,000000000e+00
      604000000   -8,880309761e-02   -3,685685620e-02   -5,200001001e-01   -4,045366347e-01    0,000000000e+00    0,000000000e+00    0,000000000e+00    0,000000000e+00
      618000000   -9,621597081e-02   -1,524263248e-02   -6,528597474e-01   -5,815426260e-02    0,000000000e+00    0,000000000e+00    0,000000000e+00    0,000000000e+00
      632000000   -8,126970381e-02    1,481247228e-02   -5,747942924e-01    3,030388653e-01    0,000000000e+00    0,000000000e+00    0,000000000e+00    0,000000000e+00
      646000000   -4,289020598e-02    2,596878633e-02   -3,177334964e-01    5,556897521e-01    0,000000000e+00    0,000000000e+00    0,000000000e+00    0,000000000e+00
      660000000   -7,977268659e-03    5,323781166e-03    2,142530493e-02    6,302139759e-01    0,000000000e+00    0,000000000e+00    0,000000000e+00    0,000000000e+00
      674000000    5,760079948e-04   -2,960908599e-02    3,421973288e-01    5,184141994e-01    0,000000000e+00    0,000000000e+00    0,000000000e+00    0,000000000e+00
      688000000   -1,425234880e-02   -5,567006394e-02    5,583277941e-01    2,582868636e-01    0,000000000e+00    0,000000000e+00    0,000000000e+00    0,000000000e+00
      702000000   -3,409642354e-02   -6,021601707e-02    6,058386564e-01   -7,800914347e-02    0,000000000e+00    0,000000000e+00    0,000000000e+00    0,000000000e+00
      716000000   -3,715077043e-02   -5,495599285e-02    4,596400559e-01   -3,891203403e-01    0,000000000e+00    0,000000000e+00    0,000000000e+00    0,000000000e+00
      730000000   -3,151913732e-02   -6,552207470e-02    1,746440381e-01   -5,653094053e-01    0,000000000e+00    0,000000000e+00    0,000000000e+00    0,000000000e+00
      744000000   -3,948917240e-02   -8,808986843e-02   -1,532587111e-01   -5,634664893e-01    0,000000000e+00    0,000000000e+00    0,000000000e+00    0,000000000e+00
      758000000   -7,226666808e-02   -1,055529639e-01   -4,279934168e-01   -3,943783641e-01    0,000000000e+00    0,000000000e+00    0,000000000e+00    0,000000000e+00
      772000000   -1,138614938e-01   -9,449730068e-02   -5,744193792e-01   -1,060718521e-01    0,000000000e+00    0,000000000e+00    0,000000000e+00    0,000000000e+00
      786000000   -1,394717544e-01   -5,626221374e-02   -5,452402830e-01    2,206933796e-01    0,000000000e+00    0,000000000e+00    0,000000000e+00    0,000000000e+00
      800000000   -1,326819062e-01   -1,414939202e-02   -3,425079882e-01    4,796781540e-01    0,000000000e+00    0,000000000e+00    0,000000000e+00    0,000000000e+00
      814000000   -1,082513854e-01    8,107577451e-03   -3,457074612e-02    5,867280364e-01    0,000000000e+00    0,000000000e+00    0,000000000e+00    0,000000000e+00
      828000000   -8,580715954e-02    1,348295994e-02    2,797009349e-01    5,144137740e-01    0,000000000e+00    0,000000000e+00    0,000000000e+00    0,000000000e+00
      842000000   -7,085211575e-02    1,507712901e-02    5,027455688e-01    2,891367376e-01    0,000000000e+00    0,000000000e+00    0,000000000e+00    0,000000000e+00
      856000000   -5,244387686e-02    1,955232769e-02    5,703772902e-01   -1,797544211e-02    0,000000000e+00    0,000000000e+00    0,000000000e+00    0,000000000e+00
      870000000   -2,295241132e-02    1,449806429e-02    4,640854895e-01   -3,058119118e-01    0,000000000e+00    0,000000000e+00    0,000000000e+00    0,000000000e+00
      884000000    5,716538057e-03   -1,447106153e-02    2,303907722e-01   -4,880665839e-01    0,000000000e+00    0,000000000e+00    0,000000000e+00    0,000000000e+00
      898000000    1,187037211e-02   -6,344299763e-02   -5,177623779e-02   -5,252681375e-01    0,000000000e+00    0,000000000e+00    0,000000000e+00    0,000000000e+00
      912000000   -2,389178984e-02   -1,082537398e-01   -3,529819846e-01   -3,973641694e-01    0,000000000e+00    0,000000000e+00    0,000000000e+00    0,000000000e+00
      926000000   -7,436234504e-02   -1,260031015e-01   -5,302997828e-01   -1,595062912e-01    0,000000000e+00    0,000000000e+00    0,000000000e+00    0,000000000e+00
      940000000   -1,209397539e-01   -1,030148715e-01   -5,507909656e-01    1,552744210e-01    0,000000000e+00    0,000000000e+00    0,000000000e+00    0,000000000e+00
      954000000   -1,442685723e-01   -6,211181730e-02   -3,919377327e-01    4,444718659e-01    0,000000000e+00    0,000000000e+00    0,000000000e+00    0,000000000e+00
      968000000   -1,319755912e-01   -2,595491149e-02   -9,319719672e-02    6,035884619e-01    0,000000000e+00    0,000000000e+00    0,000000000e+00    0,000000000e+00
      982000000   -1,182939708e-01   -1,598097198e-02    2,451175600e-01    5,735527873e-01    0,000000000e+00    0,000000000e+00    0,000000000e+00    0,000000000e+00
      996000000   -1,057449058e-01   -1,182207279e-02    5,119857192e-01    3,658589721e-01    0,000000000e+00    0,000000000e+00    0,000000000e+00    0,000000000e+00
     1010000000   -1,042681858e-01   -6,018716376e-03    6,293329000e-01    5,326008424e-02    0,000000000e+00    0,000000000e+00    0,000000000e+00    0,000000000e+00
     1024000000   -9,645897895e-02    1,122885500e-03    5,585733056e-01   -2,713073492e-01    0,000000000e+00    0,000000000e+00    0,000000000e+00    0,000000000e+00
     1038000000   -7,311697304e-02    5,355896428e-04    3,363073766e-01   -5,028805137e-01    0,000000000e+00    0,000000000e+00    0,000000000e+00    0,000000000e+00
     1052000000   -6,427276134e-02   -1,889750920e-02    3,369223326e-02   -5,840103030e-01    0,000000000e+00    0,000000000e+00    0,000000000e+00    0,000000000e+00
     1066000000   -6,898152083e-02   -3,154923022e-02   -2,732060552e-01   -5,032967925e-01    0,000000000e+00    0,000000000e+00    0,000000000e+00    0,000000000e+00
     1080000000   -8,486685157e-02   -3,406411037e-02   -4,793287814e-01   -2,716135383e-01    0,000000000e+00    0,000000000e+00    0,000000000e+00    0,000000000e+00
     1094000000   -8,018160611e-02   -1,541693415e-02   -5,320210457e-01    4,039992020e-02    0,000000000e+00    0,000000000e+00    0,000000000e+00    0,000000000e+00
     1108000000   -5,804381520e-02   -1,627600752e-02   -3,977505267e-01    3,249375820e-01    0,000000000e+00    0,000000000e+00    0,000000000e+00    0,000000000e+00
     1122000000   -2,962173149e-02   -3,597067669e-02   -1,346877217e-01    4,842419624e-01    0,000000000e+00    0,000000000e+00    0,000000000e+00    0,000000000e+00
     1136000000   -2,532406896e-02   -8,335011452e-02    1,634511948e-01    4,721943140e-01    0,000000000e+00    0,000000000e+00    0,000000000e+00    0,000000000e+00
     1150000000   -6,515113264e-02   -1,327180117e-01    4,200581312e-01    3,100745082e-01    0,000000000e+00    0,000000000e+00    0,000000000e+00    0,000000000e+00
     1164000000   -1,396704018e-01   -1,509769559e-01    5,651409626e-01    2,617457137e-02    0,000000000e+00    0,000000000e+00    0,000000000e+00    0,000000000e+00
     1178000000   -2,149766684e-01   -1,189983040e-01    5,313146114e-01   -3,160175383e-01    0,000000000e+00    0,000000000e+00    0,000000000e+00    0,000000000e+00
     1192000000   -2,492113858e-01   -4,655536264e-02    2,941726148e-01   -5,985286832e-01    0,000000000e+00    0,000000000e+00    0,000000000e+00    0,000000000e+00
     1206000000   -2,352594435e-01    2,991345525e-02   -6,829659641e-02   -7,005832195e-01    0,000000000e+00    0,000000000e+00    0,000000000e+00    0,000000000e+00
     1220000000   -1,844472587e-01    8,103271574e-02   -4,229591787e-01   -5,825890899e-01    0,000000000e+00    0,000000000e+00    0,000000000e+00    0,000000000e+00
     1234000000   -1,305351555e-01    1,038461253e-01   -6,494160295e-01   -2,857283354e-01    0,000000000e+00    0,000000000e+00    0,000000000e+00    0,000000000e+00
     1248000000   -6,607908756e-02    9,954576194e-02   -6,781936884e-01    6,850647926e-02    0,000000000e+00    0,000000000e+00    0,000000000e+00    0,000000000e+00
     1262000000   -1,410374232e-02    6,283745915e-02   -5,183488727e-01    3,731378317e-01    0,000000000e+00    0,000000000e+00    0,000000000e+00    0,000000000e+00
     1276000000    2,463611588e-02   -1,453545876e-03   -2,414904833e-01    5,483418107e-01    0,000000000e+00    0,000000000e+00    0,000000000e+00    0,000000000e+00
     1290000000    2,018821798e-02   -9,131841362e-02    7,271149755e-02    5,728359222e-01    0,000000000e+00    0,000000000e+00    0,000000000e+00    0,000000000e+00
     1304000000   -2,854512073e-02   -1,692009121e-01    3,674443960e-01    4,667049944e-01    0,000000000e+00    0,000000000e+00    0,000000000e+00    0,000000000e+00
     1318000000   -1,351554096e-01   -2,177107185e-01    5,839545727e-01    2,192574441e-01    0,000000000e+00    0,000000000e+00    0,000000000e+00    0,000000000e+00
     1332000000   -2,528571188e-01   -1,856331825e-01    6,526214480e-01   -1,221010983e-01    0,000000000e+00    0,000000000e+00    0,000000000e+00    0,000000000e+00
     1346000000   -3,367169201e-01   -8,980203420e-02    5,046886206e-01   -4,636618197e-01    0,000000000e+00    0,000000000e+00    0,000000000e+00    0,000000000e+00
     1360000000   -3,367260695e-01    2,020457573e-02    1,876929998e-01   -6,507759094e-01    0,000000000e+00    0,000000000e+00    0,000000000e+00    0,000000000e+00
     1374000000   -2,787378132e-01    1,041282788e-01   -1,597439051e-01   -6,089383960e-01    0,000000000e+00    0,000000000e+00    0,000000000e+00    0,000000000e+00
     1388000000   -2,177655846e-01    1,385709494e-01   -4,070492387e-01   -3,715384007e-01    0,000000000e+00    0,000000000e+00    0,000000000e+00    0,000000000e+00
     1402000000   -1,507601142e-01    1,426015198e-01   -4,853950441e-01   -5,226373672e-02    0,000000000e+00    0,000000000e+00    0,000000000e+00    0,000000000e+00
     1416000000   -9,420657158e-02    1,149372756e-01   -3,742141426e-01    2,474721521e-01    0,000000000e+00    0,000000000e+00    0,000000000e+00    0,000000000e+00
     1430000000   -5,378001183e-02    6,851854920e-02   -1,489062160e-01    4,666490853e-01    0,000000000e+00    0,000000000e+00    0,000000000e+00    0,000000000e+00
     1444000000   -3,701159358e-02    6,061935797e-03    1,635290086e-01    5,393889546e-01    0,000000000e+00    0,000000000e+00    0,000000000e+00    0,000000000e+00
     1458000000   -6,332453340e-02   -7,210615277e-02    4,891229868e-01    4,832545221e-01    0,000000000e+00    0,000000000e+00    0,000000000e+00    0,000000000e+00
     1472000000   -1,390853822e-01   -1,211276799e-01    7,581647038e-01    2,702180445e-01    0,000000000e+00    0,000000000e+00    0,000000000e+00    0,000000000e+00
     1486000000   -2,323840410e-01   -1,200361773e-01    8,852117658e-01   -9,533623606e-02    0,000000000e+00    0,000000000e+00    0,000000000e+00    0,000000000e+00
     1500000000   -2,912506759e-01   -5,164029449e-02    7,876024842e-01   -4,681313932e-01    0,000000000e+00    0,000000000e+00    0,000000000e+00    0,000000000e+00
