! NanoVNA-App
! Date: 2025-09-25 15:05:55
! Start: 100MHz Stop: 1,5GHz Points: 101
! S-Parameter data: F S11 S21 S12 S22
# Hz S RI R 50
!     Frequency           S11_Real           S11_Imag           S21_Real           S21_Imag           S12_Real           S12_Imag           S22_Real           S22_Imag
      100000000    3,115549684e-02    2,864694223e-02    4,348776042e-01   -6,686246395e-01    0,000000000e+00    0,000000000e+00    0,000000000e+00    0,000000000e+00
      114000000    5,760769546e-02    5,508412141e-03    7,702629082e-03   -7,911947966e-01    0,000000000e+00    0,000000000e+00    0,000000000e+00    0,000000000e+00
      128000000    6,727574021e-02   -3,785603493e-02   -4,104996920e-01   -6,712067723e-01    0,000000000e+00    0,000000000e+00    0,000000000e+00    0,000000000e+00
      142000000    4,475313053e-02   -8,420021087e-02   -7,027225494e-01   -3,529519141e-01    0,000000000e+00    0,000000000e+00    0,000000000e+00    0,000000000e+00
      156000000   -6,227936130e-03   -1,058761179e-01   -7,855212092e-01    7,306442410e-02    0,000000000e+00    0,000000000e+00    0,000000000e+00    0,000000000e+00
      170000000   -5,766140670e-02   -9,070210904e-02   -6,275165081e-01    4,870040417e-01    0,000000000e+00    0,000000000e+00    0,000000000e+00    0,000000000e+00
      184000000   -8,368370682e-02   -4,947538674e-02   -2,650939524e-01    7,508535981e-01    0,000000000e+00    0,000000000e+00    0,000000000e+00    0,000000000e+00
      198000000   -7,962600142e-02   -1,043712441e-02    1,833346933e-01    7,732405663e-01    0,000000000e+00    0,000000000e+00    0,000000000e+00    0,000000000e+00
      212000000   -6,229521334e-02    1,317194663e-02    5,693621039e-01    5,492950678e-01    0,000000000e+00    0,000000000e+00    0,000000000e+00    0,000000000e+00
      226000000   -4,325416312e-02    2,765330486e-02    7,707020044e-01    1,544941515e-01    0,000000000e+00    0,000000000e+00    0,000000000e+00    0,000000000e+00
      240000000   -1,816810481e-02    3,846650943e-02    7,267931104e-01   -2,819238305e-01    0,000000000e+00    0,000000000e+00    0,000000000e+00    0,000000000e+00
      254000000    1,716377586e-02    3,516474739e-02    4,581822455e-01   -6,203525662e-01    0,000000000e+00    0,000000000e+00    0,000000000e+00    0,000000000e+00
      268000000    4,880996794e-02    5,602570716e-03    5,866971985e-02   -7,604254484e-01    0,000000000e+00    0,000000000e+00    0,000000000e+00    0,000000000e+00
      282000000    5,349701643e-02   -4,178071022e-02   -3,490222394e-01   -6,714410186e-01    0,000000000e+00    0,000000000e+00    0,000000000e+00    0,000000000e+00
      296000000    2,395456843e-02   -7,956141233e-02   -6,521230936e-01   -3,854439259e-01    0,000000000e+00    0,000000000e+00    0,000000000e+00    0,000000000e+00
      310000000   -1,785268448e-02   -8,316194266e-02   -7,635585070e-01    2,094132639e-02    0,000000000e+00    0,000000000e+00    0,000000000e+00    0,000000000e+00
      324000000   -4,184137285e-02   -5,878686160e-02   -6,324117780e-01    4,312782586e-01    0,000000000e+00    0,000000000e+00    0,000000000e+00    0,000000000e+00
      338000000   -3,426890075e-02   -3,702508286e-02   -2,946920991e-01    7,005201578e-01    0,000000000e+00    0,000000000e+00    0,000000000e+00    0,000000000e+00
      352000000   -1,731317304e-02   -4,073262960e-02    1,259795725e-01    7,424396276e-01    0,000000000e+00    0,000000000e+00    0,000000000e+00    0,000000000e+00
      366000000   -1,895994693e-02   -6,195279583e-02    4,990811944e-01    5,550496578e-01    0,000000000e+00    0,000000000e+00    0,000000000e+00    0,000000000e+00
      380000000   -4,443934560e-02   -7,288563251e-02    7,138058543e-01    1,998593807e-01    0,000000000e+00    0,000000000e+00    0,000000000e+00    0,000000000e+00
      394000000   -7,058102638e-02   -5,795430765e-02    7,043708563e-01   -2,167082280e-01    0,000000000e+00    0,000000000e+00    0,000000000e+00    0,000000000e+00
      408000000   -7,695405930e-02   -3,046490625e-02    4,701246321e-01   -5,598670244e-01    0,000000000e+00    0,000000000e+00    0,000000000e+00    0,000000000e+00
      422000000   -6,558027118e-02   -1,124824490e-02    9,254229069e-02   -7,174794674e-01    0,000000000e+00    0,000000000e+00    0,000000000e+00    0,000000000e+00
      436000000   -5,314529315e-02   -4,792993888e-03   -3,019238412e-01   -6,475074887e-01    0,000000000e+00    0,000000000e+00    0,000000000e+00    0,000000000e+00
      450000000   -4,461424425e-02    2,006760798e-03   -5,932306647e-01   -3,779761195e-01    0,000000000e+00    0,000000000e+00    0,000000000e+00    0,000000000e+00
      464000000   -2,953214012e-02    1,128844637e-02   -6,907751560e-01    1,516720658e-04    0,000000000e+00    0,000000000e+00    0,000000000e+00    0,000000000e+00
      478000000   -1,096106600e-03    1,166203525e-02   -5,730839372e-01    3,636173308e-01    0,000000000e+00    0,000000000e+00    0,000000000e+00    0,000000000e+00
      492000000    2,800348960e-02   -1,255324483e-02   -2,888154089e-01    6,024222970e-01    0,000000000e+00    0,000000000e+00    0,000000000e+00    0,000000000e+00
      506000000    3,659964725e-02   -5,566990376e-02    6,944278628e-02    6,592203379e-01    0,000000000e+00    0,000000000e+00    0,000000000e+00    0,000000000e+00
      520000000    1,290611271e-02   -9,890258312e-02    4,071133435e-01    5,239080787e-01    0,000000000e+00    0,000000000e+00    0,000000000e+00    0,000000000e+00
      534000000   -3,467806801e-02   -1,158879995e-01    6,233865619e-01    2,363087237e-01    0,000000000e+00    0,000000000e+00    0,000000000e+00    0,000000000e+00
      548000000   -7,772056758e-02   -9,897039831e-02    6,573594809e-01   -1,336726695e-01    0,000000000e+00    0,000000000e+00    0,000000000e+00    0,000000000e+00
      562000000   -9,314261377e-02   -6,563841552e-02    4,809126854e-01   -4,661837220e-01    0,000000000e+00    0,000000000e+00    0,000000000e+00    0,000000000e+00
      576000000   -8,579786122e-02   -4,453849420e-02    1,504278034e-01   -6,471733451e-01    0,000000000e+00    0,000000000e+00    0,000000000e+00    0,000000000e+00
      590000000   -8,055045456e-02   -4,152565077e-02   -2,214375734e-01   -6,267427802e-01    0,000000000e+00    0,000000000e+00    0,000000000e+00    0,000000000e+00
      604000000   -8,901327103e-02   -3,735765815e-02   -5,198485851e-01   -4,061498344e-01    0,000000000e+00    0,000000000e+00    0,000000000e+00    0,000000000e+00
      618000000   -9,594177455e-02   -1,511328761e-02   -6,530591249e-01   -5,795196071e-02    0,000000000e+00    0,000000000e+00    0,000000000e+00    0,000000000e+00
      632000000   -8,092874289e-02    1,541614626e-02   -5,753893852e-01    3,029895723e-01    0,000000000e+00    0,000000000e+00    0,000000000e+00    0,000000000e+00
      646000000   -4,303736612e-02    2,654425055e-02   -3,184835613e-01    5,560473800e-01    0,000000000e+00    0,000000000e+00    0,000000000e+00    0,000000000e+00
      660000000   -8,235385641e-03    5,849813577e-03    2,308666147e-02    6,314279437e-01    0,000000000e+00    0,000000000e+00    0,000000000e+00    0,000000000e+00
      674000000    1,216838020e-03   -2,973157354e-02    3,426325321e-01    5,184447765e-01    0,000000000e+00    0,000000000e+00    0,000000000e+00    0,000000000e+00
      688000000   -1,490355749e-02   -5,596832559e-02    5,594365597e-01    2,590257227e-01    0,000000000e+00    0,000000000e+00    0,000000000e+00    0,000000000e+00
      702000000   -3,282237798e-02   -6,020289287e-02    6,029410362e-01   -8,260323852e-02    0,000000000e+00    0,000000000e+00    0,000000000e+00    0,000000000e+00
      716000000   -3,615782410e-02   -5,545776337e-02    4,596529007e-01   -3,899742365e-01    0,000000000e+00    0,000000000e+00    0,000000000e+00    0,000000000e+00
      730000000   -3,197920322e-02   -6,560457498e-02    1,736514717e-01   -5,662481785e-01    0,000000000e+00    0,000000000e+00    0,000000000e+00    0,000000000e+00
      744000000   -4,075879604e-02   -8,806581050e-02   -1,534489840e-01   -5,638694763e-01    0,000000000e+00    0,000000000e+00    0,000000000e+00    0,000000000e+00
      758000000   -7,292630523e-02   -1,048994809e-01   -4,268402159e-01   -3,946501911e-01    0,000000000e+00    0,000000000e+00    0,000000000e+00    0,000000000e+00
      772000000   -1,134844124e-01   -9,356006235e-02   -5,747221112e-01   -1,057013050e-01    0,000000000e+00    0,000000000e+00    0,000000000e+00    0,000000000e+00
      786000000   -1,388214678e-01   -5,565747619e-02   -5,445761085e-01    2,210266292e-01    0,000000000e+00    0,000000000e+00    0,000000000e+00    0,000000000e+00
      800000000   -1,328274608e-01   -1,499641407e-02   -3,423368037e-01    4,803371131e-01    0,000000000e+00    0,000000000e+00    0,000000000e+00    0,000000000e+00
      814000000   -1,087862924e-01    8,623274043e-03   -3,518670052e-02    5,865591168e-01    0,000000000e+00    0,000000000e+00    0,000000000e+00    0,000000000e+00
      828000000   -8,534793556e-02    1,406001952e-02    2,790333033e-01    5,137717128e-01    0,000000000e+00    0,000000000e+00    0,000000000e+00    0,000000000e+00
      842000000   -7,111059874e-02    1,511259750e-02    5,031006336e-01    2,894217968e-01    0,000000000e+00    0,000000000e+00    0,000000000e+00    0,000000000e+00
      856000000   -5,263834819e-02    1,914891787e-02    5,701992512e-01   -1,835757308e-02    0,000000000e+00    0,000000000e+00    0,000000000e+00    0,000000000e+00
      870000000   -2,273375541e-02    1,396156289e-02    4,626471102e-01   -3,062324822e-01    0,000000000e+00    0,000000000e+00    0,000000000e+00    0,000000000e+00
      884000000    5,413095001e-03   -1,436037570e-02    2,302971482e-01   -4,884634316e-01    0,000000000e+00    0,000000000e+00    0,000000000e+00    0,000000000e+00
      898000000    1,209611073e-02   -6,357961893e-02   -5,178121850e-02   -5,263923407e-01    0,000000000e+00    0,000000000e+00    0,000000000e+00    0,000000000e+00
      912000000   -2,412433177e-02   -1,092245728e-01   -3,527920246e-01   -4,064395130e-01    0,000000000e+00    0,000000000e+00    0,000000000e+00    0,000000000e+00
      926000000   -7,319712639e-02   -1,234682277e-01   -5,305899382e-01   -1,581811160e-01    0,000000000e+00    0,000000000e+00    0,000000000e+00    0,000000000e+00
      940000000   -1,228932664e-01   -1,000016704e-01   -5,525999069e-01    1,572916508e-01    0,000000000e+00    0,000000000e+00    0,000000000e+00    0,000000000e+00
      954000000   -1,436021328e-01   -5,866769329e-02   -3,924352825e-01    4,454098344e-01    0,000000000e+00    0,000000000e+00    0,000000000e+00    0,000000000e+00
      968000000   -1,344846785e-01   -2,826843224e-02   -9,281805903e-02    6,032271981e-01    0,000000000e+00    0,000000000e+00    0,000000000e+00    0,000000000e+00
      982000000   -1,161396354e-01   -1,738177985e-02    2,429372817e-01    5,714527369e-01    0,000000000e+00    0,000000000e+00    0,000000000e+00    0,000000000e+00
      996000000   -1,057213396e-01   -1,720921136e-02    5,115436316e-01    3,672695756e-01    0,000000000e+00    0,000000000e+00    0,000000000e+00    0,000000000e+00
     1010000000   -9,999174625e-02   -7,990350947e-03    6,278949380e-01    5,040611327e-02    0,000000000e+00    0,000000000e+00    0,000000000e+00    0,000000000e+00
     1024000000   -9,317428619e-02   -2,450675471e-03    5,613702536e-01   -2,709299922e-01    0,000000000e+00    0,000000000e+00    0,000000000e+00    0,000000000e+00
     1038000000   -7,836544514e-02   -1,772866701e-03    3,375704885e-01   -5,033800006e-01    0,000000000e+00    0,000000000e+00    0,000000000e+00    0,000000000e+00
     1052000000   -6,242530420e-02   -1,652568765e-02    3,314275667e-02   -5,834437013e-01    0,000000000e+00    0,000000000e+00    0,000000000e+00    0,000000000e+00
     1066000000   -7,054872811e-02   -3,404366598e-02   -2,702938914e-01   -5,028047562e-01    0,000000000e+00    0,000000000e+00    0,000000000e+00    0,000000000e+00
     1080000000   -8,237844706e-02   -2,891198918e-02   -4,805764556e-01   -2,709878385e-01    0,000000000e+00    0,000000000e+00    0,000000000e+00    0,000000000e+00
     1094000000   -7,837078720e-02   -1,837567240e-02   -5,322114825e-01    4,011121392e-02    0,000000000e+00    0,000000000e+00    0,000000000e+00    0,000000000e+00
     1108000000   -6,099456921e-02   -1,367384568e-02   -3,973508477e-01    3,252745867e-01    0,000000000e+00    0,000000000e+00    0,000000000e+00    0,000000000e+00
     1122000000   -2,979895286e-02   -3,744230792e-02   -1,342617869e-01    4,804659486e-01    0,000000000e+00    0,000000000e+00    0,000000000e+00    0,000000000e+00
     1136000000   -2,378163487e-02   -8,540613949e-02    1,615146399e-01    4,743407965e-01    0,000000000e+00    0,000000000e+00    0,000000000e+00    0,000000000e+00
     1150000000   -6,702502817e-02   -1,360576302e-01    4,184517562e-01    3,090859056e-01    0,000000000e+00    0,000000000e+00    0,000000000e+00    0,000000000e+00
     1164000000   -1,382712871e-01   -1,500469446e-01    5,605588555e-01    2,640203014e-02    0,000000000e+00    0,000000000e+00    0,000000000e+00    0,000000000e+00
     1178000000   -2,131213695e-01   -1,171907112e-01    5,292056203e-01   -3,173926771e-01    0,000000000e+00    0,000000000e+00    0,000000000e+00    0,000000000e+00
     1192000000   -2,518246770e-01   -4,551907256e-02    2,944085896e-01   -5,987181664e-01    0,000000000e+00    0,000000000e+00    0,000000000e+00    0,000000000e+00
     1206000000   -2,331659198e-01    3,727423772e-02   -6,419201940e-02   -6,969399452e-01    0,000000000e+00    0,000000000e+00    0,000000000e+00    0,000000000e+00
     1220000000   -1,873264909e-01    8,687736839e-02   -4,217986166e-01   -5,831186175e-01    0,000000000e+00    0,000000000e+00    0,000000000e+00    0,000000000e+00
     1234000000   -1,312617660e-01    1,031155586e-01   -6,467081308e-01   -2,924193144e-01    0,000000000e+00    0,000000000e+00    0,000000000e+00    0,000000000e+00
     1248000000   -6,815332919e-02    9,513294697e-02   -6,773688197e-01    6,271790713e-02    0,000000000e+00    0,000000000e+00    0,000000000e+00    0,000000000e+00
     1262000000   -1,001913473e-02    6,198127195e-02   -5,160595775e-01    3,736668825e-01    0,000000000e+00    0,000000000e+00    0,000000000e+00    0,000000000e+00
     1276000000    2,444385923e-02    5,580912693e-04   -2,409195453e-01    5,473512411e-01    0,000000000e+00    0,000000000e+00    0,000000000e+00    0,000000000e+00
     1290000000    2,125120349e-02   -8,899348229e-02    7,116766274e-02    5,749877691e-01    0,000000000e+00    0,000000000e+00    0,000000000e+00    0,000000000e+00
     1304000000   -3,068494797e-02   -1,679928154e-01    3,641742170e-01    4,636957049e-01    0,000000000e+00    0,000000000e+00    0,000000000e+00    0,000000000e+00
     1318000000   -1,361337751e-01   -2,161543816e-01    5,816073418e-01    2,195736617e-01    0,000000000e+00    0,000000000e+00    0,000000000e+00    0,000000000e+00
     1332000000   -2,550320923e-01   -1,856408417e-01    6,522649527e-01   -1,221079230e-01    0,000000000e+00    0,000000000e+00    0,000000000e+00    0,000000000e+00
     1346000000   -3,344894648e-01   -9,381470829e-02    5,024433732e-01   -4,582507610e-01    0,000000000e+00    0,000000000e+00    0,000000000e+00    0,000000000e+00
     1360000000   -3,405313790e-01    1,964251325e-02    1,809290498e-01   -6,453593373e-01    0,000000000e+00    0,000000000e+00    0,000000000e+00    0,000000000e+00
     1374000000   -2,808918655e-01    1,002356708e-01   -1,560254395e-01   -6,124066710e-01    0,000000000e+00    0,000000000e+00    0,000000000e+00    0,000000000e+00
     1388000000   -2,136870027e-01    1,362015158e-01   -4,172886610e-01   -3,800804019e-01    0,000000000e+00    0,000000000e+00    0,000000000e+00    0,000000000e+00
     1402000000   -1,531517506e-01    1,415535361e-01   -4,916564822e-01   -6,408647448e-02    0,000000000e+00    0,000000000e+00    0,000000000e+00    0,000000000e+00
     1416000000   -9,758214653e-02    1,160084084e-01   -3,732583821e-01    2,390626073e-01    0,000000000e+00    0,000000000e+00    0,000000000e+00    0,000000000e+00
     1430000000   -5,190541595e-02    6,801105291e-02   -1,370908618e-01    4,414901137e-01    0,000000000e+00    0,000000000e+00    0,000000000e+00    0,000000000e+00
     1444000000   -3,899139166e-02    4,670022521e-03    1,718780845e-01    5,337926149e-01    0,000000000e+00    0,000000000e+00    0,000000000e+00    0,000000000e+00
     1458000000   -6,453154236e-02   -6,739019603e-02    4,842041433e-01    4,802693427e-01    0,000000000e+00    0,000000000e+00    0,000000000e+00    0,000000000e+00
     1472000000   -1,348524541e-01   -1,305047870e-01    7,605539560e-01    2,580042481e-01    0,000000000e+00    0,000000000e+00    0,000000000e+00    0,000000000e+00
     1486000000   -2,272870541e-01   -1,164079756e-01    8,942687511e-01   -8,729695529e-02    0,000000000e+00    0,000000000e+00    0,000000000e+00    0,000000000e+00
     1500000000   -2,881356776e-01   -4,976453260e-02    7,917751074e-01   -4,589439332e-01    0,000000000e+00    0,000000000e+00    0,000000000e+00    0,000000000e+00
