! NanoVNA-App
! Date: 2025-09-25 15:06:05
! Start: 100MHz Stop: 1,5GHz Points: 101
! S-Parameter data: F S11 S21 S12 S22
# Hz S RI R 50
!     Frequency           S11_Real           S11_Imag           S21_Real           S21_Imag           S12_Real           S12_Imag           S22_Real           S22_Imag
      100000000    3,115875460e-02    2,864172682e-02    4,348684251e-01   -6,686747670e-01    0,000000000e+00    0,000000000e+00    0,000000000e+00    0,000000000e+00
      114000000    5,761335418e-02    5,506150890e-03    7,836330682e-03   -7,911754251e-01    0,000000000e+00    0,000000000e+00    0,000000000e+00    0,000000000e+00
      128000000    6,727584451e-02   -3,784652427e-02   -4,104774296e-01   -6,712798476e-01    0,000000000e+00    0,000000000e+00    0,000000000e+00    0,000000000e+00
      142000000    4,473194107e-02   -8,419782668e-02   -7,028945088e-01   -3,531704545e-01    0,000000000e+00    0,000000000e+00    0,000000000e+00    0,000000000e+00
      156000000   -5,452428944e-03   -1,066232026e-01   -7,872327566e-01    7,311975211e-02    0,000000000e+00    0,000000000e+00    0,000000000e+00    0,000000000e+00
      170000000   -5,761274323e-02   -9,055178612e-02   -6,275934577e-01    4,871712327e-01    0,000000000e+00    0,000000000e+00    0,000000000e+00    0,000000000e+00
      184000000   -8,369109035e-02   -4,944474995e-02   -2,647867799e-01    7,509012222e-01    0,000000000e+00    0,000000000e+00    0,000000000e+00    0,000000000e+00
      198000000   -7,964190096e-02   -1,046124287e-02    1,834330112e-01    7,733400464e-01    0,000000000e+00    0,000000000e+00    0,000000000e+00    0,000000000e+00
      212000000   -6,226900592e-02    1,313926093e-02    5,690845251e-01    5,490629077e-01    0,000000000e+00    0,000000000e+00    0,000000000e+00    0,000000000e+00
      226000000   -4,332255572e-02    2,769557014e-02    7,706336975e-01    1,545078158e-01    0,000000000e+00    0,000000000e+00    0,000000000e+00    0,000000000e+00
      240000000   -1,815886609e-02    3,846845403e-02    7,268224359e-01   -2,819351256e-01    0,000000000e+00    0,000000000e+00    0,000000000e+00    0,000000000e+00
      254000000    1,720988937e-02    3,519401327e-02    4,580765665e-01   -6,201788187e-01    0,000000000e+00    0,000000000e+00    0,000000000e+00    0,000000000e+00
      268000000    4,873327911e-02    5,546997301e-03    5,851617083e-02   -7,605167031e-01    0,000000000e+00    0,000000000e+00    0,000000000e+00    0,000000000e+00
      282000000    5,346178263e-02   -4,176574200e-02   -3,491058946e-01   -6,721836925e-01    0,000000000e+00    0,000000000e+00    0,000000000e+00    0,000000000e+00
      296000000    2,408012375e-02   -7,939585298e-02   -6,520318985e-01   -3,853809536e-01    0,000000000e+00    0,000000000e+00    0,000000000e+00    0,000000000e+00
      310000000   -1,784558594e-02   -8,311163634e-02   -7,623760104e-01    2,054048888e-02    0,000000000e+00    0,000000000e+00    0,000000000e+00    0,000000000e+00
      324000000   -4,179052263e-02   -5,889242887e-02   -6,324407458e-01    4,314432442e-01    0,000000000e+00    0,000000000e+00    0,000000000e+00    0,000000000e+00
      338000000   -3,446286917e-02   -3,685477749e-02   -2,983715534e-01    7,017028332e-01    0,000000000e+00    0,000000000e+00    0,000000000e+00    0,000000000e+00
      352000000   -1,728052087e-02   -4,067480564e-02    1,262805611e-01    7,415570617e-01    0,000000000e+00    0,000000000e+00    0,000000000e+00    0,000000000e+00
      366000000   -1,930458844e-02   -6,188063696e-02    4,978595674e-01    5,542921424e-01    0,000000000e+00    0,000000000e+00    0,000000000e+00    0,000000000e+00
      380000000   -4,429764301e-02   -7,268483937e-02    7,133141756e-01    1,991923898e-01    0,000000000e+00    0,000000000e+00    0,000000000e+00    0,000000000e+00
      394000000   -7,081194222e-02   -5,817050859e-02    7,039618492e-01   -2,165757567e-01    0,000000000e+00    0,000000000e+00    0,000000000e+00    0,000000000e+00
      408000000   -7,695964724e-02   -3,040044568e-02    4,716291726e-01   -5,598079562e-01    0,000000000e+00    0,000000000e+00    0,000000000e+00    0,000000000e+00
      422000000   -6,526045501e-02   -1,142183971e-02    9,264048934e-02   -7,178503275e-01    0,000000000e+00    0,000000000e+00    0,000000000e+00    0,000000000e+00
      436000000   -5,319673941e-02   -4,537213594e-03   -3,021655977e-01   -6,468762755e-01    0,000000000e+00    0,000000000e+00    0,000000000e+00    0,000000000e+00
      450000000   -4,459523782e-02    1,641756506e-03   -5,929203629e-01   -3,778011203e-01    0,000000000e+00    0,000000000e+00    0,000000000e+00    0,000000000e+00
      464000000   -2,962104417e-02    1,146685239e-02   -6,916095018e-01    2,143855381e-04    0,000000000e+00    0,000000000e+00    0,000000000e+00    0,000000000e+00
      478000000   -1,158009749e-03    1,157856919e-02   -5,726917386e-01    3,632793725e-01    0,000000000e+00    0,000000000e+00    0,000000000e+00    0,000000000e+00
      492000000    2,788453922e-02   -1,231752429e-02   -2,896750867e-01    6,022774577e-01    0,000000000e+00    0,000000000e+00    0,000000000e+00    0,000000000e+00
      506000000    3,617265448e-02   -5,614849180e-02    6,919328868e-02    6,582419872e-01    0,000000000e+00    0,000000000e+00    0,000000000e+00    0,000000000e+00
      520000000    1,277218852e-02   -9,933625162e-02    4,024564922e-01    5,252709389e-01    0,000000000e+00    0,000000000e+00    0,000000000e+00    0,000000000e+00
      534000000   -3,415302932e-02   -1,164318696e-01    6,244589686e-01    2,360201478e-01    0,000000000e+00    0,000000000e+00    0,000000000e+00    0,000000000e+00
      548000000   -7,790449262e-02   -9,908723831e-02    6,579088569e-01   -1,331349760e-01    0,000000000e+00    0,000000000e+00    0,000000000e+00    0,000000000e+00
      562000000   -9,353530407e-02   -6,634692848e-02    4,819937646e-01   -4,669742286e-01    0,000000000e+00    0,000000000e+00    0,000000000e+00    0,000000000e+00
      576000000   -8,617956936e-02   -4,465986043e-02    1,502463818e-01   -6,483633518e-01    0,000000000e+00    0,000000000e+00    0,000000000e+00    0,000000000e+00
      590000000   -8,062911779e-02   -4,151786491e-02   -2,198465914e-01   -6,260615587e-01    0,000000000e+00    0,000000000e+00    0,000000000e+00    0,000000000e+00
      604000000   -8,878581226e-02   -3,686934337e-02   -5,200176239e-01   -4,056104720e-01    0,000000000e+00    0,000000000e+00    0,000000000e+00    0,000000000e+00
      618000000   -9,579713643e-02   -1,532272063e-02   -6,532267928e-01   -5,822973698e-02    0,000000000e+00    0,000000000e+00    0,000000000e+00    0,000000000e+00
      632000000   -8,054952323e-02    1,530897804e-02   -5,752620101e-01    3,032541275e-01    0,000000000e+00    0,000000000e+00    0,000000000e+00    0,000000000e+00
      646000000   -4,294168204e-02    2,573942766e-02   -3,188108504e-01    5,568528175e-01    0,000000000e+00    0,000000000e+00    0,000000000e+00    0,000000000e+00
      660000000   -8,150625974e-03    6,032169797e-03    2,281158045e-02    6,304956675e-01    0,000000000e+00    0,000000000e+00    0,000000000e+00    0,000000000e+00
      674000000    1,340396237e-03   -3,017909825e-02    3,421303630e-01    5,186184645e-01    0,000000000e+00    0,000000000e+00    0,000000000e+00    0,000000000e+00
      688000000   -1,535351016e-02   -5,562385172e-02    5,586354733e-01    2,586745024e-01    0,000000000e+00    0,000000000e+00    0,000000000e+00    0,000000000e+00
      702000000   -3,321680054e-02   -5,958571658e-02    6,053164005e-01   -8,230736852e-02    0,000000000e+00    0,000000000e+00    0,000000000e+00    0,000000000e+00
      716000000   -3,637583926e-02   -5,574599653e-02    4,597401619e-01   -3,896787167e-01    0,000000000e+00    0,000000000e+00    0,000000000e+00    0,000000000e+00
      730000000   -3,228512406e-02   -6,568299979e-02    1,750257462e-01   -5,664516687e-01    0,000000000e+00    0,000000000e+00    0,000000000e+00    0,000000000e+00
      744000000   -3,981390595e-02   -8,779320121e-02   -1,527017355e-01   -5,643751621e-01    0,000000000e+00    0,000000000e+00    0,000000000e+00    0,000000000e+00
      758000000   -7,260262966e-02   -1,045985147e-01   -4,278864563e-01   -3,949512839e-01    0,000000000e+00    0,000000000e+00    0,000000000e+00    0,000000000e+00
      772000000   -1,144523472e-01   -9,380713850e-02   -5,746253133e-01   -1,059643328e-01    0,000000000e+00    0,000000000e+00    0,000000000e+00    0,000000000e+00
      786000000   -1,387559772e-01   -5,571488664e-02   -5,445495248e-01    2,205412686e-01    0,000000000e+00    0,000000000e+00    0,000000000e+00    0,000000000e+00
      800000000   -1,325353384e-01   -1,503495034e-02   -3,427895904e-01    4,802265465e-01    0,000000000e+00    0,000000000e+00    0,000000000e+00    0,000000000e+00
      814000000   -1,080815569e-01    8,692319505e-03   -3,515325487e-02    5,855570436e-01    0,000000000e+00    0,000000000e+00    0,000000000e+00    0,000000000e+00
      828000000   -8,544776589e-02    1,408514939e-02    2,794966996e-01    5,132986903e-01    0,000000000e+00    0,000000000e+00    0,000000000e+00    0,000000000e+00
      842000000   -7,090212405e-02    1,513995603e-02    5,029862523e-01    2,890384495e-01    0,000000000e+00    0,000000000e+00    0,000000000e+00    0,000000000e+00
      856000000   -5,203069001e-02    1,960774511e-02    5,707446933e-01   -1,778043248e-02    0,000000000e+00    0,000000000e+00    0,000000000e+00    0,000000000e+00
      870000000   -2,272083238e-02    1,398964692e-02    4,634543359e-01   -3,071072400e-01    0,000000000e+00    0,000000000e+00    0,000000000e+00    0,000000000e+00
      884000000    5,493186880e-03   -1,489919052e-02    2,303737998e-01   -4,882696569e-01    0,000000000e+00    0,000000000e+00    0,000000000e+00    0,000000000e+00
      898000000    1,157851983e-02   -6,339261681e-02   -5,262145028e-02   -5,262903571e-01    0,000000000e+00    0,000000000e+00    0,000000000e+00    0,000000000e+00
      912000000   -2,352259308e-02   -1,082460731e-01   -3,634180725e-01   -4,101526737e-01    0,000000000e+00    0,000000000e+00    0,000000000e+00    0,000000000e+00
      926000000   -7,481683046e-02   -1,253077686e-01   -5,293323994e-01   -1,593451202e-01    0,000000000e+00    0,000000000e+00    0,000000000e+00    0,000000000e+00
      940000000   -1,251784563e-01   -1,019670516e-01   -5,533934236e-01    1,555425227e-01    0,000000000e+00    0,000000000e+00    0,000000000e+00    0,000000000e+00
      954000000   -1,391587108e-01   -5,906848982e-02   -3,908577859e-01    4,463190436e-01    0,000000000e+00    0,000000000e+00    0,000000000e+00    0,000000000e+00
      968000000   -1,322978735e-01   -2,996681072e-02   -9,033152461e-02    6,021034718e-01    0,000000000e+00    0,000000000e+00    0,000000000e+00    0,000000000e+00
      982000000   -1,165218130e-01   -1,355211437e-02    2,445586175e-01    5,716067553e-01    0,000000000e+00    0,000000000e+00    0,000000000e+00    0,000000000e+00
      996000000   -1,089724526e-01   -1,431066450e-02    5,126638412e-01    3,664229810e-01    0,000000000e+00    0,000000000e+00    0,000000000e+00    0,000000000e+00
     1010000000   -1,019602865e-01   -5,408514757e-03    6,290215254e-01    5,221670493e-02    0,000000000e+00    0,000000000e+00    0,000000000e+00    0,000000000e+00
     1024000000   -8,912166208e-02   -1,022204291e-03    5,605447292e-01   -2,709097266e-01    0,000000000e+00    0,000000000e+00    0,000000000e+00    0,000000000e+00
     1038000000   -7,627929002e-02   -3,238079604e-03    3,388828635e-01   -5,023487806e-01    0,000000000e+00    0,000000000e+00    0,000000000e+00    0,000000000e+00
     1052000000   -6,252723187e-02   -1,860420220e-02    3,484233841e-02   -5,846143365e-01    0,000000000e+00    0,000000000e+00    0,000000000e+00    0,000000000e+00
     1066000000   -7,328200340e-02   -3,206667677e-02   -2,700677514e-01   -5,020828843e-01    0,000000000e+00    0,000000000e+00    0,000000000e+00    0,000000000e+00
     1080000000   -7,895085961e-02   -2,705406398e-02   -4,806241095e-01   -2,703205943e-01    0,000000000e+00    0,000000000e+00    0,000000000e+00    0,000000000e+00
     1094000000   -8,082006127e-02   -2,021229453e-02   -5,339315534e-01    4,229935631e-02    0,000000000e+00    0,000000000e+00    0,000000000e+00    0,000000000e+00
     1108000000   -5,607743934e-02   -9,570025839e-03   -3,993380368e-01    3,239042759e-01    0,000000000e+00    0,000000000e+00    0,000000000e+00    0,000000000e+00
     1122000000   -3,292471915e-02   -3,708786145e-02   -1,366149336e-01    4,817704856e-01    0,000000000e+00    0,000000000e+00    0,000000000e+00    0,000000000e+00
     1136000000   -2,528514713e-02   -8,755449206e-02    1,645799726e-01    4,741383791e-01    0,000000000e+00    0,000000000e+00    0,000000000e+00    0,000000000e+00
     1150000000   -6,866221875e-02   -1,341520697e-01    4,202664495e-01    3,121958375e-01    0,000000000e+00    0,000000000e+00    0,000000000e+00    0,000000000e+00
     1164000000   -1,390642524e-01   -1,539084911e-01    5,607027411e-01    2,452360466e-02    0,000000000e+00    0,000000000e+00    0,000000000e+00    0,000000000e+00
     1178000000   -2,087551355e-01   -1,236005872e-01    5,326443315e-01   -3,133285046e-01    0,000000000e+00    0,000000000e+00    0,000000000e+00    0,000000000e+00
     1192000000   -2,506120801e-01   -4,337317124e-02    2,979219556e-01   -5,996379256e-01    0,000000000e+00    0,000000000e+00    0,000000000e+00    0,000000000e+00
     1206000000   -2,320956588e-01    3,766922653e-02   -6,161858141e-02   -6,978566647e-01    0,000000000e+00    0,000000000e+00    0,000000000e+00    0,000000000e+00
     1220000000   -1,827606112e-01    8,177494258e-02   -4,214483798e-01   -5,786299706e-01    0,000000000e+00    0,000000000e+00    0,000000000e+00    0,000000000e+00
     1234000000   -1,280348450e-01    1,012456492e-01   -6,444650888e-01   -2,936792374e-01    0,000000000e+00    0,000000000e+00    0,000000000e+00    0,000000000e+00
     1248000000   -6,801970303e-02    9,358803928e-02   -6,786555052e-01    6,468088925e-02    0,000000000e+00    0,000000000e+00    0,000000000e+00    0,000000000e+00
     1262000000   -1,144858357e-02    6,221252307e-02   -5,196321607e-01    3,731923699e-01    0,000000000e+00    0,000000000e+00    0,000000000e+00    0,000000000e+00
     1276000000    2,371603996e-02   -6,727100350e-03   -2,436645925e-01    5,456402302e-01    0,000000000e+00    0,000000000e+00    0,000000000e+00    0,000000000e+00
     1290000000    2,360903099e-02   -9,006590396e-02    6,936187297e-02    5,743668675e-01    0,000000000e+00    0,000000000e+00    0,000000000e+00    0,000000000e+00
     1304000000   -2,591521665e-02   -1,724152714e-01    3,733017147e-01    4,654085636e-01    0,000000000e+00    0,000000000e+00    0,000000000e+00    0,000000000e+00
     1318000000   -1,332039535e-01   -2,091615200e-01    5,853889585e-01    2,172207534e-01    0,000000000e+00    0,000000000e+00    0,000000000e+00    0,000000000e+00
     1332000000   -2,493651658e-01   -1,916145682e-01    6,565273404e-01   -1,192488819e-01    0,000000000e+00    0,000000000e+00    0,000000000e+00    0,000000000e+00
     1346000000   -3,332013190e-01   -8,607913554e-02    5,148311257e-01   -4,552625716e-01    0,000000000e+00    0,000000000e+00    0,000000000e+00    0,000000000e+00
     1360000000   -3,345237374e-01    2,474418469e-02    1,908690184e-01   -6,489540339e-01    0,000000000e+00    0,000000000e+00    0,000000000e+00    0,000000000e+00
     1374000000   -2,796463966e-01    1,062418520e-01   -1,531422585e-01   -6,046596169e-01    0,000000000e+00    0,000000000e+00    0,000000000e+00    0,000000000e+00
     1388000000   -2,137484699e-01    1,350057125e-01   -4,033656418e-01   -3,774337173e-01    0,000000000e+00    0,000000000e+00    0,000000000e+00    0,000000000e+00
     1402000000   -1,540554166e-01    1,398497820e-01   -4,878309369e-01   -5,631209537e-02    0,000000000e+00    0,000000000e+00    0,000000000e+00    0,000000000e+00
     1416000000   -1,037521809e-01    1,171363220e-01   -3,818408847e-01    2,437062562e-01    0,000000000e+00    0,000000000e+00    0,000000000e+00    0,000000000e+00
     1430000000   -5,151890963e-02    7,118568569e-02   -1,187805906e-01    4,551674128e-01    0,000000000e+00    0,000000000e+00    0,000000000e+00    0,000000000e+00
     1444000000   -3,899832070e-02    1,563788508e-03    1,712543219e-01    5,458527207e-01    0,000000000e+00    0,000000000e+00    0,000000000e+00    0,000000000e+00
     1458000000   -6,630855799e-02   -6,901939958e-02    4,760283828e-01    4,796479642e-01    0,000000000e+00    0,000000000e+00    0,000000000e+00    0,000000000e+00
     1472000000   -1,353744417e-01   -1,226912066e-01    7,739822865e-01    2,677887082e-01    0,000000000e+00    0,000000000e+00    0,000000000e+00    0,000000000e+00
     1486000000   -2,315604687e-01   -1,094433218e-01    8,907564282e-01   -7,743323594e-02    0,000000000e+00    0,000000000e+00    0,000000000e+00    0,000000000e+00
     1500000000   -2,824754417e-01   -3,664990142e-02    8,069553375e-01   -4,504326582e-01    0,000000000e+00    0,000000000e+00    0,000000000e+00    0,000000000e+00
