! NanoVNA-App
! Date: 2025-09-25 15:08:06
! Start: 100MHz Stop: 1,5GHz Points: 101
! S-Parameter data: F S11 S21 S12 S22
# Hz S RI R 50
!     Frequency           S11_Real           S11_Imag           S21_Real           S21_Imag           S12_Real           S12_Imag           S22_Real           S22_Imag
      100000000    3,117607348e-02    2,865087427e-02    4,348417222e-01   -6,686162949e-01    0,000000000e+00    0,000000000e+00    0,000000000e+00    0,000000000e+00
      114000000    5,760593712e-02    5,526778288e-03    7,903076708e-03   -7,910745740e-01    0,000000000e+00    0,000000000e+00    0,000000000e+00    0,000000000e+00
      128000000    6,728639454e-02   -3,781646863e-02   -4,102337062e-01   -6,711196899e-01    0,000000000e+00    0,000000000e+00    0,000000000e+00    0,000000000e+00
      142000000    4,475143924e-02   -8,422240615e-02   -7,028217912e-01   -3,531849682e-01    0,000000000e+00    0,000000000e+00    0,000000000e+00    0,000000000e+00
      156000000   -6,272561848e-03   -1,060116589e-01   -7,854096293e-01    7,295716554e-02    0,000000000e+00    0,000000000e+00    0,000000000e+00    0,000000000e+00
      170000000   -5,766624212e-02   -9,062032402e-02   -6,276250482e-01    4,868270457e-01    0,000000000e+00    0,000000000e+00    0,000000000e+00    0,000000000e+00
      184000000   -8,369548619e-02   -4,949082062e-02   -2,649162114e-01    7,509859800e-01    0,000000000e+00    0,000000000e+00    0,000000000e+00    0,000000000e+00
      198000000   -7,963349670e-02   -1,045119669e-02    1,835308969e-01    7,734056711e-01    0,000000000e+00    0,000000000e+00    0,000000000e+00    0,000000000e+00
      212000000   -6,229349598e-02    1,320374291e-02    5,690239668e-01    5,489465594e-01    0,000000000e+00    0,000000000e+00    0,000000000e+00    0,000000000e+00
      226000000   -4,331040010e-02    2,768711932e-02    7,707738280e-01    1,545123458e-01    0,000000000e+00    0,000000000e+00    0,000000000e+00    0,000000000e+00
      240000000   -1,818088256e-02    3,852066025e-02    7,269240618e-01   -2,819699347e-01    0,000000000e+00    0,000000000e+00    0,000000000e+00    0,000000000e+00
      254000000    1,719639450e-02    3,517611697e-02    4,576911032e-01   -6,200445294e-01    0,000000000e+00    0,000000000e+00    0,000000000e+00    0,000000000e+00
      268000000    4,876444489e-02    5,621988792e-03    5,867889896e-02   -7,603969574e-01    0,000000000e+00    0,000000000e+00    0,000000000e+00    0,000000000e+00
      282000000    5,352036282e-02   -4,179355875e-02   -3,487121165e-01   -6,714206934e-01    0,000000000e+00    0,000000000e+00    0,000000000e+00    0,000000000e+00
      296000000    2,403583191e-02   -7,962789387e-02   -6,516923308e-01   -3,854830861e-01    0,000000000e+00    0,000000000e+00    0,000000000e+00    0,000000000e+00
      310000000   -1,788787171e-02   -8,314488828e-02   -7,621833086e-01    2,051333152e-02    0,000000000e+00    0,000000000e+00    0,000000000e+00    0,000000000e+00
      324000000   -4,168428481e-02   -5,885064229e-02   -6,321066022e-01    4,309884608e-01    0,000000000e+00    0,000000000e+00    0,000000000e+00    0,000000000e+00
      338000000   -3,408776596e-02   -3,683735430e-02   -2,971879244e-01    7,015333772e-01    0,000000000e+00    0,000000000e+00    0,000000000e+00    0,000000000e+00
      352000000   -1,740575023e-02   -4,098634422e-02    1,259911060e-01    7,416122556e-01    0,000000000e+00    0,000000000e+00    0,000000000e+00    0,000000000e+00
      366000000   -1,940634288e-02   -6,196232885e-02    4,976547956e-01    5,543465018e-01    0,000000000e+00    0,000000000e+00    0,000000000e+00    0,000000000e+00
      380000000   -4,422814399e-02   -7,235728204e-02    7,134453058e-01    1,998503059e-01    0,000000000e+00    0,000000000e+00    0,000000000e+00    0,000000000e+00
      394000000   -7,053992152e-02   -5,812927336e-02    7,041740417e-01   -2,171860486e-01    0,000000000e+00    0,000000000e+00    0,000000000e+00    0,000000000e+00
      408000000   -7,714314759e-02   -3,032571264e-02    4,712370336e-01   -5,591505170e-01    0,000000000e+00    0,000000000e+00    0,000000000e+00    0,000000000e+00
      422000000   -6,519409269e-02   -1,137442794e-02    9,394341707e-02   -7,174836397e-01    0,000000000e+00    0,000000000e+00    0,000000000e+00    0,000000000e+00
      436000000   -5,287420005e-02   -4,372588824e-03   -3,023181260e-01   -6,469519138e-01    0,000000000e+00    0,000000000e+00    0,000000000e+00    0,000000000e+00
      450000000   -4,487485439e-02    1,817085315e-03   -5,933339596e-01   -3,778484762e-01    0,000000000e+00    0,000000000e+00    0,000000000e+00    0,000000000e+00
      464000000   -2,936339192e-02    1,130291261e-02   -6,913164258e-01    2,209219929e-05    0,000000000e+00    0,000000000e+00    0,000000000e+00    0,000000000e+00
      478000000   -1,075793640e-03    1,147680916e-02   -5,730621815e-01    3,632048666e-01    0,000000000e+00    0,000000000e+00    0,000000000e+00    0,000000000e+00
      492000000    2,762879804e-02   -1,268522162e-02   -2,895447314e-01    6,017302871e-01    0,000000000e+00    0,000000000e+00    0,000000000e+00    0,000000000e+00
      506000000    3,628170863e-02   -5,552915856e-02    6,918395311e-02    6,583279371e-01    0,000000000e+00    0,000000000e+00    0,000000000e+00    0,000000000e+00
      520000000    1,287940238e-02   -9,838231653e-02    4,050981998e-01    5,232297778e-01    0,000000000e+00    0,000000000e+00    0,000000000e+00    0,000000000e+00
      534000000   -3,437818959e-02   -1,160600483e-01    6,238231659e-01    2,361327857e-01    0,000000000e+00    0,000000000e+00    0,000000000e+00    0,000000000e+00
      548000000   -7,720700651e-02   -9,898825735e-02    6,582244635e-01   -1,331664920e-01    0,000000000e+00    0,000000000e+00    0,000000000e+00    0,000000000e+00
      562000000   -9,308455884e-02   -6,599745899e-02    4,823613763e-01   -4,673587680e-01    0,000000000e+00    0,000000000e+00    0,000000000e+00    0,000000000e+00
      576000000   -8,666303009e-02   -4,463488236e-02    1,507030725e-01   -6,480975151e-01    0,000000000e+00    0,000000000e+00    0,000000000e+00    0,000000000e+00
      590000000   -8,077577502e-02   -4,166244343e-02   -2,222882062e-01   -6,260384321e-01    0,000000000e+00    0,000000000e+00    0,000000000e+00    0,000000000e+00
      604000000   -8,901137114e-02   -3,769342601e-02   -5,200409889e-01   -4,058903456e-01    0,000000000e+00    0,000000000e+00    0,000000000e+00    0,000000000e+00
      618000000   -9,658053517e-02   -1,470042579e-02   -6,532798409e-01   -5,811570585e-02    0,000000000e+00    0,000000000e+00    0,000000000e+00    0,000000000e+00
      632000000   -8,139464259e-02    1,533081848e-02   -5,762020350e-01    3,031899631e-01    0,000000000e+00    0,000000000e+00    0,000000000e+00    0,000000000e+00
      646000000   -4,317702353e-02    2,603822201e-02   -3,188465238e-01    5,570818186e-01    0,000000000e+00    0,000000000e+00    0,000000000e+00    0,000000000e+00
      660000000   -7,624841761e-03    6,363875698e-03    2,259118855e-02    6,289229989e-01    0,000000000e+00    0,000000000e+00    0,000000000e+00    0,000000000e+00
      674000000    2,844862756e-04   -3,019233420e-02    3,424324691e-01    5,186918378e-01    0,000000000e+00    0,000000000e+00    0,000000000e+00    0,000000000e+00
      688000000   -1,519212406e-02   -5,600360036e-02    5,587747693e-01    2,579686344e-01    0,000000000e+00    0,000000000e+00    0,000000000e+00    0,000000000e+00
      702000000   -3,307418525e-02   -5,895105004e-02    6,021060348e-01   -8,111907542e-02    0,000000000e+00    0,000000000e+00    0,000000000e+00    0,000000000e+00
      716000000   -3,739173338e-02   -5,519925430e-02    4,598269761e-01   -3,892654181e-01    0,000000000e+00    0,000000000e+00    0,000000000e+00    0,000000000e+00
      730000000   -3,149897233e-02   -6,510278583e-02    1,734267026e-01   -5,662710071e-01    0,000000000e+00    0,000000000e+00    0,000000000e+00    0,000000000e+00
      744000000   -4,056107998e-02   -8,905368298e-02   -1,532465816e-01   -5,644637942e-01    0,000000000e+00    0,000000000e+00    0,000000000e+00    0,000000000e+00
      758000000   -7,256001979e-02   -1,040062383e-01   -4,271205068e-01   -3,944532275e-01    0,000000000e+00    0,000000000e+00    0,000000000e+00    0,000000000e+00
      772000000   -1,146321669e-01   -9,345890582e-02   -5,744300485e-01   -1,058952138e-01    0,000000000e+00    0,000000000e+00    0,000000000e+00    0,000000000e+00
      786000000   -1,395198852e-01   -5,644294620e-02   -5,449738503e-01    2,208601087e-01    0,000000000e+00    0,000000000e+00    0,000000000e+00    0,000000000e+00
      800000000   -1,325089335e-01   -1,401166990e-02   -3,416148126e-01    4,793024361e-01    0,000000000e+00    0,000000000e+00    0,000000000e+00    0,000000000e+00
      814000000   -1,083706170e-01    7,982358336e-03   -3,420458362e-02    5,860816836e-01    0,000000000e+00    0,000000000e+00    0,000000000e+00    0,000000000e+00
      828000000   -8,583791554e-02    1,366939675e-02    2,781514823e-01    5,144450665e-01    0,000000000e+00    0,000000000e+00    0,000000000e+00    0,000000000e+00
      842000000   -7,034850121e-02    1,513951179e-02    5,031358004e-01    2,892041504e-01    0,000000000e+00    0,000000000e+00    0,000000000e+00    0,000000000e+00
      856000000   -5,303670466e-02    1,928193308e-02    5,707810521e-01   -1,824315265e-02    0,000000000e+00    0,000000000e+00    0,000000000e+00    0,000000000e+00
      870000000   -2,348624542e-02    1,440117788e-02    4,638243616e-01   -3,065154850e-01    0,000000000e+00    0,000000000e+00    0,000000000e+00    0,000000000e+00
      884000000    5,668846890e-03   -1,475845370e-02    2,300931066e-01   -4,886459112e-01    0,000000000e+00    0,000000000e+00    0,000000000e+00    0,000000000e+00
      898000000    1,202018745e-02   -6,366302073e-02   -5,190338567e-02   -5,266644955e-01    0,000000000e+00    0,000000000e+00    0,000000000e+00    0,000000000e+00
      912000000   -2,273219824e-02   -1,076258048e-01   -3,531012237e-01   -3,965201974e-01    0,000000000e+00    0,000000000e+00    0,000000000e+00    0,000000000e+00
      926000000   -7,651563734e-02   -1,225967482e-01   -5,323624015e-01   -1,584295034e-01    0,000000000e+00    0,000000000e+00    0,000000000e+00    0,000000000e+00
      940000000   -1,216152832e-01   -1,026337594e-01   -5,514963865e-01    1,555540413e-01    0,000000000e+00    0,000000000e+00    0,000000000e+00    0,000000000e+00
      954000000   -1,439181864e-01   -6,269241124e-02   -3,943775296e-01    4,467997551e-01    0,000000000e+00    0,000000000e+00    0,000000000e+00    0,000000000e+00
      968000000   -1,302592456e-01   -2,909301780e-02   -9,217143059e-02    6,028509140e-01    0,000000000e+00    0,000000000e+00    0,000000000e+00    0,000000000e+00
      982000000   -1,176808178e-01   -1,689690165e-02    2,442234606e-01    5,695394874e-01    0,000000000e+00    0,000000000e+00    0,000000000e+00    0,000000000e+00
      996000000   -1,058473289e-01   -1,554928254e-02    5,127710700e-01    3,654955328e-01    0,000000000e+00    0,000000000e+00    0,000000000e+00    0,000000000e+00
     1010000000   -1,063467041e-01   -9,512863122e-03    6,294423342e-01    5,292671546e-02    0,000000000e+00    0,000000000e+00    0,000000000e+00    0,000000000e+00
     1024000000   -9,445290267e-02   -1,775682205e-03    5,624716282e-01   -2,699498534e-01    0,000000000e+00    0,000000000e+00    0,000000000e+00    0,000000000e+00
     1038000000   -7,490781695e-02    2,192898421e-03    3,369348049e-01   -5,023424625e-01    0,000000000e+00    0,000000000e+00    0,000000000e+00    0,000000000e+00
     1052000000   -6,250269711e-02   -1,715938002e-02    3,148835897e-02   -5,845869184e-01    0,000000000e+00    0,000000000e+00    0,000000000e+00    0,000000000e+00
     1066000000   -7,363632321e-02   -3,043210506e-02   -2,674544454e-01   -5,027054548e-01    0,000000000e+00    0,000000000e+00    0,000000000e+00    0,000000000e+00
     1080000000   -8,240149170e-02   -2,743522450e-02   -4,796014726e-01   -2,690107524e-01    0,000000000e+00    0,000000000e+00    0,000000000e+00    0,000000000e+00
     1094000000   -7,777306437e-02   -1,805146039e-02   -5,317639112e-01    4,300855845e-02    0,000000000e+00    0,000000000e+00    0,000000000e+00    0,000000000e+00
     1108000000   -6,049054489e-02   -1,496712491e-02   -3,975055218e-01    3,232508898e-01    0,000000000e+00    0,000000000e+00    0,000000000e+00    0,000000000e+00
     1122000000   -2,981506847e-02   -3,894549236e-02   -1,357139200e-01    4,808361828e-01    0,000000000e+00    0,000000000e+00    0,000000000e+00    0,000000000e+00
     1136000000   -2,980767563e-02   -8,403598517e-02    1,629123837e-01    4,739979208e-01    0,000000000e+00    0,000000000e+00    0,000000000e+00    0,000000000e+00
     1150000000   -6,564031541e-02   -1,375180483e-01    4,224581718e-01    3,117329776e-01    0,000000000e+00    0,000000000e+00    0,000000000e+00    0,000000000e+00
     1164000000   -1,389581710e-01   -1,499166191e-01    5,645588636e-01    2,383320779e-02    0,000000000e+00    0,000000000e+00    0,000000000e+00    0,000000000e+00
     1178000000   -2,130844593e-01   -1,170611158e-01    5,336008668e-01   -3,183993399e-01    0,000000000e+00    0,000000000e+00    0,000000000e+00    0,000000000e+00
     1192000000   -2,480769157e-01   -4,665086418e-02    2,966325283e-01   -5,987827778e-01    0,000000000e+00    0,000000000e+00    0,000000000e+00    0,000000000e+00
     1206000000   -2,362511754e-01    3,718554229e-02   -6,519597769e-02   -6,957805157e-01    0,000000000e+00    0,000000000e+00    0,000000000e+00    0,000000000e+00
     1220000000   -1,900076121e-01    8,411382139e-02   -4,210378230e-01   -5,739750266e-01    0,000000000e+00    0,000000000e+00    0,000000000e+00    0,000000000e+00
     1234000000   -1,279102564e-01    1,006408483e-01   -6,450801492e-01   -2,871849537e-01    0,000000000e+00    0,000000000e+00    0,000000000e+00    0,000000000e+00
     1248000000   -6,552420557e-02    9,372328967e-02   -6,742456555e-01    6,384379417e-02    0,000000000e+00    0,000000000e+00    0,000000000e+00    0,000000000e+00
     1262000000   -1,107798610e-02    6,163178384e-02   -5,162095428e-01    3,687704206e-01    0,000000000e+00    0,000000000e+00    0,000000000e+00    0,000000000e+00
     1276000000    2,258977480e-02   -6,154181436e-03   -2,404325008e-01    5,460282564e-01    0,000000000e+00    0,000000000e+00    0,000000000e+00    0,000000000e+00
     1290000000    2,468487248e-02   -9,056404978e-02    7,452764362e-02    5,741327405e-01    0,000000000e+00    0,000000000e+00    0,000000000e+00    0,000000000e+00
     1304000000   -3,439455852e-02   -1,724652052e-01    3,577812314e-01    4,627647400e-01    0,000000000e+00    0,000000000e+00    0,000000000e+00    0,000000000e+00
     1318000000   -1,364938915e-01   -2,089247257e-01    5,846620202e-01    2,156780809e-01    0,000000000e+00    0,000000000e+00    0,000000000e+00    0,000000000e+00
     1332000000   -2,477212548e-01   -1,889605969e-01    6,547040939e-01   -1,250080317e-01    0,000000000e+00    0,000000000e+00    0,000000000e+00    0,000000000e+00
     1346000000   -3,278370500e-01   -8,464420587e-02    5,154528022e-01   -4,640637934e-01    0,000000000e+00    0,000000000e+00    0,000000000e+00    0,000000000e+00
     1360000000   -3,322634697e-01    2,432568558e-02    1,973304302e-01   -6,397157311e-01    0,000000000e+00    0,000000000e+00    0,000000000e+00    0,000000000e+00
     1374000000   -2,823942006e-01    1,054001600e-01   -1,572917849e-01   -5,886097550e-01    0,000000000e+00    0,000000000e+00    0,000000000e+00    0,000000000e+00
     1388000000   -2,173716873e-01    1,380374432e-01   -4,102621377e-01   -3,781768084e-01    0,000000000e+00    0,000000000e+00    0,000000000e+00    0,000000000e+00
     1402000000   -1,550184786e-01    1,426645070e-01   -4,864251912e-01   -5,513247848e-02    0,000000000e+00    0,000000000e+00    0,000000000e+00    0,000000000e+00
     1416000000   -9,856881201e-02    1,155929416e-01   -3,866348565e-01    2,445147038e-01    0,000000000e+00    0,000000000e+00    0,000000000e+00    0,000000000e+00
     1430000000   -5,096682534e-02    6,643225253e-02   -1,372784823e-01    4,684736729e-01    0,000000000e+00    0,000000000e+00    0,000000000e+00    0,000000000e+00
     1444000000   -4,323369265e-02    4,918965045e-03    1,583791524e-01    5,369085073e-01    0,000000000e+00    0,000000000e+00    0,000000000e+00    0,000000000e+00
     1458000000   -6,345172971e-02   -7,876207680e-02    4,802704155e-01    4,791802466e-01    0,000000000e+00    0,000000000e+00    0,000000000e+00    0,000000000e+00
     1472000000   -1,379986107e-01   -1,252715737e-01    7,651680708e-01    2,549671531e-01    0,000000000e+00    0,000000000e+00    0,000000000e+00    0,000000000e+00
     1486000000   -2,292344123e-01   -1,109783128e-01    8,836662173e-01   -8,400633931e-02    0,000000000e+00    0,000000000e+00    0,000000000e+00    0,000000000e+00
     1500000000   -2,820884883e-01   -4,902851209e-02    8,160424829e-01   -4,740779400e-01    0,000000000e+00    0,000000000e+00    0,000000000e+00    0,000000000e+00
