! NanoVNA-App
! Date: 2025-09-25 15:08:29
! Start: 100MHz Stop: 1,5GHz Points: 101
! S-Parameter data: F S11 S21 S12 S22
# Hz S RI R 50
!     Frequency           S11_Real           S11_Imag           S21_Real           S21_Imag           S12_Real           S12_Imag           S22_Real           S22_Imag
      100000000    3,114429861e-02    2,865420654e-02    4,348162115e-01   -6,685621738e-01    0,000000000e+00    0,000000000e+00    0,000000000e+00    0,000000000e+00
      114000000    5,759098753e-02    5,480357911e-03    7,692416199e-03   -7,910292149e-01    0,000000000e+00    0,000000000e+00    0,000000000e+00    0,000000000e+00
      128000000    6,727789342e-02   -3,780691326e-02   -4,103791714e-01   -6,713014245e-01    0,000000000e+00    0,000000000e+00    0,000000000e+00    0,000000000e+00
      142000000    4,474291578e-02   -8,420716226e-02   -7,028226852e-01   -3,531974852e-01    0,000000000e+00    0,000000000e+00    0,000000000e+00    0,000000000e+00
      156000000   -5,579031073e-03   -1,069877669e-01   -7,872489691e-01    7,411897182e-02    0,000000000e+00    0,000000000e+00    0,000000000e+00    0,000000000e+00
      170000000   -5,766273662e-02   -9,065019339e-02   -6,276005507e-01    4,870943725e-01    0,000000000e+00    0,000000000e+00    0,000000000e+00    0,000000000e+00
      184000000   -8,370933682e-02   -4,947549477e-02   -2,649527192e-01    7,515012622e-01    0,000000000e+00    0,000000000e+00    0,000000000e+00    0,000000000e+00
      198000000   -7,965681702e-02   -1,044386346e-02    1,832616329e-01    7,734207511e-01    0,000000000e+00    0,000000000e+00    0,000000000e+00    0,000000000e+00
      212000000   -6,229329109e-02    1,319060754e-02    5,689012408e-01    5,490584970e-01    0,000000000e+00    0,000000000e+00    0,000000000e+00    0,000000000e+00
      226000000   -4,326083884e-02    2,765043639e-02    7,706292272e-01    1,545877606e-01    0,000000000e+00    0,000000000e+00    0,000000000e+00    0,000000000e+00
      240000000   -1,818625443e-02    3,851656616e-02    7,267642617e-01   -2,820266187e-01    0,000000000e+00    0,000000000e+00    0,000000000e+00    0,000000000e+00
      254000000    1,719487645e-02    3,518022597e-02    4,582259059e-01   -6,202691197e-01    0,000000000e+00    0,000000000e+00    0,000000000e+00    0,000000000e+00
      268000000    4,880692437e-02    5,630470812e-03    5,864598230e-02   -7,601498365e-01    0,000000000e+00    0,000000000e+00    0,000000000e+00    0,000000000e+00
      282000000    5,341305956e-02   -4,186899960e-02   -3,490276039e-01   -6,717725396e-01    0,000000000e+00    0,000000000e+00    0,000000000e+00    0,000000000e+00
      296000000    2,403166518e-02   -7,957831770e-02   -6,518450975e-01   -3,853910863e-01    0,000000000e+00    0,000000000e+00    0,000000000e+00    0,000000000e+00
      310000000   -1,774668694e-02   -8,305390924e-02   -7,622678876e-01    1,983767934e-02    0,000000000e+00    0,000000000e+00    0,000000000e+00    0,000000000e+00
      324000000   -4,160650074e-02   -5,904433504e-02   -6,319115162e-01    4,307432175e-01    0,000000000e+00    0,000000000e+00    0,000000000e+00    0,000000000e+00
      338000000   -3,423662111e-02   -3,675131500e-02   -2,955274284e-01    7,006090283e-01    0,000000000e+00    0,000000000e+00    0,000000000e+00    0,000000000e+00
      352000000   -1,725461148e-02   -4,061188176e-02    1,255133152e-01    7,419830561e-01    0,000000000e+00    0,000000000e+00    0,000000000e+00    0,000000000e+00
      366000000   -1,936196908e-02   -6,200731546e-02    4,981156588e-01    5,545172691e-01    0,000000000e+00    0,000000000e+00    0,000000000e+00    0,000000000e+00
      380000000   -4,454666004e-02   -7,258228213e-02    7,128276825e-01    1,998093426e-01    0,000000000e+00    0,000000000e+00    0,000000000e+00    0,000000000e+00
      394000000   -7,092212886e-02   -5,804273114e-02    7,037275434e-01   -2,166772634e-01    0,000000000e+00    0,000000000e+00    0,000000000e+00    0,000000000e+00
      408000000   -7,690647990e-02   -3,037498705e-02    4,715830982e-01   -5,590238571e-01    0,000000000e+00    0,000000000e+00    0,000000000e+00    0,000000000e+00
      422000000   -6,535530090e-02   -1,129069459e-02    9,351322055e-02   -7,183654904e-01    0,000000000e+00    0,000000000e+00    0,000000000e+00    0,000000000e+00
      436000000   -5,282812938e-02   -4,404263571e-03   -3,013441563e-01   -6,470969915e-01    0,000000000e+00    0,000000000e+00    0,000000000e+00    0,000000000e+00
      450000000   -4,469252378e-02    1,845365507e-03   -5,931949019e-01   -3,776752353e-01    0,000000000e+00    0,000000000e+00    0,000000000e+00    0,000000000e+00
      464000000   -2,947668917e-02    1,110502519e-02   -6,910984516e-01    1,946374141e-05    0,000000000e+00    0,000000000e+00    0,000000000e+00    0,000000000e+00
      478000000   -9,496081038e-04    1,097523700e-02   -5,726855397e-01    3,637117743e-01    0,000000000e+00    0,000000000e+00    0,000000000e+00    0,000000000e+00
      492000000    2,809829824e-02   -1,228044927e-02   -2,888360620e-01    6,027303934e-01    0,000000000e+00    0,000000000e+00    0,000000000e+00    0,000000000e+00
      506000000    3,625458851e-02   -5,600318685e-02    6,867051125e-02    6,581732035e-01    0,000000000e+00    0,000000000e+00    0,000000000e+00    0,000000000e+00
      520000000    1,285419334e-02   -9,878421575e-02    4,009000361e-01    5,252174139e-01    0,000000000e+00    0,000000000e+00    0,000000000e+00    0,000000000e+00
      534000000   -3,412523866e-02   -1,160044223e-01    6,245604157e-01    2,364823520e-01    0,000000000e+00    0,000000000e+00    0,000000000e+00    0,000000000e+00
      548000000   -7,722698152e-02   -9,948749840e-02    6,579090357e-01   -1,338317543e-01    0,000000000e+00    0,000000000e+00    0,000000000e+00    0,000000000e+00
      562000000   -9,364289790e-02   -6,585933268e-02    4,818579257e-01   -4,666718841e-01    0,000000000e+00    0,000000000e+00    0,000000000e+00    0,000000000e+00
      576000000   -8,559001237e-02   -4,458919168e-02    1,506048739e-01   -6,478332877e-01    0,000000000e+00    0,000000000e+00    0,000000000e+00    0,000000000e+00
      590000000   -8,086819947e-02   -4,185828194e-02   -2,199484110e-01   -6,300424933e-01    0,000000000e+00    0,000000000e+00    0,000000000e+00    0,000000000e+00
      604000000   -8,852069080e-02   -3,775558993e-02   -5,195890069e-01   -4,065019488e-01    0,000000000e+00    0,000000000e+00    0,000000000e+00    0,000000000e+00
      618000000   -9,613370150e-02   -1,525692269e-02   -6,528935432e-01   -5,834193900e-02    0,000000000e+00    0,000000000e+00    0,000000000e+00    0,000000000e+00
      632000000   -8,080989867e-02    1,548077073e-02   -5,753280520e-01    3,029262125e-01    0,000000000e+00    0,000000000e+00    0,000000000e+00    0,000000000e+00
      646000000   -4,262417927e-02    2,692660131e-02   -3,185270429e-01    5,559900999e-01    0,000000000e+00    0,000000000e+00    0,000000000e+00    0,000000000e+00
      660000000   -7,753519341e-03    6,502997596e-03    2,203937992e-02    6,295398474e-01    0,000000000e+00    0,000000000e+00    0,000000000e+00    0,000000000e+00
      674000000    1,265073777e-03   -3,058663011e-02    3,413336873e-01    5,189161301e-01    0,000000000e+00    0,000000000e+00    0,000000000e+00    0,000000000e+00
      688000000   -1,422374230e-02   -5,613245815e-02    5,587038994e-01    2,585367858e-01    0,000000000e+00    0,000000000e+00    0,000000000e+00    0,000000000e+00
      702000000   -3,403056785e-02   -6,013059989e-02    6,067110300e-01   -7,827362418e-02    0,000000000e+00    0,000000000e+00    0,000000000e+00    0,000000000e+00
      716000000   -3,757535666e-02   -5,650688335e-02    4,589468539e-01   -3,896103203e-01    0,000000000e+00    0,000000000e+00    0,000000000e+00    0,000000000e+00
      730000000   -3,193860129e-02   -6,443818659e-02    1,742210537e-01   -5,653503537e-01    0,000000000e+00    0,000000000e+00    0,000000000e+00    0,000000000e+00
      744000000   -4,082113132e-02   -8,804954588e-02   -1,528281420e-01   -5,636841059e-01    0,000000000e+00    0,000000000e+00    0,000000000e+00    0,000000000e+00
      758000000   -7,252296805e-02   -1,054023653e-01   -4,266811013e-01   -3,944776952e-01    0,000000000e+00    0,000000000e+00    0,000000000e+00    0,000000000e+00
      772000000   -1,136279404e-01   -9,464062005e-02   -5,742803812e-01   -1,057976931e-01    0,000000000e+00    0,000000000e+00    0,000000000e+00    0,000000000e+00
      786000000   -1,392906308e-01   -5,591481552e-02   -5,445352793e-01    2,209340483e-01    0,000000000e+00    0,000000000e+00    0,000000000e+00    0,000000000e+00
      800000000   -1,330644786e-01   -1,536086388e-02   -3,416902423e-01    4,792815745e-01    0,000000000e+00    0,000000000e+00    0,000000000e+00    0,000000000e+00
      814000000   -1,078428850e-01    8,190899156e-03   -3,506705165e-02    5,857289433e-01    0,000000000e+00    0,000000000e+00    0,000000000e+00    0,000000000e+00
      828000000   -8,616390079e-02    1,308957115e-02    2,791235447e-01    5,143570900e-01    0,000000000e+00    0,000000000e+00    0,000000000e+00    0,000000000e+00
      842000000   -7,045619190e-02    1,454817038e-02    5,023500323e-01    2,896048427e-01    0,000000000e+00    0,000000000e+00    0,000000000e+00    0,000000000e+00
      856000000   -5,294085294e-02    1,924623176e-02    5,710165501e-01   -1,751817390e-02    0,000000000e+00    0,000000000e+00    0,000000000e+00    0,000000000e+00
      870000000   -2,289584838e-02    1,372998022e-02    4,636726975e-01   -3,057613373e-01    0,000000000e+00    0,000000000e+00    0,000000000e+00    0,000000000e+00
      884000000    5,765748210e-03   -1,428418979e-02    2,309894413e-01   -4,881297350e-01    0,000000000e+00    0,000000000e+00    0,000000000e+00    0,000000000e+00
      898000000    1,194476057e-02   -6,378912181e-02   -5,288067088e-02   -5,260815024e-01    0,000000000e+00    0,000000000e+00    0,000000000e+00    0,000000000e+00
      912000000   -2,253538184e-02   -1,086290926e-01   -3,518243134e-01   -4,009678066e-01    0,000000000e+00    0,000000000e+00    0,000000000e+00    0,000000000e+00
      926000000   -7,538226992e-02   -1,259780526e-01   -5,310433507e-01   -1,602077335e-01    0,000000000e+00    0,000000000e+00    0,000000000e+00    0,000000000e+00
      940000000   -1,248789430e-01   -1,018092707e-01   -5,540296435e-01    1,549655199e-01    0,000000000e+00    0,000000000e+00    0,000000000e+00    0,000000000e+00
      954000000   -1,446040571e-01   -6,009675562e-02   -3,928634822e-01    4,452564716e-01    0,000000000e+00    0,000000000e+00    0,000000000e+00    0,000000000e+00
      968000000   -1,293020695e-01   -2,685368806e-02   -9,272282571e-02    6,027599573e-01    0,000000000e+00    0,000000000e+00    0,000000000e+00    0,000000000e+00
      982000000   -1,145550087e-01   -1,895799488e-02    2,479078025e-01    5,715184212e-01    0,000000000e+00    0,000000000e+00    0,000000000e+00    0,000000000e+00
      996000000   -1,046595350e-01   -1,373566408e-02    5,135775208e-01    3,653923273e-01    0,000000000e+00    0,000000000e+00    0,000000000e+00    0,000000000e+00
     1010000000   -1,036849543e-01   -1,049121376e-02    6,295434237e-01    5,261899531e-02    0,000000000e+00    0,000000000e+00    0,000000000e+00    0,000000000e+00
     1024000000   -9,343371540e-02    2,449413063e-03    5,617831349e-01   -2,707793415e-01    0,000000000e+00    0,000000000e+00    0,000000000e+00    0,000000000e+00
     1038000000   -7,180607319e-02   -4,967917339e-04    3,368919194e-01   -5,016368628e-01    0,000000000e+00    0,000000000e+00    0,000000000e+00    0,000000000e+00
     1052000000   -6,603892148e-02   -1,915971749e-02    3,253467754e-02   -5,844542384e-01    0,000000000e+00    0,000000000e+00    0,000000000e+00    0,000000000e+00
     1066000000   -7,266217470e-02   -3,174716234e-02   -2,633768320e-01   -5,020118952e-01    0,000000000e+00    0,000000000e+00    0,000000000e+00    0,000000000e+00
     1080000000   -8,375281841e-02   -3,290596232e-02   -4,807174206e-01   -2,725686133e-01    0,000000000e+00    0,000000000e+00    0,000000000e+00    0,000000000e+00
     1094000000   -7,865674049e-02   -1,758582518e-02   -5,340891480e-01    4,287850112e-02    0,000000000e+00    0,000000000e+00    0,000000000e+00    0,000000000e+00
     1108000000   -5,558770150e-02   -9,320906363e-03   -4,004578888e-01    3,249278069e-01    0,000000000e+00    0,000000000e+00    0,000000000e+00    0,000000000e+00
     1122000000   -2,991254628e-02   -3,840440139e-02   -1,353463382e-01    4,829232991e-01    0,000000000e+00    0,000000000e+00    0,000000000e+00    0,000000000e+00
     1136000000   -2,725960501e-02   -8,611042053e-02    1,624440700e-01    4,741078019e-01    0,000000000e+00    0,000000000e+00    0,000000000e+00    0,000000000e+00
     1150000000   -6,347363442e-02   -1,323319077e-01    4,214795232e-01    3,119295537e-01    0,000000000e+00    0,000000000e+00    0,000000000e+00    0,000000000e+00
     1164000000   -1,367435455e-01   -1,510892361e-01    5,619176626e-01    2,629808709e-02    0,000000000e+00    0,000000000e+00    0,000000000e+00    0,000000000e+00
     1178000000   -2,093410492e-01   -1,209519804e-01    5,301776528e-01   -3,134104013e-01    0,000000000e+00    0,000000000e+00    0,000000000e+00    0,000000000e+00
     1192000000   -2,510764003e-01   -4,466374964e-02    2,980155349e-01   -5,979223847e-01    0,000000000e+00    0,000000000e+00    0,000000000e+00    0,000000000e+00
     1206000000   -2,356443852e-01    3,091439232e-02   -6,634331495e-02   -6,964710951e-01    0,000000000e+00    0,000000000e+00    0,000000000e+00    0,000000000e+00
     1220000000   -1,830774248e-01    8,187250793e-02   -4,201411605e-01   -5,794834495e-01    0,000000000e+00    0,000000000e+00    0,000000000e+00    0,000000000e+00
     1234000000   -1,244025156e-01    1,053820476e-01   -6,428713202e-01   -2,909165919e-01    0,000000000e+00    0,000000000e+00    0,000000000e+00    0,000000000e+00
     1248000000   -6,515485793e-02    9,934018552e-02   -6,727744341e-01    6,364738941e-02    0,000000000e+00    0,000000000e+00    0,000000000e+00    0,000000000e+00
     1262000000   -1,000934746e-02    5,973529071e-02   -5,246104002e-01    3,659390807e-01    0,000000000e+00    0,000000000e+00    0,000000000e+00    0,000000000e+00
     1276000000    2,244650014e-02   -2,857880201e-03   -2,484390140e-01    5,455011725e-01    0,000000000e+00    0,000000000e+00    0,000000000e+00    0,000000000e+00
     1290000000    2,022024058e-02   -9,123071283e-02    6,794247031e-02    5,751757026e-01    0,000000000e+00    0,000000000e+00    0,000000000e+00    0,000000000e+00
     1304000000   -3,532395512e-02   -1,687914431e-01    3,630638719e-01    4,713395536e-01    0,000000000e+00    0,000000000e+00    0,000000000e+00    0,000000000e+00
     1318000000   -1,366245747e-01   -2,194764018e-01    5,858200192e-01    2,143684775e-01    0,000000000e+00    0,000000000e+00    0,000000000e+00    0,000000000e+00
     1332000000   -2,547098696e-01   -1,889040917e-01    6,502437592e-01   -1,174568683e-01    0,000000000e+00    0,000000000e+00    0,000000000e+00    0,000000000e+00
     1346000000   -3,348533213e-01   -9,462928027e-02    5,031131506e-01   -4,582124054e-01    0,000000000e+00    0,000000000e+00    0,000000000e+00    0,000000000e+00
     1360000000   -3,386486471e-01    2,236666530e-02    1,894493252e-01   -6,530951262e-01    0,000000000e+00    0,000000000e+00    0,000000000e+00    0,000000000e+00
     1374000000   -2,845230401e-01    1,069346890e-01   -1,598900110e-01   -5,983304381e-01    0,000000000e+00    0,000000000e+00    0,000000000e+00    0,000000000e+00
     1388000000   -2,122048289e-01    1,379511207e-01   -4,158046246e-01   -3,696399033e-01    0,000000000e+00    0,000000000e+00    0,000000000e+00    0,000000000e+00
     1402000000   -1,486284733e-01    1,377839893e-01   -4,781677723e-01   -5,367287993e-02    0,000000000e+00    0,000000000e+00    0,000000000e+00    0,000000000e+00
     1416000000   -9,904148430e-02    1,208953187e-01   -3,756682575e-01    2,529095113e-01    0,000000000e+00    0,000000000e+00    0,000000000e+00    0,000000000e+00
     1430000000   -5,034090951e-02    6,981667876e-02   -1,449152231e-01    4,625526071e-01    0,000000000e+00    0,000000000e+00    0,000000000e+00    0,000000000e+00
     1444000000   -3,916553408e-02    4,610494652e-04    1,607930213e-01    5,308358669e-01    0,000000000e+00    0,000000000e+00    0,000000000e+00    0,000000000e+00
     1458000000   -6,309320033e-02   -6,997065246e-02    4,860812426e-01    4,766471386e-01    0,000000000e+00    0,000000000e+00    0,000000000e+00    0,000000000e+00
     1472000000   -1,338705570e-01   -1,257806718e-01    7,518727779e-01    2,627655268e-01    0,000000000e+00    0,000000000e+00    0,000000000e+00    0,000000000e+00
     1486000000   -2,282579094e-01   -1,127064303e-01    9,021380544e-01   -9,085223824e-02    0,000000000e+00    0,000000000e+00    0,000000000e+00    0,000000000e+00
     1500000000   -2,775999606e-01   -5,240535364e-02    8,201173544e-01   -4,484109879e-01    0,000000000e+00    0,000000000e+00    0,000000000e+00    0,000000000e+00
