! NanoVNA-App
! Date: 2025-09-25 15:05:41
! Start: 100MHz Stop: 1,5GHz Points: 101
! S-Parameter data: F S11 S21 S12 S22
# Hz S RI R 50
!     Frequency           S11_Real           S11_Imag           S21_Real           S21_Imag           S12_Real           S12_Imag           S22_Real           S22_Imag
      100000000    3,114673868e-02    2,864908054e-02    4,348522723e-01   -6,686259508e-01    0,000000000e+00    0,000000000e+00    0,000000000e+00    0,000000000e+00
      114000000    5,758164823e-02    5,526098423e-03    7,719085086e-03   -7,910785675e-01    0,000000000e+00    0,000000000e+00    0,000000000e+00    0,000000000e+00
      128000000    6,729937345e-02   -3,780106828e-02   -4,101632237e-01   -6,709861159e-01    0,000000000e+00    0,000000000e+00    0,000000000e+00    0,000000000e+00
      142000000    4,472021386e-02   -8,418475091e-02   -7,030357122e-01   -3,532806635e-01    0,000000000e+00    0,000000000e+00    0,000000000e+00    0,000000000e+00
      156000000   -5,699290894e-03   -1,061758250e-01   -7,865962982e-01    7,276784629e-02    0,000000000e+00    0,000000000e+00    0,000000000e+00    0,000000000e+00
      170000000   -5,757342279e-02   -9,059859812e-02   -6,278481483e-01    4,872014225e-01    0,000000000e+00    0,000000000e+00    0,000000000e+00    0,000000000e+00
      184000000   -8,368091285e-02   -4,951179400e-02   -2,650066316e-01    7,509737611e-01    0,000000000e+00    0,000000000e+00    0,000000000e+00    0,000000000e+00
      198000000   -7,965272665e-02   -1,048884541e-02    1,835283637e-01    7,731351852e-01    0,000000000e+00    0,000000000e+00    0,000000000e+00    0,000000000e+00
      212000000   -6,229445711e-02    1,315458305e-02    5,691879988e-01    5,491101146e-01    0,000000000e+00    0,000000000e+00    0,000000000e+00    0,000000000e+00
      226000000   -4,330436513e-02    2,766538411e-02    7,707636356e-01    1,544917226e-01    0,000000000e+00    0,000000000e+00    0,000000000e+00    0,000000000e+00
      240000000   -1,815568097e-02    3,849979490e-02    7,268640399e-01   -2,820100486e-01    0,000000000e+00    0,000000000e+00    0,000000000e+00    0,000000000e+00
      254000000    1,719789766e-02    3,518562391e-02    4,578851163e-01   -6,204015613e-01    0,000000000e+00    0,000000000e+00    0,000000000e+00    0,000000000e+00
      268000000    4,874031991e-02    5,600448698e-03    5,835705251e-02   -7,602817416e-01    0,000000000e+00    0,000000000e+00    0,000000000e+00    0,000000000e+00
      282000000    5,338978022e-02   -4,188749194e-02   -3,495321572e-01   -6,715617776e-01    0,000000000e+00    0,000000000e+00    0,000000000e+00    0,000000000e+00
      296000000    2,408748865e-02   -7,954585552e-02   -6,518560648e-01   -3,855346441e-01    0,000000000e+00    0,000000000e+00    0,000000000e+00    0,000000000e+00
      310000000   -1,780510880e-02   -8,339250088e-02   -7,627840638e-01    1,983326487e-02    0,000000000e+00    0,000000000e+00    0,000000000e+00    0,000000000e+00
      324000000   -4,163163155e-02   -5,882012099e-02   -6,319099665e-01    4,309511781e-01    0,000000000e+00    0,000000000e+00    0,000000000e+00    0,000000000e+00
      338000000   -3,436842188e-02   -3,698730841e-02   -2,949638665e-01    7,023970485e-01    0,000000000e+00    0,000000000e+00    0,000000000e+00    0,000000000e+00
      352000000   -1,741952263e-02   -4,098872095e-02    1,256786585e-01    7,418520451e-01    0,000000000e+00    0,000000000e+00    0,000000000e+00    0,000000000e+00
      366000000   -1,929494925e-02   -6,195254996e-02    4,982472658e-01    5,540974140e-01    0,000000000e+00    0,000000000e+00    0,000000000e+00    0,000000000e+00
      380000000   -4,434257746e-02   -7,246079296e-02    7,130712867e-01    2,002556026e-01    0,000000000e+00    0,000000000e+00    0,000000000e+00    0,000000000e+00
      394000000   -7,061871141e-02   -5,819756538e-02    7,048574686e-01   -2,173103988e-01    0,000000000e+00    0,000000000e+00    0,000000000e+00    0,000000000e+00
      408000000   -7,662260532e-02   -3,057262674e-02    4,706096649e-01   -5,602716208e-01    0,000000000e+00    0,000000000e+00    0,000000000e+00    0,000000000e+00
      422000000   -6,551042944e-02   -1,126861386e-02    9,273418039e-02   -7,178963423e-01    0,000000000e+00    0,000000000e+00    0,000000000e+00    0,000000000e+00
      436000000   -5,315166712e-02   -4,529411905e-03   -3,024046719e-01   -6,470069885e-01    0,000000000e+00    0,000000000e+00    0,000000000e+00    0,000000000e+00
      450000000   -4,484645650e-02    1,827030093e-03   -5,935056806e-01   -3,776254356e-01    0,000000000e+00    0,000000000e+00    0,000000000e+00    0,000000000e+00
      464000000   -2,955044061e-02    1,184873842e-02   -6,913407445e-01    5,025063292e-04    0,000000000e+00    0,000000000e+00    0,000000000e+00    0,000000000e+00
      478000000   -9,461748996e-04    1,112549659e-02   -5,727650523e-01    3,634235561e-01    0,000000000e+00    0,000000000e+00    0,000000000e+00    0,000000000e+00
      492000000    2,794124186e-02   -1,243648585e-02   -2,890824974e-01    6,013981104e-01    0,000000000e+00    0,000000000e+00    0,000000000e+00    0,000000000e+00
      506000000    3,645231575e-02   -5,627456307e-02    6,883696467e-02    6,583602428e-01    0,000000000e+00    0,000000000e+00    0,000000000e+00    0,000000000e+00
      520000000    1,285498310e-02   -9,843339771e-02    4,020025730e-01    5,281940103e-01    0,000000000e+00    0,000000000e+00    0,000000000e+00    0,000000000e+00
      534000000   -3,471106663e-02   -1,161943749e-01    6,238557100e-01    2,362590879e-01    0,000000000e+00    0,000000000e+00    0,000000000e+00    0,000000000e+00
      548000000   -7,780607790e-02   -9,936770797e-02    6,576732397e-01   -1,337321401e-01    0,000000000e+00    0,000000000e+00    0,000000000e+00    0,000000000e+00
      562000000   -9,322977066e-02   -6,638988853e-02    4,812456965e-01   -4,667776525e-01    0,000000000e+00    0,000000000e+00    0,000000000e+00    0,000000000e+00
      576000000   -8,586245775e-02   -4,416247457e-02    1,513226777e-01   -6,478925943e-01    0,000000000e+00    0,000000000e+00    0,000000000e+00    0,000000000e+00
      590000000   -8,054097742e-02   -4,157193750e-02   -2,182419896e-01   -6,269628406e-01    0,000000000e+00    0,000000000e+00    0,000000000e+00    0,000000000e+00
      604000000   -8,881732076e-02   -3,769467771e-02   -5,201808810e-01   -4,067923129e-01    0,000000000e+00    0,000000000e+00    0,000000000e+00    0,000000000e+00
      618000000   -9,633143991e-02   -1,557112951e-02   -6,531131268e-01   -5,838785693e-02    0,000000000e+00    0,000000000e+00    0,000000000e+00    0,000000000e+00
      632000000   -8,151398599e-02    1,504046470e-02   -5,751399994e-01    3,025999367e-01    0,000000000e+00    0,000000000e+00    0,000000000e+00    0,000000000e+00
      646000000   -4,247808829e-02    2,638396062e-02   -3,190551102e-01    5,562816858e-01    0,000000000e+00    0,000000000e+00    0,000000000e+00    0,000000000e+00
      660000000   -7,832988165e-03    5,531704985e-03    2,246887051e-02    6,308776736e-01    0,000000000e+00    0,000000000e+00    0,000000000e+00    0,000000000e+00
      674000000    4,168710730e-04   -2,960666828e-02    3,421346545e-01    5,186721087e-01    0,000000000e+00    0,000000000e+00    0,000000000e+00    0,000000000e+00
      688000000   -1,438675728e-02   -5,572443828e-02    5,586459041e-01    2,590619028e-01    0,000000000e+00    0,000000000e+00    0,000000000e+00    0,000000000e+00
      702000000   -3,414653242e-02   -5,898510665e-02    6,072971225e-01   -8,266751468e-02    0,000000000e+00    0,000000000e+00    0,000000000e+00    0,000000000e+00
      716000000   -3,676212206e-02   -5,499379337e-02    4,594315588e-01   -3,899545074e-01    0,000000000e+00    0,000000000e+00    0,000000000e+00    0,000000000e+00
      730000000   -3,182418644e-02   -6,559865922e-02    1,738224626e-01   -5,660114884e-01    0,000000000e+00    0,000000000e+00    0,000000000e+00    0,000000000e+00
      744000000   -3,973998129e-02   -8,866469562e-02   -1,535197496e-01   -5,641165376e-01    0,000000000e+00    0,000000000e+00    0,000000000e+00    0,000000000e+00
      758000000   -7,193203270e-02   -1,045758054e-01   -4,274901450e-01   -3,949041367e-01    0,000000000e+00    0,000000000e+00    0,000000000e+00    0,000000000e+00
      772000000   -1,138998419e-01   -9,340323508e-02   -5,745491385e-01   -1,057496220e-01    0,000000000e+00    0,000000000e+00    0,000000000e+00    0,000000000e+00
      786000000   -1,383679807e-01   -5,622563884e-02   -5,451741815e-01    2,204564810e-01    0,000000000e+00    0,000000000e+00    0,000000000e+00    0,000000000e+00
      800000000   -1,332826167e-01   -1,461881585e-02   -3,414429426e-01    4,801670015e-01    0,000000000e+00    0,000000000e+00    0,000000000e+00    0,000000000e+00
      814000000   -1,089069396e-01    8,030568250e-03   -3,474631906e-02    5,861687064e-01    0,000000000e+00    0,000000000e+00    0,000000000e+00    0,000000000e+00
      828000000   -8,537500352e-02    1,401727740e-02    2,779446244e-01    5,145714879e-01    0,000000000e+00    0,000000000e+00    0,000000000e+00    0,000000000e+00
      842000000   -7,021363080e-02    1,475275867e-02    5,030187368e-01    2,893797159e-01    0,000000000e+00    0,000000000e+00    0,000000000e+00    0,000000000e+00
      856000000   -5,306868628e-02    1,935178787e-02    5,701133013e-01   -1,806294546e-02    0,000000000e+00    0,000000000e+00    0,000000000e+00    0,000000000e+00
      870000000   -2,274558693e-02    1,450375095e-02    4,631488323e-01   -3,064098060e-01    0,000000000e+00    0,000000000e+00    0,000000000e+00    0,000000000e+00
      884000000    5,966601428e-03   -1,474459935e-02    2,307730168e-01   -4,878607690e-01    0,000000000e+00    0,000000000e+00    0,000000000e+00    0,000000000e+00
      898000000    1,204320882e-02   -6,389514357e-02   -5,197179690e-02   -5,270025134e-01    0,000000000e+00    0,000000000e+00    0,000000000e+00    0,000000000e+00
      912000000   -2,211759984e-02   -1,086108461e-01   -3,621641695e-01   -4,093369842e-01    0,000000000e+00    0,000000000e+00    0,000000000e+00    0,000000000e+00
      926000000   -7,386939973e-02   -1,255560666e-01   -5,306604505e-01   -1,596907675e-01    0,000000000e+00    0,000000000e+00    0,000000000e+00    0,000000000e+00
      940000000   -1,240759715e-01   -1,014628783e-01   -5,518688560e-01    1,570262909e-01    0,000000000e+00    0,000000000e+00    0,000000000e+00    0,000000000e+00
      954000000   -1,434965134e-01   -5,998840928e-02   -3,925580680e-01    4,457751811e-01    0,000000000e+00    0,000000000e+00    0,000000000e+00    0,000000000e+00
      968000000   -1,299235970e-01   -2,697103843e-02   -9,148998559e-02    6,042358875e-01    0,000000000e+00    0,000000000e+00    0,000000000e+00    0,000000000e+00
      982000000   -1,159762293e-01   -1,834706776e-02    2,438814044e-01    5,715610981e-01    0,000000000e+00    0,000000000e+00    0,000000000e+00    0,000000000e+00
      996000000   -1,057969704e-01   -1,642336138e-02    5,123338103e-01    3,649641871e-01    0,000000000e+00    0,000000000e+00    0,000000000e+00    0,000000000e+00
     1010000000   -1,051571071e-01   -7,139242720e-03    6,290412545e-01    5,241938680e-02    0,000000000e+00    0,000000000e+00    0,000000000e+00    0,000000000e+00
     1024000000   -9,541575611e-02    2,494667424e-04    5,595425963e-01   -2,700311542e-01    0,000000000e+00    0,000000000e+00    0,000000000e+00    0,000000000e+00
     1038000000   -7,831402123e-02   -2,957525197e-03    3,384225070e-01   -5,036398768e-01    0,000000000e+00    0,000000000e+00    0,000000000e+00    0,000000000e+00
     1052000000   -6,586127728e-02   -1,311341114e-02    3,340227529e-02   -5,831876993e-01    0,000000000e+00    0,000000000e+00    0,000000000e+00    0,000000000e+00
     1066000000   -7,359240204e-02   -3,008396737e-02   -2,676021159e-01   -5,020781755e-01    0,000000000e+00    0,000000000e+00    0,000000000e+00    0,000000000e+00
     1080000000   -8,628959209e-02   -3,407539055e-02   -4,793683887e-01   -2,673258781e-01    0,000000000e+00    0,000000000e+00    0,000000000e+00    0,000000000e+00
     1094000000   -8,066743612e-02   -2,109740302e-02   -5,293741226e-01    4,034896940e-02    0,000000000e+00    0,000000000e+00    0,000000000e+00    0,000000000e+00
     1108000000   -5,604512990e-02   -1,312755980e-02   -3,977558017e-01    3,253063858e-01    0,000000000e+00    0,000000000e+00    0,000000000e+00    0,000000000e+00
     1122000000   -3,214062005e-02   -3,681167215e-02   -1,357120723e-01    4,825092256e-01    0,000000000e+00    0,000000000e+00    0,000000000e+00    0,000000000e+00
     1136000000   -2,924488112e-02   -8,732506633e-02    1,646127254e-01    4,748800695e-01    0,000000000e+00    0,000000000e+00    0,000000000e+00    0,000000000e+00
     1150000000   -6,877793372e-02   -1,328613162e-01    4,163175225e-01    3,149999082e-01    0,000000000e+00    0,000000000e+00    0,000000000e+00    0,000000000e+00
     1164000000   -1,411041170e-01   -1,534429789e-01    5,622854233e-01    2,584168687e-02    0,000000000e+00    0,000000000e+00    0,000000000e+00    0,000000000e+00
     1178000000   -2,095403224e-01   -1,149304062e-01    5,301311016e-01   -3,148648441e-01    0,000000000e+00    0,000000000e+00    0,000000000e+00    0,000000000e+00
     1192000000   -2,526045442e-01   -4,149415344e-02    2,963699996e-01   -5,973995328e-01    0,000000000e+00    0,000000000e+00    0,000000000e+00    0,000000000e+00
     1206000000   -2,374740243e-01    3,634946048e-02   -6,415800750e-02   -6,952356100e-01    0,000000000e+00    0,000000000e+00    0,000000000e+00    0,000000000e+00
     1220000000   -1,830053329e-01    8,528188616e-02   -4,200571477e-01   -5,803875327e-01    0,000000000e+00    0,000000000e+00    0,000000000e+00    0,000000000e+00
     1234000000   -1,293683052e-01    1,014447883e-01   -6,478202343e-01   -2,926081717e-01    0,000000000e+00    0,000000000e+00    0,000000000e+00    0,000000000e+00
     1248000000   -6,511820108e-02    1,008066162e-01   -6,752793193e-01    6,540051103e-02    0,000000000e+00    0,000000000e+00    0,000000000e+00    0,000000000e+00
     1262000000   -1,434104703e-02    6,271459162e-02   -5,260080695e-01    3,703677356e-01    0,000000000e+00    0,000000000e+00    0,000000000e+00    0,000000000e+00
     1276000000    2,578095719e-02   -2,337861340e-03   -2,399498522e-01    5,440219641e-01    0,000000000e+00    0,000000000e+00    0,000000000e+00    0,000000000e+00
     1290000000    1,896126568e-02   -8,786317706e-02    6,775885075e-02    5,762529373e-01    0,000000000e+00    0,000000000e+00    0,000000000e+00    0,000000000e+00
     1304000000   -3,317294642e-02   -1,711353958e-01    3,673769832e-01    4,586436450e-01    0,000000000e+00    0,000000000e+00    0,000000000e+00    0,000000000e+00
     1318000000   -1,345502138e-01   -2,128649950e-01    5,822653770e-01    2,223951072e-01    0,000000000e+00    0,000000000e+00    0,000000000e+00    0,000000000e+00
     1332000000   -2,511587441e-01   -1,853211373e-01    6,563590765e-01   -1,240084320e-01    0,000000000e+00    0,000000000e+00    0,000000000e+00    0,000000000e+00
     1346000000   -3,336668909e-01   -9,143705666e-02    5,074748397e-01   -4,646619856e-01    0,000000000e+00    0,000000000e+00    0,000000000e+00    0,000000000e+00
     1360000000   -3,341154158e-01    2,472631074e-02    1,819945574e-01   -6,470672488e-01    0,000000000e+00    0,000000000e+00    0,000000000e+00    0,000000000e+00
     1374000000   -2,823604047e-01    1,060986221e-01   -1,492187232e-01   -5,962141156e-01    0,000000000e+00    0,000000000e+00    0,000000000e+00    0,000000000e+00
     1388000000   -2,143909484e-01    1,375635713e-01   -4,105878770e-01   -3,779373467e-01    0,000000000e+00    0,000000000e+00    0,000000000e+00    0,000000000e+00
     1402000000   -1,479779035e-01    1,360956877e-01   -4,819090962e-01   -6,265367568e-02    0,000000000e+00    0,000000000e+00    0,000000000e+00    0,000000000e+00
     1416000000   -9,840629250e-02    1,168251112e-01   -3,801587224e-01    2,377188951e-01    0,000000000e+00    0,000000000e+00    0,000000000e+00    0,000000000e+00
     1430000000   -4,516904801e-02    7,916374505e-02   -1,161193475e-01    4,530432522e-01    0,000000000e+00    0,000000000e+00    0,000000000e+00    0,000000000e+00
     1444000000   -3,384465352e-02   -3,235525452e-03    1,719636172e-01    5,267066360e-01    0,000000000e+00    0,000000000e+00    0,000000000e+00    0,000000000e+00
     1458000000   -6,655102968e-02   -7,202237844e-02    4,737650156e-01    4,728734493e-01    0,000000000e+00    0,000000000e+00    0,000000000e+00    0,000000000e+00
     1472000000   -1,378065199e-01   -1,247944683e-01    7,539088130e-01    2,600921988e-01    0,000000000e+00    0,000000000e+00    0,000000000e+00    0,000000000e+00
     1486000000   -2,324898988e-01   -1,101490781e-01    8,907650113e-01   -7,459176332e-02    0,000000000e+00    0,000000000e+00    0,000000000e+00    0,000000000e+00
     1500000000   -2,850769162e-01   -4,563630372e-02    8,233724833e-01   -4,575262070e-01    0,000000000e+00    0,000000000e+00    0,000000000e+00    0,000000000e+00
