! NanoVNA-App
! Date: 2025-09-25 15:06:57
! Start: 100MHz Stop: 1,5GHz Points: 101
! S-Parameter data: F S11 S21 S12 S22
# Hz S RI R 50
!     Frequency           S11_Real           S11_Imag           S21_Real           S21_Imag           S12_Real           S12_Imag           S22_Real           S22_Imag
      100000000    3,114876896e-02    2,864602394e-02    4,348863959e-01   -6,686527729e-01    0,000000000e+00    0,000000000e+00    0,000000000e+00    0,000000000e+00
      114000000    5,756524205e-02    5,518836435e-03    7,836380973e-03   -7,909284830e-01    0,000000000e+00    0,000000000e+00    0,000000000e+00    0,000000000e+00
      128000000    6,725554168e-02   -3,787135333e-02   -4,102846682e-01   -6,709397435e-01    0,000000000e+00    0,000000000e+00    0,000000000e+00    0,000000000e+00
      142000000    4,473487288e-02   -8,422343433e-02   -7,029314041e-01   -3,532812893e-01    0,000000000e+00    0,000000000e+00    0,000000000e+00    0,000000000e+00
      156000000   -5,927533843e-03   -1,065530851e-01   -7,862165570e-01    7,366932929e-02    0,000000000e+00    0,000000000e+00    0,000000000e+00    0,000000000e+00
      170000000   -5,767571181e-02   -9,059606493e-02   -6,275867224e-01    4,869271219e-01    0,000000000e+00    0,000000000e+00    0,000000000e+00    0,000000000e+00
      184000000   -8,366703242e-02   -4,947347566e-02   -2,648687661e-01    7,508551478e-01    0,000000000e+00    0,000000000e+00    0,000000000e+00    0,000000000e+00
      198000000   -7,965361327e-02   -1,046190225e-02    1,834351867e-01    7,731372118e-01    0,000000000e+00    0,000000000e+00    0,000000000e+00    0,000000000e+00
      212000000   -6,225239486e-02    1,315911394e-02    5,692520142e-01    5,490357876e-01    0,000000000e+00    0,000000000e+00    0,000000000e+00    0,000000000e+00
      226000000   -4,324140027e-02    2,771927789e-02    7,707535625e-01    1,544320136e-01    0,000000000e+00    0,000000000e+00    0,000000000e+00    0,000000000e+00
      240000000   -1,820811071e-02    3,848677129e-02    7,268627286e-01   -2,818793058e-01    0,000000000e+00    0,000000000e+00    0,000000000e+00    0,000000000e+00
      254000000    1,718966477e-02    3,518457338e-02    4,579619765e-01   -6,204193234e-01    0,000000000e+00    0,000000000e+00    0,000000000e+00    0,000000000e+00
      268000000    4,882065579e-02    5,587127060e-03    5,871872604e-02   -7,604505420e-01    0,000000000e+00    0,000000000e+00    0,000000000e+00    0,000000000e+00
      282000000    5,346642807e-02   -4,175451025e-02   -3,491617143e-01   -6,712354422e-01    0,000000000e+00    0,000000000e+00    0,000000000e+00    0,000000000e+00
      296000000    2,405992709e-02   -7,940349728e-02   -6,518704295e-01   -3,853757679e-01    0,000000000e+00    0,000000000e+00    0,000000000e+00    0,000000000e+00
      310000000   -1,788585819e-02   -8,327411860e-02   -7,641594410e-01    2,080873214e-02    0,000000000e+00    0,000000000e+00    0,000000000e+00    0,000000000e+00
      324000000   -4,142144322e-02   -5,877876654e-02   -6,313873529e-01    4,304221570e-01    0,000000000e+00    0,000000000e+00    0,000000000e+00    0,000000000e+00
      338000000   -3,441122174e-02   -3,707250953e-02   -2,964959145e-01    7,006226778e-01    0,000000000e+00    0,000000000e+00    0,000000000e+00    0,000000000e+00
      352000000   -1,731336489e-02   -4,072661698e-02    1,256814152e-01    7,419933081e-01    0,000000000e+00    0,000000000e+00    0,000000000e+00    0,000000000e+00
      366000000   -1,928453706e-02   -6,204346195e-02    4,982413054e-01    5,555226207e-01    0,000000000e+00    0,000000000e+00    0,000000000e+00    0,000000000e+00
      380000000   -4,450781643e-02   -7,256592065e-02    7,129535079e-01    1,998533309e-01    0,000000000e+00    0,000000000e+00    0,000000000e+00    0,000000000e+00
      394000000   -7,075146586e-02   -5,823657662e-02    7,039269209e-01   -2,166877687e-01    0,000000000e+00    0,000000000e+00    0,000000000e+00    0,000000000e+00
      408000000   -7,702738792e-02   -3,040238284e-02    4,695411325e-01   -5,593008399e-01    0,000000000e+00    0,000000000e+00    0,000000000e+00    0,000000000e+00
      422000000   -6,538886577e-02   -1,127099525e-02    9,300811589e-02   -7,175312638e-01    0,000000000e+00    0,000000000e+00    0,000000000e+00    0,000000000e+00
      436000000   -5,278231204e-02   -4,552862141e-03   -3,023519516e-01   -6,475287080e-01    0,000000000e+00    0,000000000e+00    0,000000000e+00    0,000000000e+00
      450000000   -4,435957223e-02    1,844751299e-03   -5,930649638e-01   -3,780016899e-01    0,000000000e+00    0,000000000e+00    0,000000000e+00    0,000000000e+00
      464000000   -2,933063172e-02    1,100915298e-02   -6,914020181e-01   -2,613713441e-04    0,000000000e+00    0,000000000e+00    0,000000000e+00    0,000000000e+00
      478000000   -1,314982423e-03    1,123073790e-02   -5,738326311e-01    3,632375896e-01    0,000000000e+00    0,000000000e+00    0,000000000e+00    0,000000000e+00
      492000000    2,760356665e-02   -1,235140394e-02   -2,895574272e-01    6,015186906e-01    0,000000000e+00    0,000000000e+00    0,000000000e+00    0,000000000e+00
      506000000    3,642577305e-02   -5,589325726e-02    6,947492063e-02    6,588625312e-01    0,000000000e+00    0,000000000e+00    0,000000000e+00    0,000000000e+00
      520000000    1,248553395e-02   -9,857949615e-02    4,019069076e-01    5,247646570e-01    0,000000000e+00    0,000000000e+00    0,000000000e+00    0,000000000e+00
      534000000   -3,451756760e-02   -1,159858257e-01    6,236113310e-01    2,368557453e-01    0,000000000e+00    0,000000000e+00    0,000000000e+00    0,000000000e+00
      548000000   -7,731048763e-02   -9,906513244e-02    6,582064033e-01   -1,334731877e-01    0,000000000e+00    0,000000000e+00    0,000000000e+00    0,000000000e+00
      562000000   -9,322221577e-02   -6,585939974e-02    4,818659723e-01   -4,668141305e-01    0,000000000e+00    0,000000000e+00    0,000000000e+00    0,000000000e+00
      576000000   -8,612277359e-02   -4,454628006e-02    1,499609649e-01   -6,475680470e-01    0,000000000e+00    0,000000000e+00    0,000000000e+00    0,000000000e+00
      590000000   -8,068884164e-02   -4,167034104e-02   -2,187575996e-01   -6,278705001e-01    0,000000000e+00    0,000000000e+00    0,000000000e+00    0,000000000e+00
      604000000   -8,907396346e-02   -3,751572967e-02   -5,198215246e-01   -4,064308703e-01    0,000000000e+00    0,000000000e+00    0,000000000e+00    0,000000000e+00
      618000000   -9,628137201e-02   -1,544304751e-02   -6,530851126e-01   -5,831804499e-02    0,000000000e+00    0,000000000e+00    0,000000000e+00    0,000000000e+00
      632000000   -8,158554137e-02    1,535861939e-02   -5,758249164e-01    3,027188182e-01    0,000000000e+00    0,000000000e+00    0,000000000e+00    0,000000000e+00
      646000000   -4,250650108e-02    2,681870945e-02   -3,188327253e-01    5,557672381e-01    0,000000000e+00    0,000000000e+00    0,000000000e+00    0,000000000e+00
      660000000   -7,816100493e-03    6,362468004e-03    2,119654976e-02    6,304172873e-01    0,000000000e+00    0,000000000e+00    0,000000000e+00    0,000000000e+00
      674000000    1,669295365e-03   -3,028199449e-02    3,414244056e-01    5,178314447e-01    0,000000000e+00    0,000000000e+00    0,000000000e+00    0,000000000e+00
      688000000   -1,513319463e-02   -5,615165830e-02    5,586502552e-01    2,587974966e-01    0,000000000e+00    0,000000000e+00    0,000000000e+00    0,000000000e+00
      702000000   -3,281390667e-02   -6,062174216e-02    6,047797203e-01   -8,062097430e-02    0,000000000e+00    0,000000000e+00    0,000000000e+00    0,000000000e+00
      716000000   -3,764623776e-02   -5,531775206e-02    4,595722258e-01   -3,888280988e-01    0,000000000e+00    0,000000000e+00    0,000000000e+00    0,000000000e+00
      730000000   -3,125598282e-02   -6,475587934e-02    1,735039353e-01   -5,661993027e-01    0,000000000e+00    0,000000000e+00    0,000000000e+00    0,000000000e+00
      744000000   -4,033186287e-02   -8,783856034e-02   -1,527209729e-01   -5,640588403e-01    0,000000000e+00    0,000000000e+00    0,000000000e+00    0,000000000e+00
      758000000   -7,270985842e-02   -1,049034446e-01   -4,274451733e-01   -3,948686421e-01    0,000000000e+00    0,000000000e+00    0,000000000e+00    0,000000000e+00
      772000000   -1,146882102e-01   -9,443894774e-02   -5,743091702e-01   -1,060229763e-01    0,000000000e+00    0,000000000e+00    0,000000000e+00    0,000000000e+00
      786000000   -1,390974671e-01   -5,539717525e-02   -5,445390344e-01    2,209264189e-01    0,000000000e+00    0,000000000e+00    0,000000000e+00    0,000000000e+00
      800000000   -1,322182268e-01   -1,485117711e-02   -3,428670466e-01    4,803066850e-01    0,000000000e+00    0,000000000e+00    0,000000000e+00    0,000000000e+00
      814000000   -1,087545753e-01    8,519152179e-03   -3,340756148e-02    5,848323107e-01    0,000000000e+00    0,000000000e+00    0,000000000e+00    0,000000000e+00
      828000000   -8,499401063e-02    1,367312670e-02    2,780489326e-01    5,150034428e-01    0,000000000e+00    0,000000000e+00    0,000000000e+00    0,000000000e+00
      842000000   -7,092367858e-02    1,524198893e-02    5,027127862e-01    2,890758216e-01    0,000000000e+00    0,000000000e+00    0,000000000e+00    0,000000000e+00
      856000000   -5,206090212e-02    1,939527132e-02    5,704321861e-01   -1,815110072e-02    0,000000000e+00    0,000000000e+00    0,000000000e+00    0,000000000e+00
      870000000   -2,299899608e-02    1,397073548e-02    4,631286561e-01   -3,061340749e-01    0,000000000e+00    0,000000000e+00    0,000000000e+00    0,000000000e+00
      884000000    5,718728993e-03   -1,431095507e-02    2,300867438e-01   -4,880428612e-01    0,000000000e+00    0,000000000e+00    0,000000000e+00    0,000000000e+00
      898000000    1,206769329e-02   -6,319757551e-02   -5,108477920e-02   -5,256375670e-01    0,000000000e+00    0,000000000e+00    0,000000000e+00    0,000000000e+00
      912000000   -2,356892452e-02   -1,086377203e-01   -3,630008698e-01   -3,941072822e-01    0,000000000e+00    0,000000000e+00    0,000000000e+00    0,000000000e+00
      926000000   -7,668336481e-02   -1,238066256e-01   -5,327070355e-01   -1,575283408e-01    0,000000000e+00    0,000000000e+00    0,000000000e+00    0,000000000e+00
      940000000   -1,225325987e-01   -9,996560961e-02   -5,512900352e-01    1,564392745e-01    0,000000000e+00    0,000000000e+00    0,000000000e+00    0,000000000e+00
      954000000   -1,405005604e-01   -6,358852983e-02   -3,898747861e-01    4,464609921e-01    0,000000000e+00    0,000000000e+00    0,000000000e+00    0,000000000e+00
      968000000   -1,303989589e-01   -2,862358466e-02   -9,307738394e-02    6,009547710e-01    0,000000000e+00    0,000000000e+00    0,000000000e+00    0,000000000e+00
      982000000   -1,120384708e-01   -1,672345772e-02    2,442181557e-01    5,703274608e-01    0,000000000e+00    0,000000000e+00    0,000000000e+00    0,000000000e+00
      996000000   -1,036883295e-01   -1,400283724e-02    5,131911635e-01    3,649416864e-01    0,000000000e+00    0,000000000e+00    0,000000000e+00    0,000000000e+00
     1010000000   -1,033136770e-01   -1,068028994e-02    6,295751929e-01    5,179837346e-02    0,000000000e+00    0,000000000e+00    0,000000000e+00    0,000000000e+00
     1024000000   -9,133069217e-02   -2,964298707e-03    5,612856150e-01   -2,711347044e-01    0,000000000e+00    0,000000000e+00    0,000000000e+00    0,000000000e+00
     1038000000   -7,786233723e-02   -2,267043339e-03    3,372706175e-01   -5,008315444e-01    0,000000000e+00    0,000000000e+00    0,000000000e+00    0,000000000e+00
     1052000000   -6,345899403e-02   -1,782615297e-02    3,370163962e-02   -5,840610862e-01    0,000000000e+00    0,000000000e+00    0,000000000e+00    0,000000000e+00
     1066000000   -7,257996500e-02   -2,813488059e-02   -2,616300881e-01   -5,005668402e-01    0,000000000e+00    0,000000000e+00    0,000000000e+00    0,000000000e+00
     1080000000   -7,980857044e-02   -2,900581621e-02   -4,801660478e-01   -2,703699172e-01    0,000000000e+00    0,000000000e+00    0,000000000e+00    0,000000000e+00
     1094000000   -8,222168684e-02   -1,445169374e-02   -5,326170921e-01    4,125485942e-02    0,000000000e+00    0,000000000e+00    0,000000000e+00    0,000000000e+00
     1108000000   -5,595885217e-02   -1,356193982e-02   -3,981936872e-01    3,244600892e-01    0,000000000e+00    0,000000000e+00    0,000000000e+00    0,000000000e+00
     1122000000   -2,753972262e-02   -3,427779302e-02   -1,365422457e-01    4,839080274e-01    0,000000000e+00    0,000000000e+00    0,000000000e+00    0,000000000e+00
     1136000000   -3,143185377e-02   -8,781544119e-02    1,624425501e-01    4,771621525e-01    0,000000000e+00    0,000000000e+00    0,000000000e+00    0,000000000e+00
     1150000000   -6,455013156e-02   -1,361020207e-01    4,197072685e-01    3,094705641e-01    0,000000000e+00    0,000000000e+00    0,000000000e+00    0,000000000e+00
     1164000000   -1,408777237e-01   -1,527580619e-01    5,658228397e-01    2,793899179e-02    0,000000000e+00    0,000000000e+00    0,000000000e+00    0,000000000e+00
     1178000000   -2,120559961e-01   -1,156716272e-01    5,325485468e-01   -3,173277378e-01    0,000000000e+00    0,000000000e+00    0,000000000e+00    0,000000000e+00
     1192000000   -2,439425886e-01   -4,372741655e-02    2,958556414e-01   -5,978940129e-01    0,000000000e+00    0,000000000e+00    0,000000000e+00    0,000000000e+00
     1206000000   -2,358983159e-01    3,080191836e-02   -6,598947942e-02   -7,018744349e-01    0,000000000e+00    0,000000000e+00    0,000000000e+00    0,000000000e+00
     1220000000   -1,879177094e-01    8,726630360e-02   -4,196006656e-01   -5,781482458e-01    0,000000000e+00    0,000000000e+00    0,000000000e+00    0,000000000e+00
     1234000000   -1,316610873e-01    1,061287001e-01   -6,486878395e-01   -2,868524492e-01    0,000000000e+00    0,000000000e+00    0,000000000e+00    0,000000000e+00
     1248000000   -7,006134838e-02    9,616290033e-02   -6,794254184e-01    6,205293536e-02    0,000000000e+00    0,000000000e+00    0,000000000e+00    0,000000000e+00
     1262000000   -1,597457752e-02    6,350795925e-02   -5,194864273e-01    3,714085221e-01    0,000000000e+00    0,000000000e+00    0,000000000e+00    0,000000000e+00
     1276000000    2,122156508e-02   -2,449284540e-03   -2,450500131e-01    5,456449389e-01    0,000000000e+00    0,000000000e+00    0,000000000e+00    0,000000000e+00
     1290000000    2,154349536e-02   -8,607754856e-02    7,545530051e-02    5,787762403e-01    0,000000000e+00    0,000000000e+00    0,000000000e+00    0,000000000e+00
     1304000000   -2,928912081e-02   -1,746200770e-01    3,736573756e-01    4,633575678e-01    0,000000000e+00    0,000000000e+00    0,000000000e+00    0,000000000e+00
     1318000000   -1,307606846e-01   -2,125670761e-01    5,848688483e-01    2,198269218e-01    0,000000000e+00    0,000000000e+00    0,000000000e+00    0,000000000e+00
     1332000000   -2,525036335e-01   -1,888174415e-01    6,513724327e-01   -1,271239221e-01    0,000000000e+00    0,000000000e+00    0,000000000e+00    0,000000000e+00
     1346000000   -3,323325217e-01   -9,020451456e-02    4,976037741e-01   -4,569145739e-01    0,000000000e+00    0,000000000e+00    0,000000000e+00    0,000000000e+00
     1360000000   -3,316753805e-01    2,746488899e-02    1,961651742e-01   -6,457944512e-01    0,000000000e+00    0,000000000e+00    0,000000000e+00    0,000000000e+00
     1374000000   -2,821578085e-01    1,075313538e-01   -1,623075604e-01   -6,027913094e-01    0,000000000e+00    0,000000000e+00    0,000000000e+00    0,000000000e+00
     1388000000   -2,114059627e-01    1,369933039e-01   -4,008848667e-01   -3,734254241e-01    0,000000000e+00    0,000000000e+00    0,000000000e+00    0,000000000e+00
     1402000000   -1,522832960e-01    1,412170976e-01   -4,856973290e-01   -5,730002373e-02    0,000000000e+00    0,000000000e+00    0,000000000e+00    0,000000000e+00
     1416000000   -1,025407240e-01    1,174079850e-01   -3,794113398e-01    2,439800054e-01    0,000000000e+00    0,000000000e+00    0,000000000e+00    0,000000000e+00
     1430000000   -5,777497590e-02    7,087185234e-02   -1,598762572e-01    4,628389776e-01    0,000000000e+00    0,000000000e+00    0,000000000e+00    0,000000000e+00
     1444000000   -4,149547964e-02    7,718330715e-03    1,582262367e-01    5,368430018e-01    0,000000000e+00    0,000000000e+00    0,000000000e+00    0,000000000e+00
     1458000000   -6,247980520e-02   -7,113125920e-02    4,886425734e-01    4,662732780e-01    0,000000000e+00    0,000000000e+00    0,000000000e+00    0,000000000e+00
     1472000000   -1,365223229e-01   -1,216199175e-01    7,612936497e-01    2,553977966e-01    0,000000000e+00    0,000000000e+00    0,000000000e+00    0,000000000e+00
     1486000000   -2,322245091e-01   -1,169199497e-01    8,839114308e-01   -9,068809450e-02    0,000000000e+00    0,000000000e+00    0,000000000e+00    0,000000000e+00
     1500000000   -2,895376980e-01   -4,445993528e-02    8,031038642e-01   -4,514583349e-01    0,000000000e+00    0,000000000e+00    0,000000000e+00    0,000000000e+00
