! NanoVNA-App
! Date: 2025-09-25 15:07:35
! Start: 100MHz Stop: 1,5GHz Points: 101
! S-Parameter data: F S11 S21 S12 S22
# Hz S RI R 50
!     Frequency           S11_Real           S11_Imag           S21_Real           S21_Imag           S12_Real           S12_Imag           S22_Real           S22_Imag
      100000000    3,114922717e-02    2,865391783e-02    4,348981380e-01   -6,686004400e-01    0,000000000e+00    0,000000000e+00    0,000000000e+00    0,000000000e+00
      114000000    5,756551400e-02    5,499694496e-03    7,702726405e-03   -7,910088301e-01    0,000000000e+00    0,000000000e+00    0,000000000e+00    0,000000000e+00
      128000000    6,724049151e-02   -3,779670224e-02   -4,102906585e-01   -6,712523699e-01    0,000000000e+00    0,000000000e+00    0,000000000e+00    0,000000000e+00
      142000000    4,474984109e-02   -8,422132581e-02   -7,027661204e-01   -3,532821536e-01    0,000000000e+00    0,000000000e+00    0,000000000e+00    0,000000000e+00
      156000000   -5,272005219e-03   -1,068593115e-01   -7,874485850e-01    7,353318483e-02    0,000000000e+00    0,000000000e+00    0,000000000e+00    0,000000000e+00
      170000000   -5,761063099e-02   -9,060872346e-02   -6,275073886e-01    4,871337712e-01    0,000000000e+00    0,000000000e+00    0,000000000e+00    0,000000000e+00
      184000000   -8,369016647e-02   -4,950055853e-02   -2,647782564e-01    7,510828972e-01    0,000000000e+00    0,000000000e+00    0,000000000e+00    0,000000000e+00
      198000000   -7,962070405e-02   -1,047638897e-02    1,831429005e-01    7,728714347e-01    0,000000000e+00    0,000000000e+00    0,000000000e+00    0,000000000e+00
      212000000   -6,229382381e-02    1,315025985e-02    5,692909360e-01    5,491198301e-01    0,000000000e+00    0,000000000e+00    0,000000000e+00    0,000000000e+00
      226000000   -4,322983697e-02    2,770114690e-02    7,709128857e-01    1,544662416e-01    0,000000000e+00    0,000000000e+00    0,000000000e+00    0,000000000e+00
      240000000   -1,822536066e-02    3,849077597e-02    7,270407677e-01   -2,818708718e-01    0,000000000e+00    0,000000000e+00    0,000000000e+00    0,000000000e+00
      254000000    1,717525162e-02    3,516735509e-02    4,579534531e-01   -6,201742887e-01    0,000000000e+00    0,000000000e+00    0,000000000e+00    0,000000000e+00
      268000000    4,877550900e-02    5,590664688e-03    5,855158716e-02   -7,604721189e-01    0,000000000e+00    0,000000000e+00    0,000000000e+00    0,000000000e+00
      282000000    5,350362137e-02   -4,183315486e-02   -3,492065072e-01   -6,717052460e-01    0,000000000e+00    0,000000000e+00    0,000000000e+00    0,000000000e+00
      296000000    2,406483516e-02   -7,947004586e-02   -6,520830989e-01   -3,854176402e-01    0,000000000e+00    0,000000000e+00    0,000000000e+00    0,000000000e+00
      310000000   -1,780298352e-02   -8,323778212e-02   -7,619620562e-01    2,014817856e-02    0,000000000e+00    0,000000000e+00    0,000000000e+00    0,000000000e+00
      324000000   -4,161948711e-02   -5,905007944e-02   -6,328402162e-01    4,313679934e-01    0,000000000e+00    0,000000000e+00    0,000000000e+00    0,000000000e+00
      338000000   -3,422474489e-02   -3,689929843e-02   -2,968124747e-01    7,009937763e-01    0,000000000e+00    0,000000000e+00    0,000000000e+00    0,000000000e+00
      352000000   -1,742644422e-02   -4,080878943e-02    1,260342151e-01    7,427247763e-01    0,000000000e+00    0,000000000e+00    0,000000000e+00    0,000000000e+00
      366000000   -1,914262399e-02   -6,202157587e-02    4,975937009e-01    5,546486974e-01    0,000000000e+00    0,000000000e+00    0,000000000e+00    0,000000000e+00
      380000000   -4,448864236e-02   -7,257548720e-02    7,134005427e-01    1,998546720e-01    0,000000000e+00    0,000000000e+00    0,000000000e+00    0,000000000e+00
      394000000   -7,097057998e-02   -5,786925182e-02    7,043423653e-01   -2,164962292e-01    0,000000000e+00    0,000000000e+00    0,000000000e+00    0,000000000e+00
      408000000   -7,678876817e-02   -3,046872653e-02    4,719945788e-01   -5,599704981e-01    0,000000000e+00    0,000000000e+00    0,000000000e+00    0,000000000e+00
      422000000   -6,542416662e-02   -1,125230454e-02    9,373244643e-02   -7,189109921e-01    0,000000000e+00    0,000000000e+00    0,000000000e+00    0,000000000e+00
      436000000   -5,290032923e-02   -4,702836741e-03   -3,018756807e-01   -6,469204426e-01    0,000000000e+00    0,000000000e+00    0,000000000e+00    0,000000000e+00
      450000000   -4,474702850e-02    1,638793154e-03   -5,939318538e-01   -3,781504631e-01    0,000000000e+00    0,000000000e+00    0,000000000e+00    0,000000000e+00
      464000000   -2,949064411e-02    1,158754993e-02   -6,910724640e-01   -1,062499796e-04    0,000000000e+00    0,000000000e+00    0,000000000e+00    0,000000000e+00
      478000000   -1,250977861e-03    1,133062504e-02   -5,735883713e-01    3,632029593e-01    0,000000000e+00    0,000000000e+00    0,000000000e+00    0,000000000e+00
      492000000    2,817003615e-02   -1,211968623e-02   -2,886487842e-01    6,019012928e-01    0,000000000e+00    0,000000000e+00    0,000000000e+00    0,000000000e+00
      506000000    3,666333854e-02   -5,570039898e-02    6,970643252e-02    6,587057710e-01    0,000000000e+00    0,000000000e+00    0,000000000e+00    0,000000000e+00
      520000000    1,294000167e-02   -9,926580638e-02    4,081285000e-01    5,270403028e-01    0,000000000e+00    0,000000000e+00    0,000000000e+00    0,000000000e+00
      534000000   -3,388884291e-02   -1,162750125e-01    6,243441105e-01    2,355201393e-01    0,000000000e+00    0,000000000e+00    0,000000000e+00    0,000000000e+00
      548000000   -7,693786174e-02   -9,926000237e-02    6,584174037e-01   -1,334002614e-01    0,000000000e+00    0,000000000e+00    0,000000000e+00    0,000000000e+00
      562000000   -9,337384254e-02   -6,609769166e-02    4,812836647e-01   -4,665780663e-01    0,000000000e+00    0,000000000e+00    0,000000000e+00    0,000000000e+00
      576000000   -8,627784997e-02   -4,468132183e-02    1,501588374e-01   -6,472567320e-01    0,000000000e+00    0,000000000e+00    0,000000000e+00    0,000000000e+00
      590000000   -8,084087819e-02   -4,168932885e-02   -2,213722318e-01   -6,284475923e-01    0,000000000e+00    0,000000000e+00    0,000000000e+00    0,000000000e+00
      604000000   -8,886449039e-02   -3,696659952e-02   -5,197435021e-01   -4,052568376e-01    0,000000000e+00    0,000000000e+00    0,000000000e+00    0,000000000e+00
      618000000   -9,681355953e-02   -1,458660141e-02   -6,533344984e-01   -5,865052342e-02    0,000000000e+00    0,000000000e+00    0,000000000e+00    0,000000000e+00
      632000000   -8,067417145e-02    1,521674730e-02   -5,754805207e-01    3,029201925e-01    0,000000000e+00    0,000000000e+00    0,000000000e+00    0,000000000e+00
      646000000   -4,254686087e-02    2,670595609e-02   -3,182621002e-01    5,564121604e-01    0,000000000e+00    0,000000000e+00    0,000000000e+00    0,000000000e+00
      660000000   -7,916455157e-03    5,665191449e-03    2,161351219e-02    6,284849644e-01    0,000000000e+00    0,000000000e+00    0,000000000e+00    0,000000000e+00
      674000000    1,063032076e-03   -2,952927351e-02    3,420044780e-01    5,190488696e-01    0,000000000e+00    0,000000000e+00    0,000000000e+00    0,000000000e+00
      688000000   -1,503998134e-02   -5,595196038e-02    5,588236451e-01    2,585293949e-01    0,000000000e+00    0,000000000e+00    0,000000000e+00    0,000000000e+00
      702000000   -3,268221766e-02   -5,970366672e-02    6,080768704e-01   -8,116111159e-02    0,000000000e+00    0,000000000e+00    0,000000000e+00    0,000000000e+00
      716000000   -3,776471689e-02   -5,590564758e-02    4,593514502e-01   -3,898176551e-01    0,000000000e+00    0,000000000e+00    0,000000000e+00    0,000000000e+00
      730000000   -3,186906502e-02   -6,447392702e-02    1,748012304e-01   -5,659903884e-01    0,000000000e+00    0,000000000e+00    0,000000000e+00    0,000000000e+00
      744000000   -3,984643891e-02   -8,873584867e-02   -1,538197249e-01   -5,636180043e-01    0,000000000e+00    0,000000000e+00    0,000000000e+00    0,000000000e+00
      758000000   -7,295859605e-02   -1,052856669e-01   -4,274450243e-01   -3,949687183e-01    0,000000000e+00    0,000000000e+00    0,000000000e+00    0,000000000e+00
      772000000   -1,141106635e-01   -9,330814332e-02   -5,747113824e-01   -1,062792465e-01    0,000000000e+00    0,000000000e+00    0,000000000e+00    0,000000000e+00
      786000000   -1,380745769e-01   -5,605619401e-02   -5,453293324e-01    2,211147398e-01    0,000000000e+00    0,000000000e+00    0,000000000e+00    0,000000000e+00
      800000000   -1,330553591e-01   -1,486356091e-02   -3,411151767e-01    4,796834290e-01    0,000000000e+00    0,000000000e+00    0,000000000e+00    0,000000000e+00
      814000000   -1,082153246e-01    7,871235721e-03   -3,386193514e-02    5,859203935e-01    0,000000000e+00    0,000000000e+00    0,000000000e+00    0,000000000e+00
      828000000   -8,495522290e-02    1,309066545e-02    2,785066664e-01    5,146738291e-01    0,000000000e+00    0,000000000e+00    0,000000000e+00    0,000000000e+00
      842000000   -7,104622573e-02    1,455004513e-02    5,022970438e-01    2,894710600e-01    0,000000000e+00    0,000000000e+00    0,000000000e+00    0,000000000e+00
      856000000   -5,279449001e-02    1,861747913e-02    5,706452131e-01   -1,776082069e-02    0,000000000e+00    0,000000000e+00    0,000000000e+00    0,000000000e+00
      870000000   -2,314432338e-02    1,471284684e-02    4,638859928e-01   -3,059977889e-01    0,000000000e+00    0,000000000e+00    0,000000000e+00    0,000000000e+00
      884000000    5,554879550e-03   -1,476390567e-02    2,298561037e-01   -4,877430499e-01    0,000000000e+00    0,000000000e+00    0,000000000e+00    0,000000000e+00
      898000000    1,198568102e-02   -6,396821141e-02   -5,169472843e-02   -5,264310241e-01    0,000000000e+00    0,000000000e+00    0,000000000e+00    0,000000000e+00
      912000000   -2,329287492e-02   -1,079140604e-01   -3,532866538e-01   -3,965034187e-01    0,000000000e+00    0,000000000e+00    0,000000000e+00    0,000000000e+00
      926000000   -7,479824871e-02   -1,257134527e-01   -5,301370025e-01   -1,603152603e-01    0,000000000e+00    0,000000000e+00    0,000000000e+00    0,000000000e+00
      940000000   -1,209352389e-01   -1,029640734e-01   -5,517151952e-01    1,547185481e-01    0,000000000e+00    0,000000000e+00    0,000000000e+00    0,000000000e+00
      954000000   -1,438396275e-01   -6,185006350e-02   -3,931122422e-01    4,454905391e-01    0,000000000e+00    0,000000000e+00    0,000000000e+00    0,000000000e+00
      968000000   -1,297411621e-01   -2,638047002e-02   -9,255133569e-02    6,028829813e-01    0,000000000e+00    0,000000000e+00    0,000000000e+00    0,000000000e+00
      982000000   -1,153825819e-01   -1,394920330e-02    2,436544448e-01    5,712816119e-01    0,000000000e+00    0,000000000e+00    0,000000000e+00    0,000000000e+00
      996000000   -1,060600057e-01   -1,656213962e-02    5,130620003e-01    3,676755428e-01    0,000000000e+00    0,000000000e+00    0,000000000e+00    0,000000000e+00
     1010000000   -1,011454761e-01   -9,718668647e-03    6,285186410e-01    5,387897789e-02    0,000000000e+00    0,000000000e+00    0,000000000e+00    0,000000000e+00
     1024000000   -9,414434433e-02   -3,112731501e-04    5,577979684e-01   -2,715202868e-01    0,000000000e+00    0,000000000e+00    0,000000000e+00    0,000000000e+00
     1038000000   -7,374097407e-02    8,870367310e-04    3,394073546e-01   -5,036091805e-01    0,000000000e+00    0,000000000e+00    0,000000000e+00    0,000000000e+00
     1052000000   -6,623695791e-02   -1,752602495e-02    3,266843408e-02   -5,851934552e-01    0,000000000e+00    0,000000000e+00    0,000000000e+00    0,000000000e+00
     1066000000   -6,743274629e-02   -3,030955605e-02   -2,713786960e-01   -5,035822988e-01    0,000000000e+00    0,000000000e+00    0,000000000e+00    0,000000000e+00
     1080000000   -7,791829854e-02   -3,023590893e-02   -4,812449515e-01   -2,712737918e-01    0,000000000e+00    0,000000000e+00    0,000000000e+00    0,000000000e+00
     1094000000   -8,180785924e-02   -2,133351564e-02   -5,319718719e-01    4,264358804e-02    0,000000000e+00    0,000000000e+00    0,000000000e+00    0,000000000e+00
     1108000000   -5,647524819e-02   -1,439152658e-02   -3,996365070e-01    3,252316117e-01    0,000000000e+00    0,000000000e+00    0,000000000e+00    0,000000000e+00
     1122000000   -3,390407935e-02   -3,798562661e-02   -1,356156766e-01    4,831370711e-01    0,000000000e+00    0,000000000e+00    0,000000000e+00    0,000000000e+00
     1136000000   -2,826759964e-02   -8,090856671e-02    1,618556976e-01    4,742657542e-01    0,000000000e+00    0,000000000e+00    0,000000000e+00    0,000000000e+00
     1150000000   -6,900285184e-02   -1,330755651e-01    4,205336273e-01    3,108308315e-01    0,000000000e+00    0,000000000e+00    0,000000000e+00    0,000000000e+00
     1164000000   -1,347277611e-01   -1,520770937e-01    5,607227683e-01    2,692880668e-02    0,000000000e+00    0,000000000e+00    0,000000000e+00    0,000000000e+00
     1178000000   -2,112038732e-01   -1,202951521e-01    5,294868946e-01   -3,145872056e-01    0,000000000e+00    0,000000000e+00    0,000000000e+00    0,000000000e+00
     1192000000   -2,523835897e-01   -4,429002106e-02    2,929666936e-01   -5,988427401e-01    0,000000000e+00    0,000000000e+00    0,000000000e+00    0,000000000e+00
     1206000000   -2,285170853e-01    3,533839807e-02   -6,694067270e-02   -6,976865530e-01    0,000000000e+00    0,000000000e+00    0,000000000e+00    0,000000000e+00
     1220000000   -1,865643710e-01    7,978479564e-02   -4,220822453e-01   -5,809991956e-01    0,000000000e+00    0,000000000e+00    0,000000000e+00    0,000000000e+00
     1234000000   -1,228381917e-01    1,039699540e-01   -6,408835649e-01   -2,905608714e-01    0,000000000e+00    0,000000000e+00    0,000000000e+00    0,000000000e+00
     1248000000   -6,515411288e-02    1,013661548e-01   -6,770281196e-01    6,453186274e-02    0,000000000e+00    0,000000000e+00    0,000000000e+00    0,000000000e+00
     1262000000   -1,315078698e-02    5,846373737e-02   -5,201583505e-01    3,720169067e-01    0,000000000e+00    0,000000000e+00    0,000000000e+00    0,000000000e+00
     1276000000    2,150495350e-02   -2,536335262e-03   -2,450672984e-01    5,487964749e-01    0,000000000e+00    0,000000000e+00    0,000000000e+00    0,000000000e+00
     1290000000    1,937448420e-02   -8,993178606e-02    6,725393236e-02    5,771239400e-01    0,000000000e+00    0,000000000e+00    0,000000000e+00    0,000000000e+00
     1304000000   -3,110797890e-02   -1,744915992e-01    3,620534539e-01    4,629755318e-01    0,000000000e+00    0,000000000e+00    0,000000000e+00    0,000000000e+00
     1318000000   -1,377654970e-01   -2,140239924e-01    5,792691708e-01    2,206395715e-01    0,000000000e+00    0,000000000e+00    0,000000000e+00    0,000000000e+00
     1332000000   -2,546377182e-01   -1,920176297e-01    6,511805654e-01   -1,290015578e-01    0,000000000e+00    0,000000000e+00    0,000000000e+00    0,000000000e+00
     1346000000   -3,378895819e-01   -8,542478830e-02    5,019668937e-01   -4,641035497e-01    0,000000000e+00    0,000000000e+00    0,000000000e+00    0,000000000e+00
     1360000000   -3,331516981e-01    2,107829414e-02    1,855561435e-01   -6,525796652e-01    0,000000000e+00    0,000000000e+00    0,000000000e+00    0,000000000e+00
     1374000000   -2,833463550e-01    1,070672274e-01   -1,629049033e-01   -5,986045003e-01    0,000000000e+00    0,000000000e+00    0,000000000e+00    0,000000000e+00
     1388000000   -2,144637108e-01    1,368391663e-01   -4,118759930e-01   -3,758642077e-01    0,000000000e+00    0,000000000e+00    0,000000000e+00    0,000000000e+00
     1402000000   -1,509793699e-01    1,411279440e-01   -4,827201962e-01   -5,955607444e-02    0,000000000e+00    0,000000000e+00    0,000000000e+00    0,000000000e+00
     1416000000   -9,949075431e-02    1,167221367e-01   -3,839037418e-01    2,445297539e-01    0,000000000e+00    0,000000000e+00    0,000000000e+00    0,000000000e+00
     1430000000   -5,108689517e-02    7,248557359e-02   -1,272165924e-01    4,726868868e-01    0,000000000e+00    0,000000000e+00    0,000000000e+00    0,000000000e+00
     1444000000   -3,597141802e-02    5,838702200e-04    1,694574654e-01    5,284733176e-01    0,000000000e+00    0,000000000e+00    0,000000000e+00    0,000000000e+00
     1458000000   -6,505225599e-02   -6,832984835e-02    4,814507961e-01    4,749989808e-01    0,000000000e+00    0,000000000e+00    0,000000000e+00    0,000000000e+00
     1472000000   -1,333183944e-01   -1,151376441e-01    7,549978495e-01    2,630995214e-01    0,000000000e+00    0,000000000e+00    0,000000000e+00    0,000000000e+00
     1486000000   -2,291306108e-01   -1,176961362e-01    8,873144388e-01   -6,878299266e-02    0,000000000e+00    0,000000000e+00    0,000000000e+00    0,000000000e+00
     1500000000   -2,859761417e-01   -4,685435072e-02    8,188092113e-01   -4,553809464e-01    0,000000000e+00    0,000000000e+00    0,000000000e+00    0,000000000e+00
