! NanoVNA-App
! Date: 2025-09-25 15:07:11
! Start: 100MHz Stop: 1,5GHz Points: 101
! S-Parameter data: F S11 S21 S12 S22
# Hz S RI R 50
!     Frequency           S11_Real           S11_Imag           S21_Real           S21_Imag           S12_Real           S12_Imag           S22_Real           S22_Imag
      100000000    3,115347959e-02    2,865245752e-02    4,348151088e-01   -6,686093211e-01    0,000000000e+00    0,000000000e+00    0,000000000e+00    0,000000000e+00
      114000000    5,759908631e-02    5,520054605e-03    7,821981795e-03   -7,908959389e-01    0,000000000e+00    0,000000000e+00    0,000000000e+00    0,000000000e+00
      128000000    6,722886115e-02   -3,781826422e-02   -4,103791416e-01   -6,711312532e-01    0,000000000e+00    0,000000000e+00    0,000000000e+00    0,000000000e+00
      142000000    4,471085593e-02   -8,422875404e-02   -7,030286193e-01   -3,531967700e-01    0,000000000e+00    0,000000000e+00    0,000000000e+00    0,000000000e+00
      156000000   -5,534103606e-03   -1,069560349e-01   -7,873480916e-01    7,411719114e-02    0,000000000e+00    0,000000000e+00    0,000000000e+00    0,000000000e+00
      170000000   -5,763251707e-02   -9,059102088e-02   -6,276994944e-01    4,871920347e-01    0,000000000e+00    0,000000000e+00    0,000000000e+00    0,000000000e+00
      184000000   -8,369594067e-02   -4,950831458e-02   -2,650600970e-01    7,510685921e-01    0,000000000e+00    0,000000000e+00    0,000000000e+00    0,000000000e+00
      198000000   -7,965547591e-02   -1,044327766e-02    1,834454834e-01    7,732570767e-01    0,000000000e+00    0,000000000e+00    0,000000000e+00    0,000000000e+00
      212000000   -6,230160967e-02    1,318306942e-02    5,692451596e-01    5,491359830e-01    0,000000000e+00    0,000000000e+00    0,000000000e+00    0,000000000e+00
      226000000   -4,332195967e-02    2,769306861e-02    7,706879377e-01    1,544917673e-01    0,000000000e+00    0,000000000e+00    0,000000000e+00    0,000000000e+00
      240000000   -1,823167689e-02    3,849579766e-02    7,268557549e-01   -2,819047272e-01    0,000000000e+00    0,000000000e+00    0,000000000e+00    0,000000000e+00
      254000000    1,718682796e-02    3,519998863e-02    4,580189288e-01   -6,206221581e-01    0,000000000e+00    0,000000000e+00    0,000000000e+00    0,000000000e+00
      268000000    4,876036569e-02    5,606596824e-03    5,877098814e-02   -7,606486082e-01    0,000000000e+00    0,000000000e+00    0,000000000e+00    0,000000000e+00
      282000000    5,341007933e-02   -4,177046195e-02   -3,492376208e-01   -6,717515588e-01    0,000000000e+00    0,000000000e+00    0,000000000e+00    0,000000000e+00
      296000000    2,396209911e-02   -7,949396223e-02   -6,521032453e-01   -3,852087557e-01    0,000000000e+00    0,000000000e+00    0,000000000e+00    0,000000000e+00
      310000000   -1,766100712e-02   -8,301874995e-02   -7,622259855e-01    2,057770081e-02    0,000000000e+00    0,000000000e+00    0,000000000e+00    0,000000000e+00
      324000000   -4,148916528e-02   -5,912648141e-02   -6,322748661e-01    4,303117990e-01    0,000000000e+00    0,000000000e+00    0,000000000e+00    0,000000000e+00
      338000000   -3,426482901e-02   -3,700687736e-02   -2,946222126e-01    7,006662488e-01    0,000000000e+00    0,000000000e+00    0,000000000e+00    0,000000000e+00
      352000000   -1,731208712e-02   -4,086911678e-02    1,253167689e-01    7,419553399e-01    0,000000000e+00    0,000000000e+00    0,000000000e+00    0,000000000e+00
      366000000   -1,928061806e-02   -6,175002828e-02    4,973456860e-01    5,542664528e-01    0,000000000e+00    0,000000000e+00    0,000000000e+00    0,000000000e+00
      380000000   -4,443614557e-02   -7,246367633e-02    7,130788565e-01    1,998864412e-01    0,000000000e+00    0,000000000e+00    0,000000000e+00    0,000000000e+00
      394000000   -7,096517831e-02   -5,771316960e-02    7,051491141e-01   -2,157437950e-01    0,000000000e+00    0,000000000e+00    0,000000000e+00    0,000000000e+00
      408000000   -7,693648338e-02   -3,051006235e-02    4,708067775e-01   -5,592660308e-01    0,000000000e+00    0,000000000e+00    0,000000000e+00    0,000000000e+00
      422000000   -6,537954509e-02   -1,125379745e-02    9,379907697e-02   -7,183522582e-01    0,000000000e+00    0,000000000e+00    0,000000000e+00    0,000000000e+00
      436000000   -5,286663398e-02   -4,576409236e-03   -3,019167781e-01   -6,469939351e-01    0,000000000e+00    0,000000000e+00    0,000000000e+00    0,000000000e+00
      450000000   -4,454359040e-02    1,773027470e-03   -5,923984647e-01   -3,783622384e-01    0,000000000e+00    0,000000000e+00    0,000000000e+00    0,000000000e+00
      464000000   -2,961578406e-02    1,121647563e-02   -6,917844415e-01   -3,335419169e-04    0,000000000e+00    0,000000000e+00    0,000000000e+00    0,000000000e+00
      478000000   -1,068516984e-03    1,103225816e-02   -5,732740760e-01    3,632844388e-01    0,000000000e+00    0,000000000e+00    0,000000000e+00    0,000000000e+00
      492000000    2,794311196e-02   -1,272803638e-02   -2,885224223e-01    6,023302674e-01    0,000000000e+00    0,000000000e+00    0,000000000e+00    0,000000000e+00
      506000000    3,666590527e-02   -5,603586882e-02    6,945909560e-02    6,587050557e-01    0,000000000e+00    0,000000000e+00    0,000000000e+00    0,000000000e+00
      520000000    1,334699895e-02   -9,778932482e-02    4,012500346e-01    5,279771686e-01    0,000000000e+00    0,000000000e+00    0,000000000e+00    0,000000000e+00
      534000000   -3,421381861e-02   -1,163583174e-01    6,242141724e-01    2,359614074e-01    0,000000000e+00    0,000000000e+00    0,000000000e+00    0,000000000e+00
      548000000   -7,744280994e-02   -9,901098907e-02    6,580660343e-01   -1,330767721e-01    0,000000000e+00    0,000000000e+00    0,000000000e+00    0,000000000e+00
      562000000   -9,301797301e-02   -6,618915498e-02    4,821071625e-01   -4,666682780e-01    0,000000000e+00    0,000000000e+00    0,000000000e+00    0,000000000e+00
      576000000   -8,642414957e-02   -4,454518482e-02    1,506882310e-01   -6,487243772e-01    0,000000000e+00    0,000000000e+00    0,000000000e+00    0,000000000e+00
      590000000   -8,059379458e-02   -4,172121733e-02   -2,189641148e-01   -6,263722777e-01    0,000000000e+00    0,000000000e+00    0,000000000e+00    0,000000000e+00
      604000000   -8,910575509e-02   -3,719053417e-02   -5,200254917e-01   -4,061307311e-01    0,000000000e+00    0,000000000e+00    0,000000000e+00    0,000000000e+00
      618000000   -9,622689337e-02   -1,467531733e-02   -6,531310678e-01   -5,826493725e-02    0,000000000e+00    0,000000000e+00    0,000000000e+00    0,000000000e+00
      632000000   -8,110337704e-02    1,561138313e-02   -5,756947994e-01    3,029918075e-01    0,000000000e+00    0,000000000e+00    0,000000000e+00    0,000000000e+00
      646000000   -4,314570874e-02    2,668747306e-02   -3,194733262e-01    5,557112694e-01    0,000000000e+00    0,000000000e+00    0,000000000e+00    0,000000000e+00
      660000000   -7,415070198e-03    6,307064090e-03    2,170866728e-02    6,293781996e-01    0,000000000e+00    0,000000000e+00    0,000000000e+00    0,000000000e+00
      674000000    1,000688993e-03   -3,069574013e-02    3,422822058e-01    5,191791058e-01    0,000000000e+00    0,000000000e+00    0,000000000e+00    0,000000000e+00
      688000000   -1,509254146e-02   -5,498002470e-02    5,585588217e-01    2,589549124e-01    0,000000000e+00    0,000000000e+00    0,000000000e+00    0,000000000e+00
      702000000   -3,355588764e-02   -5,975599214e-02    6,058373451e-01   -8,303760737e-02    0,000000000e+00    0,000000000e+00    0,000000000e+00    0,000000000e+00
      716000000   -3,781749308e-02   -5,561768636e-02    4,593140781e-01   -3,905614913e-01    0,000000000e+00    0,000000000e+00    0,000000000e+00    0,000000000e+00
      730000000   -3,227421269e-02   -6,569387764e-02    1,746022999e-01   -5,675144196e-01    0,000000000e+00    0,000000000e+00    0,000000000e+00    0,000000000e+00
      744000000   -4,085039347e-02   -8,780770749e-02   -1,521866769e-01   -5,635674596e-01    0,000000000e+00    0,000000000e+00    0,000000000e+00    0,000000000e+00
      758000000   -7,179047912e-02   -1,047327146e-01   -4,278325140e-01   -3,945198655e-01    0,000000000e+00    0,000000000e+00    0,000000000e+00    0,000000000e+00
      772000000   -1,146223024e-01   -9,416185319e-02   -5,746940374e-01   -1,058414504e-01    0,000000000e+00    0,000000000e+00    0,000000000e+00    0,000000000e+00
      786000000   -1,391658932e-01   -5,677327514e-02   -5,447508693e-01    2,207672149e-01    0,000000000e+00    0,000000000e+00    0,000000000e+00    0,000000000e+00
      800000000   -1,322682947e-01   -1,508574933e-02   -3,423071206e-01    4,798640013e-01    0,000000000e+00    0,000000000e+00    0,000000000e+00    0,000000000e+00
      814000000   -1,077451855e-01    8,649454452e-03   -3,365684301e-02    5,860511661e-01    0,000000000e+00    0,000000000e+00    0,000000000e+00    0,000000000e+00
      828000000   -8,518877625e-02    1,294747274e-02    2,791148424e-01    5,133975744e-01    0,000000000e+00    0,000000000e+00    0,000000000e+00    0,000000000e+00
      842000000   -7,036369294e-02    1,422907226e-02    5,018290877e-01    2,894888222e-01    0,000000000e+00    0,000000000e+00    0,000000000e+00    0,000000000e+00
      856000000   -5,279003084e-02    1,911357790e-02    5,707165599e-01   -1,773450151e-02    0,000000000e+00    0,000000000e+00    0,000000000e+00    0,000000000e+00
      870000000   -2,273482084e-02    1,448893547e-02    4,637728333e-01   -3,065321445e-01    0,000000000e+00    0,000000000e+00    0,000000000e+00    0,000000000e+00
      884000000    6,311086472e-03   -1,483587641e-02    2,303935736e-01   -4,882974029e-01    0,000000000e+00    0,000000000e+00    0,000000000e+00    0,000000000e+00
      898000000    1,123763341e-02   -6,378373504e-02   -5,192275718e-02   -5,264449716e-01    0,000000000e+00    0,000000000e+00    0,000000000e+00    0,000000000e+00
      912000000   -2,364932932e-02   -1,076398045e-01   -3,513627648e-01   -4,028055072e-01    0,000000000e+00    0,000000000e+00    0,000000000e+00    0,000000000e+00
      926000000   -7,711647451e-02   -1,246003360e-01   -5,313161612e-01   -1,589888930e-01    0,000000000e+00    0,000000000e+00    0,000000000e+00    0,000000000e+00
      940000000   -1,220561191e-01   -1,043518037e-01   -5,519929528e-01    1,557143331e-01    0,000000000e+00    0,000000000e+00    0,000000000e+00    0,000000000e+00
      954000000   -1,403317004e-01   -6,220280379e-02   -3,920711279e-01    4,452118278e-01    0,000000000e+00    0,000000000e+00    0,000000000e+00    0,000000000e+00
      968000000   -1,346322894e-01   -2,929921821e-02   -9,189235419e-02    6,020826697e-01    0,000000000e+00    0,000000000e+00    0,000000000e+00    0,000000000e+00
      982000000   -1,145616770e-01   -1,301241294e-02    2,473658323e-01    5,722355247e-01    0,000000000e+00    0,000000000e+00    0,000000000e+00    0,000000000e+00
      996000000   -1,045025885e-01   -1,611397974e-02    5,122622252e-01    3,679041266e-01    0,000000000e+00    0,000000000e+00    0,000000000e+00    0,000000000e+00
     1010000000   -1,014659852e-01   -7,083383854e-03    6,282746792e-01    5,320207775e-02    0,000000000e+00    0,000000000e+00    0,000000000e+00    0,000000000e+00
     1024000000   -9,393584728e-02    3,033367684e-03    5,615685582e-01   -2,709773183e-01    0,000000000e+00    0,000000000e+00    0,000000000e+00    0,000000000e+00
     1038000000   -7,382039726e-02   -2,532668645e-03    3,384319544e-01   -5,049779415e-01    0,000000000e+00    0,000000000e+00    0,000000000e+00    0,000000000e+00
     1052000000   -6,721138954e-02   -1,429149602e-02    3,331143782e-02   -5,847991705e-01    0,000000000e+00    0,000000000e+00    0,000000000e+00    0,000000000e+00
     1066000000   -7,372330874e-02   -3,286853060e-02   -2,671737373e-01   -5,022636056e-01    0,000000000e+00    0,000000000e+00    0,000000000e+00    0,000000000e+00
     1080000000   -8,296635002e-02   -2,808438055e-02   -4,824071229e-01   -2,723045945e-01    0,000000000e+00    0,000000000e+00    0,000000000e+00    0,000000000e+00
     1094000000   -7,754781842e-02   -1,667384803e-02   -5,325731635e-01    4,285223410e-02    0,000000000e+00    0,000000000e+00    0,000000000e+00    0,000000000e+00
     1108000000   -6,085044891e-02   -1,538972557e-02   -3,990151584e-01    3,256273866e-01    0,000000000e+00    0,000000000e+00    0,000000000e+00    0,000000000e+00
     1122000000   -2,925043553e-02   -3,718030080e-02   -1,362373978e-01    4,827600718e-01    0,000000000e+00    0,000000000e+00    0,000000000e+00    0,000000000e+00
     1136000000   -3,122336790e-02   -8,500673622e-02    1,625474989e-01    4,741044343e-01    0,000000000e+00    0,000000000e+00    0,000000000e+00    0,000000000e+00
     1150000000   -6,891950220e-02   -1,359155178e-01    4,207245111e-01    3,128322363e-01    0,000000000e+00    0,000000000e+00    0,000000000e+00    0,000000000e+00
     1164000000   -1,391937435e-01   -1,515405625e-01    5,619137883e-01    2,674474567e-02    0,000000000e+00    0,000000000e+00    0,000000000e+00    0,000000000e+00
     1178000000   -2,072229832e-01   -1,148170456e-01    5,315887332e-01   -3,182303011e-01    0,000000000e+00    0,000000000e+00    0,000000000e+00    0,000000000e+00
     1192000000   -2,502454817e-01   -4,141594842e-02    2,960941494e-01   -6,002367735e-01    0,000000000e+00    0,000000000e+00    0,000000000e+00    0,000000000e+00
     1206000000   -2,344403565e-01    3,473462909e-02   -6,829464436e-02   -7,008597255e-01    0,000000000e+00    0,000000000e+00    0,000000000e+00    0,000000000e+00
     1220000000   -1,837083101e-01    8,761512488e-02   -4,190618396e-01   -5,803525448e-01    0,000000000e+00    0,000000000e+00    0,000000000e+00    0,000000000e+00
     1234000000   -1,306082606e-01    1,068747565e-01   -6,427361369e-01   -2,911318541e-01    0,000000000e+00    0,000000000e+00    0,000000000e+00    0,000000000e+00
     1248000000   -7,130041718e-02    9,816417098e-02   -6,772696376e-01    6,609217077e-02    0,000000000e+00    0,000000000e+00    0,000000000e+00    0,000000000e+00
     1262000000   -8,914453909e-03    6,514574587e-02   -5,184059739e-01    3,733361065e-01    0,000000000e+00    0,000000000e+00    0,000000000e+00    0,000000000e+00
     1276000000    1,844282262e-02   -2,726445906e-03   -2,438184023e-01    5,462752581e-01    0,000000000e+00    0,000000000e+00    0,000000000e+00    0,000000000e+00
     1290000000    1,976098120e-02   -8,567095548e-02    6,778350472e-02    5,826250315e-01    0,000000000e+00    0,000000000e+00    0,000000000e+00    0,000000000e+00
     1304000000   -2,984870598e-02   -1,730098724e-01    3,655521870e-01    4,657662511e-01    0,000000000e+00    0,000000000e+00    0,000000000e+00    0,000000000e+00
     1318000000   -1,335013211e-01   -2,117983997e-01    5,892893076e-01    2,230209261e-01    0,000000000e+00    0,000000000e+00    0,000000000e+00    0,000000000e+00
     1332000000   -2,527372241e-01   -1,841441840e-01    6,500248313e-01   -1,236067563e-01    0,000000000e+00    0,000000000e+00    0,000000000e+00    0,000000000e+00
     1346000000   -3,362714946e-01   -9,211564809e-02    5,087107420e-01   -4,643514454e-01    0,000000000e+00    0,000000000e+00    0,000000000e+00    0,000000000e+00
     1360000000   -3,335433602e-01    2,666164748e-02    1,880576909e-01   -6,415755153e-01    0,000000000e+00    0,000000000e+00    0,000000000e+00    0,000000000e+00
     1374000000   -2,867487371e-01    1,063461527e-01   -1,607208699e-01   -5,987845659e-01    0,000000000e+00    0,000000000e+00    0,000000000e+00    0,000000000e+00
     1388000000   -2,144371122e-01    1,378826797e-01   -4,080687761e-01   -3,896489143e-01    0,000000000e+00    0,000000000e+00    0,000000000e+00    0,000000000e+00
     1402000000   -1,536128670e-01    1,390049607e-01   -4,859308004e-01   -5,603430048e-02    0,000000000e+00    0,000000000e+00    0,000000000e+00    0,000000000e+00
     1416000000   -9,558448195e-02    1,208376735e-01   -3,825914264e-01    2,497811615e-01    0,000000000e+00    0,000000000e+00    0,000000000e+00    0,000000000e+00
     1430000000   -5,001716688e-02    7,572799921e-02   -1,495964229e-01    4,624835253e-01    0,000000000e+00    0,000000000e+00    0,000000000e+00    0,000000000e+00
     1444000000   -3,824971616e-02    8,289737627e-03    1,709678471e-01    5,451641083e-01    0,000000000e+00    0,000000000e+00    0,000000000e+00    0,000000000e+00
     1458000000   -6,511037797e-02   -6,997781247e-02    4,873076677e-01    4,719144702e-01    0,000000000e+00    0,000000000e+00    0,000000000e+00    0,000000000e+00
     1472000000   -1,381356269e-01   -1,237777472e-01    7,590023279e-01    2,488523275e-01    0,000000000e+00    0,000000000e+00    0,000000000e+00    0,000000000e+00
     1486000000   -2,307463735e-01   -1,129219607e-01    8,772878051e-01   -7,696410269e-02    0,000000000e+00    0,000000000e+00    0,000000000e+00    0,000000000e+00
     1500000000   -2,844131887e-01   -4,512217268e-02    7,993595600e-01   -4,613020420e-01    0,000000000e+00    0,000000000e+00    0,000000000e+00    0,000000000e+00
