! NanoVNA-App
! Date: 2025-09-25 15:07:13
! Start: 100MHz Stop: 1,5GHz Points: 101
! S-Parameter data: F S11 S21 S12 S22
# Hz S RI R 50
!     Frequency           S11_Real           S11_Imag           S21_Real           S21_Imag           S12_Real           S12_Imag           S22_Real           S22_Imag
      100000000    3,115587682e-02    2,865724638e-02    4,348437786e-01   -6,686137915e-01    0,000000000e+00    0,000000000e+00    0,000000000e+00    0,000000000e+00
      114000000    5,760921538e-02    5,491917022e-03    7,725902833e-03   -7,911424637e-01    0,000000000e+00    0,000000000e+00    0,000000000e+00    0,000000000e+00
      128000000    6,728661060e-02   -3,783279657e-02   -4,104003906e-01   -6,713410020e-01    0,000000000e+00    0,000000000e+00    0,000000000e+00    0,000000000e+00
      142000000    4,474394023e-02   -8,419948071e-02   -7,028473020e-01   -3,532383144e-01    0,000000000e+00    0,000000000e+00    0,000000000e+00    0,000000000e+00
      156000000   -5,655616522e-03   -1,062965468e-01   -7,866373062e-01    7,276809216e-02    0,000000000e+00    0,000000000e+00    0,000000000e+00    0,000000000e+00
      170000000   -5,760945007e-02   -9,066828340e-02   -6,276809573e-01    4,870117903e-01    0,000000000e+00    0,000000000e+00    0,000000000e+00    0,000000000e+00
      184000000   -8,366151154e-02   -4,946116358e-02   -2,648489177e-01    7,509537935e-01    0,000000000e+00    0,000000000e+00    0,000000000e+00    0,000000000e+00
      198000000   -7,962438464e-02   -1,047886349e-02    1,833057404e-01    7,734153867e-01    0,000000000e+00    0,000000000e+00    0,000000000e+00    0,000000000e+00
      212000000   -6,225891411e-02    1,314102951e-02    5,689983368e-01    5,488694310e-01    0,000000000e+00    0,000000000e+00    0,000000000e+00    0,000000000e+00
      226000000   -4,321588576e-02    2,768769674e-02    7,706294656e-01    1,545637250e-01    0,000000000e+00    0,000000000e+00    0,000000000e+00    0,000000000e+00
      240000000   -1,816624030e-02    3,848233819e-02    7,267394066e-01   -2,819634080e-01    0,000000000e+00    0,000000000e+00    0,000000000e+00    0,000000000e+00
      254000000    1,717913710e-02    3,515886515e-02    4,581345022e-01   -6,200594902e-01    0,000000000e+00    0,000000000e+00    0,000000000e+00    0,000000000e+00
      268000000    4,881897941e-02    5,605973303e-03    5,868888646e-02   -7,603560686e-01    0,000000000e+00    0,000000000e+00    0,000000000e+00    0,000000000e+00
      282000000    5,347811058e-02   -4,176022485e-02   -3,485649824e-01   -6,711698174e-01    0,000000000e+00    0,000000000e+00    0,000000000e+00    0,000000000e+00
      296000000    2,406020090e-02   -7,955151796e-02   -6,519327164e-01   -3,856448829e-01    0,000000000e+00    0,000000000e+00    0,000000000e+00    0,000000000e+00
      310000000   -1,787312888e-02   -8,314500749e-02   -7,620143294e-01    1,960202865e-02    0,000000000e+00    0,000000000e+00    0,000000000e+00    0,000000000e+00
      324000000   -4,160945117e-02   -5,895641446e-02   -6,324360967e-01    4,312021732e-01    0,000000000e+00    0,000000000e+00    0,000000000e+00    0,000000000e+00
      338000000   -3,427309915e-02   -3,677016124e-02   -2,968671918e-01    6,995397806e-01    0,000000000e+00    0,000000000e+00    0,000000000e+00    0,000000000e+00
      352000000   -1,729319431e-02   -4,066781327e-02    1,259068996e-01    7,429413795e-01    0,000000000e+00    0,000000000e+00    0,000000000e+00    0,000000000e+00
      366000000   -1,941623911e-02   -6,191395968e-02    4,969145656e-01    5,556402802e-01    0,000000000e+00    0,000000000e+00    0,000000000e+00    0,000000000e+00
      380000000   -4,456039146e-02   -7,289491594e-02    7,129693031e-01    1,995611936e-01    0,000000000e+00    0,000000000e+00    0,000000000e+00    0,000000000e+00
      394000000   -7,063800097e-02   -5,785589665e-02    7,048241496e-01   -2,164489925e-01    0,000000000e+00    0,000000000e+00    0,000000000e+00    0,000000000e+00
      408000000   -7,695049793e-02   -3,038585372e-02    4,703345895e-01   -5,600162745e-01    0,000000000e+00    0,000000000e+00    0,000000000e+00    0,000000000e+00
      422000000   -6,560114026e-02   -1,111569069e-02    9,291137010e-02   -7,172291875e-01    0,000000000e+00    0,000000000e+00    0,000000000e+00    0,000000000e+00
      436000000   -5,309833586e-02   -4,583606496e-03   -3,021771014e-01   -6,467022300e-01    0,000000000e+00    0,000000000e+00    0,000000000e+00    0,000000000e+00
      450000000   -4,484328628e-02    1,599518117e-03   -5,935231447e-01   -3,779557943e-01    0,000000000e+00    0,000000000e+00    0,000000000e+00    0,000000000e+00
      464000000   -2,924546041e-02    1,149978023e-02   -6,913538575e-01    7,863963401e-05    0,000000000e+00    0,000000000e+00    0,000000000e+00    0,000000000e+00
      478000000   -1,237488701e-03    1,096224319e-02   -5,733683705e-01    3,630002141e-01    0,000000000e+00    0,000000000e+00    0,000000000e+00    0,000000000e+00
      492000000    2,800993063e-02   -1,196663734e-02   -2,894448042e-01    6,022028923e-01    0,000000000e+00    0,000000000e+00    0,000000000e+00    0,000000000e+00
      506000000    3,670790046e-02   -5,582263321e-02    7,002721727e-02    6,574866176e-01    0,000000000e+00    0,000000000e+00    0,000000000e+00    0,000000000e+00
      520000000    1,332865283e-02   -9,843806177e-02    4,028377533e-01    5,284590721e-01    0,000000000e+00    0,000000000e+00    0,000000000e+00    0,000000000e+00
      534000000   -3,393125534e-02   -1,165452525e-01    6,238462925e-01    2,354822755e-01    0,000000000e+00    0,000000000e+00    0,000000000e+00    0,000000000e+00
      548000000   -7,783377171e-02   -9,898112714e-02    6,576521993e-01   -1,333808154e-01    0,000000000e+00    0,000000000e+00    0,000000000e+00    0,000000000e+00
      562000000   -9,323858470e-02   -6,605944782e-02    4,815461934e-01   -4,666750133e-01    0,000000000e+00    0,000000000e+00    0,000000000e+00    0,000000000e+00
      576000000   -8,625657856e-02   -4,467768222e-02    1,489896178e-01   -6,487910151e-01    0,000000000e+00    0,000000000e+00    0,000000000e+00    0,000000000e+00
      590000000   -8,065675199e-02   -4,180452973e-02   -2,191301882e-01   -6,291428208e-01    0,000000000e+00    0,000000000e+00    0,000000000e+00    0,000000000e+00
      604000000   -8,864176273e-02   -3,750794381e-02   -5,191891789e-01   -4,057954550e-01    0,000000000e+00    0,000000000e+00    0,000000000e+00    0,000000000e+00
      618000000   -9,629081190e-02   -1,477486361e-02   -6,533285975e-01   -5,837136135e-02    0,000000000e+00    0,000000000e+00    0,000000000e+00    0,000000000e+00
      632000000   -8,137799799e-02    1,558668260e-02   -5,754323006e-01    3,031030595e-01    0,000000000e+00    0,000000000e+00    0,000000000e+00    0,000000000e+00
      646000000   -4,307918996e-02    2,675483562e-02   -3,185578585e-01    5,554413795e-01    0,000000000e+00    0,000000000e+00    0,000000000e+00    0,000000000e+00
      660000000   -7,317213807e-03    5,758082494e-03    2,166790329e-02    6,306653619e-01    0,000000000e+00    0,000000000e+00    0,000000000e+00    0,000000000e+00
      674000000    5,886340514e-04   -3,047235496e-02    3,422754407e-01    5,189669132e-01    0,000000000e+00    0,000000000e+00    0,000000000e+00    0,000000000e+00
      688000000   -1,445553172e-02   -5,484367535e-02    5,590943694e-01    2,585648298e-01    0,000000000e+00    0,000000000e+00    0,000000000e+00    0,000000000e+00
      702000000   -3,391091526e-02   -6,095479056e-02    6,025103331e-01   -7,784280926e-02    0,000000000e+00    0,000000000e+00    0,000000000e+00    0,000000000e+00
      716000000   -3,647451848e-02   -5,569285527e-02    4,598233402e-01   -3,898861408e-01    0,000000000e+00    0,000000000e+00    0,000000000e+00    0,000000000e+00
      730000000   -3,213021904e-02   -6,584456563e-02    1,733882427e-01   -5,658426285e-01    0,000000000e+00    0,000000000e+00    0,000000000e+00    0,000000000e+00
      744000000   -3,992123157e-02   -8,890945464e-02   -1,529859304e-01   -5,634413362e-01    0,000000000e+00    0,000000000e+00    0,000000000e+00    0,000000000e+00
      758000000   -7,270046324e-02   -1,042930335e-01   -4,270346463e-01   -3,952592015e-01    0,000000000e+00    0,000000000e+00    0,000000000e+00    0,000000000e+00
      772000000   -1,147950292e-01   -9,416528046e-02   -5,742107034e-01   -1,056700200e-01    0,000000000e+00    0,000000000e+00    0,000000000e+00    0,000000000e+00
      786000000   -1,392996162e-01   -5,693314597e-02   -5,449559093e-01    2,208305299e-01    0,000000000e+00    0,000000000e+00    0,000000000e+00    0,000000000e+00
      800000000   -1,324496418e-01   -1,533688139e-02   -3,416902125e-01    4,800502956e-01    0,000000000e+00    0,000000000e+00    0,000000000e+00    0,000000000e+00
      814000000   -1,083023623e-01    9,059060365e-03   -3,379659355e-02    5,851976275e-01    0,000000000e+00    0,000000000e+00    0,000000000e+00    0,000000000e+00
      828000000   -8,484245837e-02    1,333892345e-02    2,781575918e-01    5,142675638e-01    0,000000000e+00    0,000000000e+00    0,000000000e+00    0,000000000e+00
      842000000   -7,007623464e-02    1,460748073e-02    5,026183128e-01    2,894096673e-01    0,000000000e+00    0,000000000e+00    0,000000000e+00    0,000000000e+00
      856000000   -5,232123286e-02    1,868098788e-02    5,703651905e-01   -1,776926965e-02    0,000000000e+00    0,000000000e+00    0,000000000e+00    0,000000000e+00
      870000000   -2,332064509e-02    1,387719344e-02    4,637634158e-01   -3,058839738e-01    0,000000000e+00    0,000000000e+00    0,000000000e+00    0,000000000e+00
      884000000    5,562776700e-03   -1,392623410e-02    2,304066271e-01   -4,886055589e-01    0,000000000e+00    0,000000000e+00    0,000000000e+00    0,000000000e+00
      898000000    1,198886242e-02   -6,344411522e-02   -5,099335313e-02   -5,257458687e-01    0,000000000e+00    0,000000000e+00    0,000000000e+00    0,000000000e+00
      912000000   -2,336524054e-02   -1,084372401e-01   -3,534887731e-01   -3,973502219e-01    0,000000000e+00    0,000000000e+00    0,000000000e+00    0,000000000e+00
      926000000   -7,530286163e-02   -1,254828274e-01   -5,300174952e-01   -1,606948972e-01    0,000000000e+00    0,000000000e+00    0,000000000e+00    0,000000000e+00
      940000000   -1,202849671e-01   -1,014522910e-01   -5,512653589e-01    1,561849415e-01    0,000000000e+00    0,000000000e+00    0,000000000e+00    0,000000000e+00
      954000000   -1,430024505e-01   -6,309726834e-02   -3,917484581e-01    4,450795054e-01    0,000000000e+00    0,000000000e+00    0,000000000e+00    0,000000000e+00
      968000000   -1,322082877e-01   -3,079409711e-02   -9,110616148e-02    6,042859554e-01    0,000000000e+00    0,000000000e+00    0,000000000e+00    0,000000000e+00
      982000000   -1,128206551e-01   -1,669095643e-02    2,466518581e-01    5,714664459e-01    0,000000000e+00    0,000000000e+00    0,000000000e+00    0,000000000e+00
      996000000   -1,057511270e-01   -1,097346749e-02    5,121574402e-01    3,666813076e-01    0,000000000e+00    0,000000000e+00    0,000000000e+00    0,000000000e+00
     1010000000   -1,044055372e-01   -5,605030339e-03    6,280070543e-01    5,249236897e-02    0,000000000e+00    0,000000000e+00    0,000000000e+00    0,000000000e+00
     1024000000   -9,023970366e-02   -1,286656712e-03    5,627149343e-01   -2,706537545e-01    0,000000000e+00    0,000000000e+00    0,000000000e+00    0,000000000e+00
     1038000000   -7,604978979e-02   -4,183272831e-03    3,384056687e-01   -5,046681166e-01    0,000000000e+00    0,000000000e+00    0,000000000e+00    0,000000000e+00
     1052000000   -6,395138800e-02   -1,917362958e-02    3,454001248e-02   -5,845690370e-01    0,000000000e+00    0,000000000e+00    0,000000000e+00    0,000000000e+00
     1066000000   -6,588199735e-02   -3,199900687e-02   -2,642711401e-01   -4,993698299e-01    0,000000000e+00    0,000000000e+00    0,000000000e+00    0,000000000e+00
     1080000000   -7,955963165e-02   -2,791564912e-02   -4,818637371e-01   -2,722291350e-01    0,000000000e+00    0,000000000e+00    0,000000000e+00    0,000000000e+00
     1094000000   -8,144702017e-02   -1,455739792e-02   -5,322237611e-01    4,110289738e-02    0,000000000e+00    0,000000000e+00    0,000000000e+00    0,000000000e+00
     1108000000   -5,579294637e-02   -1,145988237e-02   -4,006342590e-01    3,260450363e-01    0,000000000e+00    0,000000000e+00    0,000000000e+00    0,000000000e+00
     1122000000   -3,068468347e-02   -3,348983452e-02   -1,365210563e-01    4,820520580e-01    0,000000000e+00    0,000000000e+00    0,000000000e+00    0,000000000e+00
     1136000000   -2,614568360e-02   -8,658061922e-02    1,607791334e-01    4,734447896e-01    0,000000000e+00    0,000000000e+00    0,000000000e+00    0,000000000e+00
     1150000000   -6,315067410e-02   -1,348484457e-01    4,187501967e-01    3,106217980e-01    0,000000000e+00    0,000000000e+00    0,000000000e+00    0,000000000e+00
     1164000000   -1,372423768e-01   -1,497951150e-01    5,635450482e-01    2,778555267e-02    0,000000000e+00    0,000000000e+00    0,000000000e+00    0,000000000e+00
     1178000000   -2,089500725e-01   -1,200536713e-01    5,328082442e-01   -3,143634796e-01    0,000000000e+00    0,000000000e+00    0,000000000e+00    0,000000000e+00
     1192000000   -2,506586611e-01   -4,628103226e-02    2,967871428e-01   -5,945103765e-01    0,000000000e+00    0,000000000e+00    0,000000000e+00    0,000000000e+00
     1206000000   -2,351041436e-01    3,664584830e-02   -6,983046979e-02   -6,962535381e-01    0,000000000e+00    0,000000000e+00    0,000000000e+00    0,000000000e+00
     1220000000   -1,808168590e-01    8,440668136e-02   -4,203467965e-01   -5,821577907e-01    0,000000000e+00    0,000000000e+00    0,000000000e+00    0,000000000e+00
     1234000000   -1,284968108e-01    1,074233353e-01   -6,486991048e-01   -2,905707657e-01    0,000000000e+00    0,000000000e+00    0,000000000e+00    0,000000000e+00
     1248000000   -6,260657310e-02    9,697498381e-02   -6,764889359e-01    6,388109177e-02    0,000000000e+00    0,000000000e+00    0,000000000e+00    0,000000000e+00
     1262000000   -1,468966249e-02    6,284029782e-02   -5,168637633e-01    3,694135249e-01    0,000000000e+00    0,000000000e+00    0,000000000e+00    0,000000000e+00
     1276000000    2,493982390e-02   -3,098757239e-03   -2,457857728e-01    5,433205366e-01    0,000000000e+00    0,000000000e+00    0,000000000e+00    0,000000000e+00
     1290000000    2,233262919e-02   -8,380339295e-02    6,687392294e-02    5,786946416e-01    0,000000000e+00    0,000000000e+00    0,000000000e+00    0,000000000e+00
     1304000000   -3,164189681e-02   -1,711201519e-01    3,713212013e-01    4,643030465e-01    0,000000000e+00    0,000000000e+00    0,000000000e+00    0,000000000e+00
     1318000000   -1,365160793e-01   -2,125316262e-01    5,875388384e-01    2,233115733e-01    0,000000000e+00    0,000000000e+00    0,000000000e+00    0,000000000e+00
     1332000000   -2,518546581e-01   -1,846563518e-01    6,494114995e-01   -1,260569841e-01    0,000000000e+00    0,000000000e+00    0,000000000e+00    0,000000000e+00
     1346000000   -3,358273506e-01   -9,325887263e-02    5,035634637e-01   -4,672122300e-01    0,000000000e+00    0,000000000e+00    0,000000000e+00    0,000000000e+00
     1360000000   -3,330059350e-01    2,495518886e-02    1,801463366e-01   -6,444153190e-01    0,000000000e+00    0,000000000e+00    0,000000000e+00    0,000000000e+00
     1374000000   -2,780947387e-01    1,072864309e-01   -1,510437578e-01   -6,000697613e-01    0,000000000e+00    0,000000000e+00    0,000000000e+00    0,000000000e+00
     1388000000   -2,127788365e-01    1,392397135e-01   -4,031123817e-01   -3,695144951e-01    0,000000000e+00    0,000000000e+00    0,000000000e+00    0,000000000e+00
     1402000000   -1,506794244e-01    1,375689059e-01   -4,786953032e-01   -6,760799140e-02    0,000000000e+00    0,000000000e+00    0,000000000e+00    0,000000000e+00
     1416000000   -9,993258119e-02    1,150439754e-01   -3,875200450e-01    2,402790487e-01    0,000000000e+00    0,000000000e+00    0,000000000e+00    0,000000000e+00
     1430000000   -5,055958778e-02    6,832472235e-02   -1,306841969e-01    4,204426110e-01    0,000000000e+00    0,000000000e+00    0,000000000e+00    0,000000000e+00
     1444000000   -3,545613959e-02    4,845553078e-03    1,736317277e-01    5,356229544e-01    0,000000000e+00    0,000000000e+00    0,000000000e+00    0,000000000e+00
     1458000000   -6,237694249e-02   -6,578573585e-02    4,826020896e-01    4,803410470e-01    0,000000000e+00    0,000000000e+00    0,000000000e+00    0,000000000e+00
     1472000000   -1,420584172e-01   -1,243410707e-01    7,567225695e-01    2,582443953e-01    0,000000000e+00    0,000000000e+00    0,000000000e+00    0,000000000e+00
     1486000000   -2,265695781e-01   -1,101494357e-01    8,938140869e-01   -7,017664611e-02    0,000000000e+00    0,000000000e+00    0,000000000e+00    0,000000000e+00
     1500000000   -2,844641507e-01   -4,733807966e-02    7,839834690e-01   -4,677226245e-01    0,000000000e+00    0,000000000e+00    0,000000000e+00    0,000000000e+00
