! NanoVNA-App
! Date: 2025-09-25 15:06:24
! Start: 100MHz Stop: 1,5GHz Points: 101
! S-Parameter data: F S11 S21 S12 S22
# Hz S RI R 50
!     Frequency           S11_Real           S11_Imag           S21_Real           S21_Imag           S12_Real           S12_Imag           S22_Real           S22_Imag
      100000000    3,114303015e-02    2,865510434e-02    4,348364770e-01   -6,686578393e-01    0,000000000e+00    0,000000000e+00    0,000000000e+00    0,000000000e+00
      114000000    5,760456622e-02    5,506921560e-03    7,769026328e-03   -7,911603451e-01    0,000000000e+00    0,000000000e+00    0,000000000e+00    0,000000000e+00
      128000000    6,727729738e-02   -3,780109435e-02   -4,104381204e-01   -6,712902188e-01    0,000000000e+00    0,000000000e+00    0,000000000e+00    0,000000000e+00
      142000000    4,472037405e-02   -8,422135562e-02   -7,031407356e-01   -3,532657623e-01    0,000000000e+00    0,000000000e+00    0,000000000e+00    0,000000000e+00
      156000000   -6,071125157e-03   -1,062100530e-01   -7,857094407e-01    7,335397601e-02    0,000000000e+00    0,000000000e+00    0,000000000e+00    0,000000000e+00
      170000000   -5,771328509e-02   -9,063807875e-02   -6,275601983e-01    4,869439900e-01    0,000000000e+00    0,000000000e+00    0,000000000e+00    0,000000000e+00
      184000000   -8,373773843e-02   -4,949291423e-02   -2,648011744e-01    7,513215542e-01    0,000000000e+00    0,000000000e+00    0,000000000e+00    0,000000000e+00
      198000000   -7,961393148e-02   -1,046460774e-02    1,834022552e-01    7,733401656e-01    0,000000000e+00    0,000000000e+00    0,000000000e+00    0,000000000e+00
      212000000   -6,228465959e-02    1,321076322e-02    5,692592859e-01    5,491561890e-01    0,000000000e+00    0,000000000e+00    0,000000000e+00    0,000000000e+00
      226000000   -4,326512665e-02    2,764181234e-02    7,706783414e-01    1,545889229e-01    0,000000000e+00    0,000000000e+00    0,000000000e+00    0,000000000e+00
      240000000   -1,816050522e-02    3,845685348e-02    7,268521190e-01   -2,818502486e-01    0,000000000e+00    0,000000000e+00    0,000000000e+00    0,000000000e+00
      254000000    1,721240580e-02    3,520311415e-02    4,578872919e-01   -6,202052236e-01    0,000000000e+00    0,000000000e+00    0,000000000e+00    0,000000000e+00
      268000000    4,878500476e-02    5,606207531e-03    5,862257257e-02   -7,603793740e-01    0,000000000e+00    0,000000000e+00    0,000000000e+00    0,000000000e+00
      282000000    5,339675769e-02   -4,180794954e-02   -3,492591679e-01   -6,718869805e-01    0,000000000e+00    0,000000000e+00    0,000000000e+00    0,000000000e+00
      296000000    2,407917939e-02   -7,942166924e-02   -6,517664790e-01   -3,848727345e-01    0,000000000e+00    0,000000000e+00    0,000000000e+00    0,000000000e+00
      310000000   -1,798674278e-02   -8,332501352e-02   -7,642090917e-01    2,005850151e-02    0,000000000e+00    0,000000000e+00    0,000000000e+00    0,000000000e+00
      324000000   -4,143375158e-02   -5,902425945e-02   -6,319501400e-01    4,314412177e-01    0,000000000e+00    0,000000000e+00    0,000000000e+00    0,000000000e+00
      338000000   -3,408030793e-02   -3,689944744e-02   -2,947168052e-01    6,997283697e-01    0,000000000e+00    0,000000000e+00    0,000000000e+00    0,000000000e+00
      352000000   -1,750854775e-02   -4,070775956e-02    1,246762499e-01    7,424181104e-01    0,000000000e+00    0,000000000e+00    0,000000000e+00    0,000000000e+00
      366000000   -1,918499731e-02   -6,202470139e-02    4,977182448e-01    5,540834069e-01    0,000000000e+00    0,000000000e+00    0,000000000e+00    0,000000000e+00
      380000000   -4,438636824e-02   -7,267728448e-02    7,129608393e-01    1,998117119e-01    0,000000000e+00    0,000000000e+00    0,000000000e+00    0,000000000e+00
      394000000   -7,062826306e-02   -5,821926147e-02    7,043572664e-01   -2,163064331e-01    0,000000000e+00    0,000000000e+00    0,000000000e+00    0,000000000e+00
      408000000   -7,710061222e-02   -3,067615069e-02    4,704465568e-01   -5,607934594e-01    0,000000000e+00    0,000000000e+00    0,000000000e+00    0,000000000e+00
      422000000   -6,564958394e-02   -1,148156077e-02    9,327839315e-02   -7,182117701e-01    0,000000000e+00    0,000000000e+00    0,000000000e+00    0,000000000e+00
      436000000   -5,296928808e-02   -4,531987477e-03   -3,018407524e-01   -6,470931172e-01    0,000000000e+00    0,000000000e+00    0,000000000e+00    0,000000000e+00
      450000000   -4,516123235e-02    1,678387984e-03   -5,935087204e-01   -3,780916333e-01    0,000000000e+00    0,000000000e+00    0,000000000e+00    0,000000000e+00
      464000000   -2,927688695e-02    1,179069094e-02   -6,910285950e-01    3,746149014e-04    0,000000000e+00    0,000000000e+00    0,000000000e+00    0,000000000e+00
      478000000   -8,004588890e-04    1,176251750e-02   -5,728305578e-01    3,637140989e-01    0,000000000e+00    0,000000000e+00    0,000000000e+00    0,000000000e+00
      492000000    2,852952294e-02   -1,261877827e-02   -2,895175219e-01    6,015418768e-01    0,000000000e+00    0,000000000e+00    0,000000000e+00    0,000000000e+00
      506000000    3,660019487e-02   -5,601206794e-02    6,923613697e-02    6,584755778e-01    0,000000000e+00    0,000000000e+00    0,000000000e+00    0,000000000e+00
      520000000    1,287142374e-02   -9,846342355e-02    4,026618898e-01    5,275356770e-01    0,000000000e+00    0,000000000e+00    0,000000000e+00    0,000000000e+00
      534000000   -3,434503078e-02   -1,162557527e-01    6,241142154e-01    2,363150418e-01    0,000000000e+00    0,000000000e+00    0,000000000e+00    0,000000000e+00
      548000000   -7,771512121e-02   -9,908636659e-02    6,574818492e-01   -1,333362311e-01    0,000000000e+00    0,000000000e+00    0,000000000e+00    0,000000000e+00
      562000000   -9,377918392e-02   -6,617170572e-02    4,807210565e-01   -4,665036201e-01    0,000000000e+00    0,000000000e+00    0,000000000e+00    0,000000000e+00
      576000000   -8,627030998e-02   -4,418933392e-02    1,498209238e-01   -6,478031874e-01    0,000000000e+00    0,000000000e+00    0,000000000e+00    0,000000000e+00
      590000000   -8,040843904e-02   -4,156838357e-02   -2,209700197e-01   -6,255278587e-01    0,000000000e+00    0,000000000e+00    0,000000000e+00    0,000000000e+00
      604000000   -8,902633935e-02   -3,742159531e-02   -5,199021697e-01   -4,060030580e-01    0,000000000e+00    0,000000000e+00    0,000000000e+00    0,000000000e+00
      618000000   -9,698256850e-02   -1,559684146e-02   -6,531633139e-01   -5,868890509e-02    0,000000000e+00    0,000000000e+00    0,000000000e+00    0,000000000e+00
      632000000   -8,123995364e-02    1,538780984e-02   -5,753881931e-01    3,031557202e-01    0,000000000e+00    0,000000000e+00    0,000000000e+00    0,000000000e+00
      646000000   -4,327060655e-02    2,626034990e-02   -3,184627593e-01    5,556976795e-01    0,000000000e+00    0,000000000e+00    0,000000000e+00    0,000000000e+00
      660000000   -8,122090250e-03    5,362319294e-03    2,154613845e-02    6,296061277e-01    0,000000000e+00    0,000000000e+00    0,000000000e+00    0,000000000e+00
      674000000    1,199467108e-03   -3,053775430e-02    3,418662250e-01    5,182227492e-01    0,000000000e+00    0,000000000e+00    0,000000000e+00    0,000000000e+00
      688000000   -1,420450397e-02   -5,556297302e-02    5,586369634e-01    2,583798468e-01    0,000000000e+00    0,000000000e+00    0,000000000e+00    0,000000000e+00
      702000000   -3,336041048e-02   -6,049794704e-02    6,042504907e-01   -7,679923624e-02    0,000000000e+00    0,000000000e+00    0,000000000e+00    0,000000000e+00
      716000000   -3,763820603e-02   -5,529750511e-02    4,594213068e-01   -3,896573782e-01    0,000000000e+00    0,000000000e+00    0,000000000e+00    0,000000000e+00
      730000000   -3,187099844e-02   -6,458039582e-02    1,737250239e-01   -5,663925409e-01    0,000000000e+00    0,000000000e+00    0,000000000e+00    0,000000000e+00
      744000000   -3,955132514e-02   -8,897646517e-02   -1,530125588e-01   -5,636175275e-01    0,000000000e+00    0,000000000e+00    0,000000000e+00    0,000000000e+00
      758000000   -7,206261158e-02   -1,043651998e-01   -4,271207750e-01   -3,945414722e-01    0,000000000e+00    0,000000000e+00    0,000000000e+00    0,000000000e+00
      772000000   -1,146507785e-01   -9,368240833e-02   -5,740411878e-01   -1,058651879e-01    0,000000000e+00    0,000000000e+00    0,000000000e+00    0,000000000e+00
      786000000   -1,383010149e-01   -5,573132634e-02   -5,453829169e-01    2,205305845e-01    0,000000000e+00    0,000000000e+00    0,000000000e+00    0,000000000e+00
      800000000   -1,332652122e-01   -1,521821134e-02   -3,416635692e-01    4,801190794e-01    0,000000000e+00    0,000000000e+00    0,000000000e+00    0,000000000e+00
      814000000   -1,088954732e-01    8,986071683e-03   -3,431725502e-02    5,871471763e-01    0,000000000e+00    0,000000000e+00    0,000000000e+00    0,000000000e+00
      828000000   -8,587644994e-02    1,360413712e-02    2,792799175e-01    5,148491859e-01    0,000000000e+00    0,000000000e+00    0,000000000e+00    0,000000000e+00
      842000000   -7,027240098e-02    1,544078067e-02    5,026310682e-01    2,887845635e-01    0,000000000e+00    0,000000000e+00    0,000000000e+00    0,000000000e+00
      856000000   -5,255541950e-02    1,938143559e-02    5,702494383e-01   -1,774128154e-02    0,000000000e+00    0,000000000e+00    0,000000000e+00    0,000000000e+00
      870000000   -2,287727781e-02    1,466694847e-02    4,634835720e-01   -3,062888086e-01    0,000000000e+00    0,000000000e+00    0,000000000e+00    0,000000000e+00
      884000000    5,589241628e-03   -1,444840897e-02    2,307692617e-01   -4,875526726e-01    0,000000000e+00    0,000000000e+00    0,000000000e+00    0,000000000e+00
      898000000    1,171620656e-02   -6,329455227e-02   -5,142376944e-02   -5,252852440e-01    0,000000000e+00    0,000000000e+00    0,000000000e+00    0,000000000e+00
      912000000   -2,324714325e-02   -1,084908023e-01   -3,644636869e-01   -4,101272225e-01    0,000000000e+00    0,000000000e+00    0,000000000e+00    0,000000000e+00
      926000000   -7,631020993e-02   -1,229408458e-01   -5,320160389e-01   -1,590765268e-01    0,000000000e+00    0,000000000e+00    0,000000000e+00    0,000000000e+00
      940000000   -1,214070842e-01   -1,013501212e-01   -5,502242446e-01    1,559676528e-01    0,000000000e+00    0,000000000e+00    0,000000000e+00    0,000000000e+00
      954000000   -1,426188052e-01   -5,764204264e-02   -3,924844861e-01    4,466532767e-01    0,000000000e+00    0,000000000e+00    0,000000000e+00    0,000000000e+00
      968000000   -1,332468837e-01   -2,712091990e-02   -9,260687232e-02    6,014158130e-01    0,000000000e+00    0,000000000e+00    0,000000000e+00    0,000000000e+00
      982000000   -1,164382249e-01   -1,786057092e-02    2,461336255e-01    5,731605887e-01    0,000000000e+00    0,000000000e+00    0,000000000e+00    0,000000000e+00
      996000000   -1,063309088e-01   -1,112258062e-02    5,128740072e-01    3,676053882e-01    0,000000000e+00    0,000000000e+00    0,000000000e+00    0,000000000e+00
     1010000000   -1,060945988e-01   -7,743949071e-03    6,296921968e-01    5,170239136e-02    0,000000000e+00    0,000000000e+00    0,000000000e+00    0,000000000e+00
     1024000000   -9,030995518e-02    1,431389246e-03    5,612397194e-01   -2,703593373e-01    0,000000000e+00    0,000000000e+00    0,000000000e+00    0,000000000e+00
     1038000000   -7,513067871e-02   -4,610258620e-03    3,395361900e-01   -5,014053583e-01    0,000000000e+00    0,000000000e+00    0,000000000e+00    0,000000000e+00
     1052000000   -6,307554990e-02   -1,672550477e-02    3,474574164e-02   -5,859888196e-01    0,000000000e+00    0,000000000e+00    0,000000000e+00    0,000000000e+00
     1066000000   -6,715414673e-02   -2,848680690e-02   -2,655413449e-01   -5,040677786e-01    0,000000000e+00    0,000000000e+00    0,000000000e+00    0,000000000e+00
     1080000000   -7,990999520e-02   -3,304566443e-02   -4,810900986e-01   -2,717750967e-01    0,000000000e+00    0,000000000e+00    0,000000000e+00    0,000000000e+00
     1094000000   -8,338949084e-02   -1,531492639e-02   -5,325844288e-01    4,321401939e-02    0,000000000e+00    0,000000000e+00    0,000000000e+00    0,000000000e+00
     1108000000   -5,925912410e-02   -1,346812304e-02   -4,007463753e-01    3,256050050e-01    0,000000000e+00    0,000000000e+00    0,000000000e+00    0,000000000e+00
     1122000000   -3,283907101e-02   -3,404656053e-02   -1,357091218e-01    4,822205007e-01    0,000000000e+00    0,000000000e+00    0,000000000e+00    0,000000000e+00
     1136000000   -2,456380986e-02   -8,400740474e-02    1,620494872e-01    4,723168314e-01    0,000000000e+00    0,000000000e+00    0,000000000e+00    0,000000000e+00
     1150000000   -6,642794609e-02   -1,312418133e-01    4,203838408e-01    3,087991476e-01    0,000000000e+00    0,000000000e+00    0,000000000e+00    0,000000000e+00
     1164000000   -1,352338195e-01   -1,567064375e-01    5,621974468e-01    2,481648885e-02    0,000000000e+00    0,000000000e+00    0,000000000e+00    0,000000000e+00
     1178000000   -2,080543339e-01   -1,179519966e-01    5,331997871e-01   -3,191511035e-01    0,000000000e+00    0,000000000e+00    0,000000000e+00    0,000000000e+00
     1192000000   -2,504729927e-01   -3,867213428e-02    2,946028113e-01   -5,939527750e-01    0,000000000e+00    0,000000000e+00    0,000000000e+00    0,000000000e+00
     1206000000   -2,297813296e-01    3,167987242e-02   -6,405629218e-02   -6,979590654e-01    0,000000000e+00    0,000000000e+00    0,000000000e+00    0,000000000e+00
     1220000000   -1,865715981e-01    8,668478578e-02   -4,232512116e-01   -5,729193687e-01    0,000000000e+00    0,000000000e+00    0,000000000e+00    0,000000000e+00
     1234000000   -1,222825050e-01    1,041551158e-01   -6,433075070e-01   -2,882399559e-01    0,000000000e+00    0,000000000e+00    0,000000000e+00    0,000000000e+00
     1248000000   -6,874878705e-02    9,316710383e-02   -6,716750860e-01    6,524572521e-02    0,000000000e+00    0,000000000e+00    0,000000000e+00    0,000000000e+00
     1262000000   -1,363310963e-02    6,718834490e-02   -5,201545358e-01    3,735338449e-01    0,000000000e+00    0,000000000e+00    0,000000000e+00    0,000000000e+00
     1276000000    2,654848434e-02   -4,173670895e-03   -2,436132878e-01    5,463408828e-01    0,000000000e+00    0,000000000e+00    0,000000000e+00    0,000000000e+00
     1290000000    2,221894823e-02   -9,045903385e-02    7,080223411e-02    5,730478764e-01    0,000000000e+00    0,000000000e+00    0,000000000e+00    0,000000000e+00
     1304000000   -3,744998202e-02   -1,730066836e-01    3,662148118e-01    4,644784033e-01    0,000000000e+00    0,000000000e+00    0,000000000e+00    0,000000000e+00
     1318000000   -1,350000650e-01   -2,169363201e-01    5,832927823e-01    2,151484936e-01    0,000000000e+00    0,000000000e+00    0,000000000e+00    0,000000000e+00
     1332000000   -2,491459697e-01   -1,879274696e-01    6,589848399e-01   -1,268935055e-01    0,000000000e+00    0,000000000e+00    0,000000000e+00    0,000000000e+00
     1346000000   -3,291030526e-01   -9,005752206e-02    5,164414048e-01   -4,636764228e-01    0,000000000e+00    0,000000000e+00    0,000000000e+00    0,000000000e+00
     1360000000   -3,346278965e-01    2,307091281e-02    1,928606182e-01   -6,444118023e-01    0,000000000e+00    0,000000000e+00    0,000000000e+00    0,000000000e+00
     1374000000   -2,802849412e-01    9,958946705e-02   -1,633261740e-01   -6,049631834e-01    0,000000000e+00    0,000000000e+00    0,000000000e+00    0,000000000e+00
     1388000000   -2,163096815e-01    1,419944167e-01   -4,108033478e-01   -3,737885058e-01    0,000000000e+00    0,000000000e+00    0,000000000e+00    0,000000000e+00
     1402000000   -1,474595964e-01    1,402671039e-01   -4,787971079e-01   -5,126150697e-02    0,000000000e+00    0,000000000e+00    0,000000000e+00    0,000000000e+00
     1416000000   -1,001492366e-01    1,194329262e-01   -3,792356849e-01    2,514467537e-01    0,000000000e+00    0,000000000e+00    0,000000000e+00    0,000000000e+00
     1430000000   -5,457036942e-02    6,666258723e-02   -1,452915668e-01    4,429823458e-01    0,000000000e+00    0,000000000e+00    0,000000000e+00    0,000000000e+00
     1444000000   -3,732058033e-02    2,446924103e-03    1,687707603e-01    5,334683061e-01    0,000000000e+00    0,000000000e+00    0,000000000e+00    0,000000000e+00
     1458000000   -6,260453910e-02   -7,281095535e-02    4,922053516e-01    4,722226560e-01    0,000000000e+00    0,000000000e+00    0,000000000e+00    0,000000000e+00
     1472000000   -1,351989359e-01   -1,225366518e-01    7,724340558e-01    2,656439543e-01    0,000000000e+00    0,000000000e+00    0,000000000e+00    0,000000000e+00
     1486000000   -2,300597131e-01   -1,161878631e-01    8,865013123e-01   -9,268957376e-02    0,000000000e+00    0,000000000e+00    0,000000000e+00    0,000000000e+00
     1500000000   -2,869783640e-01   -4,022825509e-02    7,961210012e-01   -4,683642387e-01    0,000000000e+00    0,000000000e+00    0,000000000e+00    0,000000000e+00
