! NanoVNA-App
! Date: 2025-09-25 15:05:03
! Start: 100MHz Stop: 1,5GHz Points: 101
! S-Parameter data: F S11 S21 S12 S22
# Hz S RI R 50
!     Frequency           S11_Real           S11_Imag           S21_Real           S21_Imag           S12_Real           S12_Imag           S22_Real           S22_Imag
      100000000    3,112226166e-02    2,861660160e-02    4,348162711e-01   -6,686568856e-01    0,000000000e+00    0,000000000e+00    0,000000000e+00    0,000000000e+00
      114000000    5,750794709e-02    5,482533947e-03    7,727147080e-03   -7,909164429e-01    0,000000000e+00    0,000000000e+00    0,000000000e+00    0,000000000e+00
      128000000    6,720595062e-02   -3,778192028e-02   -4,105245471e-01   -6,711862683e-01    0,000000000e+00    0,000000000e+00    0,000000000e+00    0,000000000e+00
      142000000    4,470661283e-02   -8,410986513e-02   -7,030305862e-01   -3,533653617e-01    0,000000000e+00    0,000000000e+00    0,000000000e+00    0,000000000e+00
      156000000   -5,446101073e-03   -1,068795547e-01   -7,872319818e-01    7,425824553e-02    0,000000000e+00    0,000000000e+00    0,000000000e+00    0,000000000e+00
      170000000   -5,764098838e-02   -9,051397443e-02   -6,275076270e-01    4,870560467e-01    0,000000000e+00    0,000000000e+00    0,000000000e+00    0,000000000e+00
      184000000   -8,360332996e-02   -4,942437634e-02   -2,649802566e-01    7,512936592e-01    0,000000000e+00    0,000000000e+00    0,000000000e+00    0,000000000e+00
      198000000   -7,955022156e-02   -1,046802290e-02    1,835825741e-01    7,731723189e-01    0,000000000e+00    0,000000000e+00    0,000000000e+00    0,000000000e+00
      212000000   -6,217411906e-02    1,311978418e-02    5,692059994e-01    5,487519503e-01    0,000000000e+00    0,000000000e+00    0,000000000e+00    0,000000000e+00
      226000000   -4,317844287e-02    2,766161971e-02    7,706501484e-01    1,541262716e-01    0,000000000e+00    0,000000000e+00    0,000000000e+00    0,000000000e+00
      240000000   -1,820041798e-02    3,843055293e-02    7,269496322e-01   -2,822394073e-01    0,000000000e+00    0,000000000e+00    0,000000000e+00    0,000000000e+00
      254000000    1,713587716e-02    3,504558280e-02    4,580876827e-01   -6,204745173e-01    0,000000000e+00    0,000000000e+00    0,000000000e+00    0,000000000e+00
      268000000    4,866247252e-02    5,528523121e-03    5,878688395e-02   -7,608917952e-01    0,000000000e+00    0,000000000e+00    0,000000000e+00    0,000000000e+00
      282000000    5,325109139e-02   -4,180450365e-02   -3,493715823e-01   -6,714317203e-01    0,000000000e+00    0,000000000e+00    0,000000000e+00    0,000000000e+00
      296000000    2,381034009e-02   -7,946617901e-02   -6,521533728e-01   -3,852564692e-01    0,000000000e+00    0,000000000e+00    0,000000000e+00    0,000000000e+00
      310000000   -1,798452064e-02   -8,316066861e-02   -7,626203299e-01    1,932585798e-02    0,000000000e+00    0,000000000e+00    0,000000000e+00    0,000000000e+00
      324000000   -4,162680358e-02   -5,871261284e-02   -6,327125430e-01    4,317319989e-01    0,000000000e+00    0,000000000e+00    0,000000000e+00    0,000000000e+00
      338000000   -3,435133025e-02   -3,695325553e-02   -2,954973876e-01    7,022551894e-01    0,000000000e+00    0,000000000e+00    0,000000000e+00    0,000000000e+00
      352000000   -1,714012586e-02   -4,077997059e-02    1,257207990e-01    7,413508892e-01    0,000000000e+00    0,000000000e+00    0,000000000e+00    0,000000000e+00
      366000000   -1,929011755e-02   -6,199296936e-02    4,982884526e-01    5,543999076e-01    0,000000000e+00    0,000000000e+00    0,000000000e+00    0,000000000e+00
      380000000   -4,417558387e-02   -7,305178046e-02    7,135734558e-01    1,989326328e-01    0,000000000e+00    0,000000000e+00    0,000000000e+00    0,000000000e+00
      394000000   -7,069948316e-02   -5,829872563e-02    7,044997811e-01   -2,162637711e-01    0,000000000e+00    0,000000000e+00    0,000000000e+00    0,000000000e+00
      408000000   -7,692700624e-02   -3,056589328e-02    4,710130990e-01   -5,605325699e-01    0,000000000e+00    0,000000000e+00    0,000000000e+00    0,000000000e+00
      422000000   -6,571568549e-02   -1,144975517e-02    9,277261794e-02   -7,184492350e-01    0,000000000e+00    0,000000000e+00    0,000000000e+00    0,000000000e+00
      436000000   -5,311446264e-02   -4,171893932e-03   -3,026162088e-01   -6,465793252e-01    0,000000000e+00    0,000000000e+00    0,000000000e+00    0,000000000e+00
      450000000   -4,453604296e-02    1,800194848e-03   -5,933578014e-01   -3,783923686e-01    0,000000000e+00    0,000000000e+00    0,000000000e+00    0,000000000e+00
      464000000   -2,933695912e-02    1,147713419e-02   -6,910516024e-01    4,488700652e-04    0,000000000e+00    0,000000000e+00    0,000000000e+00    0,000000000e+00
      478000000   -8,528474136e-04    1,130177919e-02   -5,728174448e-01    3,635766506e-01    0,000000000e+00    0,000000000e+00    0,000000000e+00    0,000000000e+00
      492000000    2,809439227e-02   -1,294894423e-02   -2,895226479e-01    6,020413041e-01    0,000000000e+00    0,000000000e+00    0,000000000e+00    0,000000000e+00
      506000000    3,626471758e-02   -5,584992096e-02    6,950072944e-02    6,580389738e-01    0,000000000e+00    0,000000000e+00    0,000000000e+00    0,000000000e+00
      520000000    1,264987327e-02   -9,857125580e-02    4,019100666e-01    5,280784965e-01    0,000000000e+00    0,000000000e+00    0,000000000e+00    0,000000000e+00
      534000000   -3,471541032e-02   -1,158528104e-01    6,235627532e-01    2,364640236e-01    0,000000000e+00    0,000000000e+00    0,000000000e+00    0,000000000e+00
      548000000   -7,717691362e-02   -9,921837598e-02    6,580401659e-01   -1,332691014e-01    0,000000000e+00    0,000000000e+00    0,000000000e+00    0,000000000e+00
      562000000   -9,326621145e-02   -6,604053080e-02    4,816262424e-01   -4,667339921e-01    0,000000000e+00    0,000000000e+00    0,000000000e+00    0,000000000e+00
      576000000   -8,593200892e-02   -4,430720955e-02    1,513567865e-01   -6,479128003e-01    0,000000000e+00    0,000000000e+00    0,000000000e+00    0,000000000e+00
      590000000   -8,079705387e-02   -4,196437821e-02   -2,187088132e-01   -6,272485256e-01    0,000000000e+00    0,000000000e+00    0,000000000e+00    0,000000000e+00
      604000000   -8,908373863e-02   -3,776399419e-02   -5,202313662e-01   -4,066387713e-01    0,000000000e+00    0,000000000e+00    0,000000000e+00    0,000000000e+00
      618000000   -9,717529267e-02   -1,491390169e-02   -6,537064910e-01   -5,817106366e-02    0,000000000e+00    0,000000000e+00    0,000000000e+00    0,000000000e+00
      632000000   -8,086571842e-02    1,542799361e-02   -5,751889944e-01    3,031114638e-01    0,000000000e+00    0,000000000e+00    0,000000000e+00    0,000000000e+00
      646000000   -4,249865189e-02    2,706429176e-02   -3,182215393e-01    5,562227964e-01    0,000000000e+00    0,000000000e+00    0,000000000e+00    0,000000000e+00
      660000000   -7,451418322e-03    5,520527717e-03    2,154791728e-02    6,295716763e-01    0,000000000e+00    0,000000000e+00    0,000000000e+00    0,000000000e+00
      674000000    1,608845079e-03   -3,075866215e-02    3,432174027e-01    5,182505250e-01    0,000000000e+00    0,000000000e+00    0,000000000e+00    0,000000000e+00
      688000000   -1,500735339e-02   -5,557518825e-02    5,589103103e-01    2,586206794e-01    0,000000000e+00    0,000000000e+00    0,000000000e+00    0,000000000e+00
      702000000   -3,358058259e-02   -5,984096229e-02    6,070666313e-01   -8,326713741e-02    0,000000000e+00    0,000000000e+00    0,000000000e+00    0,000000000e+00
      716000000   -3,782319278e-02   -5,611864477e-02    4,595842957e-01   -3,895018399e-01    0,000000000e+00    0,000000000e+00    0,000000000e+00    0,000000000e+00
      730000000   -3,275336698e-02   -6,562813371e-02    1,737899184e-01   -5,661556125e-01    0,000000000e+00    0,000000000e+00    0,000000000e+00    0,000000000e+00
      744000000   -4,076427221e-02   -8,899206668e-02   -1,537659615e-01   -5,641261339e-01    0,000000000e+00    0,000000000e+00    0,000000000e+00    0,000000000e+00
      758000000   -7,327090204e-02   -1,040398628e-01   -4,284248352e-01   -3,942197561e-01    0,000000000e+00    0,000000000e+00    0,000000000e+00    0,000000000e+00
      772000000   -1,132478267e-01   -9,308541566e-02   -5,748085380e-01   -1,052798927e-01    0,000000000e+00    0,000000000e+00    0,000000000e+00    0,000000000e+00
      786000000   -1,386680752e-01   -5,571861565e-02   -5,442280173e-01    2,218291461e-01    0,000000000e+00    0,000000000e+00    0,000000000e+00    0,000000000e+00
      800000000   -1,317664087e-01   -1,395742595e-02   -3,405434191e-01    4,797880948e-01    0,000000000e+00    0,000000000e+00    0,000000000e+00    0,000000000e+00
      814000000   -1,076241955e-01    8,153433912e-03   -3,366257623e-02    5,860426426e-01    0,000000000e+00    0,000000000e+00    0,000000000e+00    0,000000000e+00
      828000000   -8,481133729e-02    1,237017941e-02    2,785152793e-01    5,136045814e-01    0,000000000e+00    0,000000000e+00    0,000000000e+00    0,000000000e+00
      842000000   -7,139772177e-02    1,350781508e-02    5,019442439e-01    2,892179787e-01    0,000000000e+00    0,000000000e+00    0,000000000e+00    0,000000000e+00
      856000000   -5,290270224e-02    1,827890612e-02    5,704001188e-01   -1,819471642e-02    0,000000000e+00    0,000000000e+00    0,000000000e+00    0,000000000e+00
      870000000   -2,441555634e-02    1,513338834e-02    4,636485279e-01   -3,065180779e-01    0,000000000e+00    0,000000000e+00    0,000000000e+00    0,000000000e+00
      884000000    5,472036079e-03   -1,346661896e-02    2,308555096e-01   -4,880137742e-01    0,000000000e+00    0,000000000e+00    0,000000000e+00    0,000000000e+00
      898000000    1,219875831e-02   -6,265177578e-02   -5,245447904e-02   -5,268837810e-01    0,000000000e+00    0,000000000e+00    0,000000000e+00    0,000000000e+00
      912000000   -2,386130765e-02   -1,068331599e-01   -3,638114631e-01   -4,087275267e-01    0,000000000e+00    0,000000000e+00    0,000000000e+00    0,000000000e+00
      926000000   -7,501448691e-02   -1,227425933e-01   -5,318129659e-01   -1,561801881e-01    0,000000000e+00    0,000000000e+00    0,000000000e+00    0,000000000e+00
      940000000   -1,245469525e-01   -1,016974300e-01   -5,528464913e-01    1,577701867e-01    0,000000000e+00    0,000000000e+00    0,000000000e+00    0,000000000e+00
      954000000   -1,428274363e-01   -6,350419670e-02   -3,928414583e-01    4,454863369e-01    0,000000000e+00    0,000000000e+00    0,000000000e+00    0,000000000e+00
      968000000   -1,313102394e-01   -2,662901022e-02   -9,121716768e-02    6,039769650e-01    0,000000000e+00    0,000000000e+00    0,000000000e+00    0,000000000e+00
      982000000   -1,159012690e-01   -1,407061610e-02    2,470685095e-01    5,751836300e-01    0,000000000e+00    0,000000000e+00    0,000000000e+00    0,000000000e+00
      996000000   -1,048406959e-01   -1,501955092e-02    5,145466924e-01    3,663396537e-01    0,000000000e+00    0,000000000e+00    0,000000000e+00    0,000000000e+00
     1010000000   -1,064053550e-01   -8,558363654e-03    6,308711767e-01    5,219479278e-02    0,000000000e+00    0,000000000e+00    0,000000000e+00    0,000000000e+00
     1024000000   -9,167979658e-02    5,067027640e-03    5,607147813e-01   -2,727887332e-01    0,000000000e+00    0,000000000e+00    0,000000000e+00    0,000000000e+00
     1038000000   -7,193048298e-02   -2,245713025e-03    3,350722492e-01   -5,058343410e-01    0,000000000e+00    0,000000000e+00    0,000000000e+00    0,000000000e+00
     1052000000   -6,054932624e-02   -1,668502949e-02    3,017016873e-02   -5,871959925e-01    0,000000000e+00    0,000000000e+00    0,000000000e+00    0,000000000e+00
     1066000000   -7,176991552e-02   -3,206685558e-02   -2,672087550e-01   -4,975599349e-01    0,000000000e+00    0,000000000e+00    0,000000000e+00    0,000000000e+00
     1080000000   -7,956473529e-02   -3,031396680e-02   -4,831063151e-01   -2,682838440e-01    0,000000000e+00    0,000000000e+00    0,000000000e+00    0,000000000e+00
     1094000000   -8,131961524e-02   -1,512914617e-02   -5,296401381e-01    4,361529276e-02    0,000000000e+00    0,000000000e+00    0,000000000e+00    0,000000000e+00
     1108000000   -5,799956992e-02   -1,430413779e-02   -3,949181437e-01    3,268353641e-01    0,000000000e+00    0,000000000e+00    0,000000000e+00    0,000000000e+00
     1122000000   -2,872059308e-02   -3,577062860e-02   -1,307166219e-01    4,793493748e-01    0,000000000e+00    0,000000000e+00    0,000000000e+00    0,000000000e+00
     1136000000   -2,605752647e-02   -8,204331994e-02    1,656103283e-01    4,676785469e-01    0,000000000e+00    0,000000000e+00    0,000000000e+00    0,000000000e+00
     1150000000   -6,577877700e-02   -1,314349174e-01    4,208892286e-01    3,090472817e-01    0,000000000e+00    0,000000000e+00    0,000000000e+00    0,000000000e+00
     1164000000   -1,389494091e-01   -1,541705877e-01    5,599328876e-01    2,467839606e-02    0,000000000e+00    0,000000000e+00    0,000000000e+00    0,000000000e+00
     1178000000   -2,097684294e-01   -1,157694682e-01    5,274717212e-01   -3,137957156e-01    0,000000000e+00    0,000000000e+00    0,000000000e+00    0,000000000e+00
     1192000000   -2,508888245e-01   -4,540781677e-02    2,909442782e-01   -5,953887105e-01    0,000000000e+00    0,000000000e+00    0,000000000e+00    0,000000000e+00
     1206000000   -2,363630831e-01    3,131486475e-02   -6,815946847e-02   -6,942963600e-01    0,000000000e+00    0,000000000e+00    0,000000000e+00    0,000000000e+00
     1220000000   -1,844775975e-01    7,861786336e-02   -4,202550352e-01   -5,766029954e-01    0,000000000e+00    0,000000000e+00    0,000000000e+00    0,000000000e+00
     1234000000   -1,317294538e-01    1,070229337e-01   -6,455335021e-01   -2,885039449e-01    0,000000000e+00    0,000000000e+00    0,000000000e+00    0,000000000e+00
     1248000000   -7,156622410e-02    9,792880714e-02   -6,765580177e-01    6,417519599e-02    0,000000000e+00    0,000000000e+00    0,000000000e+00    0,000000000e+00
     1262000000   -1,528242417e-02    6,173875928e-02   -5,169409513e-01    3,686718643e-01    0,000000000e+00    0,000000000e+00    0,000000000e+00    0,000000000e+00
     1276000000    2,294880152e-02   -2,793135587e-03   -2,409163266e-01    5,447378755e-01    0,000000000e+00    0,000000000e+00    0,000000000e+00    0,000000000e+00
     1290000000    1,920965314e-02   -8,763282746e-02    6,799934059e-02    5,737205744e-01    0,000000000e+00    0,000000000e+00    0,000000000e+00    0,000000000e+00
     1304000000   -3,128372878e-02   -1,663969010e-01    3,605028093e-01    4,695053697e-01    0,000000000e+00    0,000000000e+00    0,000000000e+00    0,000000000e+00
     1318000000   -1,357218772e-01   -2,111434340e-01    5,757484436e-01    2,173464745e-01    0,000000000e+00    0,000000000e+00    0,000000000e+00    0,000000000e+00
     1332000000   -2,515613139e-01   -1,886224747e-01    6,548153162e-01   -1,187212467e-01    0,000000000e+00    0,000000000e+00    0,000000000e+00    0,000000000e+00
     1346000000   -3,337394893e-01   -8,974167705e-02    5,149401426e-01   -4,591757655e-01    0,000000000e+00    0,000000000e+00    0,000000000e+00    0,000000000e+00
     1360000000   -3,296399117e-01    2,613565885e-02    1,945828795e-01   -6,340407729e-01    0,000000000e+00    0,000000000e+00    0,000000000e+00    0,000000000e+00
     1374000000   -2,811041474e-01    1,014351621e-01   -1,526786238e-01   -6,086586714e-01    0,000000000e+00    0,000000000e+00    0,000000000e+00    0,000000000e+00
     1388000000   -2,148193717e-01    1,406522393e-01   -4,023702741e-01   -3,745418489e-01    0,000000000e+00    0,000000000e+00    0,000000000e+00    0,000000000e+00
     1402000000   -1,485862881e-01    1,410053372e-01   -4,794639051e-01   -5,793090537e-02    0,000000000e+00    0,000000000e+00    0,000000000e+00    0,000000000e+00
     1416000000   -9,625048190e-02    1,125141531e-01   -3,851243258e-01    2,424653918e-01    0,000000000e+00    0,000000000e+00    0,000000000e+00    0,000000000e+00
     1430000000   -5,767087266e-02    7,252532989e-02   -1,570348740e-01    4,590117037e-01    0,000000000e+00    0,000000000e+00    0,000000000e+00    0,000000000e+00
     1444000000   -3,830055520e-02    5,996261723e-03    1,587991565e-01    5,360810757e-01    0,000000000e+00    0,000000000e+00    0,000000000e+00    0,000000000e+00
     1458000000   -6,021226197e-02   -7,541615516e-02    4,882465005e-01    4,877386391e-01    0,000000000e+00    0,000000000e+00    0,000000000e+00    0,000000000e+00
     1472000000   -1,386327893e-01   -1,205248758e-01    7,527985573e-01    2,745752037e-01    0,000000000e+00    0,000000000e+00    0,000000000e+00    0,000000000e+00
     1486000000   -2,318323255e-01   -1,217246801e-01    8,852455020e-01   -7,801309228e-02    0,000000000e+00    0,000000000e+00    0,000000000e+00    0,000000000e+00
     1500000000   -2,899734676e-01   -5,085004866e-02    8,138191104e-01   -4,390495420e-01    0,000000000e+00    0,000000000e+00    0,000000000e+00    0,000000000e+00
