! NanoVNA-App
! Date: 2025-09-25 15:10:33
! Start: 100MHz Stop: 1,5GHz Points: 101
! S-Parameter data: F S11 S21 S12 S22
# Hz S RI R 50
!     Frequency           S11_Real           S11_Imag           S21_Real           S21_Imag           S12_Real           S12_Imag           S22_Real           S22_Imag
      100000000    3,115797415e-02    2,863584273e-02    4,348277748e-01   -6,685900688e-01    0,000000000e+00    0,000000000e+00    0,000000000e+00    0,000000000e+00
      114000000    5,759129673e-02    5,503590684e-03    7,872613147e-03   -7,908973694e-01    0,000000000e+00    0,000000000e+00    0,000000000e+00    0,000000000e+00
      128000000    6,725305319e-02   -3,783654794e-02   -4,103544056e-01   -6,712167263e-01    0,000000000e+00    0,000000000e+00    0,000000000e+00    0,000000000e+00
      142000000    4,469094053e-02   -8,419948816e-02   -7,027193308e-01   -3,533226252e-01    0,000000000e+00    0,000000000e+00    0,000000000e+00    0,000000000e+00
      156000000   -5,295167211e-03   -1,068044305e-01   -7,874819636e-01    7,346367836e-02    0,000000000e+00    0,000000000e+00    0,000000000e+00    0,000000000e+00
      170000000   -5,772738159e-02   -9,062229097e-02   -6,276133657e-01    4,871122837e-01    0,000000000e+00    0,000000000e+00    0,000000000e+00    0,000000000e+00
      184000000   -8,376895636e-02   -4,946453869e-02   -2,649767101e-01    7,510080338e-01    0,000000000e+00    0,000000000e+00    0,000000000e+00    0,000000000e+00
      198000000   -7,962243259e-02   -1,048148330e-02    1,834539026e-01    7,731293440e-01    0,000000000e+00    0,000000000e+00    0,000000000e+00    0,000000000e+00
      212000000   -6,224960089e-02    1,313744951e-02    5,691088438e-01    5,493284464e-01    0,000000000e+00    0,000000000e+00    0,000000000e+00    0,000000000e+00
      226000000   -4,324686900e-02    2,765393443e-02    7,706138492e-01    1,547005624e-01    0,000000000e+00    0,000000000e+00    0,000000000e+00    0,000000000e+00
      240000000   -1,826143824e-02    3,850478306e-02    7,269062996e-01   -2,817491889e-01    0,000000000e+00    0,000000000e+00    0,000000000e+00    0,000000000e+00
      254000000    1,716843061e-02    3,520496935e-02    4,581812620e-01   -6,201642752e-01    0,000000000e+00    0,000000000e+00    0,000000000e+00    0,000000000e+00
      268000000    4,881178588e-02    5,583677907e-03    5,880141631e-02   -7,601607442e-01    0,000000000e+00    0,000000000e+00    0,000000000e+00    0,000000000e+00
      282000000    5,341363698e-02   -4,186366871e-02   -3,488959372e-01   -6,713354588e-01    0,000000000e+00    0,000000000e+00    0,000000000e+00    0,000000000e+00
      296000000    2,407297306e-02   -7,950769365e-02   -6,515646577e-01   -3,851951361e-01    0,000000000e+00    0,000000000e+00    0,000000000e+00    0,000000000e+00
      310000000   -1,790050231e-02   -8,316560090e-02   -7,625066042e-01    2,057832293e-02    0,000000000e+00    0,000000000e+00    0,000000000e+00    0,000000000e+00
      324000000   -4,172422364e-02   -5,897794291e-02   -6,324827671e-01    4,310110807e-01    0,000000000e+00    0,000000000e+00    0,000000000e+00    0,000000000e+00
      338000000   -3,434143215e-02   -3,684031218e-02   -2,947229743e-01    7,000580430e-01    0,000000000e+00    0,000000000e+00    0,000000000e+00    0,000000000e+00
      352000000   -1,721433923e-02   -4,075797275e-02    1,252067536e-01    7,420407534e-01    0,000000000e+00    0,000000000e+00    0,000000000e+00    0,000000000e+00
      366000000   -1,918887533e-02   -6,209523976e-02    4,985003173e-01    5,544530153e-01    0,000000000e+00    0,000000000e+00    0,000000000e+00    0,000000000e+00
      380000000   -4,432360083e-02   -7,269410789e-02    7,134734988e-01    2,000335306e-01    0,000000000e+00    0,000000000e+00    0,000000000e+00    0,000000000e+00
      394000000   -7,055153698e-02   -5,799596757e-02    7,043672800e-01   -2,162331939e-01    0,000000000e+00    0,000000000e+00    0,000000000e+00    0,000000000e+00
      408000000   -7,692313939e-02   -3,018875606e-02    4,707778990e-01   -5,586312413e-01    0,000000000e+00    0,000000000e+00    0,000000000e+00    0,000000000e+00
      422000000   -6,542064995e-02   -1,090905536e-02    9,366223961e-02   -7,172101736e-01    0,000000000e+00    0,000000000e+00    0,000000000e+00    0,000000000e+00
      436000000   -5,293209478e-02   -4,367497284e-03   -3,020158410e-01   -6,469064951e-01    0,000000000e+00    0,000000000e+00    0,000000000e+00    0,000000000e+00
      450000000   -4,487323016e-02    1,522753038e-03   -5,940039754e-01   -3,786737323e-01    0,000000000e+00    0,000000000e+00    0,000000000e+00    0,000000000e+00
      464000000   -2,968595177e-02    1,156011317e-02   -6,913419962e-01    1,961274829e-04    0,000000000e+00    0,000000000e+00    0,000000000e+00    0,000000000e+00
      478000000   -1,097839442e-03    1,072481275e-02   -5,741497278e-01    3,632160127e-01    0,000000000e+00    0,000000000e+00    0,000000000e+00    0,000000000e+00
      492000000    2,793628164e-02   -1,244895533e-02   -2,888634503e-01    6,021843553e-01    0,000000000e+00    0,000000000e+00    0,000000000e+00    0,000000000e+00
      506000000    3,664287180e-02   -5,594649538e-02    6,924709678e-02    6,578747630e-01    0,000000000e+00    0,000000000e+00    0,000000000e+00    0,000000000e+00
      520000000    1,279522199e-02   -9,802556038e-02    3,996137381e-01    5,253581405e-01    0,000000000e+00    0,000000000e+00    0,000000000e+00    0,000000000e+00
      534000000   -3,417350724e-02   -1,156003475e-01    6,237540245e-01    2,360530794e-01    0,000000000e+00    0,000000000e+00    0,000000000e+00    0,000000000e+00
      548000000   -7,756624371e-02   -9,917122126e-02    6,579736471e-01   -1,334842592e-01    0,000000000e+00    0,000000000e+00    0,000000000e+00    0,000000000e+00
      562000000   -9,356687218e-02   -6,638430059e-02    4,816938043e-01   -4,666206837e-01    0,000000000e+00    0,000000000e+00    0,000000000e+00    0,000000000e+00
      576000000   -8,648035675e-02   -4,403556883e-02    1,511078477e-01   -6,477867961e-01    0,000000000e+00    0,000000000e+00    0,000000000e+00    0,000000000e+00
      590000000   -8,079763502e-02   -4,160112515e-02   -2,190773636e-01   -6,273726821e-01    0,000000000e+00    0,000000000e+00    0,000000000e+00    0,000000000e+00
      604000000   -8,900008351e-02   -3,699713945e-02   -5,189706683e-01   -4,057232141e-01    0,000000000e+00    0,000000000e+00    0,000000000e+00    0,000000000e+00
      618000000   -9,649647027e-02   -1,560617052e-02   -6,531671286e-01   -5,874300748e-02    0,000000000e+00    0,000000000e+00    0,000000000e+00    0,000000000e+00
      632000000   -8,130040020e-02    1,546876598e-02   -5,756028295e-01    3,030341566e-01    0,000000000e+00    0,000000000e+00    0,000000000e+00    0,000000000e+00
      646000000   -4,310551286e-02    2,609089389e-02   -3,185826242e-01    5,568625927e-01    0,000000000e+00    0,000000000e+00    0,000000000e+00    0,000000000e+00
      660000000   -8,072112687e-03    6,332195830e-03    2,162621543e-02    6,296324730e-01    0,000000000e+00    0,000000000e+00    0,000000000e+00    0,000000000e+00
      674000000    4,960444057e-04   -3,024228290e-02    3,425449431e-01    5,187904835e-01    0,000000000e+00    0,000000000e+00    0,000000000e+00    0,000000000e+00
      688000000   -1,427456178e-02   -5,514485016e-02    5,582414269e-01    2,587540746e-01    0,000000000e+00    0,000000000e+00    0,000000000e+00    0,000000000e+00
      702000000   -3,446258232e-02   -5,968267471e-02    6,075658202e-01   -8,039956540e-02    0,000000000e+00    0,000000000e+00    0,000000000e+00    0,000000000e+00
      716000000   -3,784356266e-02   -5,564460531e-02    4,605299532e-01   -3,900508285e-01    0,000000000e+00    0,000000000e+00    0,000000000e+00    0,000000000e+00
      730000000   -3,189722449e-02   -6,466159970e-02    1,734806895e-01   -5,668868423e-01    0,000000000e+00    0,000000000e+00    0,000000000e+00    0,000000000e+00
      744000000   -4,095312580e-02   -8,800923824e-02   -1,526622623e-01   -5,641956925e-01    0,000000000e+00    0,000000000e+00    0,000000000e+00    0,000000000e+00
      758000000   -7,278691977e-02   -1,047310233e-01   -4,268202186e-01   -3,952559233e-01    0,000000000e+00    0,000000000e+00    0,000000000e+00    0,000000000e+00
      772000000   -1,143994480e-01   -9,457609802e-02   -5,741003752e-01   -1,060371473e-01    0,000000000e+00    0,000000000e+00    0,000000000e+00    0,000000000e+00
      786000000   -1,392061412e-01   -5,659360066e-02   -5,448465943e-01    2,203761041e-01    0,000000000e+00    0,000000000e+00    0,000000000e+00    0,000000000e+00
      800000000   -1,331155300e-01   -1,435834914e-02   -3,422866762e-01    4,798121154e-01    0,000000000e+00    0,000000000e+00    0,000000000e+00    0,000000000e+00
      814000000   -1,077211574e-01    8,443564177e-03   -3,500263393e-02    5,862715244e-01    0,000000000e+00    0,000000000e+00    0,000000000e+00    0,000000000e+00
      828000000   -8,543896675e-02    1,395528391e-02    2,789750695e-01    5,142435431e-01    0,000000000e+00    0,000000000e+00    0,000000000e+00    0,000000000e+00
      842000000   -7,079541683e-02    1,547283214e-02    5,025727749e-01    2,895519137e-01    0,000000000e+00    0,000000000e+00    0,000000000e+00    0,000000000e+00
      856000000   -5,298233777e-02    1,939050108e-02    5,708329678e-01   -1,783926599e-02    0,000000000e+00    0,000000000e+00    0,000000000e+00    0,000000000e+00
      870000000   -2,315616049e-02    1,402195077e-02    4,641686678e-01   -3,069522083e-01    0,000000000e+00    0,000000000e+00    0,000000000e+00    0,000000000e+00
      884000000    5,733289756e-03   -1,418344397e-02    2,310725600e-01   -4,877583683e-01    0,000000000e+00    0,000000000e+00    0,000000000e+00    0,000000000e+00
      898000000    1,193495188e-02   -6,336621940e-02   -5,128993466e-02   -5,266126394e-01    0,000000000e+00    0,000000000e+00    0,000000000e+00    0,000000000e+00
      912000000   -2,353566326e-02   -1,084323972e-01   -3,677271307e-01   -4,011415541e-01    0,000000000e+00    0,000000000e+00    0,000000000e+00    0,000000000e+00
      926000000   -7,694529742e-02   -1,252121776e-01   -5,324401259e-01   -1,578784883e-01    0,000000000e+00    0,000000000e+00    0,000000000e+00    0,000000000e+00
      940000000   -1,245819107e-01   -1,047869027e-01   -5,533479452e-01    1,546629071e-01    0,000000000e+00    0,000000000e+00    0,000000000e+00    0,000000000e+00
      954000000   -1,407920271e-01   -6,343322992e-02   -3,923749030e-01    4,444881976e-01    0,000000000e+00    0,000000000e+00    0,000000000e+00    0,000000000e+00
      968000000   -1,314018667e-01   -3,011198342e-02   -9,174259007e-02    6,038262248e-01    0,000000000e+00    0,000000000e+00    0,000000000e+00    0,000000000e+00
      982000000   -1,122894883e-01   -1,459689904e-02    2,466202527e-01    5,723689198e-01    0,000000000e+00    0,000000000e+00    0,000000000e+00    0,000000000e+00
      996000000   -1,069424972e-01   -1,622346230e-02    5,135505199e-01    3,646091819e-01    0,000000000e+00    0,000000000e+00    0,000000000e+00    0,000000000e+00
     1010000000   -1,035284773e-01   -6,219427567e-03    6,305578351e-01    5,113155395e-02    0,000000000e+00    0,000000000e+00    0,000000000e+00    0,000000000e+00
     1024000000   -8,964648098e-02   -1,823256374e-03    5,620042682e-01   -2,709837258e-01    0,000000000e+00    0,000000000e+00    0,000000000e+00    0,000000000e+00
     1038000000   -7,378558815e-02    5,341290962e-04    3,378743231e-01   -5,040077567e-01    0,000000000e+00    0,000000000e+00    0,000000000e+00    0,000000000e+00
     1052000000   -6,388927996e-02   -1,280068979e-02    3,273315728e-02   -5,861477852e-01    0,000000000e+00    0,000000000e+00    0,000000000e+00    0,000000000e+00
     1066000000   -7,036685199e-02   -2,764846198e-02   -2,714521587e-01   -5,008381009e-01    0,000000000e+00    0,000000000e+00    0,000000000e+00    0,000000000e+00
     1080000000   -7,935715467e-02   -3,293507919e-02   -4,805967212e-01   -2,716543674e-01    0,000000000e+00    0,000000000e+00    0,000000000e+00    0,000000000e+00
     1094000000   -8,456494659e-02   -1,673688740e-02   -5,298715830e-01    4,250618443e-02    0,000000000e+00    0,000000000e+00    0,000000000e+00    0,000000000e+00
     1108000000   -5,681568384e-02   -9,828269482e-03   -3,993608057e-01    3,278377354e-01    0,000000000e+00    0,000000000e+00    0,000000000e+00    0,000000000e+00
     1122000000   -2,907304838e-02   -3,769631684e-02   -1,364826262e-01    4,804474413e-01    0,000000000e+00    0,000000000e+00    0,000000000e+00    0,000000000e+00
     1136000000   -2,345507592e-02   -8,573999256e-02    1,632802933e-01    4,714329243e-01    0,000000000e+00    0,000000000e+00    0,000000000e+00    0,000000000e+00
     1150000000   -6,534244120e-02   -1,317932606e-01    4,207174480e-01    3,118551672e-01    0,000000000e+00    0,000000000e+00    0,000000000e+00    0,000000000e+00
     1164000000   -1,378642172e-01   -1,506890059e-01    5,638819933e-01    2,854745463e-02    0,000000000e+00    0,000000000e+00    0,000000000e+00    0,000000000e+00
     1178000000   -2,142919004e-01   -1,174911857e-01    5,346552134e-01   -3,151784241e-01    0,000000000e+00    0,000000000e+00    0,000000000e+00    0,000000000e+00
     1192000000   -2,443274707e-01   -4,097809270e-02    2,964390516e-01   -5,972129703e-01    0,000000000e+00    0,000000000e+00    0,000000000e+00    0,000000000e+00
     1206000000   -2,321424633e-01    2,849049121e-02   -7,041188329e-02   -7,002153993e-01    0,000000000e+00    0,000000000e+00    0,000000000e+00    0,000000000e+00
     1220000000   -1,901990175e-01    8,495780826e-02   -4,249233603e-01   -5,742356777e-01    0,000000000e+00    0,000000000e+00    0,000000000e+00    0,000000000e+00
     1234000000   -1,245564967e-01    1,045210436e-01   -6,449192166e-01   -2,904221714e-01    0,000000000e+00    0,000000000e+00    0,000000000e+00    0,000000000e+00
     1248000000   -6,787675619e-02    9,433960915e-02   -6,755818129e-01    6,220548600e-02    0,000000000e+00    0,000000000e+00    0,000000000e+00    0,000000000e+00
     1262000000   -1,166586298e-02    6,005166098e-02   -5,189408064e-01    3,643150926e-01    0,000000000e+00    0,000000000e+00    0,000000000e+00    0,000000000e+00
     1276000000    2,138209529e-02   -3,470187308e-03   -2,464437187e-01    5,439015031e-01    0,000000000e+00    0,000000000e+00    0,000000000e+00    0,000000000e+00
     1290000000    2,177252807e-02   -8,714164048e-02    6,568510085e-02    5,752710700e-01    0,000000000e+00    0,000000000e+00    0,000000000e+00    0,000000000e+00
     1304000000   -3,145321831e-02   -1,716119796e-01    3,664905429e-01    4,619691372e-01    0,000000000e+00    0,000000000e+00    0,000000000e+00    0,000000000e+00
     1318000000   -1,301735044e-01   -2,135342062e-01    5,875927806e-01    2,202147692e-01    0,000000000e+00    0,000000000e+00    0,000000000e+00    0,000000000e+00
     1332000000   -2,556953728e-01   -1,921871752e-01    6,506174803e-01   -1,305542439e-01    0,000000000e+00    0,000000000e+00    0,000000000e+00    0,000000000e+00
     1346000000   -3,355655968e-01   -8,755768836e-02    5,053873658e-01   -4,612351358e-01    0,000000000e+00    0,000000000e+00    0,000000000e+00    0,000000000e+00
     1360000000   -3,331930637e-01    2,464619838e-02    1,901773214e-01   -6,455098391e-01    0,000000000e+00    0,000000000e+00    0,000000000e+00    0,000000000e+00
     1374000000   -2,832640409e-01    1,002937332e-01   -1,633765101e-01   -6,101357937e-01    0,000000000e+00    0,000000000e+00    0,000000000e+00    0,000000000e+00
     1388000000   -2,142043412e-01    1,410770118e-01   -4,084523618e-01   -3,715547323e-01    0,000000000e+00    0,000000000e+00    0,000000000e+00    0,000000000e+00
     1402000000   -1,539445519e-01    1,399033666e-01   -4,834140539e-01   -5,868903548e-02    0,000000000e+00    0,000000000e+00    0,000000000e+00    0,000000000e+00
     1416000000   -9,803093225e-02    1,160859242e-01   -3,802000880e-01    2,426902056e-01    0,000000000e+00    0,000000000e+00    0,000000000e+00    0,000000000e+00
     1430000000   -5,273079500e-02    7,419312000e-02   -1,462253481e-01    4,790914059e-01    0,000000000e+00    0,000000000e+00    0,000000000e+00    0,000000000e+00
     1444000000   -4,418104514e-02    5,602840800e-03    1,571868211e-01    5,365030766e-01    0,000000000e+00    0,000000000e+00    0,000000000e+00    0,000000000e+00
     1458000000   -6,831541657e-02   -7,145708799e-02    4,732203186e-01    4,720023870e-01    0,000000000e+00    0,000000000e+00    0,000000000e+00    0,000000000e+00
     1472000000   -1,367364377e-01   -1,177859530e-01    7,656366229e-01    2,704046369e-01    0,000000000e+00    0,000000000e+00    0,000000000e+00    0,000000000e+00
     1486000000   -2,334520072e-01   -1,170241907e-01    8,894439340e-01   -7,906057686e-02    0,000000000e+00    0,000000000e+00    0,000000000e+00    0,000000000e+00
     1500000000   -2,862688899e-01   -3,873376176e-02    8,099002242e-01   -4,480035603e-01    0,000000000e+00    0,000000000e+00    0,000000000e+00    0,000000000e+00
