! NanoVNA-App
! Date: 2025-09-25 15:09:42
! Start: 100MHz Stop: 1,5GHz Points: 101
! S-Parameter data: F S11 S21 S12 S22
# Hz S RI R 50
!     Frequency           S11_Real           S11_Imag           S21_Real           S21_Imag           S12_Real           S12_Imag           S22_Real           S22_Imag
      100000000    3,115909733e-02    2,864942513e-02    4,349009693e-01   -6,686490178e-01    0,000000000e+00    0,000000000e+00    0,000000000e+00    0,000000000e+00
      114000000    5,759245157e-02    5,522702355e-03    7,727779914e-03   -7,910582423e-01    0,000000000e+00    0,000000000e+00    0,000000000e+00    0,000000000e+00
      128000000    6,726431847e-02   -3,788421303e-02   -4,102947116e-01   -6,710480452e-01    0,000000000e+00    0,000000000e+00    0,000000000e+00    0,000000000e+00
      142000000    4,473550245e-02   -8,423635364e-02   -7,028834224e-01   -3,530480266e-01    0,000000000e+00    0,000000000e+00    0,000000000e+00    0,000000000e+00
      156000000   -5,958014634e-03   -1,058671772e-01   -7,860682607e-01    7,255909592e-02    0,000000000e+00    0,000000000e+00    0,000000000e+00    0,000000000e+00
      170000000   -5,768025666e-02   -9,069428593e-02   -6,276827455e-01    4,870842695e-01    0,000000000e+00    0,000000000e+00    0,000000000e+00    0,000000000e+00
      184000000   -8,370692283e-02   -4,947161302e-02   -2,651321292e-01    7,509365678e-01    0,000000000e+00    0,000000000e+00    0,000000000e+00    0,000000000e+00
      198000000   -7,963479310e-02   -1,047209278e-02    1,831325591e-01    7,732046843e-01    0,000000000e+00    0,000000000e+00    0,000000000e+00    0,000000000e+00
      212000000   -6,230841950e-02    1,315860823e-02    5,690950751e-01    5,489935875e-01    0,000000000e+00    0,000000000e+00    0,000000000e+00    0,000000000e+00
      226000000   -4,335240275e-02    2,767435834e-02    7,706983089e-01    1,545198560e-01    0,000000000e+00    0,000000000e+00    0,000000000e+00    0,000000000e+00
      240000000   -1,825133339e-02    3,847929090e-02    7,267797589e-01   -2,819256783e-01    0,000000000e+00    0,000000000e+00    0,000000000e+00    0,000000000e+00
      254000000    1,718929410e-02    3,522211313e-02    4,580581486e-01   -6,201043725e-01    0,000000000e+00    0,000000000e+00    0,000000000e+00    0,000000000e+00
      268000000    4,875269532e-02    5,584307946e-03    5,875787511e-02   -7,600865960e-01    0,000000000e+00    0,000000000e+00    0,000000000e+00    0,000000000e+00
      282000000    5,346244574e-02   -4,175858945e-02   -3,489295840e-01   -6,714681983e-01    0,000000000e+00    0,000000000e+00    0,000000000e+00    0,000000000e+00
      296000000    2,398657426e-02   -7,942570746e-02   -6,516721249e-01   -3,854644299e-01    0,000000000e+00    0,000000000e+00    0,000000000e+00    0,000000000e+00
      310000000   -1,770140417e-02   -8,324425668e-02   -7,631045580e-01    1,924441569e-02    0,000000000e+00    0,000000000e+00    0,000000000e+00    0,000000000e+00
      324000000   -4,154758155e-02   -5,901970714e-02   -6,330831051e-01    4,305762351e-01    0,000000000e+00    0,000000000e+00    0,000000000e+00    0,000000000e+00
      338000000   -3,437671065e-02   -3,707116097e-02   -2,977178395e-01    7,024917603e-01    0,000000000e+00    0,000000000e+00    0,000000000e+00    0,000000000e+00
      352000000   -1,741411351e-02   -4,078623280e-02    1,251056790e-01    7,433677316e-01    0,000000000e+00    0,000000000e+00    0,000000000e+00    0,000000000e+00
      366000000   -1,925414242e-02   -6,207031012e-02    4,976493120e-01    5,546771884e-01    0,000000000e+00    0,000000000e+00    0,000000000e+00    0,000000000e+00
      380000000   -4,422463477e-02   -7,254170626e-02    7,132734060e-01    1,997930408e-01    0,000000000e+00    0,000000000e+00    0,000000000e+00    0,000000000e+00
      394000000   -7,070174813e-02   -5,800612271e-02    7,047158480e-01   -2,166248560e-01    0,000000000e+00    0,000000000e+00    0,000000000e+00    0,000000000e+00
      408000000   -7,719008625e-02   -3,023603931e-02    4,707127810e-01   -5,584834218e-01    0,000000000e+00    0,000000000e+00    0,000000000e+00    0,000000000e+00
      422000000   -6,520657986e-02   -1,114931796e-02    9,258158505e-02   -7,175014615e-01    0,000000000e+00    0,000000000e+00    0,000000000e+00    0,000000000e+00
      436000000   -5,306883529e-02   -4,538358189e-03   -3,018889725e-01   -6,476066709e-01    0,000000000e+00    0,000000000e+00    0,000000000e+00    0,000000000e+00
      450000000   -4,442810267e-02    1,630051760e-03   -5,923160315e-01   -3,782229125e-01    0,000000000e+00    0,000000000e+00    0,000000000e+00    0,000000000e+00
      464000000   -2,949519455e-02    1,155985799e-02   -6,914030910e-01    1,218315738e-04    0,000000000e+00    0,000000000e+00    0,000000000e+00    0,000000000e+00
      478000000   -9,994902648e-04    1,091738045e-02   -5,729270577e-01    3,630446196e-01    0,000000000e+00    0,000000000e+00    0,000000000e+00    0,000000000e+00
      492000000    2,787817083e-02   -1,256570593e-02   -2,890618145e-01    6,015912294e-01    0,000000000e+00    0,000000000e+00    0,000000000e+00    0,000000000e+00
      506000000    3,667690605e-02   -5,583929643e-02    6,914710253e-02    6,582081914e-01    0,000000000e+00    0,000000000e+00    0,000000000e+00    0,000000000e+00
      520000000    1,212921739e-02   -9,820798784e-02    3,992376626e-01    5,243691206e-01    0,000000000e+00    0,000000000e+00    0,000000000e+00    0,000000000e+00
      534000000   -3,423699364e-02   -1,157841459e-01    6,236824989e-01    2,367331684e-01    0,000000000e+00    0,000000000e+00    0,000000000e+00    0,000000000e+00
      548000000   -7,716295868e-02   -9,900593013e-02    6,582767367e-01   -1,332891136e-01    0,000000000e+00    0,000000000e+00    0,000000000e+00    0,000000000e+00
      562000000   -9,358651936e-02   -6,653878838e-02    4,823723137e-01   -4,662607312e-01    0,000000000e+00    0,000000000e+00    0,000000000e+00    0,000000000e+00
      576000000   -8,630064130e-02   -4,461232200e-02    1,502851993e-01   -6,489313245e-01    0,000000000e+00    0,000000000e+00    0,000000000e+00    0,000000000e+00
      590000000   -8,081542701e-02   -4,177377746e-02   -2,194958180e-01   -6,291944981e-01    0,000000000e+00    0,000000000e+00    0,000000000e+00    0,000000000e+00
      604000000   -8,883598447e-02   -3,735513240e-02   -5,193777680e-01   -4,062120914e-01    0,000000000e+00    0,000000000e+00    0,000000000e+00    0,000000000e+00
      618000000   -9,703791142e-02   -1,510349661e-02   -6,533346772e-01   -5,823516101e-02    0,000000000e+00    0,000000000e+00    0,000000000e+00    0,000000000e+00
      632000000   -8,112570643e-02    1,476334967e-02   -5,751246810e-01    3,022796810e-01    0,000000000e+00    0,000000000e+00    0,000000000e+00    0,000000000e+00
      646000000   -4,293639213e-02    2,669375576e-02   -3,185851574e-01    5,553047061e-01    0,000000000e+00    0,000000000e+00    0,000000000e+00    0,000000000e+00
      660000000   -7,028439082e-03    6,108237430e-03    2,318499796e-02    6,306244731e-01    0,000000000e+00    0,000000000e+00    0,000000000e+00    0,000000000e+00
      674000000    1,338668400e-03   -2,930980921e-02    3,420775831e-01    5,185664296e-01    0,000000000e+00    0,000000000e+00    0,000000000e+00    0,000000000e+00
      688000000   -1,425865851e-02   -5,589273944e-02    5,590026975e-01    2,585286498e-01    0,000000000e+00    0,000000000e+00    0,000000000e+00    0,000000000e+00
      702000000   -3,313523531e-02   -5,927005410e-02    6,075948477e-01   -7,881843299e-02    0,000000000e+00    0,000000000e+00    0,000000000e+00    0,000000000e+00
      716000000   -3,676668927e-02   -5,528548360e-02    4,594064653e-01   -3,898706138e-01    0,000000000e+00    0,000000000e+00    0,000000000e+00    0,000000000e+00
      730000000   -3,188840300e-02   -6,443222612e-02    1,738582850e-01   -5,660799146e-01    0,000000000e+00    0,000000000e+00    0,000000000e+00    0,000000000e+00
      744000000   -4,061900452e-02   -8,797898144e-02   -1,524966955e-01   -5,634522438e-01    0,000000000e+00    0,000000000e+00    0,000000000e+00    0,000000000e+00
      758000000   -7,174293697e-02   -1,046330407e-01   -4,268569350e-01   -3,943709433e-01    0,000000000e+00    0,000000000e+00    0,000000000e+00    0,000000000e+00
      772000000   -1,137196720e-01   -9,329766035e-02   -5,742225647e-01   -1,058984548e-01    0,000000000e+00    0,000000000e+00    0,000000000e+00    0,000000000e+00
      786000000   -1,392038912e-01   -5,568886548e-02   -5,446688533e-01    2,212481201e-01    0,000000000e+00    0,000000000e+00    0,000000000e+00    0,000000000e+00
      800000000   -1,322471946e-01   -1,477315743e-02   -3,421906531e-01    4,804307222e-01    0,000000000e+00    0,000000000e+00    0,000000000e+00    0,000000000e+00
      814000000   -1,088323966e-01    7,741801441e-03   -3,448759392e-02    5,860555768e-01    0,000000000e+00    0,000000000e+00    0,000000000e+00    0,000000000e+00
      828000000   -8,519338816e-02    1,278947294e-02    2,785682082e-01    5,141032934e-01    0,000000000e+00    0,000000000e+00    0,000000000e+00    0,000000000e+00
      842000000   -7,106179744e-02    1,491781604e-02    5,026467443e-01    2,891259789e-01    0,000000000e+00    0,000000000e+00    0,000000000e+00    0,000000000e+00
      856000000   -5,288985744e-02    1,895279251e-02    5,706341863e-01   -1,771553420e-02    0,000000000e+00    0,000000000e+00    0,000000000e+00    0,000000000e+00
      870000000   -2,305325121e-02    1,508165430e-02    4,638007879e-01   -3,066855669e-01    0,000000000e+00    0,000000000e+00    0,000000000e+00    0,000000000e+00
      884000000    5,684901960e-03   -1,411327627e-02    2,311273068e-01   -4,890747666e-01    0,000000000e+00    0,000000000e+00    0,000000000e+00    0,000000000e+00
      898000000    1,175085548e-02   -6,384269893e-02   -5,123949051e-02   -5,256409645e-01    0,000000000e+00    0,000000000e+00    0,000000000e+00    0,000000000e+00
      912000000   -2,401712909e-02   -1,085864753e-01   -3,682499528e-01   -4,036705196e-01    0,000000000e+00    0,000000000e+00    0,000000000e+00    0,000000000e+00
      926000000   -7,584284991e-02   -1,249109656e-01   -5,322637558e-01   -1,588310897e-01    0,000000000e+00    0,000000000e+00    0,000000000e+00    0,000000000e+00
      940000000   -1,237648502e-01   -1,010876745e-01   -5,515021682e-01    1,566770673e-01    0,000000000e+00    0,000000000e+00    0,000000000e+00    0,000000000e+00
      954000000   -1,445297599e-01   -5,964180082e-02   -3,928894699e-01    4,463443160e-01    0,000000000e+00    0,000000000e+00    0,000000000e+00    0,000000000e+00
      968000000   -1,336497962e-01   -2,991563641e-02   -9,260727465e-02    5,992491841e-01    0,000000000e+00    0,000000000e+00    0,000000000e+00    0,000000000e+00
      982000000   -1,136694551e-01   -1,807228662e-02    2,465636432e-01    5,719192028e-01    0,000000000e+00    0,000000000e+00    0,000000000e+00    0,000000000e+00
      996000000   -1,092694029e-01   -1,382766105e-02    5,117559433e-01    3,657732010e-01    0,000000000e+00    0,000000000e+00    0,000000000e+00    0,000000000e+00
     1010000000   -1,015254855e-01   -5,382366013e-03    6,296305060e-01    5,222534761e-02    0,000000000e+00    0,000000000e+00    0,000000000e+00    0,000000000e+00
     1024000000   -8,981201053e-02   -1,389755169e-03    5,611904263e-01   -2,703458369e-01    0,000000000e+00    0,000000000e+00    0,000000000e+00    0,000000000e+00
     1038000000   -7,828951627e-02   -2,702262020e-03    3,366990685e-01   -5,024936199e-01    0,000000000e+00    0,000000000e+00    0,000000000e+00    0,000000000e+00
     1052000000   -6,429810822e-02   -1,248122659e-02    3,380243108e-02   -5,850791931e-01    0,000000000e+00    0,000000000e+00    0,000000000e+00    0,000000000e+00
     1066000000   -6,798485667e-02   -3,200669959e-02   -2,636700869e-01   -4,995905757e-01    0,000000000e+00    0,000000000e+00    0,000000000e+00    0,000000000e+00
     1080000000   -8,382183313e-02   -3,245576471e-02   -4,781657457e-01   -2,723491192e-01    0,000000000e+00    0,000000000e+00    0,000000000e+00    0,000000000e+00
     1094000000   -8,026533574e-02   -1,910800673e-02   -5,351475477e-01    4,030401632e-02    0,000000000e+00    0,000000000e+00    0,000000000e+00    0,000000000e+00
     1108000000   -5,809843540e-02   -1,317052357e-02   -3,990416229e-01    3,244625628e-01    0,000000000e+00    0,000000000e+00    0,000000000e+00    0,000000000e+00
     1122000000   -3,287522867e-02   -3,593875095e-02   -1,350354850e-01    4,818527102e-01    0,000000000e+00    0,000000000e+00    0,000000000e+00    0,000000000e+00
     1136000000   -2,900454029e-02   -8,944898844e-02    1,634957194e-01    4,726736546e-01    0,000000000e+00    0,000000000e+00    0,000000000e+00    0,000000000e+00
     1150000000   -6,696849316e-02   -1,319470555e-01    4,191692173e-01    3,130753040e-01    0,000000000e+00    0,000000000e+00    0,000000000e+00    0,000000000e+00
     1164000000   -1,327133477e-01   -1,537092626e-01    5,613722205e-01    2,850471437e-02    0,000000000e+00    0,000000000e+00    0,000000000e+00    0,000000000e+00
     1178000000   -2,134561092e-01   -1,205964610e-01    5,351807475e-01   -3,152591884e-01    0,000000000e+00    0,000000000e+00    0,000000000e+00    0,000000000e+00
     1192000000   -2,502048910e-01   -3,872496635e-02    2,972852886e-01   -5,984430909e-01    0,000000000e+00    0,000000000e+00    0,000000000e+00    0,000000000e+00
     1206000000   -2,371194214e-01    3,341339901e-02   -6,949034333e-02   -6,989995241e-01    0,000000000e+00    0,000000000e+00    0,000000000e+00    0,000000000e+00
     1220000000   -1,881900877e-01    8,207483590e-02   -4,176343679e-01   -5,788320899e-01    0,000000000e+00    0,000000000e+00    0,000000000e+00    0,000000000e+00
     1234000000   -1,257878095e-01    1,001811251e-01   -6,434460878e-01   -2,936600149e-01    0,000000000e+00    0,000000000e+00    0,000000000e+00    0,000000000e+00
     1248000000   -7,092980295e-02    9,735313058e-02   -6,790875196e-01    6,698907167e-02    0,000000000e+00    0,000000000e+00    0,000000000e+00    0,000000000e+00
     1262000000   -9,830102324e-03    6,273562461e-02   -5,164238811e-01    3,683747053e-01    0,000000000e+00    0,000000000e+00    0,000000000e+00    0,000000000e+00
     1276000000    2,318631858e-02   -3,435449442e-03   -2,413830757e-01    5,422822833e-01    0,000000000e+00    0,000000000e+00    0,000000000e+00    0,000000000e+00
     1290000000    2,430379391e-02   -9,122403711e-02    7,205075771e-02    5,744987130e-01    0,000000000e+00    0,000000000e+00    0,000000000e+00    0,000000000e+00
     1304000000   -3,727370873e-02   -1,705776453e-01    3,632634580e-01    4,670634270e-01    0,000000000e+00    0,000000000e+00    0,000000000e+00    0,000000000e+00
     1318000000   -1,340719610e-01   -2,188885659e-01    5,874181986e-01    2,173694670e-01    0,000000000e+00    0,000000000e+00    0,000000000e+00    0,000000000e+00
     1332000000   -2,547455430e-01   -1,869395673e-01    6,540780067e-01   -1,230327860e-01    0,000000000e+00    0,000000000e+00    0,000000000e+00    0,000000000e+00
     1346000000   -3,285135329e-01   -8,551666886e-02    5,160596967e-01   -4,553001225e-01    0,000000000e+00    0,000000000e+00    0,000000000e+00    0,000000000e+00
     1360000000   -3,346841037e-01    2,766869590e-02    1,964515597e-01   -6,340166926e-01    0,000000000e+00    0,000000000e+00    0,000000000e+00    0,000000000e+00
     1374000000   -2,823022604e-01    1,083496734e-01   -1,606631279e-01   -6,027301550e-01    0,000000000e+00    0,000000000e+00    0,000000000e+00    0,000000000e+00
     1388000000   -2,173449993e-01    1,359153241e-01   -4,136244059e-01   -3,800888062e-01    0,000000000e+00    0,000000000e+00    0,000000000e+00    0,000000000e+00
     1402000000   -1,468900591e-01    1,398741007e-01   -4,874822199e-01   -5,579385534e-02    0,000000000e+00    0,000000000e+00    0,000000000e+00    0,000000000e+00
     1416000000   -9,606830031e-02    1,206720546e-01   -3,854904771e-01    2,430908531e-01    0,000000000e+00    0,000000000e+00    0,000000000e+00    0,000000000e+00
     1430000000   -4,994090647e-02    7,450091094e-02   -1,477122903e-01    4,413071573e-01    0,000000000e+00    0,000000000e+00    0,000000000e+00    0,000000000e+00
     1444000000   -3,583410010e-02    7,733434322e-04    1,687149704e-01    5,292277932e-01    0,000000000e+00    0,000000000e+00    0,000000000e+00    0,000000000e+00
     1458000000   -6,639920175e-02   -7,724124193e-02    4,746973515e-01    4,690802693e-01    0,000000000e+00    0,000000000e+00    0,000000000e+00    0,000000000e+00
     1472000000   -1,307379454e-01   -1,220864952e-01    7,534202337e-01    2,598036826e-01    0,000000000e+00    0,000000000e+00    0,000000000e+00    0,000000000e+00
     1486000000   -2,312698513e-01   -1,161656678e-01    8,849374056e-01   -7,916887105e-02    0,000000000e+00    0,000000000e+00    0,000000000e+00    0,000000000e+00
     1500000000   -2,838447988e-01   -4,481234029e-02    8,064311147e-01   -4,443329871e-01    0,000000000e+00    0,000000000e+00    0,000000000e+00    0,000000000e+00
