! NanoVNA-App
! Date: 2025-09-25 15:06:10
! Start: 100MHz Stop: 1,5GHz Points: 101
! S-Parameter data: F S11 S21 S12 S22
# Hz S RI R 50
!     Frequency           S11_Real           S11_Imag           S21_Real           S21_Imag           S12_Real           S12_Imag           S22_Real           S22_Imag
      100000000    3,115729801e-02    2,866244316e-02    4,348810315e-01   -6,687075496e-01    0,000000000e+00    0,000000000e+00    0,000000000e+00    0,000000000e+00
      114000000    5,757136270e-02    5,510817282e-03    7,693252526e-03   -7,909876704e-01    0,000000000e+00    0,000000000e+00    0,000000000e+00    0,000000000e+00
      128000000    6,727890670e-02   -3,779968247e-02   -4,105013311e-01   -6,711258292e-01    0,000000000e+00    0,000000000e+00    0,000000000e+00    0,000000000e+00
      142000000    4,471293092e-02   -8,420179784e-02   -7,028773427e-01   -3,531947434e-01    0,000000000e+00    0,000000000e+00    0,000000000e+00    0,000000000e+00
      156000000   -5,481676664e-03   -1,070166305e-01   -7,873284817e-01    7,410300523e-02    0,000000000e+00    0,000000000e+00    0,000000000e+00    0,000000000e+00
      170000000   -5,765162408e-02   -9,058208764e-02   -6,276950836e-01    4,870823026e-01    0,000000000e+00    0,000000000e+00    0,000000000e+00    0,000000000e+00
      184000000   -8,373253047e-02   -4,941002652e-02   -2,648551762e-01    7,507250309e-01    0,000000000e+00    0,000000000e+00    0,000000000e+00    0,000000000e+00
      198000000   -7,965522259e-02   -1,045851689e-02    1,834216714e-01    7,733410001e-01    0,000000000e+00    0,000000000e+00    0,000000000e+00    0,000000000e+00
      212000000   -6,223092973e-02    1,316406578e-02    5,691188574e-01    5,490294695e-01    0,000000000e+00    0,000000000e+00    0,000000000e+00    0,000000000e+00
      226000000   -4,324787855e-02    2,774221823e-02    7,707371116e-01    1,544412374e-01    0,000000000e+00    0,000000000e+00    0,000000000e+00    0,000000000e+00
      240000000   -1,821289212e-02    3,853177279e-02    7,267537713e-01   -2,821102440e-01    0,000000000e+00    0,000000000e+00    0,000000000e+00    0,000000000e+00
      254000000    1,719808765e-02    3,516500071e-02    4,578152597e-01   -6,202330589e-01    0,000000000e+00    0,000000000e+00    0,000000000e+00    0,000000000e+00
      268000000    4,873753712e-02    5,612890236e-03    5,861110613e-02   -7,604635358e-01    0,000000000e+00    0,000000000e+00    0,000000000e+00    0,000000000e+00
      282000000    5,346410349e-02   -4,176603630e-02   -3,491597772e-01   -6,717824340e-01    0,000000000e+00    0,000000000e+00    0,000000000e+00    0,000000000e+00
      296000000    2,401926555e-02   -7,950031012e-02   -6,522507071e-01   -3,856013715e-01    0,000000000e+00    0,000000000e+00    0,000000000e+00    0,000000000e+00
      310000000   -1,788380183e-02   -8,321234584e-02   -7,630211115e-01    1,928736828e-02    0,000000000e+00    0,000000000e+00    0,000000000e+00    0,000000000e+00
      324000000   -4,162170738e-02   -5,883150548e-02   -6,309153438e-01    4,308804572e-01    0,000000000e+00    0,000000000e+00    0,000000000e+00    0,000000000e+00
      338000000   -3,410765901e-02   -3,681106865e-02   -2,968029976e-01    7,028456330e-01    0,000000000e+00    0,000000000e+00    0,000000000e+00    0,000000000e+00
      352000000   -1,767709665e-02   -4,073288292e-02    1,252863854e-01    7,424271107e-01    0,000000000e+00    0,000000000e+00    0,000000000e+00    0,000000000e+00
      366000000   -1,906351373e-02   -6,187760085e-02    4,983069897e-01    5,543955564e-01    0,000000000e+00    0,000000000e+00    0,000000000e+00    0,000000000e+00
      380000000   -4,428363591e-02   -7,263807952e-02    7,128733993e-01    1,998959035e-01    0,000000000e+00    0,000000000e+00    0,000000000e+00    0,000000000e+00
      394000000   -7,090314478e-02   -5,829355493e-02    7,033272982e-01   -2,165103704e-01    0,000000000e+00    0,000000000e+00    0,000000000e+00    0,000000000e+00
      408000000   -7,698080689e-02   -3,052834608e-02    4,708495140e-01   -5,597038865e-01    0,000000000e+00    0,000000000e+00    0,000000000e+00    0,000000000e+00
      422000000   -6,548153609e-02   -1,120889280e-02    9,300675988e-02   -7,171847224e-01    0,000000000e+00    0,000000000e+00    0,000000000e+00    0,000000000e+00
      436000000   -5,307357758e-02   -4,513808060e-03   -3,025214076e-01   -6,468500495e-01    0,000000000e+00    0,000000000e+00    0,000000000e+00    0,000000000e+00
      450000000   -4,494881630e-02    1,751152100e-03   -5,930906534e-01   -3,776047528e-01    0,000000000e+00    0,000000000e+00    0,000000000e+00    0,000000000e+00
      464000000   -2,964993939e-02    1,147369854e-02   -6,912950873e-01   -8,958841499e-05    0,000000000e+00    0,000000000e+00    0,000000000e+00    0,000000000e+00
      478000000   -9,349323809e-04    1,091122441e-02   -5,731032491e-01    3,629883230e-01    0,000000000e+00    0,000000000e+00    0,000000000e+00    0,000000000e+00
      492000000    2,768238261e-02   -1,263531484e-02   -2,893522084e-01    6,018129587e-01    0,000000000e+00    0,000000000e+00    0,000000000e+00    0,000000000e+00
      506000000    3,677881509e-02   -5,584387854e-02    6,880849600e-02    6,579675078e-01    0,000000000e+00    0,000000000e+00    0,000000000e+00    0,000000000e+00
      520000000    1,364784781e-02   -9,911602736e-02    4,055489004e-01    5,295789838e-01    0,000000000e+00    0,000000000e+00    0,000000000e+00    0,000000000e+00
      534000000   -3,406400606e-02   -1,160448045e-01    6,248343587e-01    2,363227755e-01    0,000000000e+00    0,000000000e+00    0,000000000e+00    0,000000000e+00
      548000000   -7,731387764e-02   -9,924890846e-02    6,579484940e-01   -1,337512583e-01    0,000000000e+00    0,000000000e+00    0,000000000e+00    0,000000000e+00
      562000000   -9,314043820e-02   -6,632190198e-02    4,821886718e-01   -4,672630727e-01    0,000000000e+00    0,000000000e+00    0,000000000e+00    0,000000000e+00
      576000000   -8,605178446e-02   -4,399473593e-02    1,505305767e-01   -6,476975679e-01    0,000000000e+00    0,000000000e+00    0,000000000e+00    0,000000000e+00
      590000000   -8,067709953e-02   -4,154348001e-02   -2,176665664e-01   -6,289498806e-01    0,000000000e+00    0,000000000e+00    0,000000000e+00    0,000000000e+00
      604000000   -8,890242130e-02   -3,717051819e-02   -5,199801326e-01   -4,060128331e-01    0,000000000e+00    0,000000000e+00    0,000000000e+00    0,000000000e+00
      618000000   -9,641625732e-02   -1,581055112e-02   -6,532303691e-01   -5,868305266e-02    0,000000000e+00    0,000000000e+00    0,000000000e+00    0,000000000e+00
      632000000   -8,075177670e-02    1,462237258e-02   -5,754877329e-01    3,029240370e-01    0,000000000e+00    0,000000000e+00    0,000000000e+00    0,000000000e+00
      646000000   -4,328611493e-02    2,596440725e-02   -3,189745545e-01    5,563530326e-01    0,000000000e+00    0,000000000e+00    0,000000000e+00    0,000000000e+00
      660000000   -8,010070771e-03    6,548490841e-03    2,113298886e-02    6,285452843e-01    0,000000000e+00    0,000000000e+00    0,000000000e+00    0,000000000e+00
      674000000    6,288781296e-04   -2,950002067e-02    3,425840139e-01    5,190522671e-01    0,000000000e+00    0,000000000e+00    0,000000000e+00    0,000000000e+00
      688000000   -1,536170673e-02   -5,486610159e-02    5,591772199e-01    2,581172884e-01    0,000000000e+00    0,000000000e+00    0,000000000e+00    0,000000000e+00
      702000000   -3,369906917e-02   -5,896856636e-02    6,049536467e-01   -8,141910285e-02    0,000000000e+00    0,000000000e+00    0,000000000e+00    0,000000000e+00
      716000000   -3,729070351e-02   -5,624916777e-02    4,595523179e-01   -3,897773623e-01    0,000000000e+00    0,000000000e+00    0,000000000e+00    0,000000000e+00
      730000000   -3,202175349e-02   -6,427085400e-02    1,747992635e-01   -5,669475794e-01    0,000000000e+00    0,000000000e+00    0,000000000e+00    0,000000000e+00
      744000000   -3,952046856e-02   -8,830214292e-02   -1,524711996e-01   -5,640447736e-01    0,000000000e+00    0,000000000e+00    0,000000000e+00    0,000000000e+00
      758000000   -7,194764167e-02   -1,045543477e-01   -4,277811050e-01   -3,942688406e-01    0,000000000e+00    0,000000000e+00    0,000000000e+00    0,000000000e+00
      772000000   -1,131965891e-01   -9,383453429e-02   -5,742612481e-01   -1,058422551e-01    0,000000000e+00    0,000000000e+00    0,000000000e+00    0,000000000e+00
      786000000   -1,392857432e-01   -5,676662177e-02   -5,448093414e-01    2,209428996e-01    0,000000000e+00    0,000000000e+00    0,000000000e+00    0,000000000e+00
      800000000   -1,333450824e-01   -1,395437494e-02   -3,418841362e-01    4,794296622e-01    0,000000000e+00    0,000000000e+00    0,000000000e+00    0,000000000e+00
      814000000   -1,087269485e-01    8,567648008e-03   -3,419122472e-02    5,851517916e-01    0,000000000e+00    0,000000000e+00    0,000000000e+00    0,000000000e+00
      828000000   -8,559499681e-02    1,316722110e-02    2,797344923e-01    5,137982368e-01    0,000000000e+00    0,000000000e+00    0,000000000e+00    0,000000000e+00
      842000000   -7,088569552e-02    1,498516370e-02    5,028019547e-01    2,887514830e-01    0,000000000e+00    0,000000000e+00    0,000000000e+00    0,000000000e+00
      856000000   -5,253094435e-02    1,890566759e-02    5,706332326e-01   -1,815269142e-02    0,000000000e+00    0,000000000e+00    0,000000000e+00    0,000000000e+00
      870000000   -2,280337922e-02    1,480738819e-02    4,628840685e-01   -3,066942394e-01    0,000000000e+00    0,000000000e+00    0,000000000e+00    0,000000000e+00
      884000000    5,839284509e-03   -1,452243607e-02    2,308348119e-01   -4,890815616e-01    0,000000000e+00    0,000000000e+00    0,000000000e+00    0,000000000e+00
      898000000    1,146322675e-02   -6,361563504e-02   -5,286735669e-02   -5,267996192e-01    0,000000000e+00    0,000000000e+00    0,000000000e+00    0,000000000e+00
      912000000   -2,333935536e-02   -1,084189415e-01   -3,665989339e-01   -4,059403837e-01    0,000000000e+00    0,000000000e+00    0,000000000e+00    0,000000000e+00
      926000000   -7,547247410e-02   -1,252254397e-01   -5,306197405e-01   -1,602379233e-01    0,000000000e+00    0,000000000e+00    0,000000000e+00    0,000000000e+00
      940000000   -1,240467727e-01   -1,005542800e-01   -5,529859066e-01    1,549617946e-01    0,000000000e+00    0,000000000e+00    0,000000000e+00    0,000000000e+00
      954000000   -1,446375400e-01   -6,130939722e-02   -3,933578134e-01    4,470422566e-01    0,000000000e+00    0,000000000e+00    0,000000000e+00    0,000000000e+00
      968000000   -1,295215487e-01   -2,614642866e-02   -9,057193249e-02    6,026993394e-01    0,000000000e+00    0,000000000e+00    0,000000000e+00    0,000000000e+00
      982000000   -1,125816777e-01   -1,751073077e-02    2,460670322e-01    5,715463758e-01    0,000000000e+00    0,000000000e+00    0,000000000e+00    0,000000000e+00
      996000000   -1,089337915e-01   -1,348348614e-02    5,108664036e-01    3,668202460e-01    0,000000000e+00    0,000000000e+00    0,000000000e+00    0,000000000e+00
     1010000000   -1,008822098e-01   -5,382916424e-03    6,296820641e-01    5,340666324e-02    0,000000000e+00    0,000000000e+00    0,000000000e+00    0,000000000e+00
     1024000000   -9,374060482e-02    2,740314463e-03    5,589885712e-01   -2,719252408e-01    0,000000000e+00    0,000000000e+00    0,000000000e+00    0,000000000e+00
     1038000000   -7,225085050e-02   -3,047000151e-03    3,380975127e-01   -5,063629746e-01    0,000000000e+00    0,000000000e+00    0,000000000e+00    0,000000000e+00
     1052000000   -6,350073963e-02   -1,373789087e-02    3,309309110e-02   -5,842655897e-01    0,000000000e+00    0,000000000e+00    0,000000000e+00    0,000000000e+00
     1066000000   -6,798848510e-02   -3,314278647e-02   -2,634432316e-01   -5,032591820e-01    0,000000000e+00    0,000000000e+00    0,000000000e+00    0,000000000e+00
     1080000000   -7,880759239e-02   -3,147334605e-02   -4,814251959e-01   -2,709735036e-01    0,000000000e+00    0,000000000e+00    0,000000000e+00    0,000000000e+00
     1094000000   -7,900507748e-02   -1,522640139e-02   -5,335815549e-01    4,211201146e-02    0,000000000e+00    0,000000000e+00    0,000000000e+00    0,000000000e+00
     1108000000   -6,015333161e-02   -1,460255124e-02   -3,978898227e-01    3,263072670e-01    0,000000000e+00    0,000000000e+00    0,000000000e+00    0,000000000e+00
     1122000000   -3,336499259e-02   -3,363973275e-02   -1,368749440e-01    4,819739759e-01    0,000000000e+00    0,000000000e+00    0,000000000e+00    0,000000000e+00
     1136000000   -2,990481444e-02   -8,524405211e-02    1,618091911e-01    4,759791195e-01    0,000000000e+00    0,000000000e+00    0,000000000e+00    0,000000000e+00
     1150000000   -6,472846866e-02   -1,329945773e-01    4,196522236e-01    3,112145364e-01    0,000000000e+00    0,000000000e+00    0,000000000e+00    0,000000000e+00
     1164000000   -1,403942704e-01   -1,530438066e-01    5,650850534e-01    2,951198816e-02    0,000000000e+00    0,000000000e+00    0,000000000e+00    0,000000000e+00
     1178000000   -2,112019509e-01   -1,155738309e-01    5,301640630e-01   -3,139410913e-01    0,000000000e+00    0,000000000e+00    0,000000000e+00    0,000000000e+00
     1192000000   -2,436133921e-01   -4,286805913e-02    2,981942892e-01   -5,992124677e-01    0,000000000e+00    0,000000000e+00    0,000000000e+00    0,000000000e+00
     1206000000   -2,322131246e-01    3,666816279e-02   -6,859948486e-02   -6,956464648e-01    0,000000000e+00    0,000000000e+00    0,000000000e+00    0,000000000e+00
     1220000000   -1,803463846e-01    8,255911618e-02   -4,164760411e-01   -5,764270425e-01    0,000000000e+00    0,000000000e+00    0,000000000e+00    0,000000000e+00
     1234000000   -1,277711093e-01    9,885680676e-02   -6,432319880e-01   -2,939588130e-01    0,000000000e+00    0,000000000e+00    0,000000000e+00    0,000000000e+00
     1248000000   -6,911192089e-02    9,844830632e-02   -6,815496087e-01    6,505318731e-02    0,000000000e+00    0,000000000e+00    0,000000000e+00    0,000000000e+00
     1262000000   -1,560052857e-02    5,896862969e-02   -5,190823078e-01    3,720283806e-01    0,000000000e+00    0,000000000e+00    0,000000000e+00    0,000000000e+00
     1276000000    2,280420996e-02   -5,745635368e-03   -2,460177392e-01    5,375003219e-01    0,000000000e+00    0,000000000e+00    0,000000000e+00    0,000000000e+00
     1290000000    2,434876002e-02   -8,655366302e-02    7,098922879e-02    5,761725307e-01    0,000000000e+00    0,000000000e+00    0,000000000e+00    0,000000000e+00
     1304000000   -3,090513498e-02   -1,679139435e-01    3,675599396e-01    4,686248600e-01    0,000000000e+00    0,000000000e+00    0,000000000e+00    0,000000000e+00
     1318000000   -1,386174560e-01   -2,137979120e-01    5,899609923e-01    2,177684754e-01    0,000000000e+00    0,000000000e+00    0,000000000e+00    0,000000000e+00
     1332000000   -2,474628091e-01   -1,856805384e-01    6,543633938e-01   -1,231396571e-01    0,000000000e+00    0,000000000e+00    0,000000000e+00    0,000000000e+00
     1346000000   -3,293128312e-01   -9,385782480e-02    5,134436488e-01   -4,718180597e-01    0,000000000e+00    0,000000000e+00    0,000000000e+00    0,000000000e+00
     1360000000   -3,314616680e-01    2,483928390e-02    1,949469000e-01   -6,487953663e-01    0,000000000e+00    0,000000000e+00    0,000000000e+00    0,000000000e+00
     1374000000   -2,800188363e-01    9,899015725e-02   -1,581785083e-01   -6,063211560e-01    0,000000000e+00    0,000000000e+00    0,000000000e+00    0,000000000e+00
     1388000000   -2,115920633e-01    1,344277859e-01   -4,075796306e-01   -3,801570833e-01    0,000000000e+00    0,000000000e+00    0,000000000e+00    0,000000000e+00
     1402000000   -1,488365233e-01    1,384430230e-01   -4,783128798e-01   -5,778563023e-02    0,000000000e+00    0,000000000e+00    0,000000000e+00    0,000000000e+00
     1416000000   -9,705259651e-02    1,131521836e-01   -3,706104755e-01    2,415300310e-01    0,000000000e+00    0,000000000e+00    0,000000000e+00    0,000000000e+00
     1430000000   -5,249884725e-02    6,503804773e-02   -1,624001861e-01    4,364397526e-01    0,000000000e+00    0,000000000e+00    0,000000000e+00    0,000000000e+00
     1444000000   -3,478389978e-02    1,304145320e-03    1,564205289e-01    5,258441567e-01    0,000000000e+00    0,000000000e+00    0,000000000e+00    0,000000000e+00
     1458000000   -6,549297273e-02   -7,250294089e-02    4,747385681e-01    4,801502228e-01    0,000000000e+00    0,000000000e+00    0,000000000e+00    0,000000000e+00
     1472000000   -1,323735118e-01   -1,261889637e-01    7,622066140e-01    2,799726725e-01    0,000000000e+00    0,000000000e+00    0,000000000e+00    0,000000000e+00
     1486000000   -2,291837037e-01   -1,117892191e-01    8,966806531e-01   -8,410488814e-02    0,000000000e+00    0,000000000e+00    0,000000000e+00    0,000000000e+00
     1500000000   -2,859737873e-01   -4,736649990e-02    7,962487936e-01   -4,439672232e-01    0,000000000e+00    0,000000000e+00    0,000000000e+00    0,000000000e+00
