! NanoVNA-App
! Date: 2025-09-25 15:04:12
! Start: 100MHz Stop: 1,5GHz Points: 101
! S-Parameter data: F S11 S21 S12 S22
# Hz S RI R 50
!     Frequency           S11_Real           S11_Imag           S21_Real           S21_Imag           S12_Real           S12_Imag           S22_Real           S22_Imag
      100000000    3,110704385e-02    2,861163951e-02    4,348085225e-01   -6,688073277e-01    0,000000000e+00    0,000000000e+00    0,000000000e+00    0,000000000e+00
      114000000    5,750370771e-02    5,519350525e-03    7,593739778e-03   -7,911257148e-01    0,000000000e+00    0,000000000e+00    0,000000000e+00    0,000000000e+00
      128000000    6,722279638e-02   -3,780292720e-02   -4,103327692e-01   -6,710445285e-01    0,000000000e+00    0,000000000e+00    0,000000000e+00    0,000000000e+00
      142000000    4,468762502e-02   -8,413117379e-02   -7,030766606e-01   -3,530378640e-01    0,000000000e+00    0,000000000e+00    0,000000000e+00    0,000000000e+00
      156000000   -6,174434908e-03   -1,061727628e-01   -7,856739759e-01    7,353378832e-02    0,000000000e+00    0,000000000e+00    0,000000000e+00    0,000000000e+00
      170000000   -5,763952062e-02   -9,058456868e-02   -6,275049448e-01    4,870175123e-01    0,000000000e+00    0,000000000e+00    0,000000000e+00    0,000000000e+00
      184000000   -8,357371390e-02   -4,942923412e-02   -2,648765445e-01    7,514194250e-01    0,000000000e+00    0,000000000e+00    0,000000000e+00    0,000000000e+00
      198000000   -7,954249531e-02   -1,047556754e-02    1,834973693e-01    7,732579112e-01    0,000000000e+00    0,000000000e+00    0,000000000e+00    0,000000000e+00
      212000000   -6,220838055e-02    1,310558710e-02    5,691460371e-01    5,489537120e-01    0,000000000e+00    0,000000000e+00    0,000000000e+00    0,000000000e+00
      226000000   -4,329004139e-02    2,766467445e-02    7,707634568e-01    1,543659419e-01    0,000000000e+00    0,000000000e+00    0,000000000e+00    0,000000000e+00
      240000000   -1,822383516e-02    3,838427365e-02    7,268927693e-01   -2,822726965e-01    0,000000000e+00    0,000000000e+00    0,000000000e+00    0,000000000e+00
      254000000    1,715358347e-02    3,505834192e-02    4,579598904e-01   -6,202167869e-01    0,000000000e+00    0,000000000e+00    0,000000000e+00    0,000000000e+00
      268000000    4,869959503e-02    5,548958667e-03    5,846096948e-02   -7,604132891e-01    0,000000000e+00    0,000000000e+00    0,000000000e+00    0,000000000e+00
      282000000    5,328401178e-02   -4,188539088e-02   -3,495643437e-01   -6,714542508e-01    0,000000000e+00    0,000000000e+00    0,000000000e+00    0,000000000e+00
      296000000    2,388311736e-02   -7,946267724e-02   -6,522879601e-01   -3,853743076e-01    0,000000000e+00    0,000000000e+00    0,000000000e+00    0,000000000e+00
      310000000   -1,784004271e-02   -8,315064758e-02   -7,631277442e-01    1,982678659e-02    0,000000000e+00    0,000000000e+00    0,000000000e+00    0,000000000e+00
      324000000   -4,152766243e-02   -5,876692012e-02   -6,320536733e-01    4,312729836e-01    0,000000000e+00    0,000000000e+00    0,000000000e+00    0,000000000e+00
      338000000   -3,433322534e-02   -3,688169271e-02   -2,975181937e-01    7,022286057e-01    0,000000000e+00    0,000000000e+00    0,000000000e+00    0,000000000e+00
      352000000   -1,707242802e-02   -4,078003019e-02    1,256017983e-01    7,422269583e-01    0,000000000e+00    0,000000000e+00    0,000000000e+00    0,000000000e+00
      366000000   -1,930866577e-02   -6,184278429e-02    4,979764223e-01    5,548594594e-01    0,000000000e+00    0,000000000e+00    0,000000000e+00    0,000000000e+00
      380000000   -4,407787323e-02   -7,264765352e-02    7,138629556e-01    1,997000724e-01    0,000000000e+00    0,000000000e+00    0,000000000e+00    0,000000000e+00
      394000000   -7,035943121e-02   -5,825001746e-02    7,043972611e-01   -2,170764506e-01    0,000000000e+00    0,000000000e+00    0,000000000e+00    0,000000000e+00
      408000000   -7,709779590e-02   -3,040498681e-02    4,703376591e-01   -5,593243837e-01    0,000000000e+00    0,000000000e+00    0,000000000e+00    0,000000000e+00
      422000000   -6,526950747e-02   -1,142885815e-02    9,308808297e-02   -7,182716131e-01    0,000000000e+00    0,000000000e+00    0,000000000e+00    0,000000000e+00
      436000000   -5,333865806e-02   -4,577950109e-03   -3,033903539e-01   -6,475097537e-01    0,000000000e+00    0,000000000e+00    0,000000000e+00    0,000000000e+00
      450000000   -4,498611018e-02    1,718765590e-03   -5,936761498e-01   -3,778339624e-01    0,000000000e+00    0,000000000e+00    0,000000000e+00    0,000000000e+00
      464000000   -2,962975204e-02    1,189121697e-02   -6,909706593e-01    1,238749712e-03    0,000000000e+00    0,000000000e+00    0,000000000e+00    0,000000000e+00
      478000000   -4,352070100e-04    1,124287862e-02   -5,718961358e-01    3,635832667e-01    0,000000000e+00    0,000000000e+00    0,000000000e+00    0,000000000e+00
      492000000    2,801211737e-02   -1,248486899e-02   -2,890197933e-01    6,014769673e-01    0,000000000e+00    0,000000000e+00    0,000000000e+00    0,000000000e+00
      506000000    3,653072566e-02   -5,629700422e-02    6,952898204e-02    6,587452888e-01    0,000000000e+00    0,000000000e+00    0,000000000e+00    0,000000000e+00
      520000000    1,234188955e-02   -9,887526184e-02    4,060153961e-01    5,209385753e-01    0,000000000e+00    0,000000000e+00    0,000000000e+00    0,000000000e+00
      534000000   -3,439804912e-02   -1,161439791e-01    6,241171956e-01    2,362694591e-01    0,000000000e+00    0,000000000e+00    0,000000000e+00    0,000000000e+00
      548000000   -7,755509019e-02   -9,906071424e-02    6,573860049e-01   -1,332851350e-01    0,000000000e+00    0,000000000e+00    0,000000000e+00    0,000000000e+00
      562000000   -9,287088364e-02   -6,598861516e-02    4,820994139e-01   -4,670328200e-01    0,000000000e+00    0,000000000e+00    0,000000000e+00    0,000000000e+00
      576000000   -8,622094989e-02   -4,424348846e-02    1,497876495e-01   -6,476997137e-01    0,000000000e+00    0,000000000e+00    0,000000000e+00    0,000000000e+00
      590000000   -8,072543889e-02   -4,201683775e-02   -2,199326307e-01   -6,259956360e-01    0,000000000e+00    0,000000000e+00    0,000000000e+00    0,000000000e+00
      604000000   -8,917279541e-02   -3,736410663e-02   -5,206730366e-01   -4,057453573e-01    0,000000000e+00    0,000000000e+00    0,000000000e+00    0,000000000e+00
      618000000   -9,628020227e-02   -1,517501846e-02   -6,531901956e-01   -5,808529258e-02    0,000000000e+00    0,000000000e+00    0,000000000e+00    0,000000000e+00
      632000000   -8,164983243e-02    1,487448066e-02   -5,754032135e-01    3,025712669e-01    0,000000000e+00    0,000000000e+00    0,000000000e+00    0,000000000e+00
      646000000   -4,289670289e-02    2,711219341e-02   -3,188670576e-01    5,569630861e-01    0,000000000e+00    0,000000000e+00    0,000000000e+00    0,000000000e+00
      660000000   -8,049683645e-03    6,293016020e-03    2,270181477e-02    6,303846836e-01    0,000000000e+00    0,000000000e+00    0,000000000e+00    0,000000000e+00
      674000000    1,133585582e-03   -3,049344011e-02    3,434138298e-01    5,194581151e-01    0,000000000e+00    0,000000000e+00    0,000000000e+00    0,000000000e+00
      688000000   -1,481386647e-02   -5,534936488e-02    5,590851307e-01    2,580637038e-01    0,000000000e+00    0,000000000e+00    0,000000000e+00    0,000000000e+00
      702000000   -3,306979313e-02   -5,952966586e-02    6,036006808e-01   -7,942055911e-02    0,000000000e+00    0,000000000e+00    0,000000000e+00    0,000000000e+00
      716000000   -3,773319349e-02   -5,654295906e-02    4,586744606e-01   -3,900609314e-01    0,000000000e+00    0,000000000e+00    0,000000000e+00    0,000000000e+00
      730000000   -3,242509067e-02   -6,499621272e-02    1,732546687e-01   -5,666542053e-01    0,000000000e+00    0,000000000e+00    0,000000000e+00    0,000000000e+00
      744000000   -4,086060822e-02   -8,884758502e-02   -1,541660577e-01   -5,643432140e-01    0,000000000e+00    0,000000000e+00    0,000000000e+00    0,000000000e+00
      758000000   -7,360728085e-02   -1,039075479e-01   -4,283397198e-01   -3,933480680e-01    0,000000000e+00    0,000000000e+00    0,000000000e+00    0,000000000e+00
      772000000   -1,133675352e-01   -9,255819768e-02   -5,746494532e-01   -1,045462564e-01    0,000000000e+00    0,000000000e+00    0,000000000e+00    0,000000000e+00
      786000000   -1,384313703e-01   -5,570100993e-02   -5,437578559e-01    2,215086222e-01    0,000000000e+00    0,000000000e+00    0,000000000e+00    0,000000000e+00
      800000000   -1,321089268e-01   -1,408083830e-02   -3,398771286e-01    4,802860618e-01    0,000000000e+00    0,000000000e+00    0,000000000e+00    0,000000000e+00
      814000000   -1,075166389e-01    7,365428377e-03   -3,347242624e-02    5,860737562e-01    0,000000000e+00    0,000000000e+00    0,000000000e+00    0,000000000e+00
      828000000   -8,481024951e-02    1,163170207e-02    2,786394954e-01    5,128503442e-01    0,000000000e+00    0,000000000e+00    0,000000000e+00    0,000000000e+00
      842000000   -7,147060335e-02    1,394138113e-02    5,026645064e-01    2,888906598e-01    0,000000000e+00    0,000000000e+00    0,000000000e+00    0,000000000e+00
      856000000   -5,356706679e-02    1,819900610e-02    5,702341199e-01   -1,830377243e-02    0,000000000e+00    0,000000000e+00    0,000000000e+00    0,000000000e+00
      870000000   -2,409719862e-02    1,409514621e-02    4,634361565e-01   -3,063772917e-01    0,000000000e+00    0,000000000e+00    0,000000000e+00    0,000000000e+00
      884000000    4,630729090e-03   -1,358194463e-02    2,305081040e-01   -4,886062443e-01    0,000000000e+00    0,000000000e+00    0,000000000e+00    0,000000000e+00
      898000000    1,145409793e-02   -6,259372085e-02   -5,186222866e-02   -5,258571506e-01    0,000000000e+00    0,000000000e+00    0,000000000e+00    0,000000000e+00
      912000000   -2,294207178e-02   -1,075447053e-01   -3,515765369e-01   -4,034454823e-01    0,000000000e+00    0,000000000e+00    0,000000000e+00    0,000000000e+00
      926000000   -7,302312553e-02   -1,230709553e-01   -5,299941301e-01   -1,564839035e-01    0,000000000e+00    0,000000000e+00    0,000000000e+00    0,000000000e+00
      940000000   -1,232045889e-01   -9,994939715e-02   -5,532207489e-01    1,562475115e-01    0,000000000e+00    0,000000000e+00    0,000000000e+00    0,000000000e+00
      954000000   -1,371373087e-01   -6,174529344e-02   -3,926617205e-01    4,481281936e-01    0,000000000e+00    0,000000000e+00    0,000000000e+00    0,000000000e+00
      968000000   -1,319412291e-01   -2,703346126e-02   -9,064147621e-02    6,032869816e-01    0,000000000e+00    0,000000000e+00    0,000000000e+00    0,000000000e+00
      982000000   -1,132042184e-01   -1,815334149e-02    2,474194467e-01    5,718423724e-01    0,000000000e+00    0,000000000e+00    0,000000000e+00    0,000000000e+00
      996000000   -1,091879308e-01   -1,679263078e-02    5,133954287e-01    3,678338230e-01    0,000000000e+00    0,000000000e+00    0,000000000e+00    0,000000000e+00
     1010000000   -1,054412499e-01   -4,583936185e-03    6,299043298e-01    4,982115701e-02    0,000000000e+00    0,000000000e+00    0,000000000e+00    0,000000000e+00
     1024000000   -9,596017003e-02    4,397100420e-04    5,609101057e-01   -2,731241286e-01    0,000000000e+00    0,000000000e+00    0,000000000e+00    0,000000000e+00
     1038000000   -7,348608226e-02    2,533210907e-03    3,330844939e-01   -5,061231256e-01    0,000000000e+00    0,000000000e+00    0,000000000e+00    0,000000000e+00
     1052000000   -6,100453064e-02   -1,719112508e-02    2,941348031e-02   -5,839633346e-01    0,000000000e+00    0,000000000e+00    0,000000000e+00    0,000000000e+00
     1066000000   -7,081285864e-02   -3,205011785e-02   -2,640178204e-01   -5,006944537e-01    0,000000000e+00    0,000000000e+00    0,000000000e+00    0,000000000e+00
     1080000000   -8,182092011e-02   -2,869526669e-02   -4,825295210e-01   -2,683092952e-01    0,000000000e+00    0,000000000e+00    0,000000000e+00    0,000000000e+00
     1094000000   -8,437814564e-02   -1,818271168e-02   -5,309370160e-01    4,668242857e-02    0,000000000e+00    0,000000000e+00    0,000000000e+00    0,000000000e+00
     1108000000   -6,131746247e-02   -1,476366911e-02   -3,961523473e-01    3,268683553e-01    0,000000000e+00    0,000000000e+00    0,000000000e+00    0,000000000e+00
     1122000000   -2,970832586e-02   -3,504794836e-02   -1,351251751e-01    4,804660380e-01    0,000000000e+00    0,000000000e+00    0,000000000e+00    0,000000000e+00
     1136000000   -2,486857586e-02   -8,210162818e-02    1,629519761e-01    4,681960046e-01    0,000000000e+00    0,000000000e+00    0,000000000e+00    0,000000000e+00
     1150000000   -6,315010041e-02   -1,355759799e-01    4,189271629e-01    3,075940907e-01    0,000000000e+00    0,000000000e+00    0,000000000e+00    0,000000000e+00
     1164000000   -1,387037635e-01   -1,511462182e-01    5,596487522e-01    2,619479224e-02    0,000000000e+00    0,000000000e+00    0,000000000e+00    0,000000000e+00
     1178000000   -2,074548751e-01   -1,164366081e-01    5,240606070e-01   -3,130843639e-01    0,000000000e+00    0,000000000e+00    0,000000000e+00    0,000000000e+00
     1192000000   -2,472015768e-01   -4,186991230e-02    2,916472554e-01   -5,931508541e-01    0,000000000e+00    0,000000000e+00    0,000000000e+00    0,000000000e+00
     1206000000   -2,380808592e-01    3,206522763e-02   -6,843379885e-02   -6,959714890e-01    0,000000000e+00    0,000000000e+00    0,000000000e+00    0,000000000e+00
     1220000000   -1,902628392e-01    7,891191542e-02   -4,216884375e-01   -5,755486488e-01    0,000000000e+00    0,000000000e+00    0,000000000e+00    0,000000000e+00
     1234000000   -1,303451508e-01    1,064198688e-01   -6,463953853e-01   -2,907955050e-01    0,000000000e+00    0,000000000e+00    0,000000000e+00    0,000000000e+00
     1248000000   -6,254227459e-02    9,634931386e-02   -6,699532866e-01    6,237654760e-02    0,000000000e+00    0,000000000e+00    0,000000000e+00    0,000000000e+00
     1262000000   -1,159936097e-02    6,576738507e-02   -5,139080882e-01    3,678020537e-01    0,000000000e+00    0,000000000e+00    0,000000000e+00    0,000000000e+00
     1276000000    2,303366549e-02   -1,153922407e-03   -2,416699231e-01    5,461454988e-01    0,000000000e+00    0,000000000e+00    0,000000000e+00    0,000000000e+00
     1290000000    1,905418374e-02   -8,838441223e-02    6,360703707e-02    5,722085238e-01    0,000000000e+00    0,000000000e+00    0,000000000e+00    0,000000000e+00
     1304000000   -2,977956459e-02   -1,688942164e-01    3,599334955e-01    4,604830742e-01    0,000000000e+00    0,000000000e+00    0,000000000e+00    0,000000000e+00
     1318000000   -1,340618730e-01   -2,143118531e-01    5,830247998e-01    2,248998582e-01    0,000000000e+00    0,000000000e+00    0,000000000e+00    0,000000000e+00
     1332000000   -2,553426921e-01   -1,884192675e-01    6,472731233e-01   -1,192789525e-01    0,000000000e+00    0,000000000e+00    0,000000000e+00    0,000000000e+00
     1346000000   -3,306327462e-01   -9,034257382e-02    5,015500188e-01   -4,610087574e-01    0,000000000e+00    0,000000000e+00    0,000000000e+00    0,000000000e+00
     1360000000   -3,331868649e-01    2,332560904e-02    1,973835975e-01   -6,389313936e-01    0,000000000e+00    0,000000000e+00    0,000000000e+00    0,000000000e+00
     1374000000   -2,815060019e-01    1,057300866e-01   -1,578319073e-01   -5,994052887e-01    0,000000000e+00    0,000000000e+00    0,000000000e+00    0,000000000e+00
     1388000000   -2,109387666e-01    1,358587593e-01   -4,045366049e-01   -3,766036332e-01    0,000000000e+00    0,000000000e+00    0,000000000e+00    0,000000000e+00
     1402000000   -1,523897797e-01    1,381758302e-01   -4,824702144e-01   -6,319573522e-02    0,000000000e+00    0,000000000e+00    0,000000000e+00    0,000000000e+00
     1416000000   -9,392389655e-02    1,202222258e-01   -3,713052869e-01    2,440619171e-01    0,000000000e+00    0,000000000e+00    0,000000000e+00    0,000000000e+00
     1430000000   -5,007894710e-02    7,103149593e-02   -1,320800036e-01    4,737194180e-01    0,000000000e+00    0,000000000e+00    0,000000000e+00    0,000000000e+00
     1444000000   -3,480117396e-02    5,981842987e-04    1,691945791e-01    5,301481485e-01    0,000000000e+00    0,000000000e+00    0,000000000e+00    0,000000000e+00
     1458000000   -6,089372560e-02   -7,919607311e-02    4,761534333e-01    4,771066606e-01    0,000000000e+00    0,000000000e+00    0,000000000e+00    0,000000000e+00
     1472000000   -1,358762980e-01   -1,233141497e-01    7,580747008e-01    2,683925331e-01    0,000000000e+00    0,000000000e+00    0,000000000e+00    0,000000000e+00
     1486000000   -2,334182411e-01   -1,185654476e-01    8,858237267e-01   -8,813033998e-02    0,000000000e+00    0,000000000e+00    0,000000000e+00    0,000000000e+00
     1500000000   -2,880938351e-01   -4,749980941e-02    8,348528147e-01   -4,586342871e-01    0,000000000e+00    0,000000000e+00    0,000000000e+00    0,000000000e+00
