! NanoVNA-App
! Date: 2025-09-25 15:07:28
! Start: 100MHz Stop: 1,5GHz Points: 101
! S-Parameter data: F S11 S21 S12 S22
# Hz S RI R 50
!     Frequency           S11_Real           S11_Imag           S21_Real           S21_Imag           S12_Real           S12_Imag           S22_Real           S22_Imag
      100000000    3,115483746e-02    2,864925936e-02    4,348406196e-01   -6,686657667e-01    0,000000000e+00    0,000000000e+00    0,000000000e+00    0,000000000e+00
      114000000    5,759774521e-02    5,525352433e-03    7,600811310e-03   -7,909976244e-01    0,000000000e+00    0,000000000e+00    0,000000000e+00    0,000000000e+00
      128000000    6,727262586e-02   -3,779428452e-02   -4,104357064e-01   -6,709950566e-01    0,000000000e+00    0,000000000e+00    0,000000000e+00    0,000000000e+00
      142000000    4,470292851e-02   -8,420573920e-02   -7,031162381e-01   -3,533616066e-01    0,000000000e+00    0,000000000e+00    0,000000000e+00    0,000000000e+00
      156000000   -5,501055624e-03   -1,069031209e-01   -7,872988582e-01    7,406277955e-02    0,000000000e+00    0,000000000e+00    0,000000000e+00    0,000000000e+00
      170000000   -5,761004612e-02   -9,063535929e-02   -6,276122928e-01    4,871593714e-01    0,000000000e+00    0,000000000e+00    0,000000000e+00    0,000000000e+00
      184000000   -8,369056880e-02   -4,946490377e-02   -2,649273574e-01    7,510030866e-01    0,000000000e+00    0,000000000e+00    0,000000000e+00    0,000000000e+00
      198000000   -7,962244004e-02   -1,047781110e-02    1,833577901e-01    7,732287645e-01    0,000000000e+00    0,000000000e+00    0,000000000e+00    0,000000000e+00
      212000000   -6,228073686e-02    1,314348634e-02    5,694418550e-01    5,490623116e-01    0,000000000e+00    0,000000000e+00    0,000000000e+00    0,000000000e+00
      226000000   -4,328404367e-02    2,774858288e-02    7,707570791e-01    1,545489281e-01    0,000000000e+00    0,000000000e+00    0,000000000e+00    0,000000000e+00
      240000000   -1,821762323e-02    3,847742081e-02    7,268519998e-01   -2,820160091e-01    0,000000000e+00    0,000000000e+00    0,000000000e+00    0,000000000e+00
      254000000    1,717860997e-02    3,516336530e-02    4,580771327e-01   -6,202579737e-01    0,000000000e+00    0,000000000e+00    0,000000000e+00    0,000000000e+00
      268000000    4,877536744e-02    5,624104291e-03    5,853225291e-02   -7,605643272e-01    0,000000000e+00    0,000000000e+00    0,000000000e+00    0,000000000e+00
      282000000    5,341209099e-02   -4,175978899e-02   -3,490851223e-01   -6,718485355e-01    0,000000000e+00    0,000000000e+00    0,000000000e+00    0,000000000e+00
      296000000    2,397889830e-02   -7,961666584e-02   -6,518539786e-01   -3,855348825e-01    0,000000000e+00    0,000000000e+00    0,000000000e+00    0,000000000e+00
      310000000   -1,790223643e-02   -8,303500712e-02   -7,640750408e-01    2,131255902e-02    0,000000000e+00    0,000000000e+00    0,000000000e+00    0,000000000e+00
      324000000   -4,164009169e-02   -5,911989510e-02   -6,320298314e-01    4,311516583e-01    0,000000000e+00    0,000000000e+00    0,000000000e+00    0,000000000e+00
      338000000   -3,441333026e-02   -3,679191321e-02   -2,951063812e-01    7,000032663e-01    0,000000000e+00    0,000000000e+00    0,000000000e+00    0,000000000e+00
      352000000   -1,733659580e-02   -4,082287475e-02    1,260266900e-01    7,425734997e-01    0,000000000e+00    0,000000000e+00    0,000000000e+00    0,000000000e+00
      366000000   -1,931272447e-02   -6,170531362e-02    4,982670546e-01    5,548426509e-01    0,000000000e+00    0,000000000e+00    0,000000000e+00    0,000000000e+00
      380000000   -4,427273571e-02   -7,277835906e-02    7,136234045e-01    1,997484714e-01    0,000000000e+00    0,000000000e+00    0,000000000e+00    0,000000000e+00
      394000000   -7,065741718e-02   -5,805061013e-02    7,047845721e-01   -2,164590061e-01    0,000000000e+00    0,000000000e+00    0,000000000e+00    0,000000000e+00
      408000000   -7,686375082e-02   -3,036253341e-02    4,709998965e-01   -5,601630807e-01    0,000000000e+00    0,000000000e+00    0,000000000e+00    0,000000000e+00
      422000000   -6,553597748e-02   -1,112913061e-02    9,322870523e-02   -7,177707553e-01    0,000000000e+00    0,000000000e+00    0,000000000e+00    0,000000000e+00
      436000000   -5,273713171e-02   -4,739317112e-03   -3,018411994e-01   -6,479267478e-01    0,000000000e+00    0,000000000e+00    0,000000000e+00    0,000000000e+00
      450000000   -4,440922290e-02    1,428585383e-03   -5,934958458e-01   -3,779774308e-01    0,000000000e+00    0,000000000e+00    0,000000000e+00    0,000000000e+00
      464000000   -2,914368920e-02    1,125191618e-02   -6,913132668e-01   -3,709704615e-04    0,000000000e+00    0,000000000e+00    0,000000000e+00    0,000000000e+00
      478000000   -1,051980886e-03    1,108662039e-02   -5,732135773e-01    3,634415865e-01    0,000000000e+00    0,000000000e+00    0,000000000e+00    0,000000000e+00
      492000000    2,772337012e-02   -1,264824346e-02   -2,890680134e-01    6,020495892e-01    0,000000000e+00    0,000000000e+00    0,000000000e+00    0,000000000e+00
      506000000    3,647397459e-02   -5,619363114e-02    6,954884529e-02    6,583755016e-01    0,000000000e+00    0,000000000e+00    0,000000000e+00    0,000000000e+00
      520000000    1,295729168e-02   -9,786229581e-02    4,008058608e-01    5,286219716e-01    0,000000000e+00    0,000000000e+00    0,000000000e+00    0,000000000e+00
      534000000   -3,408671543e-02   -1,160068214e-01    6,245333552e-01    2,365444452e-01    0,000000000e+00    0,000000000e+00    0,000000000e+00    0,000000000e+00
      548000000   -7,753539830e-02   -9,934115410e-02    6,582638025e-01   -1,334554553e-01    0,000000000e+00    0,000000000e+00    0,000000000e+00    0,000000000e+00
      562000000   -9,298294038e-02   -6,612338126e-02    4,821048677e-01   -4,669182599e-01    0,000000000e+00    0,000000000e+00    0,000000000e+00    0,000000000e+00
      576000000   -8,643992245e-02   -4,454020038e-02    1,497729421e-01   -6,482732296e-01    0,000000000e+00    0,000000000e+00    0,000000000e+00    0,000000000e+00
      590000000   -8,056780696e-02   -4,156775773e-02   -2,180257440e-01   -6,272047162e-01    0,000000000e+00    0,000000000e+00    0,000000000e+00    0,000000000e+00
      604000000   -8,915791661e-02   -3,731970116e-02   -5,204223394e-01   -4,058283865e-01    0,000000000e+00    0,000000000e+00    0,000000000e+00    0,000000000e+00
      618000000   -9,699422121e-02   -1,542117633e-02   -6,531297565e-01   -5,838704482e-02    0,000000000e+00    0,000000000e+00    0,000000000e+00    0,000000000e+00
      632000000   -8,141244948e-02    1,569234580e-02   -5,755058527e-01    3,029552698e-01    0,000000000e+00    0,000000000e+00    0,000000000e+00    0,000000000e+00
      646000000   -4,222345725e-02    2,627126314e-02   -3,186052144e-01    5,564416051e-01    0,000000000e+00    0,000000000e+00    0,000000000e+00    0,000000000e+00
      660000000   -7,324535400e-03    6,245575845e-03    2,213288471e-02    6,303043365e-01    0,000000000e+00    0,000000000e+00    0,000000000e+00    0,000000000e+00
      674000000    8,340071072e-04   -2,976085432e-02    3,425528407e-01    5,191234946e-01    0,000000000e+00    0,000000000e+00    0,000000000e+00    0,000000000e+00
      688000000   -1,419667713e-02   -5,547456443e-02    5,585927963e-01    2,581032813e-01    0,000000000e+00    0,000000000e+00    0,000000000e+00    0,000000000e+00
      702000000   -3,328708187e-02   -5,829040706e-02    6,072170138e-01   -8,266045898e-02    0,000000000e+00    0,000000000e+00    0,000000000e+00    0,000000000e+00
      716000000   -3,727477044e-02   -5,502055958e-02    4,594819844e-01   -3,894136250e-01    0,000000000e+00    0,000000000e+00    0,000000000e+00    0,000000000e+00
      730000000   -3,126847744e-02   -6,500548124e-02    1,732505262e-01   -5,672938824e-01    0,000000000e+00    0,000000000e+00    0,000000000e+00    0,000000000e+00
      744000000   -4,015896097e-02   -8,780011535e-02   -1,531818807e-01   -5,639292002e-01    0,000000000e+00    0,000000000e+00    0,000000000e+00    0,000000000e+00
      758000000   -7,209097594e-02   -1,042194664e-01   -4,278392196e-01   -3,950371742e-01    0,000000000e+00    0,000000000e+00    0,000000000e+00    0,000000000e+00
      772000000   -1,135472953e-01   -9,442706406e-02   -5,741454363e-01   -1,059297472e-01    0,000000000e+00    0,000000000e+00    0,000000000e+00    0,000000000e+00
      786000000   -1,392756999e-01   -5,619951338e-02   -5,450109839e-01    2,204641849e-01    0,000000000e+00    0,000000000e+00    0,000000000e+00    0,000000000e+00
      800000000   -1,327108592e-01   -1,391821634e-02   -3,422900736e-01    4,795325398e-01    0,000000000e+00    0,000000000e+00    0,000000000e+00    0,000000000e+00
      814000000   -1,082500666e-01    8,900761604e-03   -3,422243521e-02    5,855552554e-01    0,000000000e+00    0,000000000e+00    0,000000000e+00    0,000000000e+00
      828000000   -8,468955010e-02    1,320633572e-02    2,783615291e-01    5,140935779e-01    0,000000000e+00    0,000000000e+00    0,000000000e+00    0,000000000e+00
      842000000   -7,028183341e-02    1,471692324e-02    5,032567382e-01    2,893098891e-01    0,000000000e+00    0,000000000e+00    0,000000000e+00    0,000000000e+00
      856000000   -5,243667960e-02    1,964600384e-02    5,698566437e-01   -1,764118671e-02    0,000000000e+00    0,000000000e+00    0,000000000e+00    0,000000000e+00
      870000000   -2,279811725e-02    1,430959813e-02    4,637773931e-01   -3,057697713e-01    0,000000000e+00    0,000000000e+00    0,000000000e+00    0,000000000e+00
      884000000    6,022092421e-03   -1,411668397e-02    2,307070047e-01   -4,880409539e-01    0,000000000e+00    0,000000000e+00    0,000000000e+00    0,000000000e+00
      898000000    1,165634394e-02   -6,381295621e-02   -5,101141706e-02   -5,263274908e-01    0,000000000e+00    0,000000000e+00    0,000000000e+00    0,000000000e+00
      912000000   -2,303575538e-02   -1,082282066e-01   -3,514156044e-01   -3,983328044e-01    0,000000000e+00    0,000000000e+00    0,000000000e+00    0,000000000e+00
      926000000   -7,588217407e-02   -1,221662983e-01   -5,296991467e-01   -1,578040123e-01    0,000000000e+00    0,000000000e+00    0,000000000e+00    0,000000000e+00
      940000000   -1,209719703e-01   -1,029639989e-01   -5,513467789e-01    1,576184034e-01    0,000000000e+00    0,000000000e+00    0,000000000e+00    0,000000000e+00
      954000000   -1,403493136e-01   -5,817037076e-02   -3,911703229e-01    4,455427825e-01    0,000000000e+00    0,000000000e+00    0,000000000e+00    0,000000000e+00
      968000000   -1,331140399e-01   -2,625970170e-02   -9,178103507e-02    6,044340730e-01    0,000000000e+00    0,000000000e+00    0,000000000e+00    0,000000000e+00
      982000000   -1,167831570e-01   -1,556833368e-02    2,426314652e-01    5,718866587e-01    0,000000000e+00    0,000000000e+00    0,000000000e+00    0,000000000e+00
      996000000   -1,079725400e-01   -1,570145786e-02    5,115201473e-01    3,702579141e-01    0,000000000e+00    0,000000000e+00    0,000000000e+00    0,000000000e+00
     1010000000   -1,042574570e-01   -5,617192481e-03    6,305018067e-01    5,147919431e-02    0,000000000e+00    0,000000000e+00    0,000000000e+00    0,000000000e+00
     1024000000   -9,009122849e-02    1,156266429e-03    5,610151291e-01   -2,688745856e-01    0,000000000e+00    0,000000000e+00    0,000000000e+00    0,000000000e+00
     1038000000   -7,644147426e-02   -3,783501452e-03    3,375181854e-01   -5,021379590e-01    0,000000000e+00    0,000000000e+00    0,000000000e+00    0,000000000e+00
     1052000000   -6,709815562e-02   -1,300919708e-02    3,178270534e-02   -5,874910355e-01    0,000000000e+00    0,000000000e+00    0,000000000e+00    0,000000000e+00
     1066000000   -7,265649736e-02   -3,222992271e-02   -2,645973265e-01   -5,006900430e-01    0,000000000e+00    0,000000000e+00    0,000000000e+00    0,000000000e+00
     1080000000   -7,978648692e-02   -3,348580375e-02   -4,820933044e-01   -2,726035118e-01    0,000000000e+00    0,000000000e+00    0,000000000e+00    0,000000000e+00
     1094000000   -8,417291194e-02   -1,744430512e-02   -5,315745473e-01    4,194905981e-02    0,000000000e+00    0,000000000e+00    0,000000000e+00    0,000000000e+00
     1108000000   -6,163362041e-02   -1,413557120e-02   -3,992641270e-01    3,260342181e-01    0,000000000e+00    0,000000000e+00    0,000000000e+00    0,000000000e+00
     1122000000   -3,148676455e-02   -3,373328969e-02   -1,365834624e-01    4,805619419e-01    0,000000000e+00    0,000000000e+00    0,000000000e+00    0,000000000e+00
     1136000000   -3,007401340e-02   -8,331852406e-02    1,629243791e-01    4,745143056e-01    0,000000000e+00    0,000000000e+00    0,000000000e+00    0,000000000e+00
     1150000000   -6,834813207e-02   -1,373682022e-01    4,196974039e-01    3,100460768e-01    0,000000000e+00    0,000000000e+00    0,000000000e+00    0,000000000e+00
     1164000000   -1,350688189e-01   -1,550860852e-01    5,630430579e-01    2,634914964e-02    0,000000000e+00    0,000000000e+00    0,000000000e+00    0,000000000e+00
     1178000000   -2,150104493e-01   -1,174545512e-01    5,320003629e-01   -3,146357834e-01    0,000000000e+00    0,000000000e+00    0,000000000e+00    0,000000000e+00
     1192000000   -2,502898276e-01   -4,333444312e-02    2,939153314e-01   -6,020032167e-01    0,000000000e+00    0,000000000e+00    0,000000000e+00    0,000000000e+00
     1206000000   -2,354657650e-01    3,061969765e-02   -6,760656089e-02   -7,020972371e-01    0,000000000e+00    0,000000000e+00    0,000000000e+00    0,000000000e+00
     1220000000   -1,833189875e-01    8,213395625e-02   -4,202330112e-01   -5,792890787e-01    0,000000000e+00    0,000000000e+00    0,000000000e+00    0,000000000e+00
     1234000000   -1,297916323e-01    1,038294733e-01   -6,466911435e-01   -2,921907604e-01    0,000000000e+00    0,000000000e+00    0,000000000e+00    0,000000000e+00
     1248000000   -6,676054001e-02    9,936436266e-02   -6,786888242e-01    6,538854539e-02    0,000000000e+00    0,000000000e+00    0,000000000e+00    0,000000000e+00
     1262000000   -1,358992327e-02    6,339921057e-02   -5,212438703e-01    3,722612560e-01    0,000000000e+00    0,000000000e+00    0,000000000e+00    0,000000000e+00
     1276000000    2,021559142e-02   -1,983503578e-03   -2,442009300e-01    5,458433628e-01    0,000000000e+00    0,000000000e+00    0,000000000e+00    0,000000000e+00
     1290000000    2,129733004e-02   -9,079068154e-02    7,051041722e-02    5,718431473e-01    0,000000000e+00    0,000000000e+00    0,000000000e+00    0,000000000e+00
     1304000000   -3,072440997e-02   -1,725813299e-01    3,694998622e-01    4,625103772e-01    0,000000000e+00    0,000000000e+00    0,000000000e+00    0,000000000e+00
     1318000000   -1,381956786e-01   -2,182824612e-01    5,797091722e-01    2,169701159e-01    0,000000000e+00    0,000000000e+00    0,000000000e+00    0,000000000e+00
     1332000000   -2,552496791e-01   -1,873712242e-01    6,514782310e-01   -1,243439466e-01    0,000000000e+00    0,000000000e+00    0,000000000e+00    0,000000000e+00
     1346000000   -3,363655210e-01   -8,606298268e-02    5,077251792e-01   -4,628323913e-01    0,000000000e+00    0,000000000e+00    0,000000000e+00    0,000000000e+00
     1360000000   -3,335545957e-01    3,088825010e-02    1,951201260e-01   -6,414805055e-01    0,000000000e+00    0,000000000e+00    0,000000000e+00    0,000000000e+00
     1374000000   -2,835535109e-01    1,014059335e-01   -1,624485254e-01   -6,006250381e-01    0,000000000e+00    0,000000000e+00    0,000000000e+00    0,000000000e+00
     1388000000   -2,093401402e-01    1,390229017e-01   -4,034229219e-01   -3,774842024e-01    0,000000000e+00    0,000000000e+00    0,000000000e+00    0,000000000e+00
     1402000000   -1,523729563e-01    1,386842728e-01   -4,842874408e-01   -5,511818454e-02    0,000000000e+00    0,000000000e+00    0,000000000e+00    0,000000000e+00
     1416000000   -9,534737468e-02    1,171990409e-01   -3,776442707e-01    2,537015676e-01    0,000000000e+00    0,000000000e+00    0,000000000e+00    0,000000000e+00
     1430000000   -5,137964711e-02    6,705905497e-02   -1,355207264e-01    4,409804940e-01    0,000000000e+00    0,000000000e+00    0,000000000e+00    0,000000000e+00
     1444000000   -3,613180667e-02    6,199146155e-03    1,697309017e-01    5,238020420e-01    0,000000000e+00    0,000000000e+00    0,000000000e+00    0,000000000e+00
     1458000000   -6,020133197e-02   -6,879155338e-02    4,824778140e-01    4,714486897e-01    0,000000000e+00    0,000000000e+00    0,000000000e+00    0,000000000e+00
     1472000000   -1,372670531e-01   -1,273117214e-01    7,612733245e-01    2,532357275e-01    0,000000000e+00    0,000000000e+00    0,000000000e+00    0,000000000e+00
     1486000000   -2,349826545e-01   -1,204007640e-01    8,856577873e-01   -8,557565510e-02    0,000000000e+00    0,000000000e+00    0,000000000e+00    0,000000000e+00
     1500000000   -2,920188904e-01   -5,007728934e-02    8,032807112e-01   -4,681850076e-01    0,000000000e+00    0,000000000e+00    0,000000000e+00    0,000000000e+00
