! NanoVNA-App
! Date: 2025-09-25 15:06:08
! Start: 100MHz Stop: 1,5GHz Points: 101
! S-Parameter data: F S11 S21 S12 S22
# Hz S RI R 50
!     Frequency           S11_Real           S11_Imag           S21_Real           S21_Imag           S12_Real           S12_Imag           S22_Real           S22_Imag
      100000000    3,114865907e-02    2,865396999e-02    4,348793030e-01   -6,686637402e-01    0,000000000e+00    0,000000000e+00    0,000000000e+00    0,000000000e+00
      114000000    5,760702118e-02    5,525988061e-03    7,827781141e-03   -7,911757231e-01    0,000000000e+00    0,000000000e+00    0,000000000e+00    0,000000000e+00
      128000000    6,729032099e-02   -3,782300279e-02   -4,102555811e-01   -6,711228490e-01    0,000000000e+00    0,000000000e+00    0,000000000e+00    0,000000000e+00
      142000000    4,473991692e-02   -8,422278613e-02   -7,028988004e-01   -3,533564806e-01    0,000000000e+00    0,000000000e+00    0,000000000e+00    0,000000000e+00
      156000000   -5,428772420e-03   -1,068141982e-01   -7,874925137e-01    7,356837392e-02    0,000000000e+00    0,000000000e+00    0,000000000e+00    0,000000000e+00
      170000000   -5,768200010e-02   -9,066263586e-02   -6,276457310e-01    4,872757196e-01    0,000000000e+00    0,000000000e+00    0,000000000e+00    0,000000000e+00
      184000000   -8,368223906e-02   -4,949183017e-02   -2,649780512e-01    7,513704896e-01    0,000000000e+00    0,000000000e+00    0,000000000e+00    0,000000000e+00
      198000000   -7,963583618e-02   -1,043937914e-02    1,836542189e-01    7,731785178e-01    0,000000000e+00    0,000000000e+00    0,000000000e+00    0,000000000e+00
      212000000   -6,222913787e-02    1,315615978e-02    5,691173077e-01    5,490549207e-01    0,000000000e+00    0,000000000e+00    0,000000000e+00    0,000000000e+00
      226000000   -4,321557283e-02    2,768940479e-02    7,707201838e-01    1,544332802e-01    0,000000000e+00    0,000000000e+00    0,000000000e+00    0,000000000e+00
      240000000   -1,820625924e-02    3,847943619e-02    7,267459035e-01   -2,818947732e-01    0,000000000e+00    0,000000000e+00    0,000000000e+00    0,000000000e+00
      254000000    1,721246913e-02    3,515069559e-02    4,579634666e-01   -6,200173497e-01    0,000000000e+00    0,000000000e+00    0,000000000e+00    0,000000000e+00
      268000000    4,882675409e-02    5,591003690e-03    5,884385854e-02   -7,603501678e-01    0,000000000e+00    0,000000000e+00    0,000000000e+00    0,000000000e+00
      282000000    5,350680649e-02   -4,177176952e-02   -3,487899601e-01   -6,711978316e-01    0,000000000e+00    0,000000000e+00    0,000000000e+00    0,000000000e+00
      296000000    2,392461896e-02   -7,954011112e-02   -6,520127058e-01   -3,854742646e-01    0,000000000e+00    0,000000000e+00    0,000000000e+00    0,000000000e+00
      310000000   -1,784102805e-02   -8,316507190e-02   -7,625501752e-01    1,938797534e-02    0,000000000e+00    0,000000000e+00    0,000000000e+00    0,000000000e+00
      324000000   -4,162969813e-02   -5,899805948e-02   -6,316918731e-01    4,311326444e-01    0,000000000e+00    0,000000000e+00    0,000000000e+00    0,000000000e+00
      338000000   -3,442058712e-02   -3,694393858e-02   -2,955684066e-01    7,003741264e-01    0,000000000e+00    0,000000000e+00    0,000000000e+00    0,000000000e+00
      352000000   -1,721883379e-02   -4,081744328e-02    1,258293837e-01    7,415997386e-01    0,000000000e+00    0,000000000e+00    0,000000000e+00    0,000000000e+00
      366000000   -1,917206682e-02   -6,195293739e-02    4,974018335e-01    5,556411147e-01    0,000000000e+00    0,000000000e+00    0,000000000e+00    0,000000000e+00
      380000000   -4,447376728e-02   -7,276785374e-02    7,128463387e-01    2,001722902e-01    0,000000000e+00    0,000000000e+00    0,000000000e+00    0,000000000e+00
      394000000   -7,078114152e-02   -5,820997059e-02    7,042042613e-01   -2,175177187e-01    0,000000000e+00    0,000000000e+00    0,000000000e+00    0,000000000e+00
      408000000   -7,681302726e-02   -3,052681126e-02    4,709677994e-01   -5,596564412e-01    0,000000000e+00    0,000000000e+00    0,000000000e+00    0,000000000e+00
      422000000   -6,539591402e-02   -1,155853923e-02    9,368482977e-02   -7,177261114e-01    0,000000000e+00    0,000000000e+00    0,000000000e+00    0,000000000e+00
      436000000   -5,321248621e-02   -4,585570190e-03   -3,033049703e-01   -6,470775604e-01    0,000000000e+00    0,000000000e+00    0,000000000e+00    0,000000000e+00
      450000000   -4,490308464e-02    1,559499418e-03   -5,937807560e-01   -3,779120445e-01    0,000000000e+00    0,000000000e+00    0,000000000e+00    0,000000000e+00
      464000000   -2,947969735e-02    1,128584146e-02   -6,910831928e-01    1,104714320e-04    0,000000000e+00    0,000000000e+00    0,000000000e+00    0,000000000e+00
      478000000   -6,314196507e-04    1,100407261e-02   -5,732521415e-01    3,638366163e-01    0,000000000e+00    0,000000000e+00    0,000000000e+00    0,000000000e+00
      492000000    2,765571699e-02   -1,263041142e-02   -2,890753448e-01    6,019843221e-01    0,000000000e+00    0,000000000e+00    0,000000000e+00    0,000000000e+00
      506000000    3,647351637e-02   -5,623150244e-02    6,838571280e-02    6,578446031e-01    0,000000000e+00    0,000000000e+00    0,000000000e+00    0,000000000e+00
      520000000    1,220094133e-02   -9,971266240e-02    4,050391018e-01    5,222173333e-01    0,000000000e+00    0,000000000e+00    0,000000000e+00    0,000000000e+00
      534000000   -3,489295766e-02   -1,160646379e-01    6,235398650e-01    2,365646213e-01    0,000000000e+00    0,000000000e+00    0,000000000e+00    0,000000000e+00
      548000000   -7,748648524e-02   -9,897888452e-02    6,580188274e-01   -1,333972365e-01    0,000000000e+00    0,000000000e+00    0,000000000e+00    0,000000000e+00
      562000000   -9,312646836e-02   -6,625811756e-02    4,815266430e-01   -4,672606587e-01    0,000000000e+00    0,000000000e+00    0,000000000e+00    0,000000000e+00
      576000000   -8,577579260e-02   -4,427755624e-02    1,508593410e-01   -6,474812031e-01    0,000000000e+00    0,000000000e+00    0,000000000e+00    0,000000000e+00
      590000000   -8,052261919e-02   -4,162520915e-02   -2,202839106e-01   -6,262694001e-01    0,000000000e+00    0,000000000e+00    0,000000000e+00    0,000000000e+00
      604000000   -8,902957290e-02   -3,734522685e-02   -5,206850171e-01   -4,050299525e-01    0,000000000e+00    0,000000000e+00    0,000000000e+00    0,000000000e+00
      618000000   -9,692608565e-02   -1,546069607e-02   -6,528065801e-01   -5,884543806e-02    0,000000000e+00    0,000000000e+00    0,000000000e+00    0,000000000e+00
      632000000   -8,149136603e-02    1,459667832e-02   -5,753585696e-01    3,029765785e-01    0,000000000e+00    0,000000000e+00    0,000000000e+00    0,000000000e+00
      646000000   -4,251929000e-02    2,591177449e-02   -3,187026083e-01    5,557327867e-01    0,000000000e+00    0,000000000e+00    0,000000000e+00    0,000000000e+00
      660000000   -8,246708661e-03    6,050807890e-03    2,163195983e-02    6,297511458e-01    0,000000000e+00    0,000000000e+00    0,000000000e+00    0,000000000e+00
      674000000    1,395703293e-03   -2,990206145e-02    3,432126045e-01    5,184093118e-01    0,000000000e+00    0,000000000e+00    0,000000000e+00    0,000000000e+00
      688000000   -1,527985185e-02   -5,584651977e-02    5,596126318e-01    2,585351169e-01    0,000000000e+00    0,000000000e+00    0,000000000e+00    0,000000000e+00
      702000000   -3,339356929e-02   -6,080464274e-02    6,028345227e-01   -8,037906140e-02    0,000000000e+00    0,000000000e+00    0,000000000e+00    0,000000000e+00
      716000000   -3,756855056e-02   -5,523932725e-02    4,595925510e-01   -3,900870085e-01    0,000000000e+00    0,000000000e+00    0,000000000e+00    0,000000000e+00
      730000000   -3,215460107e-02   -6,561002135e-02    1,741459668e-01   -5,658128858e-01    0,000000000e+00    0,000000000e+00    0,000000000e+00    0,000000000e+00
      744000000   -3,982029855e-02   -8,887884021e-02   -1,527863890e-01   -5,635231137e-01    0,000000000e+00    0,000000000e+00    0,000000000e+00    0,000000000e+00
      758000000   -7,245641947e-02   -1,055450290e-01   -4,272395074e-01   -3,942991793e-01    0,000000000e+00    0,000000000e+00    0,000000000e+00    0,000000000e+00
      772000000   -1,138129085e-01   -9,352861345e-02   -5,744286180e-01   -1,060810983e-01    0,000000000e+00    0,000000000e+00    0,000000000e+00    0,000000000e+00
      786000000   -1,385789365e-01   -5,645113438e-02   -5,448111296e-01    2,207558453e-01    0,000000000e+00    0,000000000e+00    0,000000000e+00    0,000000000e+00
      800000000   -1,324900091e-01   -1,431625802e-02   -3,420087397e-01    4,799167812e-01    0,000000000e+00    0,000000000e+00    0,000000000e+00    0,000000000e+00
      814000000   -1,078814492e-01    9,000034072e-03   -3,433794156e-02    5,858225822e-01    0,000000000e+00    0,000000000e+00    0,000000000e+00    0,000000000e+00
      828000000   -8,563041687e-02    1,399996877e-02    2,784916461e-01    5,141552091e-01    0,000000000e+00    0,000000000e+00    0,000000000e+00    0,000000000e+00
      842000000   -7,071942091e-02    1,475094445e-02    5,032569766e-01    2,886958420e-01    0,000000000e+00    0,000000000e+00    0,000000000e+00    0,000000000e+00
      856000000   -5,246304348e-02    1,892578788e-02    5,704994798e-01   -1,782876998e-02    0,000000000e+00    0,000000000e+00    0,000000000e+00    0,000000000e+00
      870000000   -2,293177322e-02    1,436227467e-02    4,630446434e-01   -3,069957793e-01    0,000000000e+00    0,000000000e+00    0,000000000e+00    0,000000000e+00
      884000000    6,406082306e-03   -1,442093868e-02    2,308850884e-01   -4,873423278e-01    0,000000000e+00    0,000000000e+00    0,000000000e+00    0,000000000e+00
      898000000    1,210008375e-02   -6,387176365e-02   -5,190542340e-02   -5,269805193e-01    0,000000000e+00    0,000000000e+00    0,000000000e+00    0,000000000e+00
      912000000   -2,309235558e-02   -1,076099798e-01   -3,523094058e-01   -3,967986405e-01    0,000000000e+00    0,000000000e+00    0,000000000e+00    0,000000000e+00
      926000000   -7,489508390e-02   -1,232266352e-01   -5,309891105e-01   -1,578262150e-01    0,000000000e+00    0,000000000e+00    0,000000000e+00    0,000000000e+00
      940000000   -1,251033247e-01   -1,021183729e-01   -5,511749983e-01    1,579570025e-01    0,000000000e+00    0,000000000e+00    0,000000000e+00    0,000000000e+00
      954000000   -1,391361803e-01   -5,865304172e-02   -3,912770748e-01    4,454767704e-01    0,000000000e+00    0,000000000e+00    0,000000000e+00    0,000000000e+00
      968000000   -1,320716590e-01   -3,000413813e-02   -9,080221504e-02    6,050944924e-01    0,000000000e+00    0,000000000e+00    0,000000000e+00    0,000000000e+00
      982000000   -1,177874282e-01   -1,399154589e-02    2,445999235e-01    5,734111667e-01    0,000000000e+00    0,000000000e+00    0,000000000e+00    0,000000000e+00
      996000000   -1,029032767e-01   -1,404902618e-02    5,111055970e-01    3,658387661e-01    0,000000000e+00    0,000000000e+00    0,000000000e+00    0,000000000e+00
     1010000000   -1,021238640e-01   -4,933145829e-03    6,298627853e-01    5,182061717e-02    0,000000000e+00    0,000000000e+00    0,000000000e+00    0,000000000e+00
     1024000000   -9,006755054e-02   -2,099515870e-03    5,611491203e-01   -2,717533410e-01    0,000000000e+00    0,000000000e+00    0,000000000e+00    0,000000000e+00
     1038000000   -7,348774374e-02   -1,241781574e-04    3,384827673e-01   -5,047394037e-01    0,000000000e+00    0,000000000e+00    0,000000000e+00    0,000000000e+00
     1052000000   -6,315076351e-02   -1,974977553e-02    3,327980638e-02   -5,845809579e-01    0,000000000e+00    0,000000000e+00    0,000000000e+00    0,000000000e+00
     1066000000   -6,678055227e-02   -3,106761910e-02   -2,651184797e-01   -5,021365285e-01    0,000000000e+00    0,000000000e+00    0,000000000e+00    0,000000000e+00
     1080000000   -8,241537958e-02   -3,282735497e-02   -4,787710309e-01   -2,703690827e-01    0,000000000e+00    0,000000000e+00    0,000000000e+00    0,000000000e+00
     1094000000   -8,012679964e-02   -2,020807564e-02   -5,328567624e-01    4,410418868e-02    0,000000000e+00    0,000000000e+00    0,000000000e+00    0,000000000e+00
     1108000000   -5,743514001e-02   -1,293287612e-02   -3,990221322e-01    3,267896175e-01    0,000000000e+00    0,000000000e+00    0,000000000e+00    0,000000000e+00
     1122000000   -2,883486822e-02   -3,264825791e-02   -1,367239654e-01    4,806995392e-01    0,000000000e+00    0,000000000e+00    0,000000000e+00    0,000000000e+00
     1136000000   -2,850876749e-02   -8,920282125e-02    1,625671685e-01    4,742445648e-01    0,000000000e+00    0,000000000e+00    0,000000000e+00    0,000000000e+00
     1150000000   -6,314551830e-02   -1,386182159e-01    4,185946882e-01    3,107555211e-01    0,000000000e+00    0,000000000e+00    0,000000000e+00    0,000000000e+00
     1164000000   -1,350457519e-01   -1,544317752e-01    5,647978187e-01    3,010958619e-02    0,000000000e+00    0,000000000e+00    0,000000000e+00    0,000000000e+00
     1178000000   -2,134207040e-01   -1,203705370e-01    5,329656601e-01   -3,163880408e-01    0,000000000e+00    0,000000000e+00    0,000000000e+00    0,000000000e+00
     1192000000   -2,477566004e-01   -4,677265137e-02    2,946146131e-01   -5,972067714e-01    0,000000000e+00    0,000000000e+00    0,000000000e+00    0,000000000e+00
     1206000000   -2,362052351e-01    3,437771276e-02   -6,932559609e-02   -6,937608123e-01    0,000000000e+00    0,000000000e+00    0,000000000e+00    0,000000000e+00
     1220000000   -1,874188483e-01    8,197444677e-02   -4,191035926e-01   -5,804413557e-01    0,000000000e+00    0,000000000e+00    0,000000000e+00    0,000000000e+00
     1234000000   -1,249359846e-01    1,083460301e-01   -6,467759609e-01   -2,901828289e-01    0,000000000e+00    0,000000000e+00    0,000000000e+00    0,000000000e+00
     1248000000   -6,737768650e-02    9,576655924e-02   -6,744018793e-01    6,163734943e-02    0,000000000e+00    0,000000000e+00    0,000000000e+00    0,000000000e+00
     1262000000   -8,654192090e-03    6,320879608e-02   -5,143826604e-01    3,687967658e-01    0,000000000e+00    0,000000000e+00    0,000000000e+00    0,000000000e+00
     1276000000    2,196981944e-02   -5,120238755e-03   -2,418057024e-01    5,454587936e-01    0,000000000e+00    0,000000000e+00    0,000000000e+00    0,000000000e+00
     1290000000    1,934057288e-02   -8,853223175e-02    6,733498722e-02    5,784670711e-01    0,000000000e+00    0,000000000e+00    0,000000000e+00    0,000000000e+00
     1304000000   -3,537810594e-02   -1,719625443e-01    3,648688495e-01    4,640004635e-01    0,000000000e+00    0,000000000e+00    0,000000000e+00    0,000000000e+00
     1318000000   -1,329555959e-01   -2,113037556e-01    5,840516686e-01    2,217988819e-01    0,000000000e+00    0,000000000e+00    0,000000000e+00    0,000000000e+00
     1332000000   -2,517479062e-01   -1,884002984e-01    6,512582302e-01   -1,165331230e-01    0,000000000e+00    0,000000000e+00    0,000000000e+00    0,000000000e+00
     1346000000   -3,349089026e-01   -9,138264507e-02    5,071500540e-01   -4,680621028e-01    0,000000000e+00    0,000000000e+00    0,000000000e+00    0,000000000e+00
     1360000000   -3,323769271e-01    2,297780290e-02    2,028461844e-01   -6,441941857e-01    0,000000000e+00    0,000000000e+00    0,000000000e+00    0,000000000e+00
     1374000000   -2,781879604e-01    1,053481698e-01   -1,547123790e-01   -6,002193689e-01    0,000000000e+00    0,000000000e+00    0,000000000e+00    0,000000000e+00
     1388000000   -2,151188403e-01    1,373786330e-01   -3,973737061e-01   -3,803772926e-01    0,000000000e+00    0,000000000e+00    0,000000000e+00    0,000000000e+00
     1402000000   -1,519974172e-01    1,394569278e-01   -4,903402925e-01   -5,830627307e-02    0,000000000e+00    0,000000000e+00    0,000000000e+00    0,000000000e+00
     1416000000   -9,681939334e-02    1,160674021e-01   -3,782753050e-01    2,387515455e-01    0,000000000e+00    0,000000000e+00    0,000000000e+00    0,000000000e+00
     1430000000   -5,564189330e-02    6,900648773e-02   -1,581129283e-01    4,560058415e-01    0,000000000e+00    0,000000000e+00    0,000000000e+00    0,000000000e+00
     1444000000   -3,984961659e-02    1,639599563e-03    1,560312808e-01    5,347505808e-01    0,000000000e+00    0,000000000e+00    0,000000000e+00    0,000000000e+00
     1458000000   -6,409642100e-02   -7,117868215e-02    4,869225323e-01    4,841548204e-01    0,000000000e+00    0,000000000e+00    0,000000000e+00    0,000000000e+00
     1472000000   -1,401471198e-01   -1,270853579e-01    7,615053058e-01    2,519941330e-01    0,000000000e+00    0,000000000e+00    0,000000000e+00    0,000000000e+00
     1486000000   -2,287853956e-01   -1,147416756e-01    8,901541829e-01   -9,051977843e-02    0,000000000e+00    0,000000000e+00    0,000000000e+00    0,000000000e+00
     1500000000   -2,897116840e-01   -4,734708369e-02    7,933412194e-01   -4,498562217e-01    0,000000000e+00    0,000000000e+00    0,000000000e+00    0,000000000e+00
