! NanoVNA-App
! Date: 2025-09-25 15:06:02
! Start: 100MHz Stop: 1,5GHz Points: 101
! S-Parameter data: F S11 S21 S12 S22
# Hz S RI R 50
!     Frequency           S11_Real           S11_Imag           S21_Real           S21_Imag           S12_Real           S12_Imag           S22_Real           S22_Imag
      100000000    3,113466688e-02    2,865438163e-02    4,349068701e-01   -6,685916781e-01    0,000000000e+00    0,000000000e+00    0,000000000e+00    0,000000000e+00
      114000000    5,757064745e-02    5,473180208e-03    7,671010215e-03   -7,909315228e-01    0,000000000e+00    0,000000000e+00    0,000000000e+00    0,000000000e+00
      128000000    6,727872789e-02   -3,779397532e-02   -4,103469551e-01   -6,710489988e-01    0,000000000e+00    0,000000000e+00    0,000000000e+00    0,000000000e+00
      142000000    4,475725815e-02   -8,423174918e-02   -7,030597329e-01   -3,534075320e-01    0,000000000e+00    0,000000000e+00    0,000000000e+00    0,000000000e+00
      156000000   -6,129100453e-03   -1,059249938e-01   -7,856515050e-01    7,268709689e-02    0,000000000e+00    0,000000000e+00    0,000000000e+00    0,000000000e+00
      170000000   -5,766078457e-02   -9,057111293e-02   -6,277410984e-01    4,872020185e-01    0,000000000e+00    0,000000000e+00    0,000000000e+00    0,000000000e+00
      184000000   -8,366217464e-02   -4,947388917e-02   -2,649938464e-01    7,511222959e-01    0,000000000e+00    0,000000000e+00    0,000000000e+00    0,000000000e+00
      198000000   -7,964287698e-02   -1,048272289e-02    1,836494952e-01    7,728624344e-01    0,000000000e+00    0,000000000e+00    0,000000000e+00    0,000000000e+00
      212000000   -6,228113919e-02    1,315443218e-02    5,692414045e-01    5,491701365e-01    0,000000000e+00    0,000000000e+00    0,000000000e+00    0,000000000e+00
      226000000   -4,328831658e-02    2,763315663e-02    7,708270550e-01    1,545677334e-01    0,000000000e+00    0,000000000e+00    0,000000000e+00    0,000000000e+00
      240000000   -1,819472015e-02    3,845427930e-02    7,268627882e-01   -2,819937170e-01    0,000000000e+00    0,000000000e+00    0,000000000e+00    0,000000000e+00
      254000000    1,718239859e-02    3,516538069e-02    4,581891894e-01   -6,201354265e-01    0,000000000e+00    0,000000000e+00    0,000000000e+00    0,000000000e+00
      268000000    4,875260964e-02    5,608360749e-03    5,864330381e-02   -7,606977224e-01    0,000000000e+00    0,000000000e+00    0,000000000e+00    0,000000000e+00
      282000000    5,347859859e-02   -4,186820984e-02   -3,490820527e-01   -6,715163589e-01    0,000000000e+00    0,000000000e+00    0,000000000e+00    0,000000000e+00
      296000000    2,404573373e-02   -7,950673997e-02   -6,517615914e-01   -3,853614628e-01    0,000000000e+00    0,000000000e+00    0,000000000e+00    0,000000000e+00
      310000000   -1,781875454e-02   -8,315271139e-02   -7,625061870e-01    2,111449279e-02    0,000000000e+00    0,000000000e+00    0,000000000e+00    0,000000000e+00
      324000000   -4,161132127e-02   -5,882617086e-02   -6,316547990e-01    4,318287075e-01    0,000000000e+00    0,000000000e+00    0,000000000e+00    0,000000000e+00
      338000000   -3,429012373e-02   -3,704373166e-02   -2,965693772e-01    7,012909651e-01    0,000000000e+00    0,000000000e+00    0,000000000e+00    0,000000000e+00
      352000000   -1,729950868e-02   -4,075171053e-02    1,253060400e-01    7,422725558e-01    0,000000000e+00    0,000000000e+00    0,000000000e+00    0,000000000e+00
      366000000   -1,948540844e-02   -6,181488559e-02    4,979081452e-01    5,549616814e-01    0,000000000e+00    0,000000000e+00    0,000000000e+00    0,000000000e+00
      380000000   -4,442777485e-02   -7,268202305e-02    7,140808702e-01    1,999974251e-01    0,000000000e+00    0,000000000e+00    0,000000000e+00    0,000000000e+00
      394000000   -7,072845101e-02   -5,807657540e-02    7,041855454e-01   -2,158758640e-01    0,000000000e+00    0,000000000e+00    0,000000000e+00    0,000000000e+00
      408000000   -7,691777498e-02   -3,049462847e-02    4,717479944e-01   -5,606830716e-01    0,000000000e+00    0,000000000e+00    0,000000000e+00    0,000000000e+00
      422000000   -6,563843787e-02   -1,135878451e-02    9,308075160e-02   -7,184340954e-01    0,000000000e+00    0,000000000e+00    0,000000000e+00    0,000000000e+00
      436000000   -5,312993377e-02   -4,867033102e-03   -3,025472164e-01   -6,471897364e-01    0,000000000e+00    0,000000000e+00    0,000000000e+00    0,000000000e+00
      450000000   -4,451981932e-02    1,623562886e-03   -5,928199887e-01   -3,778368533e-01    0,000000000e+00    0,000000000e+00    0,000000000e+00    0,000000000e+00
      464000000   -2,955639362e-02    1,148214750e-02   -6,913334727e-01    3,713690385e-04    0,000000000e+00    0,000000000e+00    0,000000000e+00    0,000000000e+00
      478000000   -1,035090652e-03    1,096480340e-02   -5,728185773e-01    3,631219864e-01    0,000000000e+00    0,000000000e+00    0,000000000e+00    0,000000000e+00
      492000000    2,799900994e-02   -1,233124081e-02   -2,889186740e-01    6,015176773e-01    0,000000000e+00    0,000000000e+00    0,000000000e+00    0,000000000e+00
      506000000    3,661219776e-02   -5,596763641e-02    6,966250390e-02    6,580992937e-01    0,000000000e+00    0,000000000e+00    0,000000000e+00    0,000000000e+00
      520000000    1,351893321e-02   -9,811051935e-02    4,029388428e-01    5,272356272e-01    0,000000000e+00    0,000000000e+00    0,000000000e+00    0,000000000e+00
      534000000   -3,466201201e-02   -1,158682778e-01    6,236752868e-01    2,362714857e-01    0,000000000e+00    0,000000000e+00    0,000000000e+00    0,000000000e+00
      548000000   -7,771244645e-02   -9,921824932e-02    6,578095555e-01   -1,333487928e-01    0,000000000e+00    0,000000000e+00    0,000000000e+00    0,000000000e+00
      562000000   -9,352733940e-02   -6,603337079e-02    4,818070233e-01   -4,671946168e-01    0,000000000e+00    0,000000000e+00    0,000000000e+00    0,000000000e+00
      576000000   -8,600620925e-02   -4,472690448e-02    1,506631821e-01   -6,479020119e-01    0,000000000e+00    0,000000000e+00    0,000000000e+00    0,000000000e+00
      590000000   -8,044616133e-02   -4,163586348e-02   -2,207047045e-01   -6,260357499e-01    0,000000000e+00    0,000000000e+00    0,000000000e+00    0,000000000e+00
      604000000   -8,886610717e-02   -3,763903305e-02   -5,199675560e-01   -4,070169628e-01    0,000000000e+00    0,000000000e+00    0,000000000e+00    0,000000000e+00
      618000000   -9,642165154e-02   -1,579819247e-02   -6,533882618e-01   -5,846203491e-02    0,000000000e+00    0,000000000e+00    0,000000000e+00    0,000000000e+00
      632000000   -8,140491694e-02    1,509226393e-02   -5,757623315e-01    3,025734723e-01    0,000000000e+00    0,000000000e+00    0,000000000e+00    0,000000000e+00
      646000000   -4,260816053e-02    2,640498802e-02   -3,189120889e-01    5,556253791e-01    0,000000000e+00    0,000000000e+00    0,000000000e+00    0,000000000e+00
      660000000   -7,872825488e-03    5,448875483e-03    2,181417681e-02    6,291894317e-01    0,000000000e+00    0,000000000e+00    0,000000000e+00    0,000000000e+00
      674000000    1,423414331e-03   -3,022274002e-02    3,424187005e-01    5,187366009e-01    0,000000000e+00    0,000000000e+00    0,000000000e+00    0,000000000e+00
      688000000   -1,550370175e-02   -5,559691042e-02    5,590009689e-01    2,586254776e-01    0,000000000e+00    0,000000000e+00    0,000000000e+00    0,000000000e+00
      702000000   -3,395580873e-02   -5,997885391e-02    6,067978740e-01   -7,863616198e-02    0,000000000e+00    0,000000000e+00    0,000000000e+00    0,000000000e+00
      716000000   -3,657422215e-02   -5,611873046e-02    4,595979750e-01   -3,898411691e-01    0,000000000e+00    0,000000000e+00    0,000000000e+00    0,000000000e+00
      730000000   -3,098214045e-02   -6,529276818e-02    1,736960858e-01   -5,651982427e-01    0,000000000e+00    0,000000000e+00    0,000000000e+00    0,000000000e+00
      744000000   -4,049577937e-02   -8,885759115e-02   -1,524133682e-01   -5,639699101e-01    0,000000000e+00    0,000000000e+00    0,000000000e+00    0,000000000e+00
      758000000   -7,187778503e-02   -1,056367680e-01   -4,272813201e-01   -3,948804438e-01    0,000000000e+00    0,000000000e+00    0,000000000e+00    0,000000000e+00
      772000000   -1,134973094e-01   -9,427870065e-02   -5,743905306e-01   -1,056651846e-01    0,000000000e+00    0,000000000e+00    0,000000000e+00    0,000000000e+00
      786000000   -1,385658830e-01   -5,593804270e-02   -5,447343588e-01    2,208037376e-01    0,000000000e+00    0,000000000e+00    0,000000000e+00    0,000000000e+00
      800000000   -1,325958371e-01   -1,414658688e-02   -3,409104347e-01    4,798595011e-01    0,000000000e+00    0,000000000e+00    0,000000000e+00    0,000000000e+00
      814000000   -1,077766791e-01    8,379990235e-03   -3,385895118e-02    5,870016217e-01    0,000000000e+00    0,000000000e+00    0,000000000e+00    0,000000000e+00
      828000000   -8,586090058e-02    1,326087397e-02    2,798269987e-01    5,136962533e-01    0,000000000e+00    0,000000000e+00    0,000000000e+00    0,000000000e+00
      842000000   -7,025830448e-02    1,543655340e-02    5,023475885e-01    2,894192636e-01    0,000000000e+00    0,000000000e+00    0,000000000e+00    0,000000000e+00
      856000000   -5,174927413e-02    1,934513636e-02    5,704581141e-01   -1,819031499e-02    0,000000000e+00    0,000000000e+00    0,000000000e+00    0,000000000e+00
      870000000   -2,297494188e-02    1,471940521e-02    4,637018144e-01   -3,067056537e-01    0,000000000e+00    0,000000000e+00    0,000000000e+00    0,000000000e+00
      884000000    5,605360493e-03   -1,460396219e-02    2,298599929e-01   -4,890588820e-01    0,000000000e+00    0,000000000e+00    0,000000000e+00    0,000000000e+00
      898000000    1,213097293e-02   -6,361026317e-02   -5,201635510e-02   -5,260807872e-01    0,000000000e+00    0,000000000e+00    0,000000000e+00    0,000000000e+00
      912000000   -2,385129593e-02   -1,081326231e-01   -3,512717187e-01   -4,075040817e-01    0,000000000e+00    0,000000000e+00    0,000000000e+00    0,000000000e+00
      926000000   -7,348322123e-02   -1,228621006e-01   -5,291936398e-01   -1,577805430e-01    0,000000000e+00    0,000000000e+00    0,000000000e+00    0,000000000e+00
      940000000   -1,237934232e-01   -1,013164744e-01   -5,510007739e-01    1,569461673e-01    0,000000000e+00    0,000000000e+00    0,000000000e+00    0,000000000e+00
      954000000   -1,395337433e-01   -6,205067784e-02   -3,900705576e-01    4,469512105e-01    0,000000000e+00    0,000000000e+00    0,000000000e+00    0,000000000e+00
      968000000   -1,327881813e-01   -2,565958723e-02   -9,192982316e-02    6,044654250e-01    0,000000000e+00    0,000000000e+00    0,000000000e+00    0,000000000e+00
      982000000   -1,179321483e-01   -1,624237001e-02    2,462070584e-01    5,723049045e-01    0,000000000e+00    0,000000000e+00    0,000000000e+00    0,000000000e+00
      996000000   -1,062201858e-01   -1,735099778e-02    5,132726431e-01    3,653906584e-01    0,000000000e+00    0,000000000e+00    0,000000000e+00    0,000000000e+00
     1010000000   -1,048748270e-01   -6,768166088e-03    6,273752451e-01    5,308334902e-02    0,000000000e+00    0,000000000e+00    0,000000000e+00    0,000000000e+00
     1024000000   -9,388893843e-02   -1,105396776e-03    5,613394380e-01   -2,698031664e-01    0,000000000e+00    0,000000000e+00    0,000000000e+00    0,000000000e+00
     1038000000   -7,407852262e-02    8,992932271e-04    3,374012411e-01   -5,021513700e-01    0,000000000e+00    0,000000000e+00    0,000000000e+00    0,000000000e+00
     1052000000   -6,270910800e-02   -1,731825992e-02    3,203827143e-02   -5,849928260e-01    0,000000000e+00    0,000000000e+00    0,000000000e+00    0,000000000e+00
     1066000000   -7,154531777e-02   -3,306124732e-02   -2,612700760e-01   -5,030000210e-01    0,000000000e+00    0,000000000e+00    0,000000000e+00    0,000000000e+00
     1080000000   -8,145403117e-02   -3,518695012e-02   -4,790781736e-01   -2,690722346e-01    0,000000000e+00    0,000000000e+00    0,000000000e+00    0,000000000e+00
     1094000000   -8,333716542e-02   -1,708435267e-02   -5,312737226e-01    4,354530573e-02    0,000000000e+00    0,000000000e+00    0,000000000e+00    0,000000000e+00
     1108000000   -5,992187187e-02   -1,411968563e-02   -3,979707062e-01    3,270158172e-01    0,000000000e+00    0,000000000e+00    0,000000000e+00    0,000000000e+00
     1122000000   -3,008945286e-02   -3,341336921e-02   -1,376670450e-01    4,790893793e-01    0,000000000e+00    0,000000000e+00    0,000000000e+00    0,000000000e+00
     1136000000   -2,979972586e-02   -8,236049861e-02    1,670420766e-01    4,693984091e-01    0,000000000e+00    0,000000000e+00    0,000000000e+00    0,000000000e+00
     1150000000   -6,670106947e-02   -1,372819096e-01    4,215161502e-01    3,106294274e-01    0,000000000e+00    0,000000000e+00    0,000000000e+00    0,000000000e+00
     1164000000   -1,392289400e-01   -1,493236423e-01    5,657123327e-01    2,710275166e-02    0,000000000e+00    0,000000000e+00    0,000000000e+00    0,000000000e+00
     1178000000   -2,065054923e-01   -1,192503572e-01    5,311926007e-01   -3,126717210e-01    0,000000000e+00    0,000000000e+00    0,000000000e+00    0,000000000e+00
     1192000000   -2,496576905e-01   -3,868549690e-02    2,971722484e-01   -5,961236358e-01    0,000000000e+00    0,000000000e+00    0,000000000e+00    0,000000000e+00
     1206000000   -2,380649000e-01    3,529799357e-02   -6,585577875e-02   -6,996284127e-01    0,000000000e+00    0,000000000e+00    0,000000000e+00    0,000000000e+00
     1220000000   -1,871688962e-01    7,881001383e-02   -4,195105731e-01   -5,777010322e-01    0,000000000e+00    0,000000000e+00    0,000000000e+00    0,000000000e+00
     1234000000   -1,241673455e-01    1,038782597e-01   -6,426609159e-01   -2,907800376e-01    0,000000000e+00    0,000000000e+00    0,000000000e+00    0,000000000e+00
     1248000000   -6,614489108e-02    9,807658195e-02   -6,766859889e-01    6,341031939e-02    0,000000000e+00    0,000000000e+00    0,000000000e+00    0,000000000e+00
     1262000000   -1,190833375e-02    5,690881610e-02   -5,175111890e-01    3,649713099e-01    0,000000000e+00    0,000000000e+00    0,000000000e+00    0,000000000e+00
     1276000000    2,710721269e-02   -4,921501502e-03   -2,429935038e-01    5,452919006e-01    0,000000000e+00    0,000000000e+00    0,000000000e+00    0,000000000e+00
     1290000000    1,794426888e-02   -8,813880384e-02    6,249850616e-02    5,753759742e-01    0,000000000e+00    0,000000000e+00    0,000000000e+00    0,000000000e+00
     1304000000   -3,069935739e-02   -1,730224192e-01    3,684416413e-01    4,690201879e-01    0,000000000e+00    0,000000000e+00    0,000000000e+00    0,000000000e+00
     1318000000   -1,330906600e-01   -2,149351686e-01    5,887228251e-01    2,234612703e-01    0,000000000e+00    0,000000000e+00    0,000000000e+00    0,000000000e+00
     1332000000   -2,524892986e-01   -1,865604073e-01    6,541033983e-01   -1,264049858e-01    0,000000000e+00    0,000000000e+00    0,000000000e+00    0,000000000e+00
     1346000000   -3,283551335e-01   -9,117706120e-02    5,077670813e-01   -4,656156898e-01    0,000000000e+00    0,000000000e+00    0,000000000e+00    0,000000000e+00
     1360000000   -3,367440104e-01    2,656748518e-02    1,825242639e-01   -6,506838799e-01    0,000000000e+00    0,000000000e+00    0,000000000e+00    0,000000000e+00
     1374000000   -2,799062729e-01    9,909889102e-02   -1,573401839e-01   -6,118256450e-01    0,000000000e+00    0,000000000e+00    0,000000000e+00    0,000000000e+00
     1388000000   -2,133390009e-01    1,359546632e-01   -4,109614491e-01   -3,709057271e-01    0,000000000e+00    0,000000000e+00    0,000000000e+00    0,000000000e+00
     1402000000   -1,526219100e-01    1,432834566e-01   -4,822443426e-01   -5,541416630e-02    0,000000000e+00    0,000000000e+00    0,000000000e+00    0,000000000e+00
     1416000000   -9,230609983e-02    1,223732233e-01   -3,727923334e-01    2,410272509e-01    0,000000000e+00    0,000000000e+00    0,000000000e+00    0,000000000e+00
     1430000000   -5,370624736e-02    7,526481152e-02   -1,263006628e-01    4,545543194e-01    0,000000000e+00    0,000000000e+00    0,000000000e+00    0,000000000e+00
     1444000000   -4,122862220e-02    9,564653970e-03    1,624443084e-01    5,373980403e-01    0,000000000e+00    0,000000000e+00    0,000000000e+00    0,000000000e+00
     1458000000   -6,705809385e-02   -7,678478211e-02    4,756177068e-01    4,729427993e-01    0,000000000e+00    0,000000000e+00    0,000000000e+00    0,000000000e+00
     1472000000   -1,361708492e-01   -1,303036958e-01    7,707902789e-01    2,583303452e-01    0,000000000e+00    0,000000000e+00    0,000000000e+00    0,000000000e+00
     1486000000   -2,297756970e-01   -1,079174206e-01    9,128807783e-01   -7,828266174e-02    0,000000000e+00    0,000000000e+00    0,000000000e+00    0,000000000e+00
     1500000000   -2,867666781e-01   -3,926089779e-02    8,046000004e-01   -4,517327249e-01    0,000000000e+00    0,000000000e+00    0,000000000e+00    0,000000000e+00
