! NanoVNA-App
! Date: 2025-09-25 15:06:07
! Start: 100MHz Stop: 1,5GHz Points: 101
! S-Parameter data: F S11 S21 S12 S22
# Hz S RI R 50
!     Frequency           S11_Real           S11_Imag           S21_Real           S21_Imag           S12_Real           S12_Imag           S22_Real           S22_Imag
      100000000    3,115553223e-02    2,864425629e-02    4,348804057e-01   -6,687083244e-01    0,000000000e+00    0,000000000e+00    0,000000000e+00    0,000000000e+00
      114000000    5,753909051e-02    5,512499250e-03    7,716638036e-03   -7,910542488e-01    0,000000000e+00    0,000000000e+00    0,000000000e+00    0,000000000e+00
      128000000    6,722132862e-02   -3,784158453e-02   -4,103227556e-01   -6,711194515e-01    0,000000000e+00    0,000000000e+00    0,000000000e+00    0,000000000e+00
      142000000    4,471923783e-02   -8,419916779e-02   -7,030059695e-01   -3,534649909e-01    0,000000000e+00    0,000000000e+00    0,000000000e+00    0,000000000e+00
      156000000   -5,409812555e-03   -1,070261970e-01   -7,873135805e-01    7,411352545e-02    0,000000000e+00    0,000000000e+00    0,000000000e+00    0,000000000e+00
      170000000   -5,761236325e-02   -9,063330293e-02   -6,275649667e-01    4,869926572e-01    0,000000000e+00    0,000000000e+00    0,000000000e+00    0,000000000e+00
      184000000   -8,369119465e-02   -4,948886856e-02   -2,646818757e-01    7,510188222e-01    0,000000000e+00    0,000000000e+00    0,000000000e+00    0,000000000e+00
      198000000   -7,963143289e-02   -1,046885829e-02    1,834491789e-01    7,730797529e-01    0,000000000e+00    0,000000000e+00    0,000000000e+00    0,000000000e+00
      212000000   -6,225322187e-02    1,321030315e-02    5,692943335e-01    5,490826964e-01    0,000000000e+00    0,000000000e+00    0,000000000e+00    0,000000000e+00
      226000000   -4,327771068e-02    2,764824033e-02    7,707362175e-01    1,546431035e-01    0,000000000e+00    0,000000000e+00    0,000000000e+00    0,000000000e+00
      240000000   -1,816440001e-02    3,847507015e-02    7,268523574e-01   -2,819783390e-01    0,000000000e+00    0,000000000e+00    0,000000000e+00    0,000000000e+00
      254000000    1,718710549e-02    3,515454009e-02    4,577982426e-01   -6,201487780e-01    0,000000000e+00    0,000000000e+00    0,000000000e+00    0,000000000e+00
      268000000    4,882691801e-02    5,631345790e-03    5,852378905e-02   -7,602644563e-01    0,000000000e+00    0,000000000e+00    0,000000000e+00    0,000000000e+00
      282000000    5,347622186e-02   -4,177176580e-02   -3,493193984e-01   -6,717376709e-01    0,000000000e+00    0,000000000e+00    0,000000000e+00    0,000000000e+00
      296000000    2,404440194e-02   -7,948938012e-02   -6,521976590e-01   -3,855558932e-01    0,000000000e+00    0,000000000e+00    0,000000000e+00    0,000000000e+00
      310000000   -1,788785681e-02   -8,309359103e-02   -7,623816729e-01    2,032350376e-02    0,000000000e+00    0,000000000e+00    0,000000000e+00    0,000000000e+00
      324000000   -4,175856337e-02   -5,892466381e-02   -6,324938536e-01    4,310556948e-01    0,000000000e+00    0,000000000e+00    0,000000000e+00    0,000000000e+00
      338000000   -3,442235291e-02   -3,696807846e-02   -2,944508195e-01    7,034055591e-01    0,000000000e+00    0,000000000e+00    0,000000000e+00    0,000000000e+00
      352000000   -1,735328510e-02   -4,057507217e-02    1,255591810e-01    7,423484325e-01    0,000000000e+00    0,000000000e+00    0,000000000e+00    0,000000000e+00
      366000000   -1,937018707e-02   -6,187970936e-02    4,983181655e-01    5,549889803e-01    0,000000000e+00    0,000000000e+00    0,000000000e+00    0,000000000e+00
      380000000   -4,425561056e-02   -7,247205079e-02    7,137408257e-01    1,999375969e-01    0,000000000e+00    0,000000000e+00    0,000000000e+00    0,000000000e+00
      394000000   -7,102062553e-02   -5,822560936e-02    7,040148377e-01   -2,169003040e-01    0,000000000e+00    0,000000000e+00    0,000000000e+00    0,000000000e+00
      408000000   -7,686700672e-02   -3,038912639e-02    4,697176516e-01   -5,593770146e-01    0,000000000e+00    0,000000000e+00    0,000000000e+00    0,000000000e+00
      422000000   -6,519220769e-02   -1,158102974e-02    9,272970259e-02   -7,175577879e-01    0,000000000e+00    0,000000000e+00    0,000000000e+00    0,000000000e+00
      436000000   -5,312544852e-02   -4,529633094e-03   -3,024256229e-01   -6,478503942e-01    0,000000000e+00    0,000000000e+00    0,000000000e+00    0,000000000e+00
      450000000   -4,468629137e-02    1,807266264e-03   -5,928056240e-01   -3,781811893e-01    0,000000000e+00    0,000000000e+00    0,000000000e+00    0,000000000e+00
      464000000   -2,932929061e-02    1,177080069e-02   -6,909198165e-01    2,869431919e-04    0,000000000e+00    0,000000000e+00    0,000000000e+00    0,000000000e+00
      478000000   -9,351641056e-04    1,143483166e-02   -5,734861493e-01    3,632554114e-01    0,000000000e+00    0,000000000e+00    0,000000000e+00    0,000000000e+00
      492000000    2,832483128e-02   -1,267496496e-02   -2,884464860e-01    6,017195582e-01    0,000000000e+00    0,000000000e+00    0,000000000e+00    0,000000000e+00
      506000000    3,613180295e-02   -5,603521317e-02    6,923098117e-02    6,580748558e-01    0,000000000e+00    0,000000000e+00    0,000000000e+00    0,000000000e+00
      520000000    1,240392681e-02   -9,951194376e-02    4,046019316e-01    5,215559602e-01    0,000000000e+00    0,000000000e+00    0,000000000e+00    0,000000000e+00
      534000000   -3,468260169e-02   -1,159991398e-01    6,234295368e-01    2,366031259e-01    0,000000000e+00    0,000000000e+00    0,000000000e+00    0,000000000e+00
      548000000   -7,708761841e-02   -9,884576499e-02    6,584685445e-01   -1,333351284e-01    0,000000000e+00    0,000000000e+00    0,000000000e+00    0,000000000e+00
      562000000   -9,311357886e-02   -6,576965004e-02    4,816956520e-01   -4,666328132e-01    0,000000000e+00    0,000000000e+00    0,000000000e+00    0,000000000e+00
      576000000   -8,637214452e-02   -4,463868588e-02    1,509010494e-01   -6,481026411e-01    0,000000000e+00    0,000000000e+00    0,000000000e+00    0,000000000e+00
      590000000   -8,047351986e-02   -4,159618169e-02   -2,190352380e-01   -6,264222860e-01    0,000000000e+00    0,000000000e+00    0,000000000e+00    0,000000000e+00
      604000000   -8,846850693e-02   -3,761135042e-02   -5,191314220e-01   -4,055594206e-01    0,000000000e+00    0,000000000e+00    0,000000000e+00    0,000000000e+00
      618000000   -9,689176828e-02   -1,478792075e-02   -6,533664465e-01   -5,806183815e-02    0,000000000e+00    0,000000000e+00    0,000000000e+00    0,000000000e+00
      632000000   -8,144315332e-02    1,507124025e-02   -5,753923655e-01    3,028472662e-01    0,000000000e+00    0,000000000e+00    0,000000000e+00    0,000000000e+00
      646000000   -4,236664250e-02    2,663187124e-02   -3,182755709e-01    5,558335185e-01    0,000000000e+00    0,000000000e+00    0,000000000e+00    0,000000000e+00
      660000000   -7,569718640e-03    5,304733757e-03    2,236750908e-02    6,320955753e-01    0,000000000e+00    0,000000000e+00    0,000000000e+00    0,000000000e+00
      674000000    1,364800730e-03   -3,025214747e-02    3,417469561e-01    5,183842182e-01    0,000000000e+00    0,000000000e+00    0,000000000e+00    0,000000000e+00
      688000000   -1,421443745e-02   -5,523403734e-02    5,591669679e-01    2,588568032e-01    0,000000000e+00    0,000000000e+00    0,000000000e+00    0,000000000e+00
      702000000   -3,434692696e-02   -5,986547098e-02    6,036310196e-01   -7,899118215e-02    0,000000000e+00    0,000000000e+00    0,000000000e+00    0,000000000e+00
      716000000   -3,635649011e-02   -5,585945770e-02    4,597072303e-01   -3,894540668e-01    0,000000000e+00    0,000000000e+00    0,000000000e+00    0,000000000e+00
      730000000   -3,115217574e-02   -6,464914978e-02    1,741686910e-01   -5,653767586e-01    0,000000000e+00    0,000000000e+00    0,000000000e+00    0,000000000e+00
      744000000   -4,030637443e-02   -8,791781217e-02   -1,537864655e-01   -5,639273524e-01    0,000000000e+00    0,000000000e+00    0,000000000e+00    0,000000000e+00
      758000000   -7,126963139e-02   -1,052416414e-01   -4,279194176e-01   -3,941115737e-01    0,000000000e+00    0,000000000e+00    0,000000000e+00    0,000000000e+00
      772000000   -1,143083870e-01   -9,472607821e-02   -5,744131207e-01   -1,059983745e-01    0,000000000e+00    0,000000000e+00    0,000000000e+00    0,000000000e+00
      786000000   -1,395917684e-01   -5,588019639e-02   -5,441893339e-01    2,212629169e-01    0,000000000e+00    0,000000000e+00    0,000000000e+00    0,000000000e+00
      800000000   -1,324161589e-01   -1,439262275e-02   -3,421024084e-01    4,806112349e-01    0,000000000e+00    0,000000000e+00    0,000000000e+00    0,000000000e+00
      814000000   -1,085091159e-01    7,829371840e-03   -3,320742399e-02    5,863134265e-01    0,000000000e+00    0,000000000e+00    0,000000000e+00    0,000000000e+00
      828000000   -8,598032594e-02    1,384952944e-02    2,793976665e-01    5,142970681e-01    0,000000000e+00    0,000000000e+00    0,000000000e+00    0,000000000e+00
      842000000   -7,008945942e-02    1,513957605e-02    5,026767254e-01    2,892968059e-01    0,000000000e+00    0,000000000e+00    0,000000000e+00    0,000000000e+00
      856000000   -5,197592080e-02    1,873372309e-02    5,705380440e-01   -1,790304296e-02    0,000000000e+00    0,000000000e+00    0,000000000e+00    0,000000000e+00
      870000000   -2,308285981e-02    1,452023908e-02    4,631304145e-01   -3,062843978e-01    0,000000000e+00    0,000000000e+00    0,000000000e+00    0,000000000e+00
      884000000    6,230739411e-03   -1,479046326e-02    2,300986946e-01   -4,873580337e-01    0,000000000e+00    0,000000000e+00    0,000000000e+00    0,000000000e+00
      898000000    1,167789195e-02   -6,421102583e-02   -5,207652226e-02   -5,258023739e-01    0,000000000e+00    0,000000000e+00    0,000000000e+00    0,000000000e+00
      912000000   -2,397708409e-02   -1,094786078e-01   -3,658761084e-01   -4,081158638e-01    0,000000000e+00    0,000000000e+00    0,000000000e+00    0,000000000e+00
      926000000   -7,548151910e-02   -1,229189038e-01   -5,333712697e-01   -1,581648141e-01    0,000000000e+00    0,000000000e+00    0,000000000e+00    0,000000000e+00
      940000000   -1,258077919e-01   -1,030122787e-01   -5,531608462e-01    1,571606398e-01    0,000000000e+00    0,000000000e+00    0,000000000e+00    0,000000000e+00
      954000000   -1,436824054e-01   -6,342222542e-02   -3,937711716e-01    4,459904134e-01    0,000000000e+00    0,000000000e+00    0,000000000e+00    0,000000000e+00
      968000000   -1,328209788e-01   -2,598330937e-02   -9,054934978e-02    6,023991108e-01    0,000000000e+00    0,000000000e+00    0,000000000e+00    0,000000000e+00
      982000000   -1,172526330e-01   -1,631804183e-02    2,484534830e-01    5,721493363e-01    0,000000000e+00    0,000000000e+00    0,000000000e+00    0,000000000e+00
      996000000   -1,072330102e-01   -1,078810543e-02    5,134795904e-01    3,674187362e-01    0,000000000e+00    0,000000000e+00    0,000000000e+00    0,000000000e+00
     1010000000   -1,000508517e-01   -9,173233993e-03    6,282488704e-01    5,270613730e-02    0,000000000e+00    0,000000000e+00    0,000000000e+00    0,000000000e+00
     1024000000   -9,506768733e-02   -4,850195546e-04    5,613526106e-01   -2,703284025e-01    0,000000000e+00    0,000000000e+00    0,000000000e+00    0,000000000e+00
     1038000000   -7,840487361e-02   -3,249182599e-03    3,372163475e-01   -5,023221970e-01    0,000000000e+00    0,000000000e+00    0,000000000e+00    0,000000000e+00
     1052000000   -6,223733351e-02   -1,904292963e-02    3,520094603e-02   -5,847919583e-01    0,000000000e+00    0,000000000e+00    0,000000000e+00    0,000000000e+00
     1066000000   -6,656376272e-02   -3,109601326e-02   -2,673445642e-01   -5,009625554e-01    0,000000000e+00    0,000000000e+00    0,000000000e+00    0,000000000e+00
     1080000000   -8,082374930e-02   -2,815029211e-02   -4,799653292e-01   -2,706408203e-01    0,000000000e+00    0,000000000e+00    0,000000000e+00    0,000000000e+00
     1094000000   -8,363445103e-02   -1,455026586e-02   -5,327851176e-01    4,215503857e-02    0,000000000e+00    0,000000000e+00    0,000000000e+00    0,000000000e+00
     1108000000   -6,097776070e-02   -1,493650395e-02   -3,986704350e-01    3,254133761e-01    0,000000000e+00    0,000000000e+00    0,000000000e+00    0,000000000e+00
     1122000000   -3,340813518e-02   -3,154183179e-02   -1,365167648e-01    4,788355529e-01    0,000000000e+00    0,000000000e+00    0,000000000e+00    0,000000000e+00
     1136000000   -2,557795867e-02   -8,657282591e-02    1,603036374e-01    4,714466333e-01    0,000000000e+00    0,000000000e+00    0,000000000e+00    0,000000000e+00
     1150000000   -6,758575141e-02   -1,352868080e-01    4,206660092e-01    3,116770685e-01    0,000000000e+00    0,000000000e+00    0,000000000e+00    0,000000000e+00
     1164000000   -1,356588900e-01   -1,500319988e-01    5,636305213e-01    2,737268247e-02    0,000000000e+00    0,000000000e+00    0,000000000e+00    0,000000000e+00
     1178000000   -2,095680088e-01   -1,211735606e-01    5,318921208e-01   -3,161104918e-01    0,000000000e+00    0,000000000e+00    0,000000000e+00    0,000000000e+00
     1192000000   -2,497302741e-01   -4,191432148e-02    2,973836064e-01   -5,965358019e-01    0,000000000e+00    0,000000000e+00    0,000000000e+00    0,000000000e+00
     1206000000   -2,295583040e-01    3,524729237e-02   -6,536614895e-02   -6,999187469e-01    0,000000000e+00    0,000000000e+00    0,000000000e+00    0,000000000e+00
     1220000000   -1,849505901e-01    8,120457083e-02   -4,228963256e-01   -5,806658268e-01    0,000000000e+00    0,000000000e+00    0,000000000e+00    0,000000000e+00
     1234000000   -1,287519038e-01    1,072186530e-01   -6,445153952e-01   -2,886981070e-01    0,000000000e+00    0,000000000e+00    0,000000000e+00    0,000000000e+00
     1248000000   -6,525261700e-02    9,835062921e-02   -6,778793335e-01    6,390742958e-02    0,000000000e+00    0,000000000e+00    0,000000000e+00    0,000000000e+00
     1262000000   -1,179875247e-02    5,809269473e-02   -5,169241428e-01    3,680476248e-01    0,000000000e+00    0,000000000e+00    0,000000000e+00    0,000000000e+00
     1276000000    2,181422710e-02   -1,821879414e-03   -2,437120229e-01    5,507993102e-01    0,000000000e+00    0,000000000e+00    0,000000000e+00    0,000000000e+00
     1290000000    2,152750082e-02   -8,406233788e-02    7,106682658e-02    5,811586380e-01    0,000000000e+00    0,000000000e+00    0,000000000e+00    0,000000000e+00
     1304000000   -3,164012730e-02   -1,730631441e-01    3,645055294e-01    4,668226540e-01    0,000000000e+00    0,000000000e+00    0,000000000e+00    0,000000000e+00
     1318000000   -1,353143007e-01   -2,160930187e-01    5,864194632e-01    2,194450647e-01    0,000000000e+00    0,000000000e+00    0,000000000e+00    0,000000000e+00
     1332000000   -2,519209683e-01   -1,897603869e-01    6,514403820e-01   -1,297042072e-01    0,000000000e+00    0,000000000e+00    0,000000000e+00    0,000000000e+00
     1346000000   -3,374769092e-01   -9,093178809e-02    5,043257475e-01   -4,642559588e-01    0,000000000e+00    0,000000000e+00    0,000000000e+00    0,000000000e+00
     1360000000   -3,350258470e-01    2,173008025e-02    1,836357713e-01   -6,575146914e-01    0,000000000e+00    0,000000000e+00    0,000000000e+00    0,000000000e+00
     1374000000   -2,827552855e-01    1,053400487e-01   -1,650540680e-01   -5,975835323e-01    0,000000000e+00    0,000000000e+00    0,000000000e+00    0,000000000e+00
     1388000000   -2,123415917e-01    1,394806355e-01   -4,054470658e-01   -3,769272864e-01    0,000000000e+00    0,000000000e+00    0,000000000e+00    0,000000000e+00
     1402000000   -1,510220617e-01    1,382246763e-01   -4,794802070e-01   -6,156349927e-02    0,000000000e+00    0,000000000e+00    0,000000000e+00    0,000000000e+00
     1416000000   -9,405781329e-02    1,199386343e-01   -3,718381822e-01    2,531574965e-01    0,000000000e+00    0,000000000e+00    0,000000000e+00    0,000000000e+00
     1430000000   -5,792888999e-02    6,606169045e-02   -1,645065546e-01    4,638997614e-01    0,000000000e+00    0,000000000e+00    0,000000000e+00    0,000000000e+00
     1444000000   -3,688353300e-02    5,772494711e-03    1,660458148e-01    5,433275104e-01    0,000000000e+00    0,000000000e+00    0,000000000e+00    0,000000000e+00
     1458000000   -6,057303399e-02   -7,709200680e-02    4,949862957e-01    4,790945947e-01    0,000000000e+00    0,000000000e+00    0,000000000e+00    0,000000000e+00
     1472000000   -1,352496445e-01   -1,196288690e-01    7,585848570e-01    2,673741877e-01    0,000000000e+00    0,000000000e+00    0,000000000e+00    0,000000000e+00
     1486000000   -2,254307717e-01   -1,123799756e-01    8,955163360e-01   -9,140208364e-02    0,000000000e+00    0,000000000e+00    0,000000000e+00    0,000000000e+00
     1500000000   -2,787721753e-01   -4,240182042e-02    8,081441522e-01   -4,589479864e-01    0,000000000e+00    0,000000000e+00    0,000000000e+00    0,000000000e+00
