! NanoVNA-App
! Date: 2025-09-25 15:05:50
! Start: 100MHz Stop: 1,5GHz Points: 101
! S-Parameter data: F S11 S21 S12 S22
# Hz S RI R 50
!     Frequency           S11_Real           S11_Imag           S21_Real           S21_Imag           S12_Real           S12_Imag           S22_Real           S22_Imag
      100000000    3,115833737e-02    2,865123004e-02    4,348236024e-01   -6,686357856e-01    0,000000000e+00    0,000000000e+00    0,000000000e+00    0,000000000e+00
      114000000    5,759954453e-02    5,523334723e-03    7,934662513e-03   -7,910178900e-01    0,000000000e+00    0,000000000e+00    0,000000000e+00    0,000000000e+00
      128000000    6,727726012e-02   -3,780784830e-02   -4,103696346e-01   -6,710866094e-01    0,000000000e+00    0,000000000e+00    0,000000000e+00    0,000000000e+00
      142000000    4,467937350e-02   -8,420474827e-02   -7,028167844e-01   -3,531286418e-01    0,000000000e+00    0,000000000e+00    0,000000000e+00    0,000000000e+00
      156000000   -5,255287979e-03   -1,068333238e-01   -7,874984741e-01    7,356397063e-02    0,000000000e+00    0,000000000e+00    0,000000000e+00    0,000000000e+00
      170000000   -5,765886977e-02   -9,052494168e-02   -6,275117397e-01    4,869712889e-01    0,000000000e+00    0,000000000e+00    0,000000000e+00    0,000000000e+00
      184000000   -8,369928598e-02   -4,946837574e-02   -2,651230991e-01    7,510494590e-01    0,000000000e+00    0,000000000e+00    0,000000000e+00    0,000000000e+00
      198000000   -7,963810116e-02   -1,046837959e-02    1,832725853e-01    7,729016542e-01    0,000000000e+00    0,000000000e+00    0,000000000e+00    0,000000000e+00
      212000000   -6,221055984e-02    1,316122152e-02    5,692433715e-01    5,489815474e-01    0,000000000e+00    0,000000000e+00    0,000000000e+00    0,000000000e+00
      226000000   -4,326345399e-02    2,773740701e-02    7,707774639e-01    1,544536650e-01    0,000000000e+00    0,000000000e+00    0,000000000e+00    0,000000000e+00
      240000000   -1,820995659e-02    3,852769360e-02    7,267211080e-01   -2,820161879e-01    0,000000000e+00    0,000000000e+00    0,000000000e+00    0,000000000e+00
      254000000    1,719846763e-02    3,516329080e-02    4,579376578e-01   -6,200780272e-01    0,000000000e+00    0,000000000e+00    0,000000000e+00    0,000000000e+00
      268000000    4,875095189e-02    5,622581579e-03    5,892691016e-02   -7,604899406e-01    0,000000000e+00    0,000000000e+00    0,000000000e+00    0,000000000e+00
      282000000    5,345554650e-02   -4,177009314e-02   -3,489822447e-01   -6,715064645e-01    0,000000000e+00    0,000000000e+00    0,000000000e+00    0,000000000e+00
      296000000    2,400232293e-02   -7,946150005e-02   -6,517039537e-01   -3,854908049e-01    0,000000000e+00    0,000000000e+00    0,000000000e+00    0,000000000e+00
      310000000   -1,807803661e-02   -8,321075886e-02   -7,644227147e-01    2,085394040e-02    0,000000000e+00    0,000000000e+00    0,000000000e+00    0,000000000e+00
      324000000   -4,163533449e-02   -5,879769847e-02   -6,314138770e-01    4,315688312e-01    0,000000000e+00    0,000000000e+00    0,000000000e+00    0,000000000e+00
      338000000   -3,436024114e-02   -3,683332726e-02   -2,972792983e-01    7,015363574e-01    0,000000000e+00    0,000000000e+00    0,000000000e+00    0,000000000e+00
      352000000   -1,727897301e-02   -4,083726928e-02    1,255031526e-01    7,425225377e-01    0,000000000e+00    0,000000000e+00    0,000000000e+00    0,000000000e+00
      366000000   -1,924953051e-02   -6,197481975e-02    4,981171489e-01    5,550328493e-01    0,000000000e+00    0,000000000e+00    0,000000000e+00    0,000000000e+00
      380000000   -4,437664151e-02   -7,241138816e-02    7,134929299e-01    1,998997033e-01    0,000000000e+00    0,000000000e+00    0,000000000e+00    0,000000000e+00
      394000000   -7,089803368e-02   -5,780775473e-02    7,043759227e-01   -2,164776921e-01    0,000000000e+00    0,000000000e+00    0,000000000e+00    0,000000000e+00
      408000000   -7,667969912e-02   -3,058201075e-02    4,706792533e-01   -5,583295822e-01    0,000000000e+00    0,000000000e+00    0,000000000e+00    0,000000000e+00
      422000000   -6,562563032e-02   -1,137168054e-02    9,280560911e-02   -7,183892727e-01    0,000000000e+00    0,000000000e+00    0,000000000e+00    0,000000000e+00
      436000000   -5,305817351e-02   -4,443915561e-03   -3,021762073e-01   -6,468361616e-01    0,000000000e+00    0,000000000e+00    0,000000000e+00    0,000000000e+00
      450000000   -4,482834786e-02    1,554153045e-03   -5,937048793e-01   -3,788981736e-01    0,000000000e+00    0,000000000e+00    0,000000000e+00    0,000000000e+00
      464000000   -2,945705689e-02    1,169885788e-02   -6,910438538e-01    1,750246302e-04    0,000000000e+00    0,000000000e+00    0,000000000e+00    0,000000000e+00
      478000000   -1,159464242e-03    1,113458257e-02   -5,736367702e-01    3,635100126e-01    0,000000000e+00    0,000000000e+00    0,000000000e+00    0,000000000e+00
      492000000    2,813438326e-02   -1,279317867e-02   -2,892175019e-01    6,027694345e-01    0,000000000e+00    0,000000000e+00    0,000000000e+00    0,000000000e+00
      506000000    3,675465286e-02   -5,606052279e-02    6,998737901e-02    6,577099562e-01    0,000000000e+00    0,000000000e+00    0,000000000e+00    0,000000000e+00
      520000000    1,261393540e-02   -9,836579859e-02    3,995635211e-01    5,268018842e-01    0,000000000e+00    0,000000000e+00    0,000000000e+00    0,000000000e+00
      534000000   -3,471492976e-02   -1,161923334e-01    6,238172054e-01    2,359644324e-01    0,000000000e+00    0,000000000e+00    0,000000000e+00    0,000000000e+00
      548000000   -7,748495787e-02   -9,930860996e-02    6,579731107e-01   -1,336172521e-01    0,000000000e+00    0,000000000e+00    0,000000000e+00    0,000000000e+00
      562000000   -9,367760271e-02   -6,578776240e-02    4,819522500e-01   -4,663276970e-01    0,000000000e+00    0,000000000e+00    0,000000000e+00    0,000000000e+00
      576000000   -8,651597053e-02   -4,418568686e-02    1,502873152e-01   -6,480513215e-01    0,000000000e+00    0,000000000e+00    0,000000000e+00    0,000000000e+00
      590000000   -8,070702106e-02   -4,157465324e-02   -2,212359160e-01   -6,259911060e-01    0,000000000e+00    0,000000000e+00    0,000000000e+00    0,000000000e+00
      604000000   -8,915936947e-02   -3,725248948e-02   -5,199015737e-01   -4,057192504e-01    0,000000000e+00    0,000000000e+00    0,000000000e+00    0,000000000e+00
      618000000   -9,667954594e-02   -1,534181833e-02   -6,530109644e-01   -5,830789730e-02    0,000000000e+00    0,000000000e+00    0,000000000e+00    0,000000000e+00
      632000000   -8,076705039e-02    1,523787249e-02   -5,746851563e-01    3,024024665e-01    0,000000000e+00    0,000000000e+00    0,000000000e+00    0,000000000e+00
      646000000   -4,253389686e-02    2,575957961e-02   -3,181912601e-01    5,556628704e-01    0,000000000e+00    0,000000000e+00    0,000000000e+00    0,000000000e+00
      660000000   -7,420060690e-03    5,629151594e-03    2,125839144e-02    6,298791766e-01    0,000000000e+00    0,000000000e+00    0,000000000e+00    0,000000000e+00
      674000000    3,823715087e-04   -3,035244532e-02    3,417075872e-01    5,183489919e-01    0,000000000e+00    0,000000000e+00    0,000000000e+00    0,000000000e+00
      688000000   -1,437121630e-02   -5,519181490e-02    5,589550138e-01    2,581568956e-01    0,000000000e+00    0,000000000e+00    0,000000000e+00    0,000000000e+00
      702000000   -3,359429911e-02   -5,879050121e-02    6,047128439e-01   -7,919105142e-02    0,000000000e+00    0,000000000e+00    0,000000000e+00    0,000000000e+00
      716000000   -3,688626736e-02   -5,644951388e-02    4,596489370e-01   -3,897177577e-01    0,000000000e+00    0,000000000e+00    0,000000000e+00    0,000000000e+00
      730000000   -3,115671128e-02   -6,507589668e-02    1,734711677e-01   -5,660929084e-01    0,000000000e+00    0,000000000e+00    0,000000000e+00    0,000000000e+00
      744000000   -4,015864804e-02   -8,784962445e-02   -1,526465863e-01   -5,632496476e-01    0,000000000e+00    0,000000000e+00    0,000000000e+00    0,000000000e+00
      758000000   -7,142436504e-02   -1,050023064e-01   -4,273221195e-01   -3,941778541e-01    0,000000000e+00    0,000000000e+00    0,000000000e+00    0,000000000e+00
      772000000   -1,134560108e-01   -9,354875982e-02   -5,744550228e-01   -1,058676988e-01    0,000000000e+00    0,000000000e+00    0,000000000e+00    0,000000000e+00
      786000000   -1,388766915e-01   -5,554071069e-02   -5,449005365e-01    2,205634415e-01    0,000000000e+00    0,000000000e+00    0,000000000e+00    0,000000000e+00
      800000000   -1,333336383e-01   -1,423246507e-02   -3,412773311e-01    4,806008041e-01    0,000000000e+00    0,000000000e+00    0,000000000e+00    0,000000000e+00
      814000000   -1,083102673e-01    8,210836910e-03   -3,452037647e-02    5,860348344e-01    0,000000000e+00    0,000000000e+00    0,000000000e+00    0,000000000e+00
      828000000   -8,580575883e-02    1,395749580e-02    2,791712582e-01    5,140431523e-01    0,000000000e+00    0,000000000e+00    0,000000000e+00    0,000000000e+00
      842000000   -7,091616094e-02    1,447472163e-02    5,031123161e-01    2,896924913e-01    0,000000000e+00    0,000000000e+00    0,000000000e+00    0,000000000e+00
      856000000   -5,237824470e-02    1,872909255e-02    5,708667040e-01   -1,784820296e-02    0,000000000e+00    0,000000000e+00    0,000000000e+00    0,000000000e+00
      870000000   -2,242422476e-02    1,413365081e-02    4,638184309e-01   -3,068183064e-01    0,000000000e+00    0,000000000e+00    0,000000000e+00    0,000000000e+00
      884000000    6,299484987e-03   -1,427840069e-02    2,300112695e-01   -4,882068932e-01    0,000000000e+00    0,000000000e+00    0,000000000e+00    0,000000000e+00
      898000000    1,177283563e-02   -6,315397471e-02   -5,190003291e-02   -5,252425075e-01    0,000000000e+00    0,000000000e+00    0,000000000e+00    0,000000000e+00
      912000000   -2,373449691e-02   -1,084897071e-01   -3,608086109e-01   -4,112617373e-01    0,000000000e+00    0,000000000e+00    0,000000000e+00    0,000000000e+00
      926000000   -7,350714505e-02   -1,251006871e-01   -5,305557251e-01   -1,585607231e-01    0,000000000e+00    0,000000000e+00    0,000000000e+00    0,000000000e+00
      940000000   -1,260697544e-01   -1,015607789e-01   -5,541318655e-01    1,573651433e-01    0,000000000e+00    0,000000000e+00    0,000000000e+00    0,000000000e+00
      954000000   -1,442499757e-01   -6,241794676e-02   -3,936869502e-01    4,469411075e-01    0,000000000e+00    0,000000000e+00    0,000000000e+00    0,000000000e+00
      968000000   -1,303420961e-01   -3,061912023e-02   -9,335207194e-02    6,042752266e-01    0,000000000e+00    0,000000000e+00    0,000000000e+00    0,000000000e+00
      982000000   -1,139848530e-01   -1,853866316e-02    2,476416379e-01    5,719009042e-01    0,000000000e+00    0,000000000e+00    0,000000000e+00    0,000000000e+00
      996000000   -1,100209057e-01   -1,241130009e-02    5,118645430e-01    3,651385605e-01    0,000000000e+00    0,000000000e+00    0,000000000e+00    0,000000000e+00
     1010000000   -9,910791367e-02   -8,897281252e-03    6,289246082e-01    5,392008275e-02    0,000000000e+00    0,000000000e+00    0,000000000e+00    0,000000000e+00
     1024000000   -8,943266422e-02   -2,905195743e-06    5,624896288e-01   -2,724435031e-01    0,000000000e+00    0,000000000e+00    0,000000000e+00    0,000000000e+00
     1038000000   -7,707392424e-02   -2,729577944e-03    3,365136683e-01   -5,042895675e-01    0,000000000e+00    0,000000000e+00    0,000000000e+00    0,000000000e+00
     1052000000   -6,419432908e-02   -1,417486556e-02    3,257339820e-02   -5,844216943e-01    0,000000000e+00    0,000000000e+00    0,000000000e+00    0,000000000e+00
     1066000000   -7,080430537e-02   -2,894496731e-02   -2,687984109e-01   -5,013817549e-01    0,000000000e+00    0,000000000e+00    0,000000000e+00    0,000000000e+00
     1080000000   -8,617310226e-02   -3,265850246e-02   -4,803703725e-01   -2,713633478e-01    0,000000000e+00    0,000000000e+00    0,000000000e+00    0,000000000e+00
     1094000000   -7,811609656e-02   -1,639110222e-02   -5,316895843e-01    4,020292684e-02    0,000000000e+00    0,000000000e+00    0,000000000e+00    0,000000000e+00
     1108000000   -5,900445208e-02   -8,739621378e-03   -3,975312710e-01    3,272083998e-01    0,000000000e+00    0,000000000e+00    0,000000000e+00    0,000000000e+00
     1122000000   -3,266185522e-02   -3,384985030e-02   -1,346535832e-01    4,829794765e-01    0,000000000e+00    0,000000000e+00    0,000000000e+00    0,000000000e+00
     1136000000   -2,970896289e-02   -8,436671644e-02    1,628859937e-01    4,754224420e-01    0,000000000e+00    0,000000000e+00    0,000000000e+00    0,000000000e+00
     1150000000   -6,796655804e-02   -1,353997439e-01    4,175936282e-01    3,105564117e-01    0,000000000e+00    0,000000000e+00    0,000000000e+00    0,000000000e+00
     1164000000   -1,355850250e-01   -1,493571550e-01    5,639545918e-01    2,659859136e-02    0,000000000e+00    0,000000000e+00    0,000000000e+00    0,000000000e+00
     1178000000   -2,131167054e-01   -1,226735562e-01    5,316780806e-01   -3,153442144e-01    0,000000000e+00    0,000000000e+00    0,000000000e+00    0,000000000e+00
     1192000000   -2,449036241e-01   -4,580917582e-02    2,956900299e-01   -5,989307761e-01    0,000000000e+00    0,000000000e+00    0,000000000e+00    0,000000000e+00
     1206000000   -2,296299338e-01    3,339559212e-02   -6,662989408e-02   -6,986489892e-01    0,000000000e+00    0,000000000e+00    0,000000000e+00    0,000000000e+00
     1220000000   -1,892766356e-01    8,079959452e-02   -4,200743735e-01   -5,782060027e-01    0,000000000e+00    0,000000000e+00    0,000000000e+00    0,000000000e+00
     1234000000   -1,243799254e-01    1,052829474e-01   -6,445103288e-01   -2,890151143e-01    0,000000000e+00    0,000000000e+00    0,000000000e+00    0,000000000e+00
     1248000000   -6,957738101e-02    9,460334480e-02   -6,749981642e-01    6,173923984e-02    0,000000000e+00    0,000000000e+00    0,000000000e+00    0,000000000e+00
     1262000000   -1,031888556e-02    5,810226500e-02   -5,181552768e-01    3,673188686e-01    0,000000000e+00    0,000000000e+00    0,000000000e+00    0,000000000e+00
     1276000000    2,691046335e-02   -4,330504686e-03   -2,409507632e-01    5,448658466e-01    0,000000000e+00    0,000000000e+00    0,000000000e+00    0,000000000e+00
     1290000000    1,980862953e-02   -9,225887805e-02    6,761139631e-02    5,699988604e-01    0,000000000e+00    0,000000000e+00    0,000000000e+00    0,000000000e+00
     1304000000   -3,401970118e-02   -1,681396961e-01    3,620793223e-01    4,617559910e-01    0,000000000e+00    0,000000000e+00    0,000000000e+00    0,000000000e+00
     1318000000   -1,293004006e-01   -2,145105153e-01    5,902786851e-01    2,176404893e-01    0,000000000e+00    0,000000000e+00    0,000000000e+00    0,000000000e+00
     1332000000   -2,525013387e-01   -1,918604672e-01    6,543045640e-01   -1,296543032e-01    0,000000000e+00    0,000000000e+00    0,000000000e+00    0,000000000e+00
     1346000000   -3,273751736e-01   -9,086688608e-02    5,101938248e-01   -4,693738818e-01    0,000000000e+00    0,000000000e+00    0,000000000e+00    0,000000000e+00
     1360000000   -3,331291676e-01    2,408531308e-02    1,873174012e-01   -6,526842117e-01    0,000000000e+00    0,000000000e+00    0,000000000e+00    0,000000000e+00
     1374000000   -2,827518880e-01    1,029242352e-01   -1,529306322e-01   -6,022659540e-01    0,000000000e+00    0,000000000e+00    0,000000000e+00    0,000000000e+00
     1388000000   -2,086431682e-01    1,385990530e-01   -4,029259384e-01   -3,708487153e-01    0,000000000e+00    0,000000000e+00    0,000000000e+00    0,000000000e+00
     1402000000   -1,507420391e-01    1,449033618e-01   -4,836363196e-01   -5,331004038e-02    0,000000000e+00    0,000000000e+00    0,000000000e+00    0,000000000e+00
     1416000000   -9,695024788e-02    1,209479645e-01   -3,838186264e-01    2,499157339e-01    0,000000000e+00    0,000000000e+00    0,000000000e+00    0,000000000e+00
     1430000000   -5,487590283e-02    7,389729470e-02   -1,567028612e-01    4,496210515e-01    0,000000000e+00    0,000000000e+00    0,000000000e+00    0,000000000e+00
     1444000000   -3,480393812e-02   -5,688878242e-03    1,664828658e-01    5,284668207e-01    0,000000000e+00    0,000000000e+00    0,000000000e+00    0,000000000e+00
     1458000000   -6,152714789e-02   -6,974598765e-02    4,846723974e-01    4,723630846e-01    0,000000000e+00    0,000000000e+00    0,000000000e+00    0,000000000e+00
     1472000000   -1,380715817e-01   -1,189951897e-01    7,602362633e-01    2,707143426e-01    0,000000000e+00    0,000000000e+00    0,000000000e+00    0,000000000e+00
     1486000000   -2,301906645e-01   -1,171724573e-01    8,984138966e-01   -7,441905886e-02    0,000000000e+00    0,000000000e+00    0,000000000e+00    0,000000000e+00
     1500000000   -2,876522839e-01   -4,522524774e-02    8,075370193e-01   -4,376732707e-01    0,000000000e+00    0,000000000e+00    0,000000000e+00    0,000000000e+00
