! NanoVNA-App
! Date: 2025-09-25 15:05:12
! Start: 100MHz Stop: 1,5GHz Points: 101
! S-Parameter data: F S11 S21 S12 S22
# Hz S RI R 50
!     Frequency           S11_Real           S11_Imag           S21_Real           S21_Imag           S12_Real           S12_Imag           S22_Real           S22_Imag
      100000000    3,111221641e-02    2,861640975e-02    4,348047078e-01   -6,686720848e-01    0,000000000e+00    0,000000000e+00    0,000000000e+00    0,000000000e+00
      114000000    5,750308931e-02    5,500512198e-03    7,657960057e-03   -7,910702825e-01    0,000000000e+00    0,000000000e+00    0,000000000e+00    0,000000000e+00
      128000000    6,723338366e-02   -3,776843473e-02   -4,103853703e-01   -6,710735559e-01    0,000000000e+00    0,000000000e+00    0,000000000e+00    0,000000000e+00
      142000000    4,468527809e-02   -8,412320167e-02   -7,027665377e-01   -3,530304432e-01    0,000000000e+00    0,000000000e+00    0,000000000e+00    0,000000000e+00
      156000000   -5,615237169e-03   -1,060715020e-01   -7,866422534e-01    7,291761786e-02    0,000000000e+00    0,000000000e+00    0,000000000e+00    0,000000000e+00
      170000000   -5,769548938e-02   -9,060724825e-02   -6,276328564e-01    4,872673452e-01    0,000000000e+00    0,000000000e+00    0,000000000e+00    0,000000000e+00
      184000000   -8,360220492e-02   -4,941257089e-02   -2,647536099e-01    7,510045767e-01    0,000000000e+00    0,000000000e+00    0,000000000e+00    0,000000000e+00
      198000000   -7,954600453e-02   -1,046967879e-02    1,834806651e-01    7,732449174e-01    0,000000000e+00    0,000000000e+00    0,000000000e+00    0,000000000e+00
      212000000   -6,223562360e-02    1,317018457e-02    5,694771409e-01    5,490069985e-01    0,000000000e+00    0,000000000e+00    0,000000000e+00    0,000000000e+00
      226000000   -4,320006818e-02    2,757774480e-02    7,707013488e-01    1,543577760e-01    0,000000000e+00    0,000000000e+00    0,000000000e+00    0,000000000e+00
      240000000   -1,823590137e-02    3,838631883e-02    7,269591689e-01   -2,821180224e-01    0,000000000e+00    0,000000000e+00    0,000000000e+00    0,000000000e+00
      254000000    1,716321707e-02    3,507673368e-02    4,578566253e-01   -6,203895807e-01    0,000000000e+00    0,000000000e+00    0,000000000e+00    0,000000000e+00
      268000000    4,870197549e-02    5,500349682e-03    5,854663998e-02   -7,603949308e-01    0,000000000e+00    0,000000000e+00    0,000000000e+00    0,000000000e+00
      282000000    5,341775715e-02   -4,182393104e-02   -3,494286537e-01   -6,719059944e-01    0,000000000e+00    0,000000000e+00    0,000000000e+00    0,000000000e+00
      296000000    2,403918840e-02   -7,950324565e-02   -6,519785523e-01   -3,853789568e-01    0,000000000e+00    0,000000000e+00    0,000000000e+00    0,000000000e+00
      310000000   -1,778680086e-02   -8,315511048e-02   -7,643561363e-01    2,101995796e-02    0,000000000e+00    0,000000000e+00    0,000000000e+00    0,000000000e+00
      324000000   -4,139699787e-02   -5,869234726e-02   -6,318919659e-01    4,315158129e-01    0,000000000e+00    0,000000000e+00    0,000000000e+00    0,000000000e+00
      338000000   -3,426664323e-02   -3,671576083e-02   -2,950226068e-01    6,998890042e-01    0,000000000e+00    0,000000000e+00    0,000000000e+00    0,000000000e+00
      352000000   -1,720836386e-02   -4,066846147e-02    1,255679131e-01    7,420782447e-01    0,000000000e+00    0,000000000e+00    0,000000000e+00    0,000000000e+00
      366000000   -1,905875653e-02   -6,199449301e-02    4,989676774e-01    5,544998646e-01    0,000000000e+00    0,000000000e+00    0,000000000e+00    0,000000000e+00
      380000000   -4,397957772e-02   -7,270138711e-02    7,135813832e-01    1,996526271e-01    0,000000000e+00    0,000000000e+00    0,000000000e+00    0,000000000e+00
      394000000   -7,083551586e-02   -5,840546265e-02    7,043676376e-01   -2,164605111e-01    0,000000000e+00    0,000000000e+00    0,000000000e+00    0,000000000e+00
      408000000   -7,704176754e-02   -3,043713048e-02    4,712848365e-01   -5,595445633e-01    0,000000000e+00    0,000000000e+00    0,000000000e+00    0,000000000e+00
      422000000   -6,569758803e-02   -1,140934881e-02    9,275017679e-02   -7,181740999e-01    0,000000000e+00    0,000000000e+00    0,000000000e+00    0,000000000e+00
      436000000   -5,321295187e-02   -4,111813847e-03   -3,030109704e-01   -6,466441154e-01    0,000000000e+00    0,000000000e+00    0,000000000e+00    0,000000000e+00
      450000000   -4,470793158e-02    1,960798632e-03   -5,934470296e-01   -3,772174418e-01    0,000000000e+00    0,000000000e+00    0,000000000e+00    0,000000000e+00
      464000000   -2,968272939e-02    1,146191638e-02   -6,912845373e-01    4,256890970e-04    0,000000000e+00    0,000000000e+00    0,000000000e+00    0,000000000e+00
      478000000   -4,579793604e-04    1,159832999e-02   -5,724856257e-01    3,637949228e-01    0,000000000e+00    0,000000000e+00    0,000000000e+00    0,000000000e+00
      492000000    2,793621831e-02   -1,260272786e-02   -2,892281115e-01    6,022302508e-01    0,000000000e+00    0,000000000e+00    0,000000000e+00    0,000000000e+00
      506000000    3,655737638e-02   -5,604889989e-02    6,977247447e-02    6,579102874e-01    0,000000000e+00    0,000000000e+00    0,000000000e+00    0,000000000e+00
      520000000    1,294382196e-02   -9,839131683e-02    4,039907455e-01    5,272222161e-01    0,000000000e+00    0,000000000e+00    0,000000000e+00    0,000000000e+00
      534000000   -3,406258672e-02   -1,160741672e-01    6,240393519e-01    2,361973673e-01    0,000000000e+00    0,000000000e+00    0,000000000e+00    0,000000000e+00
      548000000   -7,705414295e-02   -9,863226861e-02    6,582622528e-01   -1,333990246e-01    0,000000000e+00    0,000000000e+00    0,000000000e+00    0,000000000e+00
      562000000   -9,302213043e-02   -6,586015970e-02    4,818104506e-01   -4,661827683e-01    0,000000000e+00    0,000000000e+00    0,000000000e+00    0,000000000e+00
      576000000   -8,621463180e-02   -4,449561238e-02    1,497950256e-01   -6,477822065e-01    0,000000000e+00    0,000000000e+00    0,000000000e+00    0,000000000e+00
      590000000   -8,076313883e-02   -4,197514802e-02   -2,221937776e-01   -6,276078820e-01    0,000000000e+00    0,000000000e+00    0,000000000e+00    0,000000000e+00
      604000000   -8,931066841e-02   -3,756445274e-02   -5,201310515e-01   -4,067438543e-01    0,000000000e+00    0,000000000e+00    0,000000000e+00    0,000000000e+00
      618000000   -9,681677073e-02   -1,583308540e-02   -6,535748243e-01   -5,831456557e-02    0,000000000e+00    0,000000000e+00    0,000000000e+00    0,000000000e+00
      632000000   -8,113181591e-02    1,505852677e-02   -5,753018856e-01    3,034056127e-01    0,000000000e+00    0,000000000e+00    0,000000000e+00    0,000000000e+00
      646000000   -4,328573123e-02    2,671377175e-02   -3,178274035e-01    5,566893816e-01    0,000000000e+00    0,000000000e+00    0,000000000e+00    0,000000000e+00
      660000000   -7,173762657e-03    6,463779602e-03    2,139184251e-02    6,305729151e-01    0,000000000e+00    0,000000000e+00    0,000000000e+00    0,000000000e+00
      674000000    1,874863636e-03   -3,035554849e-02    3,425374031e-01    5,186750889e-01    0,000000000e+00    0,000000000e+00    0,000000000e+00    0,000000000e+00
      688000000   -1,398399845e-02   -5,583369359e-02    5,584089160e-01    2,581640780e-01    0,000000000e+00    0,000000000e+00    0,000000000e+00    0,000000000e+00
      702000000   -3,408654779e-02   -6,063810363e-02    6,039692760e-01   -8,142789453e-02    0,000000000e+00    0,000000000e+00    0,000000000e+00    0,000000000e+00
      716000000   -3,697217256e-02   -5,670994520e-02    4,593097270e-01   -3,898389339e-01    0,000000000e+00    0,000000000e+00    0,000000000e+00    0,000000000e+00
      730000000   -3,200277314e-02   -6,540089101e-02    1,733413339e-01   -5,661051869e-01    0,000000000e+00    0,000000000e+00    0,000000000e+00    0,000000000e+00
      744000000   -4,084058478e-02   -8,764050156e-02   -1,525540054e-01   -5,637705326e-01    0,000000000e+00    0,000000000e+00    0,000000000e+00    0,000000000e+00
      758000000   -7,201802731e-02   -1,044337898e-01   -4,278045893e-01   -3,936652541e-01    0,000000000e+00    0,000000000e+00    0,000000000e+00    0,000000000e+00
      772000000   -1,138049066e-01   -9,243275225e-02   -5,746254325e-01   -1,049673259e-01    0,000000000e+00    0,000000000e+00    0,000000000e+00    0,000000000e+00
      786000000   -1,383043975e-01   -5,456714705e-02   -5,445210934e-01    2,216771543e-01    0,000000000e+00    0,000000000e+00    0,000000000e+00    0,000000000e+00
      800000000   -1,311858147e-01   -1,484709606e-02   -3,408430815e-01    4,789706171e-01    0,000000000e+00    0,000000000e+00    0,000000000e+00    0,000000000e+00
      814000000   -1,070100591e-01    7,915666327e-03   -3,485982865e-02    5,858100057e-01    0,000000000e+00    0,000000000e+00    0,000000000e+00    0,000000000e+00
      828000000   -8,518286794e-02    1,289354078e-02    2,780758440e-01    5,137103200e-01    0,000000000e+00    0,000000000e+00    0,000000000e+00    0,000000000e+00
      842000000   -7,120802999e-02    1,418080274e-02    5,024926662e-01    2,896436751e-01    0,000000000e+00    0,000000000e+00    0,000000000e+00    0,000000000e+00
      856000000   -5,363086239e-02    1,833792217e-02    5,705400705e-01   -1,824879833e-02    0,000000000e+00    0,000000000e+00    0,000000000e+00    0,000000000e+00
      870000000   -2,362784185e-02    1,395225059e-02    4,638435841e-01   -3,069823086e-01    0,000000000e+00    0,000000000e+00    0,000000000e+00    0,000000000e+00
      884000000    5,881149322e-03   -1,351086702e-02    2,311602682e-01   -4,883976281e-01    0,000000000e+00    0,000000000e+00    0,000000000e+00    0,000000000e+00
      898000000    1,177077089e-02   -6,317036599e-02   -5,253911391e-02   -5,275354385e-01    0,000000000e+00    0,000000000e+00    0,000000000e+00    0,000000000e+00
      912000000   -2,284057252e-02   -1,069638357e-01   -3,664512336e-01   -4,059145749e-01    0,000000000e+00    0,000000000e+00    0,000000000e+00    0,000000000e+00
      926000000   -7,484526187e-02   -1,249573156e-01   -5,311861038e-01   -1,587602049e-01    0,000000000e+00    0,000000000e+00    0,000000000e+00    0,000000000e+00
      940000000   -1,204663888e-01   -1,050156206e-01   -5,515055656e-01    1,548431367e-01    0,000000000e+00    0,000000000e+00    0,000000000e+00    0,000000000e+00
      954000000   -1,433937103e-01   -6,011482328e-02   -3,937289119e-01    4,472083151e-01    0,000000000e+00    0,000000000e+00    0,000000000e+00    0,000000000e+00
      968000000   -1,339203119e-01   -2,955909632e-02   -9,116617590e-02    6,016040444e-01    0,000000000e+00    0,000000000e+00    0,000000000e+00    0,000000000e+00
      982000000   -1,150049865e-01   -1,565410197e-02    2,470362931e-01    5,728086829e-01    0,000000000e+00    0,000000000e+00    0,000000000e+00    0,000000000e+00
      996000000   -1,069805697e-01   -1,606127061e-02    5,147832632e-01    3,660442829e-01    0,000000000e+00    0,000000000e+00    0,000000000e+00    0,000000000e+00
     1010000000   -1,019837484e-01   -6,732490379e-03    6,299726367e-01    4,913219437e-02    0,000000000e+00    0,000000000e+00    0,000000000e+00    0,000000000e+00
     1024000000   -9,146416187e-02    4,493192304e-03    5,606212020e-01   -2,729468346e-01    0,000000000e+00    0,000000000e+00    0,000000000e+00    0,000000000e+00
     1038000000   -7,606300712e-02    1,386497519e-03    3,361632228e-01   -5,039855838e-01    0,000000000e+00    0,000000000e+00    0,000000000e+00    0,000000000e+00
     1052000000   -5,990820378e-02   -1,544983219e-02    3,012203984e-02   -5,855522752e-01    0,000000000e+00    0,000000000e+00    0,000000000e+00    0,000000000e+00
     1066000000   -6,961919367e-02   -2,837933227e-02   -2,664771080e-01   -4,969493449e-01    0,000000000e+00    0,000000000e+00    0,000000000e+00    0,000000000e+00
     1080000000   -8,480359614e-02   -3,222689778e-02   -4,819146395e-01   -2,675470710e-01    0,000000000e+00    0,000000000e+00    0,000000000e+00    0,000000000e+00
     1094000000   -8,317277580e-02   -2,176595666e-02   -5,292807817e-01    4,590401053e-02    0,000000000e+00    0,000000000e+00    0,000000000e+00    0,000000000e+00
     1108000000   -5,695823580e-02   -1,328843553e-02   -3,956826031e-01    3,290047646e-01    0,000000000e+00    0,000000000e+00    0,000000000e+00    0,000000000e+00
     1122000000   -2,865249291e-02   -3,135192394e-02   -1,331648380e-01    4,820747972e-01    0,000000000e+00    0,000000000e+00    0,000000000e+00    0,000000000e+00
     1136000000   -2,716977336e-02   -8,048557490e-02    1,661897302e-01    4,721794128e-01    0,000000000e+00    0,000000000e+00    0,000000000e+00    0,000000000e+00
     1150000000   -6,196653843e-02   -1,351881921e-01    4,193597436e-01    3,077666461e-01    0,000000000e+00    0,000000000e+00    0,000000000e+00    0,000000000e+00
     1164000000   -1,356810629e-01   -1,496316344e-01    5,615033507e-01    2,167493850e-02    0,000000000e+00    0,000000000e+00    0,000000000e+00    0,000000000e+00
     1178000000   -2,121644318e-01   -1,178890988e-01    5,277616978e-01   -3,155319393e-01    0,000000000e+00    0,000000000e+00    0,000000000e+00    0,000000000e+00
     1192000000   -2,493302226e-01   -4,732627794e-02    2,926297486e-01   -5,956124663e-01    0,000000000e+00    0,000000000e+00    0,000000000e+00    0,000000000e+00
     1206000000   -2,358155400e-01    3,477112576e-02   -6,720040739e-02   -6,964685321e-01    0,000000000e+00    0,000000000e+00    0,000000000e+00    0,000000000e+00
     1220000000   -1,846181303e-01    8,312374353e-02   -4,209159017e-01   -5,775485635e-01    0,000000000e+00    0,000000000e+00    0,000000000e+00    0,000000000e+00
     1234000000   -1,314402074e-01    9,890273958e-02   -6,438230276e-01   -2,885478735e-01    0,000000000e+00    0,000000000e+00    0,000000000e+00    0,000000000e+00
     1248000000   -6,677519530e-02    9,346135706e-02   -6,701573730e-01    6,386314332e-02    0,000000000e+00    0,000000000e+00    0,000000000e+00    0,000000000e+00
     1262000000   -1,079390105e-02    6,563728303e-02   -5,137848258e-01    3,689028621e-01    0,000000000e+00    0,000000000e+00    0,000000000e+00    0,000000000e+00
     1276000000    2,462459169e-02    3,520679660e-03   -2,430415004e-01    5,468946099e-01    0,000000000e+00    0,000000000e+00    0,000000000e+00    0,000000000e+00
     1290000000    2,217522636e-02   -8,628973365e-02    6,767550111e-02    5,748377442e-01    0,000000000e+00    0,000000000e+00    0,000000000e+00    0,000000000e+00
     1304000000   -2,856519073e-02   -1,696951836e-01    3,649988174e-01    4,623182118e-01    0,000000000e+00    0,000000000e+00    0,000000000e+00    0,000000000e+00
     1318000000   -1,354736835e-01   -2,117304355e-01    5,820019245e-01    2,244501114e-01    0,000000000e+00    0,000000000e+00    0,000000000e+00    0,000000000e+00
     1332000000   -2,533590794e-01   -1,872276217e-01    6,451811194e-01   -1,207361445e-01    0,000000000e+00    0,000000000e+00    0,000000000e+00    0,000000000e+00
     1346000000   -3,340677619e-01   -9,271090478e-02    5,051285625e-01   -4,601866305e-01    0,000000000e+00    0,000000000e+00    0,000000000e+00    0,000000000e+00
     1360000000   -3,384541273e-01    2,699706331e-02    1,948838681e-01   -6,316184998e-01    0,000000000e+00    0,000000000e+00    0,000000000e+00    0,000000000e+00
     1374000000   -2,814902663e-01    1,005462259e-01   -1,565312594e-01   -6,037859917e-01    0,000000000e+00    0,000000000e+00    0,000000000e+00    0,000000000e+00
     1388000000   -2,081372291e-01    1,390401125e-01   -4,003047943e-01   -3,737416565e-01    0,000000000e+00    0,000000000e+00    0,000000000e+00    0,000000000e+00
     1402000000   -1,505165100e-01    1,405678093e-01   -4,863045216e-01   -6,037735194e-02    0,000000000e+00    0,000000000e+00    0,000000000e+00    0,000000000e+00
     1416000000   -1,013835147e-01    1,232733950e-01   -3,822507560e-01    2,341931164e-01    0,000000000e+00    0,000000000e+00    0,000000000e+00    0,000000000e+00
     1430000000   -5,512087047e-02    7,289423794e-02   -1,220083460e-01    4,346406460e-01    0,000000000e+00    0,000000000e+00    0,000000000e+00    0,000000000e+00
     1444000000   -4,255521297e-02    8,531334810e-03    1,563226134e-01    5,360785127e-01    0,000000000e+00    0,000000000e+00    0,000000000e+00    0,000000000e+00
     1458000000   -6,187048927e-02   -7,053189725e-02    4,827613235e-01    4,827841520e-01    0,000000000e+00    0,000000000e+00    0,000000000e+00    0,000000000e+00
     1472000000   -1,368555576e-01   -1,224573776e-01    7,605679631e-01    2,771435380e-01    0,000000000e+00    0,000000000e+00    0,000000000e+00    0,000000000e+00
     1486000000   -2,259908468e-01   -1,203849837e-01    8,940746784e-01   -7,607348263e-02    0,000000000e+00    0,000000000e+00    0,000000000e+00    0,000000000e+00
     1500000000   -2,864452899e-01   -5,700319260e-02    7,973628044e-01   -4,624030292e-01    0,000000000e+00    0,000000000e+00    0,000000000e+00    0,000000000e+00
