! NanoVNA-App
! Date: 2025-09-25 15:06:23
! Start: 100MHz Stop: 1,5GHz Points: 101
! S-Parameter data: F S11 S21 S12 S22
# Hz S RI R 50
!     Frequency           S11_Real           S11_Imag           S21_Real           S21_Imag           S12_Real           S12_Imag           S22_Real           S22_Imag
      100000000    3,116200306e-02    2,865449339e-02    4,348239303e-01   -6,685944200e-01    0,000000000e+00    0,000000000e+00    0,000000000e+00    0,000000000e+00
      114000000    5,757708475e-02    5,526150577e-03    7,683226839e-03   -7,909907103e-01    0,000000000e+00    0,000000000e+00    0,000000000e+00    0,000000000e+00
      128000000    6,726250052e-02   -3,778473660e-02   -4,104335606e-01   -6,711342931e-01    0,000000000e+00    0,000000000e+00    0,000000000e+00    0,000000000e+00
      142000000    4,476603493e-02   -8,424227685e-02   -7,028020024e-01   -3,530350029e-01    0,000000000e+00    0,000000000e+00    0,000000000e+00    0,000000000e+00
      156000000   -6,098541431e-03   -1,061808988e-01   -7,856993675e-01    7,338631153e-02    0,000000000e+00    0,000000000e+00    0,000000000e+00    0,000000000e+00
      170000000   -5,761288851e-02   -9,057368338e-02   -6,275801659e-01    4,868993461e-01    0,000000000e+00    0,000000000e+00    0,000000000e+00    0,000000000e+00
      184000000   -8,370520175e-02   -4,944230989e-02   -2,647317350e-01    7,508833408e-01    0,000000000e+00    0,000000000e+00    0,000000000e+00    0,000000000e+00
      198000000   -7,964587212e-02   -1,045620069e-02    1,832437217e-01    7,734384537e-01    0,000000000e+00    0,000000000e+00    0,000000000e+00    0,000000000e+00
      212000000   -6,221547723e-02    1,314597391e-02    5,690910220e-01    5,491518974e-01    0,000000000e+00    0,000000000e+00    0,000000000e+00    0,000000000e+00
      226000000   -4,322750494e-02    2,766484581e-02    7,706744075e-01    1,544913799e-01    0,000000000e+00    0,000000000e+00    0,000000000e+00    0,000000000e+00
      240000000   -1,814845391e-02    3,850069270e-02    7,268546820e-01   -2,820137739e-01    0,000000000e+00    0,000000000e+00    0,000000000e+00    0,000000000e+00
      254000000    1,718059182e-02    3,515464440e-02    4,580107629e-01   -6,202441454e-01    0,000000000e+00    0,000000000e+00    0,000000000e+00    0,000000000e+00
      268000000    4,880887643e-02    5,554990377e-03    5,889417976e-02   -7,603028417e-01    0,000000000e+00    0,000000000e+00    0,000000000e+00    0,000000000e+00
      282000000    5,350328609e-02   -4,187495261e-02   -3,490575254e-01   -6,712311506e-01    0,000000000e+00    0,000000000e+00    0,000000000e+00    0,000000000e+00
      296000000    2,412766218e-02   -7,951563597e-02   -6,521539092e-01   -3,852174878e-01    0,000000000e+00    0,000000000e+00    0,000000000e+00    0,000000000e+00
      310000000   -1,786644384e-02   -8,310377598e-02   -7,636757493e-01    2,052866854e-02    0,000000000e+00    0,000000000e+00    0,000000000e+00    0,000000000e+00
      324000000   -4,152865708e-02   -5,895269290e-02   -6,314352155e-01    4,308301806e-01    0,000000000e+00    0,000000000e+00    0,000000000e+00    0,000000000e+00
      338000000   -3,448851779e-02   -3,714989498e-02   -2,956799865e-01    7,028009295e-01    0,000000000e+00    0,000000000e+00    0,000000000e+00    0,000000000e+00
      352000000   -1,724510267e-02   -4,088186473e-02    1,254500151e-01    7,415866256e-01    0,000000000e+00    0,000000000e+00    0,000000000e+00    0,000000000e+00
      366000000   -1,920217462e-02   -6,181424111e-02    4,977368414e-01    5,551500916e-01    0,000000000e+00    0,000000000e+00    0,000000000e+00    0,000000000e+00
      380000000   -4,447829723e-02   -7,278845459e-02    7,135174274e-01    1,997088790e-01    0,000000000e+00    0,000000000e+00    0,000000000e+00    0,000000000e+00
      394000000   -7,038776577e-02   -5,799471587e-02    7,046968341e-01   -2,160180062e-01    0,000000000e+00    0,000000000e+00    0,000000000e+00    0,000000000e+00
      408000000   -7,682024688e-02   -3,041792475e-02    4,709470272e-01   -5,597561598e-01    0,000000000e+00    0,000000000e+00    0,000000000e+00    0,000000000e+00
      422000000   -6,558860093e-02   -1,140330080e-02    9,393145144e-02   -7,179053426e-01    0,000000000e+00    0,000000000e+00    0,000000000e+00    0,000000000e+00
      436000000   -5,293307081e-02   -4,527874757e-03   -3,021569848e-01   -6,464330554e-01    0,000000000e+00    0,000000000e+00    0,000000000e+00    0,000000000e+00
      450000000   -4,479383677e-02    1,521560946e-03   -5,935580134e-01   -3,780698478e-01    0,000000000e+00    0,000000000e+00    0,000000000e+00    0,000000000e+00
      464000000   -2,950629406e-02    1,169938873e-02   -6,913149357e-01    4,983938998e-04    0,000000000e+00    0,000000000e+00    0,000000000e+00    0,000000000e+00
      478000000   -1,018598676e-03    1,157398429e-02   -5,732799172e-01    3,635423183e-01    0,000000000e+00    0,000000000e+00    0,000000000e+00    0,000000000e+00
      492000000    2,786836587e-02   -1,274286769e-02   -2,894087732e-01    6,016775370e-01    0,000000000e+00    0,000000000e+00    0,000000000e+00    0,000000000e+00
      506000000    3,645024076e-02   -5,624134094e-02    6,886710227e-02    6,588793397e-01    0,000000000e+00    0,000000000e+00    0,000000000e+00    0,000000000e+00
      520000000    1,167727448e-02   -9,929119796e-02    4,056256413e-01    5,231359005e-01    0,000000000e+00    0,000000000e+00    0,000000000e+00    0,000000000e+00
      534000000   -3,422185406e-02   -1,160549521e-01    6,244971156e-01    2,360812873e-01    0,000000000e+00    0,000000000e+00    0,000000000e+00    0,000000000e+00
      548000000   -7,773195207e-02   -9,845943749e-02    6,579605341e-01   -1,331612766e-01    0,000000000e+00    0,000000000e+00    0,000000000e+00    0,000000000e+00
      562000000   -9,321276844e-02   -6,634725630e-02    4,813767672e-01   -4,660778344e-01    0,000000000e+00    0,000000000e+00    0,000000000e+00    0,000000000e+00
      576000000   -8,602911234e-02   -4,447904229e-02    1,508732736e-01   -6,470959783e-01    0,000000000e+00    0,000000000e+00    0,000000000e+00    0,000000000e+00
      590000000   -8,051367849e-02   -4,163840041e-02   -2,202569693e-01   -6,269208193e-01    0,000000000e+00    0,000000000e+00    0,000000000e+00    0,000000000e+00
      604000000   -8,856444061e-02   -3,712899983e-02   -5,190609097e-01   -4,054473341e-01    0,000000000e+00    0,000000000e+00    0,000000000e+00    0,000000000e+00
      618000000   -9,625430405e-02   -1,486376766e-02   -6,531758308e-01   -5,834838748e-02    0,000000000e+00    0,000000000e+00    0,000000000e+00    0,000000000e+00
      632000000   -8,165671676e-02    1,508577634e-02   -5,750549436e-01    3,023876846e-01    0,000000000e+00    0,000000000e+00    0,000000000e+00    0,000000000e+00
      646000000   -4,247892275e-02    2,637392096e-02   -3,186704516e-01    5,559672117e-01    0,000000000e+00    0,000000000e+00    0,000000000e+00    0,000000000e+00
      660000000   -8,056831546e-03    5,483186338e-03    2,264189534e-02    6,308236718e-01    0,000000000e+00    0,000000000e+00    0,000000000e+00    0,000000000e+00
      674000000    3,911757667e-04   -2,981531247e-02    3,428886831e-01    5,188750029e-01    0,000000000e+00    0,000000000e+00    0,000000000e+00    0,000000000e+00
      688000000   -1,473657880e-02   -5,489660054e-02    5,587782860e-01    2,591184676e-01    0,000000000e+00    0,000000000e+00    0,000000000e+00    0,000000000e+00
      702000000   -3,321979940e-02   -5,847316608e-02    6,050942540e-01   -8,216803521e-02    0,000000000e+00    0,000000000e+00    0,000000000e+00    0,000000000e+00
      716000000   -3,760183975e-02   -5,546356738e-02    4,594516456e-01   -3,894199729e-01    0,000000000e+00    0,000000000e+00    0,000000000e+00    0,000000000e+00
      730000000   -3,164109215e-02   -6,444264948e-02    1,740455329e-01   -5,659925342e-01    0,000000000e+00    0,000000000e+00    0,000000000e+00    0,000000000e+00
      744000000   -3,973978385e-02   -8,875045180e-02   -1,523475051e-01   -5,637051463e-01    0,000000000e+00    0,000000000e+00    0,000000000e+00    0,000000000e+00
      758000000   -7,218893617e-02   -1,040885746e-01   -4,273887277e-01   -3,945255876e-01    0,000000000e+00    0,000000000e+00    0,000000000e+00    0,000000000e+00
      772000000   -1,146390140e-01   -9,364736825e-02   -5,745361447e-01   -1,061735302e-01    0,000000000e+00    0,000000000e+00    0,000000000e+00    0,000000000e+00
      786000000   -1,383974552e-01   -5,582443252e-02   -5,455635190e-01    2,206916362e-01    0,000000000e+00    0,000000000e+00    0,000000000e+00    0,000000000e+00
      800000000   -1,332686990e-01   -1,391786616e-02   -3,419217765e-01    4,808077514e-01    0,000000000e+00    0,000000000e+00    0,000000000e+00    0,000000000e+00
      814000000   -1,078055650e-01    8,312225342e-03   -3,458890319e-02    5,864917636e-01    0,000000000e+00    0,000000000e+00    0,000000000e+00    0,000000000e+00
      828000000   -8,488962054e-02    1,381227188e-02    2,789976895e-01    5,136425495e-01    0,000000000e+00    0,000000000e+00    0,000000000e+00    0,000000000e+00
      842000000   -7,054410875e-02    1,532551553e-02    5,026966333e-01    2,890905738e-01    0,000000000e+00    0,000000000e+00    0,000000000e+00    0,000000000e+00
      856000000   -5,167993531e-02    1,926872507e-02    5,703400373e-01   -1,813682914e-02    0,000000000e+00    0,000000000e+00    0,000000000e+00    0,000000000e+00
      870000000   -2,281438373e-02    1,380643062e-02    4,628004432e-01   -3,059012294e-01    0,000000000e+00    0,000000000e+00    0,000000000e+00    0,000000000e+00
      884000000    5,540294107e-03   -1,470088586e-02    2,299204320e-01   -4,878719151e-01    0,000000000e+00    0,000000000e+00    0,000000000e+00    0,000000000e+00
      898000000    1,173738949e-02   -6,342286617e-02   -5,321989954e-02   -5,245568752e-01    0,000000000e+00    0,000000000e+00    0,000000000e+00    0,000000000e+00
      912000000   -2,460318804e-02   -1,075284779e-01   -3,532026708e-01   -4,090012014e-01    0,000000000e+00    0,000000000e+00    0,000000000e+00    0,000000000e+00
      926000000   -7,675146312e-02   -1,247488707e-01   -5,310866833e-01   -1,591385603e-01    0,000000000e+00    0,000000000e+00    0,000000000e+00    0,000000000e+00
      940000000   -1,239135936e-01   -1,000688449e-01   -5,518592596e-01    1,561976820e-01    0,000000000e+00    0,000000000e+00    0,000000000e+00    0,000000000e+00
      954000000   -1,386418492e-01   -6,188461557e-02   -3,920926750e-01    4,447493553e-01    0,000000000e+00    0,000000000e+00    0,000000000e+00    0,000000000e+00
      968000000   -1,295163482e-01   -2,573936805e-02   -9,383330494e-02    6,035760045e-01    0,000000000e+00    0,000000000e+00    0,000000000e+00    0,000000000e+00
      982000000   -1,129451767e-01   -1,808039285e-02    2,452157289e-01    5,722162724e-01    0,000000000e+00    0,000000000e+00    0,000000000e+00    0,000000000e+00
      996000000   -1,085425168e-01   -1,554015465e-02    5,124857426e-01    3,658387661e-01    0,000000000e+00    0,000000000e+00    0,000000000e+00    0,000000000e+00
     1010000000   -1,010968983e-01   -1,047057379e-02    6,288310885e-01    5,226300657e-02    0,000000000e+00    0,000000000e+00    0,000000000e+00    0,000000000e+00
     1024000000   -8,865766972e-02   -2,181327000e-04    5,602291226e-01   -2,688397467e-01    0,000000000e+00    0,000000000e+00    0,000000000e+00    0,000000000e+00
     1038000000   -7,740260661e-02   -3,523075720e-03    3,383412063e-01   -5,042166710e-01    0,000000000e+00    0,000000000e+00    0,000000000e+00    0,000000000e+00
     1052000000   -6,447184831e-02   -1,339024864e-02    3,149044514e-02   -5,869650841e-01    0,000000000e+00    0,000000000e+00    0,000000000e+00    0,000000000e+00
     1066000000   -7,069674134e-02   -2,897348255e-02   -2,689138651e-01   -5,007665753e-01    0,000000000e+00    0,000000000e+00    0,000000000e+00    0,000000000e+00
     1080000000   -7,822951674e-02   -2,911804430e-02   -4,812275469e-01   -2,715705335e-01    0,000000000e+00    0,000000000e+00    0,000000000e+00    0,000000000e+00
     1094000000   -8,052776754e-02   -2,085908689e-02   -5,299436450e-01    4,315932840e-02    0,000000000e+00    0,000000000e+00    0,000000000e+00    0,000000000e+00
     1108000000   -6,148208678e-02   -9,847815149e-03   -3,958527148e-01    3,248840570e-01    0,000000000e+00    0,000000000e+00    0,000000000e+00    0,000000000e+00
     1122000000   -3,298569098e-02   -3,631925210e-02   -1,371310204e-01    4,824721515e-01    0,000000000e+00    0,000000000e+00    0,000000000e+00    0,000000000e+00
     1136000000   -2,859493159e-02   -8,919826895e-02    1,614819020e-01    4,739233851e-01    0,000000000e+00    0,000000000e+00    0,000000000e+00    0,000000000e+00
     1150000000   -6,764209270e-02   -1,314686686e-01    4,197534621e-01    3,113983274e-01    0,000000000e+00    0,000000000e+00    0,000000000e+00    0,000000000e+00
     1164000000   -1,347862333e-01   -1,524838954e-01    5,648580194e-01    2,808042802e-02    0,000000000e+00    0,000000000e+00    0,000000000e+00    0,000000000e+00
     1178000000   -2,119748592e-01   -1,221537068e-01    5,289930701e-01   -3,172870576e-01    0,000000000e+00    0,000000000e+00    0,000000000e+00    0,000000000e+00
     1192000000   -2,503311932e-01   -4,109095782e-02    2,967818677e-01   -5,979670882e-01    0,000000000e+00    0,000000000e+00    0,000000000e+00    0,000000000e+00
     1206000000   -2,354734242e-01    3,193813935e-02   -6,642610580e-02   -6,975519657e-01    0,000000000e+00    0,000000000e+00    0,000000000e+00    0,000000000e+00
     1220000000   -1,879045814e-01    8,541486412e-02   -4,244150519e-01   -5,788318515e-01    0,000000000e+00    0,000000000e+00    0,000000000e+00    0,000000000e+00
     1234000000   -1,318953484e-01    1,047390997e-01   -6,487194896e-01   -2,933170497e-01    0,000000000e+00    0,000000000e+00    0,000000000e+00    0,000000000e+00
     1248000000   -6,776976585e-02    9,946805984e-02   -6,759877801e-01    6,681566685e-02    0,000000000e+00    0,000000000e+00    0,000000000e+00    0,000000000e+00
     1262000000   -1,017338410e-02    6,222328544e-02   -5,186350942e-01    3,667642176e-01    0,000000000e+00    0,000000000e+00    0,000000000e+00    0,000000000e+00
     1276000000    2,487264015e-02   -4,710467474e-04   -2,406952828e-01    5,485792756e-01    0,000000000e+00    0,000000000e+00    0,000000000e+00    0,000000000e+00
     1290000000    2,167188004e-02   -8,957894892e-02    6,893000752e-02    5,711526275e-01    0,000000000e+00    0,000000000e+00    0,000000000e+00    0,000000000e+00
     1304000000   -2,932078205e-02   -1,711782366e-01    3,687991798e-01    4,675828516e-01    0,000000000e+00    0,000000000e+00    0,000000000e+00    0,000000000e+00
     1318000000   -1,335516721e-01   -2,167269439e-01    5,810432434e-01    2,191650867e-01    0,000000000e+00    0,000000000e+00    0,000000000e+00    0,000000000e+00
     1332000000   -2,538893223e-01   -1,850128472e-01    6,525388956e-01   -1,233749464e-01    0,000000000e+00    0,000000000e+00    0,000000000e+00    0,000000000e+00
     1346000000   -3,347779512e-01   -8,852571994e-02    5,034132004e-01   -4,652605057e-01    0,000000000e+00    0,000000000e+00    0,000000000e+00    0,000000000e+00
     1360000000   -3,348644078e-01    2,887876518e-02    1,924234182e-01   -6,403647065e-01    0,000000000e+00    0,000000000e+00    0,000000000e+00    0,000000000e+00
     1374000000   -2,821975052e-01    1,051097065e-01   -1,578356922e-01   -6,078784466e-01    0,000000000e+00    0,000000000e+00    0,000000000e+00    0,000000000e+00
     1388000000   -2,098653615e-01    1,363600641e-01   -4,036812484e-01   -3,761218786e-01    0,000000000e+00    0,000000000e+00    0,000000000e+00    0,000000000e+00
     1402000000   -1,497863382e-01    1,378182620e-01   -4,769122899e-01   -6,792639196e-02    0,000000000e+00    0,000000000e+00    0,000000000e+00    0,000000000e+00
     1416000000   -9,396491945e-02    1,132778525e-01   -3,753394485e-01    2,389431596e-01    0,000000000e+00    0,000000000e+00    0,000000000e+00    0,000000000e+00
     1430000000   -5,187766626e-02    7,732342184e-02   -1,220979616e-01    4,461249411e-01    0,000000000e+00    0,000000000e+00    0,000000000e+00    0,000000000e+00
     1444000000   -3,546081111e-02    5,200001877e-03    1,566655636e-01    5,434617400e-01    0,000000000e+00    0,000000000e+00    0,000000000e+00    0,000000000e+00
     1458000000   -6,167294830e-02   -7,049017400e-02    4,859605730e-01    4,708117843e-01    0,000000000e+00    0,000000000e+00    0,000000000e+00    0,000000000e+00
     1472000000   -1,371320635e-01   -1,154971868e-01    7,515380979e-01    2,690002620e-01    0,000000000e+00    0,000000000e+00    0,000000000e+00    0,000000000e+00
     1486000000   -2,277547717e-01   -1,112143099e-01    8,995493054e-01   -6,590374559e-02    0,000000000e+00    0,000000000e+00    0,000000000e+00    0,000000000e+00
     1500000000   -2,837439179e-01   -4,988152534e-02    8,228983283e-01   -4,509551227e-01    0,000000000e+00    0,000000000e+00    0,000000000e+00    0,000000000e+00
