! NanoVNA-App
! Date: 2025-09-25 15:11:51
! Start: 100MHz Stop: 1,5GHz Points: 101
! S-Parameter data: F S11 S21 S12 S22
# Hz S RI R 50
!     Frequency           S11_Real           S11_Imag           S21_Real           S21_Imag           S12_Real           S12_Imag           S22_Real           S22_Imag
      100000000    3,114322573e-02    2,864153683e-02    4,348960221e-01   -6,686247587e-01    0,000000000e+00    0,000000000e+00    0,000000000e+00    0,000000000e+00
      114000000    5,757540464e-02    5,465673748e-03    7,758976426e-03   -7,909506559e-01    0,000000000e+00    0,000000000e+00    0,000000000e+00    0,000000000e+00
      128000000    6,720269471e-02   -3,779671714e-02   -4,102588892e-01   -6,713210344e-01    0,000000000e+00    0,000000000e+00    0,000000000e+00    0,000000000e+00
      142000000    4,473868757e-02   -8,422533423e-02   -7,029156089e-01   -3,532723188e-01    0,000000000e+00    0,000000000e+00    0,000000000e+00    0,000000000e+00
      156000000   -5,430405959e-03   -1,069256812e-01   -7,872744799e-01    7,410307229e-02    0,000000000e+00    0,000000000e+00    0,000000000e+00    0,000000000e+00
      170000000   -5,763551593e-02   -9,059508890e-02   -6,275982857e-01    4,869526029e-01    0,000000000e+00    0,000000000e+00    0,000000000e+00    0,000000000e+00
      184000000   -8,370357007e-02   -4,947501421e-02   -2,651328444e-01    7,508583665e-01    0,000000000e+00    0,000000000e+00    0,000000000e+00    0,000000000e+00
      198000000   -7,966137677e-02   -1,046648808e-02    1,833713502e-01    7,731270194e-01    0,000000000e+00    0,000000000e+00    0,000000000e+00    0,000000000e+00
      212000000   -6,229953840e-02    1,314627565e-02    5,690152645e-01    5,490597486e-01    0,000000000e+00    0,000000000e+00    0,000000000e+00    0,000000000e+00
      226000000   -4,326799884e-02    2,775790170e-02    7,707679272e-01    1,545207202e-01    0,000000000e+00    0,000000000e+00    0,000000000e+00    0,000000000e+00
      240000000   -1,823874563e-02    3,852853924e-02    7,268511057e-01   -2,819408774e-01    0,000000000e+00    0,000000000e+00    0,000000000e+00    0,000000000e+00
      254000000    1,718460582e-02    3,522053361e-02    4,580243528e-01   -6,203274727e-01    0,000000000e+00    0,000000000e+00    0,000000000e+00    0,000000000e+00
      268000000    4,885183647e-02    5,597453099e-03    5,856495351e-02   -7,605780959e-01    0,000000000e+00    0,000000000e+00    0,000000000e+00    0,000000000e+00
      282000000    5,342129990e-02   -4,179150239e-02   -3,490690887e-01   -6,714608669e-01    0,000000000e+00    0,000000000e+00    0,000000000e+00    0,000000000e+00
      296000000    2,410608158e-02   -7,954577357e-02   -6,522094011e-01   -3,857358992e-01    0,000000000e+00    0,000000000e+00    0,000000000e+00    0,000000000e+00
      310000000   -1,780933328e-02   -8,308915794e-02   -7,634688616e-01    2,107866853e-02    0,000000000e+00    0,000000000e+00    0,000000000e+00    0,000000000e+00
      324000000   -4,169463366e-02   -5,868443102e-02   -6,320945024e-01    4,313410819e-01    0,000000000e+00    0,000000000e+00    0,000000000e+00    0,000000000e+00
      338000000   -3,435906395e-02   -3,695761040e-02   -2,948101163e-01    7,024321556e-01    0,000000000e+00    0,000000000e+00    0,000000000e+00    0,000000000e+00
      352000000   -1,761832833e-02   -4,086921364e-02    1,256438196e-01    7,430664897e-01    0,000000000e+00    0,000000000e+00    0,000000000e+00    0,000000000e+00
      366000000   -1,945490949e-02   -6,220364198e-02    4,965887070e-01    5,546500087e-01    0,000000000e+00    0,000000000e+00    0,000000000e+00    0,000000000e+00
      380000000   -4,440395162e-02   -7,260818034e-02    7,127000690e-01    1,991042644e-01    0,000000000e+00    0,000000000e+00    0,000000000e+00    0,000000000e+00
      394000000   -7,096702605e-02   -5,836335942e-02    7,037385702e-01   -2,167457342e-01    0,000000000e+00    0,000000000e+00    0,000000000e+00    0,000000000e+00
      408000000   -7,689643651e-02   -3,053873777e-02    4,706106186e-01   -5,607291460e-01    0,000000000e+00    0,000000000e+00    0,000000000e+00    0,000000000e+00
      422000000   -6,521786749e-02   -1,123592257e-02    9,359024465e-02   -7,179112434e-01    0,000000000e+00    0,000000000e+00    0,000000000e+00    0,000000000e+00
      436000000   -5,268894881e-02   -4,525558557e-03   -3,023993671e-01   -6,463729739e-01    0,000000000e+00    0,000000000e+00    0,000000000e+00    0,000000000e+00
      450000000   -4,446654767e-02    1,702286419e-03   -5,926278234e-01   -3,783936799e-01    0,000000000e+00    0,000000000e+00    0,000000000e+00    0,000000000e+00
      464000000   -2,955666184e-02    1,109030657e-02   -6,912500262e-01   -9,766995208e-05    0,000000000e+00    0,000000000e+00    0,000000000e+00    0,000000000e+00
      478000000   -1,010880223e-03    1,093086228e-02   -5,735989809e-01    3,628749549e-01    0,000000000e+00    0,000000000e+00    0,000000000e+00    0,000000000e+00
      492000000    2,770674229e-02   -1,203648746e-02   -2,895859778e-01    6,023781300e-01    0,000000000e+00    0,000000000e+00    0,000000000e+00    0,000000000e+00
      506000000    3,678710014e-02   -5,571299419e-02    6,901191175e-02    6,585448384e-01    0,000000000e+00    0,000000000e+00    0,000000000e+00    0,000000000e+00
      520000000    1,321984455e-02   -9,845574200e-02    4,036681056e-01    5,285154581e-01    0,000000000e+00    0,000000000e+00    0,000000000e+00    0,000000000e+00
      534000000   -3,433843702e-02   -1,159407869e-01    6,234698296e-01    2,367348969e-01    0,000000000e+00    0,000000000e+00    0,000000000e+00    0,000000000e+00
      548000000   -7,770246267e-02   -9,942027181e-02    6,580458879e-01   -1,335056722e-01    0,000000000e+00    0,000000000e+00    0,000000000e+00    0,000000000e+00
      562000000   -9,355402738e-02   -6,598308682e-02    4,809755683e-01   -4,669102728e-01    0,000000000e+00    0,000000000e+00    0,000000000e+00    0,000000000e+00
      576000000   -8,606319129e-02   -4,461488873e-02    1,508631706e-01   -6,481909752e-01    0,000000000e+00    0,000000000e+00    0,000000000e+00    0,000000000e+00
      590000000   -8,100775629e-02   -4,172362015e-02   -2,200213373e-01   -6,288415194e-01    0,000000000e+00    0,000000000e+00    0,000000000e+00    0,000000000e+00
      604000000   -8,873001486e-02   -3,743141517e-02   -5,188915730e-01   -4,065658152e-01    0,000000000e+00    0,000000000e+00    0,000000000e+00    0,000000000e+00
      618000000   -9,708353132e-02   -1,539799105e-02   -6,537007689e-01   -5,818075687e-02    0,000000000e+00    0,000000000e+00    0,000000000e+00    0,000000000e+00
      632000000   -8,056343347e-02    1,541375741e-02   -5,754781365e-01    3,031466007e-01    0,000000000e+00    0,000000000e+00    0,000000000e+00    0,000000000e+00
      646000000   -4,288274795e-02    2,596928552e-02   -3,186551034e-01    5,557942390e-01    0,000000000e+00    0,000000000e+00    0,000000000e+00    0,000000000e+00
      660000000   -8,124910295e-03    6,135548931e-03    2,138626203e-02    6,298397183e-01    0,000000000e+00    0,000000000e+00    0,000000000e+00    0,000000000e+00
      674000000    5,354596651e-04   -3,005552292e-02    3,425872922e-01    5,183531642e-01    0,000000000e+00    0,000000000e+00    0,000000000e+00    0,000000000e+00
      688000000   -1,524308883e-02   -5,615575984e-02    5,589032173e-01    2,588535547e-01    0,000000000e+00    0,000000000e+00    0,000000000e+00    0,000000000e+00
      702000000   -3,386476636e-02   -5,981729925e-02    6,054019928e-01   -8,143290132e-02    0,000000000e+00    0,000000000e+00    0,000000000e+00    0,000000000e+00
      716000000   -3,642365336e-02   -5,583291128e-02    4,601829946e-01   -3,897486627e-01    0,000000000e+00    0,000000000e+00    0,000000000e+00    0,000000000e+00
      730000000   -3,258256987e-02   -6,541115791e-02    1,737761199e-01   -5,663676858e-01    0,000000000e+00    0,000000000e+00    0,000000000e+00    0,000000000e+00
      744000000   -4,027128592e-02   -8,876068145e-02   -1,529637873e-01   -5,630165935e-01    0,000000000e+00    0,000000000e+00    0,000000000e+00    0,000000000e+00
      758000000   -7,272718847e-02   -1,047433466e-01   -4,271858931e-01   -3,945893049e-01    0,000000000e+00    0,000000000e+00    0,000000000e+00    0,000000000e+00
      772000000   -1,146280393e-01   -9,401483834e-02   -5,743239522e-01   -1,060694307e-01    0,000000000e+00    0,000000000e+00    0,000000000e+00    0,000000000e+00
      786000000   -1,387389898e-01   -5,547393486e-02   -5,448511243e-01    2,205931246e-01    0,000000000e+00    0,000000000e+00    0,000000000e+00    0,000000000e+00
      800000000   -1,334838718e-01   -1,436238084e-02   -3,421161771e-01    4,806676805e-01    0,000000000e+00    0,000000000e+00    0,000000000e+00    0,000000000e+00
      814000000   -1,083231643e-01    8,910649456e-03   -3,380247951e-02    5,859817863e-01    0,000000000e+00    0,000000000e+00    0,000000000e+00    0,000000000e+00
      828000000   -8,551791310e-02    1,389518753e-02    2,792085111e-01    5,135595798e-01    0,000000000e+00    0,000000000e+00    0,000000000e+00    0,000000000e+00
      842000000   -7,013216615e-02    1,464115828e-02    5,025985241e-01    2,895556986e-01    0,000000000e+00    0,000000000e+00    0,000000000e+00    0,000000000e+00
      856000000   -5,268635228e-02    1,916188374e-02    5,707123280e-01   -1,802789792e-02    0,000000000e+00    0,000000000e+00    0,000000000e+00    0,000000000e+00
      870000000   -2,299783565e-02    1,487068273e-02    4,633952081e-01   -3,067480028e-01    0,000000000e+00    0,000000000e+00    0,000000000e+00    0,000000000e+00
      884000000    6,206297781e-03   -1,485147141e-02    2,307474911e-01   -4,888095558e-01    0,000000000e+00    0,000000000e+00    0,000000000e+00    0,000000000e+00
      898000000    1,221422665e-02   -6,383462995e-02   -5,291537568e-02   -5,272421241e-01    0,000000000e+00    0,000000000e+00    0,000000000e+00    0,000000000e+00
      912000000   -2,382205985e-02   -1,088985354e-01   -3,608607352e-01   -4,093581736e-01    0,000000000e+00    0,000000000e+00    0,000000000e+00    0,000000000e+00
      926000000   -7,731264085e-02   -1,241013557e-01   -5,324577689e-01   -1,587199122e-01    0,000000000e+00    0,000000000e+00    0,000000000e+00    0,000000000e+00
      940000000   -1,243590042e-01   -1,049229726e-01   -5,516340733e-01    1,561686397e-01    0,000000000e+00    0,000000000e+00    0,000000000e+00    0,000000000e+00
      954000000   -1,445635408e-01   -5,955441669e-02   -3,941188455e-01    4,461703002e-01    0,000000000e+00    0,000000000e+00    0,000000000e+00    0,000000000e+00
      968000000   -1,340917200e-01   -2,850587294e-02   -9,354174137e-02    6,022006869e-01    0,000000000e+00    0,000000000e+00    0,000000000e+00    0,000000000e+00
      982000000   -1,143444404e-01   -1,863637939e-02    2,447917312e-01    5,752624869e-01    0,000000000e+00    0,000000000e+00    0,000000000e+00    0,000000000e+00
      996000000   -1,039142683e-01   -1,289996132e-02    5,150195956e-01    3,667774200e-01    0,000000000e+00    0,000000000e+00    0,000000000e+00    0,000000000e+00
     1010000000   -1,028131396e-01   -1,145776082e-02    6,279670596e-01    5,206097662e-02    0,000000000e+00    0,000000000e+00    0,000000000e+00    0,000000000e+00
     1024000000   -9,363251179e-02    2,589458367e-03    5,604714751e-01   -2,695918679e-01    0,000000000e+00    0,000000000e+00    0,000000000e+00    0,000000000e+00
     1038000000   -7,738298923e-02    1,588300511e-04    3,376737535e-01   -5,044509768e-01    0,000000000e+00    0,000000000e+00    0,000000000e+00    0,000000000e+00
     1052000000   -6,365314126e-02   -1,349263731e-02    3,321848065e-02   -5,853256583e-01    0,000000000e+00    0,000000000e+00    0,000000000e+00    0,000000000e+00
     1066000000   -7,097756863e-02   -2,721853368e-02   -2,653106451e-01   -4,997283518e-01    0,000000000e+00    0,000000000e+00    0,000000000e+00    0,000000000e+00
     1080000000   -7,923239470e-02   -3,258297220e-02   -4,802578688e-01   -2,703295052e-01    0,000000000e+00    0,000000000e+00    0,000000000e+00    0,000000000e+00
     1094000000   -8,578208834e-02   -1,926510595e-02   -5,325906873e-01    4,297419637e-02    0,000000000e+00    0,000000000e+00    0,000000000e+00    0,000000000e+00
     1108000000   -5,861065164e-02   -8,170354180e-03   -3,983193636e-01    3,252430856e-01    0,000000000e+00    0,000000000e+00    0,000000000e+00    0,000000000e+00
     1122000000   -2,886070497e-02   -3,536814451e-02   -1,343218535e-01    4,828783274e-01    0,000000000e+00    0,000000000e+00    0,000000000e+00    0,000000000e+00
     1136000000   -2,918355539e-02   -8,807709813e-02    1,626129299e-01    4,747446477e-01    0,000000000e+00    0,000000000e+00    0,000000000e+00    0,000000000e+00
     1150000000   -6,544910371e-02   -1,389064491e-01    4,207146764e-01    3,129939139e-01    0,000000000e+00    0,000000000e+00    0,000000000e+00    0,000000000e+00
     1164000000   -1,403411180e-01   -1,501711160e-01    5,645488501e-01    2,741294540e-02    0,000000000e+00    0,000000000e+00    0,000000000e+00    0,000000000e+00
     1178000000   -2,143425047e-01   -1,190812290e-01    5,317136049e-01   -3,153338730e-01    0,000000000e+00    0,000000000e+00    0,000000000e+00    0,000000000e+00
     1192000000   -2,458411753e-01   -4,046336189e-02    2,977377176e-01   -5,948861241e-01    0,000000000e+00    0,000000000e+00    0,000000000e+00    0,000000000e+00
     1206000000   -2,359939814e-01    3,456537798e-02   -7,012359053e-02   -6,967981458e-01    0,000000000e+00    0,000000000e+00    0,000000000e+00    0,000000000e+00
     1220000000   -1,839209646e-01    8,671788871e-02   -4,192143679e-01   -5,762900114e-01    0,000000000e+00    0,000000000e+00    0,000000000e+00    0,000000000e+00
     1234000000   -1,244974807e-01    1,066043749e-01   -6,480588317e-01   -2,867482305e-01    0,000000000e+00    0,000000000e+00    0,000000000e+00    0,000000000e+00
     1248000000   -6,702400744e-02    9,487660974e-02   -6,753988266e-01    6,243874505e-02    0,000000000e+00    0,000000000e+00    0,000000000e+00    0,000000000e+00
     1262000000   -1,514323428e-02    6,367399544e-02   -5,260633826e-01    3,731108308e-01    0,000000000e+00    0,000000000e+00    0,000000000e+00    0,000000000e+00
     1276000000    2,674528770e-02    3,933444386e-04   -2,421232760e-01    5,486841798e-01    0,000000000e+00    0,000000000e+00    0,000000000e+00    0,000000000e+00
     1290000000    1,757758856e-02   -8,722805977e-02    6,731273979e-02    5,810363889e-01    0,000000000e+00    0,000000000e+00    0,000000000e+00    0,000000000e+00
     1304000000   -3,247402608e-02   -1,685247123e-01    3,701756299e-01    4,711432159e-01    0,000000000e+00    0,000000000e+00    0,000000000e+00    0,000000000e+00
     1318000000   -1,312512457e-01   -2,172887474e-01    5,863330960e-01    2,108016759e-01    0,000000000e+00    0,000000000e+00    0,000000000e+00    0,000000000e+00
     1332000000   -2,480648756e-01   -1,855847687e-01    6,624066234e-01   -1,348024011e-01    0,000000000e+00    0,000000000e+00    0,000000000e+00    0,000000000e+00
     1346000000   -3,322149813e-01   -9,406284243e-02    4,974840283e-01   -4,669525623e-01    0,000000000e+00    0,000000000e+00    0,000000000e+00    0,000000000e+00
     1360000000   -3,365004063e-01    2,504117042e-02    1,870207191e-01   -6,385981441e-01    0,000000000e+00    0,000000000e+00    0,000000000e+00    0,000000000e+00
     1374000000   -2,762869298e-01    1,024878025e-01   -1,554141641e-01   -6,046881676e-01    0,000000000e+00    0,000000000e+00    0,000000000e+00    0,000000000e+00
     1388000000   -2,182505727e-01    1,349252760e-01   -4,073522687e-01   -3,836477995e-01    0,000000000e+00    0,000000000e+00    0,000000000e+00    0,000000000e+00
     1402000000   -1,468306482e-01    1,346585602e-01   -4,766453803e-01   -6,075536460e-02    0,000000000e+00    0,000000000e+00    0,000000000e+00    0,000000000e+00
     1416000000   -9,249369800e-02    1,200889051e-01   -3,721982837e-01    2,448734492e-01    0,000000000e+00    0,000000000e+00    0,000000000e+00    0,000000000e+00
     1430000000   -5,285985023e-02    7,353349030e-02   -1,545016021e-01    4,527881444e-01    0,000000000e+00    0,000000000e+00    0,000000000e+00    0,000000000e+00
     1444000000   -3,941220418e-02    1,943013747e-03    1,640125215e-01    5,327315331e-01    0,000000000e+00    0,000000000e+00    0,000000000e+00    0,000000000e+00
     1458000000   -6,771917641e-02   -7,863947749e-02    4,804688394e-01    4,677982628e-01    0,000000000e+00    0,000000000e+00    0,000000000e+00    0,000000000e+00
     1472000000   -1,332884282e-01   -1,203160062e-01    7,555885315e-01    2,676479220e-01    0,000000000e+00    0,000000000e+00    0,000000000e+00    0,000000000e+00
     1486000000   -2,262677848e-01   -1,135279536e-01    9,018447995e-01   -9,812314063e-02    0,000000000e+00    0,000000000e+00    0,000000000e+00    0,000000000e+00
     1500000000   -2,819549739e-01   -4,441915080e-02    8,123326898e-01   -4,586878419e-01    0,000000000e+00    0,000000000e+00    0,000000000e+00    0,000000000e+00
