! NanoVNA-App
! Date: 2025-09-25 15:10:28
! Start: 100MHz Stop: 1,5GHz Points: 101
! S-Parameter data: F S11 S21 S12 S22
# Hz S RI R 50
!     Frequency           S11_Real           S11_Imag           S21_Real           S21_Imag           S12_Real           S12_Imag           S22_Real           S22_Imag
      100000000    3,116190806e-02    2,864611894e-02    4,349205494e-01   -6,685736179e-01    0,000000000e+00    0,000000000e+00    0,000000000e+00    0,000000000e+00
      114000000    5,758055672e-02    5,519195460e-03    7,760193199e-03   -7,910237312e-01    0,000000000e+00    0,000000000e+00    0,000000000e+00    0,000000000e+00
      128000000    6,731919199e-02   -3,784937039e-02   -4,100961983e-01   -6,710511446e-01    0,000000000e+00    0,000000000e+00    0,000000000e+00    0,000000000e+00
      142000000    4,471352324e-02   -8,423706889e-02   -7,029497623e-01   -3,533350527e-01    0,000000000e+00    0,000000000e+00    0,000000000e+00    0,000000000e+00
      156000000   -6,042414345e-03   -1,065584645e-01   -7,861503959e-01    7,363209128e-02    0,000000000e+00    0,000000000e+00    0,000000000e+00    0,000000000e+00
      170000000   -5,770319328e-02   -9,062106907e-02   -6,278620362e-01    4,871421158e-01    0,000000000e+00    0,000000000e+00    0,000000000e+00    0,000000000e+00
      184000000   -8,368967474e-02   -4,943988100e-02   -2,648899555e-01    7,510049939e-01    0,000000000e+00    0,000000000e+00    0,000000000e+00    0,000000000e+00
      198000000   -7,965128869e-02   -1,047075540e-02    1,835461259e-01    7,730679512e-01    0,000000000e+00    0,000000000e+00    0,000000000e+00    0,000000000e+00
      212000000   -6,224998459e-02    1,316776313e-02    5,691094995e-01    5,492406487e-01    0,000000000e+00    0,000000000e+00    0,000000000e+00    0,000000000e+00
      226000000   -4,324544594e-02    2,771720849e-02    7,706290483e-01    1,544590294e-01    0,000000000e+00    0,000000000e+00    0,000000000e+00    0,000000000e+00
      240000000   -1,822697930e-02    3,849789873e-02    7,269342542e-01   -2,817450464e-01    0,000000000e+00    0,000000000e+00    0,000000000e+00    0,000000000e+00
      254000000    1,720234007e-02    3,521267325e-02    4,579288363e-01   -6,198807359e-01    0,000000000e+00    0,000000000e+00    0,000000000e+00    0,000000000e+00
      268000000    4,878100008e-02    5,626479629e-03    5,877849460e-02   -7,603641152e-01    0,000000000e+00    0,000000000e+00    0,000000000e+00    0,000000000e+00
      282000000    5,344297364e-02   -4,182900861e-02   -3,492086530e-01   -6,718133688e-01    0,000000000e+00    0,000000000e+00    0,000000000e+00    0,000000000e+00
      296000000    2,401902899e-02   -7,957353443e-02   -6,515704989e-01   -3,853936493e-01    0,000000000e+00    0,000000000e+00    0,000000000e+00    0,000000000e+00
      310000000   -1,798920706e-02   -8,328496665e-02   -7,637079358e-01    1,935598254e-02    0,000000000e+00    0,000000000e+00    0,000000000e+00    0,000000000e+00
      324000000   -4,178717732e-02   -5,893602967e-02   -6,322473288e-01    4,302191138e-01    0,000000000e+00    0,000000000e+00    0,000000000e+00    0,000000000e+00
      338000000   -3,410226107e-02   -3,682297096e-02   -2,986429036e-01    7,013444901e-01    0,000000000e+00    0,000000000e+00    0,000000000e+00    0,000000000e+00
      352000000   -1,735048369e-02   -4,102266207e-02    1,262924820e-01    7,427676916e-01    0,000000000e+00    0,000000000e+00    0,000000000e+00    0,000000000e+00
      366000000   -1,902695745e-02   -6,199003384e-02    4,985395074e-01    5,546465516e-01    0,000000000e+00    0,000000000e+00    0,000000000e+00    0,000000000e+00
      380000000   -4,433172941e-02   -7,232486457e-02    7,131785750e-01    2,003526390e-01    0,000000000e+00    0,000000000e+00    0,000000000e+00    0,000000000e+00
      394000000   -7,086025178e-02   -5,790587142e-02    7,044056654e-01   -2,160800248e-01    0,000000000e+00    0,000000000e+00    0,000000000e+00    0,000000000e+00
      408000000   -7,686545700e-02   -3,048256971e-02    4,711562395e-01   -5,597746372e-01    0,000000000e+00    0,000000000e+00    0,000000000e+00    0,000000000e+00
      422000000   -6,533993036e-02   -1,126887649e-02    9,416954219e-02   -7,179576755e-01    0,000000000e+00    0,000000000e+00    0,000000000e+00    0,000000000e+00
      436000000   -5,276630819e-02   -4,499359988e-03   -3,020192385e-01   -6,476312280e-01    0,000000000e+00    0,000000000e+00    0,000000000e+00    0,000000000e+00
      450000000   -4,446506500e-02    1,748509239e-03   -5,929607153e-01   -3,785178363e-01    0,000000000e+00    0,000000000e+00    0,000000000e+00    0,000000000e+00
      464000000   -2,942536213e-02    1,111079194e-02   -6,910931468e-01   -4,019315238e-04    0,000000000e+00    0,000000000e+00    0,000000000e+00    0,000000000e+00
      478000000   -1,008683583e-03    1,108498871e-02   -5,733175278e-01    3,630504310e-01    0,000000000e+00    0,000000000e+00    0,000000000e+00    0,000000000e+00
      492000000    2,753060684e-02   -1,259587239e-02   -2,894379497e-01    6,018662453e-01    0,000000000e+00    0,000000000e+00    0,000000000e+00    0,000000000e+00
      506000000    3,663180396e-02   -5,595887080e-02    6,922697276e-02    6,591905951e-01    0,000000000e+00    0,000000000e+00    0,000000000e+00    0,000000000e+00
      520000000    1,372624841e-02   -9,931908548e-02    4,070191085e-01    5,270251632e-01    0,000000000e+00    0,000000000e+00    0,000000000e+00    0,000000000e+00
      534000000   -3,435098007e-02   -1,163105294e-01    6,236869693e-01    2,364374250e-01    0,000000000e+00    0,000000000e+00    0,000000000e+00    0,000000000e+00
      548000000   -7,743447274e-02   -9,910973161e-02    6,584765315e-01   -1,331783384e-01    0,000000000e+00    0,000000000e+00    0,000000000e+00    0,000000000e+00
      562000000   -9,314174950e-02   -6,623248756e-02    4,819646776e-01   -4,665805399e-01    0,000000000e+00    0,000000000e+00    0,000000000e+00    0,000000000e+00
      576000000   -8,606877923e-02   -4,446122795e-02    1,502633691e-01   -6,476688981e-01    0,000000000e+00    0,000000000e+00    0,000000000e+00    0,000000000e+00
      590000000   -8,069894463e-02   -4,172991961e-02   -2,187424600e-01   -6,283650398e-01    0,000000000e+00    0,000000000e+00    0,000000000e+00    0,000000000e+00
      604000000   -8,894449472e-02   -3,731855750e-02   -5,201153159e-01   -4,059510529e-01    0,000000000e+00    0,000000000e+00    0,000000000e+00    0,000000000e+00
      618000000   -9,643778950e-02   -1,465164777e-02   -6,530275345e-01   -5,840238184e-02    0,000000000e+00    0,000000000e+00    0,000000000e+00    0,000000000e+00
      632000000   -8,071377873e-02    1,510364283e-02   -5,755306482e-01    3,023617268e-01    0,000000000e+00    0,000000000e+00    0,000000000e+00    0,000000000e+00
      646000000   -4,322882369e-02    2,612079866e-02   -3,199036717e-01    5,554192066e-01    0,000000000e+00    0,000000000e+00    0,000000000e+00    0,000000000e+00
      660000000   -7,534762844e-03    5,589740817e-03    2,267638594e-02    6,286451221e-01    0,000000000e+00    0,000000000e+00    0,000000000e+00    0,000000000e+00
      674000000    1,370885409e-03   -3,044921346e-02    3,429330289e-01    5,197405219e-01    0,000000000e+00    0,000000000e+00    0,000000000e+00    0,000000000e+00
      688000000   -1,438452955e-02   -5,532511696e-02    5,587438941e-01    2,589600980e-01    0,000000000e+00    0,000000000e+00    0,000000000e+00    0,000000000e+00
      702000000   -3,296782821e-02   -6,044071540e-02    6,021122336e-01   -8,125011623e-02    0,000000000e+00    0,000000000e+00    0,000000000e+00    0,000000000e+00
      716000000   -3,759052977e-02   -5,510381609e-02    4,598398507e-01   -3,900727034e-01    0,000000000e+00    0,000000000e+00    0,000000000e+00    0,000000000e+00
      730000000   -3,157982230e-02   -6,482404470e-02    1,739993989e-01   -5,657684207e-01    0,000000000e+00    0,000000000e+00    0,000000000e+00    0,000000000e+00
      744000000   -4,045413807e-02   -8,749766648e-02   -1,530588865e-01   -5,631121397e-01    0,000000000e+00    0,000000000e+00    0,000000000e+00    0,000000000e+00
      758000000   -7,149650156e-02   -1,050857902e-01   -4,277633429e-01   -3,943000138e-01    0,000000000e+00    0,000000000e+00    0,000000000e+00    0,000000000e+00
      772000000   -1,140108779e-01   -9,447581321e-02   -5,744035840e-01   -1,060648933e-01    0,000000000e+00    0,000000000e+00    0,000000000e+00    0,000000000e+00
      786000000   -1,386130899e-01   -5,679633096e-02   -5,451931953e-01    2,207167149e-01    0,000000000e+00    0,000000000e+00    0,000000000e+00    0,000000000e+00
      800000000   -1,321337819e-01   -1,482907403e-02   -3,421679139e-01    4,799031019e-01    0,000000000e+00    0,000000000e+00    0,000000000e+00    0,000000000e+00
      814000000   -1,087422520e-01    8,067752235e-03   -3,394692764e-02    5,860614181e-01    0,000000000e+00    0,000000000e+00    0,000000000e+00    0,000000000e+00
      828000000   -8,564023674e-02    1,389560476e-02    2,770629227e-01    5,136918426e-01    0,000000000e+00    0,000000000e+00    0,000000000e+00    0,000000000e+00
      842000000   -7,022348046e-02    1,487833727e-02    5,027350783e-01    2,896488309e-01    0,000000000e+00    0,000000000e+00    0,000000000e+00    0,000000000e+00
      856000000   -5,206988007e-02    1,946262270e-02    5,702601075e-01   -1,770681702e-02    0,000000000e+00    0,000000000e+00    0,000000000e+00    0,000000000e+00
      870000000   -2,257293835e-02    1,423977502e-02    4,635228515e-01   -3,065356910e-01    0,000000000e+00    0,000000000e+00    0,000000000e+00    0,000000000e+00
      884000000    5,931185093e-03   -1,425382402e-02    2,311701477e-01   -4,880553484e-01    0,000000000e+00    0,000000000e+00    0,000000000e+00    0,000000000e+00
      898000000    1,186650619e-02   -6,388948113e-02   -5,187291279e-02   -5,263394117e-01    0,000000000e+00    0,000000000e+00    0,000000000e+00    0,000000000e+00
      912000000   -2,345851995e-02   -1,092947200e-01   -3,520489633e-01   -4,027464986e-01    0,000000000e+00    0,000000000e+00    0,000000000e+00    0,000000000e+00
      926000000   -7,505821437e-02   -1,234835312e-01   -5,289451480e-01   -1,564565450e-01    0,000000000e+00    0,000000000e+00    0,000000000e+00    0,000000000e+00
      940000000   -1,219394878e-01   -1,038892418e-01   -5,499930978e-01    1,544297189e-01    0,000000000e+00    0,000000000e+00    0,000000000e+00    0,000000000e+00
      954000000   -1,447611749e-01   -6,032631174e-02   -3,922955692e-01    4,450767040e-01    0,000000000e+00    0,000000000e+00    0,000000000e+00    0,000000000e+00
      968000000   -1,337725818e-01   -2,995075844e-02   -9,201342613e-02    6,020705700e-01    0,000000000e+00    0,000000000e+00    0,000000000e+00    0,000000000e+00
      982000000   -1,174282432e-01   -1,411213540e-02    2,453356236e-01    5,725004673e-01    0,000000000e+00    0,000000000e+00    0,000000000e+00    0,000000000e+00
      996000000   -1,089227572e-01   -1,192757208e-02    5,130703449e-01    3,649409115e-01    0,000000000e+00    0,000000000e+00    0,000000000e+00    0,000000000e+00
     1010000000   -1,052160785e-01   -1,059815008e-02    6,284352541e-01    5,222523585e-02    0,000000000e+00    0,000000000e+00    0,000000000e+00    0,000000000e+00
     1024000000   -9,092269838e-02    2,904602094e-03    5,602706075e-01   -2,713630795e-01    0,000000000e+00    0,000000000e+00    0,000000000e+00    0,000000000e+00
     1038000000   -7,775650173e-02   -1,734522404e-03    3,389231265e-01   -5,019728541e-01    0,000000000e+00    0,000000000e+00    0,000000000e+00    0,000000000e+00
     1052000000   -6,735329330e-02   -1,829900220e-02    3,374021500e-02   -5,857836604e-01    0,000000000e+00    0,000000000e+00    0,000000000e+00    0,000000000e+00
     1066000000   -6,932032853e-02   -3,257253394e-02   -2,707692087e-01   -5,050543547e-01    0,000000000e+00    0,000000000e+00    0,000000000e+00    0,000000000e+00
     1080000000   -7,902038842e-02   -3,278991953e-02   -4,838070571e-01   -2,682875991e-01    0,000000000e+00    0,000000000e+00    0,000000000e+00    0,000000000e+00
     1094000000   -8,382614702e-02   -1,743877679e-02   -5,303818583e-01    4,265214130e-02    0,000000000e+00    0,000000000e+00    0,000000000e+00    0,000000000e+00
     1108000000   -5,933233351e-02   -1,551869232e-02   -3,981220126e-01    3,256307542e-01    0,000000000e+00    0,000000000e+00    0,000000000e+00    0,000000000e+00
     1122000000   -3,428968042e-02   -3,287659213e-02   -1,357970685e-01    4,802738130e-01    0,000000000e+00    0,000000000e+00    0,000000000e+00    0,000000000e+00
     1136000000   -2,946030162e-02   -8,707497269e-02    1,652489007e-01    4,754575193e-01    0,000000000e+00    0,000000000e+00    0,000000000e+00    0,000000000e+00
     1150000000   -6,470430642e-02   -1,321484298e-01    4,203779697e-01    3,126702309e-01    0,000000000e+00    0,000000000e+00    0,000000000e+00    0,000000000e+00
     1164000000   -1,392627060e-01   -1,514085084e-01    5,643681288e-01    2,771871164e-02    0,000000000e+00    0,000000000e+00    0,000000000e+00    0,000000000e+00
     1178000000   -2,137598991e-01   -1,186009422e-01    5,330919623e-01   -3,160631061e-01    0,000000000e+00    0,000000000e+00    0,000000000e+00    0,000000000e+00
     1192000000   -2,480379492e-01   -4,056217521e-02    2,987232208e-01   -5,964601636e-01    0,000000000e+00    0,000000000e+00    0,000000000e+00    0,000000000e+00
     1206000000   -2,377799302e-01    3,757394105e-02   -6,946596503e-02   -7,002945542e-01    0,000000000e+00    0,000000000e+00    0,000000000e+00    0,000000000e+00
     1220000000   -1,826033145e-01    8,631840348e-02   -4,185408056e-01   -5,777522326e-01    0,000000000e+00    0,000000000e+00    0,000000000e+00    0,000000000e+00
     1234000000   -1,248706728e-01    1,065270975e-01   -6,430013180e-01   -2,876455188e-01    0,000000000e+00    0,000000000e+00    0,000000000e+00    0,000000000e+00
     1248000000   -6,656640023e-02    9,497328848e-02   -6,720667481e-01    6,384085119e-02    0,000000000e+00    0,000000000e+00    0,000000000e+00    0,000000000e+00
     1262000000   -9,388729930e-03    6,407585740e-02   -5,181393623e-01    3,746942580e-01    0,000000000e+00    0,000000000e+00    0,000000000e+00    0,000000000e+00
     1276000000    2,368618734e-02   -4,057901911e-03   -2,433760613e-01    5,445085168e-01    0,000000000e+00    0,000000000e+00    0,000000000e+00    0,000000000e+00
     1290000000    2,357490361e-02   -8,839412779e-02    7,622691244e-02    5,756070614e-01    0,000000000e+00    0,000000000e+00    0,000000000e+00    0,000000000e+00
     1304000000   -3,112939931e-02   -1,750460118e-01    3,665690124e-01    4,620267749e-01    0,000000000e+00    0,000000000e+00    0,000000000e+00    0,000000000e+00
     1318000000   -1,370436847e-01   -2,125013173e-01    5,830823779e-01    2,215340286e-01    0,000000000e+00    0,000000000e+00    0,000000000e+00    0,000000000e+00
     1332000000   -2,543821931e-01   -1,842817366e-01    6,496195793e-01   -1,242682263e-01    0,000000000e+00    0,000000000e+00    0,000000000e+00    0,000000000e+00
     1346000000   -3,409095407e-01   -9,333517402e-02    5,055572391e-01   -4,695314169e-01    0,000000000e+00    0,000000000e+00    0,000000000e+00    0,000000000e+00
     1360000000   -3,350462317e-01    2,400733158e-02    1,806036830e-01   -6,436169147e-01    0,000000000e+00    0,000000000e+00    0,000000000e+00    0,000000000e+00
     1374000000   -2,861775458e-01    1,009344831e-01   -1,594704092e-01   -6,020093560e-01    0,000000000e+00    0,000000000e+00    0,000000000e+00    0,000000000e+00
     1388000000   -2,164045572e-01    1,354465634e-01   -4,134147763e-01   -3,824675381e-01    0,000000000e+00    0,000000000e+00    0,000000000e+00    0,000000000e+00
     1402000000   -1,478132010e-01    1,374978870e-01   -4,757205844e-01   -6,179995090e-02    0,000000000e+00    0,000000000e+00    0,000000000e+00    0,000000000e+00
     1416000000   -9,354509413e-02    1,132533178e-01   -3,777055442e-01    2,406526804e-01    0,000000000e+00    0,000000000e+00    0,000000000e+00    0,000000000e+00
     1430000000   -5,417926610e-02    7,208272815e-02   -1,293716133e-01    4,496740699e-01    0,000000000e+00    0,000000000e+00    0,000000000e+00    0,000000000e+00
     1444000000   -3,919031844e-02    3,474310506e-03    1,722969413e-01    5,347376466e-01    0,000000000e+00    0,000000000e+00    0,000000000e+00    0,000000000e+00
     1458000000   -6,147259846e-02   -7,479804009e-02    4,952812195e-01    4,770849347e-01    0,000000000e+00    0,000000000e+00    0,000000000e+00    0,000000000e+00
     1472000000   -1,330554783e-01   -1,192179844e-01    7,593978047e-01    2,815935910e-01    0,000000000e+00    0,000000000e+00    0,000000000e+00    0,000000000e+00
     1486000000   -2,320733666e-01   -1,166109815e-01    8,876463175e-01   -9,207744151e-02    0,000000000e+00    0,000000000e+00    0,000000000e+00    0,000000000e+00
     1500000000   -2,849811316e-01   -4,559312761e-02    8,129138350e-01   -4,392457902e-01    0,000000000e+00    0,000000000e+00    0,000000000e+00    0,000000000e+00
