! NanoVNA-App
! Date: 2025-09-25 15:09:06
! Start: 100MHz Stop: 1,5GHz Points: 101
! S-Parameter data: F S11 S21 S12 S22
# Hz S RI R 50
!     Frequency           S11_Real           S11_Imag           S21_Real           S21_Imag           S12_Real           S12_Imag           S22_Real           S22_Imag
      100000000    3,115686215e-02    2,865781821e-02    4,348683953e-01   -6,686039567e-01    0,000000000e+00    0,000000000e+00    0,000000000e+00    0,000000000e+00
      114000000    5,757402629e-02    5,518361926e-03    7,758047432e-03   -7,910053730e-01    0,000000000e+00    0,000000000e+00    0,000000000e+00    0,000000000e+00
      128000000    6,728443503e-02   -3,781777993e-02   -4,103219211e-01   -6,709982753e-01    0,000000000e+00    0,000000000e+00    0,000000000e+00    0,000000000e+00
      142000000    4,472682253e-02   -8,421222866e-02   -7,026578188e-01   -3,530427217e-01    0,000000000e+00    0,000000000e+00    0,000000000e+00    0,000000000e+00
      156000000   -5,934398621e-03   -1,060174033e-01   -7,860338092e-01    7,252415270e-02    0,000000000e+00    0,000000000e+00    0,000000000e+00    0,000000000e+00
      170000000   -5,763414502e-02   -9,063010663e-02   -6,277174950e-01    4,870698750e-01    0,000000000e+00    0,000000000e+00    0,000000000e+00    0,000000000e+00
      184000000   -8,372490853e-02   -4,945617542e-02   -2,650609016e-01    7,510000467e-01    0,000000000e+00    0,000000000e+00    0,000000000e+00    0,000000000e+00
      198000000   -7,963928580e-02   -1,048700046e-02    1,834607869e-01    7,735991478e-01    0,000000000e+00    0,000000000e+00    0,000000000e+00    0,000000000e+00
      212000000   -6,225417182e-02    1,321118232e-02    5,692496896e-01    5,488906503e-01    0,000000000e+00    0,000000000e+00    0,000000000e+00    0,000000000e+00
      226000000   -4,327687249e-02    2,767980844e-02    7,708587646e-01    1,546930522e-01    0,000000000e+00    0,000000000e+00    0,000000000e+00    0,000000000e+00
      240000000   -1,827395149e-02    3,856239095e-02    7,268140912e-01   -2,819513977e-01    0,000000000e+00    0,000000000e+00    0,000000000e+00    0,000000000e+00
      254000000    1,718955114e-02    3,520338982e-02    4,580702782e-01   -6,202275753e-01    0,000000000e+00    0,000000000e+00    0,000000000e+00    0,000000000e+00
      268000000    4,878373444e-02    5,584536120e-03    5,857115239e-02   -7,603125572e-01    0,000000000e+00    0,000000000e+00    0,000000000e+00    0,000000000e+00
      282000000    5,347436666e-02   -4,174362123e-02   -3,489744663e-01   -6,716086864e-01    0,000000000e+00    0,000000000e+00    0,000000000e+00    0,000000000e+00
      296000000    2,401172556e-02   -7,952267677e-02   -6,524246335e-01   -3,854822814e-01    0,000000000e+00    0,000000000e+00    0,000000000e+00    0,000000000e+00
      310000000   -1,781708002e-02   -8,321839571e-02   -7,635084987e-01    1,934856176e-02    0,000000000e+00    0,000000000e+00    0,000000000e+00    0,000000000e+00
      324000000   -4,159522429e-02   -5,895853043e-02   -6,309564710e-01    4,306605756e-01    0,000000000e+00    0,000000000e+00    0,000000000e+00    0,000000000e+00
      338000000   -3,434831277e-02   -3,700272366e-02   -2,977030575e-01    7,010385990e-01    0,000000000e+00    0,000000000e+00    0,000000000e+00    0,000000000e+00
      352000000   -1,746649295e-02   -4,089198261e-02    1,265475452e-01    7,422035933e-01    0,000000000e+00    0,000000000e+00    0,000000000e+00    0,000000000e+00
      366000000   -1,953209750e-02   -6,183466688e-02    4,978480935e-01    5,549967885e-01    0,000000000e+00    0,000000000e+00    0,000000000e+00    0,000000000e+00
      380000000   -4,438825324e-02   -7,267700881e-02    7,134992480e-01    1,997587383e-01    0,000000000e+00    0,000000000e+00    0,000000000e+00    0,000000000e+00
      394000000   -7,109738141e-02   -5,790631846e-02    7,039227486e-01   -2,161543667e-01    0,000000000e+00    0,000000000e+00    0,000000000e+00    0,000000000e+00
      408000000   -7,696568221e-02   -3,029030189e-02    4,703937173e-01   -5,594368577e-01    0,000000000e+00    0,000000000e+00    0,000000000e+00    0,000000000e+00
      422000000   -6,531655788e-02   -1,090560667e-02    9,247295558e-02   -7,173363566e-01    0,000000000e+00    0,000000000e+00    0,000000000e+00    0,000000000e+00
      436000000   -5,255116150e-02   -4,534428008e-03   -3,010733426e-01   -6,472303271e-01    0,000000000e+00    0,000000000e+00    0,000000000e+00    0,000000000e+00
      450000000   -4,461453483e-02    1,705642091e-03   -5,927821994e-01   -3,782086074e-01    0,000000000e+00    0,000000000e+00    0,000000000e+00    0,000000000e+00
      464000000   -2,946428023e-02    1,108142454e-02   -6,913153529e-01   -3,078826994e-04    0,000000000e+00    0,000000000e+00    0,000000000e+00    0,000000000e+00
      478000000   -8,089336334e-04    1,128778979e-02   -5,732810497e-01    3,631942868e-01    0,000000000e+00    0,000000000e+00    0,000000000e+00    0,000000000e+00
      492000000    2,770863473e-02   -1,232636347e-02   -2,902915180e-01    6,016945243e-01    0,000000000e+00    0,000000000e+00    0,000000000e+00    0,000000000e+00
      506000000    3,647831082e-02   -5,611068383e-02    6,885962933e-02    6,585174203e-01    0,000000000e+00    0,000000000e+00    0,000000000e+00    0,000000000e+00
      520000000    1,220087428e-02   -9,913282841e-02    4,050214291e-01    5,243715644e-01    0,000000000e+00    0,000000000e+00    0,000000000e+00    0,000000000e+00
      534000000   -3,423998877e-02   -1,161945313e-01    6,241188645e-01    2,359586805e-01    0,000000000e+00    0,000000000e+00    0,000000000e+00    0,000000000e+00
      548000000   -7,706094533e-02   -9,942443669e-02    6,583240628e-01   -1,337827593e-01    0,000000000e+00    0,000000000e+00    0,000000000e+00    0,000000000e+00
      562000000   -9,351883829e-02   -6,634914875e-02    4,817874432e-01   -4,677540064e-01    0,000000000e+00    0,000000000e+00    0,000000000e+00    0,000000000e+00
      576000000   -8,616973460e-02   -4,438487440e-02    1,509991586e-01   -6,481277943e-01    0,000000000e+00    0,000000000e+00    0,000000000e+00    0,000000000e+00
      590000000   -8,078213036e-02   -4,176291078e-02   -2,199863195e-01   -6,292036176e-01    0,000000000e+00    0,000000000e+00    0,000000000e+00    0,000000000e+00
      604000000   -8,916959912e-02   -3,705160692e-02   -5,201691389e-01   -4,058408737e-01    0,000000000e+00    0,000000000e+00    0,000000000e+00    0,000000000e+00
      618000000   -9,673287719e-02   -1,496752817e-02   -6,533690691e-01   -5,799478665e-02    0,000000000e+00    0,000000000e+00    0,000000000e+00    0,000000000e+00
      632000000   -8,130693436e-02    1,495616417e-02   -5,753806829e-01    3,024428785e-01    0,000000000e+00    0,000000000e+00    0,000000000e+00    0,000000000e+00
      646000000   -4,329267144e-02    2,650359645e-02   -3,193238676e-01    5,560458899e-01    0,000000000e+00    0,000000000e+00    0,000000000e+00    0,000000000e+00
      660000000   -8,131627925e-03    5,356932525e-03    2,257896401e-02    6,301866174e-01    0,000000000e+00    0,000000000e+00    0,000000000e+00    0,000000000e+00
      674000000    8,193401154e-04   -3,074939735e-02    3,429677784e-01    5,181527734e-01    0,000000000e+00    0,000000000e+00    0,000000000e+00    0,000000000e+00
      688000000   -1,524849236e-02   -5,541473255e-02    5,591840744e-01    2,583951652e-01    0,000000000e+00    0,000000000e+00    0,000000000e+00    0,000000000e+00
      702000000   -3,370859101e-02   -6,006860733e-02    6,045836806e-01   -8,285152912e-02    0,000000000e+00    0,000000000e+00    0,000000000e+00    0,000000000e+00
      716000000   -3,699970245e-02   -5,628064647e-02    4,596430957e-01   -3,905110955e-01    0,000000000e+00    0,000000000e+00    0,000000000e+00    0,000000000e+00
      730000000   -3,140380979e-02   -6,540663540e-02    1,746065468e-01   -5,662706494e-01    0,000000000e+00    0,000000000e+00    0,000000000e+00    0,000000000e+00
      744000000   -4,017146304e-02   -8,760337532e-02   -1,530384570e-01   -5,636234283e-01    0,000000000e+00    0,000000000e+00    0,000000000e+00    0,000000000e+00
      758000000   -7,178909332e-02   -1,048092097e-01   -4,277161360e-01   -3,948274255e-01    0,000000000e+00    0,000000000e+00    0,000000000e+00    0,000000000e+00
      772000000   -1,136596054e-01   -9,359044582e-02   -5,747644901e-01   -1,056454629e-01    0,000000000e+00    0,000000000e+00    0,000000000e+00    0,000000000e+00
      786000000   -1,384316236e-01   -5,660963804e-02   -5,451387167e-01    2,208259851e-01    0,000000000e+00    0,000000000e+00    0,000000000e+00    0,000000000e+00
      800000000   -1,322752684e-01   -1,473996229e-02   -3,421578109e-01    4,794454575e-01    0,000000000e+00    0,000000000e+00    0,000000000e+00    0,000000000e+00
      814000000   -1,082935333e-01    7,936673239e-03   -3,398485482e-02    5,876290202e-01    0,000000000e+00    0,000000000e+00    0,000000000e+00    0,000000000e+00
      828000000   -8,599036187e-02    1,371964905e-02    2,792024016e-01    5,149572492e-01    0,000000000e+00    0,000000000e+00    0,000000000e+00    0,000000000e+00
      842000000   -7,102266699e-02    1,482326817e-02    5,031441450e-01    2,896479666e-01    0,000000000e+00    0,000000000e+00    0,000000000e+00    0,000000000e+00
      856000000   -5,299640819e-02    1,975608058e-02    5,703449845e-01   -1,786225848e-02    0,000000000e+00    0,000000000e+00    0,000000000e+00    0,000000000e+00
      870000000   -2,331739105e-02    1,433725003e-02    4,637701213e-01   -3,065926135e-01    0,000000000e+00    0,000000000e+00    0,000000000e+00    0,000000000e+00
      884000000    5,658938084e-03   -1,483764779e-02    2,298240960e-01   -4,881730974e-01    0,000000000e+00    0,000000000e+00    0,000000000e+00    0,000000000e+00
      898000000    1,212323364e-02   -6,410709769e-02   -5,122682452e-02   -5,282363892e-01    0,000000000e+00    0,000000000e+00    0,000000000e+00    0,000000000e+00
      912000000   -2,327098139e-02   -1,083090082e-01   -3,548035026e-01   -3,949473500e-01    0,000000000e+00    0,000000000e+00    0,000000000e+00    0,000000000e+00
      926000000   -7,486896217e-02   -1,256344318e-01   -5,291320682e-01   -1,594553739e-01    0,000000000e+00    0,000000000e+00    0,000000000e+00    0,000000000e+00
      940000000   -1,247010976e-01   -1,016210318e-01   -5,528027415e-01    1,561912447e-01    0,000000000e+00    0,000000000e+00    0,000000000e+00    0,000000000e+00
      954000000   -1,398734003e-01   -5,889812112e-02   -3,907442987e-01    4,453957975e-01    0,000000000e+00    0,000000000e+00    0,000000000e+00    0,000000000e+00
      968000000   -1,340897232e-01   -2,615401521e-02   -9,074542671e-02    6,037880778e-01    0,000000000e+00    0,000000000e+00    0,000000000e+00    0,000000000e+00
      982000000   -1,179538593e-01   -1,623011194e-02    2,471397221e-01    5,719369054e-01    0,000000000e+00    0,000000000e+00    0,000000000e+00    0,000000000e+00
      996000000   -1,088278890e-01   -1,587683707e-02    5,126795769e-01    3,669432104e-01    0,000000000e+00    0,000000000e+00    0,000000000e+00    0,000000000e+00
     1010000000   -1,043095812e-01   -5,817017052e-03    6,282562017e-01    5,286247283e-02    0,000000000e+00    0,000000000e+00    0,000000000e+00    0,000000000e+00
     1024000000   -9,435871243e-02    1,505998371e-04    5,599483252e-01   -2,731167376e-01    0,000000000e+00    0,000000000e+00    0,000000000e+00    0,000000000e+00
     1038000000   -7,370620221e-02   -5,258501973e-03    3,357616961e-01   -5,034087300e-01    0,000000000e+00    0,000000000e+00    0,000000000e+00    0,000000000e+00
     1052000000   -6,310410798e-02   -1,596655138e-02    3,195489570e-02   -5,860638618e-01    0,000000000e+00    0,000000000e+00    0,000000000e+00    0,000000000e+00
     1066000000   -7,243591547e-02   -3,324105591e-02   -2,702754140e-01   -5,005629659e-01    0,000000000e+00    0,000000000e+00    0,000000000e+00    0,000000000e+00
     1080000000   -8,122496307e-02   -3,384477645e-02   -4,797970355e-01   -2,703993022e-01    0,000000000e+00    0,000000000e+00    0,000000000e+00    0,000000000e+00
     1094000000   -7,823504508e-02   -1,843472198e-02   -5,314996243e-01    4,230158776e-02    0,000000000e+00    0,000000000e+00    0,000000000e+00    0,000000000e+00
     1108000000   -5,912566930e-02   -7,188156247e-03   -3,981232643e-01    3,242542744e-01    0,000000000e+00    0,000000000e+00    0,000000000e+00    0,000000000e+00
     1122000000   -3,387137130e-02   -3,430148959e-02   -1,367302388e-01    4,809675217e-01    0,000000000e+00    0,000000000e+00    0,000000000e+00    0,000000000e+00
     1136000000   -2,995294705e-02   -8,771772683e-02    1,636455059e-01    4,735524356e-01    0,000000000e+00    0,000000000e+00    0,000000000e+00    0,000000000e+00
     1150000000   -6,379235536e-02   -1,377826035e-01    4,170359671e-01    3,102402091e-01    0,000000000e+00    0,000000000e+00    0,000000000e+00    0,000000000e+00
     1164000000   -1,344427466e-01   -1,524914056e-01    5,639048815e-01    2,600445040e-02    0,000000000e+00    0,000000000e+00    0,000000000e+00    0,000000000e+00
     1178000000   -2,085215151e-01   -1,212701499e-01    5,307885408e-01   -3,148851395e-01    0,000000000e+00    0,000000000e+00    0,000000000e+00    0,000000000e+00
     1192000000   -2,521147728e-01   -4,226764664e-02    2,955818772e-01   -5,990392566e-01    0,000000000e+00    0,000000000e+00    0,000000000e+00    0,000000000e+00
     1206000000   -2,325908989e-01    3,037909791e-02   -6,576777250e-02   -6,971018910e-01    0,000000000e+00    0,000000000e+00    0,000000000e+00    0,000000000e+00
     1220000000   -1,823721528e-01    8,337978274e-02   -4,158045948e-01   -5,783655047e-01    0,000000000e+00    0,000000000e+00    0,000000000e+00    0,000000000e+00
     1234000000   -1,276763082e-01    1,014399529e-01   -6,500101089e-01   -2,915819585e-01    0,000000000e+00    0,000000000e+00    0,000000000e+00    0,000000000e+00
     1248000000   -7,080180198e-02    9,922116995e-02   -6,758180261e-01    6,394205242e-02    0,000000000e+00    0,000000000e+00    0,000000000e+00    0,000000000e+00
     1262000000   -1,514700428e-02    6,205477938e-02   -5,197840333e-01    3,710610569e-01    0,000000000e+00    0,000000000e+00    0,000000000e+00    0,000000000e+00
     1276000000    2,424376085e-02   -3,684765659e-03   -2,451484054e-01    5,436313152e-01    0,000000000e+00    0,000000000e+00    0,000000000e+00    0,000000000e+00
     1290000000    2,534015477e-02   -8,562456071e-02    7,127335668e-02    5,770882368e-01    0,000000000e+00    0,000000000e+00    0,000000000e+00    0,000000000e+00
     1304000000   -3,271836415e-02   -1,768477559e-01    3,699865043e-01    4,642008543e-01    0,000000000e+00    0,000000000e+00    0,000000000e+00    0,000000000e+00
     1318000000   -1,396390051e-01   -2,113408297e-01    5,789623260e-01    2,185517699e-01    0,000000000e+00    0,000000000e+00    0,000000000e+00    0,000000000e+00
     1332000000   -2,553064823e-01   -1,924891770e-01    6,465929151e-01   -1,261761039e-01    0,000000000e+00    0,000000000e+00    0,000000000e+00    0,000000000e+00
     1346000000   -3,325240612e-01   -8,829474449e-02    5,149466395e-01   -4,579353631e-01    0,000000000e+00    0,000000000e+00    0,000000000e+00    0,000000000e+00
     1360000000   -3,365922570e-01    2,232353017e-02    1,980884671e-01   -6,444028020e-01    0,000000000e+00    0,000000000e+00    0,000000000e+00    0,000000000e+00
     1374000000   -2,785706222e-01    1,035690755e-01   -1,624526680e-01   -5,984355807e-01    0,000000000e+00    0,000000000e+00    0,000000000e+00    0,000000000e+00
     1388000000   -2,126080990e-01    1,387445182e-01   -4,040582776e-01   -3,758873940e-01    0,000000000e+00    0,000000000e+00    0,000000000e+00    0,000000000e+00
     1402000000   -1,546208411e-01    1,385006756e-01   -4,916433394e-01   -6,682161242e-02    0,000000000e+00    0,000000000e+00    0,000000000e+00    0,000000000e+00
     1416000000   -9,529852867e-02    1,175675392e-01   -3,720988035e-01    2,482029349e-01    0,000000000e+00    0,000000000e+00    0,000000000e+00    0,000000000e+00
     1430000000   -5,444135889e-02    7,143641263e-02   -1,568928063e-01    4,438866079e-01    0,000000000e+00    0,000000000e+00    0,000000000e+00    0,000000000e+00
     1444000000   -3,545295075e-02    8,498799987e-03    1,711050272e-01    5,382370949e-01    0,000000000e+00    0,000000000e+00    0,000000000e+00    0,000000000e+00
     1458000000   -6,776995212e-02   -6,976268440e-02    4,697020352e-01    4,804974794e-01    0,000000000e+00    0,000000000e+00    0,000000000e+00    0,000000000e+00
     1472000000   -1,441033036e-01   -1,274375916e-01    7,532154918e-01    2,473209351e-01    0,000000000e+00    0,000000000e+00    0,000000000e+00    0,000000000e+00
     1486000000   -2,276950479e-01   -1,171960607e-01    8,886043429e-01   -8,938154578e-02    0,000000000e+00    0,000000000e+00    0,000000000e+00    0,000000000e+00
     1500000000   -2,844108343e-01   -4,697370902e-02    8,255065084e-01   -4,381487370e-01    0,000000000e+00    0,000000000e+00    0,000000000e+00    0,000000000e+00
