! NanoVNA-App
! Date: 2025-09-25 15:08:08
! Start: 100MHz Stop: 1,5GHz Points: 101
! S-Parameter data: F S11 S21 S12 S22
# Hz S RI R 50
!     Frequency           S11_Real           S11_Imag           S21_Real           S21_Imag           S12_Real           S12_Imag           S22_Real           S22_Imag
      100000000    3,114667162e-02    2,864409052e-02    4,348673820e-01   -6,686498523e-01    0,000000000e+00    0,000000000e+00    0,000000000e+00    0,000000000e+00
      114000000    5,758721009e-02    5,483511370e-03    7,685091347e-03   -7,910063863e-01    0,000000000e+00    0,000000000e+00    0,000000000e+00    0,000000000e+00
      128000000    6,729566306e-02   -3,777607158e-02   -4,104065597e-01   -6,712543964e-01    0,000000000e+00    0,000000000e+00    0,000000000e+00    0,000000000e+00
      142000000    4,471487552e-02   -8,421378583e-02   -7,030089498e-01   -3,532777131e-01    0,000000000e+00    0,000000000e+00    0,000000000e+00    0,000000000e+00
      156000000   -5,439587869e-03   -1,068748906e-01   -7,873516083e-01    7,414323837e-02    0,000000000e+00    0,000000000e+00    0,000000000e+00    0,000000000e+00
      170000000   -5,765567347e-02   -9,067512304e-02   -6,275380254e-01    4,868784845e-01    0,000000000e+00    0,000000000e+00    0,000000000e+00    0,000000000e+00
      184000000   -8,367886394e-02   -4,948592186e-02   -2,648563385e-01    7,510925531e-01    0,000000000e+00    0,000000000e+00    0,000000000e+00    0,000000000e+00
      198000000   -7,964601368e-02   -1,045106258e-02    1,836930364e-01    7,728775740e-01    0,000000000e+00    0,000000000e+00    0,000000000e+00    0,000000000e+00
      212000000   -6,225152314e-02    1,313725300e-02    5,689289570e-01    5,488608479e-01    0,000000000e+00    0,000000000e+00    0,000000000e+00    0,000000000e+00
      226000000   -4,323479161e-02    2,773763239e-02    7,707056403e-01    1,544401348e-01    0,000000000e+00    0,000000000e+00    0,000000000e+00    0,000000000e+00
      240000000   -1,821196824e-02    3,851992264e-02    7,267765999e-01   -2,820319831e-01    0,000000000e+00    0,000000000e+00    0,000000000e+00    0,000000000e+00
      254000000    1,718998328e-02    3,517977148e-02    4,578993618e-01   -6,201794147e-01    0,000000000e+00    0,000000000e+00    0,000000000e+00    0,000000000e+00
      268000000    4,881634936e-02    5,588483997e-03    5,884726346e-02   -7,600079179e-01    0,000000000e+00    0,000000000e+00    0,000000000e+00    0,000000000e+00
      282000000    5,341161788e-02   -4,184120521e-02   -3,491899967e-01   -6,718026996e-01    0,000000000e+00    0,000000000e+00    0,000000000e+00    0,000000000e+00
      296000000    2,401902154e-02   -7,950741798e-02   -6,521652341e-01   -3,852919042e-01    0,000000000e+00    0,000000000e+00    0,000000000e+00    0,000000000e+00
      310000000   -1,782750897e-02   -8,295781910e-02   -7,637570500e-01    2,110327967e-02    0,000000000e+00    0,000000000e+00    0,000000000e+00    0,000000000e+00
      324000000   -4,173792899e-02   -5,878005922e-02   -6,320582032e-01    4,313057959e-01    0,000000000e+00    0,000000000e+00    0,000000000e+00    0,000000000e+00
      338000000   -3,436900675e-02   -3,719013929e-02   -2,964469194e-01    7,013413310e-01    0,000000000e+00    0,000000000e+00    0,000000000e+00    0,000000000e+00
      352000000   -1,740816049e-02   -4,067880660e-02    1,248485520e-01    7,418300509e-01    0,000000000e+00    0,000000000e+00    0,000000000e+00    0,000000000e+00
      366000000   -1,913867146e-02   -6,213502213e-02    4,991182983e-01    5,540904403e-01    0,000000000e+00    0,000000000e+00    0,000000000e+00    0,000000000e+00
      380000000   -4,441329837e-02   -7,263725251e-02    7,128978372e-01    2,001280040e-01    0,000000000e+00    0,000000000e+00    0,000000000e+00    0,000000000e+00
      394000000   -7,072534412e-02   -5,832460523e-02    7,042587399e-01   -2,162553221e-01    0,000000000e+00    0,000000000e+00    0,000000000e+00    0,000000000e+00
      408000000   -7,707031071e-02   -3,034633771e-02    4,714099467e-01   -5,587602258e-01    0,000000000e+00    0,000000000e+00    0,000000000e+00    0,000000000e+00
      422000000   -6,547436118e-02   -1,097306609e-02    9,302589297e-02   -7,178750038e-01    0,000000000e+00    0,000000000e+00    0,000000000e+00    0,000000000e+00
      436000000   -5,281259865e-02   -4,805414472e-03   -3,023521304e-01   -6,479174495e-01    0,000000000e+00    0,000000000e+00    0,000000000e+00    0,000000000e+00
      450000000   -4,461722076e-02    1,528142486e-03   -5,923347473e-01   -3,780726790e-01    0,000000000e+00    0,000000000e+00    0,000000000e+00    0,000000000e+00
      464000000   -2,922248095e-02    1,137579232e-02   -6,912594438e-01   -6,517058500e-05    0,000000000e+00    0,000000000e+00    0,000000000e+00    0,000000000e+00
      478000000   -9,566365043e-04    1,144129224e-02   -5,733721256e-01    3,633170724e-01    0,000000000e+00    0,000000000e+00    0,000000000e+00    0,000000000e+00
      492000000    2,777121402e-02   -1,201458927e-02   -2,890129387e-01    6,023645401e-01    0,000000000e+00    0,000000000e+00    0,000000000e+00    0,000000000e+00
      506000000    3,681355715e-02   -5,595609918e-02    6,928406656e-02    6,584500670e-01    0,000000000e+00    0,000000000e+00    0,000000000e+00    0,000000000e+00
      520000000    1,210846100e-02   -9,847507626e-02    4,047861099e-01    5,243161321e-01    0,000000000e+00    0,000000000e+00    0,000000000e+00    0,000000000e+00
      534000000   -3,453084826e-02   -1,160816476e-01    6,235172153e-01    2,356276810e-01    0,000000000e+00    0,000000000e+00    0,000000000e+00    0,000000000e+00
      548000000   -7,740435749e-02   -9,905633330e-02    6,577098966e-01   -1,332225502e-01    0,000000000e+00    0,000000000e+00    0,000000000e+00    0,000000000e+00
      562000000   -9,322345257e-02   -6,648913026e-02    4,819808006e-01   -4,671260417e-01    0,000000000e+00    0,000000000e+00    0,000000000e+00    0,000000000e+00
      576000000   -8,669017255e-02   -4,447052255e-02    1,504508406e-01   -6,475012898e-01    0,000000000e+00    0,000000000e+00    0,000000000e+00    0,000000000e+00
      590000000   -8,074378222e-02   -4,173505306e-02   -2,209391445e-01   -6,280152202e-01    0,000000000e+00    0,000000000e+00    0,000000000e+00    0,000000000e+00
      604000000   -8,894797415e-02   -3,766517714e-02   -5,199271441e-01   -4,065079391e-01    0,000000000e+00    0,000000000e+00    0,000000000e+00    0,000000000e+00
      618000000   -9,698858112e-02   -1,505201217e-02   -6,531403661e-01   -5,823893845e-02    0,000000000e+00    0,000000000e+00    0,000000000e+00    0,000000000e+00
      632000000   -8,144452423e-02    1,510364562e-02   -5,758108497e-01    3,029269278e-01    0,000000000e+00    0,000000000e+00    0,000000000e+00    0,000000000e+00
      646000000   -4,272719473e-02    2,596867457e-02   -3,176304698e-01    5,567995906e-01    0,000000000e+00    0,000000000e+00    0,000000000e+00    0,000000000e+00
      660000000   -7,212159690e-03    5,736307241e-03    2,300079353e-02    6,302485466e-01    0,000000000e+00    0,000000000e+00    0,000000000e+00    0,000000000e+00
      674000000    1,517401193e-03   -2,980089374e-02    3,427352011e-01    5,180443525e-01    0,000000000e+00    0,000000000e+00    0,000000000e+00    0,000000000e+00
      688000000   -1,494254544e-02   -5,504821241e-02    5,585991144e-01    2,584311366e-01    0,000000000e+00    0,000000000e+00    0,000000000e+00    0,000000000e+00
      702000000   -3,379547223e-02   -5,964116752e-02    6,046842337e-01   -7,912281901e-02    0,000000000e+00    0,000000000e+00    0,000000000e+00    0,000000000e+00
      716000000   -3,675118089e-02   -5,533856526e-02    4,593564570e-01   -3,894731998e-01    0,000000000e+00    0,000000000e+00    0,000000000e+00    0,000000000e+00
      730000000   -3,222938254e-02   -6,555340439e-02    1,733012199e-01   -5,663049817e-01    0,000000000e+00    0,000000000e+00    0,000000000e+00    0,000000000e+00
      744000000   -4,050550982e-02   -8,897960186e-02   -1,530588865e-01   -5,640153289e-01    0,000000000e+00    0,000000000e+00    0,000000000e+00    0,000000000e+00
      758000000   -7,285314053e-02   -1,047300026e-01   -4,270420671e-01   -3,945177495e-01    0,000000000e+00    0,000000000e+00    0,000000000e+00    0,000000000e+00
      772000000   -1,135793999e-01   -9,335809946e-02   -5,745913982e-01   -1,060188934e-01    0,000000000e+00    0,000000000e+00    0,000000000e+00    0,000000000e+00
      786000000   -1,388670802e-01   -5,535163730e-02   -5,446031094e-01    2,211082876e-01    0,000000000e+00    0,000000000e+00    0,000000000e+00    0,000000000e+00
      800000000   -1,322167963e-01   -1,500925608e-02   -3,413719237e-01    4,800310731e-01    0,000000000e+00    0,000000000e+00    0,000000000e+00    0,000000000e+00
      814000000   -1,079792529e-01    8,264738135e-03   -3,463647142e-02    5,861939192e-01    0,000000000e+00    0,000000000e+00    0,000000000e+00    0,000000000e+00
      828000000   -8,587832749e-02    1,337989699e-02    2,792783380e-01    5,138769746e-01    0,000000000e+00    0,000000000e+00    0,000000000e+00    0,000000000e+00
      842000000   -7,033858448e-02    1,538109221e-02    5,029091835e-01    2,891359925e-01    0,000000000e+00    0,000000000e+00    0,000000000e+00    0,000000000e+00
      856000000   -5,253192782e-02    1,966245659e-02    5,705149770e-01   -1,735551096e-02    0,000000000e+00    0,000000000e+00    0,000000000e+00    0,000000000e+00
      870000000   -2,256594971e-02    1,422716212e-02    4,636242986e-01   -3,058973253e-01    0,000000000e+00    0,000000000e+00    0,000000000e+00    0,000000000e+00
      884000000    6,095762830e-03   -1,396402437e-02    2,301988155e-01   -4,878946245e-01    0,000000000e+00    0,000000000e+00    0,000000000e+00    0,000000000e+00
      898000000    1,189849339e-02   -6,395440549e-02   -5,177421868e-02   -5,267205834e-01    0,000000000e+00    0,000000000e+00    0,000000000e+00    0,000000000e+00
      912000000   -2,376730181e-02   -1,083941534e-01   -3,506696820e-01   -4,054639637e-01    0,000000000e+00    0,000000000e+00    0,000000000e+00    0,000000000e+00
      926000000   -7,383444160e-02   -1,235247031e-01   -5,291000009e-01   -1,578848362e-01    0,000000000e+00    0,000000000e+00    0,000000000e+00    0,000000000e+00
      940000000   -1,242722720e-01   -1,039324105e-01   -5,533698201e-01    1,547496915e-01    0,000000000e+00    0,000000000e+00    0,000000000e+00    0,000000000e+00
      954000000   -1,442074031e-01   -5,910663307e-02   -3,930041492e-01    4,445601702e-01    0,000000000e+00    0,000000000e+00    0,000000000e+00    0,000000000e+00
      968000000   -1,331406385e-01   -2,945386991e-02   -9,240885824e-02    6,013803482e-01    0,000000000e+00    0,000000000e+00    0,000000000e+00    0,000000000e+00
      982000000   -1,159014106e-01   -1,359422039e-02    2,455145270e-01    5,714515448e-01    0,000000000e+00    0,000000000e+00    0,000000000e+00    0,000000000e+00
      996000000   -1,092650294e-01   -1,439504325e-02    5,125238299e-01    3,653649092e-01    0,000000000e+00    0,000000000e+00    0,000000000e+00    0,000000000e+00
     1010000000   -1,024755165e-01   -1,116493437e-02    6,283925176e-01    5,267566442e-02    0,000000000e+00    0,000000000e+00    0,000000000e+00    0,000000000e+00
     1024000000   -9,062331915e-02   -3,249307629e-03    5,606659055e-01   -2,701540589e-01    0,000000000e+00    0,000000000e+00    0,000000000e+00    0,000000000e+00
     1038000000   -7,290920615e-02    1,828159147e-04    3,385321200e-01   -5,030418038e-01    0,000000000e+00    0,000000000e+00    0,000000000e+00    0,000000000e+00
     1052000000   -6,610450894e-02   -1,956629753e-02    3,574629501e-02   -5,839090943e-01    0,000000000e+00    0,000000000e+00    0,000000000e+00    0,000000000e+00
     1066000000   -6,808701903e-02   -3,324403986e-02   -2,671698630e-01   -5,005700588e-01    0,000000000e+00    0,000000000e+00    0,000000000e+00    0,000000000e+00
     1080000000   -7,869943976e-02   -2,872383222e-02   -4,821677506e-01   -2,714488506e-01    0,000000000e+00    0,000000000e+00    0,000000000e+00    0,000000000e+00
     1094000000   -7,852782309e-02   -1,481121313e-02   -5,324325562e-01    4,124480486e-02    0,000000000e+00    0,000000000e+00    0,000000000e+00    0,000000000e+00
     1108000000   -5,821264908e-02   -1,515324321e-02   -3,992020786e-01    3,261840343e-01    0,000000000e+00    0,000000000e+00    0,000000000e+00    0,000000000e+00
     1122000000   -3,418309987e-02   -3,529644385e-02   -1,398219317e-01    4,810518026e-01    0,000000000e+00    0,000000000e+00    0,000000000e+00    0,000000000e+00
     1136000000   -2,603880502e-02   -8,430127054e-02    1,640766710e-01    4,699998498e-01    0,000000000e+00    0,000000000e+00    0,000000000e+00    0,000000000e+00
     1150000000   -6,335428357e-02   -1,325694919e-01    4,204698801e-01    3,125903606e-01    0,000000000e+00    0,000000000e+00    0,000000000e+00    0,000000000e+00
     1164000000   -1,361522675e-01   -1,542169452e-01    5,648514628e-01    2,930629998e-02    0,000000000e+00    0,000000000e+00    0,000000000e+00    0,000000000e+00
     1178000000   -2,102111876e-01   -1,183190420e-01    5,329543352e-01   -3,188393414e-01    0,000000000e+00    0,000000000e+00    0,000000000e+00    0,000000000e+00
     1192000000   -2,493205220e-01   -4,570267722e-02    2,929640710e-01   -5,975150466e-01    0,000000000e+00    0,000000000e+00    0,000000000e+00    0,000000000e+00
     1206000000   -2,299260199e-01    3,218694404e-02   -6,584627181e-02   -7,013551593e-01    0,000000000e+00    0,000000000e+00    0,000000000e+00    0,000000000e+00
     1220000000   -1,899483204e-01    8,257133514e-02   -4,224879444e-01   -5,779929161e-01    0,000000000e+00    0,000000000e+00    0,000000000e+00    0,000000000e+00
     1234000000   -1,245729998e-01    1,067268625e-01   -6,421237588e-01   -2,919230759e-01    0,000000000e+00    0,000000000e+00    0,000000000e+00    0,000000000e+00
     1248000000   -6,961936504e-02    9,331120551e-02   -6,760302186e-01    6,002657115e-02    0,000000000e+00    0,000000000e+00    0,000000000e+00    0,000000000e+00
     1262000000   -1,521074306e-02    6,224114448e-02   -5,177039504e-01    3,668929338e-01    0,000000000e+00    0,000000000e+00    0,000000000e+00    0,000000000e+00
     1276000000    2,502444200e-02   -5,849600304e-03   -2,486812472e-01    5,429605842e-01    0,000000000e+00    0,000000000e+00    0,000000000e+00    0,000000000e+00
     1290000000    2,089135721e-02   -8,278199285e-02    7,013225555e-02    5,816226602e-01    0,000000000e+00    0,000000000e+00    0,000000000e+00    0,000000000e+00
     1304000000   -3,355771676e-02   -1,704939604e-01    3,593202233e-01    4,596692324e-01    0,000000000e+00    0,000000000e+00    0,000000000e+00    0,000000000e+00
     1318000000   -1,383214742e-01   -2,138879448e-01    5,874690413e-01    2,128503174e-01    0,000000000e+00    0,000000000e+00    0,000000000e+00    0,000000000e+00
     1332000000   -2,516096830e-01   -1,863297671e-01    6,560075879e-01   -1,259998381e-01    0,000000000e+00    0,000000000e+00    0,000000000e+00    0,000000000e+00
     1346000000   -3,284535110e-01   -8,684942126e-02    5,036306977e-01   -4,530752599e-01    0,000000000e+00    0,000000000e+00    0,000000000e+00    0,000000000e+00
     1360000000   -3,321089149e-01    2,710444480e-02    1,934977770e-01   -6,446636915e-01    0,000000000e+00    0,000000000e+00    0,000000000e+00    0,000000000e+00
     1374000000   -2,800353467e-01    1,042499021e-01   -1,530575603e-01   -6,100791097e-01    0,000000000e+00    0,000000000e+00    0,000000000e+00    0,000000000e+00
     1388000000   -2,135155648e-01    1,370116025e-01   -4,144054949e-01   -3,855455220e-01    0,000000000e+00    0,000000000e+00    0,000000000e+00    0,000000000e+00
     1402000000   -1,506167054e-01    1,377273053e-01   -4,875985384e-01   -6,499893218e-02    0,000000000e+00    0,000000000e+00    0,000000000e+00    0,000000000e+00
     1416000000   -9,866548330e-02    1,215853617e-01   -3,826898932e-01    2,514145970e-01    0,000000000e+00    0,000000000e+00    0,000000000e+00    0,000000000e+00
     1430000000   -5,599477887e-02    7,133165002e-02   -1,436616033e-01    4,478062391e-01    0,000000000e+00    0,000000000e+00    0,000000000e+00    0,000000000e+00
     1444000000   -3,820596263e-02    1,764936838e-03    1,661047935e-01    5,310102105e-01    0,000000000e+00    0,000000000e+00    0,000000000e+00    0,000000000e+00
     1458000000   -6,450819224e-02   -8,200071007e-02    4,907382131e-01    4,690943658e-01    0,000000000e+00    0,000000000e+00    0,000000000e+00    0,000000000e+00
     1472000000   -1,390989125e-01   -1,201760024e-01    7,711812258e-01    2,662130594e-01    0,000000000e+00    0,000000000e+00    0,000000000e+00    0,000000000e+00
     1486000000   -2,305523455e-01   -1,215036362e-01    8,897342682e-01   -9,398625791e-02    0,000000000e+00    0,000000000e+00    0,000000000e+00    0,000000000e+00
     1500000000   -2,880597711e-01   -4,588488117e-02    7,783478498e-01   -4,393163025e-01    0,000000000e+00    0,000000000e+00    0,000000000e+00    0,000000000e+00
