! NanoVNA-App
! Date: 2025-09-25 15:06:58
! Start: 100MHz Stop: 1,5GHz Points: 101
! S-Parameter data: F S11 S21 S12 S22
# Hz S RI R 50
!     Frequency           S11_Real           S11_Imag           S21_Real           S21_Imag           S12_Real           S12_Imag           S22_Real           S22_Imag
      100000000    3,116010502e-02    2,865351550e-02    4,348641634e-01   -6,686212420e-01    0,000000000e+00    0,000000000e+00    0,000000000e+00    0,000000000e+00
      114000000    5,759651586e-02    5,503773689e-03    7,742770482e-03   -7,908925414e-01    0,000000000e+00    0,000000000e+00    0,000000000e+00    0,000000000e+00
      128000000    6,728830934e-02   -3,784757853e-02   -4,103483260e-01   -6,710832119e-01    0,000000000e+00    0,000000000e+00    0,000000000e+00    0,000000000e+00
      142000000    4,471372813e-02   -8,417619765e-02   -7,026970387e-01   -3,530940413e-01    0,000000000e+00    0,000000000e+00    0,000000000e+00    0,000000000e+00
      156000000   -5,553518888e-03   -1,068228558e-01   -7,871859074e-01    7,408972085e-02    0,000000000e+00    0,000000000e+00    0,000000000e+00    0,000000000e+00
      170000000   -5,765204132e-02   -9,058666974e-02   -6,275356412e-01    4,870325327e-01    0,000000000e+00    0,000000000e+00    0,000000000e+00    0,000000000e+00
      184000000   -8,363009989e-02   -4,948263615e-02   -2,647354305e-01    7,510761023e-01    0,000000000e+00    0,000000000e+00    0,000000000e+00    0,000000000e+00
      198000000   -7,963234931e-02   -1,042960584e-02    1,833437830e-01    7,728976607e-01    0,000000000e+00    0,000000000e+00    0,000000000e+00    0,000000000e+00
      212000000   -6,227857992e-02    1,319762226e-02    5,690394640e-01    5,492369533e-01    0,000000000e+00    0,000000000e+00    0,000000000e+00    0,000000000e+00
      226000000   -4,323265329e-02    2,766332403e-02    7,706625462e-01    1,544653326e-01    0,000000000e+00    0,000000000e+00    0,000000000e+00    0,000000000e+00
      240000000   -1,816786081e-02    3,854752705e-02    7,266926169e-01   -2,819795907e-01    0,000000000e+00    0,000000000e+00    0,000000000e+00    0,000000000e+00
      254000000    1,721484773e-02    3,518804535e-02    4,580076933e-01   -6,202361584e-01    0,000000000e+00    0,000000000e+00    0,000000000e+00    0,000000000e+00
      268000000    4,880176112e-02    5,559693556e-03    5,846879631e-02   -7,603630424e-01    0,000000000e+00    0,000000000e+00    0,000000000e+00    0,000000000e+00
      282000000    5,355180427e-02   -4,183554649e-02   -3,491143286e-01   -6,715739369e-01    0,000000000e+00    0,000000000e+00    0,000000000e+00    0,000000000e+00
      296000000    2,408828959e-02   -7,947376370e-02   -6,515195966e-01   -3,853803575e-01    0,000000000e+00    0,000000000e+00    0,000000000e+00    0,000000000e+00
      310000000   -1,790439710e-02   -8,314631879e-02   -7,629556060e-01    2,067152597e-02    0,000000000e+00    0,000000000e+00    0,000000000e+00    0,000000000e+00
      324000000   -4,140145332e-02   -5,884330720e-02   -6,313651800e-01    4,310134351e-01    0,000000000e+00    0,000000000e+00    0,000000000e+00    0,000000000e+00
      338000000   -3,423957527e-02   -3,673139587e-02   -2,956563234e-01    7,002518177e-01    0,000000000e+00    0,000000000e+00    0,000000000e+00    0,000000000e+00
      352000000   -1,722938381e-02   -4,090097919e-02    1,255619973e-01    7,417248487e-01    0,000000000e+00    0,000000000e+00    0,000000000e+00    0,000000000e+00
      366000000   -1,889100485e-02   -6,215513870e-02    4,985187352e-01    5,551853776e-01    0,000000000e+00    0,000000000e+00    0,000000000e+00    0,000000000e+00
      380000000   -4,458963498e-02   -7,266286761e-02    7,128471136e-01    1,998037845e-01    0,000000000e+00    0,000000000e+00    0,000000000e+00    0,000000000e+00
      394000000   -7,088595629e-02   -5,805810913e-02    7,043455839e-01   -2,159853429e-01    0,000000000e+00    0,000000000e+00    0,000000000e+00    0,000000000e+00
      408000000   -7,705633342e-02   -3,038008139e-02    4,699145555e-01   -5,599765778e-01    0,000000000e+00    0,000000000e+00    0,000000000e+00    0,000000000e+00
      422000000   -6,532814354e-02   -1,129705925e-02    9,393098205e-02   -7,175518274e-01    0,000000000e+00    0,000000000e+00    0,000000000e+00    0,000000000e+00
      436000000   -5,269588530e-02   -4,489241168e-03   -3,013592362e-01   -6,470426321e-01    0,000000000e+00    0,000000000e+00    0,000000000e+00    0,000000000e+00
      450000000   -4,439274222e-02    1,451673335e-03   -5,926541686e-01   -3,781150877e-01    0,000000000e+00    0,000000000e+00    0,000000000e+00    0,000000000e+00
      464000000   -2,982342243e-02    1,138084196e-02   -6,913555861e-01    6,703390227e-06    0,000000000e+00    0,000000000e+00    0,000000000e+00    0,000000000e+00
      478000000   -9,350755718e-04    1,133466698e-02   -5,733853579e-01    3,632456362e-01    0,000000000e+00    0,000000000e+00    0,000000000e+00    0,000000000e+00
      492000000    2,780484036e-02   -1,217532717e-02   -2,890976369e-01    6,021007895e-01    0,000000000e+00    0,000000000e+00    0,000000000e+00    0,000000000e+00
      506000000    3,674318641e-02   -5,625862628e-02    6,974477321e-02    6,583840847e-01    0,000000000e+00    0,000000000e+00    0,000000000e+00    0,000000000e+00
      520000000    1,295624021e-02   -9,869214892e-02    4,039869010e-01    5,263571739e-01    0,000000000e+00    0,000000000e+00    0,000000000e+00    0,000000000e+00
      534000000   -3,435680643e-02   -1,163125411e-01    6,239103079e-01    2,359974235e-01    0,000000000e+00    0,000000000e+00    0,000000000e+00    0,000000000e+00
      548000000   -7,731478661e-02   -9,935523570e-02    6,583768129e-01   -1,334136128e-01    0,000000000e+00    0,000000000e+00    0,000000000e+00    0,000000000e+00
      562000000   -9,301647544e-02   -6,632163376e-02    4,815680981e-01   -4,664216340e-01    0,000000000e+00    0,000000000e+00    0,000000000e+00    0,000000000e+00
      576000000   -8,628335595e-02   -4,491933063e-02    1,505851299e-01   -6,485680938e-01    0,000000000e+00    0,000000000e+00    0,000000000e+00    0,000000000e+00
      590000000   -8,077889681e-02   -4,162817076e-02   -2,215316743e-01   -6,260496378e-01    0,000000000e+00    0,000000000e+00    0,000000000e+00    0,000000000e+00
      604000000   -8,832792193e-02   -3,701103479e-02   -5,193050504e-01   -4,053229094e-01    0,000000000e+00    0,000000000e+00    0,000000000e+00    0,000000000e+00
      618000000   -9,668421000e-02   -1,462915633e-02   -6,533054709e-01   -5,828395858e-02    0,000000000e+00    0,000000000e+00    0,000000000e+00    0,000000000e+00
      632000000   -8,153625578e-02    1,550717093e-02   -5,753383636e-01    3,028800189e-01    0,000000000e+00    0,000000000e+00    0,000000000e+00    0,000000000e+00
      646000000   -4,218498617e-02    2,647774667e-02   -3,184771836e-01    5,562724471e-01    0,000000000e+00    0,000000000e+00    0,000000000e+00    0,000000000e+00
      660000000   -7,900174707e-03    5,482500885e-03    2,083098143e-02    6,294040084e-01    0,000000000e+00    0,000000000e+00    0,000000000e+00    0,000000000e+00
      674000000    5,332013825e-04   -2,991804481e-02    3,417451978e-01    5,192526579e-01    0,000000000e+00    0,000000000e+00    0,000000000e+00    0,000000000e+00
      688000000   -1,539736334e-02   -5,541711673e-02    5,588926673e-01    2,588089108e-01    0,000000000e+00    0,000000000e+00    0,000000000e+00    0,000000000e+00
      702000000   -3,359182179e-02   -5,990360677e-02    6,077043414e-01   -8,000770956e-02    0,000000000e+00    0,000000000e+00    0,000000000e+00    0,000000000e+00
      716000000   -3,655590117e-02   -5,539565533e-02    4,596461952e-01   -3,892346621e-01    0,000000000e+00    0,000000000e+00    0,000000000e+00    0,000000000e+00
      730000000   -3,181932867e-02   -6,572171301e-02    1,742316484e-01   -5,656928420e-01    0,000000000e+00    0,000000000e+00    0,000000000e+00    0,000000000e+00
      744000000   -4,080127552e-02   -8,846852183e-02   -1,529100537e-01   -5,631872416e-01    0,000000000e+00    0,000000000e+00    0,000000000e+00    0,000000000e+00
      758000000   -7,242163271e-02   -1,040995270e-01   -4,273484051e-01   -3,954088986e-01    0,000000000e+00    0,000000000e+00    0,000000000e+00    0,000000000e+00
      772000000   -1,147858724e-01   -9,375149757e-02   -5,742342472e-01   -1,057407334e-01    0,000000000e+00    0,000000000e+00    0,000000000e+00    0,000000000e+00
      786000000   -1,391037107e-01   -5,652493611e-02   -5,444216132e-01    2,208833098e-01    0,000000000e+00    0,000000000e+00    0,000000000e+00    0,000000000e+00
      800000000   -1,329144686e-01   -1,406068169e-02   -3,415448070e-01    4,803435504e-01    0,000000000e+00    0,000000000e+00    0,000000000e+00    0,000000000e+00
      814000000   -1,088184863e-01    8,375307545e-03   -3,397737071e-02    5,845525861e-01    0,000000000e+00    0,000000000e+00    0,000000000e+00    0,000000000e+00
      828000000   -8,546226472e-02    1,304858271e-02    2,786916494e-01    5,142141581e-01    0,000000000e+00    0,000000000e+00    0,000000000e+00    0,000000000e+00
      842000000   -7,093078643e-02    1,505394373e-02    5,030297637e-01    2,891313434e-01    0,000000000e+00    0,000000000e+00    0,000000000e+00    0,000000000e+00
      856000000   -5,190253630e-02    1,937091351e-02    5,706305504e-01   -1,784441248e-02    0,000000000e+00    0,000000000e+00    0,000000000e+00    0,000000000e+00
      870000000   -2,311261185e-02    1,376681589e-02    4,636440873e-01   -3,057137728e-01    0,000000000e+00    0,000000000e+00    0,000000000e+00    0,000000000e+00
      884000000    6,455123890e-03   -1,450637542e-02    2,306070477e-01   -4,885623455e-01    0,000000000e+00    0,000000000e+00    0,000000000e+00    0,000000000e+00
      898000000    1,187830046e-02   -6,326948106e-02   -5,237237737e-02   -5,256021023e-01    0,000000000e+00    0,000000000e+00    0,000000000e+00    0,000000000e+00
      912000000   -2,338403836e-02   -1,077317372e-01   -3,584559560e-01   -4,098338783e-01    0,000000000e+00    0,000000000e+00    0,000000000e+00    0,000000000e+00
      926000000   -7,298263907e-02   -1,244633943e-01   -5,288265944e-01   -1,593014300e-01    0,000000000e+00    0,000000000e+00    0,000000000e+00    0,000000000e+00
      940000000   -1,236960292e-01   -1,045264602e-01   -5,529853106e-01    1,550294161e-01    0,000000000e+00    0,000000000e+00    0,000000000e+00    0,000000000e+00
      954000000   -1,434309483e-01   -5,930814892e-02   -3,911004364e-01    4,464742243e-01    0,000000000e+00    0,000000000e+00    0,000000000e+00    0,000000000e+00
      968000000   -1,346396059e-01   -2,815529890e-02   -9,179139882e-02    6,034469604e-01    0,000000000e+00    0,000000000e+00    0,000000000e+00    0,000000000e+00
      982000000   -1,135158762e-01   -1,435597055e-02    2,439656556e-01    5,734814405e-01    0,000000000e+00    0,000000000e+00    0,000000000e+00    0,000000000e+00
      996000000   -1,059738696e-01   -1,561330259e-02    5,135260224e-01    3,683174849e-01    0,000000000e+00    0,000000000e+00    0,000000000e+00    0,000000000e+00
     1010000000   -1,050425991e-01   -6,189568900e-03    6,279339194e-01    5,291170999e-02    0,000000000e+00    0,000000000e+00    0,000000000e+00    0,000000000e+00
     1024000000   -9,033299983e-02    4,254275409e-04    5,618645549e-01   -2,709581256e-01    0,000000000e+00    0,000000000e+00    0,000000000e+00    0,000000000e+00
     1038000000   -7,839067280e-02   -2,588928677e-03    3,385540247e-01   -5,038036108e-01    0,000000000e+00    0,000000000e+00    0,000000000e+00    0,000000000e+00
     1052000000   -6,505979598e-02   -1,837616973e-02    3,446448594e-02   -5,852984786e-01    0,000000000e+00    0,000000000e+00    0,000000000e+00    0,000000000e+00
     1066000000   -6,701031327e-02   -3,145813942e-02   -2,654405236e-01   -5,026104450e-01    0,000000000e+00    0,000000000e+00    0,000000000e+00    0,000000000e+00
     1080000000   -8,402325958e-02   -3,390384465e-02   -4,817647636e-01   -2,687452435e-01    0,000000000e+00    0,000000000e+00    0,000000000e+00    0,000000000e+00
     1094000000   -7,730339468e-02   -2,043507062e-02   -5,321413279e-01    4,463722929e-02    0,000000000e+00    0,000000000e+00    0,000000000e+00    0,000000000e+00
     1108000000   -5,726420879e-02   -1,072510332e-02   -3,999258876e-01    3,251606226e-01    0,000000000e+00    0,000000000e+00    0,000000000e+00    0,000000000e+00
     1122000000   -3,102942929e-02   -3,763793781e-02   -1,369445473e-01    4,828913808e-01    0,000000000e+00    0,000000000e+00    0,000000000e+00    0,000000000e+00
     1136000000   -2,584257163e-02   -8,563201129e-02    1,640044898e-01    4,744200110e-01    0,000000000e+00    0,000000000e+00    0,000000000e+00    0,000000000e+00
     1150000000   -6,787015498e-02   -1,373887658e-01    4,205646515e-01    3,117418885e-01    0,000000000e+00    0,000000000e+00    0,000000000e+00    0,000000000e+00
     1164000000   -1,353599280e-01   -1,551444829e-01    5,636141300e-01    2,737541683e-02    0,000000000e+00    0,000000000e+00    0,000000000e+00    0,000000000e+00
     1178000000   -2,078722268e-01   -1,170539334e-01    5,295267105e-01   -3,198090792e-01    0,000000000e+00    0,000000000e+00    0,000000000e+00    0,000000000e+00
     1192000000   -2,447530180e-01   -4,568343237e-02    2,948223650e-01   -6,021036506e-01    0,000000000e+00    0,000000000e+00    0,000000000e+00    0,000000000e+00
     1206000000   -2,307944894e-01    3,128145635e-02   -7,057161629e-02   -7,003172040e-01    0,000000000e+00    0,000000000e+00    0,000000000e+00    0,000000000e+00
     1220000000   -1,846705675e-01    8,621756732e-02   -4,214638770e-01   -5,764823556e-01    0,000000000e+00    0,000000000e+00    0,000000000e+00    0,000000000e+00
     1234000000   -1,266780049e-01    9,865832329e-02   -6,457302570e-01   -2,901617885e-01    0,000000000e+00    0,000000000e+00    0,000000000e+00    0,000000000e+00
     1248000000   -6,501755863e-02    9,440717846e-02   -6,716267467e-01    6,364728510e-02    0,000000000e+00    0,000000000e+00    0,000000000e+00    0,000000000e+00
     1262000000   -1,592289284e-02    6,088903919e-02   -5,203160644e-01    3,694402277e-01    0,000000000e+00    0,000000000e+00    0,000000000e+00    0,000000000e+00
     1276000000    2,261604741e-02    8,875816711e-04   -2,479702383e-01    5,498641133e-01    0,000000000e+00    0,000000000e+00    0,000000000e+00    0,000000000e+00
     1290000000    1,814409345e-02   -8,709601313e-02    6,579497457e-02    5,810512304e-01    0,000000000e+00    0,000000000e+00    0,000000000e+00    0,000000000e+00
     1304000000   -3,325818479e-02   -1,702489406e-01    3,616829813e-01    4,647097588e-01    0,000000000e+00    0,000000000e+00    0,000000000e+00    0,000000000e+00
     1318000000   -1,349729747e-01   -2,144222260e-01    5,780393481e-01    2,213822305e-01    0,000000000e+00    0,000000000e+00    0,000000000e+00    0,000000000e+00
     1332000000   -2,571440935e-01   -1,897844076e-01    6,525786519e-01   -1,206147149e-01    0,000000000e+00    0,000000000e+00    0,000000000e+00    0,000000000e+00
     1346000000   -3,298110962e-01   -8,959013969e-02    5,113934278e-01   -4,645613134e-01    0,000000000e+00    0,000000000e+00    0,000000000e+00    0,000000000e+00
     1360000000   -3,352949619e-01    1,803600974e-02    1,832794100e-01   -6,516763568e-01    0,000000000e+00    0,000000000e+00    0,000000000e+00    0,000000000e+00
     1374000000   -2,833164930e-01    1,041489840e-01   -1,545098424e-01   -6,070487499e-01    0,000000000e+00    0,000000000e+00    0,000000000e+00    0,000000000e+00
     1388000000   -2,148306519e-01    1,366048157e-01   -3,982049525e-01   -3,832763731e-01    0,000000000e+00    0,000000000e+00    0,000000000e+00    0,000000000e+00
     1402000000   -1,537965983e-01    1,364931762e-01   -4,816881716e-01   -6,257008761e-02    0,000000000e+00    0,000000000e+00    0,000000000e+00    0,000000000e+00
     1416000000   -9,340876341e-02    1,182075888e-01   -3,712287545e-01    2,438467443e-01    0,000000000e+00    0,000000000e+00    0,000000000e+00    0,000000000e+00
     1430000000   -5,034798011e-02    7,724979520e-02   -1,323800236e-01    4,368079007e-01    0,000000000e+00    0,000000000e+00    0,000000000e+00    0,000000000e+00
     1444000000   -3,800555691e-02    3,136407351e-03    1,585471779e-01    5,393770933e-01    0,000000000e+00    0,000000000e+00    0,000000000e+00    0,000000000e+00
     1458000000   -6,693077832e-02   -7,652892172e-02    4,804417193e-01    4,669901729e-01    0,000000000e+00    0,000000000e+00    0,000000000e+00    0,000000000e+00
     1472000000   -1,322895586e-01   -1,209522188e-01    7,698062062e-01    2,646452487e-01    0,000000000e+00    0,000000000e+00    0,000000000e+00    0,000000000e+00
     1486000000   -2,302655876e-01   -1,148756370e-01    8,818501830e-01   -6,581033021e-02    0,000000000e+00    0,000000000e+00    0,000000000e+00    0,000000000e+00
     1500000000   -2,837991118e-01   -4,574200884e-02    8,027381897e-01   -4,512876570e-01    0,000000000e+00    0,000000000e+00    0,000000000e+00    0,000000000e+00
