! NanoVNA-App
! Date: 2025-09-25 15:06:35
! Start: 100MHz Stop: 1,5GHz Points: 101
! S-Parameter data: F S11 S21 S12 S22
# Hz S RI R 50
!     Frequency           S11_Real           S11_Imag           S21_Real           S21_Imag           S12_Real           S12_Imag           S22_Real           S22_Imag
      100000000    3,120326251e-02    2,866126969e-02    4,347732067e-01   -6,686004400e-01    0,000000000e+00    0,000000000e+00    0,000000000e+00    0,000000000e+00
      114000000    5,762886256e-02    5,528631620e-03    7,694555447e-03   -7,909770012e-01    0,000000000e+00    0,000000000e+00    0,000000000e+00    0,000000000e+00
      128000000    6,729888171e-02   -3,786338493e-02   -4,103651643e-01   -6,710966825e-01    0,000000000e+00    0,000000000e+00    0,000000000e+00    0,000000000e+00
      142000000    4,480459914e-02   -8,421433717e-02   -7,029357553e-01   -3,532321155e-01    0,000000000e+00    0,000000000e+00    0,000000000e+00    0,000000000e+00
      156000000   -5,493582692e-03   -1,068583429e-01   -7,871264815e-01    7,413707674e-02    0,000000000e+00    0,000000000e+00    0,000000000e+00    0,000000000e+00
      170000000   -5,762393773e-02   -9,057759494e-02   -6,275548339e-01    4,871144593e-01    0,000000000e+00    0,000000000e+00    0,000000000e+00    0,000000000e+00
      184000000   -8,364697546e-02   -4,948846996e-02   -2,647498250e-01    7,509887218e-01    0,000000000e+00    0,000000000e+00    0,000000000e+00    0,000000000e+00
      198000000   -7,958251238e-02   -1,051841211e-02    1,834161431e-01    7,729577422e-01    0,000000000e+00    0,000000000e+00    0,000000000e+00    0,000000000e+00
      212000000   -6,217720732e-02    1,316377055e-02    5,690813661e-01    5,489802957e-01    0,000000000e+00    0,000000000e+00    0,000000000e+00    0,000000000e+00
      226000000   -4,324159399e-02    2,763748541e-02    7,707028389e-01    1,545092314e-01    0,000000000e+00    0,000000000e+00    0,000000000e+00    0,000000000e+00
      240000000   -1,812206395e-02    3,851780295e-02    7,267159224e-01   -2,819834650e-01    0,000000000e+00    0,000000000e+00    0,000000000e+00    0,000000000e+00
      254000000    1,727803424e-02    3,518958390e-02    4,579129517e-01   -6,198188066e-01    0,000000000e+00    0,000000000e+00    0,000000000e+00    0,000000000e+00
      268000000    4,888606071e-02    5,574976560e-03    5,878429487e-02   -7,605429292e-01    0,000000000e+00    0,000000000e+00    0,000000000e+00    0,000000000e+00
      282000000    5,355609208e-02   -4,182568192e-02   -3,489616215e-01   -6,714033484e-01    0,000000000e+00    0,000000000e+00    0,000000000e+00    0,000000000e+00
      296000000    2,411369793e-02   -7,969676703e-02   -6,518559456e-01   -3,852712214e-01    0,000000000e+00    0,000000000e+00    0,000000000e+00    0,000000000e+00
      310000000   -1,772966236e-02   -8,323384076e-02   -7,624793649e-01    2,000415884e-02    0,000000000e+00    0,000000000e+00    0,000000000e+00    0,000000000e+00
      324000000   -4,144981503e-02   -5,880456045e-02   -6,313477159e-01    4,315519333e-01    0,000000000e+00    0,000000000e+00    0,000000000e+00    0,000000000e+00
      338000000   -3,436795250e-02   -3,705966473e-02   -2,967272997e-01    6,980909109e-01    0,000000000e+00    0,000000000e+00    0,000000000e+00    0,000000000e+00
      352000000   -1,725080423e-02   -4,074364901e-02    1,251878142e-01    7,421529889e-01    0,000000000e+00    0,000000000e+00    0,000000000e+00    0,000000000e+00
      366000000   -1,903778873e-02   -6,180504337e-02    4,976555109e-01    5,541990399e-01    0,000000000e+00    0,000000000e+00    0,000000000e+00    0,000000000e+00
      380000000   -4,428826645e-02   -7,246060669e-02    7,134655714e-01    1,998497993e-01    0,000000000e+00    0,000000000e+00    0,000000000e+00    0,000000000e+00
      394000000   -7,074094564e-02   -5,822635815e-02    7,035741210e-01   -2,165619433e-01    0,000000000e+00    0,000000000e+00    0,000000000e+00    0,000000000e+00
      408000000   -7,688720524e-02   -3,046843968e-02    4,703599215e-01   -5,593243837e-01    0,000000000e+00    0,000000000e+00    0,000000000e+00    0,000000000e+00
      422000000   -6,519838423e-02   -1,137026493e-02    9,326501936e-02   -7,185083032e-01    0,000000000e+00    0,000000000e+00    0,000000000e+00    0,000000000e+00
      436000000   -5,307247117e-02   -4,512496293e-03   -3,025383651e-01   -6,473942995e-01    0,000000000e+00    0,000000000e+00    0,000000000e+00    0,000000000e+00
      450000000   -4,481536523e-02    1,312281354e-03   -5,933572650e-01   -3,783283234e-01    0,000000000e+00    0,000000000e+00    0,000000000e+00    0,000000000e+00
      464000000   -2,932466567e-02    1,106168982e-02   -6,912516952e-01    4,362862819e-05    0,000000000e+00    0,000000000e+00    0,000000000e+00    0,000000000e+00
      478000000   -1,466715010e-03    1,138363406e-02   -5,734838247e-01    3,635434210e-01    0,000000000e+00    0,000000000e+00    0,000000000e+00    0,000000000e+00
      492000000    2,838020399e-02   -1,213867962e-02   -2,895962596e-01    6,015191674e-01    0,000000000e+00    0,000000000e+00    0,000000000e+00    0,000000000e+00
      506000000    3,640536219e-02   -5,561386049e-02    6,878793985e-02    6,583353877e-01    0,000000000e+00    0,000000000e+00    0,000000000e+00    0,000000000e+00
      520000000    1,343750581e-02   -9,880208969e-02    4,053190947e-01    5,274984837e-01    0,000000000e+00    0,000000000e+00    0,000000000e+00    0,000000000e+00
      534000000   -3,443341330e-02   -1,160023659e-01    6,237515211e-01    2,362164855e-01    0,000000000e+00    0,000000000e+00    0,000000000e+00    0,000000000e+00
      548000000   -7,721232623e-02   -9,906142950e-02    6,580007076e-01   -1,329782158e-01    0,000000000e+00    0,000000000e+00    0,000000000e+00    0,000000000e+00
      562000000   -9,344911575e-02   -6,623586267e-02    4,814687371e-01   -4,667834938e-01    0,000000000e+00    0,000000000e+00    0,000000000e+00    0,000000000e+00
      576000000   -8,603107184e-02   -4,416786507e-02    1,503466517e-01   -6,480298638e-01    0,000000000e+00    0,000000000e+00    0,000000000e+00    0,000000000e+00
      590000000   -8,073714375e-02   -4,162202030e-02   -2,214872688e-01   -6,271936893e-01    0,000000000e+00    0,000000000e+00    0,000000000e+00    0,000000000e+00
      604000000   -8,905165642e-02   -3,755713254e-02   -5,193228126e-01   -4,066749513e-01    0,000000000e+00    0,000000000e+00    0,000000000e+00    0,000000000e+00
      618000000   -9,682114422e-02   -1,575386338e-02   -6,533300281e-01   -5,827363208e-02    0,000000000e+00    0,000000000e+00    0,000000000e+00    0,000000000e+00
      632000000   -8,100354671e-02    1,497459412e-02   -5,755431056e-01    3,028181493e-01    0,000000000e+00    0,000000000e+00    0,000000000e+00    0,000000000e+00
      646000000   -4,299882427e-02    2,671359852e-02   -3,194844425e-01    5,565189719e-01    0,000000000e+00    0,000000000e+00    0,000000000e+00    0,000000000e+00
      660000000   -7,182332221e-03    5,603963975e-03    2,047417499e-02    6,286331415e-01    0,000000000e+00    0,000000000e+00    0,000000000e+00    0,000000000e+00
      674000000    1,686600852e-03   -3,004736267e-02    3,425783217e-01    5,186744928e-01    0,000000000e+00    0,000000000e+00    0,000000000e+00    0,000000000e+00
      688000000   -1,521949377e-02   -5,622250959e-02    5,588014126e-01    2,584565282e-01    0,000000000e+00    0,000000000e+00    0,000000000e+00    0,000000000e+00
      702000000   -3,380510584e-02   -5,972678214e-02    6,051130295e-01   -7,886645943e-02    0,000000000e+00    0,000000000e+00    0,000000000e+00    0,000000000e+00
      716000000   -3,761624545e-02   -5,535314605e-02    4,603620172e-01   -3,900325000e-01    0,000000000e+00    0,000000000e+00    0,000000000e+00    0,000000000e+00
      730000000   -3,129721060e-02   -6,470087916e-02    1,739603579e-01   -5,659883022e-01    0,000000000e+00    0,000000000e+00    0,000000000e+00    0,000000000e+00
      744000000   -4,027266800e-02   -8,916865289e-02   -1,532413960e-01   -5,638999343e-01    0,000000000e+00    0,000000000e+00    0,000000000e+00    0,000000000e+00
      758000000   -7,168613374e-02   -1,056167409e-01   -4,278120697e-01   -3,945037425e-01    0,000000000e+00    0,000000000e+00    0,000000000e+00    0,000000000e+00
      772000000   -1,133506522e-01   -9,341046214e-02   -5,743289590e-01   -1,056602597e-01    0,000000000e+00    0,000000000e+00    0,000000000e+00    0,000000000e+00
      786000000   -1,391110867e-01   -5,547729507e-02   -5,448120832e-01    2,208683044e-01    0,000000000e+00    0,000000000e+00    0,000000000e+00    0,000000000e+00
      800000000   -1,323947310e-01   -1,510607172e-02   -3,412099183e-01    4,798485339e-01    0,000000000e+00    0,000000000e+00    0,000000000e+00    0,000000000e+00
      814000000   -1,087023765e-01    8,367889561e-03   -3,412850201e-02    5,867805481e-01    0,000000000e+00    0,000000000e+00    0,000000000e+00    0,000000000e+00
      828000000   -8,581750095e-02    1,301804557e-02    2,785894275e-01    5,137623549e-01    0,000000000e+00    0,000000000e+00    0,000000000e+00    0,000000000e+00
      842000000   -6,989414245e-02    1,475728955e-02    5,023151040e-01    2,889035046e-01    0,000000000e+00    0,000000000e+00    0,000000000e+00    0,000000000e+00
      856000000   -5,236444995e-02    1,979704946e-02    5,704780221e-01   -1,802474074e-02    0,000000000e+00    0,000000000e+00    0,000000000e+00    0,000000000e+00
      870000000   -2,335337177e-02    1,437296160e-02    4,634940326e-01   -3,067653775e-01    0,000000000e+00    0,000000000e+00    0,000000000e+00    0,000000000e+00
      884000000    5,766182672e-03   -1,413826738e-02    2,308324128e-01   -4,879813790e-01    0,000000000e+00    0,000000000e+00    0,000000000e+00    0,000000000e+00
      898000000    1,148721855e-02   -6,336029619e-02   -5,250722915e-02   -5,259488821e-01    0,000000000e+00    0,000000000e+00    0,000000000e+00    0,000000000e+00
      912000000   -2,252155729e-02   -1,082053632e-01   -3,647788465e-01   -3,949969411e-01    0,000000000e+00    0,000000000e+00    0,000000000e+00    0,000000000e+00
      926000000   -7,413990051e-02   -1,232614741e-01   -5,277680159e-01   -1,590686738e-01    0,000000000e+00    0,000000000e+00    0,000000000e+00    0,000000000e+00
      940000000   -1,247294024e-01   -1,041043401e-01   -5,520340800e-01    1,555317491e-01    0,000000000e+00    0,000000000e+00    0,000000000e+00    0,000000000e+00
      954000000   -1,436302364e-01   -6,272964925e-02   -3,913896680e-01    4,455464482e-01    0,000000000e+00    0,000000000e+00    0,000000000e+00    0,000000000e+00
      968000000   -1,301111728e-01   -3,017261252e-02   -9,277607501e-02    6,020453572e-01    0,000000000e+00    0,000000000e+00    0,000000000e+00    0,000000000e+00
      982000000   -1,134141237e-01   -1,852097176e-02    2,475251406e-01    5,712277293e-01    0,000000000e+00    0,000000000e+00    0,000000000e+00    0,000000000e+00
      996000000   -1,040474623e-01   -1,104566175e-02    5,137210488e-01    3,654982746e-01    0,000000000e+00    0,000000000e+00    0,000000000e+00    0,000000000e+00
     1010000000   -1,014956683e-01   -1,049721893e-02    6,288683414e-01    5,053329468e-02    0,000000000e+00    0,000000000e+00    0,000000000e+00    0,000000000e+00
     1024000000   -9,639772028e-02    1,201863168e-03    5,603877306e-01   -2,704792619e-01    0,000000000e+00    0,000000000e+00    0,000000000e+00    0,000000000e+00
     1038000000   -7,770539075e-02   -4,234666470e-03    3,368695080e-01   -5,046957135e-01    0,000000000e+00    0,000000000e+00    0,000000000e+00    0,000000000e+00
     1052000000   -6,397583336e-02   -1,342217065e-02    3,355820850e-02   -5,860492587e-01    0,000000000e+00    0,000000000e+00    0,000000000e+00    0,000000000e+00
     1066000000   -7,103619725e-02   -2,678068541e-02   -2,660578787e-01   -5,032311678e-01    0,000000000e+00    0,000000000e+00    0,000000000e+00    0,000000000e+00
     1080000000   -8,545099944e-02   -2,934324741e-02   -4,799937010e-01   -2,697686553e-01    0,000000000e+00    0,000000000e+00    0,000000000e+00    0,000000000e+00
     1094000000   -8,393865824e-02   -1,700715721e-02   -5,315474272e-01    4,266761616e-02    0,000000000e+00    0,000000000e+00    0,000000000e+00    0,000000000e+00
     1108000000   -5,977373198e-02   -1,444975007e-02   -3,975221217e-01    3,267818689e-01    0,000000000e+00    0,000000000e+00    0,000000000e+00    0,000000000e+00
     1122000000   -3,215786070e-02   -3,106123954e-02   -1,365804374e-01    4,836555719e-01    0,000000000e+00    0,000000000e+00    0,000000000e+00    0,000000000e+00
     1136000000   -2,842484601e-02   -8,442477882e-02    1,614680737e-01    4,756125510e-01    0,000000000e+00    0,000000000e+00    0,000000000e+00    0,000000000e+00
     1150000000   -6,132731959e-02   -1,352691501e-01    4,194149971e-01    3,117826879e-01    0,000000000e+00    0,000000000e+00    0,000000000e+00    0,000000000e+00
     1164000000   -1,382845640e-01   -1,554400027e-01    5,653579831e-01    2,343729883e-02    0,000000000e+00    0,000000000e+00    0,000000000e+00    0,000000000e+00
     1178000000   -2,107306868e-01   -1,155362576e-01    5,323641896e-01   -3,168465495e-01    0,000000000e+00    0,000000000e+00    0,000000000e+00    0,000000000e+00
     1192000000   -2,506146729e-01   -4,093912616e-02    2,973887324e-01   -5,977901816e-01    0,000000000e+00    0,000000000e+00    0,000000000e+00    0,000000000e+00
     1206000000   -2,356872559e-01    3,306107596e-02   -6,277579814e-02   -6,971119642e-01    0,000000000e+00    0,000000000e+00    0,000000000e+00    0,000000000e+00
     1220000000   -1,892260760e-01    7,972303033e-02   -4,203402698e-01   -5,854835510e-01    0,000000000e+00    0,000000000e+00    0,000000000e+00    0,000000000e+00
     1234000000   -1,284384578e-01    1,064621806e-01   -6,419812441e-01   -2,868808210e-01    0,000000000e+00    0,000000000e+00    0,000000000e+00    0,000000000e+00
     1248000000   -6,376258284e-02    9,456019104e-02   -6,731662750e-01    6,574632972e-02    0,000000000e+00    0,000000000e+00    0,000000000e+00    0,000000000e+00
     1262000000   -1,249061059e-02    6,501230597e-02   -5,228524208e-01    3,716109693e-01    0,000000000e+00    0,000000000e+00    0,000000000e+00    0,000000000e+00
     1276000000    2,396475896e-02   -4,668988753e-03   -2,421038598e-01    5,428749323e-01    0,000000000e+00    0,000000000e+00    0,000000000e+00    0,000000000e+00
     1290000000    1,787701435e-02   -9,082917124e-02    6,212816387e-02    5,701300502e-01    0,000000000e+00    0,000000000e+00    0,000000000e+00    0,000000000e+00
     1304000000   -3,447997943e-02   -1,730663627e-01    3,631229699e-01    4,622388482e-01    0,000000000e+00    0,000000000e+00    0,000000000e+00    0,000000000e+00
     1318000000   -1,357907951e-01   -2,129027247e-01    5,830842853e-01    2,229443043e-01    0,000000000e+00    0,000000000e+00    0,000000000e+00    0,000000000e+00
     1332000000   -2,548644841e-01   -1,877090931e-01    6,473909020e-01   -1,271003634e-01    0,000000000e+00    0,000000000e+00    0,000000000e+00    0,000000000e+00
     1346000000   -3,353896141e-01   -9,035582840e-02    5,124123693e-01   -4,642525017e-01    0,000000000e+00    0,000000000e+00    0,000000000e+00    0,000000000e+00
     1360000000   -3,361178041e-01    2,614912391e-02    1,847206503e-01   -6,501165628e-01    0,000000000e+00    0,000000000e+00    0,000000000e+00    0,000000000e+00
     1374000000   -2,828931808e-01    9,948303550e-02   -1,562362313e-01   -6,027300358e-01    0,000000000e+00    0,000000000e+00    0,000000000e+00    0,000000000e+00
     1388000000   -2,096983045e-01    1,386084706e-01   -4,081283510e-01   -3,834326267e-01    0,000000000e+00    0,000000000e+00    0,000000000e+00    0,000000000e+00
     1402000000   -1,490734220e-01    1,376822293e-01   -4,813805521e-01   -6,011029333e-02    0,000000000e+00    0,000000000e+00    0,000000000e+00    0,000000000e+00
     1416000000   -9,686213732e-02    1,136685461e-01   -3,813706934e-01    2,368544787e-01    0,000000000e+00    0,000000000e+00    0,000000000e+00    0,000000000e+00
     1430000000   -5,090413988e-02    6,801766902e-02   -1,234767511e-01    4,736983478e-01    0,000000000e+00    0,000000000e+00    0,000000000e+00    0,000000000e+00
     1444000000   -3,380311280e-02    4,373583943e-03    1,777104139e-01    5,350087881e-01    0,000000000e+00    0,000000000e+00    0,000000000e+00    0,000000000e+00
     1458000000   -6,028458104e-02   -7,317230850e-02    4,857155383e-01    4,679456353e-01    0,000000000e+00    0,000000000e+00    0,000000000e+00    0,000000000e+00
     1472000000   -1,380338669e-01   -1,254381686e-01    7,642419338e-01    2,570459843e-01    0,000000000e+00    0,000000000e+00    0,000000000e+00    0,000000000e+00
     1486000000   -2,322287261e-01   -1,143599749e-01    8,914182186e-01   -9,240621328e-02    0,000000000e+00    0,000000000e+00    0,000000000e+00    0,000000000e+00
     1500000000   -2,842939496e-01   -4,773814231e-02    8,007396460e-01   -4,465077519e-01    0,000000000e+00    0,000000000e+00    0,000000000e+00    0,000000000e+00
