! NanoVNA-App
! Date: 2025-09-25 15:05:19
! Start: 100MHz Stop: 1,5GHz Points: 101
! S-Parameter data: F S11 S21 S12 S22
# Hz S RI R 50
!     Frequency           S11_Real           S11_Imag           S21_Real           S21_Imag           S12_Real           S12_Imag           S22_Real           S22_Imag
      100000000    3,110577352e-02    2,861706540e-02    4,348343015e-01   -6,687207222e-01    0,000000000e+00    0,000000000e+00    0,000000000e+00    0,000000000e+00
      114000000    5,751283094e-02    5,514145829e-03    7,843289524e-03   -7,910408974e-01    0,000000000e+00    0,000000000e+00    0,000000000e+00    0,000000000e+00
      128000000    6,720171869e-02   -3,780213743e-02   -4,102440774e-01   -6,709551811e-01    0,000000000e+00    0,000000000e+00    0,000000000e+00    0,000000000e+00
      142000000    4,467573762e-02   -8,415844291e-02   -7,029170990e-01   -3,531878889e-01    0,000000000e+00    0,000000000e+00    0,000000000e+00    0,000000000e+00
      156000000   -5,485234782e-03   -1,067963764e-01   -7,872595191e-01    7,422871143e-02    0,000000000e+00    0,000000000e+00    0,000000000e+00    0,000000000e+00
      170000000   -5,759876966e-02   -9,050241858e-02   -6,275823712e-01    4,870036244e-01    0,000000000e+00    0,000000000e+00    0,000000000e+00    0,000000000e+00
      184000000   -8,359681815e-02   -4,941405356e-02   -2,648580372e-01    7,511930466e-01    0,000000000e+00    0,000000000e+00    0,000000000e+00    0,000000000e+00
      198000000   -7,957068831e-02   -1,045490708e-02    1,835353076e-01    7,734827399e-01    0,000000000e+00    0,000000000e+00    0,000000000e+00    0,000000000e+00
      212000000   -6,218430400e-02    1,311606634e-02    5,693253279e-01    5,489074588e-01    0,000000000e+00    0,000000000e+00    0,000000000e+00    0,000000000e+00
      226000000   -4,317740723e-02    2,757333405e-02    7,707461119e-01    1,544327885e-01    0,000000000e+00    0,000000000e+00    0,000000000e+00    0,000000000e+00
      240000000   -1,822139882e-02    3,838913515e-02    7,269677520e-01   -2,820061743e-01    0,000000000e+00    0,000000000e+00    0,000000000e+00    0,000000000e+00
      254000000    1,715059578e-02    3,508181870e-02    4,579037428e-01   -6,201727390e-01    0,000000000e+00    0,000000000e+00    0,000000000e+00    0,000000000e+00
      268000000    4,868276417e-02    5,544736981e-03    5,846270174e-02   -7,603846192e-01    0,000000000e+00    0,000000000e+00    0,000000000e+00    0,000000000e+00
      282000000    5,340186879e-02   -4,181652516e-02   -3,493033648e-01   -6,717288494e-01    0,000000000e+00    0,000000000e+00    0,000000000e+00    0,000000000e+00
      296000000    2,392201684e-02   -7,947672904e-02   -6,521418691e-01   -3,852376342e-01    0,000000000e+00    0,000000000e+00    0,000000000e+00    0,000000000e+00
      310000000   -1,794430427e-02   -8,325034380e-02   -7,631851435e-01    1,952221617e-02    0,000000000e+00    0,000000000e+00    0,000000000e+00    0,000000000e+00
      324000000   -4,157472774e-02   -5,884206295e-02   -6,317840219e-01    4,312147200e-01    0,000000000e+00    0,000000000e+00    0,000000000e+00    0,000000000e+00
      338000000   -3,405726701e-02   -3,674373776e-02   -2,959345579e-01    7,009869814e-01    0,000000000e+00    0,000000000e+00    0,000000000e+00    0,000000000e+00
      352000000   -1,723317616e-02   -4,080759734e-02    1,257299632e-01    7,424383163e-01    0,000000000e+00    0,000000000e+00    0,000000000e+00    0,000000000e+00
      366000000   -1,916624792e-02   -6,200771406e-02    4,982500076e-01    5,542214513e-01    0,000000000e+00    0,000000000e+00    0,000000000e+00    0,000000000e+00
      380000000   -4,426274449e-02   -7,259224355e-02    7,133310437e-01    2,000326961e-01    0,000000000e+00    0,000000000e+00    0,000000000e+00    0,000000000e+00
      394000000   -7,059483230e-02   -5,823791027e-02    7,041310668e-01   -2,173045576e-01    0,000000000e+00    0,000000000e+00    0,000000000e+00    0,000000000e+00
      408000000   -7,709870487e-02   -3,069164604e-02    4,704232216e-01   -5,600792170e-01    0,000000000e+00    0,000000000e+00    0,000000000e+00    0,000000000e+00
      422000000   -6,556587666e-02   -1,171671692e-02    9,189840406e-02   -7,186505198e-01    0,000000000e+00    0,000000000e+00    0,000000000e+00    0,000000000e+00
      436000000   -5,317468196e-02   -4,254911561e-03   -3,029264510e-01   -6,458610892e-01    0,000000000e+00    0,000000000e+00    0,000000000e+00    0,000000000e+00
      450000000   -4,483323917e-02    1,741265762e-03   -5,927169919e-01   -3,778692186e-01    0,000000000e+00    0,000000000e+00    0,000000000e+00    0,000000000e+00
      464000000   -2,916180529e-02    1,175220963e-02   -6,906924248e-01    7,128873840e-04    0,000000000e+00    0,000000000e+00    0,000000000e+00    0,000000000e+00
      478000000   -3,448670905e-04    1,141791325e-02   -5,729737282e-01    3,631510437e-01    0,000000000e+00    0,000000000e+00    0,000000000e+00    0,000000000e+00
      492000000    2,819190361e-02   -1,234003995e-02   -2,890478671e-01    6,011458635e-01    0,000000000e+00    0,000000000e+00    0,000000000e+00    0,000000000e+00
      506000000    3,629082069e-02   -5,651288480e-02    6,961593777e-02    6,574591994e-01    0,000000000e+00    0,000000000e+00    0,000000000e+00    0,000000000e+00
      520000000    1,278640795e-02   -9,879200906e-02    4,015147686e-01    5,251843929e-01    0,000000000e+00    0,000000000e+00    0,000000000e+00    0,000000000e+00
      534000000   -3,452053666e-02   -1,155041680e-01    6,237069368e-01    2,363365293e-01    0,000000000e+00    0,000000000e+00    0,000000000e+00    0,000000000e+00
      548000000   -7,734395564e-02   -9,915536642e-02    6,580642462e-01   -1,336060762e-01    0,000000000e+00    0,000000000e+00    0,000000000e+00    0,000000000e+00
      562000000   -9,333021939e-02   -6,597352028e-02    4,812324345e-01   -4,664741755e-01    0,000000000e+00    0,000000000e+00    0,000000000e+00    0,000000000e+00
      576000000   -8,598578721e-02   -4,445795715e-02    1,501156390e-01   -6,483083367e-01    0,000000000e+00    0,000000000e+00    0,000000000e+00    0,000000000e+00
      590000000   -8,098129183e-02   -4,189320654e-02   -2,200490832e-01   -6,265011430e-01    0,000000000e+00    0,000000000e+00    0,000000000e+00    0,000000000e+00
      604000000   -8,922787011e-02   -3,723025694e-02   -5,202769041e-01   -4,057214260e-01    0,000000000e+00    0,000000000e+00    0,000000000e+00    0,000000000e+00
      618000000   -9,650225937e-02   -1,511333231e-02   -6,533228159e-01   -5,862062797e-02    0,000000000e+00    0,000000000e+00    0,000000000e+00    0,000000000e+00
      632000000   -8,101492375e-02    1,587740518e-02   -5,752720833e-01    3,032329082e-01    0,000000000e+00    0,000000000e+00    0,000000000e+00    0,000000000e+00
      646000000   -4,254295677e-02    2,612642944e-02   -3,177028596e-01    5,570932627e-01    0,000000000e+00    0,000000000e+00    0,000000000e+00    0,000000000e+00
      660000000   -8,003740571e-03    6,197385956e-03    2,133586071e-02    6,294099092e-01    0,000000000e+00    0,000000000e+00    0,000000000e+00    0,000000000e+00
      674000000    1,639046357e-03   -2,968901582e-02    3,424737453e-01    5,187186003e-01    0,000000000e+00    0,000000000e+00    0,000000000e+00    0,000000000e+00
      688000000   -1,405565534e-02   -5,512420088e-02    5,589378476e-01    2,580062151e-01    0,000000000e+00    0,000000000e+00    0,000000000e+00    0,000000000e+00
      702000000   -3,353931755e-02   -6,031187624e-02    6,040511131e-01   -7,941059023e-02    0,000000000e+00    0,000000000e+00    0,000000000e+00    0,000000000e+00
      716000000   -3,738626093e-02   -5,549583957e-02    4,589165151e-01   -3,902679682e-01    0,000000000e+00    0,000000000e+00    0,000000000e+00    0,000000000e+00
      730000000   -3,183966875e-02   -6,514554471e-02    1,733041257e-01   -5,661217570e-01    0,000000000e+00    0,000000000e+00    0,000000000e+00    0,000000000e+00
      744000000   -4,042122886e-02   -8,795332909e-02   -1,542659700e-01   -5,636337996e-01    0,000000000e+00    0,000000000e+00    0,000000000e+00    0,000000000e+00
      758000000   -7,257699966e-02   -1,036364511e-01   -4,280191362e-01   -3,941496313e-01    0,000000000e+00    0,000000000e+00    0,000000000e+00    0,000000000e+00
      772000000   -1,136824414e-01   -9,383507073e-02   -5,747678876e-01   -1,052473858e-01    0,000000000e+00    0,000000000e+00    0,000000000e+00    0,000000000e+00
      786000000   -1,387166530e-01   -5,518241227e-02   -5,443696976e-01    2,213695794e-01    0,000000000e+00    0,000000000e+00    0,000000000e+00    0,000000000e+00
      800000000   -1,313071996e-01   -1,394646987e-02   -3,415215611e-01    4,801676869e-01    0,000000000e+00    0,000000000e+00    0,000000000e+00    0,000000000e+00
      814000000   -1,074204445e-01    8,088756353e-03   -3,406447172e-02    5,854904056e-01    0,000000000e+00    0,000000000e+00    0,000000000e+00    0,000000000e+00
      828000000   -8,589600027e-02    1,271318458e-02    2,796058953e-01    5,140834451e-01    0,000000000e+00    0,000000000e+00    0,000000000e+00    0,000000000e+00
      842000000   -7,141088694e-02    1,395020727e-02    5,025799274e-01    2,897039354e-01    0,000000000e+00    0,000000000e+00    0,000000000e+00    0,000000000e+00
      856000000   -5,303653330e-02    1,896498911e-02    5,706784725e-01   -1,791327633e-02    0,000000000e+00    0,000000000e+00    0,000000000e+00    0,000000000e+00
      870000000   -2,379189990e-02    1,407532115e-02    4,636122882e-01   -3,067615330e-01    0,000000000e+00    0,000000000e+00    0,000000000e+00    0,000000000e+00
      884000000    5,858100951e-03   -1,393359434e-02    2,299215645e-01   -4,879797399e-01    0,000000000e+00    0,000000000e+00    0,000000000e+00    0,000000000e+00
      898000000    1,203579362e-02   -6,258676201e-02   -5,239303410e-02   -5,263753533e-01    0,000000000e+00    0,000000000e+00    0,000000000e+00    0,000000000e+00
      912000000   -2,312251925e-02   -1,065468118e-01   -3,580311239e-01   -3,960297108e-01    0,000000000e+00    0,000000000e+00    0,000000000e+00    0,000000000e+00
      926000000   -7,548163831e-02   -1,257584244e-01   -5,318391323e-01   -1,594575346e-01    0,000000000e+00    0,000000000e+00    0,000000000e+00    0,000000000e+00
      940000000   -1,241194531e-01   -1,021630764e-01   -5,527257919e-01    1,574121714e-01    0,000000000e+00    0,000000000e+00    0,000000000e+00    0,000000000e+00
      954000000   -1,391152143e-01   -6,037669629e-02   -3,897861540e-01    4,470928609e-01    0,000000000e+00    0,000000000e+00    0,000000000e+00    0,000000000e+00
      968000000   -1,299909651e-01   -2,764979936e-02   -9,286385030e-02    6,019502282e-01    0,000000000e+00    0,000000000e+00    0,000000000e+00    0,000000000e+00
      982000000   -1,137317866e-01   -1,771628298e-02    2,469757795e-01    5,721843243e-01    0,000000000e+00    0,000000000e+00    0,000000000e+00    0,000000000e+00
      996000000   -1,108262986e-01   -1,529335044e-02    5,151908994e-01    3,660139441e-01    0,000000000e+00    0,000000000e+00    0,000000000e+00    0,000000000e+00
     1010000000   -1,015078574e-01   -5,291379057e-03    6,321465969e-01    4,930956662e-02    0,000000000e+00    0,000000000e+00    0,000000000e+00    0,000000000e+00
     1024000000   -9,525299072e-02   -8,909921162e-04    5,594027042e-01   -2,723405361e-01    0,000000000e+00    0,000000000e+00    0,000000000e+00    0,000000000e+00
     1038000000   -7,490545511e-02    3,489589551e-03    3,363797367e-01   -5,031059980e-01    0,000000000e+00    0,000000000e+00    0,000000000e+00    0,000000000e+00
     1052000000   -6,236217543e-02   -1,843487099e-02    3,000950813e-02   -5,867190361e-01    0,000000000e+00    0,000000000e+00    0,000000000e+00    0,000000000e+00
     1066000000   -7,157301903e-02   -2,914436162e-02   -2,671193480e-01   -4,960128069e-01    0,000000000e+00    0,000000000e+00    0,000000000e+00    0,000000000e+00
     1080000000   -7,845448703e-02   -2,962418087e-02   -4,813794196e-01   -2,680520415e-01    0,000000000e+00    0,000000000e+00    0,000000000e+00    0,000000000e+00
     1094000000   -8,284872770e-02   -1,446083561e-02   -5,290297270e-01    4,337235540e-02    0,000000000e+00    0,000000000e+00    0,000000000e+00    0,000000000e+00
     1108000000   -6,192314252e-02   -1,124699321e-02   -3,960133493e-01    3,264592290e-01    0,000000000e+00    0,000000000e+00    0,000000000e+00    0,000000000e+00
     1122000000   -3,364561498e-02   -3,323390707e-02   -1,349947006e-01    4,786573946e-01    0,000000000e+00    0,000000000e+00    0,000000000e+00    0,000000000e+00
     1136000000   -2,491089888e-02   -8,209814131e-02    1,655334383e-01    4,700844288e-01    0,000000000e+00    0,000000000e+00    0,000000000e+00    0,000000000e+00
     1150000000   -6,544577330e-02   -1,314108670e-01    4,189244509e-01    3,089077771e-01    0,000000000e+00    0,000000000e+00    0,000000000e+00    0,000000000e+00
     1164000000   -1,381772459e-01   -1,498012096e-01    5,602692962e-01    2,618233860e-02    0,000000000e+00    0,000000000e+00    0,000000000e+00    0,000000000e+00
     1178000000   -2,133507282e-01   -1,200355440e-01    5,267078280e-01   -3,140710890e-01    0,000000000e+00    0,000000000e+00    0,000000000e+00    0,000000000e+00
     1192000000   -2,513569891e-01   -4,848114029e-02    2,932752967e-01   -5,989121795e-01    0,000000000e+00    0,000000000e+00    0,000000000e+00    0,000000000e+00
     1206000000   -2,327329218e-01    3,570741042e-02   -6,862508506e-02   -6,980295777e-01    0,000000000e+00    0,000000000e+00    0,000000000e+00    0,000000000e+00
     1220000000   -1,856553555e-01    8,251576126e-02   -4,167087078e-01   -5,792031288e-01    0,000000000e+00    0,000000000e+00    0,000000000e+00    0,000000000e+00
     1234000000   -1,251906455e-01    1,064737439e-01   -6,429876685e-01   -2,891570032e-01    0,000000000e+00    0,000000000e+00    0,000000000e+00    0,000000000e+00
     1248000000   -6,712940335e-02    1,000810266e-01   -6,720435023e-01    6,312967837e-02    0,000000000e+00    0,000000000e+00    0,000000000e+00    0,000000000e+00
     1262000000   -1,447864249e-02    6,093522906e-02   -5,183876753e-01    3,691494167e-01    0,000000000e+00    0,000000000e+00    0,000000000e+00    0,000000000e+00
     1276000000    2,464293130e-02    1,701227506e-03   -2,363376468e-01    5,448921323e-01    0,000000000e+00    0,000000000e+00    0,000000000e+00    0,000000000e+00
     1290000000    2,404437773e-02   -8,827941120e-02    7,142303139e-02    5,674694180e-01    0,000000000e+00    0,000000000e+00    0,000000000e+00    0,000000000e+00
     1304000000   -3,336029127e-02   -1,697642654e-01    3,573365510e-01    4,625113010e-01    0,000000000e+00    0,000000000e+00    0,000000000e+00    0,000000000e+00
     1318000000   -1,353249252e-01   -2,157246619e-01    5,755295157e-01    2,157923877e-01    0,000000000e+00    0,000000000e+00    0,000000000e+00    0,000000000e+00
     1332000000   -2,543564439e-01   -1,903763115e-01    6,503838897e-01   -1,319920123e-01    0,000000000e+00    0,000000000e+00    0,000000000e+00    0,000000000e+00
     1346000000   -3,339730501e-01   -9,126769006e-02    5,133829117e-01   -4,528251886e-01    0,000000000e+00    0,000000000e+00    0,000000000e+00    0,000000000e+00
     1360000000   -3,396020830e-01    2,288570069e-02    1,922766417e-01   -6,336061954e-01    0,000000000e+00    0,000000000e+00    0,000000000e+00    0,000000000e+00
     1374000000   -2,839148343e-01    1,028485149e-01   -1,572854668e-01   -6,065512300e-01    0,000000000e+00    0,000000000e+00    0,000000000e+00    0,000000000e+00
     1388000000   -2,122587562e-01    1,350982487e-01   -4,052205980e-01   -3,770330250e-01    0,000000000e+00    0,000000000e+00    0,000000000e+00    0,000000000e+00
     1402000000   -1,540647000e-01    1,417848766e-01   -4,849671423e-01   -5,832623318e-02    0,000000000e+00    0,000000000e+00    0,000000000e+00    0,000000000e+00
     1416000000   -1,019898206e-01    1,145820916e-01   -3,737957776e-01    2,352134436e-01    0,000000000e+00    0,000000000e+00    0,000000000e+00    0,000000000e+00
     1430000000   -5,648364872e-02    7,213857025e-02   -1,755426079e-01    4,463360012e-01    0,000000000e+00    0,000000000e+00    0,000000000e+00    0,000000000e+00
     1444000000   -3,621411696e-02    5,050349515e-03    1,688622385e-01    5,365324020e-01    0,000000000e+00    0,000000000e+00    0,000000000e+00    0,000000000e+00
     1458000000   -5,455193669e-02   -7,586730272e-02    4,823567569e-01    4,638369381e-01    0,000000000e+00    0,000000000e+00    0,000000000e+00    0,000000000e+00
     1472000000   -1,418652982e-01   -1,260336637e-01    7,456673980e-01    2,583502531e-01    0,000000000e+00    0,000000000e+00    0,000000000e+00    0,000000000e+00
     1486000000   -2,277450711e-01   -1,153314859e-01    9,011312127e-01   -8,726052195e-02    0,000000000e+00    0,000000000e+00    0,000000000e+00    0,000000000e+00
     1500000000   -2,818457782e-01   -4,855621606e-02    7,991355062e-01   -4,576394260e-01    0,000000000e+00    0,000000000e+00    0,000000000e+00    0,000000000e+00
