! NanoVNA-App
! Date: 2025-09-25 15:09:05
! Start: 100MHz Stop: 1,5GHz Points: 101
! S-Parameter data: F S11 S21 S12 S22
# Hz S RI R 50
!     Frequency           S11_Real           S11_Imag           S21_Real           S21_Imag           S12_Real           S12_Imag           S22_Real           S22_Imag
      100000000    3,116132505e-02    2,865337208e-02    4,348611832e-01   -6,685838103e-01    0,000000000e+00    0,000000000e+00    0,000000000e+00    0,000000000e+00
      114000000    5,760498345e-02    5,495833699e-03    7,690308150e-03   -7,908530831e-01    0,000000000e+00    0,000000000e+00    0,000000000e+00    0,000000000e+00
      128000000    6,728906184e-02   -3,782165423e-02   -4,101758301e-01   -6,711981297e-01    0,000000000e+00    0,000000000e+00    0,000000000e+00    0,000000000e+00
      142000000    4,469984770e-02   -8,424120396e-02   -7,029796839e-01   -3,534243405e-01    0,000000000e+00    0,000000000e+00    0,000000000e+00    0,000000000e+00
      156000000   -6,262205541e-03   -1,059661657e-01   -7,855378985e-01    7,292167842e-02    0,000000000e+00    0,000000000e+00    0,000000000e+00    0,000000000e+00
      170000000   -5,770018324e-02   -9,069018066e-02   -6,275756955e-01    4,869929254e-01    0,000000000e+00    0,000000000e+00    0,000000000e+00    0,000000000e+00
      184000000   -8,372183144e-02   -4,946473613e-02   -2,648181915e-01    7,510380745e-01    0,000000000e+00    0,000000000e+00    0,000000000e+00    0,000000000e+00
      198000000   -7,963891327e-02   -1,046686806e-02    1,834771186e-01    7,733076811e-01    0,000000000e+00    0,000000000e+00    0,000000000e+00    0,000000000e+00
      212000000   -6,231382489e-02    1,315216068e-02    5,689213276e-01    5,490537882e-01    0,000000000e+00    0,000000000e+00    0,000000000e+00    0,000000000e+00
      226000000   -4,324721172e-02    2,768023685e-02    7,706446052e-01    1,545226127e-01    0,000000000e+00    0,000000000e+00    0,000000000e+00    0,000000000e+00
      240000000   -1,824633777e-02    3,850037605e-02    7,269327044e-01   -2,818939388e-01    0,000000000e+00    0,000000000e+00    0,000000000e+00    0,000000000e+00
      254000000    1,723238826e-02    3,521528095e-02    4,579817057e-01   -6,197799444e-01    0,000000000e+00    0,000000000e+00    0,000000000e+00    0,000000000e+00
      268000000    4,878735542e-02    5,625695921e-03    5,853674561e-02   -7,599431872e-01    0,000000000e+00    0,000000000e+00    0,000000000e+00    0,000000000e+00
      282000000    5,346070975e-02   -4,174744338e-02   -3,492884040e-01   -6,715828776e-01    0,000000000e+00    0,000000000e+00    0,000000000e+00    0,000000000e+00
      296000000    2,408983186e-02   -7,965081930e-02   -6,518727541e-01   -3,854134083e-01    0,000000000e+00    0,000000000e+00    0,000000000e+00    0,000000000e+00
      310000000   -1,798131317e-02   -8,314909786e-02   -7,638930082e-01    2,043812536e-02    0,000000000e+00    0,000000000e+00    0,000000000e+00    0,000000000e+00
      324000000   -4,148685187e-02   -5,903522670e-02   -6,318744421e-01    4,307882488e-01    0,000000000e+00    0,000000000e+00    0,000000000e+00    0,000000000e+00
      338000000   -3,425414860e-02   -3,693962097e-02   -2,972972095e-01    6,988800168e-01    0,000000000e+00    0,000000000e+00    0,000000000e+00    0,000000000e+00
      352000000   -1,743881032e-02   -4,068743065e-02    1,249369308e-01    7,421349287e-01    0,000000000e+00    0,000000000e+00    0,000000000e+00    0,000000000e+00
      366000000   -1,927359775e-02   -6,220660359e-02    4,984980822e-01    5,538130403e-01    0,000000000e+00    0,000000000e+00    0,000000000e+00    0,000000000e+00
      380000000   -4,442260414e-02   -7,264659554e-02    7,131768465e-01    1,993881166e-01    0,000000000e+00    0,000000000e+00    0,000000000e+00    0,000000000e+00
      394000000   -7,078166306e-02   -5,782644451e-02    7,048740387e-01   -2,165171355e-01    0,000000000e+00    0,000000000e+00    0,000000000e+00    0,000000000e+00
      408000000   -7,686129957e-02   -3,024965338e-02    4,710444212e-01   -5,597360134e-01    0,000000000e+00    0,000000000e+00    0,000000000e+00    0,000000000e+00
      422000000   -6,527257711e-02   -1,109476760e-02    9,322234988e-02   -7,173753977e-01    0,000000000e+00    0,000000000e+00    0,000000000e+00    0,000000000e+00
      436000000   -5,299201608e-02   -4,501552321e-03   -3,024085462e-01   -6,469659805e-01    0,000000000e+00    0,000000000e+00    0,000000000e+00    0,000000000e+00
      450000000   -4,463481903e-02    1,481766347e-03   -5,937483907e-01   -3,786514401e-01    0,000000000e+00    0,000000000e+00    0,000000000e+00    0,000000000e+00
      464000000   -2,970179357e-02    1,144668926e-02   -6,912500262e-01    1,630999177e-04    0,000000000e+00    0,000000000e+00    0,000000000e+00    0,000000000e+00
      478000000   -1,042057527e-03    1,149145514e-02   -5,732245445e-01    3,633636236e-01    0,000000000e+00    0,000000000e+00    0,000000000e+00    0,000000000e+00
      492000000    2,773768269e-02   -1,241159532e-02   -2,893350124e-01    6,022026539e-01    0,000000000e+00    0,000000000e+00    0,000000000e+00    0,000000000e+00
      506000000    3,602142632e-02   -5,563790351e-02    6,874363124e-02    6,588473916e-01    0,000000000e+00    0,000000000e+00    0,000000000e+00    0,000000000e+00
      520000000    1,231974363e-02   -9,960928559e-02    4,048543274e-01    5,216073394e-01    0,000000000e+00    0,000000000e+00    0,000000000e+00    0,000000000e+00
      534000000   -3,397554904e-02   -1,162433177e-01    6,240029335e-01    2,361312211e-01    0,000000000e+00    0,000000000e+00    0,000000000e+00    0,000000000e+00
      548000000   -7,717675716e-02   -9,928010404e-02    6,579280496e-01   -1,331320852e-01    0,000000000e+00    0,000000000e+00    0,000000000e+00    0,000000000e+00
      562000000   -9,336254001e-02   -6,623835117e-02    4,822844565e-01   -4,666785896e-01    0,000000000e+00    0,000000000e+00    0,000000000e+00    0,000000000e+00
      576000000   -8,643326908e-02   -4,452409968e-02    1,505329907e-01   -6,481037140e-01    0,000000000e+00    0,000000000e+00    0,000000000e+00    0,000000000e+00
      590000000   -8,078584820e-02   -4,173399508e-02   -2,193580717e-01   -6,295307875e-01    0,000000000e+00    0,000000000e+00    0,000000000e+00    0,000000000e+00
      604000000   -8,862670511e-02   -3,746732324e-02   -5,197655559e-01   -4,065457284e-01    0,000000000e+00    0,000000000e+00    0,000000000e+00    0,000000000e+00
      618000000   -9,701053798e-02   -1,542157121e-02   -6,534077525e-01   -5,832925811e-02    0,000000000e+00    0,000000000e+00    0,000000000e+00    0,000000000e+00
      632000000   -8,081464469e-02    1,565128006e-02   -5,755867362e-01    3,023741841e-01    0,000000000e+00    0,000000000e+00    0,000000000e+00    0,000000000e+00
      646000000   -4,240523651e-02    2,600605972e-02   -3,177735806e-01    5,561990738e-01    0,000000000e+00    0,000000000e+00    0,000000000e+00    0,000000000e+00
      660000000   -8,105437271e-03    6,063550711e-03    2,321702242e-02    6,298492551e-01    0,000000000e+00    0,000000000e+00    0,000000000e+00    0,000000000e+00
      674000000    9,196043247e-04   -3,065649047e-02    3,421460688e-01    5,185938478e-01    0,000000000e+00    0,000000000e+00    0,000000000e+00    0,000000000e+00
      688000000   -1,429923810e-02   -5,532146618e-02    5,594693422e-01    2,589225769e-01    0,000000000e+00    0,000000000e+00    0,000000000e+00    0,000000000e+00
      702000000   -3,348490223e-02   -5,963346362e-02    6,079472303e-01   -7,918816060e-02    0,000000000e+00    0,000000000e+00    0,000000000e+00    0,000000000e+00
      716000000   -3,651412949e-02   -5,594717339e-02    4,592878520e-01   -3,891844749e-01    0,000000000e+00    0,000000000e+00    0,000000000e+00    0,000000000e+00
      730000000   -3,153521940e-02   -6,446801126e-02    1,735804379e-01   -5,666601658e-01    0,000000000e+00    0,000000000e+00    0,000000000e+00    0,000000000e+00
      744000000   -4,053569213e-02   -8,873883635e-02   -1,525590867e-01   -5,635026097e-01    0,000000000e+00    0,000000000e+00    0,000000000e+00    0,000000000e+00
      758000000   -7,191629708e-02   -1,052098721e-01   -4,276927114e-01   -3,942598701e-01    0,000000000e+00    0,000000000e+00    0,000000000e+00    0,000000000e+00
      772000000   -1,139373779e-01   -9,340912849e-02   -5,742931366e-01   -1,059521362e-01    0,000000000e+00    0,000000000e+00    0,000000000e+00    0,000000000e+00
      786000000   -1,393143386e-01   -5,610521138e-02   -5,452177525e-01    2,210469693e-01    0,000000000e+00    0,000000000e+00    0,000000000e+00    0,000000000e+00
      800000000   -1,330129355e-01   -1,521615591e-02   -3,418852091e-01    4,800740778e-01    0,000000000e+00    0,000000000e+00    0,000000000e+00    0,000000000e+00
      814000000   -1,079077199e-01    8,171263151e-03   -3,476488590e-02    5,865556598e-01    0,000000000e+00    0,000000000e+00    0,000000000e+00    0,000000000e+00
      828000000   -8,521301299e-02    1,380443573e-02    2,783174515e-01    5,148319006e-01    0,000000000e+00    0,000000000e+00    0,000000000e+00    0,000000000e+00
      842000000   -7,100423425e-02    1,546395663e-02    5,028104186e-01    2,895126939e-01    0,000000000e+00    0,000000000e+00    0,000000000e+00    0,000000000e+00
      856000000   -5,211001262e-02    1,953087561e-02    5,705323815e-01   -1,843828335e-02    0,000000000e+00    0,000000000e+00    0,000000000e+00    0,000000000e+00
      870000000   -2,288460732e-02    1,468601916e-02    4,624944627e-01   -3,061922789e-01    0,000000000e+00    0,000000000e+00    0,000000000e+00    0,000000000e+00
      884000000    5,404314026e-03   -1,459433325e-02    2,304680943e-01   -4,888569117e-01    0,000000000e+00    0,000000000e+00    0,000000000e+00    0,000000000e+00
      898000000    1,158756670e-02   -6,324364245e-02   -5,292838812e-02   -5,267964005e-01    0,000000000e+00    0,000000000e+00    0,000000000e+00    0,000000000e+00
      912000000   -2,346920408e-02   -1,085318476e-01   -3,687309027e-01   -4,037980437e-01    0,000000000e+00    0,000000000e+00    0,000000000e+00    0,000000000e+00
      926000000   -7,598520070e-02   -1,221934333e-01   -5,305518508e-01   -1,568356901e-01    0,000000000e+00    0,000000000e+00    0,000000000e+00    0,000000000e+00
      940000000   -1,208765358e-01   -1,029301509e-01   -5,513021946e-01    1,549419165e-01    0,000000000e+00    0,000000000e+00    0,000000000e+00    0,000000000e+00
      954000000   -1,431205422e-01   -6,303180754e-02   -3,924154937e-01    4,444108605e-01    0,000000000e+00    0,000000000e+00    0,000000000e+00    0,000000000e+00
      968000000   -1,305406243e-01   -2,973139100e-02   -9,141843766e-02    6,021381021e-01    0,000000000e+00    0,000000000e+00    0,000000000e+00    0,000000000e+00
      982000000   -1,127415746e-01   -1,385189500e-02    2,432858050e-01    5,706306100e-01    0,000000000e+00    0,000000000e+00    0,000000000e+00    0,000000000e+00
      996000000   -1,069842353e-01   -1,599790901e-02    5,127094388e-01    3,660940528e-01    0,000000000e+00    0,000000000e+00    0,000000000e+00    0,000000000e+00
     1010000000   -1,006880924e-01   -9,024605155e-03    6,297447085e-01    5,234210938e-02    0,000000000e+00    0,000000000e+00    0,000000000e+00    0,000000000e+00
     1024000000   -9,523447603e-02   -1,089919708e-03    5,625490546e-01   -2,724516690e-01    0,000000000e+00    0,000000000e+00    0,000000000e+00    0,000000000e+00
     1038000000   -7,581546903e-02   -3,295380389e-03    3,377503455e-01   -5,051878691e-01    0,000000000e+00    0,000000000e+00    0,000000000e+00    0,000000000e+00
     1052000000   -6,607859582e-02   -1,333013829e-02    3,556760773e-02   -5,851868391e-01    0,000000000e+00    0,000000000e+00    0,000000000e+00    0,000000000e+00
     1066000000   -6,673932821e-02   -3,076641075e-02   -2,724476755e-01   -5,006683469e-01    0,000000000e+00    0,000000000e+00    0,000000000e+00    0,000000000e+00
     1080000000   -8,133988082e-02   -3,538206220e-02   -4,798911512e-01   -2,696397305e-01    0,000000000e+00    0,000000000e+00    0,000000000e+00    0,000000000e+00
     1094000000   -8,273796737e-02   -1,390582696e-02   -5,310963392e-01    4,111032560e-02    0,000000000e+00    0,000000000e+00    0,000000000e+00    0,000000000e+00
     1108000000   -6,095367670e-02   -9,621266276e-03   -3,985906541e-01    3,245432079e-01    0,000000000e+00    0,000000000e+00    0,000000000e+00    0,000000000e+00
     1122000000   -2,896503732e-02   -3,377574310e-02   -1,369571388e-01    4,805009961e-01    0,000000000e+00    0,000000000e+00    0,000000000e+00    0,000000000e+00
     1136000000   -2,970445715e-02   -8,437525481e-02    1,643797904e-01    4,747882187e-01    0,000000000e+00    0,000000000e+00    0,000000000e+00    0,000000000e+00
     1150000000   -6,352376193e-02   -1,324607134e-01    4,179024696e-01    3,116123080e-01    0,000000000e+00    0,000000000e+00    0,000000000e+00    0,000000000e+00
     1164000000   -1,387568265e-01   -1,513283551e-01    5,616528988e-01    2,786405943e-02    0,000000000e+00    0,000000000e+00    0,000000000e+00    0,000000000e+00
     1178000000   -2,064827383e-01   -1,201194599e-01    5,311414003e-01   -3,145767152e-01    0,000000000e+00    0,000000000e+00    0,000000000e+00    0,000000000e+00
     1192000000   -2,462903410e-01   -3,980097547e-02    2,983810306e-01   -5,993881822e-01    0,000000000e+00    0,000000000e+00    0,000000000e+00    0,000000000e+00
     1206000000   -2,329491824e-01    3,168619424e-02   -6,704068184e-02   -6,960862279e-01    0,000000000e+00    0,000000000e+00    0,000000000e+00    0,000000000e+00
     1220000000   -1,820244640e-01    8,408566564e-02   -4,159210324e-01   -5,819352865e-01    0,000000000e+00    0,000000000e+00    0,000000000e+00    0,000000000e+00
     1234000000   -1,262616664e-01    1,051912308e-01   -6,429226398e-01   -2,922487557e-01    0,000000000e+00    0,000000000e+00    0,000000000e+00    0,000000000e+00
     1248000000   -7,143814862e-02    1,005167365e-01   -6,764073372e-01    6,335362047e-02    0,000000000e+00    0,000000000e+00    0,000000000e+00    0,000000000e+00
     1262000000   -1,149538625e-02    6,252051890e-02   -5,199244618e-01    3,705429137e-01    0,000000000e+00    0,000000000e+00    0,000000000e+00    0,000000000e+00
     1276000000    2,471896075e-02   -5,332868546e-03   -2,422797978e-01    5,407047868e-01    0,000000000e+00    0,000000000e+00    0,000000000e+00    0,000000000e+00
     1290000000    1,965643838e-02   -8,951217681e-02    6,833989918e-02    5,764697194e-01    0,000000000e+00    0,000000000e+00    0,000000000e+00    0,000000000e+00
     1304000000   -3,337375820e-02   -1,668209434e-01    3,653710485e-01    4,651054442e-01    0,000000000e+00    0,000000000e+00    0,000000000e+00    0,000000000e+00
     1318000000   -1,325178444e-01   -2,140270472e-01    5,853649378e-01    2,198088318e-01    0,000000000e+00    0,000000000e+00    0,000000000e+00    0,000000000e+00
     1332000000   -2,575895786e-01   -1,902286261e-01    6,478228569e-01   -1,276619434e-01    0,000000000e+00    0,000000000e+00    0,000000000e+00    0,000000000e+00
     1346000000   -3,303189278e-01   -8,912438899e-02    5,055408478e-01   -4,607032537e-01    0,000000000e+00    0,000000000e+00    0,000000000e+00    0,000000000e+00
     1360000000   -3,370363116e-01    2,673952095e-02    1,882582605e-01   -6,408790350e-01    0,000000000e+00    0,000000000e+00    0,000000000e+00    0,000000000e+00
     1374000000   -2,816609740e-01    1,040064469e-01   -1,542015225e-01   -5,956345201e-01    0,000000000e+00    0,000000000e+00    0,000000000e+00    0,000000000e+00
     1388000000   -2,118865252e-01    1,385906935e-01   -4,012365639e-01   -3,737067282e-01    0,000000000e+00    0,000000000e+00    0,000000000e+00    0,000000000e+00
     1402000000   -1,532510966e-01    1,397229135e-01   -4,841988683e-01   -6,310733408e-02    0,000000000e+00    0,000000000e+00    0,000000000e+00    0,000000000e+00
     1416000000   -9,123335779e-02    1,124503985e-01   -3,757385314e-01    2,456972152e-01    0,000000000e+00    0,000000000e+00    0,000000000e+00    0,000000000e+00
     1430000000   -5,530050397e-02    7,193636894e-02   -1,421718448e-01    4,446792006e-01    0,000000000e+00    0,000000000e+00    0,000000000e+00    0,000000000e+00
     1444000000   -3,456981853e-02   -3,193016746e-04    1,639863849e-01    5,306916237e-01    0,000000000e+00    0,000000000e+00    0,000000000e+00    0,000000000e+00
     1458000000   -6,282525510e-02   -6,932011247e-02    4,916690886e-01    4,827089012e-01    0,000000000e+00    0,000000000e+00    0,000000000e+00    0,000000000e+00
     1472000000   -1,374827474e-01   -1,198884919e-01    7,561126351e-01    2,603377700e-01    0,000000000e+00    0,000000000e+00    0,000000000e+00    0,000000000e+00
     1486000000   -2,295220494e-01   -1,144428402e-01    9,077203274e-01   -7,494765520e-02    0,000000000e+00    0,000000000e+00    0,000000000e+00    0,000000000e+00
     1500000000   -2,862269580e-01   -4,705103859e-02    8,091812730e-01   -4,386526346e-01    0,000000000e+00    0,000000000e+00    0,000000000e+00    0,000000000e+00
