! NanoVNA-App
! Date: 2025-09-25 15:07:50
! Start: 100MHz Stop: 1,5GHz Points: 101
! S-Parameter data: F S11 S21 S12 S22
# Hz S RI R 50
!     Frequency           S11_Real           S11_Imag           S21_Real           S21_Imag           S12_Real           S12_Imag           S22_Real           S22_Imag
      100000000    3,116320074e-02    2,865629271e-02    4,348357618e-01   -6,686112881e-01    0,000000000e+00    0,000000000e+00    0,000000000e+00    0,000000000e+00
      114000000    5,760971829e-02    5,508033093e-03    7,882031612e-03   -7,911071181e-01    0,000000000e+00    0,000000000e+00    0,000000000e+00    0,000000000e+00
      128000000    6,728184223e-02   -3,780419379e-02   -4,103891253e-01   -6,712180376e-01    0,000000000e+00    0,000000000e+00    0,000000000e+00    0,000000000e+00
      142000000    4,474190995e-02   -8,420534432e-02   -7,027745843e-01   -3,531184494e-01    0,000000000e+00    0,000000000e+00    0,000000000e+00    0,000000000e+00
      156000000   -5,566621199e-03   -1,068337560e-01   -7,870504260e-01    7,411938161e-02    0,000000000e+00    0,000000000e+00    0,000000000e+00    0,000000000e+00
      170000000   -5,758740380e-02   -9,062954038e-02   -6,276961565e-01    4,870859981e-01    0,000000000e+00    0,000000000e+00    0,000000000e+00    0,000000000e+00
      184000000   -8,369612694e-02   -4,948015884e-02   -2,648067176e-01    7,511872053e-01    0,000000000e+00    0,000000000e+00    0,000000000e+00    0,000000000e+00
      198000000   -7,965013385e-02   -1,048119180e-02    1,833222657e-01    7,732539773e-01    0,000000000e+00    0,000000000e+00    0,000000000e+00    0,000000000e+00
      212000000   -6,227102876e-02    1,314208563e-02    5,692785978e-01    5,488757491e-01    0,000000000e+00    0,000000000e+00    0,000000000e+00    0,000000000e+00
      226000000   -4,329351708e-02    2,764466032e-02    7,706369758e-01    1,545436680e-01    0,000000000e+00    0,000000000e+00    0,000000000e+00    0,000000000e+00
      240000000   -1,827864349e-02    3,854231536e-02    7,268320322e-01   -2,819059789e-01    0,000000000e+00    0,000000000e+00    0,000000000e+00    0,000000000e+00
      254000000    1,718436182e-02    3,518232331e-02    4,581376612e-01   -6,203883290e-01    0,000000000e+00    0,000000000e+00    0,000000000e+00    0,000000000e+00
      268000000    4,882631078e-02    5,582700949e-03    5,851322040e-02   -7,605248094e-01    0,000000000e+00    0,000000000e+00    0,000000000e+00    0,000000000e+00
      282000000    5,339656025e-02   -4,175613075e-02   -3,491503298e-01   -6,718511581e-01    0,000000000e+00    0,000000000e+00    0,000000000e+00    0,000000000e+00
      296000000    2,396102250e-02   -7,960864156e-02   -6,520493627e-01   -3,856067657e-01    0,000000000e+00    0,000000000e+00    0,000000000e+00    0,000000000e+00
      310000000   -1,774063893e-02   -8,307247609e-02   -7,623542547e-01    1,977842860e-02    0,000000000e+00    0,000000000e+00    0,000000000e+00    0,000000000e+00
      324000000   -4,157417268e-02   -5,888924375e-02   -6,320782900e-01    4,304672778e-01    0,000000000e+00    0,000000000e+00    0,000000000e+00    0,000000000e+00
      338000000   -3,434552625e-02   -3,691194579e-02   -2,948800623e-01    7,037650347e-01    0,000000000e+00    0,000000000e+00    0,000000000e+00    0,000000000e+00
      352000000   -1,737619936e-02   -4,083507881e-02    1,255832016e-01    7,415359616e-01    0,000000000e+00    0,000000000e+00    0,000000000e+00    0,000000000e+00
      366000000   -1,921361685e-02   -6,235490739e-02    4,979173839e-01    5,552875996e-01    0,000000000e+00    0,000000000e+00    0,000000000e+00    0,000000000e+00
      380000000   -4,412988946e-02   -7,266420871e-02    7,135187387e-01    1,999848336e-01    0,000000000e+00    0,000000000e+00    0,000000000e+00    0,000000000e+00
      394000000   -7,070417702e-02   -5,832649767e-02    7,036184072e-01   -2,171906978e-01    0,000000000e+00    0,000000000e+00    0,000000000e+00    0,000000000e+00
      408000000   -7,705642283e-02   -3,046794794e-02    4,703610539e-01   -5,598723292e-01    0,000000000e+00    0,000000000e+00    0,000000000e+00    0,000000000e+00
      422000000   -6,530821323e-02   -1,132594235e-02    9,370275587e-02   -7,181258202e-01    0,000000000e+00    0,000000000e+00    0,000000000e+00    0,000000000e+00
      436000000   -5,295162648e-02   -4,565000068e-03   -3,025874197e-01   -6,469902396e-01    0,000000000e+00    0,000000000e+00    0,000000000e+00    0,000000000e+00
      450000000   -4,478318244e-02    1,810680958e-03   -5,930373669e-01   -3,780746162e-01    0,000000000e+00    0,000000000e+00    0,000000000e+00    0,000000000e+00
      464000000   -2,903550304e-02    1,132097375e-02   -6,909536719e-01    3,020324766e-05    0,000000000e+00    0,000000000e+00    0,000000000e+00    0,000000000e+00
      478000000   -1,420362853e-03    1,108727232e-02   -5,731819272e-01    3,634849191e-01    0,000000000e+00    0,000000000e+00    0,000000000e+00    0,000000000e+00
      492000000    2,784783393e-02   -1,211286802e-02   -2,895003557e-01    6,020460725e-01    0,000000000e+00    0,000000000e+00    0,000000000e+00    0,000000000e+00
      506000000    3,638197109e-02   -5,564188585e-02    6,959303468e-02    6,591587067e-01    0,000000000e+00    0,000000000e+00    0,000000000e+00    0,000000000e+00
      520000000    1,253974251e-02   -9,828975797e-02    3,992561400e-01    5,254972577e-01    0,000000000e+00    0,000000000e+00    0,000000000e+00    0,000000000e+00
      534000000   -3,423250094e-02   -1,164043248e-01    6,240377426e-01    2,359925956e-01    0,000000000e+00    0,000000000e+00    0,000000000e+00    0,000000000e+00
      548000000   -7,734292001e-02   -9,901220351e-02    6,577596664e-01   -1,333720386e-01    0,000000000e+00    0,000000000e+00    0,000000000e+00    0,000000000e+00
      562000000   -9,290422499e-02   -6,615874916e-02    4,819472134e-01   -4,666434824e-01    0,000000000e+00    0,000000000e+00    0,000000000e+00    0,000000000e+00
      576000000   -8,606870472e-02   -4,425194114e-02    1,505355090e-01   -6,481447816e-01    0,000000000e+00    0,000000000e+00    0,000000000e+00    0,000000000e+00
      590000000   -8,078011125e-02   -4,163875058e-02   -2,214713544e-01   -6,268526912e-01    0,000000000e+00    0,000000000e+00    0,000000000e+00    0,000000000e+00
      604000000   -8,859551698e-02   -3,735276684e-02   -5,194392800e-01   -4,058561623e-01    0,000000000e+00    0,000000000e+00    0,000000000e+00    0,000000000e+00
      618000000   -9,670526534e-02   -1,557726506e-02   -6,532821655e-01   -5,860332772e-02    0,000000000e+00    0,000000000e+00    0,000000000e+00    0,000000000e+00
      632000000   -8,126496524e-02    1,560256910e-02   -5,757477880e-01    3,033718467e-01    0,000000000e+00    0,000000000e+00    0,000000000e+00    0,000000000e+00
      646000000   -4,324292019e-02    2,635428496e-02   -3,178305030e-01    5,554270148e-01    0,000000000e+00    0,000000000e+00    0,000000000e+00    0,000000000e+00
      660000000   -7,790430915e-03    5,679375958e-03    2,130407281e-02    6,301309466e-01    0,000000000e+00    0,000000000e+00    0,000000000e+00    0,000000000e+00
      674000000    1,488098642e-03   -3,052667156e-02    3,427571356e-01    5,187398195e-01    0,000000000e+00    0,000000000e+00    0,000000000e+00    0,000000000e+00
      688000000   -1,440232433e-02   -5,492252111e-02    5,586524606e-01    2,583814859e-01    0,000000000e+00    0,000000000e+00    0,000000000e+00    0,000000000e+00
      702000000   -3,423793986e-02   -5,920534208e-02    6,036342382e-01   -7,743573934e-02    0,000000000e+00    0,000000000e+00    0,000000000e+00    0,000000000e+00
      716000000   -3,765226901e-02   -5,607504398e-02    4,592817724e-01   -3,894620836e-01    0,000000000e+00    0,000000000e+00    0,000000000e+00    0,000000000e+00
      730000000   -3,218251094e-02   -6,434868276e-02    1,736251414e-01   -5,663005114e-01    0,000000000e+00    0,000000000e+00    0,000000000e+00    0,000000000e+00
      744000000   -4,074626043e-02   -8,817793429e-02   -1,530165672e-01   -5,635616183e-01    0,000000000e+00    0,000000000e+00    0,000000000e+00    0,000000000e+00
      758000000   -7,296501845e-02   -1,046082899e-01   -4,274302125e-01   -3,939589560e-01    0,000000000e+00    0,000000000e+00    0,000000000e+00    0,000000000e+00
      772000000   -1,139618382e-01   -9,322790056e-02   -5,744071007e-01   -1,059813052e-01    0,000000000e+00    0,000000000e+00    0,000000000e+00    0,000000000e+00
      786000000   -1,393834800e-01   -5,600473285e-02   -5,444145203e-01    2,212783396e-01    0,000000000e+00    0,000000000e+00    0,000000000e+00    0,000000000e+00
      800000000   -1,333355159e-01   -1,500159968e-02   -3,421539366e-01    4,794349372e-01    0,000000000e+00    0,000000000e+00    0,000000000e+00    0,000000000e+00
      814000000   -1,083022058e-01    8,074494079e-03   -3,416948020e-02    5,865067244e-01    0,000000000e+00    0,000000000e+00    0,000000000e+00    0,000000000e+00
      828000000   -8,569197357e-02    1,356639154e-02    2,789325416e-01    5,141847134e-01    0,000000000e+00    0,000000000e+00    0,000000000e+00    0,000000000e+00
      842000000   -7,091400772e-02    1,451830380e-02    5,024361610e-01    2,897802293e-01    0,000000000e+00    0,000000000e+00    0,000000000e+00    0,000000000e+00
      856000000   -5,246853083e-02    1,956987008e-02    5,700357556e-01   -1,781622507e-02    0,000000000e+00    0,000000000e+00    0,000000000e+00    0,000000000e+00
      870000000   -2,262960747e-02    1,410526875e-02    4,638209641e-01   -3,061677814e-01    0,000000000e+00    0,000000000e+00    0,000000000e+00    0,000000000e+00
      884000000    5,934282672e-03   -1,391869225e-02    2,304968685e-01   -4,886884391e-01    0,000000000e+00    0,000000000e+00    0,000000000e+00    0,000000000e+00
      898000000    1,111780386e-02   -6,353019178e-02   -5,353845283e-02   -5,266057253e-01    0,000000000e+00    0,000000000e+00    0,000000000e+00    0,000000000e+00
      912000000   -2,321982756e-02   -1,088538393e-01   -3,535048366e-01   -4,070000052e-01    0,000000000e+00    0,000000000e+00    0,000000000e+00    0,000000000e+00
      926000000   -7,422526926e-02   -1,245275885e-01   -5,287785530e-01   -1,570449173e-01    0,000000000e+00    0,000000000e+00    0,000000000e+00    0,000000000e+00
      940000000   -1,204706281e-01   -1,010933965e-01   -5,508681536e-01    1,570870280e-01    0,000000000e+00    0,000000000e+00    0,000000000e+00    0,000000000e+00
      954000000   -1,421219707e-01   -6,271831691e-02   -3,927751184e-01    4,445787966e-01    0,000000000e+00    0,000000000e+00    0,000000000e+00    0,000000000e+00
      968000000   -1,293110847e-01   -2,925239690e-02   -9,102726728e-02    6,029198170e-01    0,000000000e+00    0,000000000e+00    0,000000000e+00    0,000000000e+00
      982000000   -1,132897884e-01   -1,383522339e-02    2,461381853e-01    5,729844570e-01    0,000000000e+00    0,000000000e+00    0,000000000e+00    0,000000000e+00
      996000000   -1,078833863e-01   -1,198350359e-02    5,142670274e-01    3,665938377e-01    0,000000000e+00    0,000000000e+00    0,000000000e+00    0,000000000e+00
     1010000000   -9,955017269e-02   -7,825622335e-03    6,281595826e-01    5,328091606e-02    0,000000000e+00    0,000000000e+00    0,000000000e+00    0,000000000e+00
     1024000000   -9,088524431e-02    1,803184510e-03    5,616967678e-01   -2,701671422e-01    0,000000000e+00    0,000000000e+00    0,000000000e+00    0,000000000e+00
     1038000000   -7,510476559e-02   -4,101822153e-03    3,387378454e-01   -5,049073696e-01    0,000000000e+00    0,000000000e+00    0,000000000e+00    0,000000000e+00
     1052000000   -6,772495806e-02   -1,446702611e-02    3,434095532e-02   -5,837111473e-01    0,000000000e+00    0,000000000e+00    0,000000000e+00    0,000000000e+00
     1066000000   -7,068020850e-02   -3,264897317e-02   -2,658227980e-01   -4,999421835e-01    0,000000000e+00    0,000000000e+00    0,000000000e+00    0,000000000e+00
     1080000000   -8,063026518e-02   -3,366059065e-02   -4,807721376e-01   -2,711023390e-01    0,000000000e+00    0,000000000e+00    0,000000000e+00    0,000000000e+00
     1094000000   -8,256437629e-02   -1,644365303e-02   -5,318702459e-01    4,266592488e-02    0,000000000e+00    0,000000000e+00    0,000000000e+00    0,000000000e+00
     1108000000   -6,080401316e-02   -1,093798410e-02   -3,983665705e-01    3,254977465e-01    0,000000000e+00    0,000000000e+00    0,000000000e+00    0,000000000e+00
     1122000000   -2,829953097e-02   -3,380282968e-02   -1,365256011e-01    4,807152748e-01    0,000000000e+00    0,000000000e+00    0,000000000e+00    0,000000000e+00
     1136000000   -2,997596562e-02   -8,147711307e-02    1,632301807e-01    4,757760465e-01    0,000000000e+00    0,000000000e+00    0,000000000e+00    0,000000000e+00
     1150000000   -6,315438449e-02   -1,357791275e-01    4,199331403e-01    3,119050264e-01    0,000000000e+00    0,000000000e+00    0,000000000e+00    0,000000000e+00
     1164000000   -1,366045773e-01   -1,493982673e-01    5,612360239e-01    2,556472830e-02    0,000000000e+00    0,000000000e+00    0,000000000e+00    0,000000000e+00
     1178000000   -2,086780667e-01   -1,188737601e-01    5,291012526e-01   -3,174745142e-01    0,000000000e+00    0,000000000e+00    0,000000000e+00    0,000000000e+00
     1192000000   -2,517066002e-01   -4,396657273e-02    2,988748252e-01   -5,984389186e-01    0,000000000e+00    0,000000000e+00    0,000000000e+00    0,000000000e+00
     1206000000   -2,340620607e-01    3,080857918e-02   -6,655238569e-02   -6,972637773e-01    0,000000000e+00    0,000000000e+00    0,000000000e+00    0,000000000e+00
     1220000000   -1,862335503e-01    8,762463927e-02   -4,215383232e-01   -5,781124830e-01    0,000000000e+00    0,000000000e+00    0,000000000e+00    0,000000000e+00
     1234000000   -1,279044747e-01    1,057228446e-01   -6,416912675e-01   -2,896818817e-01    0,000000000e+00    0,000000000e+00    0,000000000e+00    0,000000000e+00
     1248000000   -6,797410548e-02    1,001501381e-01   -6,803886890e-01    6,439272314e-02    0,000000000e+00    0,000000000e+00    0,000000000e+00    0,000000000e+00
     1262000000   -8,019516245e-03    6,234433129e-02   -5,201605558e-01    3,681586981e-01    0,000000000e+00    0,000000000e+00    0,000000000e+00    0,000000000e+00
     1276000000    2,256660350e-02   -5,630316213e-03   -2,504999936e-01    5,430205464e-01    0,000000000e+00    0,000000000e+00    0,000000000e+00    0,000000000e+00
     1290000000    1,965598390e-02   -8,384458721e-02    6,946504116e-02    5,764830112e-01    0,000000000e+00    0,000000000e+00    0,000000000e+00    0,000000000e+00
     1304000000   -3,448395804e-02   -1,702136844e-01    3,620457351e-01    4,660753310e-01    0,000000000e+00    0,000000000e+00    0,000000000e+00    0,000000000e+00
     1318000000   -1,352816820e-01   -2,153680176e-01    5,876806974e-01    2,191885561e-01    0,000000000e+00    0,000000000e+00    0,000000000e+00    0,000000000e+00
     1332000000   -2,503112853e-01   -1,848661602e-01    6,555290222e-01   -1,261939108e-01    0,000000000e+00    0,000000000e+00    0,000000000e+00    0,000000000e+00
     1346000000   -3,258441389e-01   -8,953565359e-02    5,111404061e-01   -4,582025111e-01    0,000000000e+00    0,000000000e+00    0,000000000e+00    0,000000000e+00
     1360000000   -3,334340453e-01    2,150642127e-02    1,834959537e-01   -6,485975981e-01    0,000000000e+00    0,000000000e+00    0,000000000e+00    0,000000000e+00
     1374000000   -2,777385712e-01    1,017268077e-01   -1,518120617e-01   -6,100502610e-01    0,000000000e+00    0,000000000e+00    0,000000000e+00    0,000000000e+00
     1388000000   -2,128980458e-01    1,393187344e-01   -4,079029560e-01   -3,791871965e-01    0,000000000e+00    0,000000000e+00    0,000000000e+00    0,000000000e+00
     1402000000   -1,443542391e-01    1,407392621e-01   -4,789295197e-01   -5,752473325e-02    0,000000000e+00    0,000000000e+00    0,000000000e+00    0,000000000e+00
     1416000000   -9,872975945e-02    1,133007109e-01   -3,852514923e-01    2,459023744e-01    0,000000000e+00    0,000000000e+00    0,000000000e+00    0,000000000e+00
     1430000000   -5,314707384e-02    7,279749215e-02   -1,431612968e-01    4,886953533e-01    0,000000000e+00    0,000000000e+00    0,000000000e+00    0,000000000e+00
     1444000000   -4,399443790e-02    5,082623102e-03    1,688937396e-01    5,303329825e-01    0,000000000e+00    0,000000000e+00    0,000000000e+00    0,000000000e+00
     1458000000   -6,716907769e-02   -7,381320745e-02    4,786121547e-01    4,783590436e-01    0,000000000e+00    0,000000000e+00    0,000000000e+00    0,000000000e+00
     1472000000   -1,350095570e-01   -1,165173277e-01    7,556065917e-01    2,574159503e-01    0,000000000e+00    0,000000000e+00    0,000000000e+00    0,000000000e+00
     1486000000   -2,296366543e-01   -1,193195954e-01    8,762544990e-01   -9,956657887e-02    0,000000000e+00    0,000000000e+00    0,000000000e+00    0,000000000e+00
     1500000000   -2,844471037e-01   -5,321425200e-02    8,111408949e-01   -4,578721821e-01    0,000000000e+00    0,000000000e+00    0,000000000e+00    0,000000000e+00
