! NanoVNA-App
! Date: 2025-09-25 15:11:41
! Start: 100MHz Stop: 1,5GHz Points: 101
! S-Parameter data: F S11 S21 S12 S22
# Hz S RI R 50
!     Frequency           S11_Real           S11_Imag           S21_Real           S21_Imag           S12_Real           S12_Imag           S22_Real           S22_Imag
      100000000    3,115226887e-02    2,864238992e-02    4,348753393e-01   -6,685919166e-01    0,000000000e+00    0,000000000e+00    0,000000000e+00    0,000000000e+00
      114000000    5,756754056e-02    5,516151898e-03    7,789799012e-03   -7,910196781e-01    0,000000000e+00    0,000000000e+00    0,000000000e+00    0,000000000e+00
      128000000    6,725688279e-02   -3,779985011e-02   -4,104647636e-01   -6,711858511e-01    0,000000000e+00    0,000000000e+00    0,000000000e+00    0,000000000e+00
      142000000    4,470506310e-02   -8,416915685e-02   -7,031651139e-01   -3,534490466e-01    0,000000000e+00    0,000000000e+00    0,000000000e+00    0,000000000e+00
      156000000   -6,211466622e-03   -1,062872037e-01   -7,856066823e-01    7,334421575e-02    0,000000000e+00    0,000000000e+00    0,000000000e+00    0,000000000e+00
      170000000   -5,772963911e-02   -9,061775357e-02   -6,274730563e-01    4,872201979e-01    0,000000000e+00    0,000000000e+00    0,000000000e+00    0,000000000e+00
      184000000   -8,371276408e-02   -4,942897335e-02   -2,649006546e-01    7,509745955e-01    0,000000000e+00    0,000000000e+00    0,000000000e+00    0,000000000e+00
      198000000   -7,962980866e-02   -1,046209596e-02    1,834827065e-01    7,731717229e-01    0,000000000e+00    0,000000000e+00    0,000000000e+00    0,000000000e+00
      212000000   -6,225071102e-02    1,316391304e-02    5,691789985e-01    5,491226315e-01    0,000000000e+00    0,000000000e+00    0,000000000e+00    0,000000000e+00
      226000000   -4,321454838e-02    2,770899050e-02    7,707269788e-01    1,545275152e-01    0,000000000e+00    0,000000000e+00    0,000000000e+00    0,000000000e+00
      240000000   -1,822433993e-02    3,854405135e-02    7,268209457e-01   -2,819132805e-01    0,000000000e+00    0,000000000e+00    0,000000000e+00    0,000000000e+00
      254000000    1,718159765e-02    3,520724922e-02    4,578619003e-01   -6,200323701e-01    0,000000000e+00    0,000000000e+00    0,000000000e+00    0,000000000e+00
      268000000    4,884205386e-02    5,627241451e-03    5,877981707e-02   -7,604122758e-01    0,000000000e+00    0,000000000e+00    0,000000000e+00    0,000000000e+00
      282000000    5,354279652e-02   -4,177258536e-02   -3,493655026e-01   -6,715996861e-01    0,000000000e+00    0,000000000e+00    0,000000000e+00    0,000000000e+00
      296000000    2,406637184e-02   -7,945276797e-02   -6,515299678e-01   -3,856234550e-01    0,000000000e+00    0,000000000e+00    0,000000000e+00    0,000000000e+00
      310000000   -1,770343818e-02   -8,313537389e-02   -7,638540268e-01    1,987371780e-02    0,000000000e+00    0,000000000e+00    0,000000000e+00    0,000000000e+00
      324000000   -4,147574678e-02   -5,877655372e-02   -6,315717697e-01    4,307846725e-01    0,000000000e+00    0,000000000e+00    0,000000000e+00    0,000000000e+00
      338000000   -3,439465165e-02   -3,710163012e-02   -2,983208001e-01    7,013335228e-01    0,000000000e+00    0,000000000e+00    0,000000000e+00    0,000000000e+00
      352000000   -1,732848212e-02   -4,073786736e-02    1,257200986e-01    7,419764400e-01    0,000000000e+00    0,000000000e+00    0,000000000e+00    0,000000000e+00
      366000000   -1,922059059e-02   -6,190704182e-02    4,978316426e-01    5,546014309e-01    0,000000000e+00    0,000000000e+00    0,000000000e+00    0,000000000e+00
      380000000   -4,441900924e-02   -7,279195637e-02    7,132682204e-01    1,994664222e-01    0,000000000e+00    0,000000000e+00    0,000000000e+00    0,000000000e+00
      394000000   -7,091489434e-02   -5,815553665e-02    7,044875026e-01   -2,161756009e-01    0,000000000e+00    0,000000000e+00    0,000000000e+00    0,000000000e+00
      408000000   -7,722613961e-02   -3,020677716e-02    4,707098901e-01   -5,598712564e-01    0,000000000e+00    0,000000000e+00    0,000000000e+00    0,000000000e+00
      422000000   -6,567282975e-02   -1,129354071e-02    9,371601790e-02   -7,178635001e-01    0,000000000e+00    0,000000000e+00    0,000000000e+00    0,000000000e+00
      436000000   -5,253976956e-02   -4,396900535e-03   -3,017249703e-01   -6,476013660e-01    0,000000000e+00    0,000000000e+00    0,000000000e+00    0,000000000e+00
      450000000   -4,452528059e-02    1,347723999e-03   -5,937305689e-01   -3,785662949e-01    0,000000000e+00    0,000000000e+00    0,000000000e+00    0,000000000e+00
      464000000   -2,956371568e-02    1,148302201e-02   -6,914899945e-01    1,589486346e-04    0,000000000e+00    0,000000000e+00    0,000000000e+00    0,000000000e+00
      478000000   -1,478192280e-03    1,123480685e-02   -5,733817220e-01    3,633223176e-01    0,000000000e+00    0,000000000e+00    0,000000000e+00    0,000000000e+00
      492000000    2,781331353e-02   -1,226316299e-02   -2,894888520e-01    6,021935940e-01    0,000000000e+00    0,000000000e+00    0,000000000e+00    0,000000000e+00
      506000000    3,609344736e-02   -5,581513792e-02    6,930168718e-02    6,585391164e-01    0,000000000e+00    0,000000000e+00    0,000000000e+00    0,000000000e+00
      520000000    1,217119209e-02   -9,916114062e-02    4,043582976e-01    5,223203301e-01    0,000000000e+00    0,000000000e+00    0,000000000e+00    0,000000000e+00
      534000000   -3,425902873e-02   -1,159263477e-01    6,245252490e-01    2,367403060e-01    0,000000000e+00    0,000000000e+00    0,000000000e+00    0,000000000e+00
      548000000   -7,763569057e-02   -9,945609421e-02    6,578181982e-01   -1,333200037e-01    0,000000000e+00    0,000000000e+00    0,000000000e+00    0,000000000e+00
      562000000   -9,314655513e-02   -6,600181013e-02    4,821662307e-01   -4,663932920e-01    0,000000000e+00    0,000000000e+00    0,000000000e+00    0,000000000e+00
      576000000   -8,612655848e-02   -4,420788586e-02    1,504222304e-01   -6,476920843e-01    0,000000000e+00    0,000000000e+00    0,000000000e+00    0,000000000e+00
      590000000   -8,091973513e-02   -4,176345840e-02   -2,190014869e-01   -6,262416244e-01    0,000000000e+00    0,000000000e+00    0,000000000e+00    0,000000000e+00
      604000000   -8,906327933e-02   -3,694713116e-02   -5,200020075e-01   -4,063934088e-01    0,000000000e+00    0,000000000e+00    0,000000000e+00    0,000000000e+00
      618000000   -9,597638249e-02   -1,494310331e-02   -6,529005766e-01   -5,851235986e-02    0,000000000e+00    0,000000000e+00    0,000000000e+00    0,000000000e+00
      632000000   -8,114515990e-02    1,486831624e-02   -5,753344893e-01    3,022777140e-01    0,000000000e+00    0,000000000e+00    0,000000000e+00    0,000000000e+00
      646000000   -4,244108498e-02    2,597694285e-02   -3,187304139e-01    5,562412739e-01    0,000000000e+00    0,000000000e+00    0,000000000e+00    0,000000000e+00
      660000000   -8,121599443e-03    6,079002284e-03    2,040459029e-02    6,298576593e-01    0,000000000e+00    0,000000000e+00    0,000000000e+00    0,000000000e+00
      674000000    1,625383738e-03   -3,025769442e-02    3,421359956e-01    5,187464356e-01    0,000000000e+00    0,000000000e+00    0,000000000e+00    0,000000000e+00
      688000000   -1,531552337e-02   -5,582337081e-02    5,586263537e-01    2,586339414e-01    0,000000000e+00    0,000000000e+00    0,000000000e+00    0,000000000e+00
      702000000   -3,378387541e-02   -5,964547396e-02    6,031357050e-01   -7,978554815e-02    0,000000000e+00    0,000000000e+00    0,000000000e+00    0,000000000e+00
      716000000   -3,755890578e-02   -5,553292111e-02    4,599209726e-01   -3,889555335e-01    0,000000000e+00    0,000000000e+00    0,000000000e+00    0,000000000e+00
      730000000   -3,247763962e-02   -6,556409597e-02    1,738274246e-01   -5,665066838e-01    0,000000000e+00    0,000000000e+00    0,000000000e+00    0,000000000e+00
      744000000   -3,969805315e-02   -8,784066886e-02   -1,531068832e-01   -5,637605190e-01    0,000000000e+00    0,000000000e+00    0,000000000e+00    0,000000000e+00
      758000000   -7,272522151e-02   -1,042366177e-01   -4,267866910e-01   -3,950408697e-01    0,000000000e+00    0,000000000e+00    0,000000000e+00    0,000000000e+00
      772000000   -1,145091876e-01   -9,405886382e-02   -5,744360089e-01   -1,062154844e-01    0,000000000e+00    0,000000000e+00    0,000000000e+00    0,000000000e+00
      786000000   -1,390044987e-01   -5,545892566e-02   -5,450308919e-01    2,206831276e-01    0,000000000e+00    0,000000000e+00    0,000000000e+00    0,000000000e+00
      800000000   -1,337248683e-01   -1,465598773e-02   -3,425990641e-01    4,798512459e-01    0,000000000e+00    0,000000000e+00    0,000000000e+00    0,000000000e+00
      814000000   -1,078412384e-01    8,647774346e-03   -3,562312573e-02    5,852623582e-01    0,000000000e+00    0,000000000e+00    0,000000000e+00    0,000000000e+00
      828000000   -8,566349745e-02    1,307895221e-02    2,787135541e-01    5,155679584e-01    0,000000000e+00    0,000000000e+00    0,000000000e+00    0,000000000e+00
      842000000   -7,020585239e-02    1,497810893e-02    5,026267171e-01    2,899534702e-01    0,000000000e+00    0,000000000e+00    0,000000000e+00    0,000000000e+00
      856000000   -5,275127664e-02    1,965536177e-02    5,708662271e-01   -1,776802167e-02    0,000000000e+00    0,000000000e+00    0,000000000e+00    0,000000000e+00
      870000000   -2,257360704e-02    1,493239123e-02    4,640412331e-01   -3,067236543e-01    0,000000000e+00    0,000000000e+00    0,000000000e+00    0,000000000e+00
      884000000    6,595894229e-03   -1,467674412e-02    2,303401381e-01   -4,888346493e-01    0,000000000e+00    0,000000000e+00    0,000000000e+00    0,000000000e+00
      898000000    1,148633007e-02   -6,368815899e-02   -5,283745751e-02   -5,264283419e-01    0,000000000e+00    0,000000000e+00    0,000000000e+00    0,000000000e+00
      912000000   -2,374831773e-02   -1,084720194e-01   -3,690885007e-01   -4,017906487e-01    0,000000000e+00    0,000000000e+00    0,000000000e+00    0,000000000e+00
      926000000   -7,455855608e-02   -1,226768494e-01   -5,306357145e-01   -1,573473364e-01    0,000000000e+00    0,000000000e+00    0,000000000e+00    0,000000000e+00
      940000000   -1,245959178e-01   -1,007569879e-01   -5,519379973e-01    1,577982455e-01    0,000000000e+00    0,000000000e+00    0,000000000e+00    0,000000000e+00
      954000000   -1,406864673e-01   -6,206909940e-02   -3,913860619e-01    4,458997548e-01    0,000000000e+00    0,000000000e+00    0,000000000e+00    0,000000000e+00
      968000000   -1,346444637e-01   -2,665987425e-02   -9,488996118e-02    6,018884778e-01    0,000000000e+00    0,000000000e+00    0,000000000e+00    0,000000000e+00
      982000000   -1,134798303e-01   -1,325912494e-02    2,468702942e-01    5,722307563e-01    0,000000000e+00    0,000000000e+00    0,000000000e+00    0,000000000e+00
      996000000   -1,048159301e-01   -1,587734930e-02    5,119884014e-01    3,660245240e-01    0,000000000e+00    0,000000000e+00    0,000000000e+00    0,000000000e+00
     1010000000   -9,959802777e-02   -7,309217472e-03    6,302502751e-01    5,168363824e-02    0,000000000e+00    0,000000000e+00    0,000000000e+00    0,000000000e+00
     1024000000   -9,460980445e-02   -2,685946645e-03    5,617437363e-01   -2,709822357e-01    0,000000000e+00    0,000000000e+00    0,000000000e+00    0,000000000e+00
     1038000000   -7,438204437e-02   -4,385559354e-03    3,391693234e-01   -5,036267638e-01    0,000000000e+00    0,000000000e+00    0,000000000e+00    0,000000000e+00
     1052000000   -6,184602529e-02   -1,574465074e-02    3,523994982e-02   -5,854318738e-01    0,000000000e+00    0,000000000e+00    0,000000000e+00    0,000000000e+00
     1066000000   -7,074248046e-02   -3,328912705e-02   -2,676514685e-01   -5,004563928e-01    0,000000000e+00    0,000000000e+00    0,000000000e+00    0,000000000e+00
     1080000000   -7,870871574e-02   -3,267676011e-02   -4,795039892e-01   -2,714357376e-01    0,000000000e+00    0,000000000e+00    0,000000000e+00    0,000000000e+00
     1094000000   -7,826209068e-02   -1,578468457e-02   -5,325650573e-01    4,118562862e-02    0,000000000e+00    0,000000000e+00    0,000000000e+00    0,000000000e+00
     1108000000   -5,793999135e-02   -1,029496826e-02   -3,987156153e-01    3,252529502e-01    0,000000000e+00    0,000000000e+00    0,000000000e+00    0,000000000e+00
     1122000000   -2,899438702e-02   -3,707490489e-02   -1,378650218e-01    4,825182855e-01    0,000000000e+00    0,000000000e+00    0,000000000e+00    0,000000000e+00
     1136000000   -3,105452657e-02   -8,489863575e-02    1,628431678e-01    4,718713164e-01    0,000000000e+00    0,000000000e+00    0,000000000e+00    0,000000000e+00
     1150000000   -6,303390115e-02   -1,337812841e-01    4,211703241e-01    3,107241094e-01    0,000000000e+00    0,000000000e+00    0,000000000e+00    0,000000000e+00
     1164000000   -1,384858042e-01   -1,502288133e-01    5,653148890e-01    2,598518133e-02    0,000000000e+00    0,000000000e+00    0,000000000e+00    0,000000000e+00
     1178000000   -2,099881321e-01   -1,203217432e-01    5,299392343e-01   -3,153641820e-01    0,000000000e+00    0,000000000e+00    0,000000000e+00    0,000000000e+00
     1192000000   -2,442199439e-01   -4,370357469e-02    2,936072946e-01   -5,939064622e-01    0,000000000e+00    0,000000000e+00    0,000000000e+00    0,000000000e+00
     1206000000   -2,318858057e-01    3,416141123e-02   -6,606563926e-02   -6,966344118e-01    0,000000000e+00    0,000000000e+00    0,000000000e+00    0,000000000e+00
     1220000000   -1,871882379e-01    8,517380804e-02   -4,209514558e-01   -5,786147714e-01    0,000000000e+00    0,000000000e+00    0,000000000e+00    0,000000000e+00
     1234000000   -1,302537620e-01    1,041515693e-01   -6,467728615e-01   -2,929317057e-01    0,000000000e+00    0,000000000e+00    0,000000000e+00    0,000000000e+00
     1248000000   -6,747619063e-02    1,025736108e-01   -6,801846027e-01    6,785575300e-02    0,000000000e+00    0,000000000e+00    0,000000000e+00    0,000000000e+00
     1262000000   -9,048284031e-03    6,008037552e-02   -5,181009173e-01    3,696232736e-01    0,000000000e+00    0,000000000e+00    0,000000000e+00    0,000000000e+00
     1276000000    2,031418867e-02   -3,602985991e-03   -2,467954457e-01    5,457503796e-01    0,000000000e+00    0,000000000e+00    0,000000000e+00    0,000000000e+00
     1290000000    2,142261527e-02   -8,697495610e-02    7,077890635e-02    5,788776875e-01    0,000000000e+00    0,000000000e+00    0,000000000e+00    0,000000000e+00
     1304000000   -3,659442067e-02   -1,717730463e-01    3,641246855e-01    4,704337120e-01    0,000000000e+00    0,000000000e+00    0,000000000e+00    0,000000000e+00
     1318000000   -1,294189990e-01   -2,128262222e-01    5,893607736e-01    2,213279307e-01    0,000000000e+00    0,000000000e+00    0,000000000e+00    0,000000000e+00
     1332000000   -2,513548434e-01   -1,940638125e-01    6,555981636e-01   -1,305528134e-01    0,000000000e+00    0,000000000e+00    0,000000000e+00    0,000000000e+00
     1346000000   -3,317303360e-01   -9,305888414e-02    5,046023130e-01   -4,601327479e-01    0,000000000e+00    0,000000000e+00    0,000000000e+00    0,000000000e+00
     1360000000   -3,331445158e-01    2,321736515e-02    1,869457066e-01   -6,498649716e-01    0,000000000e+00    0,000000000e+00    0,000000000e+00    0,000000000e+00
     1374000000   -2,825985253e-01    9,859570116e-02   -1,586281657e-01   -6,100937128e-01    0,000000000e+00    0,000000000e+00    0,000000000e+00    0,000000000e+00
     1388000000   -2,146244049e-01    1,391616911e-01   -4,057774246e-01   -3,792441487e-01    0,000000000e+00    0,000000000e+00    0,000000000e+00    0,000000000e+00
     1402000000   -1,513914913e-01    1,383041888e-01   -4,862862229e-01   -6,178927422e-02    0,000000000e+00    0,000000000e+00    0,000000000e+00    0,000000000e+00
     1416000000   -9,772162884e-02    1,181267872e-01   -3,865352273e-01    2,486493737e-01    0,000000000e+00    0,000000000e+00    0,000000000e+00    0,000000000e+00
     1430000000   -4,767498001e-02    7,200521231e-02   -1,203432754e-01    4,565038681e-01    0,000000000e+00    0,000000000e+00    0,000000000e+00    0,000000000e+00
     1444000000   -3,370726854e-02    7,100325543e-03    1,724007875e-01    5,463552475e-01    0,000000000e+00    0,000000000e+00    0,000000000e+00    0,000000000e+00
     1458000000   -6,560875475e-02   -7,181763649e-02    4,846482575e-01    4,649831653e-01    0,000000000e+00    0,000000000e+00    0,000000000e+00    0,000000000e+00
     1472000000   -1,380403638e-01   -1,197231114e-01    7,553295493e-01    2,626557052e-01    0,000000000e+00    0,000000000e+00    0,000000000e+00    0,000000000e+00
     1486000000   -2,254398465e-01   -1,143628880e-01    8,979262114e-01   -8,466977626e-02    0,000000000e+00    0,000000000e+00    0,000000000e+00    0,000000000e+00
     1500000000   -2,908611000e-01   -5,104796216e-02    8,112513423e-01   -4,677532315e-01    0,000000000e+00    0,000000000e+00    0,000000000e+00    0,000000000e+00
