! NanoVNA-App
! Date: 2025-09-25 15:10:09
! Start: 100MHz Stop: 1,5GHz Points: 101
! S-Parameter data: F S11 S21 S12 S22
# Hz S RI R 50
!     Frequency           S11_Real           S11_Imag           S21_Real           S21_Imag           S12_Real           S12_Imag           S22_Real           S22_Imag
      100000000    3,115207143e-02    2,863691375e-02    4,348863065e-01   -6,685650349e-01    0,000000000e+00    0,000000000e+00    0,000000000e+00    0,000000000e+00
      114000000    5,756859481e-02    5,514803343e-03    7,752328645e-03   -7,910273075e-01    0,000000000e+00    0,000000000e+00    0,000000000e+00    0,000000000e+00
      128000000    6,728494167e-02   -3,781430423e-02   -4,101783335e-01   -6,709082127e-01    0,000000000e+00    0,000000000e+00    0,000000000e+00    0,000000000e+00
      142000000    4,468672723e-02   -8,423423022e-02   -7,028204203e-01   -3,533220887e-01    0,000000000e+00    0,000000000e+00    0,000000000e+00    0,000000000e+00
      156000000   -5,720722955e-03   -1,061576679e-01   -7,865939736e-01    7,266698033e-02    0,000000000e+00    0,000000000e+00    0,000000000e+00    0,000000000e+00
      170000000   -5,773642659e-02   -9,058508277e-02   -6,277683973e-01    4,868481457e-01    0,000000000e+00    0,000000000e+00    0,000000000e+00    0,000000000e+00
      184000000   -8,367284387e-02   -4,948316887e-02   -2,650012672e-01    7,508416176e-01    0,000000000e+00    0,000000000e+00    0,000000000e+00    0,000000000e+00
      198000000   -7,964175195e-02   -1,047166716e-02    1,833053082e-01    7,728429437e-01    0,000000000e+00    0,000000000e+00    0,000000000e+00    0,000000000e+00
      212000000   -6,225988269e-02    1,315542310e-02    5,694506168e-01    5,493283272e-01    0,000000000e+00    0,000000000e+00    0,000000000e+00    0,000000000e+00
      226000000   -4,323730618e-02    2,767538652e-02    7,705510259e-01    1,545599550e-01    0,000000000e+00    0,000000000e+00    0,000000000e+00    0,000000000e+00
      240000000   -1,822495461e-02    3,849676624e-02    7,270270586e-01   -2,817706168e-01    0,000000000e+00    0,000000000e+00    0,000000000e+00    0,000000000e+00
      254000000    1,720538363e-02    3,522378951e-02    4,580189586e-01   -6,200857759e-01    0,000000000e+00    0,000000000e+00    0,000000000e+00    0,000000000e+00
      268000000    4,877108335e-02    5,634061527e-03    5,904413015e-02   -7,599787116e-01    0,000000000e+00    0,000000000e+00    0,000000000e+00    0,000000000e+00
      282000000    5,354264006e-02   -4,181950167e-02   -3,494259417e-01   -6,720172167e-01    0,000000000e+00    0,000000000e+00    0,000000000e+00    0,000000000e+00
      296000000    2,402275801e-02   -7,963639498e-02   -6,516065001e-01   -3,850865960e-01    0,000000000e+00    0,000000000e+00    0,000000000e+00    0,000000000e+00
      310000000   -1,775110886e-02   -8,311088383e-02   -7,640339732e-01    1,995866559e-02    0,000000000e+00    0,000000000e+00    0,000000000e+00    0,000000000e+00
      324000000   -4,171440378e-02   -5,896764994e-02   -6,310060620e-01    4,304883182e-01    0,000000000e+00    0,000000000e+00    0,000000000e+00    0,000000000e+00
      338000000   -3,454567119e-02   -3,672119975e-02   -2,955250442e-01    6,986259818e-01    0,000000000e+00    0,000000000e+00    0,000000000e+00    0,000000000e+00
      352000000   -1,723084226e-02   -4,099132493e-02    1,253209412e-01    7,420809269e-01    0,000000000e+00    0,000000000e+00    0,000000000e+00    0,000000000e+00
      366000000   -1,924044639e-02   -6,191027537e-02    4,982850850e-01    5,553250909e-01    0,000000000e+00    0,000000000e+00    0,000000000e+00    0,000000000e+00
      380000000   -4,445267096e-02   -7,281424105e-02    7,133126259e-01    1,994297355e-01    0,000000000e+00    0,000000000e+00    0,000000000e+00    0,000000000e+00
      394000000   -7,069298625e-02   -5,779425800e-02    7,040060163e-01   -2,162115127e-01    0,000000000e+00    0,000000000e+00    0,000000000e+00    0,000000000e+00
      408000000   -7,697664201e-02   -3,025529161e-02    4,698944390e-01   -5,593596101e-01    0,000000000e+00    0,000000000e+00    0,000000000e+00    0,000000000e+00
      422000000   -6,532251835e-02   -1,105861645e-02    9,370371699e-02   -7,185436487e-01    0,000000000e+00    0,000000000e+00    0,000000000e+00    0,000000000e+00
      436000000   -5,274556950e-02   -4,616548307e-03   -3,020207584e-01   -6,469298601e-01    0,000000000e+00    0,000000000e+00    0,000000000e+00    0,000000000e+00
      450000000   -4,473952577e-02    1,382712275e-03   -5,935717821e-01   -3,788444996e-01    0,000000000e+00    0,000000000e+00    0,000000000e+00    0,000000000e+00
      464000000   -2,968765609e-02    1,142732892e-02   -6,914327145e-01    5,871821031e-06    0,000000000e+00    0,000000000e+00    0,000000000e+00    0,000000000e+00
      478000000   -1,562014571e-03    1,130011491e-02   -5,738196969e-01    3,633431196e-01    0,000000000e+00    0,000000000e+00    0,000000000e+00    0,000000000e+00
      492000000    2,771963552e-02   -1,258044131e-02   -2,890155315e-01    6,022744179e-01    0,000000000e+00    0,000000000e+00    0,000000000e+00    0,000000000e+00
      506000000    3,657084331e-02   -5,592012033e-02    6,848856062e-02    6,581801772e-01    0,000000000e+00    0,000000000e+00    0,000000000e+00    0,000000000e+00
      520000000    1,224611234e-02   -9,903777391e-02    4,069177806e-01    5,224814415e-01    0,000000000e+00    0,000000000e+00    0,000000000e+00    0,000000000e+00
      534000000   -3,429825231e-02   -1,163766012e-01    6,236549616e-01    2,362845242e-01    0,000000000e+00    0,000000000e+00    0,000000000e+00    0,000000000e+00
      548000000   -7,737365365e-02   -9,951345623e-02    6,575031281e-01   -1,337282360e-01    0,000000000e+00    0,000000000e+00    0,000000000e+00    0,000000000e+00
      562000000   -9,366437793e-02   -6,605666876e-02    4,823130965e-01   -4,664754868e-01    0,000000000e+00    0,000000000e+00    0,000000000e+00    0,000000000e+00
      576000000   -8,596552163e-02   -4,462672770e-02    1,508074105e-01   -6,484003067e-01    0,000000000e+00    0,000000000e+00    0,000000000e+00    0,000000000e+00
      590000000   -8,096018434e-02   -4,161996394e-02   -2,189019471e-01   -6,257414222e-01    0,000000000e+00    0,000000000e+00    0,000000000e+00    0,000000000e+00
      604000000   -8,875872195e-02   -3,752345592e-02   -5,202085376e-01   -4,063716531e-01    0,000000000e+00    0,000000000e+00    0,000000000e+00    0,000000000e+00
      618000000   -9,639801085e-02   -1,537144464e-02   -6,531336904e-01   -5,918840319e-02    0,000000000e+00    0,000000000e+00    0,000000000e+00    0,000000000e+00
      632000000   -8,130554855e-02    1,523042470e-02   -5,756160617e-01    3,030957878e-01    0,000000000e+00    0,000000000e+00    0,000000000e+00    0,000000000e+00
      646000000   -4,314097017e-02    2,606595308e-02   -3,195363283e-01    5,559499860e-01    0,000000000e+00    0,000000000e+00    0,000000000e+00    0,000000000e+00
      660000000   -7,559981663e-03    5,428700242e-03    2,200306393e-02    6,297863126e-01    0,000000000e+00    0,000000000e+00    0,000000000e+00    0,000000000e+00
      674000000    1,786685316e-03   -3,046443313e-02    3,411645889e-01    5,191054940e-01    0,000000000e+00    0,000000000e+00    0,000000000e+00    0,000000000e+00
      688000000   -1,405121572e-02   -5,523215234e-02    5,588675141e-01    2,588708997e-01    0,000000000e+00    0,000000000e+00    0,000000000e+00    0,000000000e+00
      702000000   -3,399159759e-02   -6,093574688e-02    6,079647541e-01   -7,888957858e-02    0,000000000e+00    0,000000000e+00    0,000000000e+00    0,000000000e+00
      716000000   -3,688465431e-02   -5,634446442e-02    4,604437649e-01   -3,899611831e-01    0,000000000e+00    0,000000000e+00    0,000000000e+00    0,000000000e+00
      730000000   -3,138151392e-02   -6,486789137e-02    1,734819561e-01   -5,671867132e-01    0,000000000e+00    0,000000000e+00    0,000000000e+00    0,000000000e+00
      744000000   -4,052603990e-02   -8,904118836e-02   -1,523583531e-01   -5,634176731e-01    0,000000000e+00    0,000000000e+00    0,000000000e+00    0,000000000e+00
      758000000   -7,262121141e-02   -1,044524685e-01   -4,275399148e-01   -3,947218060e-01    0,000000000e+00    0,000000000e+00    0,000000000e+00    0,000000000e+00
      772000000   -1,143191680e-01   -9,439400584e-02   -5,743861794e-01   -1,057728156e-01    0,000000000e+00    0,000000000e+00    0,000000000e+00    0,000000000e+00
      786000000   -1,385761499e-01   -5,544340611e-02   -5,448575616e-01    2,206069380e-01    0,000000000e+00    0,000000000e+00    0,000000000e+00    0,000000000e+00
      800000000   -1,333353668e-01   -1,430526841e-02   -3,418466449e-01    4,801012874e-01    0,000000000e+00    0,000000000e+00    0,000000000e+00    0,000000000e+00
      814000000   -1,078247353e-01    8,712097071e-03   -3,555291891e-02    5,863412023e-01    0,000000000e+00    0,000000000e+00    0,000000000e+00    0,000000000e+00
      828000000   -8,571319282e-02    1,382207777e-02    2,793081701e-01    5,141390562e-01    0,000000000e+00    0,000000000e+00    0,000000000e+00    0,000000000e+00
      842000000   -7,119397819e-02    1,482607517e-02    5,032317638e-01    2,895366251e-01    0,000000000e+00    0,000000000e+00    0,000000000e+00    0,000000000e+00
      856000000   -5,261508375e-02    1,965691149e-02    5,707145333e-01   -1,772386022e-02    0,000000000e+00    0,000000000e+00    0,000000000e+00    0,000000000e+00
      870000000   -2,344963700e-02    1,431560609e-02    4,636470079e-01   -3,062771857e-01    0,000000000e+00    0,000000000e+00    0,000000000e+00    0,000000000e+00
      884000000    6,133048330e-03   -1,385011803e-02    2,298972160e-01   -4,877406955e-01    0,000000000e+00    0,000000000e+00    0,000000000e+00    0,000000000e+00
      898000000    1,190195885e-02   -6,317631155e-02   -5,198355764e-02   -5,263568163e-01    0,000000000e+00    0,000000000e+00    0,000000000e+00    0,000000000e+00
      912000000   -2,322523668e-02   -1,084560230e-01   -3,597854376e-01   -4,089996219e-01    0,000000000e+00    0,000000000e+00    0,000000000e+00    0,000000000e+00
      926000000   -7,419717312e-02   -1,243506521e-01   -5,291495919e-01   -1,579723805e-01    0,000000000e+00    0,000000000e+00    0,000000000e+00    0,000000000e+00
      940000000   -1,217055917e-01   -1,014924347e-01   -5,514606833e-01    1,566427648e-01    0,000000000e+00    0,000000000e+00    0,000000000e+00    0,000000000e+00
      954000000   -1,435497552e-01   -5,994258448e-02   -3,920815885e-01    4,456031919e-01    0,000000000e+00    0,000000000e+00    0,000000000e+00    0,000000000e+00
      968000000   -1,343103051e-01   -2,811516635e-02   -9,001809359e-02    6,026816368e-01    0,000000000e+00    0,000000000e+00    0,000000000e+00    0,000000000e+00
      982000000   -1,163470596e-01   -1,804844849e-02    2,454031110e-01    5,702948570e-01    0,000000000e+00    0,000000000e+00    0,000000000e+00    0,000000000e+00
      996000000   -1,052060798e-01   -1,625427976e-02    5,125734806e-01    3,643562794e-01    0,000000000e+00    0,000000000e+00    0,000000000e+00    0,000000000e+00
     1010000000   -1,004730985e-01   -8,317443542e-03    6,286877990e-01    5,164448172e-02    0,000000000e+00    0,000000000e+00    0,000000000e+00    0,000000000e+00
     1024000000   -9,523279965e-02   -1,425596070e-03    5,603805184e-01   -2,698988318e-01    0,000000000e+00    0,000000000e+00    0,000000000e+00    0,000000000e+00
     1038000000   -7,517765462e-02    9,763905546e-04    3,372670710e-01   -5,037344694e-01    0,000000000e+00    0,000000000e+00    0,000000000e+00    0,000000000e+00
     1052000000   -6,273920089e-02   -1,897491701e-02    3,147672117e-02   -5,842745900e-01    0,000000000e+00    0,000000000e+00    0,000000000e+00    0,000000000e+00
     1066000000   -6,586246938e-02   -3,003053367e-02   -2,729261220e-01   -4,997296035e-01    0,000000000e+00    0,000000000e+00    0,000000000e+00    0,000000000e+00
     1080000000   -8,302362263e-02   -2,790800668e-02   -4,803933799e-01   -2,700695693e-01    0,000000000e+00    0,000000000e+00    0,000000000e+00    0,000000000e+00
     1094000000   -8,217366785e-02   -1,503402181e-02   -5,314681530e-01    4,070024565e-02    0,000000000e+00    0,000000000e+00    0,000000000e+00    0,000000000e+00
     1108000000   -6,117572635e-02   -8,667806163e-03   -3,981362283e-01    3,272835016e-01    0,000000000e+00    0,000000000e+00    0,000000000e+00    0,000000000e+00
     1122000000   -2,772245370e-02   -3,374636173e-02   -1,356341988e-01    4,799748957e-01    0,000000000e+00    0,000000000e+00    0,000000000e+00    0,000000000e+00
     1136000000   -2,896372788e-02   -8,400838077e-02    1,605081856e-01    4,732793272e-01    0,000000000e+00    0,000000000e+00    0,000000000e+00    0,000000000e+00
     1150000000   -6,279270351e-02   -1,344564259e-01    4,187043309e-01    3,139061034e-01    0,000000000e+00    0,000000000e+00    0,000000000e+00    0,000000000e+00
     1164000000   -1,375317276e-01   -1,563180834e-01    5,617008209e-01    2,756702341e-02    0,000000000e+00    0,000000000e+00    0,000000000e+00    0,000000000e+00
     1178000000   -2,072392553e-01   -1,199765652e-01    5,320736766e-01   -3,131121099e-01    0,000000000e+00    0,000000000e+00    0,000000000e+00    0,000000000e+00
     1192000000   -2,508938909e-01   -4,230813310e-02    2,975267470e-01   -5,999373198e-01    0,000000000e+00    0,000000000e+00    0,000000000e+00    0,000000000e+00
     1206000000   -2,298958749e-01    3,494567424e-02   -6,698482484e-02   -6,951941848e-01    0,000000000e+00    0,000000000e+00    0,000000000e+00    0,000000000e+00
     1220000000   -1,861284077e-01    8,719436079e-02   -4,238162935e-01   -5,778195262e-01    0,000000000e+00    0,000000000e+00    0,000000000e+00    0,000000000e+00
     1234000000   -1,243378296e-01    1,045373231e-01   -6,424055696e-01   -2,902140021e-01    0,000000000e+00    0,000000000e+00    0,000000000e+00    0,000000000e+00
     1248000000   -6,791699678e-02    9,925767034e-02   -6,780143976e-01    6,657725573e-02    0,000000000e+00    0,000000000e+00    0,000000000e+00    0,000000000e+00
     1262000000   -1,385906059e-02    6,298667938e-02   -5,193590522e-01    3,687197566e-01    0,000000000e+00    0,000000000e+00    0,000000000e+00    0,000000000e+00
     1276000000    2,124538459e-02   -8,778880001e-04   -2,475483268e-01    5,492320657e-01    0,000000000e+00    0,000000000e+00    0,000000000e+00    0,000000000e+00
     1290000000    2,193578333e-02   -8,788596094e-02    7,069934905e-02    5,769134760e-01    0,000000000e+00    0,000000000e+00    0,000000000e+00    0,000000000e+00
     1304000000   -3,532109037e-02   -1,711302251e-01    3,636809587e-01    4,625223279e-01    0,000000000e+00    0,000000000e+00    0,000000000e+00    0,000000000e+00
     1318000000   -1,342149079e-01   -2,086060792e-01    5,866089463e-01    2,231061757e-01    0,000000000e+00    0,000000000e+00    0,000000000e+00    0,000000000e+00
     1332000000   -2,565978765e-01   -1,856865138e-01    6,490908265e-01   -1,184865013e-01    0,000000000e+00    0,000000000e+00    0,000000000e+00    0,000000000e+00
     1346000000   -3,324843943e-01   -8,954108506e-02    5,127487779e-01   -4,716833830e-01    0,000000000e+00    0,000000000e+00    0,000000000e+00    0,000000000e+00
     1360000000   -3,291710913e-01    2,094201744e-02    1,989022046e-01   -6,443532705e-01    0,000000000e+00    0,000000000e+00    0,000000000e+00    0,000000000e+00
     1374000000   -2,817599773e-01    1,053557545e-01   -1,599290520e-01   -6,044512391e-01    0,000000000e+00    0,000000000e+00    0,000000000e+00    0,000000000e+00
     1388000000   -2,161482275e-01    1,413143575e-01   -4,085469544e-01   -3,779646158e-01    0,000000000e+00    0,000000000e+00    0,000000000e+00    0,000000000e+00
     1402000000   -1,537074894e-01    1,395321935e-01   -4,893242419e-01   -5,598519742e-02    0,000000000e+00    0,000000000e+00    0,000000000e+00    0,000000000e+00
     1416000000   -9,363937378e-02    1,173123345e-01   -3,700335622e-01    2,396973222e-01    0,000000000e+00    0,000000000e+00    0,000000000e+00    0,000000000e+00
     1430000000   -5,394871160e-02    7,553256303e-02   -1,458518654e-01    4,784664810e-01    0,000000000e+00    0,000000000e+00    0,000000000e+00    0,000000000e+00
     1444000000   -3,763391823e-02    9,616062976e-03    1,610116512e-01    5,456963778e-01    0,000000000e+00    0,000000000e+00    0,000000000e+00    0,000000000e+00
     1458000000   -6,701431423e-02   -6,919066608e-02    4,786856771e-01    4,827291667e-01    0,000000000e+00    0,000000000e+00    0,000000000e+00    0,000000000e+00
     1472000000   -1,357817650e-01   -1,256749332e-01    7,585017085e-01    2,523905933e-01    0,000000000e+00    0,000000000e+00    0,000000000e+00    0,000000000e+00
     1486000000   -2,290843874e-01   -1,125787050e-01    9,073157907e-01   -8,888739347e-02    0,000000000e+00    0,000000000e+00    0,000000000e+00    0,000000000e+00
     1500000000   -2,888060212e-01   -4,858782515e-02    8,044626713e-01   -4,626156092e-01    0,000000000e+00    0,000000000e+00    0,000000000e+00    0,000000000e+00
