! NanoVNA-App
! Date: 2025-09-25 15:05:01
! Start: 100MHz Stop: 1,5GHz Points: 101
! S-Parameter data: F S11 S21 S12 S22
# Hz S RI R 50
!     Frequency           S11_Real           S11_Imag           S21_Real           S21_Imag           S12_Real           S12_Imag           S22_Real           S22_Imag
      100000000    3,113447875e-02    2,861012518e-02    4,348316491e-01   -6,687352657e-01    0,000000000e+00    0,000000000e+00    0,000000000e+00    0,000000000e+00
      114000000    5,753572658e-02    5,498035345e-03    7,524951361e-03   -7,910403013e-01    0,000000000e+00    0,000000000e+00    0,000000000e+00    0,000000000e+00
      128000000    6,720791012e-02   -3,786063567e-02   -4,104459584e-01   -6,710298061e-01    0,000000000e+00    0,000000000e+00    0,000000000e+00    0,000000000e+00
      142000000    4,472474754e-02   -8,415672183e-02   -7,027543783e-01   -3,529736698e-01    0,000000000e+00    0,000000000e+00    0,000000000e+00    0,000000000e+00
      156000000   -5,561718717e-03   -1,068149358e-01   -7,873481512e-01    7,425294071e-02    0,000000000e+00    0,000000000e+00    0,000000000e+00    0,000000000e+00
      170000000   -5,759670958e-02   -9,048481286e-02   -6,273600459e-01    4,869731963e-01    0,000000000e+00    0,000000000e+00    0,000000000e+00    0,000000000e+00
      184000000   -8,359881490e-02   -4,942451417e-02   -2,648504376e-01    7,510634065e-01    0,000000000e+00    0,000000000e+00    0,000000000e+00    0,000000000e+00
      198000000   -7,953254879e-02   -1,046496071e-02    1,834262162e-01    7,731775045e-01    0,000000000e+00    0,000000000e+00    0,000000000e+00    0,000000000e+00
      212000000   -6,221253425e-02    1,317248680e-02    5,690816641e-01    5,488193035e-01    0,000000000e+00    0,000000000e+00    0,000000000e+00    0,000000000e+00
      226000000   -4,320954904e-02    2,759740688e-02    7,707013488e-01    1,544571817e-01    0,000000000e+00    0,000000000e+00    0,000000000e+00    0,000000000e+00
      240000000   -1,816790178e-02    3,836044297e-02    7,266838551e-01   -2,819752097e-01    0,000000000e+00    0,000000000e+00    0,000000000e+00    0,000000000e+00
      254000000    1,715054177e-02    3,507263586e-02    4,580933750e-01   -6,202547550e-01    0,000000000e+00    0,000000000e+00    0,000000000e+00    0,000000000e+00
      268000000    4,873798788e-02    5,520746112e-03    5,857690051e-02   -7,601224780e-01    0,000000000e+00    0,000000000e+00    0,000000000e+00    0,000000000e+00
      282000000    5,339566618e-02   -4,177965969e-02   -3,489142954e-01   -6,714411974e-01    0,000000000e+00    0,000000000e+00    0,000000000e+00    0,000000000e+00
      296000000    2,386805601e-02   -7,951134443e-02   -6,519687176e-01   -3,849214315e-01    0,000000000e+00    0,000000000e+00    0,000000000e+00    0,000000000e+00
      310000000   -1,793959737e-02   -8,301793784e-02   -7,629203200e-01    2,153726853e-02    0,000000000e+00    0,000000000e+00    0,000000000e+00    0,000000000e+00
      324000000   -4,147114977e-02   -5,846239254e-02   -6,319584846e-01    4,315212667e-01    0,000000000e+00    0,000000000e+00    0,000000000e+00    0,000000000e+00
      338000000   -3,414540738e-02   -3,657355160e-02   -2,984298766e-01    7,002019286e-01    0,000000000e+00    0,000000000e+00    0,000000000e+00    0,000000000e+00
      352000000   -1,726663113e-02   -4,087704420e-02    1,253837347e-01    7,417101860e-01    0,000000000e+00    0,000000000e+00    0,000000000e+00    0,000000000e+00
      366000000   -1,924054325e-02   -6,195755303e-02    4,979187548e-01    5,547370911e-01    0,000000000e+00    0,000000000e+00    0,000000000e+00    0,000000000e+00
      380000000   -4,425829649e-02   -7,278809696e-02    7,134615779e-01    1,993855685e-01    0,000000000e+00    0,000000000e+00    0,000000000e+00    0,000000000e+00
      394000000   -7,071179897e-02   -5,852848291e-02    7,037638426e-01   -2,170172036e-01    0,000000000e+00    0,000000000e+00    0,000000000e+00    0,000000000e+00
      408000000   -7,705727220e-02   -3,060392290e-02    4,701103568e-01   -5,603753328e-01    0,000000000e+00    0,000000000e+00    0,000000000e+00    0,000000000e+00
      422000000   -6,566508859e-02   -1,135033555e-02    9,206178039e-02   -7,178740501e-01    0,000000000e+00    0,000000000e+00    0,000000000e+00    0,000000000e+00
      436000000   -5,303399265e-02   -4,479336087e-03   -3,018761873e-01   -6,471858621e-01    0,000000000e+00    0,000000000e+00    0,000000000e+00    0,000000000e+00
      450000000   -4,479370266e-02    1,627431484e-03   -5,930438042e-01   -3,782669902e-01    0,000000000e+00    0,000000000e+00    0,000000000e+00    0,000000000e+00
      464000000   -2,935811877e-02    1,155127306e-02   -6,912143826e-01    3,430278448e-04    0,000000000e+00    0,000000000e+00    0,000000000e+00    0,000000000e+00
      478000000   -8,969831397e-04    1,121370401e-02   -5,727075338e-01    3,633252084e-01    0,000000000e+00    0,000000000e+00    0,000000000e+00    0,000000000e+00
      492000000    2,812051773e-02   -1,242559776e-02   -2,884448171e-01    6,008335352e-01    0,000000000e+00    0,000000000e+00    0,000000000e+00    0,000000000e+00
      506000000    3,640240431e-02   -5,589628220e-02    6,929723918e-02    6,581130624e-01    0,000000000e+00    0,000000000e+00    0,000000000e+00    0,000000000e+00
      520000000    1,267288346e-02   -9,839061648e-02    4,038584530e-01    5,240653753e-01    0,000000000e+00    0,000000000e+00    0,000000000e+00    0,000000000e+00
      534000000   -3,455961496e-02   -1,158644557e-01    6,238880754e-01    2,362193316e-01    0,000000000e+00    0,000000000e+00    0,000000000e+00    0,000000000e+00
      548000000   -7,722286135e-02   -9,931132942e-02    6,579835415e-01   -1,336857826e-01    0,000000000e+00    0,000000000e+00    0,000000000e+00    0,000000000e+00
      562000000   -9,347189218e-02   -6,581956148e-02    4,811960757e-01   -4,671846926e-01    0,000000000e+00    0,000000000e+00    0,000000000e+00    0,000000000e+00
      576000000   -8,662387729e-02   -4,458802193e-02    1,501147896e-01   -6,481253505e-01    0,000000000e+00    0,000000000e+00    0,000000000e+00    0,000000000e+00
      590000000   -8,083239198e-02   -4,201542586e-02   -2,194845676e-01   -6,266680360e-01    0,000000000e+00    0,000000000e+00    0,000000000e+00    0,000000000e+00
      604000000   -8,907310665e-02   -3,715820238e-02   -5,200805664e-01   -4,057441950e-01    0,000000000e+00    0,000000000e+00    0,000000000e+00    0,000000000e+00
      618000000   -9,723667800e-02   -1,499181706e-02   -6,535012126e-01   -5,793369189e-02    0,000000000e+00    0,000000000e+00    0,000000000e+00    0,000000000e+00
      632000000   -8,145132661e-02    1,516571641e-02   -5,755745769e-01    3,032505512e-01    0,000000000e+00    0,000000000e+00    0,000000000e+00    0,000000000e+00
      646000000   -4,267313704e-02    2,614188381e-02   -3,188133538e-01    5,564477444e-01    0,000000000e+00    0,000000000e+00    0,000000000e+00    0,000000000e+00
      660000000   -7,068708539e-03    5,900185555e-03    2,239339426e-02    6,300057769e-01    0,000000000e+00    0,000000000e+00    0,000000000e+00    0,000000000e+00
      674000000    1,099559711e-03   -3,002249263e-02    3,432464600e-01    5,184307694e-01    0,000000000e+00    0,000000000e+00    0,000000000e+00    0,000000000e+00
      688000000   -1,450523362e-02   -5,659464374e-02    5,593098402e-01    2,581818700e-01    0,000000000e+00    0,000000000e+00    0,000000000e+00    0,000000000e+00
      702000000   -3,298865259e-02   -6,079107150e-02    6,046516299e-01   -8,317737281e-02    0,000000000e+00    0,000000000e+00    0,000000000e+00    0,000000000e+00
      716000000   -3,780310974e-02   -5,578487739e-02    4,590661228e-01   -3,897516131e-01    0,000000000e+00    0,000000000e+00    0,000000000e+00    0,000000000e+00
      730000000   -3,194288164e-02   -6,524302065e-02    1,733949035e-01   -5,671654344e-01    0,000000000e+00    0,000000000e+00    0,000000000e+00    0,000000000e+00
      744000000   -4,065776989e-02   -8,775087446e-02   -1,544496864e-01   -5,630962849e-01    0,000000000e+00    0,000000000e+00    0,000000000e+00    0,000000000e+00
      758000000   -7,236047834e-02   -1,046780795e-01   -4,278948903e-01   -3,939574361e-01    0,000000000e+00    0,000000000e+00    0,000000000e+00    0,000000000e+00
      772000000   -1,135059521e-01   -9,282014519e-02   -5,744825006e-01   -1,049549133e-01    0,000000000e+00    0,000000000e+00    0,000000000e+00    0,000000000e+00
      786000000   -1,375944018e-01   -5,478592962e-02   -5,440897942e-01    2,213395983e-01    0,000000000e+00    0,000000000e+00    0,000000000e+00    0,000000000e+00
      800000000   -1,315673143e-01   -1,509734243e-02   -3,409653306e-01    4,801999331e-01    0,000000000e+00    0,000000000e+00    0,000000000e+00    0,000000000e+00
      814000000   -1,067034453e-01    7,744971663e-03   -3,413844481e-02    5,851622224e-01    0,000000000e+00    0,000000000e+00    0,000000000e+00    0,000000000e+00
      828000000   -8,510174602e-02    1,274032611e-02    2,792197168e-01    5,140550733e-01    0,000000000e+00    0,000000000e+00    0,000000000e+00    0,000000000e+00
      842000000   -7,094417512e-02    1,435672864e-02    5,021439195e-01    2,890239060e-01    0,000000000e+00    0,000000000e+00    0,000000000e+00    0,000000000e+00
      856000000   -5,380684137e-02    1,923407987e-02    5,708776712e-01   -1,822017506e-02    0,000000000e+00    0,000000000e+00    0,000000000e+00    0,000000000e+00
      870000000   -2,419750020e-02    1,463433821e-02    4,629854560e-01   -3,070982993e-01    0,000000000e+00    0,000000000e+00    0,000000000e+00    0,000000000e+00
      884000000    4,669753369e-03   -1,419402100e-02    2,298818529e-01   -4,882500768e-01    0,000000000e+00    0,000000000e+00    0,000000000e+00    0,000000000e+00
      898000000    1,178348530e-02   -6,313559413e-02   -5,284404382e-02   -5,259919167e-01    0,000000000e+00    0,000000000e+00    0,000000000e+00    0,000000000e+00
      912000000   -2,328598686e-02   -1,070621535e-01   -3,626881540e-01   -3,932974339e-01    0,000000000e+00    0,000000000e+00    0,000000000e+00    0,000000000e+00
      926000000   -7,313852757e-02   -1,235054657e-01   -5,298254490e-01   -1,579218209e-01    0,000000000e+00    0,000000000e+00    0,000000000e+00    0,000000000e+00
      940000000   -1,247729883e-01   -1,041710749e-01   -5,526979566e-01    1,565861553e-01    0,000000000e+00    0,000000000e+00    0,000000000e+00    0,000000000e+00
      954000000   -1,403320879e-01   -6,424186379e-02   -3,926784992e-01    4,453597069e-01    0,000000000e+00    0,000000000e+00    0,000000000e+00    0,000000000e+00
      968000000   -1,290491521e-01   -2,819470875e-02   -9,199089557e-02    6,015105844e-01    0,000000000e+00    0,000000000e+00    0,000000000e+00    0,000000000e+00
      982000000   -1,171562001e-01   -1,879700646e-02    2,463787049e-01    5,728867650e-01    0,000000000e+00    0,000000000e+00    0,000000000e+00    0,000000000e+00
      996000000   -1,095430702e-01   -1,136901602e-02    5,144702196e-01    3,675619364e-01    0,000000000e+00    0,000000000e+00    0,000000000e+00    0,000000000e+00
     1010000000   -1,017041206e-01   -7,816662081e-03    6,293514371e-01    5,108025670e-02    0,000000000e+00    0,000000000e+00    0,000000000e+00    0,000000000e+00
     1024000000   -9,334668517e-02   -7,902861689e-04    5,609010458e-01   -2,741186619e-01    0,000000000e+00    0,000000000e+00    0,000000000e+00    0,000000000e+00
     1038000000   -7,502263039e-02    3,091712715e-03    3,335777819e-01   -5,085626841e-01    0,000000000e+00    0,000000000e+00    0,000000000e+00    0,000000000e+00
     1052000000   -6,691405922e-02   -1,485709101e-02    3,033082001e-02   -5,828823447e-01    0,000000000e+00    0,000000000e+00    0,000000000e+00    0,000000000e+00
     1066000000   -6,627818197e-02   -3,063022345e-02   -2,682344019e-01   -4,991236031e-01    0,000000000e+00    0,000000000e+00    0,000000000e+00    0,000000000e+00
     1080000000   -7,924842834e-02   -3,540206328e-02   -4,809682965e-01   -2,671513557e-01    0,000000000e+00    0,000000000e+00    0,000000000e+00    0,000000000e+00
     1094000000   -7,931869477e-02   -2,053511515e-02   -5,305515528e-01    4,668812826e-02    0,000000000e+00    0,000000000e+00    0,000000000e+00    0,000000000e+00
     1108000000   -6,171449274e-02   -1,168315392e-02   -3,974021077e-01    3,274488449e-01    0,000000000e+00    0,000000000e+00    0,000000000e+00    0,000000000e+00
     1122000000   -3,313932940e-02   -3,208092600e-02   -1,313504577e-01    4,807035625e-01    0,000000000e+00    0,000000000e+00    0,000000000e+00    0,000000000e+00
     1136000000   -3,070047311e-02   -8,190320432e-02    1,659093797e-01    4,673868418e-01    0,000000000e+00    0,000000000e+00    0,000000000e+00    0,000000000e+00
     1150000000   -6,211085245e-02   -1,359008402e-01    4,195003211e-01    3,092035949e-01    0,000000000e+00    0,000000000e+00    0,000000000e+00    0,000000000e+00
     1164000000   -1,343575716e-01   -1,518822014e-01    5,618525743e-01    2,755137160e-02    0,000000000e+00    0,000000000e+00    0,000000000e+00    0,000000000e+00
     1178000000   -2,089534551e-01   -1,218222976e-01    5,293912888e-01   -3,163191676e-01    0,000000000e+00    0,000000000e+00    0,000000000e+00    0,000000000e+00
     1192000000   -2,432385981e-01   -4,564802721e-02    2,951022685e-01   -5,931975245e-01    0,000000000e+00    0,000000000e+00    0,000000000e+00    0,000000000e+00
     1206000000   -2,306219041e-01    3,368448839e-02   -6,420944631e-02   -6,956376433e-01    0,000000000e+00    0,000000000e+00    0,000000000e+00    0,000000000e+00
     1220000000   -1,875780672e-01    8,184909075e-02   -4,202882349e-01   -5,810380578e-01    0,000000000e+00    0,000000000e+00    0,000000000e+00    0,000000000e+00
     1234000000   -1,286136210e-01    9,931214899e-02   -6,462528706e-01   -2,946822941e-01    0,000000000e+00    0,000000000e+00    0,000000000e+00    0,000000000e+00
     1248000000   -6,771329790e-02    9,391006082e-02   -6,666417718e-01    6,393790990e-02    0,000000000e+00    0,000000000e+00    0,000000000e+00    0,000000000e+00
     1262000000   -1,598373987e-02    6,280626357e-02   -5,194697380e-01    3,684914708e-01    0,000000000e+00    0,000000000e+00    0,000000000e+00    0,000000000e+00
     1276000000    2,523400448e-02   -4,500214010e-03   -2,422458827e-01    5,415949225e-01    0,000000000e+00    0,000000000e+00    0,000000000e+00    0,000000000e+00
     1290000000    1,889331266e-02   -8,543172479e-02    6,792928278e-02    5,748266578e-01    0,000000000e+00    0,000000000e+00    0,000000000e+00    0,000000000e+00
     1304000000   -3,521122038e-02   -1,703612655e-01    3,614625633e-01    4,588194788e-01    0,000000000e+00    0,000000000e+00    0,000000000e+00    0,000000000e+00
     1318000000   -1,320963502e-01   -2,191115320e-01    5,782079697e-01    2,169986367e-01    0,000000000e+00    0,000000000e+00    0,000000000e+00    0,000000000e+00
     1332000000   -2,481072247e-01   -1,898114085e-01    6,590517163e-01   -1,277713329e-01    0,000000000e+00    0,000000000e+00    0,000000000e+00    0,000000000e+00
     1346000000   -3,323101103e-01   -9,024835378e-02    5,083027482e-01   -4,609775543e-01    0,000000000e+00    0,000000000e+00    0,000000000e+00    0,000000000e+00
     1360000000   -3,343352675e-01    2,503483556e-02    1,889087707e-01   -6,341719627e-01    0,000000000e+00    0,000000000e+00    0,000000000e+00    0,000000000e+00
     1374000000   -2,831830978e-01    1,013920754e-01   -1,462429464e-01   -6,080433130e-01    0,000000000e+00    0,000000000e+00    0,000000000e+00    0,000000000e+00
     1388000000   -2,100865245e-01    1,368605345e-01   -3,971982896e-01   -3,789335191e-01    0,000000000e+00    0,000000000e+00    0,000000000e+00    0,000000000e+00
     1402000000   -1,490668207e-01    1,359388828e-01   -4,791799784e-01   -7,148444653e-02    0,000000000e+00    0,000000000e+00    0,000000000e+00    0,000000000e+00
     1416000000   -9,537163377e-02    1,173116639e-01   -3,739102185e-01    2,389295250e-01    0,000000000e+00    0,000000000e+00    0,000000000e+00    0,000000000e+00
     1430000000   -5,247015506e-02    6,689108163e-02   -1,511319727e-01    4,293150306e-01    0,000000000e+00    0,000000000e+00    0,000000000e+00    0,000000000e+00
     1444000000   -2,907087281e-02    5,711680744e-03    1,686079502e-01    5,256676674e-01    0,000000000e+00    0,000000000e+00    0,000000000e+00    0,000000000e+00
     1458000000   -5,881725624e-02   -7,235668600e-02    4,777781069e-01    4,820258617e-01    0,000000000e+00    0,000000000e+00    0,000000000e+00    0,000000000e+00
     1472000000   -1,361370832e-01   -1,289171576e-01    7,538688779e-01    2,579967380e-01    0,000000000e+00    0,000000000e+00    0,000000000e+00    0,000000000e+00
     1486000000   -2,242416143e-01   -1,139765680e-01    8,898976445e-01   -7,120824605e-02    0,000000000e+00    0,000000000e+00    0,000000000e+00    0,000000000e+00
     1500000000   -2,892124951e-01   -5,060512945e-02    8,104999065e-01   -4,555845857e-01    0,000000000e+00    0,000000000e+00    0,000000000e+00    0,000000000e+00
