! NanoVNA-App
! Date: 2025-09-25 15:07:15
! Start: 100MHz Stop: 1,5GHz Points: 101
! S-Parameter data: F S11 S21 S12 S22
# Hz S RI R 50
!     Frequency           S11_Real           S11_Imag           S21_Real           S21_Imag           S12_Real           S12_Imag           S22_Real           S22_Imag
      100000000    3,115792386e-02    2,866262197e-02    4,348756373e-01   -6,686391830e-01    0,000000000e+00    0,000000000e+00    0,000000000e+00    0,000000000e+00
      114000000    5,759033933e-02    5,503005814e-03    7,793080062e-03   -7,908931375e-01    0,000000000e+00    0,000000000e+00    0,000000000e+00    0,000000000e+00
      128000000    6,728959084e-02   -3,782163933e-02   -4,101466537e-01   -6,708340049e-01    0,000000000e+00    0,000000000e+00    0,000000000e+00    0,000000000e+00
      142000000    4,472130165e-02   -8,423194289e-02   -7,030258179e-01   -3,533765674e-01    0,000000000e+00    0,000000000e+00    0,000000000e+00    0,000000000e+00
      156000000   -6,042375695e-03   -1,065730602e-01   -7,861757278e-01    7,374514639e-02    0,000000000e+00    0,000000000e+00    0,000000000e+00    0,000000000e+00
      170000000   -5,759609863e-02   -9,063261002e-02   -6,276503801e-01    4,869591296e-01    0,000000000e+00    0,000000000e+00    0,000000000e+00    0,000000000e+00
      184000000   -8,372351527e-02   -4,944576696e-02   -2,648750246e-01    7,509657145e-01    0,000000000e+00    0,000000000e+00    0,000000000e+00    0,000000000e+00
      198000000   -7,962016761e-02   -1,046959870e-02    1,834477931e-01    7,733213902e-01    0,000000000e+00    0,000000000e+00    0,000000000e+00    0,000000000e+00
      212000000   -6,222833693e-02    1,319717336e-02    5,693415999e-01    5,491838455e-01    0,000000000e+00    0,000000000e+00    0,000000000e+00    0,000000000e+00
      226000000   -4,326030612e-02    2,773807943e-02    7,706182599e-01    1,544134170e-01    0,000000000e+00    0,000000000e+00    0,000000000e+00    0,000000000e+00
      240000000   -1,822624914e-02    3,850946948e-02    7,269093990e-01   -2,817031741e-01    0,000000000e+00    0,000000000e+00    0,000000000e+00    0,000000000e+00
      254000000    1,718943566e-02    3,517640010e-02    4,578658044e-01   -6,197165251e-01    0,000000000e+00    0,000000000e+00    0,000000000e+00    0,000000000e+00
      268000000    4,876762256e-02    5,592893343e-03    5,853872001e-02   -7,603247166e-01    0,000000000e+00    0,000000000e+00    0,000000000e+00    0,000000000e+00
      282000000    5,350640416e-02   -4,182060808e-02   -3,490587175e-01   -6,716919541e-01    0,000000000e+00    0,000000000e+00    0,000000000e+00    0,000000000e+00
      296000000    2,406044118e-02   -7,951319963e-02   -6,522142887e-01   -3,853216171e-01    0,000000000e+00    0,000000000e+00    0,000000000e+00    0,000000000e+00
      310000000   -1,792268455e-02   -8,304006606e-02   -7,638290524e-01    2,094581164e-02    0,000000000e+00    0,000000000e+00    0,000000000e+00    0,000000000e+00
      324000000   -4,154016078e-02   -5,885791034e-02   -6,317763925e-01    4,308168888e-01    0,000000000e+00    0,000000000e+00    0,000000000e+00    0,000000000e+00
      338000000   -3,428088129e-02   -3,676955402e-02   -2,948945165e-01    6,998627782e-01    0,000000000e+00    0,000000000e+00    0,000000000e+00    0,000000000e+00
      352000000   -1,715157926e-02   -4,086429626e-02    1,259658188e-01    7,426945567e-01    0,000000000e+00    0,000000000e+00    0,000000000e+00    0,000000000e+00
      366000000   -1,920132339e-02   -6,201393530e-02    4,985082448e-01    5,548696518e-01    0,000000000e+00    0,000000000e+00    0,000000000e+00    0,000000000e+00
      380000000   -4,449180141e-02   -7,265064120e-02    7,128279805e-01    1,998213381e-01    0,000000000e+00    0,000000000e+00    0,000000000e+00    0,000000000e+00
      394000000   -7,065727562e-02   -5,808286369e-02    7,048017383e-01   -2,169863880e-01    0,000000000e+00    0,000000000e+00    0,000000000e+00    0,000000000e+00
      408000000   -7,714761794e-02   -3,054745682e-02    4,694962502e-01   -5,599224567e-01    0,000000000e+00    0,000000000e+00    0,000000000e+00    0,000000000e+00
      422000000   -6,530246139e-02   -1,102616172e-02    9,372664243e-02   -7,174025178e-01    0,000000000e+00    0,000000000e+00    0,000000000e+00    0,000000000e+00
      436000000   -5,309352279e-02   -4,560953937e-03   -3,026263714e-01   -6,465532184e-01    0,000000000e+00    0,000000000e+00    0,000000000e+00    0,000000000e+00
      450000000   -4,464919865e-02    1,390859135e-03   -5,928359628e-01   -3,786838055e-01    0,000000000e+00    0,000000000e+00    0,000000000e+00    0,000000000e+00
      464000000   -2,921229601e-02    1,158894505e-02   -6,910923123e-01    3,231595620e-04    0,000000000e+00    0,000000000e+00    0,000000000e+00    0,000000000e+00
      478000000   -1,117985346e-03    1,105861738e-02   -5,734289289e-01    3,634287417e-01    0,000000000e+00    0,000000000e+00    0,000000000e+00    0,000000000e+00
      492000000    2,815610543e-02   -1,238669734e-02   -2,890973687e-01    6,022562385e-01    0,000000000e+00    0,000000000e+00    0,000000000e+00    0,000000000e+00
      506000000    3,629555553e-02   -5,592780933e-02    6,874741614e-02    6,585254669e-01    0,000000000e+00    0,000000000e+00    0,000000000e+00    0,000000000e+00
      520000000    1,348533109e-02   -9,894725680e-02    4,048992395e-01    5,285350680e-01    0,000000000e+00    0,000000000e+00    0,000000000e+00    0,000000000e+00
      534000000   -3,384167328e-02   -1,156103015e-01    6,243566275e-01    2,363173664e-01    0,000000000e+00    0,000000000e+00    0,000000000e+00    0,000000000e+00
      548000000   -7,760819793e-02   -9,973563999e-02    6,578941345e-01   -1,333735883e-01    0,000000000e+00    0,000000000e+00    0,000000000e+00    0,000000000e+00
      562000000   -9,337352961e-02   -6,610010564e-02    4,822756350e-01   -4,663632214e-01    0,000000000e+00    0,000000000e+00    0,000000000e+00    0,000000000e+00
      576000000   -8,606784046e-02   -4,473919049e-02    1,504897326e-01   -6,477567554e-01    0,000000000e+00    0,000000000e+00    0,000000000e+00    0,000000000e+00
      590000000   -8,074021339e-02   -4,179670662e-02   -2,207057476e-01   -6,250658631e-01    0,000000000e+00    0,000000000e+00    0,000000000e+00    0,000000000e+00
      604000000   -8,856595308e-02   -3,737856448e-02   -5,194256902e-01   -4,059854746e-01    0,000000000e+00    0,000000000e+00    0,000000000e+00    0,000000000e+00
      618000000   -9,693788737e-02   -1,508481801e-02   -6,532750130e-01   -5,827600881e-02    0,000000000e+00    0,000000000e+00    0,000000000e+00    0,000000000e+00
      632000000   -8,152050525e-02    1,472813170e-02   -5,749430656e-01    3,022050261e-01    0,000000000e+00    0,000000000e+00    0,000000000e+00    0,000000000e+00
      646000000   -4,264239594e-02    2,594299987e-02   -3,190551400e-01    5,554853082e-01    0,000000000e+00    0,000000000e+00    0,000000000e+00    0,000000000e+00
      660000000   -8,256263100e-03    5,972835235e-03    2,072204463e-02    6,281697154e-01    0,000000000e+00    0,000000000e+00    0,000000000e+00    0,000000000e+00
      674000000    1,270775567e-03   -2,954179980e-02    3,420236111e-01    5,181214809e-01    0,000000000e+00    0,000000000e+00    0,000000000e+00    0,000000000e+00
      688000000   -1,431987528e-02   -5,627890676e-02    5,585147738e-01    2,585564852e-01    0,000000000e+00    0,000000000e+00    0,000000000e+00    0,000000000e+00
      702000000   -3,374392539e-02   -5,987289548e-02    6,021770239e-01   -7,842939347e-02    0,000000000e+00    0,000000000e+00    0,000000000e+00    0,000000000e+00
      716000000   -3,754327446e-02   -5,637200922e-02    4,595753849e-01   -3,902076483e-01    0,000000000e+00    0,000000000e+00    0,000000000e+00    0,000000000e+00
      730000000   -3,227118030e-02   -6,584299356e-02    1,742634773e-01   -5,655896068e-01    0,000000000e+00    0,000000000e+00    0,000000000e+00    0,000000000e+00
      744000000   -4,085871950e-02   -8,780526370e-02   -1,526132971e-01   -5,632550716e-01    0,000000000e+00    0,000000000e+00    0,000000000e+00    0,000000000e+00
      758000000   -7,276658714e-02   -1,053358093e-01   -4,269572496e-01   -3,948930502e-01    0,000000000e+00    0,000000000e+00    0,000000000e+00    0,000000000e+00
      772000000   -1,139669567e-01   -9,285589308e-02   -5,744430423e-01   -1,063158736e-01    0,000000000e+00    0,000000000e+00    0,000000000e+00    0,000000000e+00
      786000000   -1,382826120e-01   -5,662808940e-02   -5,450975895e-01    2,207430303e-01    0,000000000e+00    0,000000000e+00    0,000000000e+00    0,000000000e+00
      800000000   -1,335408241e-01   -1,427373476e-02   -3,408014178e-01    4,804066718e-01    0,000000000e+00    0,000000000e+00    0,000000000e+00    0,000000000e+00
      814000000   -1,085791960e-01    8,482902311e-03   -3,531463817e-02    5,854595900e-01    0,000000000e+00    0,000000000e+00    0,000000000e+00    0,000000000e+00
      828000000   -8,532179147e-02    1,401205827e-02    2,801551223e-01    5,145458579e-01    0,000000000e+00    0,000000000e+00    0,000000000e+00    0,000000000e+00
      842000000   -7,008411735e-02    1,433551684e-02    5,017182231e-01    2,897365689e-01    0,000000000e+00    0,000000000e+00    0,000000000e+00    0,000000000e+00
      856000000   -5,283283815e-02    1,888787001e-02    5,708500147e-01   -1,770563051e-02    0,000000000e+00    0,000000000e+00    0,000000000e+00    0,000000000e+00
      870000000   -2,304067835e-02    1,471673138e-02    4,633416235e-01   -3,067981899e-01    0,000000000e+00    0,000000000e+00    0,000000000e+00    0,000000000e+00
      884000000    6,278983317e-03   -1,489446964e-02    2,313321680e-01   -4,887098968e-01    0,000000000e+00    0,000000000e+00    0,000000000e+00    0,000000000e+00
      898000000    1,169910841e-02   -6,373639405e-02   -5,200314149e-02   -5,262415409e-01    0,000000000e+00    0,000000000e+00    0,000000000e+00    0,000000000e+00
      912000000   -2,343036979e-02   -1,086907610e-01   -3,646756411e-01   -4,081952870e-01    0,000000000e+00    0,000000000e+00    0,000000000e+00    0,000000000e+00
      926000000   -7,531264424e-02   -1,223210692e-01   -5,328167677e-01   -1,567744613e-01    0,000000000e+00    0,000000000e+00    0,000000000e+00    0,000000000e+00
      940000000   -1,211975589e-01   -1,020553261e-01   -5,516988039e-01    1,553758681e-01    0,000000000e+00    0,000000000e+00    0,000000000e+00    0,000000000e+00
      954000000   -1,402239949e-01   -5,932629481e-02   -3,901339471e-01    4,461248815e-01    0,000000000e+00    0,000000000e+00    0,000000000e+00    0,000000000e+00
      968000000   -1,324123442e-01   -3,064075485e-02   -9,281538427e-02    6,004175544e-01    0,000000000e+00    0,000000000e+00    0,000000000e+00    0,000000000e+00
      982000000   -1,135872155e-01   -1,846130192e-02    2,462613732e-01    5,705800653e-01    0,000000000e+00    0,000000000e+00    0,000000000e+00    0,000000000e+00
      996000000   -1,051235273e-01   -1,514876168e-02    5,115327835e-01    3,663007915e-01    0,000000000e+00    0,000000000e+00    0,000000000e+00    0,000000000e+00
     1010000000   -1,024104953e-01   -5,524477456e-03    6,278073788e-01    5,294945464e-02    0,000000000e+00    0,000000000e+00    0,000000000e+00    0,000000000e+00
     1024000000   -8,984574676e-02   -6,870938232e-04    5,587362647e-01   -2,716351449e-01    0,000000000e+00    0,000000000e+00    0,000000000e+00    0,000000000e+00
     1038000000   -7,551286370e-02    2,037006896e-03    3,386250436e-01   -5,043958426e-01    0,000000000e+00    0,000000000e+00    0,000000000e+00    0,000000000e+00
     1052000000   -6,383720785e-02   -1,773985848e-02    3,375013173e-02   -5,861082077e-01    0,000000000e+00    0,000000000e+00    0,000000000e+00    0,000000000e+00
     1066000000   -6,680697948e-02   -2,976188064e-02   -2,661745846e-01   -5,009188652e-01    0,000000000e+00    0,000000000e+00    0,000000000e+00    0,000000000e+00
     1080000000   -8,197093755e-02   -3,350321203e-02   -4,805135429e-01   -2,721105218e-01    0,000000000e+00    0,000000000e+00    0,000000000e+00    0,000000000e+00
     1094000000   -7,832673937e-02   -1,898654737e-02   -5,343588591e-01    4,241119698e-02    0,000000000e+00    0,000000000e+00    0,000000000e+00    0,000000000e+00
     1108000000   -5,700526014e-02   -9,807615541e-03   -3,991729617e-01    3,255448341e-01    0,000000000e+00    0,000000000e+00    0,000000000e+00    0,000000000e+00
     1122000000   -3,240658715e-02   -3,307981044e-02   -1,372870505e-01    4,815444946e-01    0,000000000e+00    0,000000000e+00    0,000000000e+00    0,000000000e+00
     1136000000   -3,133441508e-02   -8,535953611e-02    1,661130637e-01    4,733819962e-01    0,000000000e+00    0,000000000e+00    0,000000000e+00    0,000000000e+00
     1150000000   -6,370701641e-02   -1,338604689e-01    4,188600779e-01    3,128932416e-01    0,000000000e+00    0,000000000e+00    0,000000000e+00    0,000000000e+00
     1164000000   -1,372459531e-01   -1,542365551e-01    5,648267269e-01    2,810249850e-02    0,000000000e+00    0,000000000e+00    0,000000000e+00    0,000000000e+00
     1178000000   -2,100895196e-01   -1,185166910e-01    5,333839059e-01   -3,168423474e-01    0,000000000e+00    0,000000000e+00    0,000000000e+00    0,000000000e+00
     1192000000   -2,480073273e-01   -4,481752962e-02    2,978458703e-01   -6,010642648e-01    0,000000000e+00    0,000000000e+00    0,000000000e+00    0,000000000e+00
     1206000000   -2,290773839e-01    3,105299175e-02   -6,768154353e-02   -6,970991492e-01    0,000000000e+00    0,000000000e+00    0,000000000e+00    0,000000000e+00
     1220000000   -1,850925684e-01    8,102018386e-02   -4,219878316e-01   -5,797848701e-01    0,000000000e+00    0,000000000e+00    0,000000000e+00    0,000000000e+00
     1234000000   -1,233018786e-01    1,037962809e-01   -6,447271109e-01   -2,922731340e-01    0,000000000e+00    0,000000000e+00    0,000000000e+00    0,000000000e+00
     1248000000   -6,295549124e-02    9,838847816e-02   -6,726114154e-01    6,607329845e-02    0,000000000e+00    0,000000000e+00    0,000000000e+00    0,000000000e+00
     1262000000   -1,349656750e-02    6,652819365e-02   -5,224056840e-01    3,759639859e-01    0,000000000e+00    0,000000000e+00    0,000000000e+00    0,000000000e+00
     1276000000    1,938763633e-02   -3,003087593e-03   -2,446057498e-01    5,454931259e-01    0,000000000e+00    0,000000000e+00    0,000000000e+00    0,000000000e+00
     1290000000    1,901364885e-02   -8,606661111e-02    7,055051625e-02    5,804077983e-01    0,000000000e+00    0,000000000e+00    0,000000000e+00    0,000000000e+00
     1304000000   -3,677922487e-02   -1,665947586e-01    3,637489676e-01    4,658014476e-01    0,000000000e+00    0,000000000e+00    0,000000000e+00    0,000000000e+00
     1318000000   -1,308538914e-01   -2,141900957e-01    5,842562318e-01    2,197273821e-01    0,000000000e+00    0,000000000e+00    0,000000000e+00    0,000000000e+00
     1332000000   -2,563405335e-01   -1,874445081e-01    6,487566829e-01   -1,297426969e-01    0,000000000e+00    0,000000000e+00    0,000000000e+00    0,000000000e+00
     1346000000   -3,318566978e-01   -9,318995476e-02    5,015325546e-01   -4,652846158e-01    0,000000000e+00    0,000000000e+00    0,000000000e+00    0,000000000e+00
     1360000000   -3,322332501e-01    2,284378558e-02    1,924130470e-01   -6,542423368e-01    0,000000000e+00    0,000000000e+00    0,000000000e+00    0,000000000e+00
     1374000000   -2,815471888e-01    1,034853533e-01   -1,652943194e-01   -6,071531177e-01    0,000000000e+00    0,000000000e+00    0,000000000e+00    0,000000000e+00
     1388000000   -2,132369727e-01    1,348383874e-01   -4,021722972e-01   -3,687050045e-01    0,000000000e+00    0,000000000e+00    0,000000000e+00    0,000000000e+00
     1402000000   -1,522381306e-01    1,373035312e-01   -4,809255302e-01   -6,227490306e-02    0,000000000e+00    0,000000000e+00    0,000000000e+00    0,000000000e+00
     1416000000   -9,794146568e-02    1,093255505e-01   -3,892379999e-01    2,337142974e-01    0,000000000e+00    0,000000000e+00    0,000000000e+00    0,000000000e+00
     1430000000   -5,619099364e-02    7,684122026e-02   -1,551622152e-01    4,718897343e-01    0,000000000e+00    0,000000000e+00    0,000000000e+00    0,000000000e+00
     1444000000   -3,373677284e-02    9,875168325e-04    1,602789760e-01    5,282478929e-01    0,000000000e+00    0,000000000e+00    0,000000000e+00    0,000000000e+00
     1458000000   -6,068291143e-02   -7,481618971e-02    4,942286611e-01    4,642098844e-01    0,000000000e+00    0,000000000e+00    0,000000000e+00    0,000000000e+00
     1472000000   -1,381045580e-01   -1,262914091e-01    7,591592073e-01    2,586728036e-01    0,000000000e+00    0,000000000e+00    0,000000000e+00    0,000000000e+00
     1486000000   -2,315739393e-01   -1,097327769e-01    9,002283812e-01   -6,927004457e-02    0,000000000e+00    0,000000000e+00    0,000000000e+00    0,000000000e+00
     1500000000   -2,910633683e-01   -5,210703239e-02    7,898187041e-01   -4,568215609e-01    0,000000000e+00    0,000000000e+00    0,000000000e+00    0,000000000e+00
