! NanoVNA-App
! Date: 2025-09-25 15:09:33
! Start: 100MHz Stop: 1,5GHz Points: 101
! S-Parameter data: F S11 S21 S12 S22
# Hz S RI R 50
!     Frequency           S11_Real           S11_Imag           S21_Real           S21_Imag           S12_Real           S12_Imag           S22_Real           S22_Imag
      100000000    3,115156293e-02    2,864357643e-02    4,348417521e-01   -6,685761213e-01    0,000000000e+00    0,000000000e+00    0,000000000e+00    0,000000000e+00
      114000000    5,758530647e-02    5,504142493e-03    7,911015302e-03   -7,908587456e-01    0,000000000e+00    0,000000000e+00    0,000000000e+00    0,000000000e+00
      128000000    6,724677980e-02   -3,783142939e-02   -4,102590680e-01   -6,710169315e-01    0,000000000e+00    0,000000000e+00    0,000000000e+00    0,000000000e+00
      142000000    4,472731054e-02   -8,424428850e-02   -7,026016116e-01   -3,531099558e-01    0,000000000e+00    0,000000000e+00    0,000000000e+00    0,000000000e+00
      156000000   -5,485030822e-03   -1,065319479e-01   -7,871540189e-01    7,310249656e-02    0,000000000e+00    0,000000000e+00    0,000000000e+00    0,000000000e+00
      170000000   -5,762160197e-02   -9,062255174e-02   -6,275963783e-01    4,870939851e-01    0,000000000e+00    0,000000000e+00    0,000000000e+00    0,000000000e+00
      184000000   -8,372712880e-02   -4,944583029e-02   -2,651733160e-01    7,510447502e-01    0,000000000e+00    0,000000000e+00    0,000000000e+00    0,000000000e+00
      198000000   -7,967453450e-02   -1,047385763e-02    1,834773570e-01    7,728366256e-01    0,000000000e+00    0,000000000e+00    0,000000000e+00    0,000000000e+00
      212000000   -6,223212555e-02    1,316989772e-02    5,692263842e-01    5,490617752e-01    0,000000000e+00    0,000000000e+00    0,000000000e+00    0,000000000e+00
      226000000   -4,330262169e-02    2,765470743e-02    7,707439065e-01    1,546981782e-01    0,000000000e+00    0,000000000e+00    0,000000000e+00    0,000000000e+00
      240000000   -1,826348715e-02    3,853689134e-02    7,269030213e-01   -2,819772363e-01    0,000000000e+00    0,000000000e+00    0,000000000e+00    0,000000000e+00
      254000000    1,717518829e-02    3,521259874e-02    4,578561485e-01   -6,201741695e-01    0,000000000e+00    0,000000000e+00    0,000000000e+00    0,000000000e+00
      268000000    4,875321314e-02    5,614803173e-03    5,865119025e-02   -7,598931193e-01    0,000000000e+00    0,000000000e+00    0,000000000e+00    0,000000000e+00
      282000000    5,350300670e-02   -4,173478112e-02   -3,493231237e-01   -6,718123555e-01    0,000000000e+00    0,000000000e+00    0,000000000e+00    0,000000000e+00
      296000000    2,405760996e-02   -7,952094823e-02   -6,515308022e-01   -3,850460351e-01    0,000000000e+00    0,000000000e+00    0,000000000e+00    0,000000000e+00
      310000000   -1,778344065e-02   -8,323068917e-02   -7,626615763e-01    1,912246644e-02    0,000000000e+00    0,000000000e+00    0,000000000e+00    0,000000000e+00
      324000000   -4,160512611e-02   -5,883982778e-02   -6,313848495e-01    4,309799075e-01    0,000000000e+00    0,000000000e+00    0,000000000e+00    0,000000000e+00
      338000000   -3,450006619e-02   -3,699219227e-02   -2,970204949e-01    6,993681192e-01    0,000000000e+00    0,000000000e+00    0,000000000e+00    0,000000000e+00
      352000000   -1,727763377e-02   -4,075208306e-02    1,257465631e-01    7,415331602e-01    0,000000000e+00    0,000000000e+00    0,000000000e+00    0,000000000e+00
      366000000   -1,921940036e-02   -6,220678613e-02    4,985377192e-01    5,545017123e-01    0,000000000e+00    0,000000000e+00    0,000000000e+00    0,000000000e+00
      380000000   -4,464696348e-02   -7,274825126e-02    7,130227685e-01    1,996542215e-01    0,000000000e+00    0,000000000e+00    0,000000000e+00    0,000000000e+00
      394000000   -7,094699889e-02   -5,808993801e-02    7,047132850e-01   -2,162498832e-01    0,000000000e+00    0,000000000e+00    0,000000000e+00    0,000000000e+00
      408000000   -7,695821673e-02   -3,036779724e-02    4,711421132e-01   -5,592964888e-01    0,000000000e+00    0,000000000e+00    0,000000000e+00    0,000000000e+00
      422000000   -6,552679837e-02   -1,110661775e-02    9,313622117e-02   -7,174287438e-01    0,000000000e+00    0,000000000e+00    0,000000000e+00    0,000000000e+00
      436000000   -5,286335573e-02   -4,676559940e-03   -3,023707569e-01   -6,480123401e-01    0,000000000e+00    0,000000000e+00    0,000000000e+00    0,000000000e+00
      450000000   -4,460565373e-02    1,694556442e-03   -5,925986171e-01   -3,781684935e-01    0,000000000e+00    0,000000000e+00    0,000000000e+00    0,000000000e+00
      464000000   -2,925003320e-02    1,106959488e-02   -6,909713149e-01   -1,801486069e-04    0,000000000e+00    0,000000000e+00    0,000000000e+00    0,000000000e+00
      478000000   -9,475065162e-04    1,113610249e-02   -5,734744668e-01    3,632342219e-01    0,000000000e+00    0,000000000e+00    0,000000000e+00    0,000000000e+00
      492000000    2,751282416e-02   -1,245498564e-02   -2,900078297e-01    6,015698910e-01    0,000000000e+00    0,000000000e+00    0,000000000e+00    0,000000000e+00
      506000000    3,655649722e-02   -5,548890308e-02    6,893447787e-02    6,587301493e-01    0,000000000e+00    0,000000000e+00    0,000000000e+00    0,000000000e+00
      520000000    1,222954970e-02   -9,860215336e-02    4,032950997e-01    5,241053700e-01    0,000000000e+00    0,000000000e+00    0,000000000e+00    0,000000000e+00
      534000000   -3,443710506e-02   -1,160689741e-01    6,235954165e-01    2,361058146e-01    0,000000000e+00    0,000000000e+00    0,000000000e+00    0,000000000e+00
      548000000   -7,762268931e-02   -9,898882359e-02    6,580268741e-01   -1,330539286e-01    0,000000000e+00    0,000000000e+00    0,000000000e+00    0,000000000e+00
      562000000   -9,328512847e-02   -6,602254510e-02    4,818446338e-01   -4,667637348e-01    0,000000000e+00    0,000000000e+00    0,000000000e+00    0,000000000e+00
      576000000   -8,638871461e-02   -4,420862719e-02    1,502756625e-01   -6,477041245e-01    0,000000000e+00    0,000000000e+00    0,000000000e+00    0,000000000e+00
      590000000   -8,090115339e-02   -4,187409952e-02   -2,170418054e-01   -6,291427612e-01    0,000000000e+00    0,000000000e+00    0,000000000e+00    0,000000000e+00
      604000000   -8,916607499e-02   -3,726160526e-02   -5,198341012e-01   -4,063814282e-01    0,000000000e+00    0,000000000e+00    0,000000000e+00    0,000000000e+00
      618000000   -9,708129615e-02   -1,534430496e-02   -6,533223987e-01   -5,887147039e-02    0,000000000e+00    0,000000000e+00    0,000000000e+00    0,000000000e+00
      632000000   -8,096303791e-02    1,557225268e-02   -5,751904249e-01    3,028381765e-01    0,000000000e+00    0,000000000e+00    0,000000000e+00    0,000000000e+00
      646000000   -4,241096973e-02    2,591779828e-02   -3,196640313e-01    5,559050441e-01    0,000000000e+00    0,000000000e+00    0,000000000e+00    0,000000000e+00
      660000000   -8,118900470e-03    6,035863422e-03    2,041938528e-02    6,303096414e-01    0,000000000e+00    0,000000000e+00    0,000000000e+00    0,000000000e+00
      674000000    1,309668529e-03   -2,956544235e-02    3,414981067e-01    5,190742016e-01    0,000000000e+00    0,000000000e+00    0,000000000e+00    0,000000000e+00
      688000000   -1,466976106e-02   -5,626045913e-02    5,588732958e-01    2,579637766e-01    0,000000000e+00    0,000000000e+00    0,000000000e+00    0,000000000e+00
      702000000   -3,381669894e-02   -5,873668939e-02    6,059603691e-01   -7,825198025e-02    0,000000000e+00    0,000000000e+00    0,000000000e+00    0,000000000e+00
      716000000   -3,640823439e-02   -5,549660325e-02    4,598268569e-01   -3,900335431e-01    0,000000000e+00    0,000000000e+00    0,000000000e+00    0,000000000e+00
      730000000   -3,227043524e-02   -6,455991417e-02    1,735758781e-01   -5,662462115e-01    0,000000000e+00    0,000000000e+00    0,000000000e+00    0,000000000e+00
      744000000   -4,116229713e-02   -8,821621537e-02   -1,529791355e-01   -5,640209913e-01    0,000000000e+00    0,000000000e+00    0,000000000e+00    0,000000000e+00
      758000000   -7,250733674e-02   -1,051357314e-01   -4,275279343e-01   -3,948186040e-01    0,000000000e+00    0,000000000e+00    0,000000000e+00    0,000000000e+00
      772000000   -1,133961305e-01   -9,428124875e-02   -5,743007064e-01   -1,053078473e-01    0,000000000e+00    0,000000000e+00    0,000000000e+00    0,000000000e+00
      786000000   -1,393544227e-01   -5,610238016e-02   -5,448868275e-01    2,209110111e-01    0,000000000e+00    0,000000000e+00    0,000000000e+00    0,000000000e+00
      800000000   -1,327755302e-01   -1,419486478e-02   -3,425743580e-01    4,795643091e-01    0,000000000e+00    0,000000000e+00    0,000000000e+00    0,000000000e+00
      814000000   -1,087176874e-01    8,298018947e-03   -3,447648883e-02    5,862728357e-01    0,000000000e+00    0,000000000e+00    0,000000000e+00    0,000000000e+00
      828000000   -8,524663001e-02    1,376806106e-02    2,782537937e-01    5,148260593e-01    0,000000000e+00    0,000000000e+00    0,000000000e+00    0,000000000e+00
      842000000   -7,055650651e-02    1,443516836e-02    5,025578141e-01    2,900584936e-01    0,000000000e+00    0,000000000e+00    0,000000000e+00    0,000000000e+00
      856000000   -5,195428059e-02    1,919223927e-02    5,703181624e-01   -1,786690019e-02    0,000000000e+00    0,000000000e+00    0,000000000e+00    0,000000000e+00
      870000000   -2,300949208e-02    1,515096705e-02    4,638949335e-01   -3,061854839e-01    0,000000000e+00    0,000000000e+00    0,000000000e+00    0,000000000e+00
      884000000    6,583680864e-03   -1,470141392e-02    2,299652696e-01   -4,883714914e-01    0,000000000e+00    0,000000000e+00    0,000000000e+00    0,000000000e+00
      898000000    1,217265520e-02   -6,358873099e-02   -5,228491127e-02   -5,250352025e-01    0,000000000e+00    0,000000000e+00    0,000000000e+00    0,000000000e+00
      912000000   -2,323134802e-02   -1,086045206e-01   -3,519028127e-01   -4,024181068e-01    0,000000000e+00    0,000000000e+00    0,000000000e+00    0,000000000e+00
      926000000   -7,554933429e-02   -1,257512271e-01   -5,298991799e-01   -1,613318771e-01    0,000000000e+00    0,000000000e+00    0,000000000e+00    0,000000000e+00
      940000000   -1,246672720e-01   -1,001017392e-01   -5,537167788e-01    1,578080058e-01    0,000000000e+00    0,000000000e+00    0,000000000e+00    0,000000000e+00
      954000000   -1,443733871e-01   -5,849687755e-02   -3,923471868e-01    4,469634593e-01    0,000000000e+00    0,000000000e+00    0,000000000e+00    0,000000000e+00
      968000000   -1,299561411e-01   -2,663434669e-02   -9,252242744e-02    6,036041975e-01    0,000000000e+00    0,000000000e+00    0,000000000e+00    0,000000000e+00
      982000000   -1,131182835e-01   -1,424365118e-02    2,450348288e-01    5,729832053e-01    0,000000000e+00    0,000000000e+00    0,000000000e+00    0,000000000e+00
      996000000   -1,064098552e-01   -1,070561726e-02    5,141060948e-01    3,667857051e-01    0,000000000e+00    0,000000000e+00    0,000000000e+00    0,000000000e+00
     1010000000   -1,050807387e-01   -6,776787806e-03    6,287409663e-01    5,168262869e-02    0,000000000e+00    0,000000000e+00    0,000000000e+00    0,000000000e+00
     1024000000   -9,457079321e-02   -1,773854136e-03    5,591683388e-01   -2,719940245e-01    0,000000000e+00    0,000000000e+00    0,000000000e+00    0,000000000e+00
     1038000000   -7,525122911e-02   -4,815563560e-03    3,366847038e-01   -5,025137663e-01    0,000000000e+00    0,000000000e+00    0,000000000e+00    0,000000000e+00
     1052000000   -6,313496083e-02   -1,712456532e-02    3,208114579e-02   -5,841820836e-01    0,000000000e+00    0,000000000e+00    0,000000000e+00    0,000000000e+00
     1066000000   -7,308761030e-02   -3,251563013e-02   -2,640644014e-01   -5,000108480e-01    0,000000000e+00    0,000000000e+00    0,000000000e+00    0,000000000e+00
     1080000000   -8,004724979e-02   -2,578771114e-02   -4,808171391e-01   -2,709955573e-01    0,000000000e+00    0,000000000e+00    0,000000000e+00    0,000000000e+00
     1094000000   -8,221816272e-02   -1,556453668e-02   -5,332207084e-01    4,093139246e-02    0,000000000e+00    0,000000000e+00    0,000000000e+00    0,000000000e+00
     1108000000   -6,213658676e-02   -1,408112515e-02   -3,965748549e-01    3,258126974e-01    0,000000000e+00    0,000000000e+00    0,000000000e+00    0,000000000e+00
     1122000000   -3,305606544e-02   -3,261667490e-02   -1,371610463e-01    4,820251167e-01    0,000000000e+00    0,000000000e+00    0,000000000e+00    0,000000000e+00
     1136000000   -3,101747856e-02   -8,579508960e-02    1,630010605e-01    4,762220085e-01    0,000000000e+00    0,000000000e+00    0,000000000e+00    0,000000000e+00
     1150000000   -6,371096522e-02   -1,325694025e-01    4,205782413e-01    3,120926321e-01    0,000000000e+00    0,000000000e+00    0,000000000e+00    0,000000000e+00
     1164000000   -1,382025927e-01   -1,502572149e-01    5,677329898e-01    2,618055604e-02    0,000000000e+00    0,000000000e+00    0,000000000e+00    0,000000000e+00
     1178000000   -2,072304189e-01   -1,197628155e-01    5,344508886e-01   -3,138506711e-01    0,000000000e+00    0,000000000e+00    0,000000000e+00    0,000000000e+00
     1192000000   -2,517656386e-01   -4,612514004e-02    2,998427153e-01   -5,994766355e-01    0,000000000e+00    0,000000000e+00    0,000000000e+00    0,000000000e+00
     1206000000   -2,353080660e-01    2,908710390e-02   -6,807111204e-02   -6,993850470e-01    0,000000000e+00    0,000000000e+00    0,000000000e+00    0,000000000e+00
     1220000000   -1,848782748e-01    7,942139357e-02   -4,209611118e-01   -5,781093836e-01    0,000000000e+00    0,000000000e+00    0,000000000e+00    0,000000000e+00
     1234000000   -1,288383156e-01    1,077585071e-01   -6,419199705e-01   -2,871594727e-01    0,000000000e+00    0,000000000e+00    0,000000000e+00    0,000000000e+00
     1248000000   -6,804562360e-02    9,689889103e-02   -6,787368655e-01    6,062127277e-02    0,000000000e+00    0,000000000e+00    0,000000000e+00    0,000000000e+00
     1262000000   -1,379445381e-02    6,348010153e-02   -5,204684138e-01    3,719788492e-01    0,000000000e+00    0,000000000e+00    0,000000000e+00    0,000000000e+00
     1276000000    2,497088909e-02    1,396552077e-03   -2,405942380e-01    5,451524258e-01    0,000000000e+00    0,000000000e+00    0,000000000e+00    0,000000000e+00
     1290000000    1,932271942e-02   -9,034137428e-02    7,018406689e-02    5,693177581e-01    0,000000000e+00    0,000000000e+00    0,000000000e+00    0,000000000e+00
     1304000000   -3,240184486e-02   -1,697275639e-01    3,612489998e-01    4,656613171e-01    0,000000000e+00    0,000000000e+00    0,000000000e+00    0,000000000e+00
     1318000000   -1,373767704e-01   -2,144516706e-01    5,821390748e-01    2,199937403e-01    0,000000000e+00    0,000000000e+00    0,000000000e+00    0,000000000e+00
     1332000000   -2,535864115e-01   -1,878158003e-01    6,578524113e-01   -1,266265512e-01    0,000000000e+00    0,000000000e+00    0,000000000e+00    0,000000000e+00
     1346000000   -3,350723684e-01   -9,249664098e-02    5,164340734e-01   -4,632577598e-01    0,000000000e+00    0,000000000e+00    0,000000000e+00    0,000000000e+00
     1360000000   -3,352245092e-01    2,539688908e-02    1,893568933e-01   -6,425308585e-01    0,000000000e+00    0,000000000e+00    0,000000000e+00    0,000000000e+00
     1374000000   -2,771388590e-01    1,044743732e-01   -1,558778733e-01   -6,025001407e-01    0,000000000e+00    0,000000000e+00    0,000000000e+00    0,000000000e+00
     1388000000   -2,102145404e-01    1,401994973e-01   -4,095636904e-01   -3,740192652e-01    0,000000000e+00    0,000000000e+00    0,000000000e+00    0,000000000e+00
     1402000000   -1,527294964e-01    1,355193257e-01   -4,894719422e-01   -6,319864094e-02    0,000000000e+00    0,000000000e+00    0,000000000e+00    0,000000000e+00
     1416000000   -9,709473699e-02    1,169798523e-01   -3,835908175e-01    2,505332828e-01    0,000000000e+00    0,000000000e+00    0,000000000e+00    0,000000000e+00
     1430000000   -5,174835399e-02    7,089216262e-02   -1,383061260e-01    4,373270273e-01    0,000000000e+00    0,000000000e+00    0,000000000e+00    0,000000000e+00
     1444000000   -3,788870573e-02    5,123394076e-03    1,638768911e-01    5,389538407e-01    0,000000000e+00    0,000000000e+00    0,000000000e+00    0,000000000e+00
     1458000000   -6,526163965e-02   -7,455386966e-02    4,868183732e-01    4,691066444e-01    0,000000000e+00    0,000000000e+00    0,000000000e+00    0,000000000e+00
     1472000000   -1,381170154e-01   -1,264989972e-01    7,514033318e-01    2,531358898e-01    0,000000000e+00    0,000000000e+00    0,000000000e+00    0,000000000e+00
     1486000000   -2,297182679e-01   -1,150929183e-01    8,829320073e-01   -7,981419563e-02    0,000000000e+00    0,000000000e+00    0,000000000e+00    0,000000000e+00
     1500000000   -2,844853997e-01   -4,657422751e-02    7,951492667e-01   -4,572556019e-01    0,000000000e+00    0,000000000e+00    0,000000000e+00    0,000000000e+00
