! NanoVNA-App
! Date: 2025-09-25 15:09:57
! Start: 100MHz Stop: 1,5GHz Points: 101
! S-Parameter data: F S11 S21 S12 S22
# Hz S RI R 50
!     Frequency           S11_Real           S11_Imag           S21_Real           S21_Imag           S12_Real           S12_Imag           S22_Real           S22_Imag
      100000000    3,115121275e-02    2,864788100e-02    4,348595738e-01   -6,685942411e-01    0,000000000e+00    0,000000000e+00    0,000000000e+00    0,000000000e+00
      114000000    5,757693201e-02    5,501308013e-03    7,937570103e-03   -7,909088731e-01    0,000000000e+00    0,000000000e+00    0,000000000e+00    0,000000000e+00
      128000000    6,729062647e-02   -3,782220557e-02   -4,101493061e-01   -6,709060669e-01    0,000000000e+00    0,000000000e+00    0,000000000e+00    0,000000000e+00
      142000000    4,472590610e-02   -8,423948288e-02   -7,027653456e-01   -3,533371687e-01    0,000000000e+00    0,000000000e+00    0,000000000e+00    0,000000000e+00
      156000000   -5,893392954e-03   -1,067728177e-01   -7,867105007e-01    7,386367023e-02    0,000000000e+00    0,000000000e+00    0,000000000e+00    0,000000000e+00
      170000000   -5,762493238e-02   -9,059584886e-02   -6,274608374e-01    4,868390262e-01    0,000000000e+00    0,000000000e+00    0,000000000e+00    0,000000000e+00
      184000000   -8,375039697e-02   -4,948989674e-02   -2,649108171e-01    7,510868907e-01    0,000000000e+00    0,000000000e+00    0,000000000e+00    0,000000000e+00
      198000000   -7,964763790e-02   -1,048822049e-02    1,834596246e-01    7,729341388e-01    0,000000000e+00    0,000000000e+00    0,000000000e+00    0,000000000e+00
      212000000   -6,228950992e-02    1,314954832e-02    5,692037344e-01    5,489312410e-01    0,000000000e+00    0,000000000e+00    0,000000000e+00    0,000000000e+00
      226000000   -4,332672805e-02    2,775406837e-02    7,707623243e-01    1,546048373e-01    0,000000000e+00    0,000000000e+00    0,000000000e+00    0,000000000e+00
      240000000   -1,822442003e-02    3,847183660e-02    7,267284989e-01   -2,817967534e-01    0,000000000e+00    0,000000000e+00    0,000000000e+00    0,000000000e+00
      254000000    1,719731838e-02    3,519657254e-02    4,580894113e-01   -6,200504303e-01    0,000000000e+00    0,000000000e+00    0,000000000e+00    0,000000000e+00
      268000000    4,876386374e-02    5,591108929e-03    5,869650468e-02   -7,602772713e-01    0,000000000e+00    0,000000000e+00    0,000000000e+00    0,000000000e+00
      282000000    5,349123478e-02   -4,173740000e-02   -3,490208089e-01   -6,714600325e-01    0,000000000e+00    0,000000000e+00    0,000000000e+00    0,000000000e+00
      296000000    2,409369871e-02   -7,944718748e-02   -6,522526145e-01   -3,859056532e-01    0,000000000e+00    0,000000000e+00    0,000000000e+00    0,000000000e+00
      310000000   -1,788967475e-02   -8,327131718e-02   -7,640857100e-01    2,058270946e-02    0,000000000e+00    0,000000000e+00    0,000000000e+00    0,000000000e+00
      324000000   -4,168196768e-02   -5,881145969e-02   -6,322527528e-01    4,302656949e-01    0,000000000e+00    0,000000000e+00    0,000000000e+00    0,000000000e+00
      338000000   -3,429052234e-02   -3,673397005e-02   -2,962104976e-01    6,981325150e-01    0,000000000e+00    0,000000000e+00    0,000000000e+00    0,000000000e+00
      352000000   -1,726503856e-02   -4,068468884e-02    1,253250986e-01    7,418740988e-01    0,000000000e+00    0,000000000e+00    0,000000000e+00    0,000000000e+00
      366000000   -1,903367415e-02   -6,221880764e-02    4,983719289e-01    5,547796488e-01    0,000000000e+00    0,000000000e+00    0,000000000e+00    0,000000000e+00
      380000000   -4,450973123e-02   -7,271039486e-02    7,129423618e-01    1,996626854e-01    0,000000000e+00    0,000000000e+00    0,000000000e+00    0,000000000e+00
      394000000   -7,085760683e-02   -5,816902593e-02    7,041591406e-01   -2,161238939e-01    0,000000000e+00    0,000000000e+00    0,000000000e+00    0,000000000e+00
      408000000   -7,694726437e-02   -3,024667129e-02    4,705352783e-01   -5,590120554e-01    0,000000000e+00    0,000000000e+00    0,000000000e+00    0,000000000e+00
      422000000   -6,553737074e-02   -1,141609624e-02    9,312152863e-02   -7,183191776e-01    0,000000000e+00    0,000000000e+00    0,000000000e+00    0,000000000e+00
      436000000   -5,316185206e-02   -4,318127409e-03   -3,020021319e-01   -6,475785375e-01    0,000000000e+00    0,000000000e+00    0,000000000e+00    0,000000000e+00
      450000000   -4,426603019e-02    1,510790898e-03   -5,928388834e-01   -3,784806728e-01    0,000000000e+00    0,000000000e+00    0,000000000e+00    0,000000000e+00
      464000000   -2,969859354e-02    1,134944521e-02   -6,913951635e-01   -4,075636680e-04    0,000000000e+00    0,000000000e+00    0,000000000e+00    0,000000000e+00
      478000000   -1,548005501e-03    1,097086444e-02   -5,733934641e-01    3,629270792e-01    0,000000000e+00    0,000000000e+00    0,000000000e+00    0,000000000e+00
      492000000    2,761863545e-02   -1,233921666e-02   -2,889062464e-01    6,022400260e-01    0,000000000e+00    0,000000000e+00    0,000000000e+00    0,000000000e+00
      506000000    3,664794564e-02   -5,571359396e-02    6,909702718e-02    6,584483981e-01    0,000000000e+00    0,000000000e+00    0,000000000e+00    0,000000000e+00
      520000000    1,256358530e-02   -9,800619632e-02    4,002254903e-01    5,266931057e-01    0,000000000e+00    0,000000000e+00    0,000000000e+00    0,000000000e+00
      534000000   -3,435472026e-02   -1,163922548e-01    6,239426136e-01    2,362467051e-01    0,000000000e+00    0,000000000e+00    0,000000000e+00    0,000000000e+00
      548000000   -7,753168792e-02   -9,878620505e-02    6,581873298e-01   -1,329321116e-01    0,000000000e+00    0,000000000e+00    0,000000000e+00    0,000000000e+00
      562000000   -9,351284057e-02   -6,634394079e-02    4,814399481e-01   -4,668478370e-01    0,000000000e+00    0,000000000e+00    0,000000000e+00    0,000000000e+00
      576000000   -8,611179143e-02   -4,487600550e-02    1,509937942e-01   -6,482576132e-01    0,000000000e+00    0,000000000e+00    0,000000000e+00    0,000000000e+00
      590000000   -8,093084395e-02   -4,165448621e-02   -2,212094814e-01   -6,269922853e-01    0,000000000e+00    0,000000000e+00    0,000000000e+00    0,000000000e+00
      604000000   -8,884558082e-02   -3,710006177e-02   -5,193960667e-01   -4,063578844e-01    0,000000000e+00    0,000000000e+00    0,000000000e+00    0,000000000e+00
      618000000   -9,666921198e-02   -1,471017487e-02   -6,534397006e-01   -5,851106718e-02    0,000000000e+00    0,000000000e+00    0,000000000e+00    0,000000000e+00
      632000000   -8,077652007e-02    1,476316806e-02   -5,759965777e-01    3,032085001e-01    0,000000000e+00    0,000000000e+00    0,000000000e+00    0,000000000e+00
      646000000   -4,344266281e-02    2,653264999e-02   -3,192422092e-01    5,570709705e-01    0,000000000e+00    0,000000000e+00    0,000000000e+00    0,000000000e+00
      660000000   -7,768575102e-03    5,417075939e-03    2,181506343e-02    6,296337843e-01    0,000000000e+00    0,000000000e+00    0,000000000e+00    0,000000000e+00
      674000000    9,612421854e-04   -2,952868864e-02    3,420790434e-01    5,186998248e-01    0,000000000e+00    0,000000000e+00    0,000000000e+00    0,000000000e+00
      688000000   -1,422343682e-02   -5,576939136e-02    5,592679381e-01    2,585594356e-01    0,000000000e+00    0,000000000e+00    0,000000000e+00    0,000000000e+00
      702000000   -3,444085270e-02   -5,993111804e-02    6,047191024e-01   -8,074079454e-02    0,000000000e+00    0,000000000e+00    0,000000000e+00    0,000000000e+00
      716000000   -3,737360612e-02   -5,617722869e-02    4,592466056e-01   -3,895863295e-01    0,000000000e+00    0,000000000e+00    0,000000000e+00    0,000000000e+00
      730000000   -3,241487220e-02   -6,457398087e-02    1,745420098e-01   -5,661894083e-01    0,000000000e+00    0,000000000e+00    0,000000000e+00    0,000000000e+00
      744000000   -4,120625183e-02   -8,826400340e-02   -1,530602872e-01   -5,636050105e-01    0,000000000e+00    0,000000000e+00    0,000000000e+00    0,000000000e+00
      758000000   -7,167549431e-02   -1,040595993e-01   -4,274564683e-01   -3,942922056e-01    0,000000000e+00    0,000000000e+00    0,000000000e+00    0,000000000e+00
      772000000   -1,137018278e-01   -9,327212721e-02   -5,742496848e-01   -1,061116904e-01    0,000000000e+00    0,000000000e+00    0,000000000e+00    0,000000000e+00
      786000000   -1,390484124e-01   -5,552900955e-02   -5,452028513e-01    2,207295150e-01    0,000000000e+00    0,000000000e+00    0,000000000e+00    0,000000000e+00
      800000000   -1,333667934e-01   -1,424008422e-02   -3,409743011e-01    4,796381891e-01    0,000000000e+00    0,000000000e+00    0,000000000e+00    0,000000000e+00
      814000000   -1,078931689e-01    8,357473649e-03   -3,495421633e-02    5,869324803e-01    0,000000000e+00    0,000000000e+00    0,000000000e+00    0,000000000e+00
      828000000   -8,529081196e-02    1,366955321e-02    2,777629793e-01    5,136430860e-01    0,000000000e+00    0,000000000e+00    0,000000000e+00    0,000000000e+00
      842000000   -7,068794221e-02    1,435956918e-02    5,025364757e-01    2,896173298e-01    0,000000000e+00    0,000000000e+00    0,000000000e+00    0,000000000e+00
      856000000   -5,193748698e-02    1,943202317e-02    5,703549385e-01   -1,800880395e-02    0,000000000e+00    0,000000000e+00    0,000000000e+00    0,000000000e+00
      870000000   -2,264294401e-02    1,488294546e-02    4,639961720e-01   -3,062789142e-01    0,000000000e+00    0,000000000e+00    0,000000000e+00    0,000000000e+00
      884000000    6,188478321e-03   -1,460038498e-02    2,298859507e-01   -4,880276918e-01    0,000000000e+00    0,000000000e+00    0,000000000e+00    0,000000000e+00
      898000000    1,258501597e-02   -6,368819624e-02   -5,218630284e-02   -5,269106030e-01    0,000000000e+00    0,000000000e+00    0,000000000e+00    0,000000000e+00
      912000000   -2,296224982e-02   -1,092028096e-01   -3,608288765e-01   -3,927835822e-01    0,000000000e+00    0,000000000e+00    0,000000000e+00    0,000000000e+00
      926000000   -7,458651066e-02   -1,250825971e-01   -5,300193429e-01   -1,598278135e-01    0,000000000e+00    0,000000000e+00    0,000000000e+00    0,000000000e+00
      940000000   -1,218599230e-01   -1,039937586e-01   -5,505200624e-01    1,552445441e-01    0,000000000e+00    0,000000000e+00    0,000000000e+00    0,000000000e+00
      954000000   -1,439845562e-01   -6,079804152e-02   -3,927354813e-01    4,477838576e-01    0,000000000e+00    0,000000000e+00    0,000000000e+00    0,000000000e+00
      968000000   -1,300380975e-01   -2,496678568e-02   -9,099650383e-02    6,048572659e-01    0,000000000e+00    0,000000000e+00    0,000000000e+00    0,000000000e+00
      982000000   -1,149467453e-01   -1,382406894e-02    2,453564405e-01    5,731122494e-01    0,000000000e+00    0,000000000e+00    0,000000000e+00    0,000000000e+00
      996000000   -1,054968685e-01   -1,622494683e-02    5,137152076e-01    3,671801388e-01    0,000000000e+00    0,000000000e+00    0,000000000e+00    0,000000000e+00
     1010000000   -1,056778282e-01   -9,261251427e-03    6,284583807e-01    4,940670356e-02    0,000000000e+00    0,000000000e+00    0,000000000e+00    0,000000000e+00
     1024000000   -9,111385792e-02    3,081873292e-03    5,590053201e-01   -2,695096731e-01    0,000000000e+00    0,000000000e+00    0,000000000e+00    0,000000000e+00
     1038000000   -7,626736164e-02   -4,397765733e-03    3,382205963e-01   -5,053615570e-01    0,000000000e+00    0,000000000e+00    0,000000000e+00    0,000000000e+00
     1052000000   -6,319106370e-02   -1,925298013e-02    3,314935416e-02   -5,859896541e-01    0,000000000e+00    0,000000000e+00    0,000000000e+00    0,000000000e+00
     1066000000   -6,730502844e-02   -3,053822182e-02   -2,660181820e-01   -5,027130246e-01    0,000000000e+00    0,000000000e+00    0,000000000e+00    0,000000000e+00
     1080000000   -8,011759073e-02   -2,839546651e-02   -4,831587672e-01   -2,712676525e-01    0,000000000e+00    0,000000000e+00    0,000000000e+00    0,000000000e+00
     1094000000   -7,857728004e-02   -1,947384886e-02   -5,310875177e-01    3,951184079e-02    0,000000000e+00    0,000000000e+00    0,000000000e+00    0,000000000e+00
     1108000000   -5,611803010e-02   -1,332030538e-02   -3,994705975e-01    3,239679635e-01    0,000000000e+00    0,000000000e+00    0,000000000e+00    0,000000000e+00
     1122000000   -2,896003798e-02   -3,400708362e-02   -1,347613782e-01    4,824065864e-01    0,000000000e+00    0,000000000e+00    0,000000000e+00    0,000000000e+00
     1136000000   -3,025215305e-02   -8,290053159e-02    1,658568233e-01    4,715296328e-01    0,000000000e+00    0,000000000e+00    0,000000000e+00    0,000000000e+00
     1150000000   -6,838952005e-02   -1,367298514e-01    4,193547070e-01    3,141915202e-01    0,000000000e+00    0,000000000e+00    0,000000000e+00    0,000000000e+00
     1164000000   -1,354057640e-01   -1,511920542e-01    5,629992485e-01    2,849439345e-02    0,000000000e+00    0,000000000e+00    0,000000000e+00    0,000000000e+00
     1178000000   -2,096323520e-01   -1,216274947e-01    5,314860940e-01   -3,149501979e-01    0,000000000e+00    0,000000000e+00    0,000000000e+00    0,000000000e+00
     1192000000   -2,465016097e-01   -4,148842394e-02    2,962879241e-01   -5,975329280e-01    0,000000000e+00    0,000000000e+00    0,000000000e+00    0,000000000e+00
     1206000000   -2,332300544e-01    3,633286059e-02   -6,351029128e-02   -7,003782392e-01    0,000000000e+00    0,000000000e+00    0,000000000e+00    0,000000000e+00
     1220000000   -1,843792796e-01    7,792834193e-02   -4,208749235e-01   -5,844636559e-01    0,000000000e+00    0,000000000e+00    0,000000000e+00    0,000000000e+00
     1234000000   -1,240254641e-01    1,062057093e-01   -6,435958743e-01   -2,944561839e-01    0,000000000e+00    0,000000000e+00    0,000000000e+00    0,000000000e+00
     1248000000   -6,865755469e-02    9,455810487e-02   -6,811435223e-01    6,557190418e-02    0,000000000e+00    0,000000000e+00    0,000000000e+00    0,000000000e+00
     1262000000   -1,452392992e-02    6,337287277e-02   -5,189957619e-01    3,670638502e-01    0,000000000e+00    0,000000000e+00    0,000000000e+00    0,000000000e+00
     1276000000    2,397102490e-02    1,468538394e-04   -2,380349636e-01    5,504842401e-01    0,000000000e+00    0,000000000e+00    0,000000000e+00    0,000000000e+00
     1290000000    2,070541307e-02   -8,438049257e-02    6,430681795e-02    5,830090046e-01    0,000000000e+00    0,000000000e+00    0,000000000e+00    0,000000000e+00
     1304000000   -3,296341002e-02   -1,701929718e-01    3,623295426e-01    4,670564234e-01    0,000000000e+00    0,000000000e+00    0,000000000e+00    0,000000000e+00
     1318000000   -1,324473321e-01   -2,141422480e-01    5,827586055e-01    2,243013084e-01    0,000000000e+00    0,000000000e+00    0,000000000e+00    0,000000000e+00
     1332000000   -2,545996606e-01   -1,816237718e-01    6,540021300e-01   -1,177916601e-01    0,000000000e+00    0,000000000e+00    0,000000000e+00    0,000000000e+00
     1346000000   -3,289924264e-01   -9,433926642e-02    5,130577087e-01   -4,662251770e-01    0,000000000e+00    0,000000000e+00    0,000000000e+00    0,000000000e+00
     1360000000   -3,313701749e-01    2,780087292e-02    1,911410838e-01   -6,485304832e-01    0,000000000e+00    0,000000000e+00    0,000000000e+00    0,000000000e+00
     1374000000   -2,814280093e-01    1,048860997e-01   -1,529491991e-01   -6,024136543e-01    0,000000000e+00    0,000000000e+00    0,000000000e+00    0,000000000e+00
     1388000000   -2,154051661e-01    1,354794651e-01   -3,989828527e-01   -3,797755837e-01    0,000000000e+00    0,000000000e+00    0,000000000e+00    0,000000000e+00
     1402000000   -1,510763168e-01    1,382460892e-01   -4,751123190e-01   -5,654292554e-02    0,000000000e+00    0,000000000e+00    0,000000000e+00    0,000000000e+00
     1416000000   -9,637183696e-02    1,197609603e-01   -3,723169267e-01    2,430149764e-01    0,000000000e+00    0,000000000e+00    0,000000000e+00    0,000000000e+00
     1430000000   -5,289361253e-02    6,560935080e-02   -1,437216401e-01    4,367338419e-01    0,000000000e+00    0,000000000e+00    0,000000000e+00    0,000000000e+00
     1444000000   -4,404706880e-02    3,299589967e-03    1,626085043e-01    5,417836905e-01    0,000000000e+00    0,000000000e+00    0,000000000e+00    0,000000000e+00
     1458000000   -6,398154795e-02   -7,574275881e-02    4,836765528e-01    4,729327559e-01    0,000000000e+00    0,000000000e+00    0,000000000e+00    0,000000000e+00
     1472000000   -1,356222630e-01   -1,259809136e-01    7,618978024e-01    2,620896995e-01    0,000000000e+00    0,000000000e+00    0,000000000e+00    0,000000000e+00
     1486000000   -2,322911471e-01   -1,137761772e-01    8,922249079e-01   -7,841394097e-02    0,000000000e+00    0,000000000e+00    0,000000000e+00    0,000000000e+00
     1500000000   -2,825883627e-01   -4,379671812e-02    8,022953272e-01   -4,316674769e-01    0,000000000e+00    0,000000000e+00    0,000000000e+00    0,000000000e+00
