! NanoVNA-App
! Date: 2025-09-25 15:04:18
! Start: 100MHz Stop: 1,5GHz Points: 101
! S-Parameter data: F S11 S21 S12 S22
# Hz S RI R 50
!     Frequency           S11_Real           S11_Imag           S21_Real           S21_Imag           S12_Real           S12_Imag           S22_Real           S22_Imag
      100000000    3,110182099e-02    2,860116027e-02    4,347891808e-01   -6,686933041e-01    0,000000000e+00    0,000000000e+00    0,000000000e+00    0,000000000e+00
      114000000    5,749633163e-02    5,512439646e-03    7,599435747e-03   -7,910357714e-01    0,000000000e+00    0,000000000e+00    0,000000000e+00    0,000000000e+00
      128000000    6,719974428e-02   -3,774488345e-02   -4,104719460e-01   -6,709850430e-01    0,000000000e+00    0,000000000e+00    0,000000000e+00    0,000000000e+00
      142000000    4,470744729e-02   -8,413558453e-02   -7,028307319e-01   -3,532089591e-01    0,000000000e+00    0,000000000e+00    0,000000000e+00    0,000000000e+00
      156000000   -6,320409942e-03   -1,059119999e-01   -7,854840755e-01    7,311511785e-02    0,000000000e+00    0,000000000e+00    0,000000000e+00    0,000000000e+00
      170000000   -5,754211545e-02   -9,050563723e-02   -6,273426414e-01    4,869367778e-01    0,000000000e+00    0,000000000e+00    0,000000000e+00    0,000000000e+00
      184000000   -8,363159746e-02   -4,945528507e-02   -2,648645043e-01    7,510915995e-01    0,000000000e+00    0,000000000e+00    0,000000000e+00    0,000000000e+00
      198000000   -7,956087589e-02   -1,048571803e-02    1,836196184e-01    7,729657292e-01    0,000000000e+00    0,000000000e+00    0,000000000e+00    0,000000000e+00
      212000000   -6,215818226e-02    1,313435659e-02    5,693072081e-01    5,489779711e-01    0,000000000e+00    0,000000000e+00    0,000000000e+00    0,000000000e+00
      226000000   -4,318243265e-02    2,764142118e-02    7,707352638e-01    1,543297917e-01    0,000000000e+00    0,000000000e+00    0,000000000e+00    0,000000000e+00
      240000000   -1,820141263e-02    3,838867694e-02    7,267014384e-01   -2,819894850e-01    0,000000000e+00    0,000000000e+00    0,000000000e+00    0,000000000e+00
      254000000    1,717760414e-02    3,506852686e-02    4,576296210e-01   -6,201490760e-01    0,000000000e+00    0,000000000e+00    0,000000000e+00    0,000000000e+00
      268000000    4,871229455e-02    5,547731183e-03    5,858686566e-02   -7,601537704e-01    0,000000000e+00    0,000000000e+00    0,000000000e+00    0,000000000e+00
      282000000    5,332437158e-02   -4,187038168e-02   -3,494295776e-01   -6,716683507e-01    0,000000000e+00    0,000000000e+00    0,000000000e+00    0,000000000e+00
      296000000    2,392460965e-02   -7,953905314e-02   -6,522296667e-01   -3,851616383e-01    0,000000000e+00    0,000000000e+00    0,000000000e+00    0,000000000e+00
      310000000   -1,797193475e-02   -8,294747025e-02   -7,640960813e-01    2,035333775e-02    0,000000000e+00    0,000000000e+00    0,000000000e+00    0,000000000e+00
      324000000   -4,163390025e-02   -5,871182308e-02   -6,315168738e-01    4,306260943e-01    0,000000000e+00    0,000000000e+00    0,000000000e+00    0,000000000e+00
      338000000   -3,409607708e-02   -3,693726659e-02   -2,960684299e-01    7,004691362e-01    0,000000000e+00    0,000000000e+00    0,000000000e+00    0,000000000e+00
      352000000   -1,711240225e-02   -4,055786505e-02    1,263148189e-01    7,420863509e-01    0,000000000e+00    0,000000000e+00    0,000000000e+00    0,000000000e+00
      366000000   -1,931917109e-02   -6,197476760e-02    4,975776970e-01    5,538032651e-01    0,000000000e+00    0,000000000e+00    0,000000000e+00    0,000000000e+00
      380000000   -4,405733943e-02   -7,287567854e-02    7,134526968e-01    1,992985010e-01    0,000000000e+00    0,000000000e+00    0,000000000e+00    0,000000000e+00
      394000000   -7,071338594e-02   -5,834638700e-02    7,033786774e-01   -2,166879326e-01    0,000000000e+00    0,000000000e+00    0,000000000e+00    0,000000000e+00
      408000000   -7,718965411e-02   -3,064654022e-02    4,697754383e-01   -5,605454445e-01    0,000000000e+00    0,000000000e+00    0,000000000e+00    0,000000000e+00
      422000000   -6,558083743e-02   -1,121133287e-02    9,352018684e-02   -7,178940177e-01    0,000000000e+00    0,000000000e+00    0,000000000e+00    0,000000000e+00
      436000000   -5,331191048e-02   -4,516677000e-03   -3,031041920e-01   -6,461567283e-01    0,000000000e+00    0,000000000e+00    0,000000000e+00    0,000000000e+00
      450000000   -4,511876777e-02    1,819438534e-03   -5,935158134e-01   -3,773970902e-01    0,000000000e+00    0,000000000e+00    0,000000000e+00    0,000000000e+00
      464000000   -2,923518047e-02    1,175242383e-02   -6,908711791e-01    1,145142945e-03    0,000000000e+00    0,000000000e+00    0,000000000e+00    0,000000000e+00
      478000000   -7,611034089e-04    1,161949337e-02   -5,725342035e-01    3,638116419e-01    0,000000000e+00    0,000000000e+00    0,000000000e+00    0,000000000e+00
      492000000    2,789331786e-02   -1,229903102e-02   -2,895548642e-01    6,017465591e-01    0,000000000e+00    0,000000000e+00    0,000000000e+00    0,000000000e+00
      506000000    3,685022518e-02   -5,606315285e-02    6,869165599e-02    6,580015421e-01    0,000000000e+00    0,000000000e+00    0,000000000e+00    0,000000000e+00
      520000000    1,242587343e-02   -9,930408001e-02    4,070352912e-01    5,272219181e-01    0,000000000e+00    0,000000000e+00    0,000000000e+00    0,000000000e+00
      534000000   -3,461873159e-02   -1,158129796e-01    6,237146854e-01    2,365940660e-01    0,000000000e+00    0,000000000e+00    0,000000000e+00    0,000000000e+00
      548000000   -7,714504749e-02   -9,896027297e-02    6,582150459e-01   -1,332740784e-01    0,000000000e+00    0,000000000e+00    0,000000000e+00    0,000000000e+00
      562000000   -9,344057739e-02   -6,605736911e-02    4,816261828e-01   -4,668280482e-01    0,000000000e+00    0,000000000e+00    0,000000000e+00    0,000000000e+00
      576000000   -8,615580946e-02   -4,406728968e-02    1,502803266e-01   -6,484438777e-01    0,000000000e+00    0,000000000e+00    0,000000000e+00    0,000000000e+00
      590000000   -8,061877638e-02   -4,213120043e-02   -2,196600437e-01   -6,289433837e-01    0,000000000e+00    0,000000000e+00    0,000000000e+00    0,000000000e+00
      604000000   -8,869905770e-02   -3,753997758e-02   -5,197716951e-01   -4,059930444e-01    0,000000000e+00    0,000000000e+00    0,000000000e+00    0,000000000e+00
      618000000   -9,725613147e-02   -1,556634903e-02   -6,536295414e-01   -5,823487416e-02    0,000000000e+00    0,000000000e+00    0,000000000e+00    0,000000000e+00
      632000000   -8,129112422e-02    1,501764636e-02   -5,751916170e-01    3,029496968e-01    0,000000000e+00    0,000000000e+00    0,000000000e+00    0,000000000e+00
      646000000   -4,228284210e-02    2,679424174e-02   -3,181664646e-01    5,572159886e-01    0,000000000e+00    0,000000000e+00    0,000000000e+00    0,000000000e+00
      660000000   -7,508471143e-03    5,614482332e-03    2,147875167e-02    6,296135783e-01    0,000000000e+00    0,000000000e+00    0,000000000e+00    0,000000000e+00
      674000000    1,316068810e-03   -2,953193337e-02    3,438299596e-01    5,184708834e-01    0,000000000e+00    0,000000000e+00    0,000000000e+00    0,000000000e+00
      688000000   -1,495730877e-02   -5,550175160e-02    5,593273044e-01    2,583553791e-01    0,000000000e+00    0,000000000e+00    0,000000000e+00    0,000000000e+00
      702000000   -3,255667537e-02   -6,035775691e-02    6,041457057e-01   -7,724922895e-02    0,000000000e+00    0,000000000e+00    0,000000000e+00    0,000000000e+00
      716000000   -3,721992299e-02   -5,701553077e-02    4,593976438e-01   -3,908072710e-01    0,000000000e+00    0,000000000e+00    0,000000000e+00    0,000000000e+00
      730000000   -3,271499649e-02   -6,493581831e-02    1,731716692e-01   -5,655417442e-01    0,000000000e+00    0,000000000e+00    0,000000000e+00    0,000000000e+00
      744000000   -4,050841182e-02   -8,797296137e-02   -1,531922519e-01   -5,639021993e-01    0,000000000e+00    0,000000000e+00    0,000000000e+00    0,000000000e+00
      758000000   -7,315570861e-02   -1,039413214e-01   -4,276039004e-01   -3,934861422e-01    0,000000000e+00    0,000000000e+00    0,000000000e+00    0,000000000e+00
      772000000   -1,133891866e-01   -9,250873327e-02   -5,745094419e-01   -1,049364582e-01    0,000000000e+00    0,000000000e+00    0,000000000e+00    0,000000000e+00
      786000000   -1,383417994e-01   -5,456598476e-02   -5,439818501e-01    2,212505043e-01    0,000000000e+00    0,000000000e+00    0,000000000e+00    0,000000000e+00
      800000000   -1,311032623e-01   -1,475853007e-02   -3,410660923e-01    4,798069596e-01    0,000000000e+00    0,000000000e+00    0,000000000e+00    0,000000000e+00
      814000000   -1,079423651e-01    7,762582973e-03   -3,430575505e-02    5,860400200e-01    0,000000000e+00    0,000000000e+00    0,000000000e+00    0,000000000e+00
      828000000   -8,508064598e-02    1,176298503e-02    2,787492573e-01    5,136290193e-01    0,000000000e+00    0,000000000e+00    0,000000000e+00    0,000000000e+00
      842000000   -7,034225762e-02    1,349638589e-02    5,018594265e-01    2,887771130e-01    0,000000000e+00    0,000000000e+00    0,000000000e+00    0,000000000e+00
      856000000   -5,388477445e-02    1,814581454e-02    5,701804757e-01   -1,833805069e-02    0,000000000e+00    0,000000000e+00    0,000000000e+00    0,000000000e+00
      870000000   -2,411958203e-02    1,496291161e-02    4,636355340e-01   -3,058901131e-01    0,000000000e+00    0,000000000e+00    0,000000000e+00    0,000000000e+00
      884000000    4,783582408e-03   -1,401955448e-02    2,302787155e-01   -4,881396294e-01    0,000000000e+00    0,000000000e+00    0,000000000e+00    0,000000000e+00
      898000000    1,140702702e-02   -6,297623366e-02   -5,183283612e-02   -5,260527730e-01    0,000000000e+00    0,000000000e+00    0,000000000e+00    0,000000000e+00
      912000000   -2,346531861e-02   -1,070082560e-01   -3,625880480e-01   -3,948530853e-01    0,000000000e+00    0,000000000e+00    0,000000000e+00    0,000000000e+00
      926000000   -7,221093029e-02   -1,241193190e-01   -5,302270055e-01   -1,587780267e-01    0,000000000e+00    0,000000000e+00    0,000000000e+00    0,000000000e+00
      940000000   -1,213485748e-01   -9,970887005e-02   -5,501967072e-01    1,563049257e-01    0,000000000e+00    0,000000000e+00    0,000000000e+00    0,000000000e+00
      954000000   -1,430629790e-01   -5,977124348e-02   -3,936639130e-01    4,478014708e-01    0,000000000e+00    0,000000000e+00    0,000000000e+00    0,000000000e+00
      968000000   -1,335388720e-01   -3,009114601e-02   -9,027405828e-02    6,044942141e-01    0,000000000e+00    0,000000000e+00    0,000000000e+00    0,000000000e+00
      982000000   -1,161674708e-01   -1,990233175e-02    2,494042814e-01    5,723125935e-01    0,000000000e+00    0,000000000e+00    0,000000000e+00    0,000000000e+00
      996000000   -1,047710106e-01   -1,409698743e-02    5,153252482e-01    3,679609597e-01    0,000000000e+00    0,000000000e+00    0,000000000e+00    0,000000000e+00
     1010000000   -1,043625101e-01   -1,029670890e-02    6,300469637e-01    4,845693707e-02    0,000000000e+00    0,000000000e+00    0,000000000e+00    0,000000000e+00
     1024000000   -9,555699676e-02    2,902935026e-03    5,601593852e-01   -2,713206708e-01    0,000000000e+00    0,000000000e+00    0,000000000e+00    0,000000000e+00
     1038000000   -7,276265323e-02    2,613225486e-03    3,346534073e-01   -5,066313148e-01    0,000000000e+00    0,000000000e+00    0,000000000e+00    0,000000000e+00
     1052000000   -6,413694471e-02   -1,805860549e-02    2,966053598e-02   -5,834742785e-01    0,000000000e+00    0,000000000e+00    0,000000000e+00    0,000000000e+00
     1066000000   -6,685599685e-02   -3,401200101e-02   -2,754425108e-01   -5,001875162e-01    0,000000000e+00    0,000000000e+00    0,000000000e+00    0,000000000e+00
     1080000000   -8,444892615e-02   -3,377781063e-02   -4,811621308e-01   -2,698290348e-01    0,000000000e+00    0,000000000e+00    0,000000000e+00    0,000000000e+00
     1094000000   -8,290427178e-02   -2,126107179e-02   -5,327397585e-01    4,446576536e-02    0,000000000e+00    0,000000000e+00    0,000000000e+00    0,000000000e+00
     1108000000   -6,371888518e-02   -1,007661410e-02   -3,947635889e-01    3,287391663e-01    0,000000000e+00    0,000000000e+00    0,000000000e+00    0,000000000e+00
     1122000000   -3,577954322e-02   -3,721212596e-02   -1,291980445e-01    4,796772599e-01    0,000000000e+00    0,000000000e+00    0,000000000e+00    0,000000000e+00
     1136000000   -2,615370415e-02   -8,764033020e-02    1,644285619e-01    4,703139365e-01    0,000000000e+00    0,000000000e+00    0,000000000e+00    0,000000000e+00
     1150000000   -6,098916382e-02   -1,355962455e-01    4,192029238e-01    3,080945909e-01    0,000000000e+00    0,000000000e+00    0,000000000e+00    0,000000000e+00
     1164000000   -1,330066621e-01   -1,489254981e-01    5,616331697e-01    2,512974665e-02    0,000000000e+00    0,000000000e+00    0,000000000e+00    0,000000000e+00
     1178000000   -2,090851665e-01   -1,152237505e-01    5,244899392e-01   -3,144089282e-01    0,000000000e+00    0,000000000e+00    0,000000000e+00    0,000000000e+00
     1192000000   -2,445406765e-01   -4,540382326e-02    2,961980104e-01   -5,982311964e-01    0,000000000e+00    0,000000000e+00    0,000000000e+00    0,000000000e+00
     1206000000   -2,371124029e-01    2,808230743e-02   -6,504798681e-02   -6,954673529e-01    0,000000000e+00    0,000000000e+00    0,000000000e+00    0,000000000e+00
     1220000000   -1,858879030e-01    8,613854647e-02   -4,160138369e-01   -5,754885674e-01    0,000000000e+00    0,000000000e+00    0,000000000e+00    0,000000000e+00
     1234000000   -1,235470772e-01    1,033231393e-01   -6,407271028e-01   -2,926044166e-01    0,000000000e+00    0,000000000e+00    0,000000000e+00    0,000000000e+00
     1248000000   -6,861569732e-02    9,802370518e-02   -6,705514789e-01    6,154539436e-02    0,000000000e+00    0,000000000e+00    0,000000000e+00    0,000000000e+00
     1262000000   -1,014342718e-02    6,077433005e-02   -5,139836073e-01    3,625030518e-01    0,000000000e+00    0,000000000e+00    0,000000000e+00    0,000000000e+00
     1276000000    1,882673055e-02   -5,331450375e-04   -2,426880002e-01    5,455123782e-01    0,000000000e+00    0,000000000e+00    0,000000000e+00    0,000000000e+00
     1290000000    2,335808426e-02   -8,665115386e-02    7,174810022e-02    5,720829964e-01    0,000000000e+00    0,000000000e+00    0,000000000e+00    0,000000000e+00
     1304000000   -3,316435218e-02   -1,676816195e-01    3,634448051e-01    4,634829164e-01    0,000000000e+00    0,000000000e+00    0,000000000e+00    0,000000000e+00
     1318000000   -1,288641989e-01   -2,104119807e-01    5,830360055e-01    2,171678096e-01    0,000000000e+00    0,000000000e+00    0,000000000e+00    0,000000000e+00
     1332000000   -2,515366673e-01   -1,891486198e-01    6,519771218e-01   -1,287222356e-01    0,000000000e+00    0,000000000e+00    0,000000000e+00    0,000000000e+00
     1346000000   -3,320457041e-01   -9,666281939e-02    5,112566352e-01   -4,666793942e-01    0,000000000e+00    0,000000000e+00    0,000000000e+00    0,000000000e+00
     1360000000   -3,429370224e-01    2,877597883e-02    1,974271089e-01   -6,439613700e-01    0,000000000e+00    0,000000000e+00    0,000000000e+00    0,000000000e+00
     1374000000   -2,850735188e-01    1,042865142e-01   -1,558169574e-01   -5,985368490e-01    0,000000000e+00    0,000000000e+00    0,000000000e+00    0,000000000e+00
     1388000000   -2,135082632e-01    1,348164231e-01   -4,014804065e-01   -3,787040710e-01    0,000000000e+00    0,000000000e+00    0,000000000e+00    0,000000000e+00
     1402000000   -1,506664753e-01    1,469972134e-01   -4,810344279e-01   -5,519662425e-02    0,000000000e+00    0,000000000e+00    0,000000000e+00    0,000000000e+00
     1416000000   -9,968681633e-02    1,188999042e-01   -3,859160244e-01    2,438611686e-01    0,000000000e+00    0,000000000e+00    0,000000000e+00    0,000000000e+00
     1430000000   -5,456568673e-02    7,617346197e-02   -1,541483849e-01    4,688829482e-01    0,000000000e+00    0,000000000e+00    0,000000000e+00    0,000000000e+00
     1444000000   -3,676374629e-02   -9,480148437e-04    1,670806110e-01    5,233657360e-01    0,000000000e+00    0,000000000e+00    0,000000000e+00    0,000000000e+00
     1458000000   -6,208643317e-02   -7,142037153e-02    4,808011651e-01    4,795685410e-01    0,000000000e+00    0,000000000e+00    0,000000000e+00    0,000000000e+00
     1472000000   -1,336347759e-01   -1,263162792e-01    7,623583674e-01    2,526088953e-01    0,000000000e+00    0,000000000e+00    0,000000000e+00    0,000000000e+00
     1486000000   -2,343240976e-01   -1,116055548e-01    8,875760436e-01   -6,609831750e-02    0,000000000e+00    0,000000000e+00    0,000000000e+00    0,000000000e+00
     1500000000   -2,867144048e-01   -5,026954785e-02    8,021430969e-01   -4,741495848e-01    0,000000000e+00    0,000000000e+00    0,000000000e+00    0,000000000e+00
