! NanoVNA-App
! Date: 2025-09-25 15:11:51
! Start: 100MHz Stop: 1,5GHz Points: 101
! S-Parameter data: F S11 S21 S12 S22
# Hz S RI R 50
!     Frequency           S11_Real           S11_Imag           S21_Real           S21_Imag           S12_Real           S12_Imag           S22_Real           S22_Imag
      100000000    3,113360517e-02    2,863206528e-02    4,348971844e-01   -6,686568260e-01    0,000000000e+00    0,000000000e+00    0,000000000e+00    0,000000000e+00
      114000000    5,759854987e-02    5,474553443e-03    7,767776959e-03   -7,911236286e-01    0,000000000e+00    0,000000000e+00    0,000000000e+00    0,000000000e+00
      128000000    6,726513058e-02   -3,786582500e-02   -4,103634357e-01   -6,710658073e-01    0,000000000e+00    0,000000000e+00    0,000000000e+00    0,000000000e+00
      142000000    4,472199455e-02   -8,424993604e-02   -7,031117082e-01   -3,533132374e-01    0,000000000e+00    0,000000000e+00    0,000000000e+00    0,000000000e+00
      156000000   -5,641830619e-03   -1,062844619e-01   -7,866125703e-01    7,265033573e-02    0,000000000e+00    0,000000000e+00    0,000000000e+00    0,000000000e+00
      170000000   -5,766436830e-02   -9,069107473e-02   -6,274704933e-01    4,869560003e-01    0,000000000e+00    0,000000000e+00    0,000000000e+00    0,000000000e+00
      184000000   -8,368480206e-02   -4,948064312e-02   -2,650318444e-01    7,510582209e-01    0,000000000e+00    0,000000000e+00    0,000000000e+00    0,000000000e+00
      198000000   -7,964622974e-02   -1,046826784e-02    1,835467815e-01    7,734462619e-01    0,000000000e+00    0,000000000e+00    0,000000000e+00    0,000000000e+00
      212000000   -6,227659807e-02    1,314994786e-02    5,693283677e-01    5,492935181e-01    0,000000000e+00    0,000000000e+00    0,000000000e+00    0,000000000e+00
      226000000   -4,335192218e-02    2,771848999e-02    7,707398534e-01    1,545719057e-01    0,000000000e+00    0,000000000e+00    0,000000000e+00    0,000000000e+00
      240000000   -1,826940104e-02    3,853416815e-02    7,267467976e-01   -2,818400860e-01    0,000000000e+00    0,000000000e+00    0,000000000e+00    0,000000000e+00
      254000000    1,719188131e-02    3,521022946e-02    4,580101669e-01   -6,202036142e-01    0,000000000e+00    0,000000000e+00    0,000000000e+00    0,000000000e+00
      268000000    4,882531241e-02    5,615122616e-03    5,843024701e-02   -7,604104877e-01    0,000000000e+00    0,000000000e+00    0,000000000e+00    0,000000000e+00
      282000000    5,355802923e-02   -4,177909344e-02   -3,490596116e-01   -6,714071035e-01    0,000000000e+00    0,000000000e+00    0,000000000e+00    0,000000000e+00
      296000000    2,406759374e-02   -7,949035615e-02   -6,521377563e-01   -3,860540092e-01    0,000000000e+00    0,000000000e+00    0,000000000e+00    0,000000000e+00
      310000000   -1,783408411e-02   -8,311949670e-02   -7,629796863e-01    1,951941848e-02    0,000000000e+00    0,000000000e+00    0,000000000e+00    0,000000000e+00
      324000000   -4,165522754e-02   -5,884076282e-02   -6,321663857e-01    4,310967922e-01    0,000000000e+00    0,000000000e+00    0,000000000e+00    0,000000000e+00
      338000000   -3,442288935e-02   -3,676600009e-02   -2,976735234e-01    6,993473768e-01    0,000000000e+00    0,000000000e+00    0,000000000e+00    0,000000000e+00
      352000000   -1,721840352e-02   -4,073381424e-02    1,259191185e-01    7,421742678e-01    0,000000000e+00    0,000000000e+00    0,000000000e+00    0,000000000e+00
      366000000   -1,919499040e-02   -6,204099581e-02    4,979929030e-01    5,542687774e-01    0,000000000e+00    0,000000000e+00    0,000000000e+00    0,000000000e+00
      380000000   -4,452313855e-02   -7,281089574e-02    7,130974531e-01    1,999009401e-01    0,000000000e+00    0,000000000e+00    0,000000000e+00    0,000000000e+00
      394000000   -7,096365839e-02   -5,782134086e-02    7,040418983e-01   -2,159203440e-01    0,000000000e+00    0,000000000e+00    0,000000000e+00    0,000000000e+00
      408000000   -7,720238715e-02   -3,029929847e-02    4,703543782e-01   -5,587550998e-01    0,000000000e+00    0,000000000e+00    0,000000000e+00    0,000000000e+00
      422000000   -6,517156959e-02   -1,133023109e-02    9,430715442e-02   -7,187986970e-01    0,000000000e+00    0,000000000e+00    0,000000000e+00    0,000000000e+00
      436000000   -5,276672915e-02   -4,886128940e-03   -3,028825223e-01   -6,476666927e-01    0,000000000e+00    0,000000000e+00    0,000000000e+00    0,000000000e+00
      450000000   -4,456000775e-02    1,341770170e-03   -5,926917195e-01   -3,784736395e-01    0,000000000e+00    0,000000000e+00    0,000000000e+00    0,000000000e+00
      464000000   -2,954302728e-02    1,153251994e-02   -6,912418604e-01   -3,079990565e-04    0,000000000e+00    0,000000000e+00    0,000000000e+00    0,000000000e+00
      478000000   -1,584242447e-03    1,143412571e-02   -5,736882091e-01    3,631971478e-01    0,000000000e+00    0,000000000e+00    0,000000000e+00    0,000000000e+00
      492000000    2,782321349e-02   -1,229166426e-02   -2,891260087e-01    6,022699475e-01    0,000000000e+00    0,000000000e+00    0,000000000e+00    0,000000000e+00
      506000000    3,625514358e-02   -5,585634708e-02    6,820568442e-02    6,574449539e-01    0,000000000e+00    0,000000000e+00    0,000000000e+00    0,000000000e+00
      520000000    1,250950620e-02   -9,878702462e-02    4,062630534e-01    5,225595236e-01    0,000000000e+00    0,000000000e+00    0,000000000e+00    0,000000000e+00
      534000000   -3,429568931e-02   -1,157490015e-01    6,242025495e-01    2,364874035e-01    0,000000000e+00    0,000000000e+00    0,000000000e+00    0,000000000e+00
      548000000   -7,751279324e-02   -9,920853376e-02    6,579168439e-01   -1,329729706e-01    0,000000000e+00    0,000000000e+00    0,000000000e+00    0,000000000e+00
      562000000   -9,317614138e-02   -6,640968472e-02    4,820341766e-01   -4,670116305e-01    0,000000000e+00    0,000000000e+00    0,000000000e+00    0,000000000e+00
      576000000   -8,615912497e-02   -4,443091527e-02    1,509437561e-01   -6,483668685e-01    0,000000000e+00    0,000000000e+00    0,000000000e+00    0,000000000e+00
      590000000   -8,087398857e-02   -4,169654846e-02   -2,210647315e-01   -6,296572089e-01    0,000000000e+00    0,000000000e+00    0,000000000e+00    0,000000000e+00
      604000000   -8,870284259e-02   -3,757559136e-02   -5,190200210e-01   -4,071720839e-01    0,000000000e+00    0,000000000e+00    0,000000000e+00    0,000000000e+00
      618000000   -9,605157375e-02   -1,500117220e-02   -6,530594826e-01   -5,825374648e-02    0,000000000e+00    0,000000000e+00    0,000000000e+00    0,000000000e+00
      632000000   -8,126877248e-02    1,493675448e-02   -5,756119490e-01    3,025584221e-01    0,000000000e+00    0,000000000e+00    0,000000000e+00    0,000000000e+00
      646000000   -4,267044738e-02    2,680069953e-02   -3,183333278e-01    5,555507541e-01    0,000000000e+00    0,000000000e+00    0,000000000e+00    0,000000000e+00
      660000000   -8,185714483e-03    6,090361625e-03    2,114592120e-02    6,296213269e-01    0,000000000e+00    0,000000000e+00    0,000000000e+00    0,000000000e+00
      674000000    1,740028965e-03   -3,028701991e-02    3,423301280e-01    5,178732872e-01    0,000000000e+00    0,000000000e+00    0,000000000e+00    0,000000000e+00
      688000000   -1,548592746e-02   -5,574597418e-02    5,584758520e-01    2,585953474e-01    0,000000000e+00    0,000000000e+00    0,000000000e+00    0,000000000e+00
      702000000   -3,362781554e-02   -5,904512107e-02    6,056963205e-01   -8,293151110e-02    0,000000000e+00    0,000000000e+00    0,000000000e+00    0,000000000e+00
      716000000   -3,678667545e-02   -5,536811799e-02    4,598710835e-01   -3,902246952e-01    0,000000000e+00    0,000000000e+00    0,000000000e+00    0,000000000e+00
      730000000   -3,183375299e-02   -6,528916210e-02    1,743797660e-01   -5,664973259e-01    0,000000000e+00    0,000000000e+00    0,000000000e+00    0,000000000e+00
      744000000   -4,104217887e-02   -8,840464056e-02   -1,538486630e-01   -5,639963150e-01    0,000000000e+00    0,000000000e+00    0,000000000e+00    0,000000000e+00
      758000000   -7,286201417e-02   -1,052756608e-01   -4,274832606e-01   -3,949581981e-01    0,000000000e+00    0,000000000e+00    0,000000000e+00    0,000000000e+00
      772000000   -1,136887595e-01   -9,482325613e-02   -5,743315816e-01   -1,056426689e-01    0,000000000e+00    0,000000000e+00    0,000000000e+00    0,000000000e+00
      786000000   -1,393627524e-01   -5,594541878e-02   -5,447520614e-01    2,205161005e-01    0,000000000e+00    0,000000000e+00    0,000000000e+00    0,000000000e+00
      800000000   -1,323860288e-01   -1,428132877e-02   -3,422558904e-01    4,799037874e-01    0,000000000e+00    0,000000000e+00    0,000000000e+00    0,000000000e+00
      814000000   -1,084270105e-01    8,031210862e-03   -3,441492096e-02    5,865414739e-01    0,000000000e+00    0,000000000e+00    0,000000000e+00    0,000000000e+00
      828000000   -8,526940644e-02    1,359818317e-02    2,784564197e-01    5,154315233e-01    0,000000000e+00    0,000000000e+00    0,000000000e+00    0,000000000e+00
      842000000   -7,099086046e-02    1,466865744e-02    5,025838017e-01    2,903533578e-01    0,000000000e+00    0,000000000e+00    0,000000000e+00    0,000000000e+00
      856000000   -5,224386975e-02    2,001543529e-02    5,706922412e-01   -1,727545448e-02    0,000000000e+00    0,000000000e+00    0,000000000e+00    0,000000000e+00
      870000000   -2,302861586e-02    1,489333436e-02    4,640292823e-01   -3,062443137e-01    0,000000000e+00    0,000000000e+00    0,000000000e+00    0,000000000e+00
      884000000    6,599687971e-03   -1,429109741e-02    2,301822901e-01   -4,865427315e-01    0,000000000e+00    0,000000000e+00    0,000000000e+00    0,000000000e+00
      898000000    1,196172182e-02   -6,354498863e-02   -5,273324251e-02   -5,269035697e-01    0,000000000e+00    0,000000000e+00    0,000000000e+00    0,000000000e+00
      912000000   -2,386789769e-02   -1,085477546e-01   -3,584453464e-01   -4,105368853e-01    0,000000000e+00    0,000000000e+00    0,000000000e+00    0,000000000e+00
      926000000   -7,439201325e-02   -1,247512847e-01   -5,308078527e-01   -1,588801295e-01    0,000000000e+00    0,000000000e+00    0,000000000e+00    0,000000000e+00
      940000000   -1,208943874e-01   -1,025749594e-01   -5,517696142e-01    1,570846289e-01    0,000000000e+00    0,000000000e+00    0,000000000e+00    0,000000000e+00
      954000000   -1,397402436e-01   -5,996925756e-02   -3,899148107e-01    4,466675520e-01    0,000000000e+00    0,000000000e+00    0,000000000e+00    0,000000000e+00
      968000000   -1,322973669e-01   -2,587009594e-02   -9,096587449e-02    6,029650569e-01    0,000000000e+00    0,000000000e+00    0,000000000e+00    0,000000000e+00
      982000000   -1,144488379e-01   -1,863926277e-02    2,454367429e-01    5,741158128e-01    0,000000000e+00    0,000000000e+00    0,000000000e+00    0,000000000e+00
      996000000   -1,032913625e-01   -1,457575522e-02    5,134747028e-01    3,657700121e-01    0,000000000e+00    0,000000000e+00    0,000000000e+00    0,000000000e+00
     1010000000   -1,002711207e-01   -6,375919562e-03    6,284562349e-01    5,160445720e-02    0,000000000e+00    0,000000000e+00    0,000000000e+00    0,000000000e+00
     1024000000   -9,402753413e-02    3,083708463e-03    5,609238744e-01   -2,709146738e-01    0,000000000e+00    0,000000000e+00    0,000000000e+00    0,000000000e+00
     1038000000   -7,824564725e-02   -2,678088844e-03    3,367194235e-01   -5,036055446e-01    0,000000000e+00    0,000000000e+00    0,000000000e+00    0,000000000e+00
     1052000000   -6,589754671e-02   -1,927208342e-02    3,308136389e-02   -5,846274495e-01    0,000000000e+00    0,000000000e+00    0,000000000e+00    0,000000000e+00
     1066000000   -6,845511496e-02   -3,291799501e-02   -2,643713057e-01   -5,004305243e-01    0,000000000e+00    0,000000000e+00    0,000000000e+00    0,000000000e+00
     1080000000   -7,887621224e-02   -3,113320656e-02   -4,803255498e-01   -2,709738016e-01    0,000000000e+00    0,000000000e+00    0,000000000e+00    0,000000000e+00
     1094000000   -7,844480127e-02   -1,436045859e-02   -5,318938494e-01    4,347876459e-02    0,000000000e+00    0,000000000e+00    0,000000000e+00    0,000000000e+00
     1108000000   -5,875783786e-02   -1,423691493e-02   -3,978010118e-01    3,268791437e-01    0,000000000e+00    0,000000000e+00    0,000000000e+00    0,000000000e+00
     1122000000   -3,314199671e-02   -3,395990655e-02   -1,360536665e-01    4,833939970e-01    0,000000000e+00    0,000000000e+00    0,000000000e+00    0,000000000e+00
     1136000000   -2,416358329e-02   -8,480516076e-02    1,642719805e-01    4,759742022e-01    0,000000000e+00    0,000000000e+00    0,000000000e+00    0,000000000e+00
     1150000000   -6,725464016e-02   -1,334202290e-01    4,215578437e-01    3,131663203e-01    0,000000000e+00    0,000000000e+00    0,000000000e+00    0,000000000e+00
     1164000000   -1,411985457e-01   -1,545138806e-01    5,621992946e-01    2,836189978e-02    0,000000000e+00    0,000000000e+00    0,000000000e+00    0,000000000e+00
     1178000000   -2,108520418e-01   -1,157213449e-01    5,320213437e-01   -3,166375458e-01    0,000000000e+00    0,000000000e+00    0,000000000e+00    0,000000000e+00
     1192000000   -2,456344217e-01   -4,630476981e-02    2,997270525e-01   -5,977902412e-01    0,000000000e+00    0,000000000e+00    0,000000000e+00    0,000000000e+00
     1206000000   -2,284651697e-01    3,527075052e-02   -6,548179686e-02   -7,004298568e-01    0,000000000e+00    0,000000000e+00    0,000000000e+00    0,000000000e+00
     1220000000   -1,844432652e-01    8,317684382e-02   -4,173730314e-01   -5,786105394e-01    0,000000000e+00    0,000000000e+00    0,000000000e+00    0,000000000e+00
     1234000000   -1,323650926e-01    1,028683260e-01   -6,484486461e-01   -2,883582413e-01    0,000000000e+00    0,000000000e+00    0,000000000e+00    0,000000000e+00
     1248000000   -7,076241076e-02    9,561131150e-02   -6,764419675e-01    6,282953173e-02    0,000000000e+00    0,000000000e+00    0,000000000e+00    0,000000000e+00
     1262000000   -1,504723169e-02    6,273438036e-02   -5,239279866e-01    3,732912540e-01    0,000000000e+00    0,000000000e+00    0,000000000e+00    0,000000000e+00
     1276000000    2,242949978e-02   -2,524755895e-03   -2,436792552e-01    5,454473495e-01    0,000000000e+00    0,000000000e+00    0,000000000e+00    0,000000000e+00
     1290000000    2,578662895e-02   -8,373514563e-02    6,490356475e-02    5,770419240e-01    0,000000000e+00    0,000000000e+00    0,000000000e+00    0,000000000e+00
     1304000000   -3,355403990e-02   -1,687004268e-01    3,647109270e-01    4,669149518e-01    0,000000000e+00    0,000000000e+00    0,000000000e+00    0,000000000e+00
     1318000000   -1,353313327e-01   -2,173252255e-01    5,887489319e-01    2,167094201e-01    0,000000000e+00    0,000000000e+00    0,000000000e+00    0,000000000e+00
     1332000000   -2,570476234e-01   -1,891888231e-01    6,489271522e-01   -1,308736056e-01    0,000000000e+00    0,000000000e+00    0,000000000e+00    0,000000000e+00
     1346000000   -3,254941702e-01   -8,925468475e-02    5,048407316e-01   -4,628582001e-01    0,000000000e+00    0,000000000e+00    0,000000000e+00    0,000000000e+00
     1360000000   -3,357882500e-01    3,191415593e-02    1,891832352e-01   -6,404426098e-01    0,000000000e+00    0,000000000e+00    0,000000000e+00    0,000000000e+00
     1374000000   -2,833059132e-01    1,024459451e-01   -1,651793867e-01   -6,085782647e-01    0,000000000e+00    0,000000000e+00    0,000000000e+00    0,000000000e+00
     1388000000   -2,144599557e-01    1,415035874e-01   -4,067732394e-01   -3,806603849e-01    0,000000000e+00    0,000000000e+00    0,000000000e+00    0,000000000e+00
     1402000000   -1,458899826e-01    1,409692913e-01   -4,727996588e-01   -6,702435017e-02    0,000000000e+00    0,000000000e+00    0,000000000e+00    0,000000000e+00
     1416000000   -9,616436809e-02    1,128251627e-01   -3,789370954e-01    2,452586889e-01    0,000000000e+00    0,000000000e+00    0,000000000e+00    0,000000000e+00
     1430000000   -5,180066824e-02    7,659868151e-02   -1,235091016e-01    4,587898254e-01    0,000000000e+00    0,000000000e+00    0,000000000e+00    0,000000000e+00
     1444000000   -4,252550006e-02    2,292137826e-03    1,540932953e-01    5,341857672e-01    0,000000000e+00    0,000000000e+00    0,000000000e+00    0,000000000e+00
     1458000000   -6,550244987e-02   -7,593689859e-02    4,827148616e-01    4,726399481e-01    0,000000000e+00    0,000000000e+00    0,000000000e+00    0,000000000e+00
     1472000000   -1,368948519e-01   -1,223799735e-01    7,496849298e-01    2,647301853e-01    0,000000000e+00    0,000000000e+00    0,000000000e+00    0,000000000e+00
     1486000000   -2,320516706e-01   -1,155692860e-01    8,906727433e-01   -7,949697226e-02    0,000000000e+00    0,000000000e+00    0,000000000e+00    0,000000000e+00
     1500000000   -2,835533023e-01   -4,244146496e-02    8,138836026e-01   -4,511485100e-01    0,000000000e+00    0,000000000e+00    0,000000000e+00    0,000000000e+00
