! NanoVNA-App
! Date: 2025-09-25 15:08:50
! Start: 100MHz Stop: 1,5GHz Points: 101
! S-Parameter data: F S11 S21 S12 S22
# Hz S RI R 50
!     Frequency           S11_Real           S11_Imag           S21_Real           S21_Imag           S12_Real           S12_Imag           S22_Real           S22_Imag
      100000000    3,114497289e-02    2,865638584e-02    4,348803759e-01   -6,686833501e-01    0,000000000e+00    0,000000000e+00    0,000000000e+00    0,000000000e+00
      114000000    5,759745836e-02    5,503212102e-03    7,741536014e-03   -7,909836173e-01    0,000000000e+00    0,000000000e+00    0,000000000e+00    0,000000000e+00
      128000000    6,727547944e-02   -3,786970675e-02   -4,103080332e-01   -6,710857153e-01    0,000000000e+00    0,000000000e+00    0,000000000e+00    0,000000000e+00
      142000000    4,470770061e-02   -8,419900388e-02   -7,028311491e-01   -3,531340361e-01    0,000000000e+00    0,000000000e+00    0,000000000e+00    0,000000000e+00
      156000000   -5,456203595e-03   -1,064827442e-01   -7,871025801e-01    7,305312157e-02    0,000000000e+00    0,000000000e+00    0,000000000e+00    0,000000000e+00
      170000000   -5,760494992e-02   -9,062671661e-02   -6,274530888e-01    4,869752228e-01    0,000000000e+00    0,000000000e+00    0,000000000e+00    0,000000000e+00
      184000000   -8,369205892e-02   -4,949020222e-02   -2,645633817e-01    7,510337234e-01    0,000000000e+00    0,000000000e+00    0,000000000e+00    0,000000000e+00
      198000000   -7,964697480e-02   -1,047532354e-02    1,834065318e-01    7,733300328e-01    0,000000000e+00    0,000000000e+00    0,000000000e+00    0,000000000e+00
      212000000   -6,229027733e-02    1,321951486e-02    5,691769719e-01    5,492516160e-01    0,000000000e+00    0,000000000e+00    0,000000000e+00    0,000000000e+00
      226000000   -4,328225181e-02    2,764934301e-02    7,707106471e-01    1,546308100e-01    0,000000000e+00    0,000000000e+00    0,000000000e+00    0,000000000e+00
      240000000   -1,825581864e-02    3,848280758e-02    7,268868685e-01   -2,818817496e-01    0,000000000e+00    0,000000000e+00    0,000000000e+00    0,000000000e+00
      254000000    1,719177701e-02    3,518087044e-02    4,579325914e-01   -6,198725104e-01    0,000000000e+00    0,000000000e+00    0,000000000e+00    0,000000000e+00
      268000000    4,880261049e-02    5,628205836e-03    5,871227756e-02   -7,598264217e-01    0,000000000e+00    0,000000000e+00    0,000000000e+00    0,000000000e+00
      282000000    5,348064750e-02   -4,174838588e-02   -3,491827548e-01   -6,719244719e-01    0,000000000e+00    0,000000000e+00    0,000000000e+00    0,000000000e+00
      296000000    2,399978973e-02   -7,945253700e-02   -6,516823173e-01   -3,853446245e-01    0,000000000e+00    0,000000000e+00    0,000000000e+00    0,000000000e+00
      310000000   -1,774625294e-02   -8,310915530e-02   -7,642930746e-01    2,015078999e-02    0,000000000e+00    0,000000000e+00    0,000000000e+00    0,000000000e+00
      324000000   -4,161661491e-02   -5,874092504e-02   -6,320246458e-01    4,310154319e-01    0,000000000e+00    0,000000000e+00    0,000000000e+00    0,000000000e+00
      338000000   -3,423824534e-02   -3,694117814e-02   -2,952284813e-01    7,030416131e-01    0,000000000e+00    0,000000000e+00    0,000000000e+00    0,000000000e+00
      352000000   -1,730582304e-02   -4,069005698e-02    1,246861815e-01    7,425162792e-01    0,000000000e+00    0,000000000e+00    0,000000000e+00    0,000000000e+00
      366000000   -1,937968656e-02   -6,193805486e-02    4,977170527e-01    5,543178320e-01    0,000000000e+00    0,000000000e+00    0,000000000e+00    0,000000000e+00
      380000000   -4,460707679e-02   -7,280415297e-02    7,131124139e-01    1,991940588e-01    0,000000000e+00    0,000000000e+00    0,000000000e+00    0,000000000e+00
      394000000   -7,079946250e-02   -5,797683820e-02    7,044938207e-01   -2,169848382e-01    0,000000000e+00    0,000000000e+00    0,000000000e+00    0,000000000e+00
      408000000   -7,709164172e-02   -3,054363281e-02    4,703762829e-01   -5,601111054e-01    0,000000000e+00    0,000000000e+00    0,000000000e+00    0,000000000e+00
      422000000   -6,543096155e-02   -1,105745416e-02    9,283531457e-02   -7,176831365e-01    0,000000000e+00    0,000000000e+00    0,000000000e+00    0,000000000e+00
      436000000   -5,284177884e-02   -4,126254469e-03   -3,018854558e-01   -6,473703384e-01    0,000000000e+00    0,000000000e+00    0,000000000e+00    0,000000000e+00
      450000000   -4,440594465e-02    1,683232957e-03   -5,931023955e-01   -3,786121309e-01    0,000000000e+00    0,000000000e+00    0,000000000e+00    0,000000000e+00
      464000000   -2,948784083e-02    1,112939231e-02   -6,915244460e-01    7,964447286e-05    0,000000000e+00    0,000000000e+00    0,000000000e+00    0,000000000e+00
      478000000   -1,180781052e-03    1,081920974e-02   -5,736281276e-01    3,630803823e-01    0,000000000e+00    0,000000000e+00    0,000000000e+00    0,000000000e+00
      492000000    2,775478177e-02   -1,226974651e-02   -2,890381813e-01    6,017126441e-01    0,000000000e+00    0,000000000e+00    0,000000000e+00    0,000000000e+00
      506000000    3,638570011e-02   -5,549830571e-02    6,947365403e-02    6,592970490e-01    0,000000000e+00    0,000000000e+00    0,000000000e+00    0,000000000e+00
      520000000    1,301587094e-02   -9,835110605e-02    4,028285742e-01    5,302826762e-01    0,000000000e+00    0,000000000e+00    0,000000000e+00    0,000000000e+00
      534000000   -3,451089188e-02   -1,159308106e-01    6,238551140e-01    2,360288650e-01    0,000000000e+00    0,000000000e+00    0,000000000e+00    0,000000000e+00
      548000000   -7,768698037e-02   -9,946632385e-02    6,580030322e-01   -1,333250254e-01    0,000000000e+00    0,000000000e+00    0,000000000e+00    0,000000000e+00
      562000000   -9,351810813e-02   -6,584329903e-02    4,815202951e-01   -4,672199488e-01    0,000000000e+00    0,000000000e+00    0,000000000e+00    0,000000000e+00
      576000000   -8,638586104e-02   -4,445930570e-02    1,502947658e-01   -6,483533382e-01    0,000000000e+00    0,000000000e+00    0,000000000e+00    0,000000000e+00
      590000000   -8,059440553e-02   -4,177496955e-02   -2,212714404e-01   -6,264539361e-01    0,000000000e+00    0,000000000e+00    0,000000000e+00    0,000000000e+00
      604000000   -8,862567693e-02   -3,746243194e-02   -5,189531446e-01   -4,064612985e-01    0,000000000e+00    0,000000000e+00    0,000000000e+00    0,000000000e+00
      618000000   -9,685695916e-02   -1,533153001e-02   -6,533756256e-01   -5,872372165e-02    0,000000000e+00    0,000000000e+00    0,000000000e+00    0,000000000e+00
      632000000   -8,113995194e-02    1,477039047e-02   -5,754846334e-01    3,030238450e-01    0,000000000e+00    0,000000000e+00    0,000000000e+00    0,000000000e+00
      646000000   -4,311323911e-02    2,663131431e-02   -3,184731901e-01    5,561566949e-01    0,000000000e+00    0,000000000e+00    0,000000000e+00    0,000000000e+00
      660000000   -8,065359667e-03    5,440911278e-03    2,072281390e-02    6,297313571e-01    0,000000000e+00    0,000000000e+00    0,000000000e+00    0,000000000e+00
      674000000    1,063650474e-03   -3,064948507e-02    3,428898454e-01    5,180470347e-01    0,000000000e+00    0,000000000e+00    0,000000000e+00    0,000000000e+00
      688000000   -1,401058678e-02   -5,571149662e-02    5,584068298e-01    2,588324547e-01    0,000000000e+00    0,000000000e+00    0,000000000e+00    0,000000000e+00
      702000000   -3,371902555e-02   -5,991927907e-02    6,065210104e-01   -7,851518691e-02    0,000000000e+00    0,000000000e+00    0,000000000e+00    0,000000000e+00
      716000000   -3,794626147e-02   -5,561655387e-02    4,599927962e-01   -3,897289932e-01    0,000000000e+00    0,000000000e+00    0,000000000e+00    0,000000000e+00
      730000000   -3,223437071e-02   -6,554781646e-02    1,742536426e-01   -5,663308501e-01    0,000000000e+00    0,000000000e+00    0,000000000e+00    0,000000000e+00
      744000000   -3,950235993e-02   -8,846198767e-02   -1,537244320e-01   -5,642520189e-01    0,000000000e+00    0,000000000e+00    0,000000000e+00    0,000000000e+00
      758000000   -7,166413218e-02   -1,044596881e-01   -4,281591773e-01   -3,949899971e-01    0,000000000e+00    0,000000000e+00    0,000000000e+00    0,000000000e+00
      772000000   -1,138421223e-01   -9,349945933e-02   -5,747380853e-01   -1,058352590e-01    0,000000000e+00    0,000000000e+00    0,000000000e+00    0,000000000e+00
      786000000   -1,383260489e-01   -5,664911866e-02   -5,454266071e-01    2,206347436e-01    0,000000000e+00    0,000000000e+00    0,000000000e+00    0,000000000e+00
      800000000   -1,322966665e-01   -1,465526875e-02   -3,424065113e-01    4,796830714e-01    0,000000000e+00    0,000000000e+00    0,000000000e+00    0,000000000e+00
      814000000   -1,082452908e-01    8,063348010e-03   -3,468533233e-02    5,864080191e-01    0,000000000e+00    0,000000000e+00    0,000000000e+00    0,000000000e+00
      828000000   -8,583584428e-02    1,381670590e-02    2,772116661e-01    5,145159364e-01    0,000000000e+00    0,000000000e+00    0,000000000e+00    0,000000000e+00
      842000000   -7,091654837e-02    1,474634185e-02    5,024023652e-01    2,889708281e-01    0,000000000e+00    0,000000000e+00    0,000000000e+00    0,000000000e+00
      856000000   -5,240409821e-02    1,870083436e-02    5,706428885e-01   -1,758987270e-02    0,000000000e+00    0,000000000e+00    0,000000000e+00    0,000000000e+00
      870000000   -2,248029597e-02    1,421286166e-02    4,638974965e-01   -3,068645895e-01    0,000000000e+00    0,000000000e+00    0,000000000e+00    0,000000000e+00
      884000000    6,488529034e-03   -1,426788885e-02    2,298822403e-01   -4,892760217e-01    0,000000000e+00    0,000000000e+00    0,000000000e+00    0,000000000e+00
      898000000    1,191637851e-02   -6,374496222e-02   -5,292340741e-02   -5,272036195e-01    0,000000000e+00    0,000000000e+00    0,000000000e+00    0,000000000e+00
      912000000   -2,337231487e-02   -1,086226180e-01   -3,562638760e-01   -4,103380144e-01    0,000000000e+00    0,000000000e+00    0,000000000e+00    0,000000000e+00
      926000000   -7,597554475e-02   -1,238643378e-01   -5,315673947e-01   -1,582360268e-01    0,000000000e+00    0,000000000e+00    0,000000000e+00    0,000000000e+00
      940000000   -1,223094836e-01   -1,006242260e-01   -5,528525114e-01    1,552326977e-01    0,000000000e+00    0,000000000e+00    0,000000000e+00    0,000000000e+00
      954000000   -1,424642801e-01   -6,436947733e-02   -3,895472586e-01    4,431870878e-01    0,000000000e+00    0,000000000e+00    0,000000000e+00    0,000000000e+00
      968000000   -1,337715387e-01   -2,710116655e-02   -9,193429351e-02    6,011916399e-01    0,000000000e+00    0,000000000e+00    0,000000000e+00    0,000000000e+00
      982000000   -1,163257435e-01   -1,588016935e-02    2,463306189e-01    5,746954083e-01    0,000000000e+00    0,000000000e+00    0,000000000e+00    0,000000000e+00
      996000000   -1,077155843e-01   -1,611028425e-02    5,105122924e-01    3,659279048e-01    0,000000000e+00    0,000000000e+00    0,000000000e+00    0,000000000e+00
     1010000000   -1,048459560e-01   -6,506717298e-03    6,289083958e-01    5,503202230e-02    0,000000000e+00    0,000000000e+00    0,000000000e+00    0,000000000e+00
     1024000000   -8,952455223e-02    3,097816661e-04    5,595038533e-01   -2,708575428e-01    0,000000000e+00    0,000000000e+00    0,000000000e+00    0,000000000e+00
     1038000000   -7,733424753e-02   -5,124802236e-03    3,372278810e-01   -5,038925409e-01    0,000000000e+00    0,000000000e+00    0,000000000e+00    0,000000000e+00
     1052000000   -6,617230922e-02   -1,223572623e-02    3,537487611e-02   -5,856134892e-01    0,000000000e+00    0,000000000e+00    0,000000000e+00    0,000000000e+00
     1066000000   -7,195953280e-02   -2,749249339e-02   -2,639230192e-01   -5,018480420e-01    0,000000000e+00    0,000000000e+00    0,000000000e+00    0,000000000e+00
     1080000000   -8,452151716e-02   -3,022956662e-02   -4,803463519e-01   -2,676889002e-01    0,000000000e+00    0,000000000e+00    0,000000000e+00    0,000000000e+00
     1094000000   -8,308598399e-02   -1,918975823e-02   -5,333410501e-01    4,362702370e-02    0,000000000e+00    0,000000000e+00    0,000000000e+00    0,000000000e+00
     1108000000   -5,906243622e-02   -7,982112467e-03   -3,977114260e-01    3,249943554e-01    0,000000000e+00    0,000000000e+00    0,000000000e+00    0,000000000e+00
     1122000000   -2,826505341e-02   -3,617422655e-02   -1,371789277e-01    4,799962342e-01    0,000000000e+00    0,000000000e+00    0,000000000e+00    0,000000000e+00
     1136000000   -3,055063821e-02   -8,488907665e-02    1,627447605e-01    4,749334455e-01    0,000000000e+00    0,000000000e+00    0,000000000e+00    0,000000000e+00
     1150000000   -6,366853416e-02   -1,308929473e-01    4,190925658e-01    3,145473003e-01    0,000000000e+00    0,000000000e+00    0,000000000e+00    0,000000000e+00
     1164000000   -1,360058933e-01   -1,556498557e-01    5,634345412e-01    2,838711441e-02    0,000000000e+00    0,000000000e+00    0,000000000e+00    0,000000000e+00
     1178000000   -2,129954398e-01   -1,153128818e-01    5,308232903e-01   -3,148568571e-01    0,000000000e+00    0,000000000e+00    0,000000000e+00    0,000000000e+00
     1192000000   -2,512912154e-01   -4,689653218e-02    2,961320281e-01   -5,986477137e-01    0,000000000e+00    0,000000000e+00    0,000000000e+00    0,000000000e+00
     1206000000   -2,332227677e-01    3,036977723e-02   -6,693813950e-02   -6,953306198e-01    0,000000000e+00    0,000000000e+00    0,000000000e+00    0,000000000e+00
     1220000000   -1,807259768e-01    8,272410184e-02   -4,204686880e-01   -5,764768720e-01    0,000000000e+00    0,000000000e+00    0,000000000e+00    0,000000000e+00
     1234000000   -1,263936013e-01    1,077318117e-01   -6,461303830e-01   -2,895367742e-01    0,000000000e+00    0,000000000e+00    0,000000000e+00    0,000000000e+00
     1248000000   -6,648448110e-02    9,839977324e-02   -6,750689149e-01    6,744799763e-02    0,000000000e+00    0,000000000e+00    0,000000000e+00    0,000000000e+00
     1262000000   -1,542724576e-02    6,102287024e-02   -5,232234597e-01    3,714165986e-01    0,000000000e+00    0,000000000e+00    0,000000000e+00    0,000000000e+00
     1276000000    2,585040592e-02    1,197349397e-03   -2,423198819e-01    5,478771925e-01    0,000000000e+00    0,000000000e+00    0,000000000e+00    0,000000000e+00
     1290000000    2,341380715e-02   -8,945369720e-02    7,158799469e-02    5,732066035e-01    0,000000000e+00    0,000000000e+00    0,000000000e+00    0,000000000e+00
     1304000000   -3,106136248e-02   -1,693460196e-01    3,662252128e-01    4,690334797e-01    0,000000000e+00    0,000000000e+00    0,000000000e+00    0,000000000e+00
     1318000000   -1,332279742e-01   -2,167042345e-01    5,909680724e-01    2,239331454e-01    0,000000000e+00    0,000000000e+00    0,000000000e+00    0,000000000e+00
     1332000000   -2,538102567e-01   -1,847786605e-01    6,589785814e-01   -1,262367517e-01    0,000000000e+00    0,000000000e+00    0,000000000e+00    0,000000000e+00
     1346000000   -3,313019574e-01   -9,313303232e-02    5,158026814e-01   -4,657803178e-01    0,000000000e+00    0,000000000e+00    0,000000000e+00    0,000000000e+00
     1360000000   -3,385325372e-01    2,182357572e-02    1,925780475e-01   -6,518716216e-01    0,000000000e+00    0,000000000e+00    0,000000000e+00    0,000000000e+00
     1374000000   -2,798832357e-01    1,098855659e-01   -1,616836041e-01   -5,951623917e-01    0,000000000e+00    0,000000000e+00    0,000000000e+00    0,000000000e+00
     1388000000   -2,165305465e-01    1,398337334e-01   -4,087577164e-01   -3,775687218e-01    0,000000000e+00    0,000000000e+00    0,000000000e+00    0,000000000e+00
     1402000000   -1,521464288e-01    1,416249871e-01   -4,751591682e-01   -6,004251540e-02    0,000000000e+00    0,000000000e+00    0,000000000e+00    0,000000000e+00
     1416000000   -9,587766230e-02    1,105471402e-01   -3,772430420e-01    2,390354276e-01    0,000000000e+00    0,000000000e+00    0,000000000e+00    0,000000000e+00
     1430000000   -5,006099492e-02    6,822197139e-02   -1,438214630e-01    4,297657311e-01    0,000000000e+00    0,000000000e+00    0,000000000e+00    0,000000000e+00
     1444000000   -3,618697077e-02    6,579230831e-05    1,632814854e-01    5,302895904e-01    0,000000000e+00    0,000000000e+00    0,000000000e+00    0,000000000e+00
     1458000000   -6,461341679e-02   -7,120482624e-02    4,824471474e-01    4,788166881e-01    0,000000000e+00    0,000000000e+00    0,000000000e+00    0,000000000e+00
     1472000000   -1,333074272e-01   -1,191858053e-01    7,692371011e-01    2,668687105e-01    0,000000000e+00    0,000000000e+00    0,000000000e+00    0,000000000e+00
     1486000000   -2,265143245e-01   -1,191890240e-01    8,937930465e-01   -9,751676023e-02    0,000000000e+00    0,000000000e+00    0,000000000e+00    0,000000000e+00
     1500000000   -2,888196707e-01   -4,332823306e-02    7,891054153e-01   -4,475680888e-01    0,000000000e+00    0,000000000e+00    0,000000000e+00    0,000000000e+00
