! NanoVNA-App
! Date: 2025-09-25 15:10:54
! Start: 100MHz Stop: 1,5GHz Points: 101
! S-Parameter data: F S11 S21 S12 S22
# Hz S RI R 50
!     Frequency           S11_Real           S11_Imag           S21_Real           S21_Imag           S12_Real           S12_Imag           S22_Real           S22_Imag
      100000000    3,116017208e-02    2,863860503e-02    4,348613024e-01   -6,685371399e-01    0,000000000e+00    0,000000000e+00    0,000000000e+00    0,000000000e+00
      114000000    5,760218203e-02    5,466636270e-03    7,731365506e-03   -7,908442616e-01    0,000000000e+00    0,000000000e+00    0,000000000e+00    0,000000000e+00
      128000000    6,730026752e-02   -3,786005825e-02   -4,103380144e-01   -6,712166667e-01    0,000000000e+00    0,000000000e+00    0,000000000e+00    0,000000000e+00
      142000000    4,471548647e-02   -8,422151953e-02   -7,027530074e-01   -3,532128036e-01    0,000000000e+00    0,000000000e+00    0,000000000e+00    0,000000000e+00
      156000000   -5,804045126e-03   -1,068438888e-01   -7,866654992e-01    7,378431410e-02    0,000000000e+00    0,000000000e+00    0,000000000e+00    0,000000000e+00
      170000000   -5,763904750e-02   -9,060798585e-02   -6,278247833e-01    4,870771468e-01    0,000000000e+00    0,000000000e+00    0,000000000e+00    0,000000000e+00
      184000000   -8,372945338e-02   -4,950317368e-02   -2,650988400e-01    7,509998679e-01    0,000000000e+00    0,000000000e+00    0,000000000e+00    0,000000000e+00
      198000000   -7,963707298e-02   -1,045703795e-02    1,833747923e-01    7,730625868e-01    0,000000000e+00    0,000000000e+00    0,000000000e+00    0,000000000e+00
      212000000   -6,230016053e-02    1,318898890e-02    5,692085028e-01    5,490968227e-01    0,000000000e+00    0,000000000e+00    0,000000000e+00    0,000000000e+00
      226000000   -4,327302799e-02    2,764441259e-02    7,707038522e-01    1,546441019e-01    0,000000000e+00    0,000000000e+00    0,000000000e+00    0,000000000e+00
      240000000   -1,818488725e-02    3,850926086e-02    7,267806530e-01   -2,818776369e-01    0,000000000e+00    0,000000000e+00    0,000000000e+00    0,000000000e+00
      254000000    1,717935689e-02    3,520048410e-02    4,582051039e-01   -6,201633811e-01    0,000000000e+00    0,000000000e+00    0,000000000e+00    0,000000000e+00
      268000000    4,882910848e-02    5,637211725e-03    5,862490833e-02   -7,601578236e-01    0,000000000e+00    0,000000000e+00    0,000000000e+00    0,000000000e+00
      282000000    5,345843732e-02   -4,189830646e-02   -3,491539955e-01   -6,719748378e-01    0,000000000e+00    0,000000000e+00    0,000000000e+00    0,000000000e+00
      296000000    2,409263328e-02   -7,954858243e-02   -6,520155072e-01   -3,853805065e-01    0,000000000e+00    0,000000000e+00    0,000000000e+00    0,000000000e+00
      310000000   -1,800714619e-02   -8,334662765e-02   -7,625223398e-01    1,943761110e-02    0,000000000e+00    0,000000000e+00    0,000000000e+00    0,000000000e+00
      324000000   -4,184428975e-02   -5,873405188e-02   -6,325151920e-01    4,308222234e-01    0,000000000e+00    0,000000000e+00    0,000000000e+00    0,000000000e+00
      338000000   -3,462824598e-02   -3,697170690e-02   -2,948835492e-01    7,014402151e-01    0,000000000e+00    0,000000000e+00    0,000000000e+00    0,000000000e+00
      352000000   -1,737429015e-02   -4,066865146e-02    1,250370145e-01    7,426086664e-01    0,000000000e+00    0,000000000e+00    0,000000000e+00    0,000000000e+00
      366000000   -1,942454465e-02   -6,203202531e-02    4,982240796e-01    5,549787283e-01    0,000000000e+00    0,000000000e+00    0,000000000e+00    0,000000000e+00
      380000000   -4,456707835e-02   -7,263766229e-02    7,132937312e-01    1,994183064e-01    0,000000000e+00    0,000000000e+00    0,000000000e+00    0,000000000e+00
      394000000   -7,071357220e-02   -5,799266696e-02    7,048703432e-01   -2,164863199e-01    0,000000000e+00    0,000000000e+00    0,000000000e+00    0,000000000e+00
      408000000   -7,703346014e-02   -3,039249592e-02    4,715709984e-01   -5,604184270e-01    0,000000000e+00    0,000000000e+00    0,000000000e+00    0,000000000e+00
      422000000   -6,546358764e-02   -1,119886059e-02    9,287969768e-02   -7,189422250e-01    0,000000000e+00    0,000000000e+00    0,000000000e+00    0,000000000e+00
      436000000   -5,272375792e-02   -4,494376946e-03   -3,012554049e-01   -6,476901174e-01    0,000000000e+00    0,000000000e+00    0,000000000e+00    0,000000000e+00
      450000000   -4,448747262e-02    1,419746433e-03   -5,929933786e-01   -3,780569732e-01    0,000000000e+00    0,000000000e+00    0,000000000e+00    0,000000000e+00
      464000000   -2,949757129e-02    1,134558860e-02   -6,914672852e-01   -8,996398537e-05    0,000000000e+00    0,000000000e+00    0,000000000e+00    0,000000000e+00
      478000000   -1,269232482e-03    1,101718657e-02   -5,732781291e-01    3,628568351e-01    0,000000000e+00    0,000000000e+00    0,000000000e+00    0,000000000e+00
      492000000    2,765601501e-02   -1,239309087e-02   -2,896353602e-01    6,022607088e-01    0,000000000e+00    0,000000000e+00    0,000000000e+00    0,000000000e+00
      506000000    3,614851460e-02   -5,593201518e-02    6,810688227e-02    6,582629085e-01    0,000000000e+00    0,000000000e+00    0,000000000e+00    0,000000000e+00
      520000000    1,251652185e-02   -9,880130738e-02    4,054089189e-01    5,279933214e-01    0,000000000e+00    0,000000000e+00    0,000000000e+00    0,000000000e+00
      534000000   -3,452266380e-02   -1,161942109e-01    6,240942478e-01    2,363434881e-01    0,000000000e+00    0,000000000e+00    0,000000000e+00    0,000000000e+00
      548000000   -7,715192437e-02   -9,929429740e-02    6,581410170e-01   -1,332172751e-01    0,000000000e+00    0,000000000e+00    0,000000000e+00    0,000000000e+00
      562000000   -9,366907179e-02   -6,637234986e-02    4,815120697e-01   -4,667320549e-01    0,000000000e+00    0,000000000e+00    0,000000000e+00    0,000000000e+00
      576000000   -8,610097319e-02   -4,410141706e-02    1,502373368e-01   -6,477234364e-01    0,000000000e+00    0,000000000e+00    0,000000000e+00    0,000000000e+00
      590000000   -8,115017414e-02   -4,162873700e-02   -2,185043991e-01   -6,274209619e-01    0,000000000e+00    0,000000000e+00    0,000000000e+00    0,000000000e+00
      604000000   -8,892051131e-02   -3,741139546e-02   -5,191564560e-01   -4,063802361e-01    0,000000000e+00    0,000000000e+00    0,000000000e+00    0,000000000e+00
      618000000   -9,649302065e-02   -1,551949326e-02   -6,535001397e-01   -5,836331472e-02    0,000000000e+00    0,000000000e+00    0,000000000e+00    0,000000000e+00
      632000000   -8,156675845e-02    1,512760762e-02   -5,760717988e-01    3,025346696e-01    0,000000000e+00    0,000000000e+00    0,000000000e+00    0,000000000e+00
      646000000   -4,243230820e-02    2,682960033e-02   -3,192065358e-01    5,568493605e-01    0,000000000e+00    0,000000000e+00    0,000000000e+00    0,000000000e+00
      660000000   -7,947041653e-03    6,211144850e-03    2,121614106e-02    6,283521652e-01    0,000000000e+00    0,000000000e+00    0,000000000e+00    0,000000000e+00
      674000000    6,729526795e-04   -3,004079685e-02    3,417050540e-01    5,173362494e-01    0,000000000e+00    0,000000000e+00    0,000000000e+00    0,000000000e+00
      688000000   -1,493338216e-02   -5,613908917e-02    5,585240126e-01    2,591575086e-01    0,000000000e+00    0,000000000e+00    0,000000000e+00    0,000000000e+00
      702000000   -3,393205628e-02   -5,924937874e-02    6,029195189e-01   -8,195440471e-02    0,000000000e+00    0,000000000e+00    0,000000000e+00    0,000000000e+00
      716000000   -3,752353042e-02   -5,619790033e-02    4,593096972e-01   -3,900931776e-01    0,000000000e+00    0,000000000e+00    0,000000000e+00    0,000000000e+00
      730000000   -3,184616193e-02   -6,546913832e-02    1,744012237e-01   -5,659306645e-01    0,000000000e+00    0,000000000e+00    0,000000000e+00    0,000000000e+00
      744000000   -3,977489844e-02   -8,892028779e-02   -1,530341208e-01   -5,641273856e-01    0,000000000e+00    0,000000000e+00    0,000000000e+00    0,000000000e+00
      758000000   -7,189872116e-02   -1,045937315e-01   -4,267818034e-01   -3,945886195e-01    0,000000000e+00    0,000000000e+00    0,000000000e+00    0,000000000e+00
      772000000   -1,145540774e-01   -9,372074157e-02   -5,744025707e-01   -1,061988696e-01    0,000000000e+00    0,000000000e+00    0,000000000e+00    0,000000000e+00
      786000000   -1,394558102e-01   -5,631345138e-02   -5,449459553e-01    2,208178341e-01    0,000000000e+00    0,000000000e+00    0,000000000e+00    0,000000000e+00
      800000000   -1,328087449e-01   -1,529957727e-02   -3,417426348e-01    4,797795415e-01    0,000000000e+00    0,000000000e+00    0,000000000e+00    0,000000000e+00
      814000000   -1,089137420e-01    8,327865973e-03   -3,363624960e-02    5,851248503e-01    0,000000000e+00    0,000000000e+00    0,000000000e+00    0,000000000e+00
      828000000   -8,547784388e-02    1,393407118e-02    2,787050307e-01    5,149831772e-01    0,000000000e+00    0,000000000e+00    0,000000000e+00    0,000000000e+00
      842000000   -7,080124319e-02    1,453881804e-02    5,024227500e-01    2,899948657e-01    0,000000000e+00    0,000000000e+00    0,000000000e+00    0,000000000e+00
      856000000   -5,256932974e-02    1,934156381e-02    5,704404116e-01   -1,774489135e-02    0,000000000e+00    0,000000000e+00    0,000000000e+00    0,000000000e+00
      870000000   -2,325236239e-02    1,432477403e-02    4,641615152e-01   -3,067931831e-01    0,000000000e+00    0,000000000e+00    0,000000000e+00    0,000000000e+00
      884000000    6,320487242e-03   -1,467477717e-02    2,308594435e-01   -4,890800714e-01    0,000000000e+00    0,000000000e+00    0,000000000e+00    0,000000000e+00
      898000000    1,167113241e-02   -6,338929385e-02   -5,312424153e-02   -5,259913206e-01    0,000000000e+00    0,000000000e+00    0,000000000e+00    0,000000000e+00
      912000000   -2,284432203e-02   -1,084076315e-01   -3,527838588e-01   -4,062930346e-01    0,000000000e+00    0,000000000e+00    0,000000000e+00    0,000000000e+00
      926000000   -7,680585235e-02   -1,248110160e-01   -5,334755182e-01   -1,597472876e-01    0,000000000e+00    0,000000000e+00    0,000000000e+00    0,000000000e+00
      940000000   -1,217081174e-01   -1,013561115e-01   -5,516396165e-01    1,562385261e-01    0,000000000e+00    0,000000000e+00    0,000000000e+00    0,000000000e+00
      954000000   -1,434368193e-01   -5,778260157e-02   -3,928367496e-01    4,464044571e-01    0,000000000e+00    0,000000000e+00    0,000000000e+00    0,000000000e+00
      968000000   -1,292869449e-01   -2,721149847e-02   -9,079161286e-02    6,039887071e-01    0,000000000e+00    0,000000000e+00    0,000000000e+00    0,000000000e+00
      982000000   -1,128233522e-01   -1,409585215e-02    2,442682385e-01    5,708193779e-01    0,000000000e+00    0,000000000e+00    0,000000000e+00    0,000000000e+00
      996000000   -1,058903635e-01   -1,050361246e-02    5,118845701e-01    3,672217131e-01    0,000000000e+00    0,000000000e+00    0,000000000e+00    0,000000000e+00
     1010000000   -1,031772941e-01   -5,116651766e-03    6,271042824e-01    5,211879313e-02    0,000000000e+00    0,000000000e+00    0,000000000e+00    0,000000000e+00
     1024000000   -8,860581368e-02    6,536829751e-04    5,593286157e-01   -2,706588507e-01    0,000000000e+00    0,000000000e+00    0,000000000e+00    0,000000000e+00
     1038000000   -7,708271593e-02   -3,969737794e-03    3,392775953e-01   -5,036376119e-01    0,000000000e+00    0,000000000e+00    0,000000000e+00    0,000000000e+00
     1052000000   -6,373219937e-02   -1,817764714e-02    3,385886550e-02   -5,852420330e-01    0,000000000e+00    0,000000000e+00    0,000000000e+00    0,000000000e+00
     1066000000   -6,715609133e-02   -2,950827591e-02   -2,672917247e-01   -5,019218922e-01    0,000000000e+00    0,000000000e+00    0,000000000e+00    0,000000000e+00
     1080000000   -8,508336544e-02   -3,382473439e-02   -4,797469378e-01   -2,708625495e-01    0,000000000e+00    0,000000000e+00    0,000000000e+00    0,000000000e+00
     1094000000   -8,189794421e-02   -1,322156563e-02   -5,321540236e-01    4,178171232e-02    0,000000000e+00    0,000000000e+00    0,000000000e+00    0,000000000e+00
     1108000000   -5,811223760e-02   -1,424540207e-02   -3,989197612e-01    3,279149830e-01    0,000000000e+00    0,000000000e+00    0,000000000e+00    0,000000000e+00
     1122000000   -3,436010331e-02   -3,515613452e-02   -1,362528801e-01    4,823805392e-01    0,000000000e+00    0,000000000e+00    0,000000000e+00    0,000000000e+00
     1136000000   -2,508612163e-02   -8,245132118e-02    1,616444290e-01    4,732775390e-01    0,000000000e+00    0,000000000e+00    0,000000000e+00    0,000000000e+00
     1150000000   -6,823775917e-02   -1,339919865e-01    4,192481935e-01    3,110395670e-01    0,000000000e+00    0,000000000e+00    0,000000000e+00    0,000000000e+00
     1164000000   -1,397967190e-01   -1,548385918e-01    5,629917383e-01    2,898659743e-02    0,000000000e+00    0,000000000e+00    0,000000000e+00    0,000000000e+00
     1178000000   -2,105185390e-01   -1,153941453e-01    5,334003568e-01   -3,181295395e-01    0,000000000e+00    0,000000000e+00    0,000000000e+00    0,000000000e+00
     1192000000   -2,466344088e-01   -4,924747720e-02    2,997281253e-01   -5,992656350e-01    0,000000000e+00    0,000000000e+00    0,000000000e+00    0,000000000e+00
     1206000000   -2,377923131e-01    3,312783316e-02   -6,561942399e-02   -6,973850131e-01    0,000000000e+00    0,000000000e+00    0,000000000e+00    0,000000000e+00
     1220000000   -1,876290441e-01    8,256898820e-02   -4,202595055e-01   -5,787900686e-01    0,000000000e+00    0,000000000e+00    0,000000000e+00    0,000000000e+00
     1234000000   -1,274463534e-01    1,027179807e-01   -6,483048797e-01   -2,913282514e-01    0,000000000e+00    0,000000000e+00    0,000000000e+00    0,000000000e+00
     1248000000   -6,741458178e-02    9,564929456e-02   -6,750545502e-01    6,340923160e-02    0,000000000e+00    0,000000000e+00    0,000000000e+00    0,000000000e+00
     1262000000   -1,644571871e-02    6,203481928e-02   -5,199146867e-01    3,661036491e-01    0,000000000e+00    0,000000000e+00    0,000000000e+00    0,000000000e+00
     1276000000    2,286867052e-02   -6,196835078e-03   -2,468150705e-01    5,428135395e-01    0,000000000e+00    0,000000000e+00    0,000000000e+00    0,000000000e+00
     1290000000    2,367195301e-02   -8,950243145e-02    7,238773257e-02    5,733438134e-01    0,000000000e+00    0,000000000e+00    0,000000000e+00    0,000000000e+00
     1304000000   -3,287360817e-02   -1,722830683e-01    3,639411926e-01    4,621993899e-01    0,000000000e+00    0,000000000e+00    0,000000000e+00    0,000000000e+00
     1318000000   -1,317882687e-01   -2,168353796e-01    5,866992474e-01    2,144185007e-01    0,000000000e+00    0,000000000e+00    0,000000000e+00    0,000000000e+00
     1332000000   -2,538543046e-01   -1,848770231e-01    6,425460577e-01   -1,272696257e-01    0,000000000e+00    0,000000000e+00    0,000000000e+00    0,000000000e+00
     1346000000   -3,278893530e-01   -8,607488871e-02    5,103201866e-01   -4,575325251e-01    0,000000000e+00    0,000000000e+00    0,000000000e+00    0,000000000e+00
     1360000000   -3,356936574e-01    2,424859256e-02    1,927602291e-01   -6,414062381e-01    0,000000000e+00    0,000000000e+00    0,000000000e+00    0,000000000e+00
     1374000000   -2,847009301e-01    1,027103588e-01   -1,592030972e-01   -6,043056250e-01    0,000000000e+00    0,000000000e+00    0,000000000e+00    0,000000000e+00
     1388000000   -2,162226886e-01    1,361792684e-01   -4,122887254e-01   -3,754808605e-01    0,000000000e+00    0,000000000e+00    0,000000000e+00    0,000000000e+00
     1402000000   -1,484322846e-01    1,383863688e-01   -4,815191329e-01   -6,110594422e-02    0,000000000e+00    0,000000000e+00    0,000000000e+00    0,000000000e+00
     1416000000   -9,485224634e-02    1,121123210e-01   -3,726047575e-01    2,446538359e-01    0,000000000e+00    0,000000000e+00    0,000000000e+00    0,000000000e+00
     1430000000   -6,281957775e-02    6,853862107e-02   -1,441490203e-01    4,408725202e-01    0,000000000e+00    0,000000000e+00    0,000000000e+00    0,000000000e+00
     1444000000   -3,751844168e-02    6,124047562e-03    1,582360715e-01    5,426820517e-01    0,000000000e+00    0,000000000e+00    0,000000000e+00    0,000000000e+00
     1458000000   -5,989883468e-02   -7,235597819e-02    4,968098104e-01    4,767254889e-01    0,000000000e+00    0,000000000e+00    0,000000000e+00    0,000000000e+00
     1472000000   -1,383182555e-01   -1,264352947e-01    7,495088577e-01    2,581387162e-01    0,000000000e+00    0,000000000e+00    0,000000000e+00    0,000000000e+00
     1486000000   -2,295975089e-01   -1,046543494e-01    8,941385746e-01   -7,548710704e-02    0,000000000e+00    0,000000000e+00    0,000000000e+00    0,000000000e+00
     1500000000   -2,854122519e-01   -5,784281716e-02    7,892092466e-01   -4,635873437e-01    0,000000000e+00    0,000000000e+00    0,000000000e+00    0,000000000e+00
