! NanoVNA-App
! Date: 2025-09-25 15:07:34
! Start: 100MHz Stop: 1,5GHz Points: 101
! S-Parameter data: F S11 S21 S12 S22
# Hz S RI R 50
!     Frequency           S11_Real           S11_Imag           S21_Real           S21_Imag           S12_Real           S12_Imag           S22_Real           S22_Imag
      100000000    3,114697151e-02    2,864313498e-02    4,348481297e-01   -6,686331034e-01    0,000000000e+00    0,000000000e+00    0,000000000e+00    0,000000000e+00
      114000000    5,759766325e-02    5,467925686e-03    7,661015727e-03   -7,910766602e-01    0,000000000e+00    0,000000000e+00    0,000000000e+00    0,000000000e+00
      128000000    6,730803102e-02   -3,783514351e-02   -4,101766050e-01   -6,710014939e-01    0,000000000e+00    0,000000000e+00    0,000000000e+00    0,000000000e+00
      142000000    4,473482817e-02   -8,424716443e-02   -7,030041218e-01   -3,532539606e-01    0,000000000e+00    0,000000000e+00    0,000000000e+00    0,000000000e+00
      156000000   -5,549916066e-03   -1,069300398e-01   -7,872341871e-01    7,410318404e-02    0,000000000e+00    0,000000000e+00    0,000000000e+00    0,000000000e+00
      170000000   -5,771381781e-02   -9,064944834e-02   -6,276431680e-01    4,870322347e-01    0,000000000e+00    0,000000000e+00    0,000000000e+00    0,000000000e+00
      184000000   -8,368779719e-02   -4,947399721e-02   -2,649502456e-01    7,509980798e-01    0,000000000e+00    0,000000000e+00    0,000000000e+00    0,000000000e+00
      198000000   -7,962457836e-02   -1,046951860e-02    1,834725440e-01    7,734184861e-01    0,000000000e+00    0,000000000e+00    0,000000000e+00    0,000000000e+00
      212000000   -6,225802749e-02    1,320505608e-02    5,694716573e-01    5,490986705e-01    0,000000000e+00    0,000000000e+00    0,000000000e+00    0,000000000e+00
      226000000   -4,329306632e-02    2,774088457e-02    7,706716657e-01    1,543829292e-01    0,000000000e+00    0,000000000e+00    0,000000000e+00    0,000000000e+00
      240000000   -1,821575686e-02    3,847637773e-02    7,268156409e-01   -2,818512917e-01    0,000000000e+00    0,000000000e+00    0,000000000e+00    0,000000000e+00
      254000000    1,720175520e-02    3,519109637e-02    4,578717351e-01   -6,202203631e-01    0,000000000e+00    0,000000000e+00    0,000000000e+00    0,000000000e+00
      268000000    4,880293459e-02    5,600868724e-03    5,896988884e-02   -7,598049045e-01    0,000000000e+00    0,000000000e+00    0,000000000e+00    0,000000000e+00
      282000000    5,349637941e-02   -4,180241004e-02   -3,489723802e-01   -6,717870831e-01    0,000000000e+00    0,000000000e+00    0,000000000e+00    0,000000000e+00
      296000000    2,407915890e-02   -7,953388989e-02   -6,520456076e-01   -3,856917322e-01    0,000000000e+00    0,000000000e+00    0,000000000e+00    0,000000000e+00
      310000000   -1,768296398e-02   -8,320368826e-02   -7,621313334e-01    2,013671584e-02    0,000000000e+00    0,000000000e+00    0,000000000e+00    0,000000000e+00
      324000000   -4,150643572e-02   -5,875793844e-02   -6,322176456e-01    4,309165478e-01    0,000000000e+00    0,000000000e+00    0,000000000e+00    0,000000000e+00
      338000000   -3,444181383e-02   -3,678612411e-02   -2,957586944e-01    6,977248192e-01    0,000000000e+00    0,000000000e+00    0,000000000e+00    0,000000000e+00
      352000000   -1,736202277e-02   -4,070852697e-02    1,250760853e-01    7,429184914e-01    0,000000000e+00    0,000000000e+00    0,000000000e+00    0,000000000e+00
      366000000   -1,938668638e-02   -6,189923733e-02    4,974308014e-01    5,538181067e-01    0,000000000e+00    0,000000000e+00    0,000000000e+00    0,000000000e+00
      380000000   -4,470054805e-02   -7,310193777e-02    7,132822871e-01    1,996269077e-01    0,000000000e+00    0,000000000e+00    0,000000000e+00    0,000000000e+00
      394000000   -7,074892521e-02   -5,776051432e-02    7,045698762e-01   -2,163735926e-01    0,000000000e+00    0,000000000e+00    0,000000000e+00    0,000000000e+00
      408000000   -7,692376524e-02   -3,043162636e-02    4,705198407e-01   -5,600823164e-01    0,000000000e+00    0,000000000e+00    0,000000000e+00    0,000000000e+00
      422000000   -6,547588110e-02   -1,118010748e-02    9,308464825e-02   -7,185032964e-01    0,000000000e+00    0,000000000e+00    0,000000000e+00    0,000000000e+00
      436000000   -5,311597884e-02   -4,559063818e-03   -3,024468720e-01   -6,469609737e-01    0,000000000e+00    0,000000000e+00    0,000000000e+00    0,000000000e+00
      450000000   -4,454588890e-02    1,767278416e-03   -5,927558541e-01   -3,781102896e-01    0,000000000e+00    0,000000000e+00    0,000000000e+00    0,000000000e+00
      464000000   -2,931776084e-02    1,095101144e-02   -6,913163662e-01    4,018289474e-05    0,000000000e+00    0,000000000e+00    0,000000000e+00    0,000000000e+00
      478000000   -7,803099579e-04    1,136392821e-02   -5,729631782e-01    3,633861542e-01    0,000000000e+00    0,000000000e+00    0,000000000e+00    0,000000000e+00
      492000000    2,757574804e-02   -1,206125971e-02   -2,889851332e-01    6,022441387e-01    0,000000000e+00    0,000000000e+00    0,000000000e+00    0,000000000e+00
      506000000    3,631041944e-02   -5,561465025e-02    6,923303753e-02    6,585969329e-01    0,000000000e+00    0,000000000e+00    0,000000000e+00    0,000000000e+00
      520000000    1,299932878e-02   -9,842470288e-02    3,992786407e-01    5,260808468e-01    0,000000000e+00    0,000000000e+00    0,000000000e+00    0,000000000e+00
      534000000   -3,398019820e-02   -1,161406264e-01    6,241369247e-01    2,355802953e-01    0,000000000e+00    0,000000000e+00    0,000000000e+00    0,000000000e+00
      548000000   -7,701413333e-02   -9,947219491e-02    6,581166983e-01   -1,336148977e-01    0,000000000e+00    0,000000000e+00    0,000000000e+00    0,000000000e+00
      562000000   -9,379415959e-02   -6,632036716e-02    4,818710089e-01   -4,670909047e-01    0,000000000e+00    0,000000000e+00    0,000000000e+00    0,000000000e+00
      576000000   -8,599328250e-02   -4,493731260e-02    1,505272239e-01   -6,482008696e-01    0,000000000e+00    0,000000000e+00    0,000000000e+00    0,000000000e+00
      590000000   -8,069730550e-02   -4,195023701e-02   -2,206761092e-01   -6,284626126e-01    0,000000000e+00    0,000000000e+00    0,000000000e+00    0,000000000e+00
      604000000   -8,895159513e-02   -3,684171289e-02   -5,198158026e-01   -4,057987630e-01    0,000000000e+00    0,000000000e+00    0,000000000e+00    0,000000000e+00
      618000000   -9,625821561e-02   -1,552076358e-02   -6,527340412e-01   -5,838463455e-02    0,000000000e+00    0,000000000e+00    0,000000000e+00    0,000000000e+00
      632000000   -8,143641800e-02    1,513741072e-02   -5,753875375e-01    3,030487001e-01    0,000000000e+00    0,000000000e+00    0,000000000e+00    0,000000000e+00
      646000000   -4,281070083e-02    2,575172298e-02   -3,197641671e-01    5,552416444e-01    0,000000000e+00    0,000000000e+00    0,000000000e+00    0,000000000e+00
      660000000   -7,322219666e-03    5,570990033e-03    2,135107480e-02    6,312026978e-01    0,000000000e+00    0,000000000e+00    0,000000000e+00    0,000000000e+00
      674000000    4,407399683e-04   -2,983958088e-02    3,423866630e-01    5,176160932e-01    0,000000000e+00    0,000000000e+00    0,000000000e+00    0,000000000e+00
      688000000   -1,414006203e-02   -5,538039282e-02    5,583999753e-01    2,584930360e-01    0,000000000e+00    0,000000000e+00    0,000000000e+00    0,000000000e+00
      702000000   -3,342900053e-02   -6,031101570e-02    6,042343974e-01   -7,933125645e-02    0,000000000e+00    0,000000000e+00    0,000000000e+00    0,000000000e+00
      716000000   -3,755030781e-02   -5,543065444e-02    4,602763951e-01   -3,901496530e-01    0,000000000e+00    0,000000000e+00    0,000000000e+00    0,000000000e+00
      730000000   -3,242412210e-02   -6,544600427e-02    1,738417000e-01   -5,660467148e-01    0,000000000e+00    0,000000000e+00    0,000000000e+00    0,000000000e+00
      744000000   -4,115635529e-02   -8,888483047e-02   -1,531707942e-01   -5,633643270e-01    0,000000000e+00    0,000000000e+00    0,000000000e+00    0,000000000e+00
      758000000   -7,238230109e-02   -1,057282835e-01   -4,272466898e-01   -3,940045834e-01    0,000000000e+00    0,000000000e+00    0,000000000e+00    0,000000000e+00
      772000000   -1,134931818e-01   -9,432431310e-02   -5,746574998e-01   -1,058767959e-01    0,000000000e+00    0,000000000e+00    0,000000000e+00    0,000000000e+00
      786000000   -1,393354237e-01   -5,658846721e-02   -5,449832678e-01    2,208683342e-01    0,000000000e+00    0,000000000e+00    0,000000000e+00    0,000000000e+00
      800000000   -1,326794475e-01   -1,494238060e-02   -3,410399556e-01    4,808043242e-01    0,000000000e+00    0,000000000e+00    0,000000000e+00    0,000000000e+00
      814000000   -1,076496691e-01    8,536078967e-03   -3,351409733e-02    5,858114362e-01    0,000000000e+00    0,000000000e+00    0,000000000e+00    0,000000000e+00
      828000000   -8,531315625e-02    1,308044977e-02    2,786335945e-01    5,134387612e-01    0,000000000e+00    0,000000000e+00    0,000000000e+00    0,000000000e+00
      842000000   -7,089149952e-02    1,517498307e-02    5,026827455e-01    2,893526554e-01    0,000000000e+00    0,000000000e+00    0,000000000e+00    0,000000000e+00
      856000000   -5,288967490e-02    1,925789937e-02    5,706487298e-01   -1,782745868e-02    0,000000000e+00    0,000000000e+00    0,000000000e+00    0,000000000e+00
      870000000   -2,332719415e-02    1,393126603e-02    4,633195698e-01   -3,063978851e-01    0,000000000e+00    0,000000000e+00    0,000000000e+00    0,000000000e+00
      884000000    6,338849198e-03   -1,489122957e-02    2,307390124e-01   -4,888288975e-01    0,000000000e+00    0,000000000e+00    0,000000000e+00    0,000000000e+00
      898000000    1,184940990e-02   -6,334049255e-02   -5,270734429e-02   -5,266339779e-01    0,000000000e+00    0,000000000e+00    0,000000000e+00    0,000000000e+00
      912000000   -2,296509966e-02   -1,084995568e-01   -3,570345640e-01   -3,935078382e-01    0,000000000e+00    0,000000000e+00    0,000000000e+00    0,000000000e+00
      926000000   -7,670189440e-02   -1,230935901e-01   -5,319586992e-01   -1,586081982e-01    0,000000000e+00    0,000000000e+00    0,000000000e+00    0,000000000e+00
      940000000   -1,249678656e-01   -1,038949713e-01   -5,515047908e-01    1,536455899e-01    0,000000000e+00    0,000000000e+00    0,000000000e+00    0,000000000e+00
      954000000   -1,407556832e-01   -5,860256776e-02   -3,930682540e-01    4,465731978e-01    0,000000000e+00    0,000000000e+00    0,000000000e+00    0,000000000e+00
      968000000   -1,286931634e-01   -2,888784185e-02   -9,173194319e-02    6,011734009e-01    0,000000000e+00    0,000000000e+00    0,000000000e+00    0,000000000e+00
      982000000   -1,119646654e-01   -1,542423479e-02    2,473060787e-01    5,717661381e-01    0,000000000e+00    0,000000000e+00    0,000000000e+00    0,000000000e+00
      996000000   -1,082381010e-01   -1,117160358e-02    5,119723678e-01    3,643917143e-01    0,000000000e+00    0,000000000e+00    0,000000000e+00    0,000000000e+00
     1010000000   -1,048678979e-01   -9,403332137e-03    6,299171448e-01    5,326596648e-02    0,000000000e+00    0,000000000e+00    0,000000000e+00    0,000000000e+00
     1024000000   -9,237285703e-02    3,295817878e-03    5,613652468e-01   -2,705371380e-01    0,000000000e+00    0,000000000e+00    0,000000000e+00    0,000000000e+00
     1038000000   -7,267946750e-02   -2,773120999e-03    3,364941776e-01   -5,057532191e-01    0,000000000e+00    0,000000000e+00    0,000000000e+00    0,000000000e+00
     1052000000   -6,617425382e-02   -1,792258583e-02    3,330116719e-02   -5,855724216e-01    0,000000000e+00    0,000000000e+00    0,000000000e+00    0,000000000e+00
     1066000000   -7,185468078e-02   -2,807557210e-02   -2,616825402e-01   -5,041799545e-01    0,000000000e+00    0,000000000e+00    0,000000000e+00    0,000000000e+00
     1080000000   -7,832471281e-02   -2,869853005e-02   -4,795113206e-01   -2,724746764e-01    0,000000000e+00    0,000000000e+00    0,000000000e+00    0,000000000e+00
     1094000000   -8,135499805e-02   -1,480359863e-02   -5,297423601e-01    4,305604100e-02    0,000000000e+00    0,000000000e+00    0,000000000e+00    0,000000000e+00
     1108000000   -5,624601990e-02   -1,337174699e-02   -3,972731829e-01    3,253910542e-01    0,000000000e+00    0,000000000e+00    0,000000000e+00    0,000000000e+00
     1122000000   -2,759480290e-02   -3,452963382e-02   -1,376603842e-01    4,823025167e-01    0,000000000e+00    0,000000000e+00    0,000000000e+00    0,000000000e+00
     1136000000   -3,038243018e-02   -8,800350130e-02    1,637172401e-01    4,763712585e-01    0,000000000e+00    0,000000000e+00    0,000000000e+00    0,000000000e+00
     1150000000   -6,407953054e-02   -1,370862573e-01    4,189463556e-01    3,131419122e-01    0,000000000e+00    0,000000000e+00    0,000000000e+00    0,000000000e+00
     1164000000   -1,361017376e-01   -1,492647976e-01    5,633161068e-01    2,545142174e-02    0,000000000e+00    0,000000000e+00    0,000000000e+00    0,000000000e+00
     1178000000   -2,120336890e-01   -1,171017736e-01    5,288798809e-01   -3,156791031e-01    0,000000000e+00    0,000000000e+00    0,000000000e+00    0,000000000e+00
     1192000000   -2,498463094e-01   -4,437373579e-02    2,927639484e-01   -5,966383815e-01    0,000000000e+00    0,000000000e+00    0,000000000e+00    0,000000000e+00
     1206000000   -2,322690636e-01    3,771953657e-02   -6,618718058e-02   -6,985630989e-01    0,000000000e+00    0,000000000e+00    0,000000000e+00    0,000000000e+00
     1220000000   -1,828445345e-01    8,232211322e-02   -4,231311679e-01   -5,790312290e-01    0,000000000e+00    0,000000000e+00    0,000000000e+00    0,000000000e+00
     1234000000   -1,297683716e-01    1,033585891e-01   -6,421913505e-01   -2,897537947e-01    0,000000000e+00    0,000000000e+00    0,000000000e+00    0,000000000e+00
     1248000000   -6,857232004e-02    9,503634274e-02   -6,745598316e-01    6,033511832e-02    0,000000000e+00    0,000000000e+00    0,000000000e+00    0,000000000e+00
     1262000000   -1,295476407e-02    6,367254257e-02   -5,203462243e-01    3,737743795e-01    0,000000000e+00    0,000000000e+00    0,000000000e+00    0,000000000e+00
     1276000000    2,124277130e-02   -7,925551035e-04   -2,428055853e-01    5,478931069e-01    0,000000000e+00    0,000000000e+00    0,000000000e+00    0,000000000e+00
     1290000000    2,467509732e-02   -8,573706448e-02    7,388411462e-02    5,781506300e-01    0,000000000e+00    0,000000000e+00    0,000000000e+00    0,000000000e+00
     1304000000   -3,095412627e-02   -1,726246327e-01    3,686909676e-01    4,580869079e-01    0,000000000e+00    0,000000000e+00    0,000000000e+00    0,000000000e+00
     1318000000   -1,365612894e-01   -2,164035141e-01    5,827105045e-01    2,178026140e-01    0,000000000e+00    0,000000000e+00    0,000000000e+00    0,000000000e+00
     1332000000   -2,548287809e-01   -1,884295642e-01    6,563574076e-01   -1,321347952e-01    0,000000000e+00    0,000000000e+00    0,000000000e+00    0,000000000e+00
     1346000000   -3,306972384e-01   -9,108343720e-02    5,056692362e-01   -4,647259116e-01    0,000000000e+00    0,000000000e+00    0,000000000e+00    0,000000000e+00
     1360000000   -3,323894143e-01    2,998854220e-02    1,937295347e-01   -6,486487389e-01    0,000000000e+00    0,000000000e+00    0,000000000e+00    0,000000000e+00
     1374000000   -2,777482569e-01    1,041741967e-01   -1,526270658e-01   -6,001392603e-01    0,000000000e+00    0,000000000e+00    0,000000000e+00    0,000000000e+00
     1388000000   -2,142076641e-01    1,421843320e-01   -4,015159011e-01   -3,736046553e-01    0,000000000e+00    0,000000000e+00    0,000000000e+00    0,000000000e+00
     1402000000   -1,470833868e-01    1,384118795e-01   -4,835893214e-01   -5,761472136e-02    0,000000000e+00    0,000000000e+00    0,000000000e+00    0,000000000e+00
     1416000000   -9,015284479e-02    1,214608401e-01   -3,678114116e-01    2,451349795e-01    0,000000000e+00    0,000000000e+00    0,000000000e+00    0,000000000e+00
     1430000000   -5,062743649e-02    6,951766461e-02   -1,369249076e-01    4,278971255e-01    0,000000000e+00    0,000000000e+00    0,000000000e+00    0,000000000e+00
     1444000000   -4,103812948e-02    7,263199077e-04    1,584780067e-01    5,248965025e-01    0,000000000e+00    0,000000000e+00    0,000000000e+00    0,000000000e+00
     1458000000   -5,874947831e-02   -7,556825131e-02    4,841302931e-01    4,705960751e-01    0,000000000e+00    0,000000000e+00    0,000000000e+00    0,000000000e+00
     1472000000   -1,437662393e-01   -1,277068406e-01    7,511683106e-01    2,521599829e-01    0,000000000e+00    0,000000000e+00    0,000000000e+00    0,000000000e+00
     1486000000   -2,285705954e-01   -1,071453467e-01    9,029513001e-01   -8,185968548e-02    0,000000000e+00    0,000000000e+00    0,000000000e+00    0,000000000e+00
     1500000000   -2,817701697e-01   -5,023556948e-02    8,237940669e-01   -4,580055773e-01    0,000000000e+00    0,000000000e+00    0,000000000e+00    0,000000000e+00
