! NanoVNA-App
! Date: 2025-09-25 15:05:41
! Start: 100MHz Stop: 1,5GHz Points: 101
! S-Parameter data: F S11 S21 S12 S22
# Hz S RI R 50
!     Frequency           S11_Real           S11_Imag           S21_Real           S21_Imag           S12_Real           S12_Imag           S22_Real           S22_Imag
      100000000    3,114535287e-02    2,864502929e-02    4,348775148e-01   -6,686519980e-01    0,000000000e+00    0,000000000e+00    0,000000000e+00    0,000000000e+00
      114000000    5,753483996e-02    5,523100030e-03    7,754343096e-03   -7,910562754e-01    0,000000000e+00    0,000000000e+00    0,000000000e+00    0,000000000e+00
      128000000    6,727509946e-02   -3,788382187e-02   -4,104491770e-01   -6,712139845e-01    0,000000000e+00    0,000000000e+00    0,000000000e+00    0,000000000e+00
      142000000    4,474936426e-02   -8,420531452e-02   -7,029221654e-01   -3,532772362e-01    0,000000000e+00    0,000000000e+00    0,000000000e+00    0,000000000e+00
      156000000   -5,339801311e-03   -1,068657190e-01   -7,875217199e-01    7,363738865e-02    0,000000000e+00    0,000000000e+00    0,000000000e+00    0,000000000e+00
      170000000   -5,762824044e-02   -9,058262408e-02   -6,275150776e-01    4,868807197e-01    0,000000000e+00    0,000000000e+00    0,000000000e+00    0,000000000e+00
      184000000   -8,367289603e-02   -4,947087169e-02   -2,648203671e-01    7,508776188e-01    0,000000000e+00    0,000000000e+00    0,000000000e+00    0,000000000e+00
      198000000   -7,961352915e-02   -1,049304381e-02    1,832461804e-01    7,733682990e-01    0,000000000e+00    0,000000000e+00    0,000000000e+00    0,000000000e+00
      212000000   -6,229823083e-02    1,317432150e-02    5,690740943e-01    5,491613150e-01    0,000000000e+00    0,000000000e+00    0,000000000e+00    0,000000000e+00
      226000000   -4,327811301e-02    2,764735185e-02    7,706243396e-01    1,545152962e-01    0,000000000e+00    0,000000000e+00    0,000000000e+00    0,000000000e+00
      240000000   -1,817032695e-02    3,846142814e-02    7,267910242e-01   -2,819307446e-01    0,000000000e+00    0,000000000e+00    0,000000000e+00    0,000000000e+00
      254000000    1,718796976e-02    3,518367931e-02    4,581296146e-01   -6,203192472e-01    0,000000000e+00    0,000000000e+00    0,000000000e+00    0,000000000e+00
      268000000    4,874386638e-02    5,593585316e-03    5,856655538e-02   -7,603983879e-01    0,000000000e+00    0,000000000e+00    0,000000000e+00    0,000000000e+00
      282000000    5,345885456e-02   -4,175686464e-02   -3,493385017e-01   -6,717749834e-01    0,000000000e+00    0,000000000e+00    0,000000000e+00    0,000000000e+00
      296000000    2,406086400e-02   -7,957298309e-02   -6,519238353e-01   -3,854661882e-01    0,000000000e+00    0,000000000e+00    0,000000000e+00    0,000000000e+00
      310000000   -1,795970276e-02   -8,308536559e-02   -7,629039288e-01    2,067153342e-02    0,000000000e+00    0,000000000e+00    0,000000000e+00    0,000000000e+00
      324000000   -4,153781384e-02   -5,911857635e-02   -6,325468421e-01    4,304186702e-01    0,000000000e+00    0,000000000e+00    0,000000000e+00    0,000000000e+00
      338000000   -3,426783159e-02   -3,693564981e-02   -2,967906296e-01    7,013895512e-01    0,000000000e+00    0,000000000e+00    0,000000000e+00    0,000000000e+00
      352000000   -1,722983457e-02   -4,064584896e-02    1,252772659e-01    7,417468429e-01    0,000000000e+00    0,000000000e+00    0,000000000e+00    0,000000000e+00
      366000000   -1,945648901e-02   -6,187453493e-02    4,979315400e-01    5,547132492e-01    0,000000000e+00    0,000000000e+00    0,000000000e+00    0,000000000e+00
      380000000   -4,437635094e-02   -7,282023132e-02    7,133536339e-01    1,994299144e-01    0,000000000e+00    0,000000000e+00    0,000000000e+00    0,000000000e+00
      394000000   -7,062915713e-02   -5,773618817e-02    7,042817473e-01   -2,164901346e-01    0,000000000e+00    0,000000000e+00    0,000000000e+00    0,000000000e+00
      408000000   -7,679919153e-02   -3,050572425e-02    4,710332751e-01   -5,602623224e-01    0,000000000e+00    0,000000000e+00    0,000000000e+00    0,000000000e+00
      422000000   -6,553892046e-02   -1,109632477e-02    9,323521703e-02   -7,182509303e-01    0,000000000e+00    0,000000000e+00    0,000000000e+00    0,000000000e+00
      436000000   -5,267211050e-02   -4,630326759e-03   -3,018704057e-01   -6,477714777e-01    0,000000000e+00    0,000000000e+00    0,000000000e+00    0,000000000e+00
      450000000   -4,496633634e-02    1,735833706e-03   -5,933801532e-01   -3,779855967e-01    0,000000000e+00    0,000000000e+00    0,000000000e+00    0,000000000e+00
      464000000   -2,952939086e-02    1,201715320e-02   -6,912655830e-01    3,211455187e-04    0,000000000e+00    0,000000000e+00    0,000000000e+00    0,000000000e+00
      478000000   -1,384685165e-03    1,149163954e-02   -5,731522441e-01    3,637991250e-01    0,000000000e+00    0,000000000e+00    0,000000000e+00    0,000000000e+00
      492000000    2,816200815e-02   -1,247206423e-02   -2,884335220e-01    6,023710370e-01    0,000000000e+00    0,000000000e+00    0,000000000e+00    0,000000000e+00
      506000000    3,637458757e-02   -5,636069179e-02    6,889185309e-02    6,583606005e-01    0,000000000e+00    0,000000000e+00    0,000000000e+00    0,000000000e+00
      520000000    1,297497191e-02   -9,872289002e-02    4,003163278e-01    5,269525051e-01    0,000000000e+00    0,000000000e+00    0,000000000e+00    0,000000000e+00
      534000000   -3,449958563e-02   -1,157364100e-01    6,241171956e-01    2,366448492e-01    0,000000000e+00    0,000000000e+00    0,000000000e+00    0,000000000e+00
      548000000   -7,713648677e-02   -9,893018752e-02    6,585916877e-01   -1,332179755e-01    0,000000000e+00    0,000000000e+00    0,000000000e+00    0,000000000e+00
      562000000   -9,312096238e-02   -6,565160304e-02    4,818263650e-01   -4,665947258e-01    0,000000000e+00    0,000000000e+00    0,000000000e+00    0,000000000e+00
      576000000   -8,630828559e-02   -4,413857684e-02    1,500315666e-01   -6,479855180e-01    0,000000000e+00    0,000000000e+00    0,000000000e+00    0,000000000e+00
      590000000   -8,050347120e-02   -4,168684036e-02   -2,197317034e-01   -6,291165948e-01    0,000000000e+00    0,000000000e+00    0,000000000e+00    0,000000000e+00
      604000000   -8,899556845e-02   -3,736852482e-02   -5,203616619e-01   -4,060786366e-01    0,000000000e+00    0,000000000e+00    0,000000000e+00    0,000000000e+00
      618000000   -9,596937150e-02   -1,521282364e-02   -6,530297399e-01   -5,805530027e-02    0,000000000e+00    0,000000000e+00    0,000000000e+00    0,000000000e+00
      632000000   -8,096794039e-02    1,537570730e-02   -5,749700665e-01    3,029569685e-01    0,000000000e+00    0,000000000e+00    0,000000000e+00    0,000000000e+00
      646000000   -4,334533587e-02    2,637311257e-02   -3,183857203e-01    5,567704439e-01    0,000000000e+00    0,000000000e+00    0,000000000e+00    0,000000000e+00
      660000000   -8,294305764e-03    5,998614244e-03    2,212514542e-02    6,285486817e-01    0,000000000e+00    0,000000000e+00    0,000000000e+00    0,000000000e+00
      674000000    3,040889278e-04   -3,042395599e-02    3,425900638e-01    5,190714002e-01    0,000000000e+00    0,000000000e+00    0,000000000e+00    0,000000000e+00
      688000000   -1,515819132e-02   -5,592509732e-02    5,587028861e-01    2,583584785e-01    0,000000000e+00    0,000000000e+00    0,000000000e+00    0,000000000e+00
      702000000   -3,410780802e-02   -5,974959210e-02    6,077507734e-01   -7,894530892e-02    0,000000000e+00    0,000000000e+00    0,000000000e+00    0,000000000e+00
      716000000   -3,703255951e-02   -5,637773499e-02    4,603916109e-01   -3,896478713e-01    0,000000000e+00    0,000000000e+00    0,000000000e+00    0,000000000e+00
      730000000   -3,159823641e-02   -6,565762311e-02    1,738994569e-01   -5,672888160e-01    0,000000000e+00    0,000000000e+00    0,000000000e+00    0,000000000e+00
      744000000   -3,966984153e-02   -8,827770501e-02   -1,533261091e-01   -5,639666915e-01    0,000000000e+00    0,000000000e+00    0,000000000e+00    0,000000000e+00
      758000000   -7,237493247e-02   -1,042916700e-01   -4,274737835e-01   -3,943408132e-01    0,000000000e+00    0,000000000e+00    0,000000000e+00    0,000000000e+00
      772000000   -1,134722084e-01   -9,436602890e-02   -5,745253563e-01   -1,061083674e-01    0,000000000e+00    0,000000000e+00    0,000000000e+00    0,000000000e+00
      786000000   -1,380957514e-01   -5,598569289e-02   -5,451372266e-01    2,212186456e-01    0,000000000e+00    0,000000000e+00    0,000000000e+00    0,000000000e+00
      800000000   -1,332630813e-01   -1,505880989e-02   -3,408697546e-01    4,796659350e-01    0,000000000e+00    0,000000000e+00    0,000000000e+00    0,000000000e+00
      814000000   -1,082557216e-01    8,939098567e-03   -3,445388377e-02    5,860716105e-01    0,000000000e+00    0,000000000e+00    0,000000000e+00    0,000000000e+00
      828000000   -8,479485661e-02    1,342773438e-02    2,784642875e-01    5,147151947e-01    0,000000000e+00    0,000000000e+00    0,000000000e+00    0,000000000e+00
      842000000   -7,021718472e-02    1,518253703e-02    5,020919442e-01    2,893916965e-01    0,000000000e+00    0,000000000e+00    0,000000000e+00    0,000000000e+00
      856000000   -5,259018019e-02    1,972769573e-02    5,703756213e-01   -1,738310233e-02    0,000000000e+00    0,000000000e+00    0,000000000e+00    0,000000000e+00
      870000000   -2,320134267e-02    1,449478045e-02    4,635975361e-01   -3,061816394e-01    0,000000000e+00    0,000000000e+00    0,000000000e+00    0,000000000e+00
      884000000    6,333811209e-03   -1,429195795e-02    2,302929014e-01   -4,876140058e-01    0,000000000e+00    0,000000000e+00    0,000000000e+00    0,000000000e+00
      898000000    1,138532907e-02   -6,392661482e-02   -5,193433166e-02   -5,249568224e-01    0,000000000e+00    0,000000000e+00    0,000000000e+00    0,000000000e+00
      912000000   -2,354118787e-02   -1,085603386e-01   -3,590499163e-01   -4,112238884e-01    0,000000000e+00    0,000000000e+00    0,000000000e+00    0,000000000e+00
      926000000   -7,598304749e-02   -1,236198470e-01   -5,327932835e-01   -1,592015475e-01    0,000000000e+00    0,000000000e+00    0,000000000e+00    0,000000000e+00
      940000000   -1,241268888e-01   -1,044600457e-01   -5,530021191e-01    1,555926502e-01    0,000000000e+00    0,000000000e+00    0,000000000e+00    0,000000000e+00
      954000000   -1,405553520e-01   -6,327094883e-02   -3,919787705e-01    4,443721175e-01    0,000000000e+00    0,000000000e+00    0,000000000e+00    0,000000000e+00
      968000000   -1,331527829e-01   -2,886679582e-02   -8,883692324e-02    6,043133736e-01    0,000000000e+00    0,000000000e+00    0,000000000e+00    0,000000000e+00
      982000000   -1,124299616e-01   -1,483239047e-02    2,437161505e-01    5,721302032e-01    0,000000000e+00    0,000000000e+00    0,000000000e+00    0,000000000e+00
      996000000   -1,051896289e-01   -1,087390818e-02    5,138687491e-01    3,675757647e-01    0,000000000e+00    0,000000000e+00    0,000000000e+00    0,000000000e+00
     1010000000   -1,057734564e-01   -7,129879203e-03    6,295136213e-01    5,285260081e-02    0,000000000e+00    0,000000000e+00    0,000000000e+00    0,000000000e+00
     1024000000   -9,416947514e-02   -5,009345477e-04    5,591952801e-01   -2,708093524e-01    0,000000000e+00    0,000000000e+00    0,000000000e+00    0,000000000e+00
     1038000000   -7,750156522e-02   -5,408389028e-03    3,390892446e-01   -5,041892529e-01    0,000000000e+00    0,000000000e+00    0,000000000e+00    0,000000000e+00
     1052000000   -6,598482281e-02   -1,298561692e-02    3,319425881e-02   -5,864453316e-01    0,000000000e+00    0,000000000e+00    0,000000000e+00    0,000000000e+00
     1066000000   -7,280442119e-02   -2,821020968e-02   -2,704598606e-01   -5,031787157e-01    0,000000000e+00    0,000000000e+00    0,000000000e+00    0,000000000e+00
     1080000000   -8,012484759e-02   -2,993604355e-02   -4,774458408e-01   -2,692635059e-01    0,000000000e+00    0,000000000e+00    0,000000000e+00    0,000000000e+00
     1094000000   -8,441627771e-02   -1,800168306e-02   -5,318135619e-01    4,352653399e-02    0,000000000e+00    0,000000000e+00    0,000000000e+00    0,000000000e+00
     1108000000   -6,007977948e-02   -1,436952222e-02   -3,969463110e-01    3,278047442e-01    0,000000000e+00    0,000000000e+00    0,000000000e+00    0,000000000e+00
     1122000000   -3,367909044e-02   -3,177982941e-02   -1,378659457e-01    4,813729525e-01    0,000000000e+00    0,000000000e+00    0,000000000e+00    0,000000000e+00
     1136000000   -2,474512346e-02   -8,464900404e-02    1,632037610e-01    4,731539190e-01    0,000000000e+00    0,000000000e+00    0,000000000e+00    0,000000000e+00
     1150000000   -6,742145866e-02   -1,380726248e-01    4,172745645e-01    3,109550774e-01    0,000000000e+00    0,000000000e+00    0,000000000e+00    0,000000000e+00
     1164000000   -1,347244531e-01   -1,560872942e-01    5,625588894e-01    2,611210383e-02    0,000000000e+00    0,000000000e+00    0,000000000e+00    0,000000000e+00
     1178000000   -2,123999000e-01   -1,213286594e-01    5,314156413e-01   -3,151485324e-01    0,000000000e+00    0,000000000e+00    0,000000000e+00    0,000000000e+00
     1192000000   -2,464471459e-01   -4,635283351e-02    2,979308665e-01   -5,988457203e-01    0,000000000e+00    0,000000000e+00    0,000000000e+00    0,000000000e+00
     1206000000   -2,344465256e-01    3,643004224e-02   -6,404995918e-02   -6,958674788e-01    0,000000000e+00    0,000000000e+00    0,000000000e+00    0,000000000e+00
     1220000000   -1,825891882e-01    8,396524936e-02   -4,189136028e-01   -5,754560232e-01    0,000000000e+00    0,000000000e+00    0,000000000e+00    0,000000000e+00
     1234000000   -1,291340590e-01    1,001701355e-01   -6,432072520e-01   -2,950538099e-01    0,000000000e+00    0,000000000e+00    0,000000000e+00    0,000000000e+00
     1248000000   -6,224801019e-02    9,720078856e-02   -6,720601320e-01    6,193702295e-02    0,000000000e+00    0,000000000e+00    0,000000000e+00    0,000000000e+00
     1262000000   -9,112567641e-03    6,316440552e-02   -5,205383301e-01    3,670384586e-01    0,000000000e+00    0,000000000e+00    0,000000000e+00    0,000000000e+00
     1276000000    2,378992736e-02   -8,257500012e-04   -2,428717464e-01    5,490915179e-01    0,000000000e+00    0,000000000e+00    0,000000000e+00    0,000000000e+00
     1290000000    1,960233040e-02   -8,631681651e-02    6,528611481e-02    5,777966380e-01    0,000000000e+00    0,000000000e+00    0,000000000e+00    0,000000000e+00
     1304000000   -3,411098197e-02   -1,724409610e-01    3,625794053e-01    4,613268077e-01    0,000000000e+00    0,000000000e+00    0,000000000e+00    0,000000000e+00
     1318000000   -1,355446130e-01   -2,111041546e-01    5,857651830e-01    2,215014696e-01    0,000000000e+00    0,000000000e+00    0,000000000e+00    0,000000000e+00
     1332000000   -2,530381382e-01   -1,849357039e-01    6,491492987e-01   -1,221637428e-01    0,000000000e+00    0,000000000e+00    0,000000000e+00    0,000000000e+00
     1346000000   -3,367428780e-01   -9,452837706e-02    5,055251122e-01   -4,645873606e-01    0,000000000e+00    0,000000000e+00    0,000000000e+00    0,000000000e+00
     1360000000   -3,353627920e-01    2,215613984e-02    1,877773553e-01   -6,368340850e-01    0,000000000e+00    0,000000000e+00    0,000000000e+00    0,000000000e+00
     1374000000   -2,777170539e-01    1,039132476e-01   -1,533075124e-01   -6,001598239e-01    0,000000000e+00    0,000000000e+00    0,000000000e+00    0,000000000e+00
     1388000000   -2,140745372e-01    1,352729797e-01   -3,989020884e-01   -3,698531091e-01    0,000000000e+00    0,000000000e+00    0,000000000e+00    0,000000000e+00
     1402000000   -1,513742507e-01    1,414795220e-01   -4,782118201e-01   -6,517957896e-02    0,000000000e+00    0,000000000e+00    0,000000000e+00    0,000000000e+00
     1416000000   -9,651714563e-02    1,111288667e-01   -3,710391223e-01    2,363142371e-01    0,000000000e+00    0,000000000e+00    0,000000000e+00    0,000000000e+00
     1430000000   -4,979687557e-02    6,962210685e-02   -1,306651980e-01    4,378895760e-01    0,000000000e+00    0,000000000e+00    0,000000000e+00    0,000000000e+00
     1444000000   -4,290313646e-02    3,838816192e-03    1,584617496e-01    5,386175513e-01    0,000000000e+00    0,000000000e+00    0,000000000e+00    0,000000000e+00
     1458000000   -6,262069196e-02   -7,909890264e-02    4,744669795e-01    4,688216448e-01    0,000000000e+00    0,000000000e+00    0,000000000e+00    0,000000000e+00
     1472000000   -1,317047924e-01   -1,231185198e-01    7,644600868e-01    2,746702135e-01    0,000000000e+00    0,000000000e+00    0,000000000e+00    0,000000000e+00
     1486000000   -2,310002744e-01   -1,118186340e-01    8,992068172e-01   -6,303858012e-02    0,000000000e+00    0,000000000e+00    0,000000000e+00    0,000000000e+00
     1500000000   -2,911795080e-01   -4,158050567e-02    7,967554331e-01   -4,515532851e-01    0,000000000e+00    0,000000000e+00    0,000000000e+00    0,000000000e+00
