! NanoVNA-App
! Date: 2025-09-25 15:08:10
! Start: 100MHz Stop: 1,5GHz Points: 101
! S-Parameter data: F S11 S21 S12 S22
# Hz S RI R 50
!     Frequency           S11_Real           S11_Imag           S21_Real           S21_Imag           S12_Real           S12_Imag           S22_Real           S22_Imag
      100000000    3,115126304e-02    2,864372358e-02    4,348351359e-01   -6,686024666e-01    0,000000000e+00    0,000000000e+00    0,000000000e+00    0,000000000e+00
      114000000    5,758425593e-02    5,528353155e-03    7,668265142e-03   -7,910494804e-01    0,000000000e+00    0,000000000e+00    0,000000000e+00    0,000000000e+00
      128000000    6,725573540e-02   -3,779353946e-02   -4,104008973e-01   -6,712572575e-01    0,000000000e+00    0,000000000e+00    0,000000000e+00    0,000000000e+00
      142000000    4,476127774e-02   -8,421643823e-02   -7,027252316e-01   -3,530719876e-01    0,000000000e+00    0,000000000e+00    0,000000000e+00    0,000000000e+00
      156000000   -5,891236942e-03   -1,067392379e-01   -7,867028713e-01    7,395070791e-02    0,000000000e+00    0,000000000e+00    0,000000000e+00    0,000000000e+00
      170000000   -5,763074011e-02   -9,057434648e-02   -6,275842786e-01    4,868830144e-01    0,000000000e+00    0,000000000e+00    0,000000000e+00    0,000000000e+00
      184000000   -8,372169733e-02   -4,949307442e-02   -2,650442719e-01    7,511668205e-01    0,000000000e+00    0,000000000e+00    0,000000000e+00    0,000000000e+00
      198000000   -7,962635159e-02   -1,045887917e-02    1,836131662e-01    7,728951573e-01    0,000000000e+00    0,000000000e+00    0,000000000e+00    0,000000000e+00
      212000000   -6,223899499e-02    1,318661030e-02    5,692142844e-01    5,491315722e-01    0,000000000e+00    0,000000000e+00    0,000000000e+00    0,000000000e+00
      226000000   -4,324461892e-02    2,770343609e-02    7,705776691e-01    1,544055194e-01    0,000000000e+00    0,000000000e+00    0,000000000e+00    0,000000000e+00
      240000000   -1,823377982e-02    3,853373230e-02    7,268019319e-01   -2,820734680e-01    0,000000000e+00    0,000000000e+00    0,000000000e+00    0,000000000e+00
      254000000    1,718765870e-02    3,518895060e-02    4,578526020e-01   -6,203130484e-01    0,000000000e+00    0,000000000e+00    0,000000000e+00    0,000000000e+00
      268000000    4,885215312e-02    5,593187641e-03    5,866171047e-02   -7,600737214e-01    0,000000000e+00    0,000000000e+00    0,000000000e+00    0,000000000e+00
      282000000    5,341790617e-02   -4,182553664e-02   -3,489239514e-01   -6,714891195e-01    0,000000000e+00    0,000000000e+00    0,000000000e+00    0,000000000e+00
      296000000    2,408805303e-02   -7,952136546e-02   -6,516571641e-01   -3,858533502e-01    0,000000000e+00    0,000000000e+00    0,000000000e+00    0,000000000e+00
      310000000   -1,785558462e-02   -8,317148685e-02   -7,635924816e-01    1,980970241e-02    0,000000000e+00    0,000000000e+00    0,000000000e+00    0,000000000e+00
      324000000   -4,154793173e-02   -5,888075754e-02   -6,314252615e-01    4,300903976e-01    0,000000000e+00    0,000000000e+00    0,000000000e+00    0,000000000e+00
      338000000   -3,442557156e-02   -3,684084862e-02   -2,961875796e-01    7,010484934e-01    0,000000000e+00    0,000000000e+00    0,000000000e+00    0,000000000e+00
      352000000   -1,706494205e-02   -4,068832099e-02    1,256337762e-01    7,422639132e-01    0,000000000e+00    0,000000000e+00    0,000000000e+00    0,000000000e+00
      366000000   -1,943591423e-02   -6,211099401e-02    4,980551004e-01    5,545716882e-01    0,000000000e+00    0,000000000e+00    0,000000000e+00    0,000000000e+00
      380000000   -4,464733601e-02   -7,289892435e-02    7,126104236e-01    1,996558160e-01    0,000000000e+00    0,000000000e+00    0,000000000e+00    0,000000000e+00
      394000000   -7,086440176e-02   -5,825386196e-02    7,050209045e-01   -2,168732584e-01    0,000000000e+00    0,000000000e+00    0,000000000e+00    0,000000000e+00
      408000000   -7,695859671e-02   -3,045038693e-02    4,710612297e-01   -5,599656105e-01    0,000000000e+00    0,000000000e+00    0,000000000e+00    0,000000000e+00
      422000000   -6,570730358e-02   -1,101516467e-02    9,301941842e-02   -7,184171677e-01    0,000000000e+00    0,000000000e+00    0,000000000e+00    0,000000000e+00
      436000000   -5,285612121e-02   -4,681738559e-03   -3,027306199e-01   -6,478444934e-01    0,000000000e+00    0,000000000e+00    0,000000000e+00    0,000000000e+00
      450000000   -4,483553022e-02    1,871218556e-03   -5,937094688e-01   -3,781367838e-01    0,000000000e+00    0,000000000e+00    0,000000000e+00    0,000000000e+00
      464000000   -2,914346009e-02    1,116197836e-02   -6,912505627e-01    3,593080692e-05    0,000000000e+00    0,000000000e+00    0,000000000e+00    0,000000000e+00
      478000000   -8,270526305e-04    1,130596828e-02   -5,731928945e-01    3,637375236e-01    0,000000000e+00    0,000000000e+00    0,000000000e+00    0,000000000e+00
      492000000    2,761567570e-02   -1,207687613e-02   -2,890963256e-01    6,017312407e-01    0,000000000e+00    0,000000000e+00    0,000000000e+00    0,000000000e+00
      506000000    3,677098081e-02   -5,593706667e-02    7,007526606e-02    6,582682133e-01    0,000000000e+00    0,000000000e+00    0,000000000e+00    0,000000000e+00
      520000000    1,348286215e-02   -9,788619727e-02    4,035552442e-01    5,291737914e-01    0,000000000e+00    0,000000000e+00    0,000000000e+00    0,000000000e+00
      534000000   -3,390713781e-02   -1,159605309e-01    6,246582866e-01    2,362779081e-01    0,000000000e+00    0,000000000e+00    0,000000000e+00    0,000000000e+00
      548000000   -7,750003785e-02   -9,898401797e-02    6,579359174e-01   -1,330156326e-01    0,000000000e+00    0,000000000e+00    0,000000000e+00    0,000000000e+00
      562000000   -9,338518977e-02   -6,612362713e-02    4,813669324e-01   -4,669276476e-01    0,000000000e+00    0,000000000e+00    0,000000000e+00    0,000000000e+00
      576000000   -8,658298850e-02   -4,434896260e-02    1,506182402e-01   -6,481296420e-01    0,000000000e+00    0,000000000e+00    0,000000000e+00    0,000000000e+00
      590000000   -8,083997667e-02   -4,165560380e-02   -2,194976062e-01   -6,260111332e-01    0,000000000e+00    0,000000000e+00    0,000000000e+00    0,000000000e+00
      604000000   -8,877915144e-02   -3,756937757e-02   -5,199898481e-01   -4,064023793e-01    0,000000000e+00    0,000000000e+00    0,000000000e+00    0,000000000e+00
      618000000   -9,660258889e-02   -1,482900232e-02   -6,531532407e-01   -5,814792588e-02    0,000000000e+00    0,000000000e+00    0,000000000e+00    0,000000000e+00
      632000000   -8,151526749e-02    1,522950083e-02   -5,756619573e-01    3,025881946e-01    0,000000000e+00    0,000000000e+00    0,000000000e+00    0,000000000e+00
      646000000   -4,242663458e-02    2,645184286e-02   -3,191425800e-01    5,564718246e-01    0,000000000e+00    0,000000000e+00    0,000000000e+00    0,000000000e+00
      660000000   -7,955590263e-03    5,499639083e-03    2,136969380e-02    6,294907928e-01    0,000000000e+00    0,000000000e+00    0,000000000e+00    0,000000000e+00
      674000000    7,574005867e-04   -2,949366532e-02    3,426268399e-01    5,182999969e-01    0,000000000e+00    0,000000000e+00    0,000000000e+00    0,000000000e+00
      688000000   -1,434764173e-02   -5,537452549e-02    5,589532256e-01    2,582856715e-01    0,000000000e+00    0,000000000e+00    0,000000000e+00    0,000000000e+00
      702000000   -3,345372155e-02   -6,013316661e-02    6,055111885e-01   -8,161377907e-02    0,000000000e+00    0,000000000e+00    0,000000000e+00    0,000000000e+00
      716000000   -3,665474430e-02   -5,643878505e-02    4,593309164e-01   -3,903011084e-01    0,000000000e+00    0,000000000e+00    0,000000000e+00    0,000000000e+00
      730000000   -3,255514428e-02   -6,532018632e-02    1,744424105e-01   -5,664356947e-01    0,000000000e+00    0,000000000e+00    0,000000000e+00    0,000000000e+00
      744000000   -4,023772478e-02   -8,741120249e-02   -1,533989012e-01   -5,645115972e-01    0,000000000e+00    0,000000000e+00    0,000000000e+00    0,000000000e+00
      758000000   -7,165879011e-02   -1,053884998e-01   -4,271260798e-01   -3,953402936e-01    0,000000000e+00    0,000000000e+00    0,000000000e+00    0,000000000e+00
      772000000   -1,145533845e-01   -9,426198155e-02   -5,742288232e-01   -1,056538746e-01    0,000000000e+00    0,000000000e+00    0,000000000e+00    0,000000000e+00
      786000000   -1,391277164e-01   -5,531894788e-02   -5,447049141e-01    2,212588936e-01    0,000000000e+00    0,000000000e+00    0,000000000e+00    0,000000000e+00
      800000000   -1,331636757e-01   -1,430925727e-02   -3,412738442e-01    4,802193642e-01    0,000000000e+00    0,000000000e+00    0,000000000e+00    0,000000000e+00
      814000000   -1,084582284e-01    8,612014353e-03   -3,354816884e-02    5,859895349e-01    0,000000000e+00    0,000000000e+00    0,000000000e+00    0,000000000e+00
      828000000   -8,601967990e-02    1,336718537e-02    2,785255015e-01    5,144261718e-01    0,000000000e+00    0,000000000e+00    0,000000000e+00    0,000000000e+00
      842000000   -7,099729776e-02    1,435141917e-02    5,030651689e-01    2,892709672e-01    0,000000000e+00    0,000000000e+00    0,000000000e+00    0,000000000e+00
      856000000   -5,236345902e-02    1,890753768e-02    5,704391003e-01   -1,776744425e-02    0,000000000e+00    0,000000000e+00    0,000000000e+00    0,000000000e+00
      870000000   -2,367996797e-02    1,451340411e-02    4,632568061e-01   -3,062492013e-01    0,000000000e+00    0,000000000e+00    0,000000000e+00    0,000000000e+00
      884000000    6,146499887e-03   -1,411074400e-02    2,305318117e-01   -4,880535305e-01    0,000000000e+00    0,000000000e+00    0,000000000e+00    0,000000000e+00
      898000000    1,179350261e-02   -6,365376711e-02   -5,332722142e-02   -5,259811878e-01    0,000000000e+00    0,000000000e+00    0,000000000e+00    0,000000000e+00
      912000000   -2,244022302e-02   -1,077105775e-01   -3,519145250e-01   -4,059740305e-01    0,000000000e+00    0,000000000e+00    0,000000000e+00    0,000000000e+00
      926000000   -7,407625765e-02   -1,225100532e-01   -5,287254453e-01   -1,579286754e-01    0,000000000e+00    0,000000000e+00    0,000000000e+00    0,000000000e+00
      940000000   -1,227715239e-01   -1,042352021e-01   -5,528638363e-01    1,545547247e-01    0,000000000e+00    0,000000000e+00    0,000000000e+00    0,000000000e+00
      954000000   -1,403488070e-01   -6,365856528e-02   -3,906990588e-01    4,463031292e-01    0,000000000e+00    0,000000000e+00    0,000000000e+00    0,000000000e+00
      968000000   -1,298709959e-01   -2,833479643e-02   -9,162618220e-02    6,031427979e-01    0,000000000e+00    0,000000000e+00    0,000000000e+00    0,000000000e+00
      982000000   -1,142294183e-01   -1,429457217e-02    2,443778068e-01    5,714681149e-01    0,000000000e+00    0,000000000e+00    0,000000000e+00    0,000000000e+00
      996000000   -1,072504818e-01   -1,224447880e-02    5,110737085e-01    3,671680093e-01    0,000000000e+00    0,000000000e+00    0,000000000e+00    0,000000000e+00
     1010000000   -9,975484014e-02   -8,223032579e-03    6,298093796e-01    5,066986382e-02    0,000000000e+00    0,000000000e+00    0,000000000e+00    0,000000000e+00
     1024000000   -9,279991686e-02   -3,733843565e-03    5,604004264e-01   -2,697623372e-01    0,000000000e+00    0,000000000e+00    0,000000000e+00    0,000000000e+00
     1038000000   -7,789328694e-02   -2,193217078e-04    3,384636343e-01   -5,041992664e-01    0,000000000e+00    0,000000000e+00    0,000000000e+00    0,000000000e+00
     1052000000   -6,195517257e-02   -1,424096432e-02    3,290966526e-02   -5,854960680e-01    0,000000000e+00    0,000000000e+00    0,000000000e+00    0,000000000e+00
     1066000000   -6,969320774e-02   -3,382532671e-02   -2,701142430e-01   -5,014190674e-01    0,000000000e+00    0,000000000e+00    0,000000000e+00    0,000000000e+00
     1080000000   -8,427973092e-02   -2,775087021e-02   -4,803887308e-01   -2,704242170e-01    0,000000000e+00    0,000000000e+00    0,000000000e+00    0,000000000e+00
     1094000000   -8,552291989e-02   -1,722055487e-02   -5,337564945e-01    4,005709291e-02    0,000000000e+00    0,000000000e+00    0,000000000e+00    0,000000000e+00
     1108000000   -5,925974995e-02   -1,468476001e-02   -3,967168927e-01    3,244621456e-01    0,000000000e+00    0,000000000e+00    0,000000000e+00    0,000000000e+00
     1122000000   -2,989023551e-02   -3,692762926e-02   -1,362822950e-01    4,809625745e-01    0,000000000e+00    0,000000000e+00    0,000000000e+00    0,000000000e+00
     1136000000   -3,056114540e-02   -8,558874577e-02    1,624638587e-01    4,725473821e-01    0,000000000e+00    0,000000000e+00    0,000000000e+00    0,000000000e+00
     1150000000   -6,811751425e-02   -1,394354701e-01    4,217384160e-01    3,121929467e-01    0,000000000e+00    0,000000000e+00    0,000000000e+00    0,000000000e+00
     1164000000   -1,394746751e-01   -1,515065581e-01    5,626201034e-01    2,622796968e-02    0,000000000e+00    0,000000000e+00    0,000000000e+00    0,000000000e+00
     1178000000   -2,133120447e-01   -1,212899536e-01    5,333983302e-01   -3,141059875e-01    0,000000000e+00    0,000000000e+00    0,000000000e+00    0,000000000e+00
     1192000000   -2,495085299e-01   -4,015975818e-02    2,938643694e-01   -5,996254086e-01    0,000000000e+00    0,000000000e+00    0,000000000e+00    0,000000000e+00
     1206000000   -2,300875187e-01    3,212556988e-02   -6,394915283e-02   -7,011315823e-01    0,000000000e+00    0,000000000e+00    0,000000000e+00    0,000000000e+00
     1220000000   -1,845217347e-01    8,749953657e-02   -4,191251695e-01   -5,769984722e-01    0,000000000e+00    0,000000000e+00    0,000000000e+00    0,000000000e+00
     1234000000   -1,268245578e-01    1,027187854e-01   -6,480793953e-01   -2,870998383e-01    0,000000000e+00    0,000000000e+00    0,000000000e+00    0,000000000e+00
     1248000000   -7,097844779e-02    9,668099880e-02   -6,794623137e-01    6,410175562e-02    0,000000000e+00    0,000000000e+00    0,000000000e+00    0,000000000e+00
     1262000000   -9,580178186e-03    6,213417277e-02   -5,171805620e-01    3,709322214e-01    0,000000000e+00    0,000000000e+00    0,000000000e+00    0,000000000e+00
     1276000000    2,177948505e-02   -5,375230685e-03   -2,424993068e-01    5,473759770e-01    0,000000000e+00    0,000000000e+00    0,000000000e+00    0,000000000e+00
     1290000000    1,947394386e-02   -8,480294049e-02    7,133927196e-02    5,776784420e-01    0,000000000e+00    0,000000000e+00    0,000000000e+00    0,000000000e+00
     1304000000   -3,223903105e-02   -1,721715480e-01    3,616648316e-01    4,653075635e-01    0,000000000e+00    0,000000000e+00    0,000000000e+00    0,000000000e+00
     1318000000   -1,335852742e-01   -2,181899846e-01    5,874183178e-01    2,171105891e-01    0,000000000e+00    0,000000000e+00    0,000000000e+00    0,000000000e+00
     1332000000   -2,530418932e-01   -1,841196269e-01    6,590623856e-01   -1,274857819e-01    0,000000000e+00    0,000000000e+00    0,000000000e+00    0,000000000e+00
     1346000000   -3,290885687e-01   -9,306160361e-02    5,052288175e-01   -4,646931291e-01    0,000000000e+00    0,000000000e+00    0,000000000e+00    0,000000000e+00
     1360000000   -3,321530819e-01    2,297377586e-02    1,973585486e-01   -6,463285089e-01    0,000000000e+00    0,000000000e+00    0,000000000e+00    0,000000000e+00
     1374000000   -2,767674625e-01    1,071864441e-01   -1,537431479e-01   -6,043822169e-01    0,000000000e+00    0,000000000e+00    0,000000000e+00    0,000000000e+00
     1388000000   -2,094049603e-01    1,361770183e-01   -4,017367363e-01   -3,732315004e-01    0,000000000e+00    0,000000000e+00    0,000000000e+00    0,000000000e+00
     1402000000   -1,469541788e-01    1,356501579e-01   -4,804480970e-01   -6,246262789e-02    0,000000000e+00    0,000000000e+00    0,000000000e+00    0,000000000e+00
     1416000000   -9,388838708e-02    1,184658930e-01   -3,778735101e-01    2,456747442e-01    0,000000000e+00    0,000000000e+00    0,000000000e+00    0,000000000e+00
     1430000000   -5,630867183e-02    6,883500516e-02   -1,556121707e-01    4,445905089e-01    0,000000000e+00    0,000000000e+00    0,000000000e+00    0,000000000e+00
     1444000000   -4,000202939e-02    4,835523665e-03    1,591686308e-01    5,283772945e-01    0,000000000e+00    0,000000000e+00    0,000000000e+00    0,000000000e+00
     1458000000   -6,333166361e-02   -7,620552927e-02    4,779911339e-01    4,839971960e-01    0,000000000e+00    0,000000000e+00    0,000000000e+00    0,000000000e+00
     1472000000   -1,333638430e-01   -1,236988604e-01    7,542257309e-01    2,734864652e-01    0,000000000e+00    0,000000000e+00    0,000000000e+00    0,000000000e+00
     1486000000   -2,348285764e-01   -1,149926111e-01    9,001063704e-01   -9,997043759e-02    0,000000000e+00    0,000000000e+00    0,000000000e+00    0,000000000e+00
     1500000000   -2,937373519e-01   -5,249757692e-02    8,001857400e-01   -4,364569783e-01    0,000000000e+00    0,000000000e+00    0,000000000e+00    0,000000000e+00
