! NanoVNA-App
! Date: 2025-09-25 15:06:19
! Start: 100MHz Stop: 1,5GHz Points: 101
! S-Parameter data: F S11 S21 S12 S22
# Hz S RI R 50
!     Frequency           S11_Real           S11_Imag           S21_Real           S21_Imag           S12_Real           S12_Imag           S22_Real           S22_Imag
      100000000    3,115946427e-02    2,865490504e-02    4,348525107e-01   -6,686652303e-01    0,000000000e+00    0,000000000e+00    0,000000000e+00    0,000000000e+00
      114000000    5,760839581e-02    5,501915701e-03    7,741319016e-03   -7,912161350e-01    0,000000000e+00    0,000000000e+00    0,000000000e+00    0,000000000e+00
      128000000    6,729832292e-02   -3,785327449e-02   -4,104534388e-01   -6,712752581e-01    0,000000000e+00    0,000000000e+00    0,000000000e+00    0,000000000e+00
      142000000    4,471651092e-02   -8,419463038e-02   -7,028490901e-01   -3,531775177e-01    0,000000000e+00    0,000000000e+00    0,000000000e+00    0,000000000e+00
      156000000   -6,302643567e-03   -1,059421971e-01   -7,855106592e-01    7,301268727e-02    0,000000000e+00    0,000000000e+00    0,000000000e+00    0,000000000e+00
      170000000   -5,771137029e-02   -9,061993659e-02   -6,277806759e-01    4,872690141e-01    0,000000000e+00    0,000000000e+00    0,000000000e+00    0,000000000e+00
      184000000   -8,369522542e-02   -4,949276894e-02   -2,648611069e-01    7,509643435e-01    0,000000000e+00    0,000000000e+00    0,000000000e+00    0,000000000e+00
      198000000   -7,961827517e-02   -1,047246438e-02    1,836682558e-01    7,731335759e-01    0,000000000e+00    0,000000000e+00    0,000000000e+00    0,000000000e+00
      212000000   -6,229423359e-02    1,314931363e-02    5,691516399e-01    5,489026308e-01    0,000000000e+00    0,000000000e+00    0,000000000e+00    0,000000000e+00
      226000000   -4,328801483e-02    2,765149809e-02    7,707700729e-01    1,545137316e-01    0,000000000e+00    0,000000000e+00    0,000000000e+00    0,000000000e+00
      240000000   -1,821891032e-02    3,846770152e-02    7,267476916e-01   -2,818554640e-01    0,000000000e+00    0,000000000e+00    0,000000000e+00    0,000000000e+00
      254000000    1,720337570e-02    3,514269367e-02    4,578429163e-01   -6,199014187e-01    0,000000000e+00    0,000000000e+00    0,000000000e+00    0,000000000e+00
      268000000    4,879453033e-02    5,558043718e-03    5,865840986e-02   -7,607231736e-01    0,000000000e+00    0,000000000e+00    0,000000000e+00    0,000000000e+00
      282000000    5,351779982e-02   -4,189370945e-02   -3,491519690e-01   -6,715479493e-01    0,000000000e+00    0,000000000e+00    0,000000000e+00    0,000000000e+00
      296000000    2,406122163e-02   -7,951975614e-02   -6,522300243e-01   -3,856839240e-01    0,000000000e+00    0,000000000e+00    0,000000000e+00    0,000000000e+00
      310000000   -1,785779372e-02   -8,310015500e-02   -7,638220787e-01    2,092600800e-02    0,000000000e+00    0,000000000e+00    0,000000000e+00    0,000000000e+00
      324000000   -4,153899103e-02   -5,887950212e-02   -6,319519281e-01    4,306880832e-01    0,000000000e+00    0,000000000e+00    0,000000000e+00    0,000000000e+00
      338000000   -3,447632492e-02   -3,673673049e-02   -2,967610955e-01    7,004812360e-01    0,000000000e+00    0,000000000e+00    0,000000000e+00    0,000000000e+00
      352000000   -1,726826280e-02   -4,074981064e-02    1,250088364e-01    7,419815660e-01    0,000000000e+00    0,000000000e+00    0,000000000e+00    0,000000000e+00
      366000000   -1,889288053e-02   -6,194913760e-02    4,983040392e-01    5,544095039e-01    0,000000000e+00    0,000000000e+00    0,000000000e+00    0,000000000e+00
      380000000   -4,462386668e-02   -7,263661176e-02    7,130168676e-01    1,991789639e-01    0,000000000e+00    0,000000000e+00    0,000000000e+00    0,000000000e+00
      394000000   -7,094623148e-02   -5,803011730e-02    7,036340237e-01   -2,164684087e-01    0,000000000e+00    0,000000000e+00    0,000000000e+00    0,000000000e+00
      408000000   -7,683996856e-02   -3,038102947e-02    4,712802172e-01   -5,594267249e-01    0,000000000e+00    0,000000000e+00    0,000000000e+00    0,000000000e+00
      422000000   -6,551989913e-02   -1,136034634e-02    9,380362928e-02   -7,179405093e-01    0,000000000e+00    0,000000000e+00    0,000000000e+00    0,000000000e+00
      436000000   -5,337665975e-02   -4,810414743e-03   -3,022047579e-01   -6,470836401e-01    0,000000000e+00    0,000000000e+00    0,000000000e+00    0,000000000e+00
      450000000   -4,470979050e-02    1,446909970e-03   -5,927788615e-01   -3,781617284e-01    0,000000000e+00    0,000000000e+00    0,000000000e+00    0,000000000e+00
      464000000   -2,966539562e-02    1,165174041e-02   -6,914675236e-01    7,274279778e-05    0,000000000e+00    0,000000000e+00    0,000000000e+00    0,000000000e+00
      478000000   -1,196731930e-03    1,125891320e-02   -5,730279684e-01    3,627076745e-01    0,000000000e+00    0,000000000e+00    0,000000000e+00    0,000000000e+00
      492000000    2,800314873e-02   -1,231503114e-02   -2,897597551e-01    6,024115682e-01    0,000000000e+00    0,000000000e+00    0,000000000e+00    0,000000000e+00
      506000000    3,657288104e-02   -5,618757382e-02    7,021852583e-02    6,579236388e-01    0,000000000e+00    0,000000000e+00    0,000000000e+00    0,000000000e+00
      520000000    1,262672059e-02   -9,824246913e-02    3,999446332e-01    5,265445113e-01    0,000000000e+00    0,000000000e+00    0,000000000e+00    0,000000000e+00
      534000000   -3,458137438e-02   -1,162505373e-01    6,241392493e-01    2,357198894e-01    0,000000000e+00    0,000000000e+00    0,000000000e+00    0,000000000e+00
      548000000   -7,773644477e-02   -9,906804562e-02    6,576488614e-01   -1,329916418e-01    0,000000000e+00    0,000000000e+00    0,000000000e+00    0,000000000e+00
      562000000   -9,369660914e-02   -6,572288275e-02    4,808549285e-01   -4,668321311e-01    0,000000000e+00    0,000000000e+00    0,000000000e+00    0,000000000e+00
      576000000   -8,581370115e-02   -4,447401315e-02    1,497488767e-01   -6,482716203e-01    0,000000000e+00    0,000000000e+00    0,000000000e+00    0,000000000e+00
      590000000   -8,046893030e-02   -4,176581651e-02   -2,189667970e-01   -6,258060932e-01    0,000000000e+00    0,000000000e+00    0,000000000e+00    0,000000000e+00
      604000000   -8,883483708e-02   -3,698677570e-02   -5,196479559e-01   -4,055943191e-01    0,000000000e+00    0,000000000e+00    0,000000000e+00    0,000000000e+00
      618000000   -9,593638033e-02   -1,564477570e-02   -6,530338526e-01   -5,874863639e-02    0,000000000e+00    0,000000000e+00    0,000000000e+00    0,000000000e+00
      632000000   -8,169701695e-02    1,496794261e-02   -5,756492615e-01    3,022733629e-01    0,000000000e+00    0,000000000e+00    0,000000000e+00    0,000000000e+00
      646000000   -4,300656542e-02    2,645080164e-02   -3,186110258e-01    5,563449264e-01    0,000000000e+00    0,000000000e+00    0,000000000e+00    0,000000000e+00
      660000000   -8,090088144e-03    6,459183060e-03    2,105701528e-02    6,286978722e-01    0,000000000e+00    0,000000000e+00    0,000000000e+00    0,000000000e+00
      674000000    1,243857667e-03   -3,040214069e-02    3,426332474e-01    5,185899138e-01    0,000000000e+00    0,000000000e+00    0,000000000e+00    0,000000000e+00
      688000000   -1,424044278e-02   -5,512610823e-02    5,585348010e-01    2,582747638e-01    0,000000000e+00    0,000000000e+00    0,000000000e+00    0,000000000e+00
      702000000   -3,327906132e-02   -5,990985781e-02    6,054912210e-01   -8,128482848e-02    0,000000000e+00    0,000000000e+00    0,000000000e+00    0,000000000e+00
      716000000   -3,713455051e-02   -5,517882481e-02    4,592491388e-01   -3,903060555e-01    0,000000000e+00    0,000000000e+00    0,000000000e+00    0,000000000e+00
      730000000   -3,231195360e-02   -6,533174962e-02    1,737346500e-01   -5,661095381e-01    0,000000000e+00    0,000000000e+00    0,000000000e+00    0,000000000e+00
      744000000   -4,016412050e-02   -8,779354393e-02   -1,541394591e-01   -5,636641979e-01    0,000000000e+00    0,000000000e+00    0,000000000e+00    0,000000000e+00
      758000000   -7,139532268e-02   -1,055109277e-01   -4,276679158e-01   -3,947257400e-01    0,000000000e+00    0,000000000e+00    0,000000000e+00    0,000000000e+00
      772000000   -1,150392219e-01   -9,398072958e-02   -5,742484927e-01   -1,057593524e-01    0,000000000e+00    0,000000000e+00    0,000000000e+00    0,000000000e+00
      786000000   -1,394037902e-01   -5,644266680e-02   -5,445351601e-01    2,210314572e-01    0,000000000e+00    0,000000000e+00    0,000000000e+00    0,000000000e+00
      800000000   -1,326801330e-01   -1,398755610e-02   -3,412365317e-01    4,803602695e-01    0,000000000e+00    0,000000000e+00    0,000000000e+00    0,000000000e+00
      814000000   -1,078189686e-01    8,439854719e-03   -3,485951945e-02    5,867792368e-01    0,000000000e+00    0,000000000e+00    0,000000000e+00    0,000000000e+00
      828000000   -8,580199629e-02    1,345085073e-02    2,784637809e-01    5,138994455e-01    0,000000000e+00    0,000000000e+00    0,000000000e+00    0,000000000e+00
      842000000   -7,068890333e-02    1,431475393e-02    5,021587014e-01    2,889647186e-01    0,000000000e+00    0,000000000e+00    0,000000000e+00    0,000000000e+00
      856000000   -5,204850435e-02    1,872062124e-02    5,705451369e-01   -1,761389524e-02    0,000000000e+00    0,000000000e+00    0,000000000e+00    0,000000000e+00
      870000000   -2,248114720e-02    1,464152616e-02    4,623070657e-01   -3,058924675e-01    0,000000000e+00    0,000000000e+00    0,000000000e+00    0,000000000e+00
      884000000    6,076713558e-03   -1,418802235e-02    2,296691090e-01   -4,883428812e-01    0,000000000e+00    0,000000000e+00    0,000000000e+00    0,000000000e+00
      898000000    1,119810343e-02   -6,369554251e-02   -5,264082178e-02   -5,272355080e-01    0,000000000e+00    0,000000000e+00    0,000000000e+00    0,000000000e+00
      912000000   -2,410845645e-02   -1,088565364e-01   -3,618373573e-01   -4,082014859e-01    0,000000000e+00    0,000000000e+00    0,000000000e+00    0,000000000e+00
      926000000   -7,350279391e-02   -1,246720105e-01   -5,295505524e-01   -1,599138975e-01    0,000000000e+00    0,000000000e+00    0,000000000e+00    0,000000000e+00
      940000000   -1,238023564e-01   -1,040239483e-01   -5,524015427e-01    1,545705497e-01    0,000000000e+00    0,000000000e+00    0,000000000e+00    0,000000000e+00
      954000000   -1,443913430e-01   -5,896614119e-02   -3,927482963e-01    4,470059574e-01    0,000000000e+00    0,000000000e+00    0,000000000e+00    0,000000000e+00
      968000000   -1,297766268e-01   -2,542633191e-02   -9,269140661e-02    6,034703255e-01    0,000000000e+00    0,000000000e+00    0,000000000e+00    0,000000000e+00
      982000000   -1,141170263e-01   -1,930189319e-02    2,456830144e-01    5,717509985e-01    0,000000000e+00    0,000000000e+00    0,000000000e+00    0,000000000e+00
      996000000   -1,048085913e-01   -1,585374400e-02    5,126692057e-01    3,648124039e-01    0,000000000e+00    0,000000000e+00    0,000000000e+00    0,000000000e+00
     1010000000   -9,968029708e-02   -7,608377840e-03    6,304202676e-01    5,190243199e-02    0,000000000e+00    0,000000000e+00    0,000000000e+00    0,000000000e+00
     1024000000   -9,265467525e-02   -2,906347392e-03    5,620601177e-01   -2,711325288e-01    0,000000000e+00    0,000000000e+00    0,000000000e+00    0,000000000e+00
     1038000000   -7,255734503e-02   -3,264412517e-03    3,362633586e-01   -5,042011738e-01    0,000000000e+00    0,000000000e+00    0,000000000e+00    0,000000000e+00
     1052000000   -6,803877652e-02   -1,719657704e-02    3,596027941e-02   -5,850695968e-01    0,000000000e+00    0,000000000e+00    0,000000000e+00    0,000000000e+00
     1066000000   -6,830940396e-02   -3,334246948e-02   -2,645803690e-01   -5,008184910e-01    0,000000000e+00    0,000000000e+00    0,000000000e+00    0,000000000e+00
     1080000000   -7,785459608e-02   -2,993483469e-02   -4,812571704e-01   -2,732064426e-01    0,000000000e+00    0,000000000e+00    0,000000000e+00    0,000000000e+00
     1094000000   -8,138216287e-02   -1,919512078e-02   -5,343741775e-01    4,329419136e-02    0,000000000e+00    0,000000000e+00    0,000000000e+00    0,000000000e+00
     1108000000   -5,999815464e-02   -1,089016907e-02   -3,975862861e-01    3,272173107e-01    0,000000000e+00    0,000000000e+00    0,000000000e+00    0,000000000e+00
     1122000000   -3,160839155e-02   -3,783401847e-02   -1,352078617e-01    4,831360877e-01    0,000000000e+00    0,000000000e+00    0,000000000e+00    0,000000000e+00
     1136000000   -2,995450050e-02   -8,223216236e-02    1,627420187e-01    4,700158238e-01    0,000000000e+00    0,000000000e+00    0,000000000e+00    0,000000000e+00
     1150000000   -6,406178325e-02   -1,340362430e-01    4,174464643e-01    3,125464916e-01    0,000000000e+00    0,000000000e+00    0,000000000e+00    0,000000000e+00
     1164000000   -1,373362690e-01   -1,502183229e-01    5,640019774e-01    2,702133730e-02    0,000000000e+00    0,000000000e+00    0,000000000e+00    0,000000000e+00
     1178000000   -2,074751407e-01   -1,204167604e-01    5,323236585e-01   -3,173340559e-01    0,000000000e+00    0,000000000e+00    0,000000000e+00    0,000000000e+00
     1192000000   -2,495013922e-01   -4,483293742e-02    2,969633341e-01   -5,984016657e-01    0,000000000e+00    0,000000000e+00    0,000000000e+00    0,000000000e+00
     1206000000   -2,292613387e-01    3,324100748e-02   -7,214707136e-02   -6,995244026e-01    0,000000000e+00    0,000000000e+00    0,000000000e+00    0,000000000e+00
     1220000000   -1,829717457e-01    8,563305438e-02   -4,222547412e-01   -5,816932321e-01    0,000000000e+00    0,000000000e+00    0,000000000e+00    0,000000000e+00
     1234000000   -1,242059171e-01    1,014036387e-01   -6,448873281e-01   -2,893247306e-01    0,000000000e+00    0,000000000e+00    0,000000000e+00    0,000000000e+00
     1248000000   -6,388415396e-02    9,916026145e-02   -6,799063087e-01    6,158917770e-02    0,000000000e+00    0,000000000e+00    0,000000000e+00    0,000000000e+00
     1262000000   -9,030403569e-03    6,250608712e-02   -5,139781237e-01    3,724756539e-01    0,000000000e+00    0,000000000e+00    0,000000000e+00    0,000000000e+00
     1276000000    2,131927572e-02   -9,112897678e-04   -2,425530851e-01    5,465939641e-01    0,000000000e+00    0,000000000e+00    0,000000000e+00    0,000000000e+00
     1290000000    2,068363316e-02   -9,225910902e-02    6,892196834e-02    5,755414963e-01    0,000000000e+00    0,000000000e+00    0,000000000e+00    0,000000000e+00
     1304000000   -3,240405768e-02   -1,697531193e-01    3,715282679e-01    4,631093740e-01    0,000000000e+00    0,000000000e+00    0,000000000e+00    0,000000000e+00
     1318000000   -1,372674406e-01   -2,155948132e-01    5,820077062e-01    2,187199891e-01    0,000000000e+00    0,000000000e+00    0,000000000e+00    0,000000000e+00
     1332000000   -2,579830289e-01   -1,866287440e-01    6,489458084e-01   -1,248774901e-01    0,000000000e+00    0,000000000e+00    0,000000000e+00    0,000000000e+00
     1346000000   -3,334346116e-01   -9,058006108e-02    5,103229284e-01   -4,591608942e-01    0,000000000e+00    0,000000000e+00    0,000000000e+00    0,000000000e+00
     1360000000   -3,304645121e-01    2,352309041e-02    1,922418922e-01   -6,516191363e-01    0,000000000e+00    0,000000000e+00    0,000000000e+00    0,000000000e+00
     1374000000   -2,818899155e-01    1,069286540e-01   -1,602054834e-01   -5,945015550e-01    0,000000000e+00    0,000000000e+00    0,000000000e+00    0,000000000e+00
     1388000000   -2,107510567e-01    1,341495961e-01   -4,042955339e-01   -3,758717477e-01    0,000000000e+00    0,000000000e+00    0,000000000e+00    0,000000000e+00
     1402000000   -1,517730504e-01    1,350362897e-01   -4,823198020e-01   -6,759230793e-02    0,000000000e+00    0,000000000e+00    0,000000000e+00    0,000000000e+00
     1416000000   -9,446916729e-02    1,173708215e-01   -3,810797036e-01    2,415647209e-01    0,000000000e+00    0,000000000e+00    0,000000000e+00    0,000000000e+00
     1430000000   -4,759490490e-02    6,634493172e-02   -1,353150457e-01    4,309390783e-01    0,000000000e+00    0,000000000e+00    0,000000000e+00    0,000000000e+00
     1444000000   -3,840972856e-02    3,320700722e-03    1,597834229e-01    5,323477983e-01    0,000000000e+00    0,000000000e+00    0,000000000e+00    0,000000000e+00
     1458000000   -6,468436867e-02   -7,701901346e-02    4,898429215e-01    4,708613753e-01    0,000000000e+00    0,000000000e+00    0,000000000e+00    0,000000000e+00
     1472000000   -1,376907527e-01   -1,247642189e-01    7,488571405e-01    2,569913864e-01    0,000000000e+00    0,000000000e+00    0,000000000e+00    0,000000000e+00
     1486000000   -2,321610600e-01   -1,136610284e-01    8,998219967e-01   -8,920484036e-02    0,000000000e+00    0,000000000e+00    0,000000000e+00    0,000000000e+00
     1500000000   -2,911983728e-01   -4,964402691e-02    8,122659922e-01   -4,655707777e-01    0,000000000e+00    0,000000000e+00    0,000000000e+00    0,000000000e+00
