! NanoVNA-App
! Date: 2025-09-25 15:09:00
! Start: 100MHz Stop: 1,5GHz Points: 101
! S-Parameter data: F S11 S21 S12 S22
# Hz S RI R 50
!     Frequency           S11_Real           S11_Imag           S21_Real           S21_Imag           S12_Real           S12_Imag           S22_Real           S22_Imag
      100000000    3,115736321e-02    2,864662930e-02    4,348526001e-01   -6,685904264e-01    0,000000000e+00    0,000000000e+00    0,000000000e+00    0,000000000e+00
      114000000    5,759330094e-02    5,474994425e-03    7,652307861e-03   -7,910447717e-01    0,000000000e+00    0,000000000e+00    0,000000000e+00    0,000000000e+00
      128000000    6,723026931e-02   -3,784929588e-02   -4,101617038e-01   -6,709565520e-01    0,000000000e+00    0,000000000e+00    0,000000000e+00    0,000000000e+00
      142000000    4,472845420e-02   -8,425647765e-02   -7,031757832e-01   -3,534082770e-01    0,000000000e+00    0,000000000e+00    0,000000000e+00    0,000000000e+00
      156000000   -5,497734528e-03   -1,070020646e-01   -7,872657776e-01    7,413287461e-02    0,000000000e+00    0,000000000e+00    0,000000000e+00    0,000000000e+00
      170000000   -5,766430497e-02   -9,068428725e-02   -6,276166439e-01    4,870548844e-01    0,000000000e+00    0,000000000e+00    0,000000000e+00    0,000000000e+00
      184000000   -8,372738957e-02   -4,947787151e-02   -2,649074793e-01    7,509564757e-01    0,000000000e+00    0,000000000e+00    0,000000000e+00    0,000000000e+00
      198000000   -7,962112129e-02   -1,046980452e-02    1,834556162e-01    7,733199596e-01    0,000000000e+00    0,000000000e+00    0,000000000e+00    0,000000000e+00
      212000000   -6,223040074e-02    1,319632027e-02    5,689952374e-01    5,489708781e-01    0,000000000e+00    0,000000000e+00    0,000000000e+00    0,000000000e+00
      226000000   -4,326802120e-02    2,771281824e-02    7,706990838e-01    1,544369608e-01    0,000000000e+00    0,000000000e+00    0,000000000e+00    0,000000000e+00
      240000000   -1,822912507e-02    3,846703842e-02    7,269049287e-01   -2,819160819e-01    0,000000000e+00    0,000000000e+00    0,000000000e+00    0,000000000e+00
      254000000    1,719179936e-02    3,516159207e-02    4,577847421e-01   -6,197732091e-01    0,000000000e+00    0,000000000e+00    0,000000000e+00    0,000000000e+00
      268000000    4,881193489e-02    5,624231417e-03    5,903780833e-02   -7,603382468e-01    0,000000000e+00    0,000000000e+00    0,000000000e+00    0,000000000e+00
      282000000    5,351660401e-02   -4,175995663e-02   -3,492645323e-01   -6,712593436e-01    0,000000000e+00    0,000000000e+00    0,000000000e+00    0,000000000e+00
      296000000    2,410980314e-02   -7,954004407e-02   -6,520220637e-01   -3,854649961e-01    0,000000000e+00    0,000000000e+00    0,000000000e+00    0,000000000e+00
      310000000   -1,774726436e-02   -8,301075548e-02   -7,624519467e-01    1,990898699e-02    0,000000000e+00    0,000000000e+00    0,000000000e+00    0,000000000e+00
      324000000   -4,151734337e-02   -5,893809348e-02   -6,319295168e-01    4,315082133e-01    0,000000000e+00    0,000000000e+00    0,000000000e+00    0,000000000e+00
      338000000   -3,424011543e-02   -3,706776723e-02   -2,977235913e-01    7,012803555e-01    0,000000000e+00    0,000000000e+00    0,000000000e+00    0,000000000e+00
      352000000   -1,746980660e-02   -4,055786505e-02    1,252541691e-01    7,419313788e-01    0,000000000e+00    0,000000000e+00    0,000000000e+00    0,000000000e+00
      366000000   -1,923308894e-02   -6,180202961e-02    4,978818893e-01    5,542044044e-01    0,000000000e+00    0,000000000e+00    0,000000000e+00    0,000000000e+00
      380000000   -4,449125379e-02   -7,266380638e-02    7,133241892e-01    2,003272027e-01    0,000000000e+00    0,000000000e+00    0,000000000e+00    0,000000000e+00
      394000000   -7,100971043e-02   -5,797420070e-02    7,037843466e-01   -2,161806524e-01    0,000000000e+00    0,000000000e+00    0,000000000e+00    0,000000000e+00
      408000000   -7,681656629e-02   -3,039012104e-02    4,718845487e-01   -5,597788692e-01    0,000000000e+00    0,000000000e+00    0,000000000e+00    0,000000000e+00
      422000000   -6,554392725e-02   -1,118395291e-02    9,300608933e-02   -7,183136344e-01    0,000000000e+00    0,000000000e+00    0,000000000e+00    0,000000000e+00
      436000000   -5,290139839e-02   -4,700581077e-03   -3,022115827e-01   -6,479682326e-01    0,000000000e+00    0,000000000e+00    0,000000000e+00    0,000000000e+00
      450000000   -4,458149895e-02    1,375233405e-03   -5,927602649e-01   -3,787627220e-01    0,000000000e+00    0,000000000e+00    0,000000000e+00    0,000000000e+00
      464000000   -2,920858748e-02    1,129426714e-02   -6,913056970e-01   -2,354393473e-05    0,000000000e+00    0,000000000e+00    0,000000000e+00    0,000000000e+00
      478000000   -8,557080873e-04    1,145782415e-02   -5,731160045e-01    3,636711836e-01    0,000000000e+00    0,000000000e+00    0,000000000e+00    0,000000000e+00
      492000000    2,745659649e-02   -1,198912133e-02   -2,892989218e-01    6,022962332e-01    0,000000000e+00    0,000000000e+00    0,000000000e+00    0,000000000e+00
      506000000    3,670578450e-02   -5,569609627e-02    6,913773715e-02    6,584399939e-01    0,000000000e+00    0,000000000e+00    0,000000000e+00    0,000000000e+00
      520000000    1,268559135e-02   -9,792926162e-02    4,000280797e-01    5,249698758e-01    0,000000000e+00    0,000000000e+00    0,000000000e+00    0,000000000e+00
      534000000   -3,443261981e-02   -1,158808246e-01    6,236615181e-01    2,367371321e-01    0,000000000e+00    0,000000000e+00    0,000000000e+00    0,000000000e+00
      548000000   -7,741483301e-02   -9,942741692e-02    6,586075425e-01   -1,330889016e-01    0,000000000e+00    0,000000000e+00    0,000000000e+00    0,000000000e+00
      562000000   -9,347551316e-02   -6,633792818e-02    4,815185666e-01   -4,671317041e-01    0,000000000e+00    0,000000000e+00    0,000000000e+00    0,000000000e+00
      576000000   -8,641430736e-02   -4,438102990e-02    1,499152631e-01   -6,474424005e-01    0,000000000e+00    0,000000000e+00    0,000000000e+00    0,000000000e+00
      590000000   -8,091153204e-02   -4,176336527e-02   -2,173460275e-01   -6,273342967e-01    0,000000000e+00    0,000000000e+00    0,000000000e+00    0,000000000e+00
      604000000   -8,889258653e-02   -3,762342408e-02   -5,200013518e-01   -4,064585268e-01    0,000000000e+00    0,000000000e+00    0,000000000e+00    0,000000000e+00
      618000000   -9,657131881e-02   -1,563342102e-02   -6,530623436e-01   -5,854815617e-02    0,000000000e+00    0,000000000e+00    0,000000000e+00    0,000000000e+00
      632000000   -8,073953539e-02    1,504623052e-02   -5,753024220e-01    3,027811050e-01    0,000000000e+00    0,000000000e+00    0,000000000e+00    0,000000000e+00
      646000000   -4,315017164e-02    2,628386766e-02   -3,188394308e-01    5,561683178e-01    0,000000000e+00    0,000000000e+00    0,000000000e+00    0,000000000e+00
      660000000   -7,210060488e-03    6,445917767e-03    2,135320939e-02    6,301379204e-01    0,000000000e+00    0,000000000e+00    0,000000000e+00    0,000000000e+00
      674000000    1,010723179e-03   -2,928441204e-02    3,422113061e-01    5,188463926e-01    0,000000000e+00    0,000000000e+00    0,000000000e+00    0,000000000e+00
      688000000   -1,534304302e-02   -5,541224778e-02    5,589638948e-01    2,587731183e-01    0,000000000e+00    0,000000000e+00    0,000000000e+00    0,000000000e+00
      702000000   -3,330386430e-02   -5,912015215e-02    6,055691242e-01   -7,942297310e-02    0,000000000e+00    0,000000000e+00    0,000000000e+00    0,000000000e+00
      716000000   -3,717876598e-02   -5,660482123e-02    4,594670832e-01   -3,896647394e-01    0,000000000e+00    0,000000000e+00    0,000000000e+00    0,000000000e+00
      730000000   -3,256164864e-02   -6,470695138e-02    1,743382215e-01   -5,662999749e-01    0,000000000e+00    0,000000000e+00    0,000000000e+00    0,000000000e+00
      744000000   -4,086453840e-02   -8,834490925e-02   -1,531676948e-01   -5,648411512e-01    0,000000000e+00    0,000000000e+00    0,000000000e+00    0,000000000e+00
      758000000   -7,279010862e-02   -1,053293124e-01   -4,270909131e-01   -3,941284716e-01    0,000000000e+00    0,000000000e+00    0,000000000e+00    0,000000000e+00
      772000000   -1,134513989e-01   -9,364540875e-02   -5,749186873e-01   -1,057968140e-01    0,000000000e+00    0,000000000e+00    0,000000000e+00    0,000000000e+00
      786000000   -1,390198171e-01   -5,657963827e-02   -5,449908376e-01    2,211160064e-01    0,000000000e+00    0,000000000e+00    0,000000000e+00    0,000000000e+00
      800000000   -1,330267340e-01   -1,411925349e-02   -3,412053287e-01    4,803799689e-01    0,000000000e+00    0,000000000e+00    0,000000000e+00    0,000000000e+00
      814000000   -1,078000888e-01    8,665456437e-03   -3,449696675e-02    5,857912302e-01    0,000000000e+00    0,000000000e+00    0,000000000e+00    0,000000000e+00
      828000000   -8,549185842e-02    1,384835038e-02    2,778020799e-01    5,145477653e-01    0,000000000e+00    0,000000000e+00    0,000000000e+00    0,000000000e+00
      842000000   -7,084068656e-02    1,546310168e-02    5,026283264e-01    2,898206711e-01    0,000000000e+00    0,000000000e+00    0,000000000e+00    0,000000000e+00
      856000000   -5,233990401e-02    1,922063529e-02    5,706065893e-01   -1,787503995e-02    0,000000000e+00    0,000000000e+00    0,000000000e+00    0,000000000e+00
      870000000   -2,268533967e-02    1,472909655e-02    4,637226164e-01   -3,065493107e-01    0,000000000e+00    0,000000000e+00    0,000000000e+00    0,000000000e+00
      884000000    6,300856825e-03   -1,451602485e-02    2,311230451e-01   -4,892459810e-01    0,000000000e+00    0,000000000e+00    0,000000000e+00    0,000000000e+00
      898000000    1,150722522e-02   -6,402916461e-02   -5,341414735e-02   -5,267257690e-01    0,000000000e+00    0,000000000e+00    0,000000000e+00    0,000000000e+00
      912000000   -2,372934297e-02   -1,078324467e-01   -3,550641239e-01   -4,096826017e-01    0,000000000e+00    0,000000000e+00    0,000000000e+00    0,000000000e+00
      926000000   -7,366973162e-02   -1,240618005e-01   -5,283507109e-01   -1,577076912e-01    0,000000000e+00    0,000000000e+00    0,000000000e+00    0,000000000e+00
      940000000   -1,248959824e-01   -1,039420962e-01   -5,531064272e-01    1,551089734e-01    0,000000000e+00    0,000000000e+00    0,000000000e+00    0,000000000e+00
      954000000   -1,424846947e-01   -6,361158937e-02   -3,913343251e-01    4,468959272e-01    0,000000000e+00    0,000000000e+00    0,000000000e+00    0,000000000e+00
      968000000   -1,330882311e-01   -2,557314187e-02   -9,035173059e-02    6,044075489e-01    0,000000000e+00    0,000000000e+00    0,000000000e+00    0,000000000e+00
      982000000   -1,170591712e-01   -1,730368845e-02    2,436536998e-01    5,686052442e-01    0,000000000e+00    0,000000000e+00    0,000000000e+00    0,000000000e+00
      996000000   -1,074577942e-01   -1,673451625e-02    5,131961107e-01    3,661770225e-01    0,000000000e+00    0,000000000e+00    0,000000000e+00    0,000000000e+00
     1010000000   -1,035752520e-01   -5,366940051e-03    6,307713985e-01    5,227597430e-02    0,000000000e+00    0,000000000e+00    0,000000000e+00    0,000000000e+00
     1024000000   -8,895766735e-02    3,302459081e-04    5,605142117e-01   -2,711606324e-01    0,000000000e+00    0,000000000e+00    0,000000000e+00    0,000000000e+00
     1038000000   -7,643858343e-02   -4,706857726e-03    3,381579220e-01   -5,018256307e-01    0,000000000e+00    0,000000000e+00    0,000000000e+00    0,000000000e+00
     1052000000   -6,379193813e-02   -1,816284470e-02    3,243564814e-02   -5,843172073e-01    0,000000000e+00    0,000000000e+00    0,000000000e+00    0,000000000e+00
     1066000000   -6,699127704e-02   -3,168975562e-02   -2,662729919e-01   -5,004706383e-01    0,000000000e+00    0,000000000e+00    0,000000000e+00    0,000000000e+00
     1080000000   -7,946292311e-02   -2,942441404e-02   -4,834875464e-01   -2,707659006e-01    0,000000000e+00    0,000000000e+00    0,000000000e+00    0,000000000e+00
     1094000000   -8,180327713e-02   -1,479483489e-02   -5,315913558e-01    4,212380946e-02    0,000000000e+00    0,000000000e+00    0,000000000e+00    0,000000000e+00
     1108000000   -6,044042856e-02   -1,194690727e-02   -3,956397474e-01    3,260138035e-01    0,000000000e+00    0,000000000e+00    0,000000000e+00    0,000000000e+00
     1122000000   -3,393546119e-02   -3,632382303e-02   -1,355633587e-01    4,825677574e-01    0,000000000e+00    0,000000000e+00    0,000000000e+00    0,000000000e+00
     1136000000   -3,026521020e-02   -8,203665167e-02    1,632989496e-01    4,737255275e-01    0,000000000e+00    0,000000000e+00    0,000000000e+00    0,000000000e+00
     1150000000   -6,933502108e-02   -1,349173486e-01    4,220555127e-01    3,117359877e-01    0,000000000e+00    0,000000000e+00    0,000000000e+00    0,000000000e+00
     1164000000   -1,382528991e-01   -1,566179842e-01    5,624212623e-01    2,812147141e-02    0,000000000e+00    0,000000000e+00    0,000000000e+00    0,000000000e+00
     1178000000   -2,125489861e-01   -1,154622659e-01    5,332438946e-01   -3,129658401e-01    0,000000000e+00    0,000000000e+00    0,000000000e+00    0,000000000e+00
     1192000000   -2,511682212e-01   -4,457601532e-02    2,950124145e-01   -5,981079936e-01    0,000000000e+00    0,000000000e+00    0,000000000e+00    0,000000000e+00
     1206000000   -2,358174026e-01    2,918032743e-02   -6,629767269e-02   -6,992172599e-01    0,000000000e+00    0,000000000e+00    0,000000000e+00    0,000000000e+00
     1220000000   -1,833227873e-01    8,263252676e-02   -4,201566875e-01   -5,790099502e-01    0,000000000e+00    0,000000000e+00    0,000000000e+00    0,000000000e+00
     1234000000   -1,315661371e-01    1,032819524e-01   -6,472133994e-01   -2,948935926e-01    0,000000000e+00    0,000000000e+00    0,000000000e+00    0,000000000e+00
     1248000000   -6,886380166e-02    9,485647827e-02   -6,772380471e-01    6,167722866e-02    0,000000000e+00    0,000000000e+00    0,000000000e+00    0,000000000e+00
     1262000000   -1,407042891e-02    6,346060336e-02   -5,245806575e-01    3,713155687e-01    0,000000000e+00    0,000000000e+00    0,000000000e+00    0,000000000e+00
     1276000000    2,022848278e-02   -2,890690928e-03   -2,505152225e-01    5,440738201e-01    0,000000000e+00    0,000000000e+00    0,000000000e+00    0,000000000e+00
     1290000000    2,330331504e-02   -9,044783562e-02    6,952804327e-02    5,686342120e-01    0,000000000e+00    0,000000000e+00    0,000000000e+00    0,000000000e+00
     1304000000   -3,510669991e-02   -1,706155837e-01    3,607510328e-01    4,683710337e-01    0,000000000e+00    0,000000000e+00    0,000000000e+00    0,000000000e+00
     1318000000   -1,342352778e-01   -2,091238052e-01    5,887078047e-01    2,260676026e-01    0,000000000e+00    0,000000000e+00    0,000000000e+00    0,000000000e+00
     1332000000   -2,540940940e-01   -1,849544495e-01    6,491088867e-01   -1,213700101e-01    0,000000000e+00    0,000000000e+00    0,000000000e+00    0,000000000e+00
     1346000000   -3,276443779e-01   -8,903856575e-02    5,101611614e-01   -4,685460031e-01    0,000000000e+00    0,000000000e+00    0,000000000e+00    0,000000000e+00
     1360000000   -3,312988877e-01    3,013473749e-02    1,862294972e-01   -6,445143223e-01    0,000000000e+00    0,000000000e+00    0,000000000e+00    0,000000000e+00
     1374000000   -2,771361470e-01    9,748376161e-02   -1,574557871e-01   -5,993950367e-01    0,000000000e+00    0,000000000e+00    0,000000000e+00    0,000000000e+00
     1388000000   -2,129638493e-01    1,400384903e-01   -4,038119018e-01   -3,741618097e-01    0,000000000e+00    0,000000000e+00    0,000000000e+00    0,000000000e+00
     1402000000   -1,515838802e-01    1,364849359e-01   -4,884564877e-01   -5,207549408e-02    0,000000000e+00    0,000000000e+00    0,000000000e+00    0,000000000e+00
     1416000000   -9,305465221e-02    1,189222112e-01   -3,779035807e-01    2,507305741e-01    0,000000000e+00    0,000000000e+00    0,000000000e+00    0,000000000e+00
     1430000000   -5,268189311e-02    7,165765017e-02   -1,421207637e-01    4,315257370e-01    0,000000000e+00    0,000000000e+00    0,000000000e+00    0,000000000e+00
     1444000000   -3,493651375e-02    5,240290891e-03    1,662627310e-01    5,335344076e-01    0,000000000e+00    0,000000000e+00    0,000000000e+00    0,000000000e+00
     1458000000   -6,328435242e-02   -7,447495311e-02    4,733819664e-01    4,701670110e-01    0,000000000e+00    0,000000000e+00    0,000000000e+00    0,000000000e+00
     1472000000   -1,323909312e-01   -1,229361594e-01    7,613518238e-01    2,512238920e-01    0,000000000e+00    0,000000000e+00    0,000000000e+00    0,000000000e+00
     1486000000   -2,200694829e-01   -1,133345142e-01    9,019909501e-01   -7,583995908e-02    0,000000000e+00    0,000000000e+00    0,000000000e+00    0,000000000e+00
     1500000000   -2,835207582e-01   -4,856749251e-02    8,154004812e-01   -4,680065811e-01    0,000000000e+00    0,000000000e+00    0,000000000e+00    0,000000000e+00
