! NanoVNA-App
! Date: 2025-09-25 15:07:18
! Start: 100MHz Stop: 1,5GHz Points: 101
! S-Parameter data: F S11 S21 S12 S22
# Hz S RI R 50
!     Frequency           S11_Real           S11_Imag           S21_Real           S21_Imag           S12_Real           S12_Imag           S22_Real           S22_Imag
      100000000    3,115500137e-02    2,864983864e-02    4,348772764e-01   -6,686504483e-01    0,000000000e+00    0,000000000e+00    0,000000000e+00    0,000000000e+00
      114000000    5,759382993e-02    5,524660926e-03    7,681332063e-03   -7,910712957e-01    0,000000000e+00    0,000000000e+00    0,000000000e+00    0,000000000e+00
      128000000    6,728670001e-02   -3,779201210e-02   -4,103658497e-01   -6,709340215e-01    0,000000000e+00    0,000000000e+00    0,000000000e+00    0,000000000e+00
      142000000    4,471886531e-02   -8,417720348e-02   -7,026603222e-01   -3,531869650e-01    0,000000000e+00    0,000000000e+00    0,000000000e+00    0,000000000e+00
      156000000   -5,244961008e-03   -1,069692075e-01   -7,875983715e-01    7,395335287e-02    0,000000000e+00    0,000000000e+00    0,000000000e+00    0,000000000e+00
      170000000   -5,770577118e-02   -9,067647159e-02   -6,275376678e-01    4,870499372e-01    0,000000000e+00    0,000000000e+00    0,000000000e+00    0,000000000e+00
      184000000   -8,370160311e-02   -4,950242862e-02   -2,649894357e-01    7,508172393e-01    0,000000000e+00    0,000000000e+00    0,000000000e+00    0,000000000e+00
      198000000   -7,963086665e-02   -1,047548838e-02    1,837944090e-01    7,731585503e-01    0,000000000e+00    0,000000000e+00    0,000000000e+00    0,000000000e+00
      212000000   -6,226556748e-02    1,313481014e-02    5,689598322e-01    5,487967730e-01    0,000000000e+00    0,000000000e+00    0,000000000e+00    0,000000000e+00
      226000000   -4,322896153e-02    2,767680585e-02    7,706449628e-01    1,545244604e-01    0,000000000e+00    0,000000000e+00    0,000000000e+00    0,000000000e+00
      240000000   -1,818510890e-02    3,852150589e-02    7,266965508e-01   -2,819416821e-01    0,000000000e+00    0,000000000e+00    0,000000000e+00    0,000000000e+00
      254000000    1,721005142e-02    3,520591184e-02    4,578332901e-01   -6,203336120e-01    0,000000000e+00    0,000000000e+00    0,000000000e+00    0,000000000e+00
      268000000    4,882808402e-02    5,567760207e-03    5,863302201e-02   -7,602570653e-01    0,000000000e+00    0,000000000e+00    0,000000000e+00    0,000000000e+00
      282000000    5,351658911e-02   -4,179408401e-02   -3,491846919e-01   -6,714233756e-01    0,000000000e+00    0,000000000e+00    0,000000000e+00    0,000000000e+00
      296000000    2,399248071e-02   -7,948184013e-02   -6,519067883e-01   -3,849078119e-01    0,000000000e+00    0,000000000e+00    0,000000000e+00    0,000000000e+00
      310000000   -1,797185652e-02   -8,294840157e-02   -7,637395263e-01    2,128092386e-02    0,000000000e+00    0,000000000e+00    0,000000000e+00    0,000000000e+00
      324000000   -4,164089262e-02   -5,880498886e-02   -6,319990754e-01    4,304162860e-01    0,000000000e+00    0,000000000e+00    0,000000000e+00    0,000000000e+00
      338000000   -3,458163515e-02   -3,699667379e-02   -2,970826626e-01    7,022215724e-01    0,000000000e+00    0,000000000e+00    0,000000000e+00    0,000000000e+00
      352000000   -1,724845544e-02   -4,073872790e-02    1,256831884e-01    7,422413826e-01    0,000000000e+00    0,000000000e+00    0,000000000e+00    0,000000000e+00
      366000000   -1,905783638e-02   -6,182035804e-02    4,981945157e-01    5,533021092e-01    0,000000000e+00    0,000000000e+00    0,000000000e+00    0,000000000e+00
      380000000   -4,445152730e-02   -7,254563272e-02    7,131181359e-01    1,996506304e-01    0,000000000e+00    0,000000000e+00    0,000000000e+00    0,000000000e+00
      394000000   -7,076302916e-02   -5,821231380e-02    7,039283514e-01   -2,165246904e-01    0,000000000e+00    0,000000000e+00    0,000000000e+00    0,000000000e+00
      408000000   -7,702592760e-02   -3,050516173e-02    4,701189101e-01   -5,595468283e-01    0,000000000e+00    0,000000000e+00    0,000000000e+00    0,000000000e+00
      422000000   -6,563990563e-02   -1,114031859e-02    9,278666973e-02   -7,179108262e-01    0,000000000e+00    0,000000000e+00    0,000000000e+00    0,000000000e+00
      436000000   -5,280045792e-02   -4,532770719e-03   -3,016011417e-01   -6,473854780e-01    0,000000000e+00    0,000000000e+00    0,000000000e+00    0,000000000e+00
      450000000   -4,462387413e-02    1,621478936e-03   -5,933502316e-01   -3,776322901e-01    0,000000000e+00    0,000000000e+00    0,000000000e+00    0,000000000e+00
      464000000   -2,984275855e-02    1,140904240e-02   -6,915925145e-01    1,529977890e-04    0,000000000e+00    0,000000000e+00    0,000000000e+00    0,000000000e+00
      478000000   -1,368977246e-03    1,118920464e-02   -5,729027987e-01    3,633378446e-01    0,000000000e+00    0,000000000e+00    0,000000000e+00    0,000000000e+00
      492000000    2,800799906e-02   -1,191985607e-02   -2,890675068e-01    6,020343304e-01    0,000000000e+00    0,000000000e+00    0,000000000e+00    0,000000000e+00
      506000000    3,649628162e-02   -5,574163795e-02    6,915209442e-02    6,585607529e-01    0,000000000e+00    0,000000000e+00    0,000000000e+00    0,000000000e+00
      520000000    1,319794171e-02   -9,810151905e-02    4,020155966e-01    5,297030210e-01    0,000000000e+00    0,000000000e+00    0,000000000e+00    0,000000000e+00
      534000000   -3,394366428e-02   -1,158539578e-01    6,246213317e-01    2,366720438e-01    0,000000000e+00    0,000000000e+00    0,000000000e+00    0,000000000e+00
      548000000   -7,717976719e-02   -9,893442690e-02    6,579076052e-01   -1,332690716e-01    0,000000000e+00    0,000000000e+00    0,000000000e+00    0,000000000e+00
      562000000   -9,307538718e-02   -6,615434587e-02    4,815410376e-01   -4,665102959e-01    0,000000000e+00    0,000000000e+00    0,000000000e+00    0,000000000e+00
      576000000   -8,611593395e-02   -4,437262565e-02    1,513725817e-01   -6,477434635e-01    0,000000000e+00    0,000000000e+00    0,000000000e+00    0,000000000e+00
      590000000   -8,086991310e-02   -4,164857790e-02   -2,220918089e-01   -6,281264424e-01    0,000000000e+00    0,000000000e+00    0,000000000e+00    0,000000000e+00
      604000000   -8,871599287e-02   -3,696358204e-02   -5,187438726e-01   -4,057311118e-01    0,000000000e+00    0,000000000e+00    0,000000000e+00    0,000000000e+00
      618000000   -9,650421143e-02   -1,572409272e-02   -6,534201503e-01   -5,838400498e-02    0,000000000e+00    0,000000000e+00    0,000000000e+00    0,000000000e+00
      632000000   -8,151466399e-02    1,510350779e-02   -5,756256580e-01    3,029520810e-01    0,000000000e+00    0,000000000e+00    0,000000000e+00    0,000000000e+00
      646000000   -4,315124452e-02    2,600943297e-02   -3,185111880e-01    5,556367040e-01    0,000000000e+00    0,000000000e+00    0,000000000e+00    0,000000000e+00
      660000000   -7,879173383e-03    6,415582728e-03    2,111634053e-02    6,298725605e-01    0,000000000e+00    0,000000000e+00    0,000000000e+00    0,000000000e+00
      674000000    1,565821585e-03   -2,997555211e-02    3,423596621e-01    5,191193819e-01    0,000000000e+00    0,000000000e+00    0,000000000e+00    0,000000000e+00
      688000000   -1,489177719e-02   -5,595909804e-02    5,584771037e-01    2,585375607e-01    0,000000000e+00    0,000000000e+00    0,000000000e+00    0,000000000e+00
      702000000   -3,265607730e-02   -6,007211655e-02    6,037932634e-01   -7,963183522e-02    0,000000000e+00    0,000000000e+00    0,000000000e+00    0,000000000e+00
      716000000   -3,643611446e-02   -5,596337467e-02    4,590852261e-01   -3,891895711e-01    0,000000000e+00    0,000000000e+00    0,000000000e+00    0,000000000e+00
      730000000   -3,177151084e-02   -6,591847539e-02    1,736094356e-01   -5,664704442e-01    0,000000000e+00    0,000000000e+00    0,000000000e+00    0,000000000e+00
      744000000   -4,089427739e-02   -8,840256929e-02   -1,533495337e-01   -5,645698905e-01    0,000000000e+00    0,000000000e+00    0,000000000e+00    0,000000000e+00
      758000000   -7,249604911e-02   -1,055324599e-01   -4,269170165e-01   -3,940557837e-01    0,000000000e+00    0,000000000e+00    0,000000000e+00    0,000000000e+00
      772000000   -1,138305739e-01   -9,415177256e-02   -5,742575526e-01   -1,060568020e-01    0,000000000e+00    0,000000000e+00    0,000000000e+00    0,000000000e+00
      786000000   -1,383887529e-01   -5,633715913e-02   -5,451995730e-01    2,207007557e-01    0,000000000e+00    0,000000000e+00    0,000000000e+00    0,000000000e+00
      800000000   -1,331261992e-01   -1,477825269e-02   -3,419740796e-01    4,805040359e-01    0,000000000e+00    0,000000000e+00    0,000000000e+00    0,000000000e+00
      814000000   -1,078371927e-01    8,005950600e-03   -3,492705896e-02    5,872834921e-01    0,000000000e+00    0,000000000e+00    0,000000000e+00    0,000000000e+00
      828000000   -8,502855152e-02    1,364491694e-02    2,794139385e-01    5,135498643e-01    0,000000000e+00    0,000000000e+00    0,000000000e+00    0,000000000e+00
      842000000   -7,019793242e-02    1,429021452e-02    5,022332668e-01    2,889319360e-01    0,000000000e+00    0,000000000e+00    0,000000000e+00    0,000000000e+00
      856000000   -5,215970427e-02    1,885180548e-02    5,701826811e-01   -1,793014631e-02    0,000000000e+00    0,000000000e+00    0,000000000e+00    0,000000000e+00
      870000000   -2,265035361e-02    1,482122391e-02    4,635041058e-01   -3,053579628e-01    0,000000000e+00    0,000000000e+00    0,000000000e+00    0,000000000e+00
      884000000    6,404499058e-03   -1,467219368e-02    2,318174988e-01   -4,885617495e-01    0,000000000e+00    0,000000000e+00    0,000000000e+00    0,000000000e+00
      898000000    1,139129605e-02   -6,393638998e-02   -5,165540427e-02   -5,273978710e-01    0,000000000e+00    0,000000000e+00    0,000000000e+00    0,000000000e+00
      912000000   -2,348675206e-02   -1,082249880e-01   -3,527927101e-01   -4,027176499e-01    0,000000000e+00    0,000000000e+00    0,000000000e+00    0,000000000e+00
      926000000   -7,507243007e-02   -1,236236468e-01   -5,295833349e-01   -1,587474793e-01    0,000000000e+00    0,000000000e+00    0,000000000e+00    0,000000000e+00
      940000000   -1,226144284e-01   -9,954157472e-02   -5,510185361e-01    1,559454799e-01    0,000000000e+00    0,000000000e+00    0,000000000e+00    0,000000000e+00
      954000000   -1,435837746e-01   -5,981680378e-02   -3,946858346e-01    4,465138316e-01    0,000000000e+00    0,000000000e+00    0,000000000e+00    0,000000000e+00
      968000000   -1,292051226e-01   -2,600249648e-02   -9,293464571e-02    6,040803194e-01    0,000000000e+00    0,000000000e+00    0,000000000e+00    0,000000000e+00
      982000000   -1,153381020e-01   -1,880993508e-02    2,454998493e-01    5,721924901e-01    0,000000000e+00    0,000000000e+00    0,000000000e+00    0,000000000e+00
      996000000   -1,100564077e-01   -1,441837847e-02    5,116655231e-01    3,680177331e-01    0,000000000e+00    0,000000000e+00    0,000000000e+00    0,000000000e+00
     1010000000   -1,036816463e-01   -1,170580834e-02    6,303161979e-01    5,204672739e-02    0,000000000e+00    0,000000000e+00    0,000000000e+00    0,000000000e+00
     1024000000   -9,095279872e-02   -2,130247885e-03    5,603401065e-01   -2,697251141e-01    0,000000000e+00    0,000000000e+00    0,000000000e+00    0,000000000e+00
     1038000000   -7,887464017e-02   -8,622992318e-04    3,366338909e-01   -5,043627024e-01    0,000000000e+00    0,000000000e+00    0,000000000e+00    0,000000000e+00
     1052000000   -6,815610081e-02   -1,757633686e-02    3,202982619e-02   -5,858858228e-01    0,000000000e+00    0,000000000e+00    0,000000000e+00    0,000000000e+00
     1066000000   -6,989473850e-02   -3,267233819e-02   -2,660318911e-01   -5,013394356e-01    0,000000000e+00    0,000000000e+00    0,000000000e+00    0,000000000e+00
     1080000000   -7,870116085e-02   -3,281929716e-02   -4,824405015e-01   -2,697626054e-01    0,000000000e+00    0,000000000e+00    0,000000000e+00    0,000000000e+00
     1094000000   -7,820437104e-02   -1,544825733e-02   -5,342100859e-01    4,271055013e-02    0,000000000e+00    0,000000000e+00    0,000000000e+00    0,000000000e+00
     1108000000   -5,896331742e-02   -1,477008872e-02   -3,959338069e-01    3,237345219e-01    0,000000000e+00    0,000000000e+00    0,000000000e+00    0,000000000e+00
     1122000000   -2,937864885e-02   -3,513821959e-02   -1,327885091e-01    4,839244485e-01    0,000000000e+00    0,000000000e+00    0,000000000e+00    0,000000000e+00
     1136000000   -2,698472887e-02   -8,151497692e-02    1,618374586e-01    4,720261395e-01    0,000000000e+00    0,000000000e+00    0,000000000e+00    0,000000000e+00
     1150000000   -6,473447382e-02   -1,372840703e-01    4,181592762e-01    3,143812716e-01    0,000000000e+00    0,000000000e+00    0,000000000e+00    0,000000000e+00
     1164000000   -1,390373707e-01   -1,546779573e-01    5,621281266e-01    2,612402849e-02    0,000000000e+00    0,000000000e+00    0,000000000e+00    0,000000000e+00
     1178000000   -2,065904289e-01   -1,186225936e-01    5,293748379e-01   -3,186907470e-01    0,000000000e+00    0,000000000e+00    0,000000000e+00    0,000000000e+00
     1192000000   -2,447857857e-01   -4,114804417e-02    2,968226075e-01   -5,985058546e-01    0,000000000e+00    0,000000000e+00    0,000000000e+00    0,000000000e+00
     1206000000   -2,286197245e-01    3,533976898e-02   -6,737304479e-02   -6,969404221e-01    0,000000000e+00    0,000000000e+00    0,000000000e+00    0,000000000e+00
     1220000000   -1,877892464e-01    8,652116358e-02   -4,207776785e-01   -5,787207484e-01    0,000000000e+00    0,000000000e+00    0,000000000e+00    0,000000000e+00
     1234000000   -1,280385256e-01    1,020747051e-01   -6,453079581e-01   -2,965674698e-01    0,000000000e+00    0,000000000e+00    0,000000000e+00    0,000000000e+00
     1248000000   -6,567577273e-02    9,397624433e-02   -6,779619455e-01    6,110964715e-02    0,000000000e+00    0,000000000e+00    0,000000000e+00    0,000000000e+00
     1262000000   -1,172929537e-02    6,101702899e-02   -5,180497766e-01    3,677599132e-01    0,000000000e+00    0,000000000e+00    0,000000000e+00    0,000000000e+00
     1276000000    2,626783401e-02   -3,097819863e-03   -2,431469411e-01    5,485188961e-01    0,000000000e+00    0,000000000e+00    0,000000000e+00    0,000000000e+00
     1290000000    2,133072726e-02   -8,445359021e-02    6,947300583e-02    5,786251426e-01    0,000000000e+00    0,000000000e+00    0,000000000e+00    0,000000000e+00
     1304000000   -3,057288937e-02   -1,719591767e-01    3,695122600e-01    4,645340443e-01    0,000000000e+00    0,000000000e+00    0,000000000e+00    0,000000000e+00
     1318000000   -1,375698596e-01   -2,123436034e-01    5,819863677e-01    2,196894437e-01    0,000000000e+00    0,000000000e+00    0,000000000e+00    0,000000000e+00
     1332000000   -2,554709315e-01   -1,882169992e-01    6,591511369e-01   -1,280284971e-01    0,000000000e+00    0,000000000e+00    0,000000000e+00    0,000000000e+00
     1346000000   -3,389353454e-01   -8,888931572e-02    5,015354156e-01   -4,669718146e-01    0,000000000e+00    0,000000000e+00    0,000000000e+00    0,000000000e+00
     1360000000   -3,308814168e-01    2,775256895e-02    1,944792122e-01   -6,421217322e-01    0,000000000e+00    0,000000000e+00    0,000000000e+00    0,000000000e+00
     1374000000   -2,811076641e-01    1,035833284e-01   -1,550230235e-01   -6,093785167e-01    0,000000000e+00    0,000000000e+00    0,000000000e+00    0,000000000e+00
     1388000000   -2,113531381e-01    1,352637708e-01   -4,053603113e-01   -3,779807985e-01    0,000000000e+00    0,000000000e+00    0,000000000e+00    0,000000000e+00
     1402000000   -1,515507996e-01    1,376560181e-01   -4,769659638e-01   -6,013310701e-02    0,000000000e+00    0,000000000e+00    0,000000000e+00    0,000000000e+00
     1416000000   -9,958339483e-02    1,144038066e-01   -3,783374727e-01    2,453650683e-01    0,000000000e+00    0,000000000e+00    0,000000000e+00    0,000000000e+00
     1430000000   -5,238587037e-02    7,318072766e-02   -1,124046221e-01    4,809111357e-01    0,000000000e+00    0,000000000e+00    0,000000000e+00    0,000000000e+00
     1444000000   -3,723920882e-02    1,222976134e-03    1,660151929e-01    5,360592604e-01    0,000000000e+00    0,000000000e+00    0,000000000e+00    0,000000000e+00
     1458000000   -6,772872806e-02   -7,349854708e-02    4,773422182e-01    4,724557400e-01    0,000000000e+00    0,000000000e+00    0,000000000e+00    0,000000000e+00
     1472000000   -1,424617022e-01   -1,252549738e-01    7,554662228e-01    2,488314062e-01    0,000000000e+00    0,000000000e+00    0,000000000e+00    0,000000000e+00
     1486000000   -2,352273911e-01   -1,122608632e-01    8,895031214e-01   -7,707788795e-02    0,000000000e+00    0,000000000e+00    0,000000000e+00    0,000000000e+00
     1500000000   -2,863166332e-01   -4,346466810e-02    8,224256635e-01   -4,498214722e-01    0,000000000e+00    0,000000000e+00    0,000000000e+00    0,000000000e+00
