! NanoVNA-App
! Date: 2025-09-25 15:04:58
! Start: 100MHz Stop: 1,5GHz Points: 101
! S-Parameter data: F S11 S21 S12 S22
# Hz S RI R 50
!     Frequency           S11_Real           S11_Imag           S21_Real           S21_Imag           S12_Real           S12_Imag           S22_Real           S22_Imag
      100000000    3,110463731e-02    2,860862203e-02    4,347742498e-01   -6,686822772e-01    0,000000000e+00    0,000000000e+00    0,000000000e+00    0,000000000e+00
      114000000    5,751748383e-02    5,459877197e-03    7,598882541e-03   -7,911024690e-01    0,000000000e+00    0,000000000e+00    0,000000000e+00    0,000000000e+00
      128000000    6,721844524e-02   -3,776124865e-02   -4,105687737e-01   -6,711953878e-01    0,000000000e+00    0,000000000e+00    0,000000000e+00    0,000000000e+00
      142000000    4,466830567e-02   -8,415329456e-02   -7,030442357e-01   -3,532564044e-01    0,000000000e+00    0,000000000e+00    0,000000000e+00    0,000000000e+00
      156000000   -6,112320349e-03   -1,061039120e-01   -7,857532501e-01    7,345139235e-02    0,000000000e+00    0,000000000e+00    0,000000000e+00    0,000000000e+00
      170000000   -5,767245218e-02   -9,060094506e-02   -6,274202466e-01    4,872202873e-01    0,000000000e+00    0,000000000e+00    0,000000000e+00    0,000000000e+00
      184000000   -8,363239467e-02   -4,941357300e-02   -2,649214566e-01    7,511974573e-01    0,000000000e+00    0,000000000e+00    0,000000000e+00    0,000000000e+00
      198000000   -7,956869900e-02   -1,047396474e-02    1,836671084e-01    7,732388377e-01    0,000000000e+00    0,000000000e+00    0,000000000e+00    0,000000000e+00
      212000000   -6,224633753e-02    1,313998736e-02    5,690537691e-01    5,489333868e-01    0,000000000e+00    0,000000000e+00    0,000000000e+00    0,000000000e+00
      226000000   -4,321174696e-02    2,757321484e-02    7,707700729e-01    1,544661969e-01    0,000000000e+00    0,000000000e+00    0,000000000e+00    0,000000000e+00
      240000000   -1,813895255e-02    3,843076155e-02    7,267530560e-01   -2,820535302e-01    0,000000000e+00    0,000000000e+00    0,000000000e+00    0,000000000e+00
      254000000    1,714449190e-02    3,507044539e-02    4,574603140e-01   -6,204494834e-01    0,000000000e+00    0,000000000e+00    0,000000000e+00    0,000000000e+00
      268000000    4,866698012e-02    5,468882620e-03    5,874693766e-02   -7,603062987e-01    0,000000000e+00    0,000000000e+00    0,000000000e+00    0,000000000e+00
      282000000    5,329537392e-02   -4,171928391e-02   -3,491359353e-01   -6,715024710e-01    0,000000000e+00    0,000000000e+00    0,000000000e+00    0,000000000e+00
      296000000    2,384592034e-02   -7,950959355e-02   -6,521132588e-01   -3,854425550e-01    0,000000000e+00    0,000000000e+00    0,000000000e+00    0,000000000e+00
      310000000   -1,797701046e-02   -8,307712525e-02   -7,634156346e-01    1,971470937e-02    0,000000000e+00    0,000000000e+00    0,000000000e+00    0,000000000e+00
      324000000   -4,165515676e-02   -5,881038308e-02   -6,322892308e-01    4,316736162e-01    0,000000000e+00    0,000000000e+00    0,000000000e+00    0,000000000e+00
      338000000   -3,404374793e-02   -3,682674095e-02   -2,964393198e-01    7,017646432e-01    0,000000000e+00    0,000000000e+00    0,000000000e+00    0,000000000e+00
      352000000   -1,744912192e-02   -4,070349038e-02    1,257850379e-01    7,417275310e-01    0,000000000e+00    0,000000000e+00    0,000000000e+00    0,000000000e+00
      366000000   -1,908738166e-02   -6,216612086e-02    4,983375669e-01    5,547199845e-01    0,000000000e+00    0,000000000e+00    0,000000000e+00    0,000000000e+00
      380000000   -4,428958893e-02   -7,270256430e-02    7,132274508e-01    1,999276578e-01    0,000000000e+00    0,000000000e+00    0,000000000e+00    0,000000000e+00
      394000000   -7,068157196e-02   -5,812233314e-02    7,039555311e-01   -2,160808295e-01    0,000000000e+00    0,000000000e+00    0,000000000e+00    0,000000000e+00
      408000000   -7,722821087e-02   -3,063494712e-02    4,703278244e-01   -5,600281358e-01    0,000000000e+00    0,000000000e+00    0,000000000e+00    0,000000000e+00
      422000000   -6,577653438e-02   -1,118648052e-02    9,316314757e-02   -7,184417248e-01    0,000000000e+00    0,000000000e+00    0,000000000e+00    0,000000000e+00
      436000000   -5,353829637e-02   -4,620020743e-03   -3,026822805e-01   -6,476964355e-01    0,000000000e+00    0,000000000e+00    0,000000000e+00    0,000000000e+00
      450000000   -4,460243881e-02    2,113283612e-03   -5,928612947e-01   -3,773960471e-01    0,000000000e+00    0,000000000e+00    0,000000000e+00    0,000000000e+00
      464000000   -2,922332659e-02    1,152569987e-02   -6,908496618e-01    3,687223070e-04    0,000000000e+00    0,000000000e+00    0,000000000e+00    0,000000000e+00
      478000000   -5,875015049e-04    1,097418834e-02   -5,729735494e-01    3,632773757e-01    0,000000000e+00    0,000000000e+00    0,000000000e+00    0,000000000e+00
      492000000    2,837463841e-02   -1,257741079e-02   -2,882914245e-01    6,016935706e-01    0,000000000e+00    0,000000000e+00    0,000000000e+00    0,000000000e+00
      506000000    3,662427515e-02   -5,628464743e-02    6,899131835e-02    6,579676867e-01    0,000000000e+00    0,000000000e+00    0,000000000e+00    0,000000000e+00
      520000000    1,171975397e-02   -9,807556123e-02    4,033394456e-01    5,253660679e-01    0,000000000e+00    0,000000000e+00    0,000000000e+00    0,000000000e+00
      534000000   -3,416276351e-02   -1,157217771e-01    6,240288019e-01    2,365571111e-01    0,000000000e+00    0,000000000e+00    0,000000000e+00    0,000000000e+00
      548000000   -7,721129060e-02   -9,872817993e-02    6,580091119e-01   -1,332534850e-01    0,000000000e+00    0,000000000e+00    0,000000000e+00    0,000000000e+00
      562000000   -9,327311069e-02   -6,567529589e-02    4,817394614e-01   -4,663189650e-01    0,000000000e+00    0,000000000e+00    0,000000000e+00    0,000000000e+00
      576000000   -8,621857315e-02   -4,440022632e-02    1,509307921e-01   -6,482514739e-01    0,000000000e+00    0,000000000e+00    0,000000000e+00    0,000000000e+00
      590000000   -8,086453378e-02   -4,185633734e-02   -2,210312188e-01   -6,273709536e-01    0,000000000e+00    0,000000000e+00    0,000000000e+00    0,000000000e+00
      604000000   -8,865308762e-02   -3,728501871e-02   -5,197164416e-01   -4,055697918e-01    0,000000000e+00    0,000000000e+00    0,000000000e+00    0,000000000e+00
      618000000   -9,687951207e-02   -1,558499504e-02   -6,533992887e-01   -5,864477903e-02    0,000000000e+00    0,000000000e+00    0,000000000e+00    0,000000000e+00
      632000000   -8,109679073e-02    1,493519731e-02   -5,749121308e-01    3,031562269e-01    0,000000000e+00    0,000000000e+00    0,000000000e+00    0,000000000e+00
      646000000   -4,227494448e-02    2,656165883e-02   -3,186738789e-01    5,559688807e-01    0,000000000e+00    0,000000000e+00    0,000000000e+00    0,000000000e+00
      660000000   -6,827432197e-03    6,363471039e-03    2,178958990e-02    6,310292482e-01    0,000000000e+00    0,000000000e+00    0,000000000e+00    0,000000000e+00
      674000000    1,174261444e-03   -3,050388768e-02    3,429423273e-01    5,186402798e-01    0,000000000e+00    0,000000000e+00    0,000000000e+00    0,000000000e+00
      688000000   -1,420654077e-02   -5,633321032e-02    5,594413877e-01    2,581813037e-01    0,000000000e+00    0,000000000e+00    0,000000000e+00    0,000000000e+00
      702000000   -3,367432579e-02   -5,909781158e-02    6,054849029e-01   -8,279539645e-02    0,000000000e+00    0,000000000e+00    0,000000000e+00    0,000000000e+00
      716000000   -3,659197316e-02   -5,590350553e-02    4,600398839e-01   -3,894814253e-01    0,000000000e+00    0,000000000e+00    0,000000000e+00    0,000000000e+00
      730000000   -3,257757053e-02   -6,575152278e-02    1,734993458e-01   -5,669792891e-01    0,000000000e+00    0,000000000e+00    0,000000000e+00    0,000000000e+00
      744000000   -4,035662860e-02   -8,808975667e-02   -1,538171321e-01   -5,645096898e-01    0,000000000e+00    0,000000000e+00    0,000000000e+00    0,000000000e+00
      758000000   -7,193603367e-02   -1,041641906e-01   -4,280233979e-01   -3,940765560e-01    0,000000000e+00    0,000000000e+00    0,000000000e+00    0,000000000e+00
      772000000   -1,140855253e-01   -9,357404709e-02   -5,745833516e-01   -1,048199758e-01    0,000000000e+00    0,000000000e+00    0,000000000e+00    0,000000000e+00
      786000000   -1,377848834e-01   -5,561405048e-02   -5,442692637e-01    2,215894759e-01    0,000000000e+00    0,000000000e+00    0,000000000e+00    0,000000000e+00
      800000000   -1,322759390e-01   -1,466519013e-02   -3,405438066e-01    4,797202051e-01    0,000000000e+00    0,000000000e+00    0,000000000e+00    0,000000000e+00
      814000000   -1,075467169e-01    7,159320172e-03   -3,513986245e-02    5,854970813e-01    0,000000000e+00    0,000000000e+00    0,000000000e+00    0,000000000e+00
      828000000   -8,499171585e-02    1,214472670e-02    2,790624201e-01    5,133261681e-01    0,000000000e+00    0,000000000e+00    0,000000000e+00    0,000000000e+00
      842000000   -7,060340047e-02    1,436336711e-02    5,026141405e-01    2,893728912e-01    0,000000000e+00    0,000000000e+00    0,000000000e+00    0,000000000e+00
      856000000   -5,341701210e-02    1,921539381e-02    5,704464316e-01   -1,750631258e-02    0,000000000e+00    0,000000000e+00    0,000000000e+00    0,000000000e+00
      870000000   -2,431863360e-02    1,455472130e-02    4,637882411e-01   -3,064184487e-01    0,000000000e+00    0,000000000e+00    0,000000000e+00    0,000000000e+00
      884000000    4,927348811e-03   -1,409835462e-02    2,302238792e-01   -4,882974327e-01    0,000000000e+00    0,000000000e+00    0,000000000e+00    0,000000000e+00
      898000000    1,135647856e-02   -6,222854555e-02   -5,222833157e-02   -5,257956386e-01    0,000000000e+00    0,000000000e+00    0,000000000e+00    0,000000000e+00
      912000000   -2,299916558e-02   -1,067280918e-01   -3,594934046e-01   -4,089745581e-01    0,000000000e+00    0,000000000e+00    0,000000000e+00    0,000000000e+00
      926000000   -7,301422954e-02   -1,239761412e-01   -5,301041007e-01   -1,590560973e-01    0,000000000e+00    0,000000000e+00    0,000000000e+00    0,000000000e+00
      940000000   -1,231556237e-01   -1,037976295e-01   -5,529025197e-01    1,573722064e-01    0,000000000e+00    0,000000000e+00    0,000000000e+00    0,000000000e+00
      954000000   -1,430198997e-01   -5,925812945e-02   -3,917485178e-01    4,498147964e-01    0,000000000e+00    0,000000000e+00    0,000000000e+00    0,000000000e+00
      968000000   -1,285102069e-01   -2,877471223e-02   -9,095203131e-02    6,046677828e-01    0,000000000e+00    0,000000000e+00    0,000000000e+00    0,000000000e+00
      982000000   -1,167688072e-01   -1,945901103e-02    2,452260852e-01    5,722855926e-01    0,000000000e+00    0,000000000e+00    0,000000000e+00    0,000000000e+00
      996000000   -1,080501676e-01   -1,134215947e-02    5,153828859e-01    3,678302169e-01    0,000000000e+00    0,000000000e+00    0,000000000e+00    0,000000000e+00
     1010000000   -1,053944826e-01   -4,280832130e-03    6,287224293e-01    4,825604707e-02    0,000000000e+00    0,000000000e+00    0,000000000e+00    0,000000000e+00
     1024000000   -9,603624791e-02   -4,156095674e-04    5,611286163e-01   -2,730757594e-01    0,000000000e+00    0,000000000e+00    0,000000000e+00    0,000000000e+00
     1038000000   -7,222865522e-02    1,172546064e-03    3,366450369e-01   -5,065351725e-01    0,000000000e+00    0,000000000e+00    0,000000000e+00    0,000000000e+00
     1052000000   -6,379972398e-02   -1,940429769e-02    3,246612102e-02   -5,839204788e-01    0,000000000e+00    0,000000000e+00    0,000000000e+00    0,000000000e+00
     1066000000   -7,104589045e-02   -2,988690138e-02   -2,738405168e-01   -5,006603599e-01    0,000000000e+00    0,000000000e+00    0,000000000e+00    0,000000000e+00
     1080000000   -8,455245197e-02   -3,285153210e-02   -4,802252650e-01   -2,692068517e-01    0,000000000e+00    0,000000000e+00    0,000000000e+00    0,000000000e+00
     1094000000   -8,280195296e-02   -1,443599444e-02   -5,310482383e-01    4,203199595e-02    0,000000000e+00    0,000000000e+00    0,000000000e+00    0,000000000e+00
     1108000000   -6,186016276e-02   -9,195206687e-03   -3,935583532e-01    3,242240250e-01    0,000000000e+00    0,000000000e+00    0,000000000e+00    0,000000000e+00
     1122000000   -2,910356410e-02   -3,391529620e-02   -1,345592290e-01    4,808735847e-01    0,000000000e+00    0,000000000e+00    0,000000000e+00    0,000000000e+00
     1136000000   -3,019678779e-02   -8,541321754e-02    1,657163203e-01    4,700265825e-01    0,000000000e+00    0,000000000e+00    0,000000000e+00    0,000000000e+00
     1150000000   -6,521809101e-02   -1,308988184e-01    4,144680500e-01    3,096781671e-01    0,000000000e+00    0,000000000e+00    0,000000000e+00    0,000000000e+00
     1164000000   -1,387868673e-01   -1,512993872e-01    5,602900386e-01    2,689905651e-02    0,000000000e+00    0,000000000e+00    0,000000000e+00    0,000000000e+00
     1178000000   -2,120210379e-01   -1,198856682e-01    5,269065499e-01   -3,131081164e-01    0,000000000e+00    0,000000000e+00    0,000000000e+00    0,000000000e+00
     1192000000   -2,471837997e-01   -4,870891571e-02    2,973169088e-01   -5,998834372e-01    0,000000000e+00    0,000000000e+00    0,000000000e+00    0,000000000e+00
     1206000000   -2,366608083e-01    3,340646252e-02   -6,248025596e-02   -6,948671937e-01    0,000000000e+00    0,000000000e+00    0,000000000e+00    0,000000000e+00
     1220000000   -1,833388805e-01    8,633661270e-02   -4,173232317e-01   -5,759640336e-01    0,000000000e+00    0,000000000e+00    0,000000000e+00    0,000000000e+00
     1234000000   -1,275743097e-01    1,076410040e-01   -6,452300549e-01   -2,883566618e-01    0,000000000e+00    0,000000000e+00    0,000000000e+00    0,000000000e+00
     1248000000   -6,972978264e-02    9,974958003e-02   -6,720145345e-01    6,281324476e-02    0,000000000e+00    0,000000000e+00    0,000000000e+00    0,000000000e+00
     1262000000   -1,737728342e-02    6,153305620e-02   -5,177180767e-01    3,677512109e-01    0,000000000e+00    0,000000000e+00    0,000000000e+00    0,000000000e+00
     1276000000    2,183283679e-02    1,325415680e-03   -2,434000373e-01    5,427455902e-01    0,000000000e+00    0,000000000e+00    0,000000000e+00    0,000000000e+00
     1290000000    2,504441142e-02   -8,633059263e-02    7,507283241e-02    5,761924386e-01    0,000000000e+00    0,000000000e+00    0,000000000e+00    0,000000000e+00
     1304000000   -3,017327935e-02   -1,747033894e-01    3,603814840e-01    4,607826173e-01    0,000000000e+00    0,000000000e+00    0,000000000e+00    0,000000000e+00
     1318000000   -1,318299025e-01   -2,174198776e-01    5,823622346e-01    2,230871469e-01    0,000000000e+00    0,000000000e+00    0,000000000e+00    0,000000000e+00
     1332000000   -2,556647360e-01   -1,866967678e-01    6,490975022e-01   -1,213984862e-01    0,000000000e+00    0,000000000e+00    0,000000000e+00    0,000000000e+00
     1346000000   -3,331592083e-01   -9,734600782e-02    5,055093765e-01   -4,696207643e-01    0,000000000e+00    0,000000000e+00    0,000000000e+00    0,000000000e+00
     1360000000   -3,348948061e-01    2,088551596e-02    1,888281107e-01   -6,458330154e-01    0,000000000e+00    0,000000000e+00    0,000000000e+00    0,000000000e+00
     1374000000   -2,795014083e-01    1,036830768e-01   -1,403997689e-01   -6,021378040e-01    0,000000000e+00    0,000000000e+00    0,000000000e+00    0,000000000e+00
     1388000000   -2,157603949e-01    1,420525759e-01   -3,927030861e-01   -3,682798445e-01    0,000000000e+00    0,000000000e+00    0,000000000e+00    0,000000000e+00
     1402000000   -1,492994279e-01    1,392315626e-01   -4,741657078e-01   -7,013322413e-02    0,000000000e+00    0,000000000e+00    0,000000000e+00    0,000000000e+00
     1416000000   -9,495431930e-02    1,218378767e-01   -3,674951494e-01    2,365347594e-01    0,000000000e+00    0,000000000e+00    0,000000000e+00    0,000000000e+00
     1430000000   -5,189160630e-02    6,841482222e-02   -1,604834050e-01    4,396465123e-01    0,000000000e+00    0,000000000e+00    0,000000000e+00    0,000000000e+00
     1444000000   -3,488921002e-02    7,581616752e-03    1,594631523e-01    5,452147126e-01    0,000000000e+00    0,000000000e+00    0,000000000e+00    0,000000000e+00
     1458000000   -6,303833425e-02   -7,257751375e-02    4,813223779e-01    4,756433666e-01    0,000000000e+00    0,000000000e+00    0,000000000e+00    0,000000000e+00
     1472000000   -1,324434876e-01   -1,246637255e-01    7,662125826e-01    2,722884119e-01    0,000000000e+00    0,000000000e+00    0,000000000e+00    0,000000000e+00
     1486000000   -2,304779440e-01   -1,163053066e-01    8,803612590e-01   -8,195974678e-02    0,000000000e+00    0,000000000e+00    0,000000000e+00    0,000000000e+00
     1500000000   -2,925387919e-01   -4,770136997e-02    8,044154048e-01   -4,316467941e-01    0,000000000e+00    0,000000000e+00    0,000000000e+00    0,000000000e+00
