! NanoVNA-App
! Date: 2025-09-25 15:07:33
! Start: 100MHz Stop: 1,5GHz Points: 101
! S-Parameter data: F S11 S21 S12 S22
# Hz S RI R 50
!     Frequency           S11_Real           S11_Imag           S21_Real           S21_Imag           S12_Real           S12_Imag           S22_Real           S22_Imag
      100000000    3,114863671e-02    2,864506096e-02    4,348906279e-01   -6,686876416e-01    0,000000000e+00    0,000000000e+00    0,000000000e+00    0,000000000e+00
      114000000    5,754994974e-02    5,522861611e-03    7,776983082e-03   -7,910232544e-01    0,000000000e+00    0,000000000e+00    0,000000000e+00    0,000000000e+00
      128000000    6,722769886e-02   -3,780040517e-02   -4,102343023e-01   -6,711274981e-01    0,000000000e+00    0,000000000e+00    0,000000000e+00    0,000000000e+00
      142000000    4,471138120e-02   -8,420389146e-02   -7,027423382e-01   -3,531612456e-01    0,000000000e+00    0,000000000e+00    0,000000000e+00    0,000000000e+00
      156000000   -5,421583541e-03   -1,068923846e-01   -7,873898745e-01    7,412753254e-02    0,000000000e+00    0,000000000e+00    0,000000000e+00    0,000000000e+00
      170000000   -5,771314725e-02   -9,067322314e-02   -6,273890734e-01    4,869359136e-01    0,000000000e+00    0,000000000e+00    0,000000000e+00    0,000000000e+00
      184000000   -8,368545771e-02   -4,945901409e-02   -2,650405765e-01    7,514289021e-01    0,000000000e+00    0,000000000e+00    0,000000000e+00    0,000000000e+00
      198000000   -7,963395864e-02   -1,049337536e-02    1,833287627e-01    7,729871273e-01    0,000000000e+00    0,000000000e+00    0,000000000e+00    0,000000000e+00
      212000000   -6,227744743e-02    1,313601062e-02    5,689334869e-01    5,493960381e-01    0,000000000e+00    0,000000000e+00    0,000000000e+00    0,000000000e+00
      226000000   -4,332301393e-02    2,775077149e-02    7,708421350e-01    1,545356810e-01    0,000000000e+00    0,000000000e+00    0,000000000e+00    0,000000000e+00
      240000000   -1,817252301e-02    3,845198825e-02    7,267758846e-01   -2,819816768e-01    0,000000000e+00    0,000000000e+00    0,000000000e+00    0,000000000e+00
      254000000    1,720482484e-02    3,517974913e-02    4,582076967e-01   -6,202878952e-01    0,000000000e+00    0,000000000e+00    0,000000000e+00    0,000000000e+00
      268000000    4,872996733e-02    5,612193141e-03    5,865511671e-02   -7,604683638e-01    0,000000000e+00    0,000000000e+00    0,000000000e+00    0,000000000e+00
      282000000    5,348018184e-02   -4,185671732e-02   -3,490678966e-01   -6,719327569e-01    0,000000000e+00    0,000000000e+00    0,000000000e+00    0,000000000e+00
      296000000    2,400343493e-02   -7,951846719e-02   -6,517094970e-01   -3,856309056e-01    0,000000000e+00    0,000000000e+00    0,000000000e+00    0,000000000e+00
      310000000   -1,763878018e-02   -8,316529542e-02   -7,638329268e-01    1,955492049e-02    0,000000000e+00    0,000000000e+00    0,000000000e+00    0,000000000e+00
      324000000   -4,167072475e-02   -5,883404613e-02   -6,324727535e-01    4,308775663e-01    0,000000000e+00    0,000000000e+00    0,000000000e+00    0,000000000e+00
      338000000   -3,428895399e-02   -3,671164811e-02   -2,944878936e-01    7,006366253e-01    0,000000000e+00    0,000000000e+00    0,000000000e+00    0,000000000e+00
      352000000   -1,735481992e-02   -4,058667645e-02    1,253723949e-01    7,423872948e-01    0,000000000e+00    0,000000000e+00    0,000000000e+00    0,000000000e+00
      366000000   -1,949567534e-02   -6,196058542e-02    4,983788431e-01    5,546944141e-01    0,000000000e+00    0,000000000e+00    0,000000000e+00    0,000000000e+00
      380000000   -4,432526976e-02   -7,264743000e-02    7,135995030e-01    1,997496486e-01    0,000000000e+00    0,000000000e+00    0,000000000e+00    0,000000000e+00
      394000000   -7,111647725e-02   -5,798672512e-02    7,042207718e-01   -2,161624432e-01    0,000000000e+00    0,000000000e+00    0,000000000e+00    0,000000000e+00
      408000000   -7,696285099e-02   -3,047127649e-02    4,705789685e-01   -5,595367551e-01    0,000000000e+00    0,000000000e+00    0,000000000e+00    0,000000000e+00
      422000000   -6,526517123e-02   -1,114882529e-02    9,425762296e-02   -7,177184224e-01    0,000000000e+00    0,000000000e+00    0,000000000e+00    0,000000000e+00
      436000000   -5,306087807e-02   -4,338421393e-03   -3,025466800e-01   -6,474973559e-01    0,000000000e+00    0,000000000e+00    0,000000000e+00    0,000000000e+00
      450000000   -4,472857714e-02    1,408579177e-03   -5,935987234e-01   -3,783622384e-01    0,000000000e+00    0,000000000e+00    0,000000000e+00    0,000000000e+00
      464000000   -2,944963984e-02    1,163612958e-02   -6,912477612e-01    1,029389823e-04    0,000000000e+00    0,000000000e+00    0,000000000e+00    0,000000000e+00
      478000000   -7,535747718e-04    1,114844531e-02   -5,730830431e-01    3,632588089e-01    0,000000000e+00    0,000000000e+00    0,000000000e+00    0,000000000e+00
      492000000    2,801094577e-02   -1,213083882e-02   -2,884608507e-01    6,015524864e-01    0,000000000e+00    0,000000000e+00    0,000000000e+00    0,000000000e+00
      506000000    3,648472950e-02   -5,602952093e-02    6,948988140e-02    6,580350995e-01    0,000000000e+00    0,000000000e+00    0,000000000e+00    0,000000000e+00
      520000000    1,265318785e-02   -9,816142172e-02    4,027267098e-01    5,265861154e-01    0,000000000e+00    0,000000000e+00    0,000000000e+00    0,000000000e+00
      534000000   -3,452330828e-02   -1,158697978e-01    6,240378618e-01    2,363942116e-01    0,000000000e+00    0,000000000e+00    0,000000000e+00    0,000000000e+00
      548000000   -7,726967335e-02   -9,948303550e-02    6,584836841e-01   -1,338907629e-01    0,000000000e+00    0,000000000e+00    0,000000000e+00    0,000000000e+00
      562000000   -9,315305948e-02   -6,643506140e-02    4,809937179e-01   -4,671855569e-01    0,000000000e+00    0,000000000e+00    0,000000000e+00    0,000000000e+00
      576000000   -8,606815338e-02   -4,480650648e-02    1,508059055e-01   -6,476188302e-01    0,000000000e+00    0,000000000e+00    0,000000000e+00    0,000000000e+00
      590000000   -8,060179651e-02   -4,170903563e-02   -2,191287875e-01   -6,264390349e-01    0,000000000e+00    0,000000000e+00    0,000000000e+00    0,000000000e+00
      604000000   -8,882348239e-02   -3,722228482e-02   -5,193697810e-01   -4,060107172e-01    0,000000000e+00    0,000000000e+00    0,000000000e+00    0,000000000e+00
      618000000   -9,616129845e-02   -1,513449568e-02   -6,528114080e-01   -5,845846608e-02    0,000000000e+00    0,000000000e+00    0,000000000e+00    0,000000000e+00
      632000000   -8,060996234e-02    1,537325419e-02   -5,750848055e-01    3,023634255e-01    0,000000000e+00    0,000000000e+00    0,000000000e+00    0,000000000e+00
      646000000   -4,289950803e-02    2,597705461e-02   -3,177986443e-01    5,561622977e-01    0,000000000e+00    0,000000000e+00    0,000000000e+00    0,000000000e+00
      660000000   -7,887251675e-03    6,273919716e-03    2,233388461e-02    6,307030916e-01    0,000000000e+00    0,000000000e+00    0,000000000e+00    0,000000000e+00
      674000000    1,671181642e-03   -3,006975353e-02    3,415701091e-01    5,187343359e-01    0,000000000e+00    0,000000000e+00    0,000000000e+00    0,000000000e+00
      688000000   -1,426104549e-02   -5,520017445e-02    5,582275391e-01    2,585974038e-01    0,000000000e+00    0,000000000e+00    0,000000000e+00    0,000000000e+00
      702000000   -3,341026232e-02   -5,964387208e-02    6,019479036e-01   -7,832726836e-02    0,000000000e+00    0,000000000e+00    0,000000000e+00    0,000000000e+00
      716000000   -3,640484065e-02   -5,572868511e-02    4,594960809e-01   -3,906855583e-01    0,000000000e+00    0,000000000e+00    0,000000000e+00    0,000000000e+00
      730000000   -3,240871429e-02   -6,537321210e-02    1,735062152e-01   -5,657371283e-01    0,000000000e+00    0,000000000e+00    0,000000000e+00    0,000000000e+00
      744000000   -4,038199410e-02   -8,756754547e-02   -1,519663781e-01   -5,634020567e-01    0,000000000e+00    0,000000000e+00    0,000000000e+00    0,000000000e+00
      758000000   -7,250493020e-02   -1,045538560e-01   -4,269432724e-01   -3,943276405e-01    0,000000000e+00    0,000000000e+00    0,000000000e+00    0,000000000e+00
      772000000   -1,136333272e-01   -9,352095425e-02   -5,742311478e-01   -1,058940738e-01    0,000000000e+00    0,000000000e+00    0,000000000e+00    0,000000000e+00
      786000000   -1,384565085e-01   -5,639588460e-02   -5,450280309e-01    2,205874175e-01    0,000000000e+00    0,000000000e+00    0,000000000e+00    0,000000000e+00
      800000000   -1,334897876e-01   -1,490677707e-02   -3,421289623e-01    4,796523750e-01    0,000000000e+00    0,000000000e+00    0,000000000e+00    0,000000000e+00
      814000000   -1,078747958e-01    8,037477732e-03   -3,506060317e-02    5,862815380e-01    0,000000000e+00    0,000000000e+00    0,000000000e+00    0,000000000e+00
      828000000   -8,564268798e-02    1,367581170e-02    2,788425684e-01    5,133681297e-01    0,000000000e+00    0,000000000e+00    0,000000000e+00    0,000000000e+00
      842000000   -7,103522122e-02    1,441552676e-02    5,030260086e-01    2,896501422e-01    0,000000000e+00    0,000000000e+00    0,000000000e+00    0,000000000e+00
      856000000   -5,255538970e-02    1,950254105e-02    5,704064965e-01   -1,782885008e-02    0,000000000e+00    0,000000000e+00    0,000000000e+00    0,000000000e+00
      870000000   -2,353715710e-02    1,389961131e-02    4,635015428e-01   -3,063910604e-01    0,000000000e+00    0,000000000e+00    0,000000000e+00    0,000000000e+00
      884000000    5,865316372e-03   -1,419703104e-02    2,307699919e-01   -4,870219529e-01    0,000000000e+00    0,000000000e+00    0,000000000e+00    0,000000000e+00
      898000000    1,117447671e-02   -6,353408843e-02   -5,207750946e-02   -5,255920887e-01    0,000000000e+00    0,000000000e+00    0,000000000e+00    0,000000000e+00
      912000000   -2,322654426e-02   -1,076027676e-01   -3,632234931e-01   -3,945997655e-01    0,000000000e+00    0,000000000e+00    0,000000000e+00    0,000000000e+00
      926000000   -7,370795310e-02   -1,233399659e-01   -5,297736526e-01   -1,592276096e-01    0,000000000e+00    0,000000000e+00    0,000000000e+00    0,000000000e+00
      940000000   -1,227531359e-01   -1,002636701e-01   -5,509525537e-01    1,579509377e-01    0,000000000e+00    0,000000000e+00    0,000000000e+00    0,000000000e+00
      954000000   -1,399349272e-01   -6,269580126e-02   -3,914859295e-01    4,468358755e-01    0,000000000e+00    0,000000000e+00    0,000000000e+00    0,000000000e+00
      968000000   -1,282238662e-01   -2,794108726e-02   -9,038995206e-02    6,034946442e-01    0,000000000e+00    0,000000000e+00    0,000000000e+00    0,000000000e+00
      982000000   -1,179988980e-01   -1,768137328e-02    2,450300753e-01    5,704017878e-01    0,000000000e+00    0,000000000e+00    0,000000000e+00    0,000000000e+00
      996000000   -1,046322212e-01   -1,334922202e-02    5,127025247e-01    3,666189909e-01    0,000000000e+00    0,000000000e+00    0,000000000e+00    0,000000000e+00
     1010000000   -1,043449715e-01   -6,235580891e-03    6,294713616e-01    5,200968683e-02    0,000000000e+00    0,000000000e+00    0,000000000e+00    0,000000000e+00
     1024000000   -9,482409805e-02   -9,299875819e-04    5,619016290e-01   -2,695581317e-01    0,000000000e+00    0,000000000e+00    0,000000000e+00    0,000000000e+00
     1038000000   -7,699733227e-02    2,759739757e-03    3,381630480e-01   -5,046303868e-01    0,000000000e+00    0,000000000e+00    0,000000000e+00    0,000000000e+00
     1052000000   -6,691668183e-02   -1,371042896e-02    3,502105176e-02   -5,856220126e-01    0,000000000e+00    0,000000000e+00    0,000000000e+00    0,000000000e+00
     1066000000   -7,207026333e-02   -3,163630888e-02   -2,599113286e-01   -4,989025295e-01    0,000000000e+00    0,000000000e+00    0,000000000e+00    0,000000000e+00
     1080000000   -7,945971936e-02   -2,872629464e-02   -4,812686443e-01   -2,713550031e-01    0,000000000e+00    0,000000000e+00    0,000000000e+00    0,000000000e+00
     1094000000   -8,126393706e-02   -2,076915093e-02   -5,338410139e-01    4,381846264e-02    0,000000000e+00    0,000000000e+00    0,000000000e+00    0,000000000e+00
     1108000000   -5,633541942e-02   -1,499568857e-02   -3,997096419e-01    3,242820799e-01    0,000000000e+00    0,000000000e+00    0,000000000e+00    0,000000000e+00
     1122000000   -2,887590788e-02   -3,392396867e-02   -1,366044581e-01    4,828052223e-01    0,000000000e+00    0,000000000e+00    0,000000000e+00    0,000000000e+00
     1136000000   -3,061478212e-02   -8,265638351e-02    1,637603045e-01    4,767263830e-01    0,000000000e+00    0,000000000e+00    0,000000000e+00    0,000000000e+00
     1150000000   -6,226279587e-02   -1,339789033e-01    4,207703769e-01    3,096274436e-01    0,000000000e+00    0,000000000e+00    0,000000000e+00    0,000000000e+00
     1164000000   -1,378916204e-01   -1,504963785e-01    5,636972785e-01    2,834344842e-02    0,000000000e+00    0,000000000e+00    0,000000000e+00    0,000000000e+00
     1178000000   -2,086242735e-01   -1,169078797e-01    5,306544900e-01   -3,164823949e-01    0,000000000e+00    0,000000000e+00    0,000000000e+00    0,000000000e+00
     1192000000   -2,439499050e-01   -4,019222409e-02    2,979855835e-01   -5,983232856e-01    0,000000000e+00    0,000000000e+00    0,000000000e+00    0,000000000e+00
     1206000000   -2,318134010e-01    3,504041210e-02   -6,758138537e-02   -6,927165985e-01    0,000000000e+00    0,000000000e+00    0,000000000e+00    0,000000000e+00
     1220000000   -1,890588850e-01    8,354239166e-02   -4,203519225e-01   -5,787449479e-01    0,000000000e+00    0,000000000e+00    0,000000000e+00    0,000000000e+00
     1234000000   -1,264397949e-01    1,068218052e-01   -6,486271620e-01   -2,911166251e-01    0,000000000e+00    0,000000000e+00    0,000000000e+00    0,000000000e+00
     1248000000   -6,446440518e-02    9,219044447e-02   -6,728922725e-01    6,300162524e-02    0,000000000e+00    0,000000000e+00    0,000000000e+00    0,000000000e+00
     1262000000   -1,690503582e-02    6,204865873e-02   -5,182663202e-01    3,695740402e-01    0,000000000e+00    0,000000000e+00    0,000000000e+00    0,000000000e+00
     1276000000    2,334462106e-02   -5,592381116e-03   -2,488847673e-01    5,425083041e-01    0,000000000e+00    0,000000000e+00    0,000000000e+00    0,000000000e+00
     1290000000    1,990228891e-02   -8,617720753e-02    6,761720777e-02    5,773576498e-01    0,000000000e+00    0,000000000e+00    0,000000000e+00    0,000000000e+00
     1304000000   -3,726067021e-02   -1,686320901e-01    3,631406724e-01    4,608013630e-01    0,000000000e+00    0,000000000e+00    0,000000000e+00    0,000000000e+00
     1318000000   -1,300593019e-01   -2,083377242e-01    5,884228945e-01    2,224825770e-01    0,000000000e+00    0,000000000e+00    0,000000000e+00    0,000000000e+00
     1332000000   -2,569448948e-01   -1,850455254e-01    6,542831063e-01   -1,340016574e-01    0,000000000e+00    0,000000000e+00    0,000000000e+00    0,000000000e+00
     1346000000   -3,365819454e-01   -9,270410240e-02    5,013182163e-01   -4,649984837e-01    0,000000000e+00    0,000000000e+00    0,000000000e+00    0,000000000e+00
     1360000000   -3,347302675e-01    1,954094134e-02    1,931267083e-01   -6,525862813e-01    0,000000000e+00    0,000000000e+00    0,000000000e+00    0,000000000e+00
     1374000000   -2,824281454e-01    1,022578478e-01   -1,514504999e-01   -6,012032032e-01    0,000000000e+00    0,000000000e+00    0,000000000e+00    0,000000000e+00
     1388000000   -2,130493522e-01    1,382807940e-01   -3,957204819e-01   -3,736126125e-01    0,000000000e+00    0,000000000e+00    0,000000000e+00    0,000000000e+00
     1402000000   -1,532737017e-01    1,345253885e-01   -4,800961018e-01   -6,450454146e-02    0,000000000e+00    0,000000000e+00    0,000000000e+00    0,000000000e+00
     1416000000   -9,187990427e-02    1,180481687e-01   -3,863811493e-01    2,415384650e-01    0,000000000e+00    0,000000000e+00    0,000000000e+00    0,000000000e+00
     1430000000   -4,903285205e-02    7,101131976e-02   -1,205161288e-01    4,561517537e-01    0,000000000e+00    0,000000000e+00    0,000000000e+00    0,000000000e+00
     1444000000   -3,713661060e-02    3,142301692e-03    1,712511778e-01    5,347203016e-01    0,000000000e+00    0,000000000e+00    0,000000000e+00    0,000000000e+00
     1458000000   -5,942862853e-02   -6,622251123e-02    4,915956557e-01    4,754057229e-01    0,000000000e+00    0,000000000e+00    0,000000000e+00    0,000000000e+00
     1472000000   -1,357527226e-01   -1,223753095e-01    7,589405179e-01    2,717901468e-01    0,000000000e+00    0,000000000e+00    0,000000000e+00    0,000000000e+00
     1486000000   -2,292382717e-01   -1,115128770e-01    8,931170106e-01   -8,031519502e-02    0,000000000e+00    0,000000000e+00    0,000000000e+00    0,000000000e+00
     1500000000   -2,919914126e-01   -5,034073442e-02    7,958776355e-01   -4,535819590e-01    0,000000000e+00    0,000000000e+00    0,000000000e+00    0,000000000e+00
