! NanoVNA-App
! Date: 2025-09-25 15:08:21
! Start: 100MHz Stop: 1,5GHz Points: 101
! S-Parameter data: F S11 S21 S12 S22
# Hz S RI R 50
!     Frequency           S11_Real           S11_Imag           S21_Real           S21_Imag           S12_Real           S12_Imag           S22_Real           S22_Imag
      100000000    3,115973435e-02    2,865076810e-02    4,348402619e-01   -6,686063409e-01    0,000000000e+00    0,000000000e+00    0,000000000e+00    0,000000000e+00
      114000000    5,760793015e-02    5,531911738e-03    7,653781679e-03   -7,910430431e-01    0,000000000e+00    0,000000000e+00    0,000000000e+00    0,000000000e+00
      128000000    6,730917841e-02   -3,782084957e-02   -4,102557898e-01   -6,711380482e-01    0,000000000e+00    0,000000000e+00    0,000000000e+00    0,000000000e+00
      142000000    4,471142218e-02   -8,420924842e-02   -7,030297518e-01   -3,533326983e-01    0,000000000e+00    0,000000000e+00    0,000000000e+00    0,000000000e+00
      156000000   -5,721560679e-03   -1,062823683e-01   -7,866682410e-01    7,270605117e-02    0,000000000e+00    0,000000000e+00    0,000000000e+00    0,000000000e+00
      170000000   -5,763986707e-02   -9,057704359e-02   -6,276866198e-01    4,868482053e-01    0,000000000e+00    0,000000000e+00    0,000000000e+00    0,000000000e+00
      184000000   -8,368830383e-02   -4,946617037e-02   -2,647751868e-01    7,512881160e-01    0,000000000e+00    0,000000000e+00    0,000000000e+00    0,000000000e+00
      198000000   -7,960887253e-02   -1,046318375e-02    1,836018264e-01    7,730567455e-01    0,000000000e+00    0,000000000e+00    0,000000000e+00    0,000000000e+00
      212000000   -6,225926429e-02    1,320932247e-02    5,692550540e-01    5,490017533e-01    0,000000000e+00    0,000000000e+00    0,000000000e+00    0,000000000e+00
      226000000   -4,326055199e-02    2,765324898e-02    7,705697417e-01    1,545731872e-01    0,000000000e+00    0,000000000e+00    0,000000000e+00    0,000000000e+00
      240000000   -1,817619056e-02    3,847749159e-02    7,266526818e-01   -2,819176912e-01    0,000000000e+00    0,000000000e+00    0,000000000e+00    0,000000000e+00
      254000000    1,722479239e-02    3,518861905e-02    4,578807950e-01   -6,206359863e-01    0,000000000e+00    0,000000000e+00    0,000000000e+00    0,000000000e+00
      268000000    4,881149530e-02    5,574519280e-03    5,842882022e-02   -7,602158189e-01    0,000000000e+00    0,000000000e+00    0,000000000e+00    0,000000000e+00
      282000000    5,354534462e-02   -4,188594967e-02   -3,492062986e-01   -6,712042689e-01    0,000000000e+00    0,000000000e+00    0,000000000e+00    0,000000000e+00
      296000000    2,396397293e-02   -7,944940031e-02   -6,522639394e-01   -3,852129877e-01    0,000000000e+00    0,000000000e+00    0,000000000e+00    0,000000000e+00
      310000000   -1,790503785e-02   -8,315747976e-02   -7,624121904e-01    2,059520409e-02    0,000000000e+00    0,000000000e+00    0,000000000e+00    0,000000000e+00
      324000000   -4,157837480e-02   -5,874473602e-02   -6,316817999e-01    4,309886694e-01    0,000000000e+00    0,000000000e+00    0,000000000e+00    0,000000000e+00
      338000000   -3,434389457e-02   -3,677003831e-02   -2,983390391e-01    6,999455094e-01    0,000000000e+00    0,000000000e+00    0,000000000e+00    0,000000000e+00
      352000000   -1,713414490e-02   -4,075460136e-02    1,251026690e-01    7,426729202e-01    0,000000000e+00    0,000000000e+00    0,000000000e+00    0,000000000e+00
      366000000   -1,929818466e-02   -6,192446500e-02    4,976361990e-01    5,549334884e-01    0,000000000e+00    0,000000000e+00    0,000000000e+00    0,000000000e+00
      380000000   -4,434138164e-02   -7,263376564e-02    7,129293084e-01    1,997542977e-01    0,000000000e+00    0,000000000e+00    0,000000000e+00    0,000000000e+00
      394000000   -7,093421370e-02   -5,785452947e-02    7,041796446e-01   -2,157304585e-01    0,000000000e+00    0,000000000e+00    0,000000000e+00    0,000000000e+00
      408000000   -7,709790766e-02   -3,050490655e-02    4,709588587e-01   -5,608673096e-01    0,000000000e+00    0,000000000e+00    0,000000000e+00    0,000000000e+00
      422000000   -6,543807685e-02   -1,100906637e-02    9,343878925e-02   -7,174714208e-01    0,000000000e+00    0,000000000e+00    0,000000000e+00    0,000000000e+00
      436000000   -5,313976109e-02   -4,678553436e-03   -3,027184904e-01   -6,479174495e-01    0,000000000e+00    0,000000000e+00    0,000000000e+00    0,000000000e+00
      450000000   -4,442447051e-02    1,811276656e-03   -5,930733681e-01   -3,780970275e-01    0,000000000e+00    0,000000000e+00    0,000000000e+00    0,000000000e+00
      464000000   -2,932242118e-02    1,145282947e-02   -6,909547448e-01    2,349831484e-04    0,000000000e+00    0,000000000e+00    0,000000000e+00    0,000000000e+00
      478000000   -1,224179170e-03    1,166598499e-02   -5,729134083e-01    3,634612560e-01    0,000000000e+00    0,000000000e+00    0,000000000e+00    0,000000000e+00
      492000000    2,808060497e-02   -1,218615472e-02   -2,888593376e-01    6,026202440e-01    0,000000000e+00    0,000000000e+00    0,000000000e+00    0,000000000e+00
      506000000    3,670665249e-02   -5,561317876e-02    6,907586008e-02    6,583682895e-01    0,000000000e+00    0,000000000e+00    0,000000000e+00    0,000000000e+00
      520000000    1,305298042e-02   -9,828252345e-02    4,013580084e-01    5,257142186e-01    0,000000000e+00    0,000000000e+00    0,000000000e+00    0,000000000e+00
      534000000   -3,445948288e-02   -1,160755008e-01    6,240175962e-01    2,364566028e-01    0,000000000e+00    0,000000000e+00    0,000000000e+00    0,000000000e+00
      548000000   -7,751273364e-02   -9,879045188e-02    6,580232978e-01   -1,331924945e-01    0,000000000e+00    0,000000000e+00    0,000000000e+00    0,000000000e+00
      562000000   -9,323528409e-02   -6,621768326e-02    4,819693267e-01   -4,672609270e-01    0,000000000e+00    0,000000000e+00    0,000000000e+00    0,000000000e+00
      576000000   -8,609353006e-02   -4,444261268e-02    1,501300335e-01   -6,481586695e-01    0,000000000e+00    0,000000000e+00    0,000000000e+00    0,000000000e+00
      590000000   -8,068830520e-02   -4,171648994e-02   -2,206075788e-01   -6,256265044e-01    0,000000000e+00    0,000000000e+00    0,000000000e+00    0,000000000e+00
      604000000   -8,917856216e-02   -3,716091439e-02   -5,200022459e-01   -4,051499069e-01    0,000000000e+00    0,000000000e+00    0,000000000e+00    0,000000000e+00
      618000000   -9,684408456e-02   -1,556979492e-02   -6,532953382e-01   -5,870905146e-02    0,000000000e+00    0,000000000e+00    0,000000000e+00    0,000000000e+00
      632000000   -8,074611425e-02    1,479245350e-02   -5,752609372e-01    3,027878106e-01    0,000000000e+00    0,000000000e+00    0,000000000e+00    0,000000000e+00
      646000000   -4,220379144e-02    2,635872178e-02   -3,172391355e-01    5,564599633e-01    0,000000000e+00    0,000000000e+00    0,000000000e+00    0,000000000e+00
      660000000   -7,416199427e-03    6,391749717e-03    2,060540952e-02    6,313669086e-01    0,000000000e+00    0,000000000e+00    0,000000000e+00    0,000000000e+00
      674000000    1,425563591e-03   -3,055132553e-02    3,414764702e-01    5,195077658e-01    0,000000000e+00    0,000000000e+00    0,000000000e+00    0,000000000e+00
      688000000   -1,523874421e-02   -5,561312661e-02    5,585823655e-01    2,585160434e-01    0,000000000e+00    0,000000000e+00    0,000000000e+00    0,000000000e+00
      702000000   -3,415786102e-02   -5,977835879e-02    6,053200364e-01   -8,149112016e-02    0,000000000e+00    0,000000000e+00    0,000000000e+00    0,000000000e+00
      716000000   -3,661180288e-02   -5,621371046e-02    4,596979916e-01   -3,902524710e-01    0,000000000e+00    0,000000000e+00    0,000000000e+00    0,000000000e+00
      730000000   -3,249303624e-02   -6,514122337e-02    1,741764992e-01   -5,649306774e-01    0,000000000e+00    0,000000000e+00    0,000000000e+00    0,000000000e+00
      744000000   -4,054442421e-02   -8,748658746e-02   -1,534469873e-01   -5,642783642e-01    0,000000000e+00    0,000000000e+00    0,000000000e+00    0,000000000e+00
      758000000   -7,273844630e-02   -1,046145409e-01   -4,266996384e-01   -3,943929672e-01    0,000000000e+00    0,000000000e+00    0,000000000e+00    0,000000000e+00
      772000000   -1,134286150e-01   -9,343093634e-02   -5,745472908e-01   -1,057228073e-01    0,000000000e+00    0,000000000e+00    0,000000000e+00    0,000000000e+00
      786000000   -1,391620487e-01   -5,649955571e-02   -5,450379848e-01    2,208491266e-01    0,000000000e+00    0,000000000e+00    0,000000000e+00    0,000000000e+00
      800000000   -1,325021237e-01   -1,475984603e-02   -3,422380090e-01    4,795015752e-01    0,000000000e+00    0,000000000e+00    0,000000000e+00    0,000000000e+00
      814000000   -1,086839586e-01    8,665808477e-03   -3,451533616e-02    5,859888196e-01    0,000000000e+00    0,000000000e+00    0,000000000e+00    0,000000000e+00
      828000000   -8,584345132e-02    1,295697968e-02    2,786163688e-01    5,155047178e-01    0,000000000e+00    0,000000000e+00    0,000000000e+00    0,000000000e+00
      842000000   -7,011039555e-02    1,462387014e-02    5,029441714e-01    2,893804312e-01    0,000000000e+00    0,000000000e+00    0,000000000e+00    0,000000000e+00
      856000000   -5,215775594e-02    1,919620298e-02    5,701226592e-01   -1,748002879e-02    0,000000000e+00    0,000000000e+00    0,000000000e+00    0,000000000e+00
      870000000   -2,292117476e-02    1,424007025e-02    4,638205767e-01   -3,067307472e-01    0,000000000e+00    0,000000000e+00    0,000000000e+00    0,000000000e+00
      884000000    6,468030158e-03   -1,481677592e-02    2,309191525e-01   -4,887130260e-01    0,000000000e+00    0,000000000e+00    0,000000000e+00    0,000000000e+00
      898000000    1,203246880e-02   -6,324200332e-02   -5,240498111e-02   -5,248055458e-01    0,000000000e+00    0,000000000e+00    0,000000000e+00    0,000000000e+00
      912000000   -2,320150100e-02   -1,081161797e-01   -3,544741273e-01   -3,968800604e-01    0,000000000e+00    0,000000000e+00    0,000000000e+00    0,000000000e+00
      926000000   -7,598597556e-02   -1,230102256e-01   -5,310906768e-01   -1,579886377e-01    0,000000000e+00    0,000000000e+00    0,000000000e+00    0,000000000e+00
      940000000   -1,250681579e-01   -1,016234010e-01   -5,516631603e-01    1,556575149e-01    0,000000000e+00    0,000000000e+00    0,000000000e+00    0,000000000e+00
      954000000   -1,428532600e-01   -6,278207898e-02   -3,908173442e-01    4,469523132e-01    0,000000000e+00    0,000000000e+00    0,000000000e+00    0,000000000e+00
      968000000   -1,322400868e-01   -2,600790188e-02   -9,542395175e-02    6,028649807e-01    0,000000000e+00    0,000000000e+00    0,000000000e+00    0,000000000e+00
      982000000   -1,176891848e-01   -1,524570119e-02    2,456822246e-01    5,711855888e-01    0,000000000e+00    0,000000000e+00    0,000000000e+00    0,000000000e+00
      996000000   -1,077465713e-01   -1,508894097e-02    5,123059154e-01    3,656977713e-01    0,000000000e+00    0,000000000e+00    0,000000000e+00    0,000000000e+00
     1010000000   -1,033004895e-01   -5,243581254e-03    6,291236877e-01    5,207233503e-02    0,000000000e+00    0,000000000e+00    0,000000000e+00    0,000000000e+00
     1024000000   -9,512883425e-02    1,275238232e-03    5,606829524e-01   -2,721565962e-01    0,000000000e+00    0,000000000e+00    0,000000000e+00    0,000000000e+00
     1038000000   -7,738659531e-02   -2,491605002e-03    3,396772742e-01   -5,007529855e-01    0,000000000e+00    0,000000000e+00    0,000000000e+00    0,000000000e+00
     1052000000   -6,441111118e-02   -1,727952249e-02    3,176954016e-02   -5,835761428e-01    0,000000000e+00    0,000000000e+00    0,000000000e+00    0,000000000e+00
     1066000000   -6,611815840e-02   -2,961718477e-02   -2,652384937e-01   -4,985809028e-01    0,000000000e+00    0,000000000e+00    0,000000000e+00    0,000000000e+00
     1080000000   -8,331421763e-02   -3,434828669e-02   -4,807937443e-01   -2,712056637e-01    0,000000000e+00    0,000000000e+00    0,000000000e+00    0,000000000e+00
     1094000000   -7,954637706e-02   -1,919055916e-02   -5,323848128e-01    4,414816201e-02    0,000000000e+00    0,000000000e+00    0,000000000e+00    0,000000000e+00
     1108000000   -6,102656573e-02   -1,190674212e-02   -3,984913826e-01    3,274164200e-01    0,000000000e+00    0,000000000e+00    0,000000000e+00    0,000000000e+00
     1122000000   -3,210044652e-02   -3,832360730e-02   -1,369973719e-01    4,860319793e-01    0,000000000e+00    0,000000000e+00    0,000000000e+00    0,000000000e+00
     1136000000   -3,207758814e-02   -8,594284207e-02    1,625461131e-01    4,748362899e-01    0,000000000e+00    0,000000000e+00    0,000000000e+00    0,000000000e+00
     1150000000   -7,074198127e-02   -1,365126669e-01    4,194105864e-01    3,100503087e-01    0,000000000e+00    0,000000000e+00    0,000000000e+00    0,000000000e+00
     1164000000   -1,391284019e-01   -1,555092633e-01    5,657668114e-01    3,006163239e-02    0,000000000e+00    0,000000000e+00    0,000000000e+00    0,000000000e+00
     1178000000   -2,141840458e-01   -1,169039980e-01    5,302804708e-01   -3,177762628e-01    0,000000000e+00    0,000000000e+00    0,000000000e+00    0,000000000e+00
     1192000000   -2,446889281e-01   -4,620339349e-02    2,986916006e-01   -6,006373167e-01    0,000000000e+00    0,000000000e+00    0,000000000e+00    0,000000000e+00
     1206000000   -2,320239544e-01    3,879400343e-02   -6,815638393e-02   -6,972167492e-01    0,000000000e+00    0,000000000e+00    0,000000000e+00    0,000000000e+00
     1220000000   -1,857490391e-01    8,199299872e-02   -4,218474030e-01   -5,818307400e-01    0,000000000e+00    0,000000000e+00    0,000000000e+00    0,000000000e+00
     1234000000   -1,253190190e-01    1,091805249e-01   -6,434113979e-01   -2,870878577e-01    0,000000000e+00    0,000000000e+00    0,000000000e+00    0,000000000e+00
     1248000000   -6,973310560e-02    9,825725108e-02   -6,714652181e-01    6,526777148e-02    0,000000000e+00    0,000000000e+00    0,000000000e+00    0,000000000e+00
     1262000000   -1,396431029e-02    6,133943796e-02   -5,202963352e-01    3,650892675e-01    0,000000000e+00    0,000000000e+00    0,000000000e+00    0,000000000e+00
     1276000000    2,375111915e-02   -5,617044866e-03   -2,442715317e-01    5,470886230e-01    0,000000000e+00    0,000000000e+00    0,000000000e+00    0,000000000e+00
     1290000000    2,126628533e-02   -8,586007357e-02    7,117442787e-02    5,741295815e-01    0,000000000e+00    0,000000000e+00    0,000000000e+00    0,000000000e+00
     1304000000   -3,800939396e-02   -1,674434394e-01    3,625568748e-01    4,651538134e-01    0,000000000e+00    0,000000000e+00    0,000000000e+00    0,000000000e+00
     1318000000   -1,377565265e-01   -2,169252038e-01    5,816512704e-01    2,108253092e-01    0,000000000e+00    0,000000000e+00    0,000000000e+00    0,000000000e+00
     1332000000   -2,546252012e-01   -1,810596436e-01    6,493747234e-01   -1,223985627e-01    0,000000000e+00    0,000000000e+00    0,000000000e+00    0,000000000e+00
     1346000000   -3,279663026e-01   -8,610021323e-02    5,196143985e-01   -4,605439305e-01    0,000000000e+00    0,000000000e+00    0,000000000e+00    0,000000000e+00
     1360000000   -3,330492377e-01    2,505773678e-02    1,951897293e-01   -6,404107213e-01    0,000000000e+00    0,000000000e+00    0,000000000e+00    0,000000000e+00
     1374000000   -2,808227539e-01    1,016559750e-01   -1,624611020e-01   -5,986775756e-01    0,000000000e+00    0,000000000e+00    0,000000000e+00    0,000000000e+00
     1388000000   -2,157923430e-01    1,324803084e-01   -4,104445577e-01   -3,864491880e-01    0,000000000e+00    0,000000000e+00    0,000000000e+00    0,000000000e+00
     1402000000   -1,514823884e-01    1,338551790e-01   -4,767897129e-01   -6,528288126e-02    0,000000000e+00    0,000000000e+00    0,000000000e+00    0,000000000e+00
     1416000000   -9,923207760e-02    1,138241887e-01   -3,828814924e-01    2,421238571e-01    0,000000000e+00    0,000000000e+00    0,000000000e+00    0,000000000e+00
     1430000000   -5,142470822e-02    7,028685510e-02   -1,364606321e-01    4,729014933e-01    0,000000000e+00    0,000000000e+00    0,000000000e+00    0,000000000e+00
     1444000000   -3,904282674e-02    4,128595348e-03    1,622928530e-01    5,333605409e-01    0,000000000e+00    0,000000000e+00    0,000000000e+00    0,000000000e+00
     1458000000   -6,249561906e-02   -7,043778151e-02    4,898567498e-01    4,709295928e-01    0,000000000e+00    0,000000000e+00    0,000000000e+00    0,000000000e+00
     1472000000   -1,364562660e-01   -1,239991412e-01    7,622376084e-01    2,497720420e-01    0,000000000e+00    0,000000000e+00    0,000000000e+00    0,000000000e+00
     1486000000   -2,314842194e-01   -1,097963080e-01    9,035533667e-01   -8,255375922e-02    0,000000000e+00    0,000000000e+00    0,000000000e+00    0,000000000e+00
     1500000000   -2,844548821e-01   -4,848613217e-02    8,055589795e-01   -4,363185465e-01    0,000000000e+00    0,000000000e+00    0,000000000e+00    0,000000000e+00
