! NanoVNA-App
! Date: 2025-09-25 15:09:30
! Start: 100MHz Stop: 1,5GHz Points: 101
! S-Parameter data: F S11 S21 S12 S22
# Hz S RI R 50
!     Frequency           S11_Real           S11_Imag           S21_Real           S21_Imag           S12_Real           S12_Imag           S22_Real           S22_Imag
      100000000    3,114879690e-02    2,864516713e-02    4,348472655e-01   -6,687014103e-01    0,000000000e+00    0,000000000e+00    0,000000000e+00    0,000000000e+00
      114000000    5,760901049e-02    5,516117439e-03    7,912229747e-03   -7,910961509e-01    0,000000000e+00    0,000000000e+00    0,000000000e+00    0,000000000e+00
      128000000    6,728009135e-02   -3,783445060e-02   -4,101646841e-01   -6,712211967e-01    0,000000000e+00    0,000000000e+00    0,000000000e+00    0,000000000e+00
      142000000    4,469762743e-02   -8,420950919e-02   -7,027786970e-01   -3,532352149e-01    0,000000000e+00    0,000000000e+00    0,000000000e+00    0,000000000e+00
      156000000   -5,520023871e-03   -1,064754426e-01   -7,871281505e-01    7,308265567e-02    0,000000000e+00    0,000000000e+00    0,000000000e+00    0,000000000e+00
      170000000   -5,762708932e-02   -9,058964252e-02   -6,275610328e-01    4,867629111e-01    0,000000000e+00    0,000000000e+00    0,000000000e+00    0,000000000e+00
      184000000   -8,375805616e-02   -4,947480187e-02   -2,650648057e-01    7,509582043e-01    0,000000000e+00    0,000000000e+00    0,000000000e+00    0,000000000e+00
      198000000   -7,966265827e-02   -1,047030184e-02    1,834279299e-01    7,730501294e-01    0,000000000e+00    0,000000000e+00    0,000000000e+00    0,000000000e+00
      212000000   -6,227868795e-02    1,312999614e-02    5,693315864e-01    5,492354631e-01    0,000000000e+00    0,000000000e+00    0,000000000e+00    0,000000000e+00
      226000000   -4,333103821e-02    2,774136886e-02    7,708133459e-01    1,546186656e-01    0,000000000e+00    0,000000000e+00    0,000000000e+00    0,000000000e+00
      240000000   -1,823136769e-02    3,854750097e-02    7,268344164e-01   -2,820196748e-01    0,000000000e+00    0,000000000e+00    0,000000000e+00    0,000000000e+00
      254000000    1,716369204e-02    3,516679630e-02    4,579640329e-01   -6,199787259e-01    0,000000000e+00    0,000000000e+00    0,000000000e+00    0,000000000e+00
      268000000    4,880605265e-02    5,594957154e-03    5,881830677e-02   -7,606130242e-01    0,000000000e+00    0,000000000e+00    0,000000000e+00    0,000000000e+00
      282000000    5,352393538e-02   -4,179636389e-02   -3,492415547e-01   -6,711412072e-01    0,000000000e+00    0,000000000e+00    0,000000000e+00    0,000000000e+00
      296000000    2,396356873e-02   -7,959681004e-02   -6,522342563e-01   -3,853161037e-01    0,000000000e+00    0,000000000e+00    0,000000000e+00    0,000000000e+00
      310000000   -1,784294844e-02   -8,318881691e-02   -7,633784413e-01    2,112546191e-02    0,000000000e+00    0,000000000e+00    0,000000000e+00    0,000000000e+00
      324000000   -4,179129750e-02   -5,907665193e-02   -6,316443086e-01    4,310216904e-01    0,000000000e+00    0,000000000e+00    0,000000000e+00    0,000000000e+00
      338000000   -3,415603936e-02   -3,702551499e-02   -2,981414497e-01    7,019371986e-01    0,000000000e+00    0,000000000e+00    0,000000000e+00    0,000000000e+00
      352000000   -1,726703160e-02   -4,069106281e-02    1,253354847e-01    7,419485450e-01    0,000000000e+00    0,000000000e+00    0,000000000e+00    0,000000000e+00
      366000000   -1,928496175e-02   -6,186033040e-02    4,983156025e-01    5,551728010e-01    0,000000000e+00    0,000000000e+00    0,000000000e+00    0,000000000e+00
      380000000   -4,450505972e-02   -7,285962254e-02    7,132020593e-01    1,995552480e-01    0,000000000e+00    0,000000000e+00    0,000000000e+00    0,000000000e+00
      394000000   -7,074506581e-02   -5,804909393e-02    7,034911513e-01   -2,163029313e-01    0,000000000e+00    0,000000000e+00    0,000000000e+00    0,000000000e+00
      408000000   -7,723096758e-02   -3,086367808e-02    4,696320295e-01   -5,605319142e-01    0,000000000e+00    0,000000000e+00    0,000000000e+00    0,000000000e+00
      422000000   -6,522259116e-02   -1,091276482e-02    9,237112850e-02   -7,175976038e-01    0,000000000e+00    0,000000000e+00    0,000000000e+00    0,000000000e+00
      436000000   -5,259728059e-02   -4,736997653e-03   -3,016277552e-01   -6,483170390e-01    0,000000000e+00    0,000000000e+00    0,000000000e+00    0,000000000e+00
      450000000   -4,453233257e-02    1,520594815e-03   -5,931952000e-01   -3,784018755e-01    0,000000000e+00    0,000000000e+00    0,000000000e+00    0,000000000e+00
      464000000   -2,974829264e-02    1,124557480e-02   -6,918159127e-01   -3,516319557e-04    0,000000000e+00    0,000000000e+00    0,000000000e+00    0,000000000e+00
      478000000   -9,626953979e-04    1,137432642e-02   -5,733541846e-01    3,634091914e-01    0,000000000e+00    0,000000000e+00    0,000000000e+00    0,000000000e+00
      492000000    2,787058800e-02   -1,261500828e-02   -2,888656855e-01    6,021394730e-01    0,000000000e+00    0,000000000e+00    0,000000000e+00    0,000000000e+00
      506000000    3,621296585e-02   -5,560497195e-02    6,915111840e-02    6,587510109e-01    0,000000000e+00    0,000000000e+00    0,000000000e+00    0,000000000e+00
      520000000    1,295072213e-02   -9,870284051e-02    4,065483212e-01    5,268588066e-01    0,000000000e+00    0,000000000e+00    0,000000000e+00    0,000000000e+00
      534000000   -3,425933793e-02   -1,160135716e-01    6,245718002e-01    2,366174161e-01    0,000000000e+00    0,000000000e+00    0,000000000e+00    0,000000000e+00
      548000000   -7,727427781e-02   -9,947934002e-02    6,584519148e-01   -1,333102137e-01    0,000000000e+00    0,000000000e+00    0,000000000e+00    0,000000000e+00
      562000000   -9,361754358e-02   -6,634733081e-02    4,814653099e-01   -4,669999480e-01    0,000000000e+00    0,000000000e+00    0,000000000e+00    0,000000000e+00
      576000000   -8,604722470e-02   -4,473453388e-02    1,503377408e-01   -6,479986906e-01    0,000000000e+00    0,000000000e+00    0,000000000e+00    0,000000000e+00
      590000000   -8,067031950e-02   -4,176915064e-02   -2,187664807e-01   -6,283330321e-01    0,000000000e+00    0,000000000e+00    0,000000000e+00    0,000000000e+00
      604000000   -8,881059289e-02   -3,730412945e-02   -5,195171237e-01   -4,063401818e-01    0,000000000e+00    0,000000000e+00    0,000000000e+00    0,000000000e+00
      618000000   -9,673602879e-02   -1,548149250e-02   -6,537345648e-01   -5,852306634e-02    0,000000000e+00    0,000000000e+00    0,000000000e+00    0,000000000e+00
      632000000   -8,130663633e-02    1,539527997e-02   -5,753173232e-01    3,031350970e-01    0,000000000e+00    0,000000000e+00    0,000000000e+00    0,000000000e+00
      646000000   -4,322142527e-02    2,654764242e-02   -3,191765249e-01    5,564828515e-01    0,000000000e+00    0,000000000e+00    0,000000000e+00    0,000000000e+00
      660000000   -7,495290600e-03    6,059962790e-03    2,196922339e-02    6,294772625e-01    0,000000000e+00    0,000000000e+00    0,000000000e+00    0,000000000e+00
      674000000    1,168749412e-03   -3,065143153e-02    3,425130546e-01    5,199621916e-01    0,000000000e+00    0,000000000e+00    0,000000000e+00    0,000000000e+00
      688000000   -1,508771908e-02   -5,535161495e-02    5,586641431e-01    2,586141527e-01    0,000000000e+00    0,000000000e+00    0,000000000e+00    0,000000000e+00
      702000000   -3,353452310e-02   -5,985205621e-02    6,074314117e-01   -7,835630327e-02    0,000000000e+00    0,000000000e+00    0,000000000e+00    0,000000000e+00
      716000000   -3,771693632e-02   -5,578275025e-02    4,602270722e-01   -3,891525567e-01    0,000000000e+00    0,000000000e+00    0,000000000e+00    0,000000000e+00
      730000000   -3,168749064e-02   -6,446044147e-02    1,744663268e-01   -5,664021373e-01    0,000000000e+00    0,000000000e+00    0,000000000e+00    0,000000000e+00
      744000000   -4,058713466e-02   -8,771807700e-02   -1,530091017e-01   -5,641087890e-01    0,000000000e+00    0,000000000e+00    0,000000000e+00    0,000000000e+00
      758000000   -7,172574103e-02   -1,046596542e-01   -4,279837012e-01   -3,939337432e-01    0,000000000e+00    0,000000000e+00    0,000000000e+00    0,000000000e+00
      772000000   -1,135393679e-01   -9,400708228e-02   -5,741504431e-01   -1,058104783e-01    0,000000000e+00    0,000000000e+00    0,000000000e+00    0,000000000e+00
      786000000   -1,391967088e-01   -5,663856119e-02   -5,461542010e-01    2,207130641e-01    0,000000000e+00    0,000000000e+00    0,000000000e+00    0,000000000e+00
      800000000   -1,329425722e-01   -1,548786741e-02   -3,420997858e-01    4,790917039e-01    0,000000000e+00    0,000000000e+00    0,000000000e+00    0,000000000e+00
      814000000   -1,080267057e-01    8,090278134e-03   -3,435235471e-02    5,859811902e-01    0,000000000e+00    0,000000000e+00    0,000000000e+00    0,000000000e+00
      828000000   -8,621741831e-02    1,331930421e-02    2,782637179e-01    5,143561959e-01    0,000000000e+00    0,000000000e+00    0,000000000e+00    0,000000000e+00
      842000000   -7,093454897e-02    1,540476922e-02    5,021719337e-01    2,897309065e-01    0,000000000e+00    0,000000000e+00    0,000000000e+00    0,000000000e+00
      856000000   -5,208643526e-02    1,952237077e-02    5,705624819e-01   -1,780699193e-02    0,000000000e+00    0,000000000e+00    0,000000000e+00    0,000000000e+00
      870000000   -2,310384437e-02    1,402349863e-02    4,635739326e-01   -3,063056767e-01    0,000000000e+00    0,000000000e+00    0,000000000e+00    0,000000000e+00
      884000000    6,257147994e-03   -1,464817394e-02    2,311319262e-01   -4,881505072e-01    0,000000000e+00    0,000000000e+00    0,000000000e+00    0,000000000e+00
      898000000    1,228279807e-02   -6,340184063e-02   -5,102245510e-02   -5,258261561e-01    0,000000000e+00    0,000000000e+00    0,000000000e+00    0,000000000e+00
      912000000   -2,313634008e-02   -1,088948920e-01   -3,649994135e-01   -3,968323469e-01    0,000000000e+00    0,000000000e+00    0,000000000e+00    0,000000000e+00
      926000000   -7,334890217e-02   -1,235463247e-01   -5,293864608e-01   -1,576050073e-01    0,000000000e+00    0,000000000e+00    0,000000000e+00    0,000000000e+00
      940000000   -1,234000474e-01   -1,042060927e-01   -5,526708961e-01    1,552095711e-01    0,000000000e+00    0,000000000e+00    0,000000000e+00    0,000000000e+00
      954000000   -1,431174278e-01   -5,912258849e-02   -3,918443322e-01    4,448577464e-01    0,000000000e+00    0,000000000e+00    0,000000000e+00    0,000000000e+00
      968000000   -1,292248368e-01   -2,890365571e-02   -9,078579396e-02    6,026469469e-01    0,000000000e+00    0,000000000e+00    0,000000000e+00    0,000000000e+00
      982000000   -1,132149845e-01   -1,551162172e-02    2,493289560e-01    5,706827641e-01    0,000000000e+00    0,000000000e+00    0,000000000e+00    0,000000000e+00
      996000000   -1,041677222e-01   -1,155017875e-02    5,129999518e-01    3,671182096e-01    0,000000000e+00    0,000000000e+00    0,000000000e+00    0,000000000e+00
     1010000000   -1,020933017e-01   -1,061144564e-02    6,277014613e-01    5,193787813e-02    0,000000000e+00    0,000000000e+00    0,000000000e+00    0,000000000e+00
     1024000000   -8,923870325e-02    1,298848219e-04    5,616431236e-01   -2,705392838e-01    0,000000000e+00    0,000000000e+00    0,000000000e+00    0,000000000e+00
     1038000000   -7,654165477e-02    7,441632333e-04    3,366760015e-01   -5,033797622e-01    0,000000000e+00    0,000000000e+00    0,000000000e+00    0,000000000e+00
     1052000000   -6,334978342e-02   -1,886651292e-02    3,037979268e-02   -5,838874578e-01    0,000000000e+00    0,000000000e+00    0,000000000e+00    0,000000000e+00
     1066000000   -6,738702208e-02   -3,131448478e-02   -2,653686404e-01   -5,007947683e-01    0,000000000e+00    0,000000000e+00    0,000000000e+00    0,000000000e+00
     1080000000   -8,145955205e-02   -2,679198608e-02   -4,800875783e-01   -2,697134316e-01    0,000000000e+00    0,000000000e+00    0,000000000e+00    0,000000000e+00
     1094000000   -8,073459566e-02   -2,027893066e-02   -5,348592401e-01    4,077983648e-02    0,000000000e+00    0,000000000e+00    0,000000000e+00    0,000000000e+00
     1108000000   -6,213790551e-02   -1,132015605e-02   -3,983380198e-01    3,240302801e-01    0,000000000e+00    0,000000000e+00    0,000000000e+00    0,000000000e+00
     1122000000   -3,048546426e-02   -3,268257529e-02   -1,368281543e-01    4,811393917e-01    0,000000000e+00    0,000000000e+00    0,000000000e+00    0,000000000e+00
     1136000000   -2,434594370e-02   -8,709622920e-02    1,608511358e-01    4,744132161e-01    0,000000000e+00    0,000000000e+00    0,000000000e+00    0,000000000e+00
     1150000000   -6,792639196e-02   -1,336362362e-01    4,175158739e-01    3,139901161e-01    0,000000000e+00    0,000000000e+00    0,000000000e+00    0,000000000e+00
     1164000000   -1,365116239e-01   -1,519981176e-01    5,644367337e-01    2,735806257e-02    0,000000000e+00    0,000000000e+00    0,000000000e+00    0,000000000e+00
     1178000000   -2,088681161e-01   -1,215145737e-01    5,328803062e-01   -3,134709001e-01    0,000000000e+00    0,000000000e+00    0,000000000e+00    0,000000000e+00
     1192000000   -2,539508641e-01   -4,449817166e-02    2,943338156e-01   -5,983184576e-01    0,000000000e+00    0,000000000e+00    0,000000000e+00    0,000000000e+00
     1206000000   -2,342119962e-01    2,858923189e-02   -6,643179059e-02   -6,981532574e-01    0,000000000e+00    0,000000000e+00    0,000000000e+00    0,000000000e+00
     1220000000   -1,828636080e-01    8,367212117e-02   -4,186951816e-01   -5,782721639e-01    0,000000000e+00    0,000000000e+00    0,000000000e+00    0,000000000e+00
     1234000000   -1,265625805e-01    1,052590087e-01   -6,470398903e-01   -2,921370864e-01    0,000000000e+00    0,000000000e+00    0,000000000e+00    0,000000000e+00
     1248000000   -7,274682075e-02    9,647389501e-02   -6,798856854e-01    6,517255306e-02    0,000000000e+00    0,000000000e+00    0,000000000e+00    0,000000000e+00
     1262000000   -1,309214160e-02    6,353163719e-02   -5,210652947e-01    3,699910641e-01    0,000000000e+00    0,000000000e+00    0,000000000e+00    0,000000000e+00
     1276000000    2,209563181e-02   -1,221981598e-03   -2,486905456e-01    5,449358225e-01    0,000000000e+00    0,000000000e+00    0,000000000e+00    0,000000000e+00
     1290000000    2,319741063e-02   -8,406012505e-02    6,962554902e-02    5,812366009e-01    0,000000000e+00    0,000000000e+00    0,000000000e+00    0,000000000e+00
     1304000000   -3,429860249e-02   -1,675924361e-01    3,637729287e-01    4,669398367e-01    0,000000000e+00    0,000000000e+00    0,000000000e+00    0,000000000e+00
     1318000000   -1,289696842e-01   -2,142405659e-01    5,878819227e-01    2,217047065e-01    0,000000000e+00    0,000000000e+00    0,000000000e+00    0,000000000e+00
     1332000000   -2,543450296e-01   -1,888246983e-01    6,528356671e-01   -1,290342361e-01    0,000000000e+00    0,000000000e+00    0,000000000e+00    0,000000000e+00
     1346000000   -3,328706324e-01   -8,769205958e-02    5,121135712e-01   -4,592102170e-01    0,000000000e+00    0,000000000e+00    0,000000000e+00    0,000000000e+00
     1360000000   -3,382109106e-01    2,755166404e-02    1,872730702e-01   -6,403480172e-01    0,000000000e+00    0,000000000e+00    0,000000000e+00    0,000000000e+00
     1374000000   -2,779848576e-01    1,004069895e-01   -1,542654783e-01   -6,107891798e-01    0,000000000e+00    0,000000000e+00    0,000000000e+00    0,000000000e+00
     1388000000   -2,169467807e-01    1,415120214e-01   -4,127945304e-01   -3,701154888e-01    0,000000000e+00    0,000000000e+00    0,000000000e+00    0,000000000e+00
     1402000000   -1,471000165e-01    1,393119544e-01   -4,834205806e-01   -5,128167197e-02    0,000000000e+00    0,000000000e+00    0,000000000e+00    0,000000000e+00
     1416000000   -9,439818561e-02    1,109592989e-01   -3,784958124e-01    2,324331850e-01    0,000000000e+00    0,000000000e+00    0,000000000e+00    0,000000000e+00
     1430000000   -4,746533930e-02    6,847041100e-02   -1,456791312e-01    4,300362766e-01    0,000000000e+00    0,000000000e+00    0,000000000e+00    0,000000000e+00
     1444000000   -3,953364864e-02    4,512944724e-03    1,543820351e-01    5,361642241e-01    0,000000000e+00    0,000000000e+00    0,000000000e+00    0,000000000e+00
     1458000000   -6,165080518e-02   -7,067491859e-02    4,884477258e-01    4,822348058e-01    0,000000000e+00    0,000000000e+00    0,000000000e+00    0,000000000e+00
     1472000000   -1,403187364e-01   -1,252133548e-01    7,371029258e-01    2,505960166e-01    0,000000000e+00    0,000000000e+00    0,000000000e+00    0,000000000e+00
     1486000000   -2,310210466e-01   -1,193043441e-01    8,873747587e-01   -9,565240890e-02    0,000000000e+00    0,000000000e+00    0,000000000e+00    0,000000000e+00
     1500000000   -2,885527611e-01   -4,310717434e-02    8,059492111e-01   -4,555605352e-01    0,000000000e+00    0,000000000e+00    0,000000000e+00    0,000000000e+00
