! NanoVNA-App
! Date: 2025-09-25 15:05:54
! Start: 100MHz Stop: 1,5GHz Points: 101
! S-Parameter data: F S11 S21 S12 S22
# Hz S RI R 50
!     Frequency           S11_Real           S11_Imag           S21_Real           S21_Imag           S12_Real           S12_Imag           S22_Real           S22_Imag
      100000000    3,114017099e-02    2,865274809e-02    4,348657429e-01   -6,686523557e-01    0,000000000e+00    0,000000000e+00    0,000000000e+00    0,000000000e+00
      114000000    5,757817999e-02    5,500361323e-03    7,749036420e-03   -7,908552289e-01    0,000000000e+00    0,000000000e+00    0,000000000e+00    0,000000000e+00
      128000000    6,727168709e-02   -3,780474141e-02   -4,103540480e-01   -6,709011197e-01    0,000000000e+00    0,000000000e+00    0,000000000e+00    0,000000000e+00
      142000000    4,468736425e-02   -8,417510986e-02   -7,027952671e-01   -3,531876504e-01    0,000000000e+00    0,000000000e+00    0,000000000e+00    0,000000000e+00
      156000000   -5,459906999e-03   -1,066263169e-01   -7,871884108e-01    7,312883437e-02    0,000000000e+00    0,000000000e+00    0,000000000e+00    0,000000000e+00
      170000000   -5,766900256e-02   -9,066421539e-02   -6,276890635e-01    4,871556759e-01    0,000000000e+00    0,000000000e+00    0,000000000e+00    0,000000000e+00
      184000000   -8,367030323e-02   -4,945901409e-02   -2,647766173e-01    7,509359717e-01    0,000000000e+00    0,000000000e+00    0,000000000e+00    0,000000000e+00
      198000000   -7,964836806e-02   -1,046132296e-02    1,833108962e-01    7,732783556e-01    0,000000000e+00    0,000000000e+00    0,000000000e+00    0,000000000e+00
      212000000   -6,227537617e-02    1,314972062e-02    5,691296458e-01    5,488833189e-01    0,000000000e+00    0,000000000e+00    0,000000000e+00    0,000000000e+00
      226000000   -4,331028089e-02    2,766966261e-02    7,708091736e-01    1,545250863e-01    0,000000000e+00    0,000000000e+00    0,000000000e+00    0,000000000e+00
      240000000   -1,820211858e-02    3,850141913e-02    7,268872857e-01   -2,819375694e-01    0,000000000e+00    0,000000000e+00    0,000000000e+00    0,000000000e+00
      254000000    1,718824916e-02    3,513465449e-02    4,577661455e-01   -6,199012399e-01    0,000000000e+00    0,000000000e+00    0,000000000e+00    0,000000000e+00
      268000000    4,874834418e-02    5,584614351e-03    5,865269154e-02   -7,604412436e-01    0,000000000e+00    0,000000000e+00    0,000000000e+00    0,000000000e+00
      282000000    5,347079039e-02   -4,175614938e-02   -3,492001593e-01   -6,714270115e-01    0,000000000e+00    0,000000000e+00    0,000000000e+00    0,000000000e+00
      296000000    2,394641377e-02   -7,955555618e-02   -6,523208618e-01   -3,856337965e-01    0,000000000e+00    0,000000000e+00    0,000000000e+00    0,000000000e+00
      310000000   -1,797167398e-02   -8,294019103e-02   -7,640420794e-01    1,921026595e-02    0,000000000e+00    0,000000000e+00    0,000000000e+00    0,000000000e+00
      324000000   -4,170647264e-02   -5,885054171e-02   -6,321773529e-01    4,307557046e-01    0,000000000e+00    0,000000000e+00    0,000000000e+00    0,000000000e+00
      338000000   -3,467546403e-02   -3,676300868e-02   -2,947806418e-01    6,980880499e-01    0,000000000e+00    0,000000000e+00    0,000000000e+00    0,000000000e+00
      352000000   -1,727952994e-02   -4,065062851e-02    1,256786883e-01    7,422515154e-01    0,000000000e+00    0,000000000e+00    0,000000000e+00    0,000000000e+00
      366000000   -1,944055967e-02   -6,202653795e-02    4,972642362e-01    5,546889305e-01    0,000000000e+00    0,000000000e+00    0,000000000e+00    0,000000000e+00
      380000000   -4,425065592e-02   -7,271680981e-02    7,134166956e-01    1,991652548e-01    0,000000000e+00    0,000000000e+00    0,000000000e+00    0,000000000e+00
      394000000   -7,069881260e-02   -5,819514394e-02    7,047928572e-01   -2,165074348e-01    0,000000000e+00    0,000000000e+00    0,000000000e+00    0,000000000e+00
      408000000   -7,680969685e-02   -3,050952591e-02    4,709003270e-01   -5,595190525e-01    0,000000000e+00    0,000000000e+00    0,000000000e+00    0,000000000e+00
      422000000   -6,544622034e-02   -1,129586436e-02    9,341637790e-02   -7,175977826e-01    0,000000000e+00    0,000000000e+00    0,000000000e+00    0,000000000e+00
      436000000   -5,287517607e-02   -4,578446504e-03   -3,023749590e-01   -6,462789178e-01    0,000000000e+00    0,000000000e+00    0,000000000e+00    0,000000000e+00
      450000000   -4,465716705e-02    1,760616549e-03   -5,931757092e-01   -3,781619072e-01    0,000000000e+00    0,000000000e+00    0,000000000e+00    0,000000000e+00
      464000000   -2,951929532e-02    1,120265294e-02   -6,909999847e-01    2,427772124e-04    0,000000000e+00    0,000000000e+00    0,000000000e+00    0,000000000e+00
      478000000   -1,313430839e-03    1,123075839e-02   -5,726543665e-01    3,633668423e-01    0,000000000e+00    0,000000000e+00    0,000000000e+00    0,000000000e+00
      492000000    2,828569897e-02   -1,221407112e-02   -2,895078361e-01    6,018819213e-01    0,000000000e+00    0,000000000e+00    0,000000000e+00    0,000000000e+00
      506000000    3,645750135e-02   -5,567192286e-02    6,963681430e-02    6,592769027e-01    0,000000000e+00    0,000000000e+00    0,000000000e+00    0,000000000e+00
      520000000    1,292434800e-02   -9,845065325e-02    4,011003971e-01    5,264998674e-01    0,000000000e+00    0,000000000e+00    0,000000000e+00    0,000000000e+00
      534000000   -3,407436609e-02   -1,161481217e-01    6,242154241e-01    2,363619357e-01    0,000000000e+00    0,000000000e+00    0,000000000e+00    0,000000000e+00
      548000000   -7,766417414e-02   -9,969824553e-02    6,579705477e-01   -1,335596889e-01    0,000000000e+00    0,000000000e+00    0,000000000e+00    0,000000000e+00
      562000000   -9,331138432e-02   -6,621865928e-02    4,821260273e-01   -4,674009681e-01    0,000000000e+00    0,000000000e+00    0,000000000e+00    0,000000000e+00
      576000000   -8,573693782e-02   -4,448860511e-02    1,505212337e-01   -6,480096579e-01    0,000000000e+00    0,000000000e+00    0,000000000e+00    0,000000000e+00
      590000000   -8,057385683e-02   -4,170975834e-02   -2,189495116e-01   -6,278565526e-01    0,000000000e+00    0,000000000e+00    0,000000000e+00    0,000000000e+00
      604000000   -8,851872385e-02   -3,718240187e-02   -5,197715163e-01   -4,051215947e-01    0,000000000e+00    0,000000000e+00    0,000000000e+00    0,000000000e+00
      618000000   -9,609510005e-02   -1,502000727e-02   -6,531143188e-01   -5,820070952e-02    0,000000000e+00    0,000000000e+00    0,000000000e+00    0,000000000e+00
      632000000   -8,109837025e-02    1,464342233e-02   -5,752688646e-01    3,029357791e-01    0,000000000e+00    0,000000000e+00    0,000000000e+00    0,000000000e+00
      646000000   -4,254979640e-02    2,577845939e-02   -3,186544180e-01    5,557374358e-01    0,000000000e+00    0,000000000e+00    0,000000000e+00    0,000000000e+00
      660000000   -7,319562603e-03    5,791050382e-03    2,061176486e-02    6,284069419e-01    0,000000000e+00    0,000000000e+00    0,000000000e+00    0,000000000e+00
      674000000    1,316136681e-03   -2,984984592e-02    3,414527476e-01    5,189614296e-01    0,000000000e+00    0,000000000e+00    0,000000000e+00    0,000000000e+00
      688000000   -1,519248448e-02   -5,619647726e-02    5,586788654e-01    2,587855160e-01    0,000000000e+00    0,000000000e+00    0,000000000e+00    0,000000000e+00
      702000000   -3,369323537e-02   -6,054050475e-02    6,075010896e-01   -7,926478237e-02    0,000000000e+00    0,000000000e+00    0,000000000e+00    0,000000000e+00
      716000000   -3,644512966e-02   -5,596970394e-02    4,598097205e-01   -3,895909488e-01    0,000000000e+00    0,000000000e+00    0,000000000e+00    0,000000000e+00
      730000000   -3,120711818e-02   -6,491043419e-02    1,739135981e-01   -5,664865971e-01    0,000000000e+00    0,000000000e+00    0,000000000e+00    0,000000000e+00
      744000000   -3,998395056e-02   -8,782858402e-02   -1,529176384e-01   -5,635574460e-01    0,000000000e+00    0,000000000e+00    0,000000000e+00    0,000000000e+00
      758000000   -7,178711146e-02   -1,057816818e-01   -4,274325669e-01   -3,939890265e-01    0,000000000e+00    0,000000000e+00    0,000000000e+00    0,000000000e+00
      772000000   -1,145917773e-01   -9,408372641e-02   -5,742947459e-01   -1,061938480e-01    0,000000000e+00    0,000000000e+00    0,000000000e+00    0,000000000e+00
      786000000   -1,383919269e-01   -5,587057397e-02   -5,449365973e-01    2,206394225e-01    0,000000000e+00    0,000000000e+00    0,000000000e+00    0,000000000e+00
      800000000   -1,327884346e-01   -1,422872115e-02   -3,425162435e-01    4,804226160e-01    0,000000000e+00    0,000000000e+00    0,000000000e+00    0,000000000e+00
      814000000   -1,082879007e-01    8,245985955e-03   -3,455744311e-02    5,862002373e-01    0,000000000e+00    0,000000000e+00    0,000000000e+00    0,000000000e+00
      828000000   -8,600979298e-02    1,349932700e-02    2,776888907e-01    5,134425163e-01    0,000000000e+00    0,000000000e+00    0,000000000e+00    0,000000000e+00
      842000000   -7,016655058e-02    1,515732147e-02    5,030010939e-01    2,883076370e-01    0,000000000e+00    0,000000000e+00    0,000000000e+00    0,000000000e+00
      856000000   -5,239444599e-02    1,949604042e-02    5,699094534e-01   -1,803400554e-02    0,000000000e+00    0,000000000e+00    0,000000000e+00    0,000000000e+00
      870000000   -2,344120480e-02    1,398377120e-02    4,631059468e-01   -3,055982888e-01    0,000000000e+00    0,000000000e+00    0,000000000e+00    0,000000000e+00
      884000000    5,282787140e-03   -1,511027571e-02    2,303759754e-01   -4,878408611e-01    0,000000000e+00    0,000000000e+00    0,000000000e+00    0,000000000e+00
      898000000    1,128293760e-02   -6,329194456e-02   -5,223410949e-02   -5,263758302e-01    0,000000000e+00    0,000000000e+00    0,000000000e+00    0,000000000e+00
      912000000   -2,414060384e-02   -1,078532189e-01   -3,607150316e-01   -4,114077389e-01    0,000000000e+00    0,000000000e+00    0,000000000e+00    0,000000000e+00
      926000000   -7,601194829e-02   -1,224711314e-01   -5,316765904e-01   -1,564572006e-01    0,000000000e+00    0,000000000e+00    0,000000000e+00    0,000000000e+00
      940000000   -1,256469041e-01   -1,028111875e-01   -5,532555580e-01    1,571113765e-01    0,000000000e+00    0,000000000e+00    0,000000000e+00    0,000000000e+00
      954000000   -1,403275430e-01   -6,366150081e-02   -3,914858103e-01    4,430043101e-01    0,000000000e+00    0,000000000e+00    0,000000000e+00    0,000000000e+00
      968000000   -1,278576553e-01   -2,926770411e-02   -9,138423204e-02    5,992136002e-01    0,000000000e+00    0,000000000e+00    0,000000000e+00    0,000000000e+00
      982000000   -1,169021949e-01   -1,869774424e-02    2,429914773e-01    5,720502734e-01    0,000000000e+00    0,000000000e+00    0,000000000e+00    0,000000000e+00
      996000000   -1,073117554e-01   -1,318221167e-02    5,114113092e-01    3,681926727e-01    0,000000000e+00    0,000000000e+00    0,000000000e+00    0,000000000e+00
     1010000000   -1,000002325e-01   -8,243955672e-03    6,267374754e-01    5,260149762e-02    0,000000000e+00    0,000000000e+00    0,000000000e+00    0,000000000e+00
     1024000000   -9,486240149e-02   -1,425177557e-03    5,612009168e-01   -2,719282210e-01    0,000000000e+00    0,000000000e+00    0,000000000e+00    0,000000000e+00
     1038000000   -7,658579946e-02    1,731660566e-03    3,394412398e-01   -5,028936863e-01    0,000000000e+00    0,000000000e+00    0,000000000e+00    0,000000000e+00
     1052000000   -6,599854678e-02   -1,281694509e-02    3,307365999e-02   -5,869192481e-01    0,000000000e+00    0,000000000e+00    0,000000000e+00    0,000000000e+00
     1066000000   -7,201980799e-02   -2,859620005e-02   -2,679108083e-01   -5,022712946e-01    0,000000000e+00    0,000000000e+00    0,000000000e+00    0,000000000e+00
     1080000000   -8,408028632e-02   -3,302919120e-02   -4,817465842e-01   -2,705240250e-01    0,000000000e+00    0,000000000e+00    0,000000000e+00    0,000000000e+00
     1094000000   -7,907593995e-02   -1,478653401e-02   -5,306612253e-01    4,009985179e-02    0,000000000e+00    0,000000000e+00    0,000000000e+00    0,000000000e+00
     1108000000   -5,672441423e-02   -1,510909013e-02   -3,968862295e-01    3,281355202e-01    0,000000000e+00    0,000000000e+00    0,000000000e+00    0,000000000e+00
     1122000000   -2,867289446e-02   -3,692746907e-02   -1,363015175e-01    4,838337302e-01    0,000000000e+00    0,000000000e+00    0,000000000e+00    0,000000000e+00
     1136000000   -2,583424188e-02   -8,430857211e-02    1,620720178e-01    4,731930494e-01    0,000000000e+00    0,000000000e+00    0,000000000e+00    0,000000000e+00
     1150000000   -6,265889108e-02   -1,346315742e-01    4,176653624e-01    3,102334440e-01    0,000000000e+00    0,000000000e+00    0,000000000e+00    0,000000000e+00
     1164000000   -1,376215667e-01   -1,496487260e-01    5,639978051e-01    2,544024587e-02    0,000000000e+00    0,000000000e+00    0,000000000e+00    0,000000000e+00
     1178000000   -2,090856135e-01   -1,195291057e-01    5,294848084e-01   -3,165841103e-01    0,000000000e+00    0,000000000e+00    0,000000000e+00    0,000000000e+00
     1192000000   -2,448012978e-01   -4,422468692e-02    2,969123125e-01   -5,981739163e-01    0,000000000e+00    0,000000000e+00    0,000000000e+00    0,000000000e+00
     1206000000   -2,297767401e-01    3,413802013e-02   -6,179577485e-02   -6,970137954e-01    0,000000000e+00    0,000000000e+00    0,000000000e+00    0,000000000e+00
     1220000000   -1,889713705e-01    8,163801581e-02   -4,245849252e-01   -5,785529017e-01    0,000000000e+00    0,000000000e+00    0,000000000e+00    0,000000000e+00
     1234000000   -1,285849214e-01    9,899393469e-02   -6,427921653e-01   -2,957081795e-01    0,000000000e+00    0,000000000e+00    0,000000000e+00    0,000000000e+00
     1248000000   -6,804588437e-02    9,715430439e-02   -6,785569191e-01    6,654436141e-02    0,000000000e+00    0,000000000e+00    0,000000000e+00    0,000000000e+00
     1262000000   -1,665203832e-02    6,389587373e-02   -5,162658095e-01    3,694193065e-01    0,000000000e+00    0,000000000e+00    0,000000000e+00    0,000000000e+00
     1276000000    2,434553578e-02   -1,100814668e-03   -2,423556149e-01    5,510093570e-01    0,000000000e+00    0,000000000e+00    0,000000000e+00    0,000000000e+00
     1290000000    2,343453094e-02   -9,137913585e-02    7,718131691e-02    5,745307803e-01    0,000000000e+00    0,000000000e+00    0,000000000e+00    0,000000000e+00
     1304000000   -2,755947039e-02   -1,682135612e-01    3,696811199e-01    4,666002095e-01    0,000000000e+00    0,000000000e+00    0,000000000e+00    0,000000000e+00
     1318000000   -1,315876991e-01   -2,098824382e-01    5,880028605e-01    2,216933668e-01    0,000000000e+00    0,000000000e+00    0,000000000e+00    0,000000000e+00
     1332000000   -2,568278015e-01   -1,851864606e-01    6,528730392e-01   -1,214690879e-01    0,000000000e+00    0,000000000e+00    0,000000000e+00    0,000000000e+00
     1346000000   -3,366023898e-01   -9,553442150e-02    5,060781240e-01   -4,688646793e-01    0,000000000e+00    0,000000000e+00    0,000000000e+00    0,000000000e+00
     1360000000   -3,360040784e-01    2,755821869e-02    1,867656112e-01   -6,475016475e-01    0,000000000e+00    0,000000000e+00    0,000000000e+00    0,000000000e+00
     1374000000   -2,778795660e-01    9,975665063e-02   -1,518393606e-01   -6,060289145e-01    0,000000000e+00    0,000000000e+00    0,000000000e+00    0,000000000e+00
     1388000000   -2,131889313e-01    1,423696280e-01   -4,099095464e-01   -3,715810776e-01    0,000000000e+00    0,000000000e+00    0,000000000e+00    0,000000000e+00
     1402000000   -1,534568220e-01    1,362944245e-01   -4,880874753e-01   -6,610848010e-02    0,000000000e+00    0,000000000e+00    0,000000000e+00    0,000000000e+00
     1416000000   -9,486293048e-02    1,157080308e-01   -3,735424876e-01    2,411623001e-01    0,000000000e+00    0,000000000e+00    0,000000000e+00    0,000000000e+00
     1430000000   -5,368605256e-02    6,917195767e-02   -1,412031353e-01    4,771876037e-01    0,000000000e+00    0,000000000e+00    0,000000000e+00    0,000000000e+00
     1444000000   -3,480368108e-02    1,944734831e-03    1,709027886e-01    5,294785500e-01    0,000000000e+00    0,000000000e+00    0,000000000e+00    0,000000000e+00
     1458000000   -6,093247235e-02   -7,173024118e-02    4,902600050e-01    4,722356498e-01    0,000000000e+00    0,000000000e+00    0,000000000e+00    0,000000000e+00
     1472000000   -1,386771500e-01   -1,207721084e-01    7,628675699e-01    2,707096040e-01    0,000000000e+00    0,000000000e+00    0,000000000e+00    0,000000000e+00
     1486000000   -2,326518148e-01   -1,173163876e-01    8,800125122e-01   -6,851275265e-02    0,000000000e+00    0,000000000e+00    0,000000000e+00    0,000000000e+00
     1500000000   -2,777196467e-01   -4,829272628e-02    8,255095482e-01   -4,476585686e-01    0,000000000e+00    0,000000000e+00    0,000000000e+00    0,000000000e+00
