! NanoVNA-App
! Date: 2025-09-25 15:08:06
! Start: 100MHz Stop: 1,5GHz Points: 101
! S-Parameter data: F S11 S21 S12 S22
# Hz S RI R 50
!     Frequency           S11_Real           S11_Imag           S21_Real           S21_Imag           S12_Real           S12_Imag           S22_Real           S22_Imag
      100000000    3,116607107e-02    2,864916623e-02    4,348729849e-01   -6,686283946e-01    0,000000000e+00    0,000000000e+00    0,000000000e+00    0,000000000e+00
      114000000    5,759419501e-02    5,522310734e-03    7,855566218e-03   -7,910699248e-01    0,000000000e+00    0,000000000e+00    0,000000000e+00    0,000000000e+00
      128000000    6,728290766e-02   -3,787219897e-02   -4,103920162e-01   -6,711326838e-01    0,000000000e+00    0,000000000e+00    0,000000000e+00    0,000000000e+00
      142000000    4,473809153e-02   -8,423591405e-02   -7,029740214e-01   -3,533014059e-01    0,000000000e+00    0,000000000e+00    0,000000000e+00    0,000000000e+00
      156000000   -5,355817266e-03   -1,067187563e-01   -7,875488997e-01    7,347736508e-02    0,000000000e+00    0,000000000e+00    0,000000000e+00    0,000000000e+00
      170000000   -5,770295858e-02   -9,062924981e-02   -6,275864244e-01    4,871491492e-01    0,000000000e+00    0,000000000e+00    0,000000000e+00    0,000000000e+00
      184000000   -8,374088258e-02   -4,947521910e-02   -2,649079561e-01    7,510122061e-01    0,000000000e+00    0,000000000e+00    0,000000000e+00    0,000000000e+00
      198000000   -7,961951941e-02   -1,046339981e-02    1,832915545e-01    7,733020186e-01    0,000000000e+00    0,000000000e+00    0,000000000e+00    0,000000000e+00
      212000000   -6,227008998e-02    1,313280500e-02    5,691463351e-01    5,490486026e-01    0,000000000e+00    0,000000000e+00    0,000000000e+00    0,000000000e+00
      226000000   -4,327683151e-02    2,763372287e-02    7,707177997e-01    1,545652002e-01    0,000000000e+00    0,000000000e+00    0,000000000e+00    0,000000000e+00
      240000000   -1,824726723e-02    3,854843974e-02    7,268766761e-01   -2,819731534e-01    0,000000000e+00    0,000000000e+00    0,000000000e+00    0,000000000e+00
      254000000    1,719196141e-02    3,520184755e-02    4,579725862e-01   -6,201627254e-01    0,000000000e+00    0,000000000e+00    0,000000000e+00    0,000000000e+00
      268000000    4,882104695e-02    5,582676735e-03    5,899637565e-02   -7,601876855e-01    0,000000000e+00    0,000000000e+00    0,000000000e+00    0,000000000e+00
      282000000    5,353409052e-02   -4,183018208e-02   -3,493676186e-01   -6,722105742e-01    0,000000000e+00    0,000000000e+00    0,000000000e+00    0,000000000e+00
      296000000    2,404293045e-02   -7,947988808e-02   -6,522747874e-01   -3,854565024e-01    0,000000000e+00    0,000000000e+00    0,000000000e+00    0,000000000e+00
      310000000   -1,771148667e-02   -8,299412578e-02   -7,630016804e-01    2,144423686e-02    0,000000000e+00    0,000000000e+00    0,000000000e+00    0,000000000e+00
      324000000   -4,166869819e-02   -5,890322477e-02   -6,319359541e-01    4,307608604e-01    0,000000000e+00    0,000000000e+00    0,000000000e+00    0,000000000e+00
      338000000   -3,444066644e-02   -3,689147532e-02   -2,959306538e-01    7,005062699e-01    0,000000000e+00    0,000000000e+00    0,000000000e+00    0,000000000e+00
      352000000   -1,726440154e-02   -4,069513083e-02    1,250526011e-01    7,427508831e-01    0,000000000e+00    0,000000000e+00    0,000000000e+00    0,000000000e+00
      366000000   -1,930505782e-02   -6,179189682e-02    4,980708063e-01    5,549836159e-01    0,000000000e+00    0,000000000e+00    0,000000000e+00    0,000000000e+00
      380000000   -4,440451786e-02   -7,264558971e-02    7,133563757e-01    1,998700947e-01    0,000000000e+00    0,000000000e+00    0,000000000e+00    0,000000000e+00
      394000000   -7,092007995e-02   -5,804985762e-02    7,042632103e-01   -2,167093754e-01    0,000000000e+00    0,000000000e+00    0,000000000e+00    0,000000000e+00
      408000000   -7,680099458e-02   -3,040768579e-02    4,711896181e-01   -5,591168404e-01    0,000000000e+00    0,000000000e+00    0,000000000e+00    0,000000000e+00
      422000000   -6,528282166e-02   -1,099589374e-02    9,380449355e-02   -7,178096771e-01    0,000000000e+00    0,000000000e+00    0,000000000e+00    0,000000000e+00
      436000000   -5,291174725e-02   -4,715377465e-03   -3,010969162e-01   -6,476471424e-01    0,000000000e+00    0,000000000e+00    0,000000000e+00    0,000000000e+00
      450000000   -4,481719807e-02    1,657758257e-03   -5,933406949e-01   -3,774874210e-01    0,000000000e+00    0,000000000e+00    0,000000000e+00    0,000000000e+00
      464000000   -2,923572436e-02    1,151947118e-02   -6,913210750e-01    4,435843584e-05    0,000000000e+00    0,000000000e+00    0,000000000e+00    0,000000000e+00
      478000000   -1,310939901e-03    1,148710586e-02   -5,728774667e-01    3,635009825e-01    0,000000000e+00    0,000000000e+00    0,000000000e+00    0,000000000e+00
      492000000    2,812675014e-02   -1,211724430e-02   -2,894593179e-01    6,022473574e-01    0,000000000e+00    0,000000000e+00    0,000000000e+00    0,000000000e+00
      506000000    3,658818454e-02   -5,556072667e-02    6,992123276e-02    6,587519646e-01    0,000000000e+00    0,000000000e+00    0,000000000e+00    0,000000000e+00
      520000000    1,211002655e-02   -9,800306708e-02    4,024887681e-01    5,237682462e-01    0,000000000e+00    0,000000000e+00    0,000000000e+00    0,000000000e+00
      534000000   -3,427570686e-02   -1,157971323e-01    6,242306232e-01    2,367753685e-01    0,000000000e+00    0,000000000e+00    0,000000000e+00    0,000000000e+00
      548000000   -7,770229876e-02   -9,899811447e-02    6,578419805e-01   -1,330446005e-01    0,000000000e+00    0,000000000e+00    0,000000000e+00    0,000000000e+00
      562000000   -9,307517856e-02   -6,624657661e-02    4,818909466e-01   -4,664043188e-01    0,000000000e+00    0,000000000e+00    0,000000000e+00    0,000000000e+00
      576000000   -8,644232154e-02   -4,416825995e-02    1,503547877e-01   -6,480596066e-01    0,000000000e+00    0,000000000e+00    0,000000000e+00    0,000000000e+00
      590000000   -8,091720194e-02   -4,161346331e-02   -2,184457928e-01   -6,267290115e-01    0,000000000e+00    0,000000000e+00    0,000000000e+00    0,000000000e+00
      604000000   -8,899001777e-02   -3,699014708e-02   -5,195236802e-01   -4,053176641e-01    0,000000000e+00    0,000000000e+00    0,000000000e+00    0,000000000e+00
      618000000   -9,628937393e-02   -1,529578585e-02   -6,529415250e-01   -5,849515647e-02    0,000000000e+00    0,000000000e+00    0,000000000e+00    0,000000000e+00
      632000000   -8,068459481e-02    1,549694035e-02   -5,757346153e-01    3,034681082e-01    0,000000000e+00    0,000000000e+00    0,000000000e+00    0,000000000e+00
      646000000   -4,291895032e-02    2,658798918e-02   -3,189580441e-01    5,567436814e-01    0,000000000e+00    0,000000000e+00    0,000000000e+00    0,000000000e+00
      660000000   -7,244856097e-03    6,074314471e-03    2,206932940e-02    6,319415569e-01    0,000000000e+00    0,000000000e+00    0,000000000e+00    0,000000000e+00
      674000000    6,417375989e-04   -3,072291985e-02    3,420817852e-01    5,184112787e-01    0,000000000e+00    0,000000000e+00    0,000000000e+00    0,000000000e+00
      688000000   -1,451924630e-02   -5,602253228e-02    5,590828061e-01    2,579694688e-01    0,000000000e+00    0,000000000e+00    0,000000000e+00    0,000000000e+00
      702000000   -3,238956258e-02   -5,923974514e-02    6,058082581e-01   -8,116853982e-02    0,000000000e+00    0,000000000e+00    0,000000000e+00    0,000000000e+00
      716000000   -3,728843108e-02   -5,522241443e-02    4,599051178e-01   -3,897985518e-01    0,000000000e+00    0,000000000e+00    0,000000000e+00    0,000000000e+00
      730000000   -3,242956847e-02   -6,516799331e-02    1,741579622e-01   -5,662192106e-01    0,000000000e+00    0,000000000e+00    0,000000000e+00    0,000000000e+00
      744000000   -3,989392892e-02   -8,765977621e-02   -1,535856575e-01   -5,635913014e-01    0,000000000e+00    0,000000000e+00    0,000000000e+00    0,000000000e+00
      758000000   -7,231218368e-02   -1,043033153e-01   -4,269576371e-01   -3,950406611e-01    0,000000000e+00    0,000000000e+00    0,000000000e+00    0,000000000e+00
      772000000   -1,147144884e-01   -9,376141429e-02   -5,744234920e-01   -1,058150232e-01    0,000000000e+00    0,000000000e+00    0,000000000e+00    0,000000000e+00
      786000000   -1,391397715e-01   -5,670023337e-02   -5,449029207e-01    2,212480754e-01    0,000000000e+00    0,000000000e+00    0,000000000e+00    0,000000000e+00
      800000000   -1,324914992e-01   -1,521960646e-02   -3,416611254e-01    4,794585109e-01    0,000000000e+00    0,000000000e+00    0,000000000e+00    0,000000000e+00
      814000000   -1,077122390e-01    8,641177788e-03   -3,434753418e-02    5,860338807e-01    0,000000000e+00    0,000000000e+00    0,000000000e+00    0,000000000e+00
      828000000   -8,524756879e-02    1,408547908e-02    2,788797319e-01    5,135147572e-01    0,000000000e+00    0,000000000e+00    0,000000000e+00    0,000000000e+00
      842000000   -7,071976364e-02    1,514906064e-02    5,025178194e-01    2,889238894e-01    0,000000000e+00    0,000000000e+00    0,000000000e+00    0,000000000e+00
      856000000   -5,285764486e-02    1,914397813e-02    5,709336400e-01   -1,768014766e-02    0,000000000e+00    0,000000000e+00    0,000000000e+00    0,000000000e+00
      870000000   -2,349147387e-02    1,413490716e-02    4,632078707e-01   -3,063961864e-01    0,000000000e+00    0,000000000e+00    0,000000000e+00    0,000000000e+00
      884000000    5,703673232e-03   -1,396161877e-02    2,297545373e-01   -4,879333973e-01    0,000000000e+00    0,000000000e+00    0,000000000e+00    0,000000000e+00
      898000000    1,216331031e-02   -6,399066746e-02   -5,176243931e-02   -5,279579163e-01    0,000000000e+00    0,000000000e+00    0,000000000e+00    0,000000000e+00
      912000000   -2,280070260e-02   -1,078019813e-01   -3,623858988e-01   -4,093054831e-01    0,000000000e+00    0,000000000e+00    0,000000000e+00    0,000000000e+00
      926000000   -7,587073743e-02   -1,228206158e-01   -5,341358781e-01   -1,574043930e-01    0,000000000e+00    0,000000000e+00    0,000000000e+00    0,000000000e+00
      940000000   -1,248530969e-01   -1,034997031e-01   -5,520072579e-01    1,561946869e-01    0,000000000e+00    0,000000000e+00    0,000000000e+00    0,000000000e+00
      954000000   -1,405673027e-01   -5,843263865e-02   -3,911595345e-01    4,451223314e-01    0,000000000e+00    0,000000000e+00    0,000000000e+00    0,000000000e+00
      968000000   -1,338181347e-01   -2,698107995e-02   -9,272798896e-02    6,039685011e-01    0,000000000e+00    0,000000000e+00    0,000000000e+00    0,000000000e+00
      982000000   -1,165632308e-01   -1,856513135e-02    2,461806238e-01    5,717908740e-01    0,000000000e+00    0,000000000e+00    0,000000000e+00    0,000000000e+00
      996000000   -1,092201695e-01   -1,376989763e-02    5,112783313e-01    3,665687740e-01    0,000000000e+00    0,000000000e+00    0,000000000e+00    0,000000000e+00
     1010000000   -1,017923802e-01   -4,744015168e-03    6,277359128e-01    5,093017593e-02    0,000000000e+00    0,000000000e+00    0,000000000e+00    0,000000000e+00
     1024000000   -9,253934771e-02   -3,348986153e-03    5,610331297e-01   -2,685301900e-01    0,000000000e+00    0,000000000e+00    0,000000000e+00    0,000000000e+00
     1038000000   -7,849698514e-02   -4,148403823e-04    3,397886753e-01   -5,032526851e-01    0,000000000e+00    0,000000000e+00    0,000000000e+00    0,000000000e+00
     1052000000   -6,322076172e-02   -1,375030726e-02    3,016734309e-02   -5,866109729e-01    0,000000000e+00    0,000000000e+00    0,000000000e+00    0,000000000e+00
     1066000000   -6,817051768e-02   -3,290187940e-02   -2,652591169e-01   -4,968753457e-01    0,000000000e+00    0,000000000e+00    0,000000000e+00    0,000000000e+00
     1080000000   -7,830921561e-02   -3,068492562e-02   -4,817329347e-01   -2,720111012e-01    0,000000000e+00    0,000000000e+00    0,000000000e+00    0,000000000e+00
     1094000000   -8,137010783e-02   -1,489453297e-02   -5,320100188e-01    4,027758539e-02    0,000000000e+00    0,000000000e+00    0,000000000e+00    0,000000000e+00
     1108000000   -6,097247452e-02   -1,290751807e-02   -3,983962238e-01    3,249760866e-01    0,000000000e+00    0,000000000e+00    0,000000000e+00    0,000000000e+00
     1122000000   -3,102039173e-02   -3,300772980e-02   -1,334479451e-01    4,784560800e-01    0,000000000e+00    0,000000000e+00    0,000000000e+00    0,000000000e+00
     1136000000   -2,756876126e-02   -8,788100630e-02    1,638086736e-01    4,727326035e-01    0,000000000e+00    0,000000000e+00    0,000000000e+00    0,000000000e+00
     1150000000   -6,292846799e-02   -1,385719925e-01    4,187029302e-01    3,134068549e-01    0,000000000e+00    0,000000000e+00    0,000000000e+00    0,000000000e+00
     1164000000   -1,361340284e-01   -1,514140964e-01    5,640014410e-01    2,731584571e-02    0,000000000e+00    0,000000000e+00    0,000000000e+00    0,000000000e+00
     1178000000   -2,121426463e-01   -1,204670221e-01    5,342150927e-01   -3,158260584e-01    0,000000000e+00    0,000000000e+00    0,000000000e+00    0,000000000e+00
     1192000000   -2,511266470e-01   -3,955737874e-02    2,979589701e-01   -5,994502902e-01    0,000000000e+00    0,000000000e+00    0,000000000e+00    0,000000000e+00
     1206000000   -2,307584584e-01    3,524037451e-02   -6,312818080e-02   -6,963830590e-01    0,000000000e+00    0,000000000e+00    0,000000000e+00    0,000000000e+00
     1220000000   -1,876973212e-01    7,984235883e-02   -4,161952138e-01   -5,827128887e-01    0,000000000e+00    0,000000000e+00    0,000000000e+00    0,000000000e+00
     1234000000   -1,252965778e-01    9,953510761e-02   -6,447867155e-01   -2,928068042e-01    0,000000000e+00    0,000000000e+00    0,000000000e+00    0,000000000e+00
     1248000000   -6,553575397e-02    9,775517881e-02   -6,743098497e-01    6,645519286e-02    0,000000000e+00    0,000000000e+00    0,000000000e+00    0,000000000e+00
     1262000000   -1,230570674e-02    6,669993699e-02   -5,165767670e-01    3,681688905e-01    0,000000000e+00    0,000000000e+00    0,000000000e+00    0,000000000e+00
     1276000000    2,600656264e-02    9,335220675e-04   -2,415479422e-01    5,467717648e-01    0,000000000e+00    0,000000000e+00    0,000000000e+00    0,000000000e+00
     1290000000    2,013373747e-02   -9,042359889e-02    7,011426240e-02    5,748813152e-01    0,000000000e+00    0,000000000e+00    0,000000000e+00    0,000000000e+00
     1304000000   -3,002906777e-02   -1,710204780e-01    3,674457371e-01    4,610173106e-01    0,000000000e+00    0,000000000e+00    0,000000000e+00    0,000000000e+00
     1318000000   -1,338650286e-01   -2,112915516e-01    5,873988271e-01    2,257360965e-01    0,000000000e+00    0,000000000e+00    0,000000000e+00    0,000000000e+00
     1332000000   -2,531071007e-01   -1,908240318e-01    6,562806368e-01   -1,226769015e-01    0,000000000e+00    0,000000000e+00    0,000000000e+00    0,000000000e+00
     1346000000   -3,337688446e-01   -9,426628798e-02    4,979870319e-01   -4,625850320e-01    0,000000000e+00    0,000000000e+00    0,000000000e+00    0,000000000e+00
     1360000000   -3,324488699e-01    2,754130960e-02    1,892013550e-01   -6,419964433e-01    0,000000000e+00    0,000000000e+00    0,000000000e+00    0,000000000e+00
     1374000000   -2,846542895e-01    1,026479006e-01   -1,647141576e-01   -5,978005528e-01    0,000000000e+00    0,000000000e+00    0,000000000e+00    0,000000000e+00
     1388000000   -2,119173557e-01    1,352963299e-01   -4,061867893e-01   -3,778775036e-01    0,000000000e+00    0,000000000e+00    0,000000000e+00    0,000000000e+00
     1402000000   -1,507130563e-01    1,353368312e-01   -4,831336439e-01   -5,915785581e-02    0,000000000e+00    0,000000000e+00    0,000000000e+00    0,000000000e+00
     1416000000   -1,008384153e-01    1,171284541e-01   -3,807159364e-01    2,525743544e-01    0,000000000e+00    0,000000000e+00    0,000000000e+00    0,000000000e+00
     1430000000   -5,505267903e-02    6,877860427e-02   -1,617882550e-01    4,538550079e-01    0,000000000e+00    0,000000000e+00    0,000000000e+00    0,000000000e+00
     1444000000   -3,407866508e-02    2,616815036e-03    1,642562747e-01    5,228917003e-01    0,000000000e+00    0,000000000e+00    0,000000000e+00    0,000000000e+00
     1458000000   -6,386990845e-02   -7,685727626e-02    4,746652246e-01    4,718024433e-01    0,000000000e+00    0,000000000e+00    0,000000000e+00    0,000000000e+00
     1472000000   -1,381525397e-01   -1,215076149e-01    7,545726299e-01    2,765988708e-01    0,000000000e+00    0,000000000e+00    0,000000000e+00    0,000000000e+00
     1486000000   -2,241560817e-01   -1,084714159e-01    9,018044472e-01   -7,905489951e-02    0,000000000e+00    0,000000000e+00    0,000000000e+00    0,000000000e+00
     1500000000   -2,875480056e-01   -5,264584348e-02    8,091852069e-01   -4,653180540e-01    0,000000000e+00    0,000000000e+00    0,000000000e+00    0,000000000e+00
