! NanoVNA-App
! Date: 2025-09-25 15:11:30
! Start: 100MHz Stop: 1,5GHz Points: 101
! S-Parameter data: F S11 S21 S12 S22
# Hz S RI R 50
!     Frequency           S11_Real           S11_Imag           S21_Real           S21_Imag           S12_Real           S12_Imag           S22_Real           S22_Imag
      100000000    3,113608249e-02    2,864452638e-02    4,348831177e-01   -6,685909629e-01    0,000000000e+00    0,000000000e+00    0,000000000e+00    0,000000000e+00
      114000000    5,755974725e-02    5,491519812e-03    7,784976158e-03   -7,909637690e-01    0,000000000e+00    0,000000000e+00    0,000000000e+00    0,000000000e+00
      128000000    6,724900752e-02   -3,789018095e-02   -4,103444517e-01   -6,711908579e-01    0,000000000e+00    0,000000000e+00    0,000000000e+00    0,000000000e+00
      142000000    4,470689222e-02   -8,421298862e-02   -7,027922869e-01   -3,533121049e-01    0,000000000e+00    0,000000000e+00    0,000000000e+00    0,000000000e+00
      156000000   -5,952995270e-03   -1,064485312e-01   -7,861349583e-01    7,364927232e-02    0,000000000e+00    0,000000000e+00    0,000000000e+00    0,000000000e+00
      170000000   -5,763117597e-02   -9,061332047e-02   -6,278664470e-01    4,870249033e-01    0,000000000e+00    0,000000000e+00    0,000000000e+00    0,000000000e+00
      184000000   -8,366949856e-02   -4,945715517e-02   -2,649157941e-01    7,509937286e-01    0,000000000e+00    0,000000000e+00    0,000000000e+00    0,000000000e+00
      198000000   -7,964384556e-02   -1,049108990e-02    1,833556890e-01    7,728618979e-01    0,000000000e+00    0,000000000e+00    0,000000000e+00    0,000000000e+00
      212000000   -6,228376925e-02    1,315644756e-02    5,690150857e-01    5,492384434e-01    0,000000000e+00    0,000000000e+00    0,000000000e+00    0,000000000e+00
      226000000   -4,328597710e-02    2,763409354e-02    7,707630396e-01    1,546053588e-01    0,000000000e+00    0,000000000e+00    0,000000000e+00    0,000000000e+00
      240000000   -1,821850426e-02    3,847970068e-02    7,268288136e-01   -2,819030583e-01    0,000000000e+00    0,000000000e+00    0,000000000e+00    0,000000000e+00
      254000000    1,718574390e-02    3,517814353e-02    4,580714107e-01   -6,202329397e-01    0,000000000e+00    0,000000000e+00    0,000000000e+00    0,000000000e+00
      268000000    4,876398295e-02    5,617205519e-03    5,891802907e-02   -7,604014277e-01    0,000000000e+00    0,000000000e+00    0,000000000e+00    0,000000000e+00
      282000000    5,351815000e-02   -4,173769429e-02   -3,493097723e-01   -6,718356609e-01    0,000000000e+00    0,000000000e+00    0,000000000e+00    0,000000000e+00
      296000000    2,407826670e-02   -7,965296507e-02   -6,519736052e-01   -3,859843314e-01    0,000000000e+00    0,000000000e+00    0,000000000e+00    0,000000000e+00
      310000000   -1,795900054e-02   -8,310286701e-02   -7,633966208e-01    1,926343143e-02    0,000000000e+00    0,000000000e+00    0,000000000e+00    0,000000000e+00
      324000000   -4,182758927e-02   -5,880008265e-02   -6,321135759e-01    4,309601188e-01    0,000000000e+00    0,000000000e+00    0,000000000e+00    0,000000000e+00
      338000000   -3,450908139e-02   -3,666416556e-02   -2,974826396e-01    6,998866200e-01    0,000000000e+00    0,000000000e+00    0,000000000e+00    0,000000000e+00
      352000000   -1,714552194e-02   -4,092754051e-02    1,266438514e-01    7,420341372e-01    0,000000000e+00    0,000000000e+00    0,000000000e+00    0,000000000e+00
      366000000   -1,912420988e-02   -6,195574999e-02    4,975985587e-01    5,546755791e-01    0,000000000e+00    0,000000000e+00    0,000000000e+00    0,000000000e+00
      380000000   -4,433025047e-02   -7,261968404e-02    7,129924297e-01    2,001923472e-01    0,000000000e+00    0,000000000e+00    0,000000000e+00    0,000000000e+00
      394000000   -7,070309669e-02   -5,828655511e-02    7,041658759e-01   -2,162919492e-01    0,000000000e+00    0,000000000e+00    0,000000000e+00    0,000000000e+00
      408000000   -7,675064355e-02   -3,044618852e-02    4,716288149e-01   -5,597440600e-01    0,000000000e+00    0,000000000e+00    0,000000000e+00    0,000000000e+00
      422000000   -6,522199512e-02   -1,102213748e-02    9,340295941e-02   -7,174516916e-01    0,000000000e+00    0,000000000e+00    0,000000000e+00    0,000000000e+00
      436000000   -5,278611556e-02   -4,496520385e-03   -3,013687134e-01   -6,473783255e-01    0,000000000e+00    0,000000000e+00    0,000000000e+00    0,000000000e+00
      450000000   -4,462046176e-02    1,586343162e-03   -5,938680172e-01   -3,786827922e-01    0,000000000e+00    0,000000000e+00    0,000000000e+00    0,000000000e+00
      464000000   -2,940617315e-02    1,121267118e-02   -6,912568808e-01   -1,229197806e-04    0,000000000e+00    0,000000000e+00    0,000000000e+00    0,000000000e+00
      478000000   -1,370231039e-03    1,121673174e-02   -5,736520886e-01    3,632198870e-01    0,000000000e+00    0,000000000e+00    0,000000000e+00    0,000000000e+00
      492000000    2,775058523e-02   -1,203520130e-02   -2,895520926e-01    6,016929150e-01    0,000000000e+00    0,000000000e+00    0,000000000e+00    0,000000000e+00
      506000000    3,685550019e-02   -5,601819605e-02    6,998908520e-02    6,588432193e-01    0,000000000e+00    0,000000000e+00    0,000000000e+00    0,000000000e+00
      520000000    1,191506162e-02   -9,848325700e-02    4,036101699e-01    5,245099068e-01    0,000000000e+00    0,000000000e+00    0,000000000e+00    0,000000000e+00
      534000000   -3,438518196e-02   -1,162339821e-01    6,237290502e-01    2,365082353e-01    0,000000000e+00    0,000000000e+00    0,000000000e+00    0,000000000e+00
      548000000   -7,735300064e-02   -9,893435240e-02    6,581267715e-01   -1,331541985e-01    0,000000000e+00    0,000000000e+00    0,000000000e+00    0,000000000e+00
      562000000   -9,308068454e-02   -6,609702110e-02    4,818506241e-01   -4,667507708e-01    0,000000000e+00    0,000000000e+00    0,000000000e+00    0,000000000e+00
      576000000   -8,593459427e-02   -4,441999644e-02    1,509813219e-01   -6,478419304e-01    0,000000000e+00    0,000000000e+00    0,000000000e+00    0,000000000e+00
      590000000   -8,092260361e-02   -4,170954600e-02   -2,196068317e-01   -6,290113926e-01    0,000000000e+00    0,000000000e+00    0,000000000e+00    0,000000000e+00
      604000000   -8,867857605e-02   -3,712384403e-02   -5,191200972e-01   -4,063680470e-01    0,000000000e+00    0,000000000e+00    0,000000000e+00    0,000000000e+00
      618000000   -9,636498243e-02   -1,551802643e-02   -6,529371738e-01   -5,869309604e-02    0,000000000e+00    0,000000000e+00    0,000000000e+00    0,000000000e+00
      632000000   -8,147938550e-02    1,500697620e-02   -5,756041408e-01    3,027346432e-01    0,000000000e+00    0,000000000e+00    0,000000000e+00    0,000000000e+00
      646000000   -4,254874960e-02    2,655681781e-02   -3,197303414e-01    5,560560822e-01    0,000000000e+00    0,000000000e+00    0,000000000e+00    0,000000000e+00
      660000000   -8,145670407e-03    5,468993913e-03    2,153872140e-02    6,292949915e-01    0,000000000e+00    0,000000000e+00    0,000000000e+00    0,000000000e+00
      674000000    7,882898208e-04   -3,059650213e-02    3,420904875e-01    5,186095834e-01    0,000000000e+00    0,000000000e+00    0,000000000e+00    0,000000000e+00
      688000000   -1,467437670e-02   -5,609087646e-02    5,589905381e-01    2,590757906e-01    0,000000000e+00    0,000000000e+00    0,000000000e+00    0,000000000e+00
      702000000   -3,393484280e-02   -5,984591320e-02    6,047280431e-01   -8,015549183e-02    0,000000000e+00    0,000000000e+00    0,000000000e+00    0,000000000e+00
      716000000   -3,733299300e-02   -5,613537505e-02    4,591782987e-01   -3,896911144e-01    0,000000000e+00    0,000000000e+00    0,000000000e+00    0,000000000e+00
      730000000   -3,181030601e-02   -6,521105021e-02    1,744890511e-01   -5,655928254e-01    0,000000000e+00    0,000000000e+00    0,000000000e+00    0,000000000e+00
      744000000   -3,964758664e-02   -8,823508024e-02   -1,529960036e-01   -5,639616847e-01    0,000000000e+00    0,000000000e+00    0,000000000e+00    0,000000000e+00
      758000000   -7,259278744e-02   -1,052765995e-01   -4,271825552e-01   -3,946892917e-01    0,000000000e+00    0,000000000e+00    0,000000000e+00    0,000000000e+00
      772000000   -1,141957492e-01   -9,355886281e-02   -5,744819641e-01   -1,058673263e-01    0,000000000e+00    0,000000000e+00    0,000000000e+00    0,000000000e+00
      786000000   -1,392771006e-01   -5,621409416e-02   -5,446112752e-01    2,206836343e-01    0,000000000e+00    0,000000000e+00    0,000000000e+00    0,000000000e+00
      800000000   -1,328378171e-01   -1,431349386e-02   -3,416545391e-01    4,797334969e-01    0,000000000e+00    0,000000000e+00    0,000000000e+00    0,000000000e+00
      814000000   -1,080681384e-01    8,322186768e-03   -3,359815106e-02    5,866256952e-01    0,000000000e+00    0,000000000e+00    0,000000000e+00    0,000000000e+00
      828000000   -8,522909135e-02    1,406863518e-02    2,792922556e-01    5,141240954e-01    0,000000000e+00    0,000000000e+00    0,000000000e+00    0,000000000e+00
      842000000   -7,072836906e-02    1,498407591e-02    5,023908019e-01    2,900542319e-01    0,000000000e+00    0,000000000e+00    0,000000000e+00    0,000000000e+00
      856000000   -5,162840709e-02    1,956777833e-02    5,704195499e-01   -1,774959639e-02    0,000000000e+00    0,000000000e+00    0,000000000e+00    0,000000000e+00
      870000000   -2,250758559e-02    1,466253866e-02    4,640506506e-01   -3,063588440e-01    0,000000000e+00    0,000000000e+00    0,000000000e+00    0,000000000e+00
      884000000    6,584462710e-03   -1,436427981e-02    2,297265530e-01   -4,878879786e-01    0,000000000e+00    0,000000000e+00    0,000000000e+00    0,000000000e+00
      898000000    1,177872904e-02   -6,368930638e-02   -5,253762379e-02   -5,280703306e-01    0,000000000e+00    0,000000000e+00    0,000000000e+00    0,000000000e+00
      912000000   -2,411088534e-02   -1,079270616e-01   -3,551992476e-01   -3,946027756e-01    0,000000000e+00    0,000000000e+00    0,000000000e+00    0,000000000e+00
      926000000   -7,404069602e-02   -1,247103959e-01   -5,302912593e-01   -1,585267484e-01    0,000000000e+00    0,000000000e+00    0,000000000e+00    0,000000000e+00
      940000000   -1,212047115e-01   -1,011050567e-01   -5,517001748e-01    1,573260427e-01    0,000000000e+00    0,000000000e+00    0,000000000e+00    0,000000000e+00
      954000000   -1,427999735e-01   -5,734373629e-02   -3,908539414e-01    4,452947974e-01    0,000000000e+00    0,000000000e+00    0,000000000e+00    0,000000000e+00
      968000000   -1,310119629e-01   -3,080381267e-02   -9,128400683e-02    6,025937796e-01    0,000000000e+00    0,000000000e+00    0,000000000e+00    0,000000000e+00
      982000000   -1,170051247e-01   -1,372606028e-02    2,430153340e-01    5,739080906e-01    0,000000000e+00    0,000000000e+00    0,000000000e+00    0,000000000e+00
      996000000   -1,046473086e-01   -1,454212982e-02    5,122813582e-01    3,656858504e-01    0,000000000e+00    0,000000000e+00    0,000000000e+00    0,000000000e+00
     1010000000   -1,011722982e-01   -5,784808658e-03    6,301469803e-01    5,203155056e-02    0,000000000e+00    0,000000000e+00    0,000000000e+00    0,000000000e+00
     1024000000   -9,516159445e-02    1,087676967e-03    5,594412088e-01   -2,715530694e-01    0,000000000e+00    0,000000000e+00    0,000000000e+00    0,000000000e+00
     1038000000   -7,628015429e-02   -3,931361251e-03    3,367963135e-01   -5,022302270e-01    0,000000000e+00    0,000000000e+00    0,000000000e+00    0,000000000e+00
     1052000000   -6,379850954e-02   -1,836219430e-02    3,323872760e-02   -5,834538341e-01    0,000000000e+00    0,000000000e+00    0,000000000e+00    0,000000000e+00
     1066000000   -7,251200080e-02   -3,372057527e-02   -2,703476250e-01   -4,995815456e-01    0,000000000e+00    0,000000000e+00    0,000000000e+00    0,000000000e+00
     1080000000   -8,231922984e-02   -2,724381350e-02   -4,808425605e-01   -2,703241706e-01    0,000000000e+00    0,000000000e+00    0,000000000e+00    0,000000000e+00
     1094000000   -8,348038793e-02   -1,385872532e-02   -5,341868401e-01    4,205034301e-02    0,000000000e+00    0,000000000e+00    0,000000000e+00    0,000000000e+00
     1108000000   -6,046126410e-02   -1,423907373e-02   -3,995194137e-01    3,255100548e-01    0,000000000e+00    0,000000000e+00    0,000000000e+00    0,000000000e+00
     1122000000   -3,303220496e-02   -3,253335878e-02   -1,360768825e-01    4,820052981e-01    0,000000000e+00    0,000000000e+00    0,000000000e+00    0,000000000e+00
     1136000000   -2,673251741e-02   -8,320772648e-02    1,628413051e-01    4,711820483e-01    0,000000000e+00    0,000000000e+00    0,000000000e+00    0,000000000e+00
     1150000000   -6,341942400e-02   -1,368367076e-01    4,163242579e-01    3,092446327e-01    0,000000000e+00    0,000000000e+00    0,000000000e+00    0,000000000e+00
     1164000000   -1,411082745e-01   -1,528760344e-01    5,623703599e-01    2,576846816e-02    0,000000000e+00    0,000000000e+00    0,000000000e+00    0,000000000e+00
     1178000000   -2,081507295e-01   -1,219155788e-01    5,316674709e-01   -3,186548650e-01    0,000000000e+00    0,000000000e+00    0,000000000e+00    0,000000000e+00
     1192000000   -2,436568886e-01   -4,257737100e-02    2,960221171e-01   -5,954088569e-01    0,000000000e+00    0,000000000e+00    0,000000000e+00    0,000000000e+00
     1206000000   -2,331488281e-01    3,543810546e-02   -6,901585311e-02   -6,999229193e-01    0,000000000e+00    0,000000000e+00    0,000000000e+00    0,000000000e+00
     1220000000   -1,841960996e-01    8,035176992e-02   -4,229770005e-01   -5,780751705e-01    0,000000000e+00    0,000000000e+00    0,000000000e+00    0,000000000e+00
     1234000000   -1,268419325e-01    1,060315669e-01   -6,423197985e-01   -2,892678082e-01    0,000000000e+00    0,000000000e+00    0,000000000e+00    0,000000000e+00
     1248000000   -6,573963165e-02    1,021885201e-01   -6,748414636e-01    6,297127903e-02    0,000000000e+00    0,000000000e+00    0,000000000e+00    0,000000000e+00
     1262000000   -9,010707960e-03    5,969670415e-02   -5,201214552e-01    3,700039387e-01    0,000000000e+00    0,000000000e+00    0,000000000e+00    0,000000000e+00
     1276000000    2,659419179e-02   -1,647419645e-03   -2,373476475e-01    5,509248376e-01    0,000000000e+00    0,000000000e+00    0,000000000e+00    0,000000000e+00
     1290000000    2,284327336e-02   -8,666119725e-02    7,436338812e-02    5,746511221e-01    0,000000000e+00    0,000000000e+00    0,000000000e+00    0,000000000e+00
     1304000000   -3,632646054e-02   -1,681330502e-01    3,686020076e-01    4,702045619e-01    0,000000000e+00    0,000000000e+00    0,000000000e+00    0,000000000e+00
     1318000000   -1,377172768e-01   -2,148358375e-01    5,854478478e-01    2,178692818e-01    0,000000000e+00    0,000000000e+00    0,000000000e+00    0,000000000e+00
     1332000000   -2,526527345e-01   -1,858356744e-01    6,580974460e-01   -1,214604676e-01    0,000000000e+00    0,000000000e+00    0,000000000e+00    0,000000000e+00
     1346000000   -3,342322111e-01   -8,989552408e-02    5,050584674e-01   -4,593905210e-01    0,000000000e+00    0,000000000e+00    0,000000000e+00    0,000000000e+00
     1360000000   -3,306315243e-01    2,338099293e-02    1,932658553e-01   -6,475894451e-01    0,000000000e+00    0,000000000e+00    0,000000000e+00    0,000000000e+00
     1374000000   -2,800036669e-01    1,022831425e-01   -1,559447199e-01   -6,049647331e-01    0,000000000e+00    0,000000000e+00    0,000000000e+00    0,000000000e+00
     1388000000   -2,132204622e-01    1,374576837e-01   -4,028413296e-01   -3,750862181e-01    0,000000000e+00    0,000000000e+00    0,000000000e+00    0,000000000e+00
     1402000000   -1,446915865e-01    1,410723329e-01   -4,759555161e-01   -5,586182699e-02    0,000000000e+00    0,000000000e+00    0,000000000e+00    0,000000000e+00
     1416000000   -9,907680750e-02    1,225328818e-01   -3,818807602e-01    2,444627136e-01    0,000000000e+00    0,000000000e+00    0,000000000e+00    0,000000000e+00
     1430000000   -5,532900617e-02    7,366443425e-02   -1,551334262e-01    4,773282409e-01    0,000000000e+00    0,000000000e+00    0,000000000e+00    0,000000000e+00
     1444000000   -3,796852753e-02   -8,626284543e-04    1,599577069e-01    5,286296606e-01    0,000000000e+00    0,000000000e+00    0,000000000e+00    0,000000000e+00
     1458000000   -5,997918174e-02   -7,643078268e-02    4,933975637e-01    4,750682712e-01    0,000000000e+00    0,000000000e+00    0,000000000e+00    0,000000000e+00
     1472000000   -1,438007951e-01   -1,276367456e-01    7,484189272e-01    2,577016950e-01    0,000000000e+00    0,000000000e+00    0,000000000e+00    0,000000000e+00
     1486000000   -2,266497910e-01   -1,114117578e-01    9,039381146e-01   -7,928149402e-02    0,000000000e+00    0,000000000e+00    0,000000000e+00    0,000000000e+00
     1500000000   -2,859858274e-01   -4,327183217e-02    8,191597462e-01   -4,442704618e-01    0,000000000e+00    0,000000000e+00    0,000000000e+00    0,000000000e+00
