! NanoVNA-App
! Date: 2025-09-25 15:08:00
! Start: 100MHz Stop: 1,5GHz Points: 101
! S-Parameter data: F S11 S21 S12 S22
# Hz S RI R 50
!     Frequency           S11_Real           S11_Imag           S21_Real           S21_Imag           S12_Real           S12_Imag           S22_Real           S22_Imag
      100000000    3,122045286e-02    2,863477357e-02    4,347808361e-01   -6,685419083e-01    0,000000000e+00    0,000000000e+00    0,000000000e+00    0,000000000e+00
      114000000    5,764137581e-02    5,477111321e-03    7,709011436e-03   -7,908676267e-01    0,000000000e+00    0,000000000e+00    0,000000000e+00    0,000000000e+00
      128000000    6,735437363e-02   -3,786311671e-02   -4,102711380e-01   -6,709690690e-01    0,000000000e+00    0,000000000e+00    0,000000000e+00    0,000000000e+00
      142000000    4,477364197e-02   -8,421840519e-02   -7,031730413e-01   -3,534629941e-01    0,000000000e+00    0,000000000e+00    0,000000000e+00    0,000000000e+00
      156000000   -5,647523794e-03   -1,063007489e-01   -7,865451574e-01    7,280246168e-02    0,000000000e+00    0,000000000e+00    0,000000000e+00    0,000000000e+00
      170000000   -5,759592727e-02   -9,065762907e-02   -6,274302006e-01    4,869857728e-01    0,000000000e+00    0,000000000e+00    0,000000000e+00    0,000000000e+00
      184000000   -8,361995965e-02   -4,946085438e-02   -2,651266754e-01    7,510967851e-01    0,000000000e+00    0,000000000e+00    0,000000000e+00    0,000000000e+00
      198000000   -7,956632227e-02   -1,049409527e-02    1,834161580e-01    7,732223272e-01    0,000000000e+00    0,000000000e+00    0,000000000e+00    0,000000000e+00
      212000000   -6,217246875e-02    1,313809771e-02    5,691726208e-01    5,489290357e-01    0,000000000e+00    0,000000000e+00    0,000000000e+00    0,000000000e+00
      226000000   -4,324398190e-02    2,762653865e-02    7,706845999e-01    1,544855833e-01    0,000000000e+00    0,000000000e+00    0,000000000e+00    0,000000000e+00
      240000000   -1,816121303e-02    3,845923766e-02    7,267757654e-01   -2,818404138e-01    0,000000000e+00    0,000000000e+00    0,000000000e+00    0,000000000e+00
      254000000    1,723469049e-02    3,518890589e-02    4,578909278e-01   -6,201674938e-01    0,000000000e+00    0,000000000e+00    0,000000000e+00    0,000000000e+00
      268000000    4,885181412e-02    5,531016737e-03    5,840672553e-02   -7,601906061e-01    0,000000000e+00    0,000000000e+00    0,000000000e+00    0,000000000e+00
      282000000    5,347027257e-02   -4,182420671e-02   -3,490903080e-01   -6,715527773e-01    0,000000000e+00    0,000000000e+00    0,000000000e+00    0,000000000e+00
      296000000    2,398565970e-02   -7,952760160e-02   -6,520776153e-01   -3,855246902e-01    0,000000000e+00    0,000000000e+00    0,000000000e+00    0,000000000e+00
      310000000   -1,774710231e-02   -8,321307600e-02   -7,629233599e-01    1,925157756e-02    0,000000000e+00    0,000000000e+00    0,000000000e+00    0,000000000e+00
      324000000   -4,138003290e-02   -5,907019973e-02   -6,311119199e-01    4,309906662e-01    0,000000000e+00    0,000000000e+00    0,000000000e+00    0,000000000e+00
      338000000   -3,445276618e-02   -3,676149994e-02   -2,952244878e-01    6,982494593e-01    0,000000000e+00    0,000000000e+00    0,000000000e+00    0,000000000e+00
      352000000   -1,719550416e-02   -4,086816311e-02    1,254339814e-01    7,422735095e-01    0,000000000e+00    0,000000000e+00    0,000000000e+00    0,000000000e+00
      366000000   -1,936470717e-02   -6,192630157e-02    4,980354905e-01    5,545358062e-01    0,000000000e+00    0,000000000e+00    0,000000000e+00    0,000000000e+00
      380000000   -4,452656955e-02   -7,280010730e-02    7,132177353e-01    1,997030824e-01    0,000000000e+00    0,000000000e+00    0,000000000e+00    0,000000000e+00
      394000000   -7,080372423e-02   -5,810939521e-02    7,042728662e-01   -2,173879743e-01    0,000000000e+00    0,000000000e+00    0,000000000e+00    0,000000000e+00
      408000000   -7,679280639e-02   -3,052304313e-02    4,709486365e-01   -5,612907410e-01    0,000000000e+00    0,000000000e+00    0,000000000e+00    0,000000000e+00
      422000000   -6,538886577e-02   -1,113151014e-02    9,324232489e-02   -7,174686790e-01    0,000000000e+00    0,000000000e+00    0,000000000e+00    0,000000000e+00
      436000000   -5,280525982e-02   -4,792642314e-03   -3,021501601e-01   -6,475084424e-01    0,000000000e+00    0,000000000e+00    0,000000000e+00    0,000000000e+00
      450000000   -4,472186416e-02    1,676040119e-03   -5,935763717e-01   -3,779107332e-01    0,000000000e+00    0,000000000e+00    0,000000000e+00    0,000000000e+00
      464000000   -2,929533273e-02    1,113523729e-02   -6,912008524e-01   -5,866551510e-05    0,000000000e+00    0,000000000e+00    0,000000000e+00    0,000000000e+00
      478000000   -8,441224927e-04    1,141384803e-02   -5,733484030e-01    3,633560538e-01    0,000000000e+00    0,000000000e+00    0,000000000e+00    0,000000000e+00
      492000000    2,818305977e-02   -1,228757575e-02   -2,894554436e-01    6,016948819e-01    0,000000000e+00    0,000000000e+00    0,000000000e+00    0,000000000e+00
      506000000    3,650464118e-02   -5,553001538e-02    6,894781440e-02    6,593117118e-01    0,000000000e+00    0,000000000e+00    0,000000000e+00    0,000000000e+00
      520000000    1,252989843e-02   -9,854306281e-02    4,023205340e-01    5,226297975e-01    0,000000000e+00    0,000000000e+00    0,000000000e+00    0,000000000e+00
      534000000   -3,442022577e-02   -1,162276790e-01    6,241660714e-01    2,359451503e-01    0,000000000e+00    0,000000000e+00    0,000000000e+00    0,000000000e+00
      548000000   -7,734260708e-02   -9,896396101e-02    6,576849818e-01   -1,331821531e-01    0,000000000e+00    0,000000000e+00    0,000000000e+00    0,000000000e+00
      562000000   -9,334318340e-02   -6,618075073e-02    4,818919599e-01   -4,669857025e-01    0,000000000e+00    0,000000000e+00    0,000000000e+00    0,000000000e+00
      576000000   -8,578499407e-02   -4,430847615e-02    1,510038376e-01   -6,486415863e-01    0,000000000e+00    0,000000000e+00    0,000000000e+00    0,000000000e+00
      590000000   -8,062173426e-02   -4,174670577e-02   -2,196086943e-01   -6,268643141e-01    0,000000000e+00    0,000000000e+00    0,000000000e+00    0,000000000e+00
      604000000   -8,881846815e-02   -3,707407415e-02   -5,201566815e-01   -4,057134986e-01    0,000000000e+00    0,000000000e+00    0,000000000e+00    0,000000000e+00
      618000000   -9,641873837e-02   -1,552446093e-02   -6,524829268e-01   -5,829501152e-02    0,000000000e+00    0,000000000e+00    0,000000000e+00    0,000000000e+00
      632000000   -8,126461506e-02    1,483004354e-02   -5,755892992e-01    3,024874032e-01    0,000000000e+00    0,000000000e+00    0,000000000e+00    0,000000000e+00
      646000000   -4,250012711e-02    2,604506165e-02   -3,189199269e-01    5,561354160e-01    0,000000000e+00    0,000000000e+00    0,000000000e+00    0,000000000e+00
      660000000   -8,036932908e-03    6,207682658e-03    2,115506865e-02    6,297082305e-01    0,000000000e+00    0,000000000e+00    0,000000000e+00    0,000000000e+00
      674000000    7,476113969e-04   -3,032012098e-02    3,432640135e-01    5,189324617e-01    0,000000000e+00    0,000000000e+00    0,000000000e+00    0,000000000e+00
      688000000   -1,468442939e-02   -5,490230024e-02    5,582980514e-01    2,585313618e-01    0,000000000e+00    0,000000000e+00    0,000000000e+00    0,000000000e+00
      702000000   -3,356039897e-02   -5,913259834e-02    6,053391695e-01   -8,138155937e-02    0,000000000e+00    0,000000000e+00    0,000000000e+00    0,000000000e+00
      716000000   -3,621042147e-02   -5,594497174e-02    4,594026804e-01   -3,899278641e-01    0,000000000e+00    0,000000000e+00    0,000000000e+00    0,000000000e+00
      730000000   -3,191407770e-02   -6,582938880e-02    1,737808883e-01   -5,659598708e-01    0,000000000e+00    0,000000000e+00    0,000000000e+00    0,000000000e+00
      744000000   -3,987149522e-02   -8,899683505e-02   -1,533846408e-01   -5,636734366e-01    0,000000000e+00    0,000000000e+00    0,000000000e+00    0,000000000e+00
      758000000   -7,290834934e-02   -1,053466350e-01   -4,273968935e-01   -3,944597840e-01    0,000000000e+00    0,000000000e+00    0,000000000e+00    0,000000000e+00
      772000000   -1,143845171e-01   -9,325081855e-02   -5,742949843e-01   -1,058397368e-01    0,000000000e+00    0,000000000e+00    0,000000000e+00    0,000000000e+00
      786000000   -1,391509175e-01   -5,592292547e-02   -5,443660021e-01    2,212399989e-01    0,000000000e+00    0,000000000e+00    0,000000000e+00    0,000000000e+00
      800000000   -1,322748810e-01   -1,421492081e-02   -3,411265612e-01    4,797372222e-01    0,000000000e+00    0,000000000e+00    0,000000000e+00    0,000000000e+00
      814000000   -1,078610793e-01    9,129387327e-03   -3,417776898e-02    5,859369636e-01    0,000000000e+00    0,000000000e+00    0,000000000e+00    0,000000000e+00
      828000000   -8,510636538e-02    1,310209930e-02    2,793546021e-01    5,144591928e-01    0,000000000e+00    0,000000000e+00    0,000000000e+00    0,000000000e+00
      842000000   -7,088705152e-02    1,457239687e-02    5,026533604e-01    2,899607420e-01    0,000000000e+00    0,000000000e+00    0,000000000e+00    0,000000000e+00
      856000000   -5,267062411e-02    1,865808666e-02    5,707218051e-01   -1,810932718e-02    0,000000000e+00    0,000000000e+00    0,000000000e+00    0,000000000e+00
      870000000   -2,320975624e-02    1,473567635e-02    4,634890258e-01   -3,065648377e-01    0,000000000e+00    0,000000000e+00    0,000000000e+00    0,000000000e+00
      884000000    5,350963678e-03   -1,463175658e-02    2,287644744e-01   -4,880931973e-01    0,000000000e+00    0,000000000e+00    0,000000000e+00    0,000000000e+00
      898000000    1,184457913e-02   -6,311738491e-02   -5,144350976e-02   -5,258845687e-01    0,000000000e+00    0,000000000e+00    0,000000000e+00    0,000000000e+00
      912000000   -2,342542075e-02   -1,079337746e-01   -3,541500866e-01   -3,951216936e-01    0,000000000e+00    0,000000000e+00    0,000000000e+00    0,000000000e+00
      926000000   -7,752285898e-02   -1,230235398e-01   -5,318329334e-01   -1,569763124e-01    0,000000000e+00    0,000000000e+00    0,000000000e+00    0,000000000e+00
      940000000   -1,243609712e-01   -1,031182259e-01   -5,531541705e-01    1,552552283e-01    0,000000000e+00    0,000000000e+00    0,000000000e+00    0,000000000e+00
      954000000   -1,416732669e-01   -6,380201876e-02   -3,936052620e-01    4,453390241e-01    0,000000000e+00    0,000000000e+00    0,000000000e+00    0,000000000e+00
      968000000   -1,292931139e-01   -2,809456177e-02   -9,007705748e-02    6,035768986e-01    0,000000000e+00    0,000000000e+00    0,000000000e+00    0,000000000e+00
      982000000   -1,120089591e-01   -1,550788525e-02    2,466123849e-01    5,703385472e-01    0,000000000e+00    0,000000000e+00    0,000000000e+00    0,000000000e+00
      996000000   -1,069175377e-01   -1,102912892e-02    5,141541958e-01    3,676627576e-01    0,000000000e+00    0,000000000e+00    0,000000000e+00    0,000000000e+00
     1010000000   -1,049238965e-01   -7,450192235e-03    6,296641231e-01    5,170729384e-02    0,000000000e+00    0,000000000e+00    0,000000000e+00    0,000000000e+00
     1024000000   -9,056714177e-02    2,241678536e-03    5,616527200e-01   -2,716962695e-01    0,000000000e+00    0,000000000e+00    0,000000000e+00    0,000000000e+00
     1038000000   -7,480946928e-02    3,782364540e-03    3,385051787e-01   -5,035555959e-01    0,000000000e+00    0,000000000e+00    0,000000000e+00    0,000000000e+00
     1052000000   -6,734961271e-02   -1,403410453e-02    3,225003928e-02   -5,868136883e-01    0,000000000e+00    0,000000000e+00    0,000000000e+00    0,000000000e+00
     1066000000   -7,147716731e-02   -3,312611207e-02   -2,631756663e-01   -5,062771440e-01    0,000000000e+00    0,000000000e+00    0,000000000e+00    0,000000000e+00
     1080000000   -8,470225334e-02   -3,018589132e-02   -4,796070755e-01   -2,704730034e-01    0,000000000e+00    0,000000000e+00    0,000000000e+00    0,000000000e+00
     1094000000   -8,259606361e-02   -1,926700212e-02   -5,328577161e-01    4,142351821e-02    0,000000000e+00    0,000000000e+00    0,000000000e+00    0,000000000e+00
     1108000000   -5,894498900e-02   -9,492964484e-03   -4,009581208e-01    3,263055980e-01    0,000000000e+00    0,000000000e+00    0,000000000e+00    0,000000000e+00
     1122000000   -3,544455767e-02   -3,475675359e-02   -1,379826814e-01    4,809023738e-01    0,000000000e+00    0,000000000e+00    0,000000000e+00    0,000000000e+00
     1136000000   -2,838403918e-02   -8,135239780e-02    1,658996642e-01    4,719289839e-01    0,000000000e+00    0,000000000e+00    0,000000000e+00    0,000000000e+00
     1150000000   -6,390640140e-02   -1,386674643e-01    4,206665158e-01    3,117313087e-01    0,000000000e+00    0,000000000e+00    0,000000000e+00    0,000000000e+00
     1164000000   -1,347752959e-01   -1,531121433e-01    5,652597547e-01    2,747137658e-02    0,000000000e+00    0,000000000e+00    0,000000000e+00    0,000000000e+00
     1178000000   -2,093127370e-01   -1,215830669e-01    5,332727432e-01   -3,145805001e-01    0,000000000e+00    0,000000000e+00    0,000000000e+00    0,000000000e+00
     1192000000   -2,492165416e-01   -4,061481357e-02    2,974905968e-01   -5,974754691e-01    0,000000000e+00    0,000000000e+00    0,000000000e+00    0,000000000e+00
     1206000000   -2,304684669e-01    3,473503143e-02   -7,125817984e-02   -6,949551702e-01    0,000000000e+00    0,000000000e+00    0,000000000e+00    0,000000000e+00
     1220000000   -1,808622181e-01    8,412143588e-02   -4,161235094e-01   -5,825046301e-01    0,000000000e+00    0,000000000e+00    0,000000000e+00    0,000000000e+00
     1234000000   -1,298704147e-01    9,976454079e-02   -6,512547731e-01   -2,963992059e-01    0,000000000e+00    0,000000000e+00    0,000000000e+00    0,000000000e+00
     1248000000   -6,563986838e-02    9,556067735e-02   -6,754090786e-01    5,842045322e-02    0,000000000e+00    0,000000000e+00    0,000000000e+00    0,000000000e+00
     1262000000   -1,844071969e-02    5,986364558e-02   -5,223270059e-01    3,687843978e-01    0,000000000e+00    0,000000000e+00    0,000000000e+00    0,000000000e+00
     1276000000    2,434668504e-02    1,129557728e-03   -2,423959821e-01    5,486185551e-01    0,000000000e+00    0,000000000e+00    0,000000000e+00    0,000000000e+00
     1290000000    2,300479822e-02   -9,081078321e-02    7,395126671e-02    5,743293762e-01    0,000000000e+00    0,000000000e+00    0,000000000e+00    0,000000000e+00
     1304000000   -2,908064052e-02   -1,707886755e-01    3,685105741e-01    4,659239650e-01    0,000000000e+00    0,000000000e+00    0,000000000e+00    0,000000000e+00
     1318000000   -1,338448226e-01   -2,197083831e-01    5,831030011e-01    2,208913267e-01    0,000000000e+00    0,000000000e+00    0,000000000e+00    0,000000000e+00
     1332000000   -2,542350888e-01   -1,869700551e-01    6,541582346e-01   -1,257292777e-01    0,000000000e+00    0,000000000e+00    0,000000000e+00    0,000000000e+00
     1346000000   -3,266837597e-01   -8,787961304e-02    5,158537030e-01   -4,633997083e-01    0,000000000e+00    0,000000000e+00    0,000000000e+00    0,000000000e+00
     1360000000   -3,332215548e-01    2,279570885e-02    1,944117248e-01   -6,428064704e-01    0,000000000e+00    0,000000000e+00    0,000000000e+00    0,000000000e+00
     1374000000   -2,832532823e-01    1,023583636e-01   -1,593316495e-01   -6,025020480e-01    0,000000000e+00    0,000000000e+00    0,000000000e+00    0,000000000e+00
     1388000000   -2,144782394e-01    1,403381377e-01   -4,098511040e-01   -3,753795028e-01    0,000000000e+00    0,000000000e+00    0,000000000e+00    0,000000000e+00
     1402000000   -1,488067359e-01    1,413847208e-01   -4,943755269e-01   -5,801502988e-02    0,000000000e+00    0,000000000e+00    0,000000000e+00    0,000000000e+00
     1416000000   -9,069690108e-02    1,185624599e-01   -3,798576295e-01    2,422135770e-01    0,000000000e+00    0,000000000e+00    0,000000000e+00    0,000000000e+00
     1430000000   -5,551343039e-02    7,311163843e-02   -1,617364436e-01    4,641849697e-01    0,000000000e+00    0,000000000e+00    0,000000000e+00    0,000000000e+00
     1444000000   -3,379582986e-02    2,527268371e-03    1,726875454e-01    5,330116749e-01    0,000000000e+00    0,000000000e+00    0,000000000e+00    0,000000000e+00
     1458000000   -6,221775338e-02   -7,390494645e-02    4,813710749e-01    4,738059938e-01    0,000000000e+00    0,000000000e+00    0,000000000e+00    0,000000000e+00
     1472000000   -1,317027211e-01   -1,246033460e-01    7,683776021e-01    2,560330331e-01    0,000000000e+00    0,000000000e+00    0,000000000e+00    0,000000000e+00
     1486000000   -2,271927297e-01   -1,182769015e-01    8,895788789e-01   -1,015536264e-01    0,000000000e+00    0,000000000e+00    0,000000000e+00    0,000000000e+00
     1500000000   -2,937269211e-01   -4,761153460e-02    7,962120175e-01   -4,666596353e-01    0,000000000e+00    0,000000000e+00    0,000000000e+00    0,000000000e+00
