! NanoVNA-App
! Date: 2025-09-25 15:08:30
! Start: 100MHz Stop: 1,5GHz Points: 101
! S-Parameter data: F S11 S21 S12 S22
# Hz S RI R 50
!     Frequency           S11_Real           S11_Imag           S21_Real           S21_Imag           S12_Real           S12_Imag           S22_Real           S22_Imag
      100000000    3,113758750e-02    2,865550481e-02    4,348580241e-01   -6,686744094e-01    0,000000000e+00    0,000000000e+00    0,000000000e+00    0,000000000e+00
      114000000    5,757167935e-02    5,502676126e-03    7,749206852e-03   -7,910215259e-01    0,000000000e+00    0,000000000e+00    0,000000000e+00    0,000000000e+00
      128000000    6,728308648e-02   -3,780476376e-02   -4,102703035e-01   -6,709702611e-01    0,000000000e+00    0,000000000e+00    0,000000000e+00    0,000000000e+00
      142000000    4,472136125e-02   -8,420942724e-02   -7,029076815e-01   -3,532169163e-01    0,000000000e+00    0,000000000e+00    0,000000000e+00    0,000000000e+00
      156000000   -5,588679109e-03   -1,069252267e-01   -7,872338295e-01    7,417076826e-02    0,000000000e+00    0,000000000e+00    0,000000000e+00    0,000000000e+00
      170000000   -5,768779293e-02   -9,068614244e-02   -6,278580427e-01    4,871531129e-01    0,000000000e+00    0,000000000e+00    0,000000000e+00    0,000000000e+00
      184000000   -8,369587362e-02   -4,949763045e-02   -2,648542523e-01    7,508997321e-01    0,000000000e+00    0,000000000e+00    0,000000000e+00    0,000000000e+00
      198000000   -7,962629199e-02   -1,046036184e-02    1,833693385e-01    7,728350163e-01    0,000000000e+00    0,000000000e+00    0,000000000e+00    0,000000000e+00
      212000000   -6,231155992e-02    1,317793969e-02    5,691186190e-01    5,490514636e-01    0,000000000e+00    0,000000000e+00    0,000000000e+00    0,000000000e+00
      226000000   -4,325018451e-02    2,766500413e-02    7,707030177e-01    1,544773430e-01    0,000000000e+00    0,000000000e+00    0,000000000e+00    0,000000000e+00
      240000000   -1,822460815e-02    3,850020468e-02    7,268465161e-01   -2,817792594e-01    0,000000000e+00    0,000000000e+00    0,000000000e+00    0,000000000e+00
      254000000    1,718563028e-02    3,517750651e-02    4,581428766e-01   -6,202092767e-01    0,000000000e+00    0,000000000e+00    0,000000000e+00    0,000000000e+00
      268000000    4,878662154e-02    5,630872678e-03    5,852007493e-02   -7,604369521e-01    0,000000000e+00    0,000000000e+00    0,000000000e+00    0,000000000e+00
      282000000    5,352180079e-02   -4,181307927e-02   -3,491785824e-01   -6,717411876e-01    0,000000000e+00    0,000000000e+00    0,000000000e+00    0,000000000e+00
      296000000    2,388819307e-02   -7,958029956e-02   -6,516429782e-01   -3,853648305e-01    0,000000000e+00    0,000000000e+00    0,000000000e+00    0,000000000e+00
      310000000   -1,798219234e-02   -8,301004022e-02   -7,641996145e-01    2,018474601e-02    0,000000000e+00    0,000000000e+00    0,000000000e+00    0,000000000e+00
      324000000   -4,146182537e-02   -5,902490765e-02   -6,320506930e-01    4,315135479e-01    0,000000000e+00    0,000000000e+00    0,000000000e+00    0,000000000e+00
      338000000   -3,422780707e-02   -3,665645048e-02   -2,941933870e-01    7,000334263e-01    0,000000000e+00    0,000000000e+00    0,000000000e+00    0,000000000e+00
      352000000   -1,718835346e-02   -4,082622007e-02    1,266242862e-01    7,416836023e-01    0,000000000e+00    0,000000000e+00    0,000000000e+00    0,000000000e+00
      366000000   -1,928583160e-02   -6,180313602e-02    4,981742799e-01    5,548155308e-01    0,000000000e+00    0,000000000e+00    0,000000000e+00    0,000000000e+00
      380000000   -4,446683824e-02   -7,259566337e-02    7,133448720e-01    2,004296184e-01    0,000000000e+00    0,000000000e+00    0,000000000e+00    0,000000000e+00
      394000000   -7,063194364e-02   -5,823111162e-02    7,046760917e-01   -2,166927606e-01    0,000000000e+00    0,000000000e+00    0,000000000e+00    0,000000000e+00
      408000000   -7,691818476e-02   -3,022411838e-02    4,702229798e-01   -5,590450764e-01    0,000000000e+00    0,000000000e+00    0,000000000e+00    0,000000000e+00
      422000000   -6,553818285e-02   -1,117252093e-02    9,334001690e-02   -7,179744840e-01    0,000000000e+00    0,000000000e+00    0,000000000e+00    0,000000000e+00
      436000000   -5,309636518e-02   -4,633602686e-03   -3,024883866e-01   -6,472034454e-01    0,000000000e+00    0,000000000e+00    0,000000000e+00    0,000000000e+00
      450000000   -4,434974119e-02    1,607328537e-03   -5,927928090e-01   -3,784298897e-01    0,000000000e+00    0,000000000e+00    0,000000000e+00    0,000000000e+00
      464000000   -2,938289754e-02    1,152716763e-02   -6,912366748e-01    9,104497440e-05    0,000000000e+00    0,000000000e+00    0,000000000e+00    0,000000000e+00
      478000000   -1,460399828e-03    1,082881074e-02   -5,730412006e-01    3,632942438e-01    0,000000000e+00    0,000000000e+00    0,000000000e+00    0,000000000e+00
      492000000    2,811722644e-02   -1,268914901e-02   -2,891252637e-01    6,018213034e-01    0,000000000e+00    0,000000000e+00    0,000000000e+00    0,000000000e+00
      506000000    3,675373271e-02   -5,552859604e-02    6,933195144e-02    6,590716839e-01    0,000000000e+00    0,000000000e+00    0,000000000e+00    0,000000000e+00
      520000000    1,306258887e-02   -9,857442975e-02    4,052746892e-01    5,268344879e-01    0,000000000e+00    0,000000000e+00    0,000000000e+00    0,000000000e+00
      534000000   -3,434862942e-02   -1,158216000e-01    6,240562201e-01    2,365850061e-01    0,000000000e+00    0,000000000e+00    0,000000000e+00    0,000000000e+00
      548000000   -7,724887878e-02   -9,945481271e-02    6,583505869e-01   -1,335289627e-01    0,000000000e+00    0,000000000e+00    0,000000000e+00    0,000000000e+00
      562000000   -9,368790686e-02   -6,601954997e-02    4,821678996e-01   -4,664734006e-01    0,000000000e+00    0,000000000e+00    0,000000000e+00    0,000000000e+00
      576000000   -8,603165299e-02   -4,395447299e-02    1,506931633e-01   -6,480989456e-01    0,000000000e+00    0,000000000e+00    0,000000000e+00    0,000000000e+00
      590000000   -8,063542098e-02   -4,163894802e-02   -2,185590118e-01   -6,279599071e-01    0,000000000e+00    0,000000000e+00    0,000000000e+00    0,000000000e+00
      604000000   -8,858215809e-02   -3,708942235e-02   -5,188258886e-01   -4,060617685e-01    0,000000000e+00    0,000000000e+00    0,000000000e+00    0,000000000e+00
      618000000   -9,682107717e-02   -1,479127537e-02   -6,533042789e-01   -5,853249133e-02    0,000000000e+00    0,000000000e+00    0,000000000e+00    0,000000000e+00
      632000000   -8,130687475e-02    1,540709659e-02   -5,758105516e-01    3,030633628e-01    0,000000000e+00    0,000000000e+00    0,000000000e+00    0,000000000e+00
      646000000   -4,223025218e-02    2,649864368e-02   -3,188255429e-01    5,563060641e-01    0,000000000e+00    0,000000000e+00    0,000000000e+00    0,000000000e+00
      660000000   -7,681685966e-03    5,607326049e-03    2,172985673e-02    6,303984523e-01    0,000000000e+00    0,000000000e+00    0,000000000e+00    0,000000000e+00
      674000000    1,249459339e-03   -3,051421233e-02    3,425129354e-01    5,187693238e-01    0,000000000e+00    0,000000000e+00    0,000000000e+00    0,000000000e+00
      688000000   -1,427870430e-02   -5,588768423e-02    5,586071610e-01    2,580427527e-01    0,000000000e+00    0,000000000e+00    0,000000000e+00    0,000000000e+00
      702000000   -3,294084966e-02   -5,962964892e-02    6,040776968e-01   -7,699353248e-02    0,000000000e+00    0,000000000e+00    0,000000000e+00    0,000000000e+00
      716000000   -3,729508445e-02   -5,516020581e-02    4,594047666e-01   -3,894832432e-01    0,000000000e+00    0,000000000e+00    0,000000000e+00    0,000000000e+00
      730000000   -3,265755996e-02   -6,491769105e-02    1,744796485e-01   -5,671915412e-01    0,000000000e+00    0,000000000e+00    0,000000000e+00    0,000000000e+00
      744000000   -4,088995233e-02   -8,814860135e-02   -1,532061100e-01   -5,629847646e-01    0,000000000e+00    0,000000000e+00    0,000000000e+00    0,000000000e+00
      758000000   -7,257418334e-02   -1,057708934e-01   -4,275598526e-01   -3,953275383e-01    0,000000000e+00    0,000000000e+00    0,000000000e+00    0,000000000e+00
      772000000   -1,147009358e-01   -9,277857095e-02   -5,745514631e-01   -1,060691550e-01    0,000000000e+00    0,000000000e+00    0,000000000e+00    0,000000000e+00
      786000000   -1,382906884e-01   -5,566450953e-02   -5,450294614e-01    2,207245827e-01    0,000000000e+00    0,000000000e+00    0,000000000e+00    0,000000000e+00
      800000000   -1,327037960e-01   -1,539599244e-02   -3,426718414e-01    4,805333316e-01    0,000000000e+00    0,000000000e+00    0,000000000e+00    0,000000000e+00
      814000000   -1,083449423e-01    8,534145541e-03   -3,398680314e-02    5,865173936e-01    0,000000000e+00    0,000000000e+00    0,000000000e+00    0,000000000e+00
      828000000   -8,517699689e-02    1,364412624e-02    2,787119746e-01    5,142232776e-01    0,000000000e+00    0,000000000e+00    0,000000000e+00    0,000000000e+00
      842000000   -7,088369131e-02    1,432633027e-02    5,025075674e-01    2,901418209e-01    0,000000000e+00    0,000000000e+00    0,000000000e+00    0,000000000e+00
      856000000   -5,283160135e-02    1,954841800e-02    5,702069998e-01   -1,802391186e-02    0,000000000e+00    0,000000000e+00    0,000000000e+00    0,000000000e+00
      870000000   -2,233952843e-02    1,430374198e-02    4,642395377e-01   -3,061788082e-01    0,000000000e+00    0,000000000e+00    0,000000000e+00    0,000000000e+00
      884000000    5,917933770e-03   -1,400818117e-02    2,301949561e-01   -4,880139530e-01    0,000000000e+00    0,000000000e+00    0,000000000e+00    0,000000000e+00
      898000000    1,224924903e-02   -6,348664314e-02   -5,156159028e-02   -5,262258053e-01    0,000000000e+00    0,000000000e+00    0,000000000e+00    0,000000000e+00
      912000000   -2,320943959e-02   -1,083295047e-01   -3,520594239e-01   -4,042663574e-01    0,000000000e+00    0,000000000e+00    0,000000000e+00    0,000000000e+00
      926000000   -7,552854717e-02   -1,248197258e-01   -5,313184857e-01   -1,582324207e-01    0,000000000e+00    0,000000000e+00    0,000000000e+00    0,000000000e+00
      940000000   -1,259043068e-01   -1,022900119e-01   -5,526052713e-01    1,558296233e-01    0,000000000e+00    0,000000000e+00    0,000000000e+00    0,000000000e+00
      954000000   -1,398829818e-01   -5,904881656e-02   -3,926048875e-01    4,459958375e-01    0,000000000e+00    0,000000000e+00    0,000000000e+00    0,000000000e+00
      968000000   -1,315871328e-01   -3,047581948e-02   -9,130742401e-02    6,050741673e-01    0,000000000e+00    0,000000000e+00    0,000000000e+00    0,000000000e+00
      982000000   -1,156644598e-01   -1,305312384e-02    2,450036258e-01    5,719397664e-01    0,000000000e+00    0,000000000e+00    0,000000000e+00    0,000000000e+00
      996000000   -1,041735858e-01   -1,271683071e-02    5,127974153e-01    3,680039942e-01    0,000000000e+00    0,000000000e+00    0,000000000e+00    0,000000000e+00
     1010000000   -1,005176529e-01   -6,530547515e-03    6,292448044e-01    5,217612907e-02    0,000000000e+00    0,000000000e+00    0,000000000e+00    0,000000000e+00
     1024000000   -9,113964438e-02   -2,379868180e-03    5,622360706e-01   -2,700840831e-01    0,000000000e+00    0,000000000e+00    0,000000000e+00    0,000000000e+00
     1038000000   -7,825075835e-02   -1,181858941e-03    3,366363645e-01   -5,042404532e-01    0,000000000e+00    0,000000000e+00    0,000000000e+00    0,000000000e+00
     1052000000   -6,710225344e-02   -1,737434044e-02    3,288533166e-02   -5,833571553e-01    0,000000000e+00    0,000000000e+00    0,000000000e+00    0,000000000e+00
     1066000000   -6,840274483e-02   -3,460688516e-02   -2,668950260e-01   -4,956156611e-01    0,000000000e+00    0,000000000e+00    0,000000000e+00    0,000000000e+00
     1080000000   -8,464023471e-02   -2,916403301e-02   -4,804018736e-01   -2,723282874e-01    0,000000000e+00    0,000000000e+00    0,000000000e+00    0,000000000e+00
     1094000000   -8,230304718e-02   -1,905070245e-02   -5,322411656e-01    4,106510803e-02    0,000000000e+00    0,000000000e+00    0,000000000e+00    0,000000000e+00
     1108000000   -5,634681880e-02   -1,387377270e-02   -3,990393281e-01    3,268332779e-01    0,000000000e+00    0,000000000e+00    0,000000000e+00    0,000000000e+00
     1122000000   -2,787657082e-02   -3,468105569e-02   -1,373683959e-01    4,809662402e-01    0,000000000e+00    0,000000000e+00    0,000000000e+00    0,000000000e+00
     1136000000   -2,786135860e-02   -8,982165903e-02    1,640783250e-01    4,742912650e-01    0,000000000e+00    0,000000000e+00    0,000000000e+00    0,000000000e+00
     1150000000   -6,377819180e-02   -1,347151995e-01    4,220170975e-01    3,129861951e-01    0,000000000e+00    0,000000000e+00    0,000000000e+00    0,000000000e+00
     1164000000   -1,379188448e-01   -1,576893330e-01    5,658535957e-01    2,945039049e-02    0,000000000e+00    0,000000000e+00    0,000000000e+00    0,000000000e+00
     1178000000   -2,116662860e-01   -1,214646250e-01    5,306198001e-01   -3,154315054e-01    0,000000000e+00    0,000000000e+00    0,000000000e+00    0,000000000e+00
     1192000000   -2,496371716e-01   -4,422273114e-02    2,949120104e-01   -5,973262787e-01    0,000000000e+00    0,000000000e+00    0,000000000e+00    0,000000000e+00
     1206000000   -2,316593677e-01    3,744638711e-02   -7,207500190e-02   -6,988037825e-01    0,000000000e+00    0,000000000e+00    0,000000000e+00    0,000000000e+00
     1220000000   -1,877609789e-01    8,496214449e-02   -4,242963791e-01   -5,773230195e-01    0,000000000e+00    0,000000000e+00    0,000000000e+00    0,000000000e+00
     1234000000   -1,295252293e-01    1,040094569e-01   -6,478865743e-01   -2,899486721e-01    0,000000000e+00    0,000000000e+00    0,000000000e+00    0,000000000e+00
     1248000000   -6,933899224e-02    9,455574304e-02   -6,761668921e-01    6,278689951e-02    0,000000000e+00    0,000000000e+00    0,000000000e+00    0,000000000e+00
     1262000000   -9,376499802e-03    5,903147906e-02   -5,186535716e-01    3,638772964e-01    0,000000000e+00    0,000000000e+00    0,000000000e+00    0,000000000e+00
     1276000000    2,178999968e-02   -3,768323455e-03   -2,442238331e-01    5,460742116e-01    0,000000000e+00    0,000000000e+00    0,000000000e+00    0,000000000e+00
     1290000000    1,993856020e-02   -8,433660865e-02    6,554363668e-02    5,799898505e-01    0,000000000e+00    0,000000000e+00    0,000000000e+00    0,000000000e+00
     1304000000   -3,340886533e-02   -1,685632020e-01    3,624153733e-01    4,705480635e-01    0,000000000e+00    0,000000000e+00    0,000000000e+00    0,000000000e+00
     1318000000   -1,393837333e-01   -2,120758146e-01    5,843968391e-01    2,193010598e-01    0,000000000e+00    0,000000000e+00    0,000000000e+00    0,000000000e+00
     1332000000   -2,536467910e-01   -1,875029504e-01    6,579267383e-01   -1,172391474e-01    0,000000000e+00    0,000000000e+00    0,000000000e+00    0,000000000e+00
     1346000000   -3,284506202e-01   -8,958457410e-02    5,028464794e-01   -4,601246119e-01    0,000000000e+00    0,000000000e+00    0,000000000e+00    0,000000000e+00
     1360000000   -3,279864788e-01    2,538804524e-02    1,989465505e-01   -6,417084336e-01    0,000000000e+00    0,000000000e+00    0,000000000e+00    0,000000000e+00
     1374000000   -2,786254287e-01    1,050361544e-01   -1,617726833e-01   -6,114215851e-01    0,000000000e+00    0,000000000e+00    0,000000000e+00    0,000000000e+00
     1388000000   -2,144293040e-01    1,381181926e-01   -4,078571200e-01   -3,747948408e-01    0,000000000e+00    0,000000000e+00    0,000000000e+00    0,000000000e+00
     1402000000   -1,541291326e-01    1,364533305e-01   -4,799111784e-01   -5,753274262e-02    0,000000000e+00    0,000000000e+00    0,000000000e+00    0,000000000e+00
     1416000000   -9,698078036e-02    1,151182055e-01   -3,809665442e-01    2,371502966e-01    0,000000000e+00    0,000000000e+00    0,000000000e+00    0,000000000e+00
     1430000000   -5,414348468e-02    7,627437264e-02   -1,363371909e-01    4,722317457e-01    0,000000000e+00    0,000000000e+00    0,000000000e+00    0,000000000e+00
     1444000000   -3,791421279e-02    5,616556387e-03    1,690910608e-01    5,352840424e-01    0,000000000e+00    0,000000000e+00    0,000000000e+00    0,000000000e+00
     1458000000   -6,539338082e-02   -7,104960829e-02    4,856869876e-01    4,752199650e-01    0,000000000e+00    0,000000000e+00    0,000000000e+00    0,000000000e+00
     1472000000   -1,334423572e-01   -1,256623864e-01    7,642499804e-01    2,478804886e-01    0,000000000e+00    0,000000000e+00    0,000000000e+00    0,000000000e+00
     1486000000   -2,249229252e-01   -1,165792048e-01    8,945255280e-01   -8,902036399e-02    0,000000000e+00    0,000000000e+00    0,000000000e+00    0,000000000e+00
     1500000000   -2,939964235e-01   -5,446592718e-02    7,986111641e-01   -4,632133842e-01    0,000000000e+00    0,000000000e+00    0,000000000e+00    0,000000000e+00
