! NanoVNA-App
! Date: 2025-09-25 15:09:13
! Start: 100MHz Stop: 1,5GHz Points: 101
! S-Parameter data: F S11 S21 S12 S22
# Hz S RI R 50
!     Frequency           S11_Real           S11_Imag           S21_Real           S21_Imag           S12_Real           S12_Imag           S22_Real           S22_Imag
      100000000    3,116126917e-02    2,864559367e-02    4,348593652e-01   -6,686450243e-01    0,000000000e+00    0,000000000e+00    0,000000000e+00    0,000000000e+00
      114000000    5,757728964e-02    5,485749803e-03    7,704925258e-03   -7,910374403e-01    0,000000000e+00    0,000000000e+00    0,000000000e+00    0,000000000e+00
      128000000    6,729897857e-02   -3,788095713e-02   -4,103957415e-01   -6,712123752e-01    0,000000000e+00    0,000000000e+00    0,000000000e+00    0,000000000e+00
      142000000    4,472032934e-02   -8,421298862e-02   -7,028036714e-01   -3,532538414e-01    0,000000000e+00    0,000000000e+00    0,000000000e+00    0,000000000e+00
      156000000   -5,528086796e-03   -1,065361574e-01   -7,871463299e-01    7,310298085e-02    0,000000000e+00    0,000000000e+00    0,000000000e+00    0,000000000e+00
      170000000   -5,764512345e-02   -9,061557800e-02   -6,275994182e-01    4,870195091e-01    0,000000000e+00    0,000000000e+00    0,000000000e+00    0,000000000e+00
      184000000   -8,372745663e-02   -4,949282482e-02   -2,652052045e-01    7,508473396e-01    0,000000000e+00    0,000000000e+00    0,000000000e+00    0,000000000e+00
      198000000   -7,964207232e-02   -1,047589071e-02    1,834760904e-01    7,731641531e-01    0,000000000e+00    0,000000000e+00    0,000000000e+00    0,000000000e+00
      212000000   -6,225651875e-02    1,312654093e-02    5,691564679e-01    5,490599275e-01    0,000000000e+00    0,000000000e+00    0,000000000e+00    0,000000000e+00
      226000000   -4,323092848e-02    2,765139751e-02    7,706417441e-01    1,545470357e-01    0,000000000e+00    0,000000000e+00    0,000000000e+00    0,000000000e+00
      240000000   -1,822197996e-02    3,849263862e-02    7,269498706e-01   -2,818269730e-01    0,000000000e+00    0,000000000e+00    0,000000000e+00    0,000000000e+00
      254000000    1,717732474e-02    3,515963629e-02    4,580175877e-01   -6,202843189e-01    0,000000000e+00    0,000000000e+00    0,000000000e+00    0,000000000e+00
      268000000    4,875471443e-02    5,611034576e-03    5,864148960e-02   -7,603881359e-01    0,000000000e+00    0,000000000e+00    0,000000000e+00    0,000000000e+00
      282000000    5,342249945e-02   -4,179239646e-02   -3,491388857e-01   -6,713582873e-01    0,000000000e+00    0,000000000e+00    0,000000000e+00    0,000000000e+00
      296000000    2,399727143e-02   -7,953462005e-02   -6,521372199e-01   -3,854597211e-01    0,000000000e+00    0,000000000e+00    0,000000000e+00    0,000000000e+00
      310000000   -1,793430001e-02   -8,320190758e-02   -7,631276250e-01    1,922774501e-02    0,000000000e+00    0,000000000e+00    0,000000000e+00    0,000000000e+00
      324000000   -4,156127572e-02   -5,899040028e-02   -6,314820051e-01    4,304882884e-01    0,000000000e+00    0,000000000e+00    0,000000000e+00    0,000000000e+00
      338000000   -3,434770927e-02   -3,677836433e-02   -2,954502702e-01    7,003086805e-01    0,000000000e+00    0,000000000e+00    0,000000000e+00    0,000000000e+00
      352000000   -1,745568030e-02   -4,072044045e-02    1,254446656e-01    7,421895862e-01    0,000000000e+00    0,000000000e+00    0,000000000e+00    0,000000000e+00
      366000000   -1,908923872e-02   -6,200209260e-02    4,982369840e-01    5,551044345e-01    0,000000000e+00    0,000000000e+00    0,000000000e+00    0,000000000e+00
      380000000   -4,433507845e-02   -7,298164070e-02    7,134153843e-01    1,995140165e-01    0,000000000e+00    0,000000000e+00    0,000000000e+00    0,000000000e+00
      394000000   -7,102677226e-02   -5,767971650e-02    7,039911151e-01   -2,161993533e-01    0,000000000e+00    0,000000000e+00    0,000000000e+00    0,000000000e+00
      408000000   -7,693780214e-02   -3,025397286e-02    4,709036648e-01   -5,592967272e-01    0,000000000e+00    0,000000000e+00    0,000000000e+00    0,000000000e+00
      422000000   -6,542759389e-02   -1,082355902e-02    9,368037432e-02   -7,171508670e-01    0,000000000e+00    0,000000000e+00    0,000000000e+00    0,000000000e+00
      436000000   -5,280448869e-02   -4,775785841e-03   -3,017786741e-01   -6,473344564e-01    0,000000000e+00    0,000000000e+00    0,000000000e+00    0,000000000e+00
      450000000   -4,496751726e-02    1,463132212e-03   -5,937379599e-01   -3,779295981e-01    0,000000000e+00    0,000000000e+00    0,000000000e+00    0,000000000e+00
      464000000   -2,957114391e-02    1,104734465e-02   -6,913272738e-01   -2,104779851e-04    0,000000000e+00    0,000000000e+00    0,000000000e+00    0,000000000e+00
      478000000   -1,135405153e-03    1,075636595e-02   -5,733688474e-01    3,632096052e-01    0,000000000e+00    0,000000000e+00    0,000000000e+00    0,000000000e+00
      492000000    2,795481868e-02   -1,223533135e-02   -2,899019122e-01    6,020256877e-01    0,000000000e+00    0,000000000e+00    0,000000000e+00    0,000000000e+00
      506000000    3,660574555e-02   -5,550230667e-02    6,903687865e-02    6,588327885e-01    0,000000000e+00    0,000000000e+00    0,000000000e+00    0,000000000e+00
      520000000    1,271074917e-02   -9,959131479e-02    4,075577259e-01    5,235006809e-01    0,000000000e+00    0,000000000e+00    0,000000000e+00    0,000000000e+00
      534000000   -3,446616605e-02   -1,154448017e-01    6,240898967e-01    2,363216281e-01    0,000000000e+00    0,000000000e+00    0,000000000e+00    0,000000000e+00
      548000000   -7,705440372e-02   -9,935538471e-02    6,582373977e-01   -1,334479302e-01    0,000000000e+00    0,000000000e+00    0,000000000e+00    0,000000000e+00
      562000000   -9,359227866e-02   -6,626303494e-02    4,809283316e-01   -4,666291475e-01    0,000000000e+00    0,000000000e+00    0,000000000e+00    0,000000000e+00
      576000000   -8,623899519e-02   -4,481844231e-02    1,499722749e-01   -6,478213668e-01    0,000000000e+00    0,000000000e+00    0,000000000e+00    0,000000000e+00
      590000000   -8,088584989e-02   -4,179776460e-02   -2,202363610e-01   -6,265892386e-01    0,000000000e+00    0,000000000e+00    0,000000000e+00    0,000000000e+00
      604000000   -8,923865855e-02   -3,751608357e-02   -5,205352306e-01   -4,054590464e-01    0,000000000e+00    0,000000000e+00    0,000000000e+00    0,000000000e+00
      618000000   -9,654609114e-02   -1,455310918e-02   -6,533182263e-01   -5,817651004e-02    0,000000000e+00    0,000000000e+00    0,000000000e+00    0,000000000e+00
      632000000   -8,150598407e-02    1,561284345e-02   -5,753811002e-01    3,029578030e-01    0,000000000e+00    0,000000000e+00    0,000000000e+00    0,000000000e+00
      646000000   -4,219050705e-02    2,650729753e-02   -3,192507029e-01    5,559234619e-01    0,000000000e+00    0,000000000e+00    0,000000000e+00    0,000000000e+00
      660000000   -7,875501178e-03    5,687218159e-03    2,189826407e-02    6,280904412e-01    0,000000000e+00    0,000000000e+00    0,000000000e+00    0,000000000e+00
      674000000    1,518932753e-03   -3,047951125e-02    3,432832360e-01    5,181618929e-01    0,000000000e+00    0,000000000e+00    0,000000000e+00    0,000000000e+00
      688000000   -1,419650856e-02   -5,555302650e-02    5,589184165e-01    2,584258616e-01    0,000000000e+00    0,000000000e+00    0,000000000e+00    0,000000000e+00
      702000000   -3,371306136e-02   -5,869988352e-02    6,080617905e-01   -7,872957736e-02    0,000000000e+00    0,000000000e+00    0,000000000e+00    0,000000000e+00
      716000000   -3,684195504e-02   -5,620890856e-02    4,595214725e-01   -3,901163936e-01    0,000000000e+00    0,000000000e+00    0,000000000e+00    0,000000000e+00
      730000000   -3,146401048e-02   -6,498143822e-02    1,736234874e-01   -5,662429929e-01    0,000000000e+00    0,000000000e+00    0,000000000e+00    0,000000000e+00
      744000000   -3,978584707e-02   -8,810511231e-02   -1,534553617e-01   -5,631672740e-01    0,000000000e+00    0,000000000e+00    0,000000000e+00    0,000000000e+00
      758000000   -7,214266807e-02   -1,040826067e-01   -4,273963869e-01   -3,945765495e-01    0,000000000e+00    0,000000000e+00    0,000000000e+00    0,000000000e+00
      772000000   -1,134273037e-01   -9,435763955e-02   -5,744050145e-01   -1,062021479e-01    0,000000000e+00    0,000000000e+00    0,000000000e+00    0,000000000e+00
      786000000   -1,382878423e-01   -5,587573349e-02   -5,452845693e-01    2,209953964e-01    0,000000000e+00    0,000000000e+00    0,000000000e+00    0,000000000e+00
      800000000   -1,328176856e-01   -1,420643460e-02   -3,423026204e-01    4,799167514e-01    0,000000000e+00    0,000000000e+00    0,000000000e+00    0,000000000e+00
      814000000   -1,078268141e-01    8,260290138e-03   -3,469073027e-02    5,867192149e-01    0,000000000e+00    0,000000000e+00    0,000000000e+00    0,000000000e+00
      828000000   -8,523601294e-02    1,399593428e-02    2,770229578e-01    5,133359432e-01    0,000000000e+00    0,000000000e+00    0,000000000e+00    0,000000000e+00
      842000000   -7,052905113e-02    1,448328979e-02    5,033410788e-01    2,898882031e-01    0,000000000e+00    0,000000000e+00    0,000000000e+00    0,000000000e+00
      856000000   -5,259198323e-02    1,932464354e-02    5,702565908e-01   -1,772852615e-02    0,000000000e+00    0,000000000e+00    0,000000000e+00    0,000000000e+00
      870000000   -2,304744907e-02    1,391711179e-02    4,634864032e-01   -3,065924942e-01    0,000000000e+00    0,000000000e+00    0,000000000e+00    0,000000000e+00
      884000000    6,303543225e-03   -1,461126655e-02    2,310837507e-01   -4,879022241e-01    0,000000000e+00    0,000000000e+00    0,000000000e+00    0,000000000e+00
      898000000    1,168286428e-02   -6,387173384e-02   -5,239411816e-02   -5,268477798e-01    0,000000000e+00    0,000000000e+00    0,000000000e+00    0,000000000e+00
      912000000   -2,334626019e-02   -1,089956611e-01   -3,566632867e-01   -4,084301293e-01    0,000000000e+00    0,000000000e+00    0,000000000e+00    0,000000000e+00
      926000000   -7,391187549e-02   -1,232920066e-01   -5,304898024e-01   -1,584442109e-01    0,000000000e+00    0,000000000e+00    0,000000000e+00    0,000000000e+00
      940000000   -1,225247756e-01   -1,007595509e-01   -5,511050224e-01    1,563304067e-01    0,000000000e+00    0,000000000e+00    0,000000000e+00    0,000000000e+00
      954000000   -1,433968395e-01   -6,322269142e-02   -3,939195275e-01    4,460890889e-01    0,000000000e+00    0,000000000e+00    0,000000000e+00    0,000000000e+00
      968000000   -1,345875412e-01   -2,667003870e-02   -9,399579465e-02    6,024219394e-01    0,000000000e+00    0,000000000e+00    0,000000000e+00    0,000000000e+00
      982000000   -1,175092757e-01   -1,723686047e-02    2,455300391e-01    5,728741288e-01    0,000000000e+00    0,000000000e+00    0,000000000e+00    0,000000000e+00
      996000000   -1,061302274e-01   -1,624853350e-02    5,112580657e-01    3,668612540e-01    0,000000000e+00    0,000000000e+00    0,000000000e+00    0,000000000e+00
     1010000000   -1,000168175e-01   -1,011739857e-02    6,293129921e-01    5,136561021e-02    0,000000000e+00    0,000000000e+00    0,000000000e+00    0,000000000e+00
     1024000000   -9,546601772e-02   -9,678738425e-04    5,613434315e-01   -2,714031637e-01    0,000000000e+00    0,000000000e+00    0,000000000e+00    0,000000000e+00
     1038000000   -7,386210561e-02    1,802100800e-03    3,373715281e-01   -5,046865940e-01    0,000000000e+00    0,000000000e+00    0,000000000e+00    0,000000000e+00
     1052000000   -6,766989827e-02   -1,454677992e-02    3,359639272e-02   -5,857938528e-01    0,000000000e+00    0,000000000e+00    0,000000000e+00    0,000000000e+00
     1066000000   -7,240328938e-02   -3,189333528e-02   -2,620014548e-01   -5,031101108e-01    0,000000000e+00    0,000000000e+00    0,000000000e+00    0,000000000e+00
     1080000000   -8,091931045e-02   -2,712304518e-02   -4,816060066e-01   -2,699263692e-01    0,000000000e+00    0,000000000e+00    0,000000000e+00    0,000000000e+00
     1094000000   -8,078837395e-02   -1,436451823e-02   -5,323399305e-01    4,147741199e-02    0,000000000e+00    0,000000000e+00    0,000000000e+00    0,000000000e+00
     1108000000   -6,091321260e-02   -1,059328299e-02   -3,962311149e-01    3,260566890e-01    0,000000000e+00    0,000000000e+00    0,000000000e+00    0,000000000e+00
     1122000000   -3,462466598e-02   -3,654098138e-02   -1,369152963e-01    4,825433791e-01    0,000000000e+00    0,000000000e+00    0,000000000e+00    0,000000000e+00
     1136000000   -2,882088907e-02   -8,629462123e-02    1,627852768e-01    4,741722941e-01    0,000000000e+00    0,000000000e+00    0,000000000e+00    0,000000000e+00
     1150000000   -6,382051110e-02   -1,342973560e-01    4,173665047e-01    3,105078638e-01    0,000000000e+00    0,000000000e+00    0,000000000e+00    0,000000000e+00
     1164000000   -1,374343634e-01   -1,495513767e-01    5,639733672e-01    2,857949957e-02    0,000000000e+00    0,000000000e+00    0,000000000e+00    0,000000000e+00
     1178000000   -2,090070546e-01   -1,218849793e-01    5,297616720e-01   -3,156617284e-01    0,000000000e+00    0,000000000e+00    0,000000000e+00    0,000000000e+00
     1192000000   -2,444310933e-01   -4,287644848e-02    2,980875969e-01   -5,968636870e-01    0,000000000e+00    0,000000000e+00    0,000000000e+00    0,000000000e+00
     1206000000   -2,295408249e-01    3,227747604e-02   -6,668095291e-02   -7,000752687e-01    0,000000000e+00    0,000000000e+00    0,000000000e+00    0,000000000e+00
     1220000000   -1,822761446e-01    8,665043861e-02   -4,219621420e-01   -5,789293647e-01    0,000000000e+00    0,000000000e+00    0,000000000e+00    0,000000000e+00
     1234000000   -1,256525069e-01    1,014170349e-01   -6,448249221e-01   -2,908313870e-01    0,000000000e+00    0,000000000e+00    0,000000000e+00    0,000000000e+00
     1248000000   -6,409677118e-02    9,782541543e-02   -6,773435473e-01    6,101443246e-02    0,000000000e+00    0,000000000e+00    0,000000000e+00    0,000000000e+00
     1262000000   -1,153985132e-02    6,195114553e-02   -5,200508833e-01    3,709972203e-01    0,000000000e+00    0,000000000e+00    0,000000000e+00    0,000000000e+00
     1276000000    2,477173507e-02   -5,234316457e-03   -2,417791486e-01    5,440660715e-01    0,000000000e+00    0,000000000e+00    0,000000000e+00    0,000000000e+00
     1290000000    2,110760845e-02   -9,042050689e-02    7,225096971e-02    5,743035674e-01    0,000000000e+00    0,000000000e+00    0,000000000e+00    0,000000000e+00
     1304000000   -3,577495366e-02   -1,721397042e-01    3,614396155e-01    4,700554609e-01    0,000000000e+00    0,000000000e+00    0,000000000e+00    0,000000000e+00
     1318000000   -1,352218986e-01   -2,188146114e-01    5,834432840e-01    2,147250772e-01    0,000000000e+00    0,000000000e+00    0,000000000e+00    0,000000000e+00
     1332000000   -2,527400255e-01   -1,874314547e-01    6,543092132e-01   -1,293995380e-01    0,000000000e+00    0,000000000e+00    0,000000000e+00    0,000000000e+00
     1346000000   -3,302928507e-01   -9,523619711e-02    5,054123998e-01   -4,736280739e-01    0,000000000e+00    0,000000000e+00    0,000000000e+00    0,000000000e+00
     1360000000   -3,293149173e-01    2,603926510e-02    1,985711157e-01   -6,528342366e-01    0,000000000e+00    0,000000000e+00    0,000000000e+00    0,000000000e+00
     1374000000   -2,794883847e-01    1,013897210e-01   -1,502610892e-01   -6,054598689e-01    0,000000000e+00    0,000000000e+00    0,000000000e+00    0,000000000e+00
     1388000000   -2,129065841e-01    1,392471492e-01   -4,039940536e-01   -3,731085956e-01    0,000000000e+00    0,000000000e+00    0,000000000e+00    0,000000000e+00
     1402000000   -1,486342698e-01    1,404990107e-01   -4,794864953e-01   -6,011276320e-02    0,000000000e+00    0,000000000e+00    0,000000000e+00    0,000000000e+00
     1416000000   -9,735368192e-02    1,133336052e-01   -3,806762099e-01    2,363829166e-01    0,000000000e+00    0,000000000e+00    0,000000000e+00    0,000000000e+00
     1430000000   -5,000441894e-02    7,073611021e-02   -1,242886335e-01    4,529608488e-01    0,000000000e+00    0,000000000e+00    0,000000000e+00    0,000000000e+00
     1444000000   -4,330307990e-02    2,693791641e-03    1,566948146e-01    5,285598040e-01    0,000000000e+00    0,000000000e+00    0,000000000e+00    0,000000000e+00
     1458000000   -5,793685839e-02   -8,059102297e-02    4,892770946e-01    4,706391096e-01    0,000000000e+00    0,000000000e+00    0,000000000e+00    0,000000000e+00
     1472000000   -1,343411058e-01   -1,228249893e-01    7,672956586e-01    2,669553459e-01    0,000000000e+00    0,000000000e+00    0,000000000e+00    0,000000000e+00
     1486000000   -2,291876525e-01   -1,134967878e-01    8,914569020e-01   -7,163001597e-02    0,000000000e+00    0,000000000e+00    0,000000000e+00    0,000000000e+00
     1500000000   -2,781116366e-01   -5,103830248e-02    8,154807687e-01   -4,676572680e-01    0,000000000e+00    0,000000000e+00    0,000000000e+00    0,000000000e+00
