! NanoVNA-App
! Date: 2025-09-25 15:07:51
! Start: 100MHz Stop: 1,5GHz Points: 101
! S-Parameter data: F S11 S21 S12 S22
# Hz S RI R 50
!     Frequency           S11_Real           S11_Imag           S21_Real           S21_Imag           S12_Real           S12_Imag           S22_Real           S22_Imag
      100000000    3,114823438e-02    2,864332870e-02    4,348437786e-01   -6,686503291e-01    0,000000000e+00    0,000000000e+00    0,000000000e+00    0,000000000e+00
      114000000    5,761133134e-02    5,524151959e-03    7,875519805e-03   -7,911443114e-01    0,000000000e+00    0,000000000e+00    0,000000000e+00    0,000000000e+00
      128000000    6,723624468e-02   -3,783226013e-02   -4,103665948e-01   -6,710869670e-01    0,000000000e+00    0,000000000e+00    0,000000000e+00    0,000000000e+00
      142000000    4,470787570e-02   -8,419521898e-02   -7,030445337e-01   -3,533228636e-01    0,000000000e+00    0,000000000e+00    0,000000000e+00    0,000000000e+00
      156000000   -5,651582498e-03   -1,062672064e-01   -7,866733074e-01    7,274601609e-02    0,000000000e+00    0,000000000e+00    0,000000000e+00    0,000000000e+00
      170000000   -5,767687783e-02   -9,057984501e-02   -6,273660660e-01    4,870398939e-01    0,000000000e+00    0,000000000e+00    0,000000000e+00    0,000000000e+00
      184000000   -8,366848528e-02   -4,949979484e-02   -2,651657164e-01    7,512555122e-01    0,000000000e+00    0,000000000e+00    0,000000000e+00    0,000000000e+00
      198000000   -7,963815331e-02   -1,047053095e-02    1,833366752e-01    7,729843259e-01    0,000000000e+00    0,000000000e+00    0,000000000e+00    0,000000000e+00
      212000000   -6,222559512e-02    1,315426175e-02    5,692414045e-01    5,490972996e-01    0,000000000e+00    0,000000000e+00    0,000000000e+00    0,000000000e+00
      226000000   -4,323811084e-02    2,771486342e-02    7,707685828e-01    1,543848962e-01    0,000000000e+00    0,000000000e+00    0,000000000e+00    0,000000000e+00
      240000000   -1,818608493e-02    3,851890191e-02    7,267915606e-01   -2,820105851e-01    0,000000000e+00    0,000000000e+00    0,000000000e+00    0,000000000e+00
      254000000    1,719679125e-02    3,520045802e-02    4,580482841e-01   -6,203297973e-01    0,000000000e+00    0,000000000e+00    0,000000000e+00    0,000000000e+00
      268000000    4,877823219e-02    5,557013210e-03    5,859743804e-02   -7,604796290e-01    0,000000000e+00    0,000000000e+00    0,000000000e+00    0,000000000e+00
      282000000    5,348870158e-02   -4,176892340e-02   -3,489635885e-01   -6,714699864e-01    0,000000000e+00    0,000000000e+00    0,000000000e+00    0,000000000e+00
      296000000    2,400815859e-02   -7,957054675e-02   -6,520985365e-01   -3,850020468e-01    0,000000000e+00    0,000000000e+00    0,000000000e+00    0,000000000e+00
      310000000   -1,767691039e-02   -8,303938061e-02   -7,627664208e-01    2,129361033e-02    0,000000000e+00    0,000000000e+00    0,000000000e+00    0,000000000e+00
      324000000   -4,163900763e-02   -5,858923495e-02   -6,328206062e-01    4,313715398e-01    0,000000000e+00    0,000000000e+00    0,000000000e+00    0,000000000e+00
      338000000   -3,438791260e-02   -3,676623851e-02   -2,947523594e-01    6,988307238e-01    0,000000000e+00    0,000000000e+00    0,000000000e+00    0,000000000e+00
      352000000   -1,741127297e-02   -4,066873342e-02    1,261631101e-01    7,422583699e-01    0,000000000e+00    0,000000000e+00    0,000000000e+00    0,000000000e+00
      366000000   -1,906261221e-02   -6,182423607e-02    4,981380105e-01    5,547688007e-01    0,000000000e+00    0,000000000e+00    0,000000000e+00    0,000000000e+00
      380000000   -4,428409785e-02   -7,251364738e-02    7,137759328e-01    2,001178116e-01    0,000000000e+00    0,000000000e+00    0,000000000e+00    0,000000000e+00
      394000000   -7,077599317e-02   -5,774476379e-02    7,046253681e-01   -2,159439772e-01    0,000000000e+00    0,000000000e+00    0,000000000e+00    0,000000000e+00
      408000000   -7,680663466e-02   -3,041810915e-02    4,709805548e-01   -5,602444410e-01    0,000000000e+00    0,000000000e+00    0,000000000e+00    0,000000000e+00
      422000000   -6,550890207e-02   -1,137438510e-02    9,339939058e-02   -7,176979780e-01    0,000000000e+00    0,000000000e+00    0,000000000e+00    0,000000000e+00
      436000000   -5,277968943e-02   -4,322296474e-03   -3,018575907e-01   -6,466569304e-01    0,000000000e+00    0,000000000e+00    0,000000000e+00    0,000000000e+00
      450000000   -4,451378807e-02    1,483589062e-03   -5,929470658e-01   -3,789391220e-01    0,000000000e+00    0,000000000e+00    0,000000000e+00    0,000000000e+00
      464000000   -2,962001972e-02    1,135601010e-02   -6,914184690e-01    2,062498061e-05    0,000000000e+00    0,000000000e+00    0,000000000e+00    0,000000000e+00
      478000000   -1,056170557e-03    1,124172937e-02   -5,733510852e-01    3,631124794e-01    0,000000000e+00    0,000000000e+00    0,000000000e+00    0,000000000e+00
      492000000    2,779481187e-02   -1,222203765e-02   -2,899379134e-01    6,022174358e-01    0,000000000e+00    0,000000000e+00    0,000000000e+00    0,000000000e+00
      506000000    3,699176759e-02   -5,601540580e-02    6,934610009e-02    6,586851478e-01    0,000000000e+00    0,000000000e+00    0,000000000e+00    0,000000000e+00
      520000000    1,309337560e-02   -9,899571538e-02    4,049800336e-01    5,249243379e-01    0,000000000e+00    0,000000000e+00    0,000000000e+00    0,000000000e+00
      534000000   -3,440615535e-02   -1,163061112e-01    6,237136722e-01    2,357457429e-01    0,000000000e+00    0,000000000e+00    0,000000000e+00    0,000000000e+00
      548000000   -7,730554044e-02   -9,980442375e-02    6,579839587e-01   -1,337719411e-01    0,000000000e+00    0,000000000e+00    0,000000000e+00    0,000000000e+00
      562000000   -9,361536056e-02   -6,605082750e-02    4,816813767e-01   -4,665226340e-01    0,000000000e+00    0,000000000e+00    0,000000000e+00    0,000000000e+00
      576000000   -8,615169674e-02   -4,454137012e-02    1,507830173e-01   -6,485077739e-01    0,000000000e+00    0,000000000e+00    0,000000000e+00    0,000000000e+00
      590000000   -8,081280440e-02   -4,166165367e-02   -2,206088006e-01   -6,291598082e-01    0,000000000e+00    0,000000000e+00    0,000000000e+00    0,000000000e+00
      604000000   -8,890917152e-02   -3,739158437e-02   -5,195594430e-01   -4,066073596e-01    0,000000000e+00    0,000000000e+00    0,000000000e+00    0,000000000e+00
      618000000   -9,693846107e-02   -1,513986103e-02   -6,536308527e-01   -5,827571079e-02    0,000000000e+00    0,000000000e+00    0,000000000e+00    0,000000000e+00
      632000000   -8,070325106e-02    1,538570598e-02   -5,755343437e-01    3,025525212e-01    0,000000000e+00    0,000000000e+00    0,000000000e+00    0,000000000e+00
      646000000   -4,297009483e-02    2,603354305e-02   -3,188809156e-01    5,552118421e-01    0,000000000e+00    0,000000000e+00    0,000000000e+00    0,000000000e+00
      660000000   -7,698964328e-03    5,520792212e-03    2,092151158e-02    6,284525990e-01    0,000000000e+00    0,000000000e+00    0,000000000e+00    0,000000000e+00
      674000000    6,036272971e-04   -2,984913997e-02    3,423684537e-01    5,188461542e-01    0,000000000e+00    0,000000000e+00    0,000000000e+00    0,000000000e+00
      688000000   -1,419478096e-02   -5,529042333e-02    5,591964126e-01    2,588762045e-01    0,000000000e+00    0,000000000e+00    0,000000000e+00    0,000000000e+00
      702000000   -3,324455395e-02   -6,032359973e-02    6,037459373e-01   -7,967713475e-02    0,000000000e+00    0,000000000e+00    0,000000000e+00    0,000000000e+00
      716000000   -3,722469881e-02   -5,528333038e-02    4,587138593e-01   -3,903325498e-01    0,000000000e+00    0,000000000e+00    0,000000000e+00    0,000000000e+00
      730000000   -3,125765920e-02   -6,466221809e-02    1,744235158e-01   -5,671323538e-01    0,000000000e+00    0,000000000e+00    0,000000000e+00    0,000000000e+00
      744000000   -4,072096944e-02   -8,916607499e-02   -1,525455266e-01   -5,640026331e-01    0,000000000e+00    0,000000000e+00    0,000000000e+00    0,000000000e+00
      758000000   -7,183585316e-02   -1,049569547e-01   -4,269533157e-01   -3,941715956e-01    0,000000000e+00    0,000000000e+00    0,000000000e+00    0,000000000e+00
      772000000   -1,135280281e-01   -9,338445216e-02   -5,742908120e-01   -1,057541668e-01    0,000000000e+00    0,000000000e+00    0,000000000e+00    0,000000000e+00
      786000000   -1,392891109e-01   -5,543008447e-02   -5,449429750e-01    2,204319686e-01    0,000000000e+00    0,000000000e+00    0,000000000e+00    0,000000000e+00
      800000000   -1,322601885e-01   -1,427143719e-02   -3,419966400e-01    4,800431430e-01    0,000000000e+00    0,000000000e+00    0,000000000e+00    0,000000000e+00
      814000000   -1,082395464e-01    8,031648584e-03   -3,488610312e-02    5,858303905e-01    0,000000000e+00    0,000000000e+00    0,000000000e+00    0,000000000e+00
      828000000   -8,492305875e-02    1,332039293e-02    2,781472504e-01    5,144332647e-01    0,000000000e+00    0,000000000e+00    0,000000000e+00    0,000000000e+00
      842000000   -7,070256770e-02    1,535500959e-02    5,024158359e-01    2,896680534e-01    0,000000000e+00    0,000000000e+00    0,000000000e+00    0,000000000e+00
      856000000   -5,276424810e-02    1,944297738e-02    5,704907179e-01   -1,739302650e-02    0,000000000e+00    0,000000000e+00    0,000000000e+00    0,000000000e+00
      870000000   -2,271765098e-02    1,473851502e-02    4,637601078e-01   -3,061966002e-01    0,000000000e+00    0,000000000e+00    0,000000000e+00    0,000000000e+00
      884000000    5,749276839e-03   -1,416803803e-02    2,296572328e-01   -4,876892269e-01    0,000000000e+00    0,000000000e+00    0,000000000e+00    0,000000000e+00
      898000000    1,155533548e-02   -6,362362951e-02   -5,279103294e-02   -5,257750154e-01    0,000000000e+00    0,000000000e+00    0,000000000e+00    0,000000000e+00
      912000000   -2,369657531e-02   -1,089112014e-01   -3,628426194e-01   -4,094117880e-01    0,000000000e+00    0,000000000e+00    0,000000000e+00    0,000000000e+00
      926000000   -7,693346590e-02   -1,234177724e-01   -5,317984819e-01   -1,569851935e-01    0,000000000e+00    0,000000000e+00    0,000000000e+00    0,000000000e+00
      940000000   -1,218155324e-01   -1,017584577e-01   -5,504912138e-01    1,567793339e-01    0,000000000e+00    0,000000000e+00    0,000000000e+00    0,000000000e+00
      954000000   -1,397419423e-01   -5,927351117e-02   -3,919677436e-01    4,457342923e-01    0,000000000e+00    0,000000000e+00    0,000000000e+00    0,000000000e+00
      968000000   -1,320117265e-01   -2,497261576e-02   -9,292965382e-02    6,043680310e-01    0,000000000e+00    0,000000000e+00    0,000000000e+00    0,000000000e+00
      982000000   -1,120651960e-01   -1,748778298e-02    2,457563877e-01    5,706565380e-01    0,000000000e+00    0,000000000e+00    0,000000000e+00    0,000000000e+00
      996000000   -1,095032766e-01   -1,414887514e-02    5,125037432e-01    3,669075370e-01    0,000000000e+00    0,000000000e+00    0,000000000e+00    0,000000000e+00
     1010000000   -1,010220572e-01   -6,952198222e-03    6,280882359e-01    5,365932733e-02    0,000000000e+00    0,000000000e+00    0,000000000e+00    0,000000000e+00
     1024000000   -9,241946042e-02   -3,417166416e-03    5,619417429e-01   -2,722062171e-01    0,000000000e+00    0,000000000e+00    0,000000000e+00    0,000000000e+00
     1038000000   -7,321944833e-02   -2,519304631e-03    3,383792937e-01   -5,040680170e-01    0,000000000e+00    0,000000000e+00    0,000000000e+00    0,000000000e+00
     1052000000   -6,175216660e-02   -1,514194999e-02    3,434785083e-02   -5,840623379e-01    0,000000000e+00    0,000000000e+00    0,000000000e+00    0,000000000e+00
     1066000000   -7,086774707e-02   -3,278582543e-02   -2,652366459e-01   -5,004199147e-01    0,000000000e+00    0,000000000e+00    0,000000000e+00    0,000000000e+00
     1080000000   -8,063193411e-02   -3,380628303e-02   -4,795395136e-01   -2,698727548e-01    0,000000000e+00    0,000000000e+00    0,000000000e+00    0,000000000e+00
     1094000000   -7,795878500e-02   -1,996787079e-02   -5,325260758e-01    4,314590618e-02    0,000000000e+00    0,000000000e+00    0,000000000e+00    0,000000000e+00
     1108000000   -6,063941494e-02   -1,386358496e-02   -4,003999829e-01    3,286263943e-01    0,000000000e+00    0,000000000e+00    0,000000000e+00    0,000000000e+00
     1122000000   -3,325918689e-02   -3,742352128e-02   -1,362220645e-01    4,830865860e-01    0,000000000e+00    0,000000000e+00    0,000000000e+00    0,000000000e+00
     1136000000   -2,637347393e-02   -8,808562905e-02    1,634577513e-01    4,755975604e-01    0,000000000e+00    0,000000000e+00    0,000000000e+00    0,000000000e+00
     1150000000   -6,461716443e-02   -1,320695728e-01    4,210280180e-01    3,155352771e-01    0,000000000e+00    0,000000000e+00    0,000000000e+00    0,000000000e+00
     1164000000   -1,354245692e-01   -1,499048769e-01    5,614407659e-01    2,907841280e-02    0,000000000e+00    0,000000000e+00    0,000000000e+00    0,000000000e+00
     1178000000   -2,119441777e-01   -1,157744899e-01    5,324998498e-01   -3,165248632e-01    0,000000000e+00    0,000000000e+00    0,000000000e+00    0,000000000e+00
     1192000000   -2,444596440e-01   -4,403105378e-02    2,984486222e-01   -5,993043184e-01    0,000000000e+00    0,000000000e+00    0,000000000e+00    0,000000000e+00
     1206000000   -2,333112508e-01    3,156065568e-02   -6,925986707e-02   -6,976797581e-01    0,000000000e+00    0,000000000e+00    0,000000000e+00    0,000000000e+00
     1220000000   -1,876664311e-01    8,401581645e-02   -4,188435674e-01   -5,774711967e-01    0,000000000e+00    0,000000000e+00    0,000000000e+00    0,000000000e+00
     1234000000   -1,316422373e-01    1,048790365e-01   -6,493068337e-01   -2,926307321e-01    0,000000000e+00    0,000000000e+00    0,000000000e+00    0,000000000e+00
     1248000000   -6,773260236e-02    9,576719254e-02   -6,762013435e-01    5,947712064e-02    0,000000000e+00    0,000000000e+00    0,000000000e+00    0,000000000e+00
     1262000000   -1,051878277e-02    5,888713151e-02   -5,179250240e-01    3,721294999e-01    0,000000000e+00    0,000000000e+00    0,000000000e+00    0,000000000e+00
     1276000000    1,947519183e-02   -2,549974015e-03   -2,448253930e-01    5,448802114e-01    0,000000000e+00    0,000000000e+00    0,000000000e+00    0,000000000e+00
     1290000000    1,818199269e-02   -9,021808207e-02    6,308772415e-02    5,723823905e-01    0,000000000e+00    0,000000000e+00    0,000000000e+00    0,000000000e+00
     1304000000   -3,123185784e-02   -1,738347560e-01    3,612010777e-01    4,577787220e-01    0,000000000e+00    0,000000000e+00    0,000000000e+00    0,000000000e+00
     1318000000   -1,334028393e-01   -2,152377516e-01    5,897744298e-01    2,188299596e-01    0,000000000e+00    0,000000000e+00    0,000000000e+00    0,000000000e+00
     1332000000   -2,536819279e-01   -1,844985783e-01    6,552423835e-01   -1,202545241e-01    0,000000000e+00    0,000000000e+00    0,000000000e+00    0,000000000e+00
     1346000000   -3,296026289e-01   -9,088351578e-02    5,078901649e-01   -4,619559646e-01    0,000000000e+00    0,000000000e+00    0,000000000e+00    0,000000000e+00
     1360000000   -3,337574303e-01    2,538316138e-02    1,850098073e-01   -6,445451975e-01    0,000000000e+00    0,000000000e+00    0,000000000e+00    0,000000000e+00
     1374000000   -2,818500102e-01    1,050185412e-01   -1,591509432e-01   -5,934316516e-01    0,000000000e+00    0,000000000e+00    0,000000000e+00    0,000000000e+00
     1388000000   -2,098078877e-01    1,366275251e-01   -3,999100626e-01   -3,773065507e-01    0,000000000e+00    0,000000000e+00    0,000000000e+00    0,000000000e+00
     1402000000   -1,494300663e-01    1,371989101e-01   -4,756364524e-01   -6,908645481e-02    0,000000000e+00    0,000000000e+00    0,000000000e+00    0,000000000e+00
     1416000000   -9,406381100e-02    1,179061681e-01   -3,720450997e-01    2,484344840e-01    0,000000000e+00    0,000000000e+00    0,000000000e+00    0,000000000e+00
     1430000000   -5,191429332e-02    7,214404643e-02   -1,577008367e-01    4,463157058e-01    0,000000000e+00    0,000000000e+00    0,000000000e+00    0,000000000e+00
     1444000000   -3,486570343e-02    1,755848294e-03    1,738759279e-01    5,306640863e-01    0,000000000e+00    0,000000000e+00    0,000000000e+00    0,000000000e+00
     1458000000   -6,477408856e-02   -7,461120933e-02    4,865370095e-01    4,766914248e-01    0,000000000e+00    0,000000000e+00    0,000000000e+00    0,000000000e+00
     1472000000   -1,390695572e-01   -1,238314584e-01    7,686997652e-01    2,618630528e-01    0,000000000e+00    0,000000000e+00    0,000000000e+00    0,000000000e+00
     1486000000   -2,261807472e-01   -1,117963418e-01    8,707454801e-01   -6,886707246e-02    0,000000000e+00    0,000000000e+00    0,000000000e+00    0,000000000e+00
     1500000000   -2,862867713e-01   -5,754725263e-02    8,055650592e-01   -4,606127739e-01    0,000000000e+00    0,000000000e+00    0,000000000e+00    0,000000000e+00
