! NanoVNA-App
! Date: 2025-09-25 15:10:44
! Start: 100MHz Stop: 1,5GHz Points: 101
! S-Parameter data: F S11 S21 S12 S22
# Hz S RI R 50
!     Frequency           S11_Real           S11_Imag           S21_Real           S21_Imag           S12_Real           S12_Imag           S22_Real           S22_Imag
      100000000    3,115109913e-02    2,865461446e-02    4,348882139e-01   -6,685335040e-01    0,000000000e+00    0,000000000e+00    0,000000000e+00    0,000000000e+00
      114000000    5,759673193e-02    5,503342953e-03    7,935318165e-03   -7,910549045e-01    0,000000000e+00    0,000000000e+00    0,000000000e+00    0,000000000e+00
      128000000    6,729784608e-02   -3,783040866e-02   -4,101894498e-01   -6,712273955e-01    0,000000000e+00    0,000000000e+00    0,000000000e+00    0,000000000e+00
      142000000    4,472868517e-02   -8,423890173e-02   -7,026026249e-01   -3,531857133e-01    0,000000000e+00    0,000000000e+00    0,000000000e+00    0,000000000e+00
      156000000   -6,176767405e-03   -1,059262678e-01   -7,854828835e-01    7,295499742e-02    0,000000000e+00    0,000000000e+00    0,000000000e+00    0,000000000e+00
      170000000   -5,764447525e-02   -9,057290107e-02   -6,278449893e-01    4,871710837e-01    0,000000000e+00    0,000000000e+00    0,000000000e+00    0,000000000e+00
      184000000   -8,370409906e-02   -4,949568585e-02   -2,651022971e-01    7,507483363e-01    0,000000000e+00    0,000000000e+00    0,000000000e+00    0,000000000e+00
      198000000   -7,965327799e-02   -1,047659200e-02    1,835418195e-01    7,730036378e-01    0,000000000e+00    0,000000000e+00    0,000000000e+00    0,000000000e+00
      212000000   -6,228306144e-02    1,320190821e-02    5,691039562e-01    5,491074920e-01    0,000000000e+00    0,000000000e+00    0,000000000e+00    0,000000000e+00
      226000000   -4,329142720e-02    2,764477581e-02    7,706071138e-01    1,547115743e-01    0,000000000e+00    0,000000000e+00    0,000000000e+00    0,000000000e+00
      240000000   -1,821247302e-02    3,845757991e-02    7,268722653e-01   -2,818137407e-01    0,000000000e+00    0,000000000e+00    0,000000000e+00    0,000000000e+00
      254000000    1,720822975e-02    3,519769385e-02    4,579457343e-01   -6,200082898e-01    0,000000000e+00    0,000000000e+00    0,000000000e+00    0,000000000e+00
      268000000    4,875368252e-02    5,583838560e-03    5,868579447e-02   -7,604758739e-01    0,000000000e+00    0,000000000e+00    0,000000000e+00    0,000000000e+00
      282000000    5,346452445e-02   -4,171660915e-02   -3,492209315e-01   -6,719263196e-01    0,000000000e+00    0,000000000e+00    0,000000000e+00    0,000000000e+00
      296000000    2,400267310e-02   -7,960329205e-02   -6,520845890e-01   -3,854883015e-01    0,000000000e+00    0,000000000e+00    0,000000000e+00    0,000000000e+00
      310000000   -1,778148673e-02   -8,310806751e-02   -7,624608874e-01    1,965514570e-02    0,000000000e+00    0,000000000e+00    0,000000000e+00    0,000000000e+00
      324000000   -4,158201814e-02   -5,886248499e-02   -6,310606599e-01    4,304686785e-01    0,000000000e+00    0,000000000e+00    0,000000000e+00    0,000000000e+00
      338000000   -3,439842537e-02   -3,681836277e-02   -2,983817458e-01    7,012766004e-01    0,000000000e+00    0,000000000e+00    0,000000000e+00    0,000000000e+00
      352000000   -1,767801307e-02   -4,086934775e-02    1,250806004e-01    7,421573997e-01    0,000000000e+00    0,000000000e+00    0,000000000e+00    0,000000000e+00
      366000000   -1,930992119e-02   -6,204435229e-02    4,981997609e-01    5,551737547e-01    0,000000000e+00    0,000000000e+00    0,000000000e+00    0,000000000e+00
      380000000   -4,450964183e-02   -7,258684933e-02    7,128114104e-01    1,998708546e-01    0,000000000e+00    0,000000000e+00    0,000000000e+00    0,000000000e+00
      394000000   -7,067228109e-02   -5,789811164e-02    7,039442658e-01   -2,163377404e-01    0,000000000e+00    0,000000000e+00    0,000000000e+00    0,000000000e+00
      408000000   -7,694624364e-02   -3,032583185e-02    4,704822302e-01   -5,594641566e-01    0,000000000e+00    0,000000000e+00    0,000000000e+00    0,000000000e+00
      422000000   -6,532658637e-02   -1,129114069e-02    9,331638366e-02   -7,179155350e-01    0,000000000e+00    0,000000000e+00    0,000000000e+00    0,000000000e+00
      436000000   -5,260776356e-02   -4,383490887e-03   -3,018730283e-01   -6,474683881e-01    0,000000000e+00    0,000000000e+00    0,000000000e+00    0,000000000e+00
      450000000   -4,427873716e-02    1,574833877e-03   -5,922473073e-01   -3,784238994e-01    0,000000000e+00    0,000000000e+00    0,000000000e+00    0,000000000e+00
      464000000   -2,943907678e-02    1,144959312e-02   -6,909167171e-01   -5,041538388e-04    0,000000000e+00    0,000000000e+00    0,000000000e+00    0,000000000e+00
      478000000   -1,376942382e-03    1,104300935e-02   -5,733235478e-01    3,624347746e-01    0,000000000e+00    0,000000000e+00    0,000000000e+00    0,000000000e+00
      492000000    2,754097991e-02   -1,209918968e-02   -2,898682356e-01    6,019893289e-01    0,000000000e+00    0,000000000e+00    0,000000000e+00    0,000000000e+00
      506000000    3,634604812e-02   -5,576767772e-02    6,845057011e-02    6,583042145e-01    0,000000000e+00    0,000000000e+00    0,000000000e+00    0,000000000e+00
      520000000    1,202313602e-02   -9,898191690e-02    4,010199904e-01    5,217196941e-01    0,000000000e+00    0,000000000e+00    0,000000000e+00    0,000000000e+00
      534000000   -3,422291949e-02   -1,162694320e-01    6,235796809e-01    2,363426238e-01    0,000000000e+00    0,000000000e+00    0,000000000e+00    0,000000000e+00
      548000000   -7,715046406e-02   -9,953602403e-02    6,583328843e-01   -1,334822029e-01    0,000000000e+00    0,000000000e+00    0,000000000e+00    0,000000000e+00
      562000000   -9,299543500e-02   -6,621215492e-02    4,820525646e-01   -4,667499065e-01    0,000000000e+00    0,000000000e+00    0,000000000e+00    0,000000000e+00
      576000000   -8,631571382e-02   -4,457429424e-02    1,508465409e-01   -6,487989426e-01    0,000000000e+00    0,000000000e+00    0,000000000e+00    0,000000000e+00
      590000000   -8,079932630e-02   -4,160832241e-02   -2,218554169e-01   -6,262612343e-01    0,000000000e+00    0,000000000e+00    0,000000000e+00    0,000000000e+00
      604000000   -8,854597807e-02   -3,709880635e-02   -5,189850330e-01   -4,059422910e-01    0,000000000e+00    0,000000000e+00    0,000000000e+00    0,000000000e+00
      618000000   -9,649437666e-02   -1,547528803e-02   -6,527336836e-01   -5,896475539e-02    0,000000000e+00    0,000000000e+00    0,000000000e+00    0,000000000e+00
      632000000   -8,075009286e-02    1,522168517e-02   -5,753808618e-01    3,026473224e-01    0,000000000e+00    0,000000000e+00    0,000000000e+00    0,000000000e+00
      646000000   -4,308337718e-02    2,619878016e-02   -3,183312416e-01    5,555189252e-01    0,000000000e+00    0,000000000e+00    0,000000000e+00    0,000000000e+00
      660000000   -7,785751484e-03    6,494669244e-03    2,289583534e-02    6,300346851e-01    0,000000000e+00    0,000000000e+00    0,000000000e+00    0,000000000e+00
      674000000    6,870542420e-04   -2,970161662e-02    3,419777751e-01    5,186000466e-01    0,000000000e+00    0,000000000e+00    0,000000000e+00    0,000000000e+00
      688000000   -1,432422921e-02   -5,534196645e-02    5,582765341e-01    2,587199807e-01    0,000000000e+00    0,000000000e+00    0,000000000e+00    0,000000000e+00
      702000000   -3,369734064e-02   -5,888563767e-02    6,075305939e-01   -7,864694297e-02    0,000000000e+00    0,000000000e+00    0,000000000e+00    0,000000000e+00
      716000000   -3,683536127e-02   -5,623123050e-02    4,597443342e-01   -3,893394768e-01    0,000000000e+00    0,000000000e+00    0,000000000e+00    0,000000000e+00
      730000000   -3,253782168e-02   -6,517913938e-02    1,740481853e-01   -5,658890009e-01    0,000000000e+00    0,000000000e+00    0,000000000e+00    0,000000000e+00
      744000000   -3,980155289e-02   -8,855421096e-02   -1,531815380e-01   -5,640004873e-01    0,000000000e+00    0,000000000e+00    0,000000000e+00    0,000000000e+00
      758000000   -7,283989340e-02   -1,047046483e-01   -4,266669154e-01   -3,948331475e-01    0,000000000e+00    0,000000000e+00    0,000000000e+00    0,000000000e+00
      772000000   -1,143575087e-01   -9,442514926e-02   -5,741472244e-01   -1,063826829e-01    0,000000000e+00    0,000000000e+00    0,000000000e+00    0,000000000e+00
      786000000   -1,387029141e-01   -5,541719496e-02   -5,449193120e-01    2,204084098e-01    0,000000000e+00    0,000000000e+00    0,000000000e+00    0,000000000e+00
      800000000   -1,328487545e-01   -1,426783483e-02   -3,417552412e-01    4,792738855e-01    0,000000000e+00    0,000000000e+00    0,000000000e+00    0,000000000e+00
      814000000   -1,077637523e-01    8,155173622e-03   -3,443751857e-02    5,863371491e-01    0,000000000e+00    0,000000000e+00    0,000000000e+00    0,000000000e+00
      828000000   -8,579162508e-02    1,340514328e-02    2,780286670e-01    5,148057938e-01    0,000000000e+00    0,000000000e+00    0,000000000e+00    0,000000000e+00
      842000000   -7,099384815e-02    1,451553870e-02    5,023241639e-01    2,901109755e-01    0,000000000e+00    0,000000000e+00    0,000000000e+00    0,000000000e+00
      856000000   -5,264574662e-02    2,008230612e-02    5,709211826e-01   -1,769666374e-02    0,000000000e+00    0,000000000e+00    0,000000000e+00    0,000000000e+00
      870000000   -2,339227870e-02    1,430782024e-02    4,637453854e-01   -3,067472875e-01    0,000000000e+00    0,000000000e+00    0,000000000e+00    0,000000000e+00
      884000000    6,242514588e-03   -1,415749453e-02    2,304798663e-01   -4,871963561e-01    0,000000000e+00    0,000000000e+00    0,000000000e+00    0,000000000e+00
      898000000    1,160527952e-02   -6,343548745e-02   -5,228810757e-02   -5,258579254e-01    0,000000000e+00    0,000000000e+00    0,000000000e+00    0,000000000e+00
      912000000   -2,317133546e-02   -1,092375442e-01   -3,530803621e-01   -4,002081752e-01    0,000000000e+00    0,000000000e+00    0,000000000e+00    0,000000000e+00
      926000000   -7,558229566e-02   -1,232282743e-01   -5,296493173e-01   -1,558327973e-01    0,000000000e+00    0,000000000e+00    0,000000000e+00    0,000000000e+00
      940000000   -1,215352267e-01   -1,043153480e-01   -5,533260107e-01    1,561138034e-01    0,000000000e+00    0,000000000e+00    0,000000000e+00    0,000000000e+00
      954000000   -1,398872882e-01   -6,162713468e-02   -3,926413357e-01    4,473377466e-01    0,000000000e+00    0,000000000e+00    0,000000000e+00    0,000000000e+00
      968000000   -1,298368126e-01   -2,657773346e-02   -9,117648005e-02    6,047071218e-01    0,000000000e+00    0,000000000e+00    0,000000000e+00    0,000000000e+00
      982000000   -1,147290543e-01   -1,370111108e-02    2,482073158e-01    5,724112988e-01    0,000000000e+00    0,000000000e+00    0,000000000e+00    0,000000000e+00
      996000000   -1,085019782e-01   -1,098638214e-02    5,128810406e-01    3,669825494e-01    0,000000000e+00    0,000000000e+00    0,000000000e+00    0,000000000e+00
     1010000000   -1,002386287e-01   -7,611754816e-03    6,286762357e-01    5,313644558e-02    0,000000000e+00    0,000000000e+00    0,000000000e+00    0,000000000e+00
     1024000000   -9,220670164e-02   -2,956916578e-03    5,634117126e-01   -2,696545720e-01    0,000000000e+00    0,000000000e+00    0,000000000e+00    0,000000000e+00
     1038000000   -7,812008262e-02    7,016123855e-04    3,374612033e-01   -5,041378736e-01    0,000000000e+00    0,000000000e+00    0,000000000e+00    0,000000000e+00
     1052000000   -6,863665581e-02   -1,858530007e-02    3,441128507e-02   -5,850790143e-01    0,000000000e+00    0,000000000e+00    0,000000000e+00    0,000000000e+00
     1066000000   -7,180950791e-02   -3,255616501e-02   -2,696084082e-01   -5,017958283e-01    0,000000000e+00    0,000000000e+00    0,000000000e+00    0,000000000e+00
     1080000000   -8,045375347e-02   -3,418394178e-02   -4,802378416e-01   -2,714754939e-01    0,000000000e+00    0,000000000e+00    0,000000000e+00    0,000000000e+00
     1094000000   -8,372391015e-02   -1,720257476e-02   -5,331310630e-01    4,389087111e-02    0,000000000e+00    0,000000000e+00    0,000000000e+00    0,000000000e+00
     1108000000   -5,785006657e-02   -8,630596101e-03   -3,983050585e-01    3,264751434e-01    0,000000000e+00    0,000000000e+00    0,000000000e+00    0,000000000e+00
     1122000000   -3,009748086e-02   -3,779217601e-02   -1,380315423e-01    4,801546633e-01    0,000000000e+00    0,000000000e+00    0,000000000e+00    0,000000000e+00
     1136000000   -2,600005828e-02   -8,658095449e-02    1,628884673e-01    4,719008505e-01    0,000000000e+00    0,000000000e+00    0,000000000e+00    0,000000000e+00
     1150000000   -6,856492162e-02   -1,358914226e-01    4,205750227e-01    3,124167323e-01    0,000000000e+00    0,000000000e+00    0,000000000e+00    0,000000000e+00
     1164000000   -1,349324584e-01   -1,502884328e-01    5,624993443e-01    2,954537980e-02    0,000000000e+00    0,000000000e+00    0,000000000e+00    0,000000000e+00
     1178000000   -2,113661021e-01   -1,217460334e-01    5,332720876e-01   -3,136859238e-01    0,000000000e+00    0,000000000e+00    0,000000000e+00    0,000000000e+00
     1192000000   -2,455848008e-01   -4,404430464e-02    2,993729413e-01   -6,022280455e-01    0,000000000e+00    0,000000000e+00    0,000000000e+00    0,000000000e+00
     1206000000   -2,316743284e-01    3,706235439e-02   -6,745825708e-02   -6,956199408e-01    0,000000000e+00    0,000000000e+00    0,000000000e+00    0,000000000e+00
     1220000000   -1,826676726e-01    8,188483864e-02   -4,188695252e-01   -5,836860538e-01    0,000000000e+00    0,000000000e+00    0,000000000e+00    0,000000000e+00
     1234000000   -1,243900806e-01    1,067532226e-01   -6,458883882e-01   -2,902582884e-01    0,000000000e+00    0,000000000e+00    0,000000000e+00    0,000000000e+00
     1248000000   -6,521853805e-02    9,354744852e-02   -6,731591821e-01    6,396368891e-02    0,000000000e+00    0,000000000e+00    0,000000000e+00    0,000000000e+00
     1262000000   -8,811193518e-03    6,418255717e-02   -5,184068680e-01    3,739209771e-01    0,000000000e+00    0,000000000e+00    0,000000000e+00    0,000000000e+00
     1276000000    2,302836813e-02    4,009507538e-04   -2,441921234e-01    5,473674536e-01    0,000000000e+00    0,000000000e+00    0,000000000e+00    0,000000000e+00
     1290000000    1,777003147e-02   -8,716471493e-02    6,825333834e-02    5,797579885e-01    0,000000000e+00    0,000000000e+00    0,000000000e+00    0,000000000e+00
     1304000000   -2,965659089e-02   -1,706927717e-01    3,669227958e-01    4,638867080e-01    0,000000000e+00    0,000000000e+00    0,000000000e+00    0,000000000e+00
     1318000000   -1,338072270e-01   -2,165615559e-01    5,883206725e-01    2,171498090e-01    0,000000000e+00    0,000000000e+00    0,000000000e+00    0,000000000e+00
     1332000000   -2,505781353e-01   -1,902663112e-01    6,575683355e-01   -1,284929961e-01    0,000000000e+00    0,000000000e+00    0,000000000e+00    0,000000000e+00
     1346000000   -3,318337798e-01   -8,719081432e-02    5,094454885e-01   -4,563208818e-01    0,000000000e+00    0,000000000e+00    0,000000000e+00    0,000000000e+00
     1360000000   -3,339570165e-01    2,102679759e-02    1,921315193e-01   -6,514386535e-01    0,000000000e+00    0,000000000e+00    0,000000000e+00    0,000000000e+00
     1374000000   -2,829537094e-01    1,086785793e-01   -1,631864607e-01   -5,987232327e-01    0,000000000e+00    0,000000000e+00    0,000000000e+00    0,000000000e+00
     1388000000   -2,142824978e-01    1,389936954e-01   -4,029097557e-01   -3,682098389e-01    0,000000000e+00    0,000000000e+00    0,000000000e+00    0,000000000e+00
     1402000000   -1,535928994e-01    1,398292929e-01   -4,847777486e-01   -4,651140049e-02    0,000000000e+00    0,000000000e+00    0,000000000e+00    0,000000000e+00
     1416000000   -9,510907531e-02    1,217042804e-01   -3,804623485e-01    2,488107830e-01    0,000000000e+00    0,000000000e+00    0,000000000e+00    0,000000000e+00
     1430000000   -5,806370452e-02    7,336757332e-02   -1,210085526e-01    4,601821005e-01    0,000000000e+00    0,000000000e+00    0,000000000e+00    0,000000000e+00
     1444000000   -3,532610461e-02    3,155445214e-03    1,724671572e-01    5,248536468e-01    0,000000000e+00    0,000000000e+00    0,000000000e+00    0,000000000e+00
     1458000000   -6,560672820e-02   -7,073330879e-02    4,727734625e-01    4,701232016e-01    0,000000000e+00    0,000000000e+00    0,000000000e+00    0,000000000e+00
     1472000000   -1,424109787e-01   -1,251752526e-01    7,596123815e-01    2,571515143e-01    0,000000000e+00    0,000000000e+00    0,000000000e+00    0,000000000e+00
     1486000000   -2,310144901e-01   -1,126186550e-01    8,741610646e-01   -8,430372179e-02    0,000000000e+00    0,000000000e+00    0,000000000e+00    0,000000000e+00
     1500000000   -2,939612567e-01   -4,264960438e-02    7,995907664e-01   -4,501500726e-01    0,000000000e+00    0,000000000e+00    0,000000000e+00    0,000000000e+00
