! NanoVNA-App
! Date: 2025-09-25 15:04:40
! Start: 100MHz Stop: 1,5GHz Points: 101
! S-Parameter data: F S11 S21 S12 S22
# Hz S RI R 50
!     Frequency           S11_Real           S11_Imag           S21_Real           S21_Imag           S12_Real           S12_Imag           S22_Real           S22_Imag
      100000000    3,111412190e-02    2,861316502e-02    4,348116219e-01   -6,687017083e-01    0,000000000e+00    0,000000000e+00    0,000000000e+00    0,000000000e+00
      114000000    5,753027648e-02    5,513044074e-03    7,729958277e-03   -7,910178900e-01    0,000000000e+00    0,000000000e+00    0,000000000e+00    0,000000000e+00
      128000000    6,717530638e-02   -3,776148707e-02   -4,104370177e-01   -6,711146235e-01    0,000000000e+00    0,000000000e+00    0,000000000e+00    0,000000000e+00
      142000000    4,466433078e-02   -8,410167694e-02   -7,031214833e-01   -3,532079160e-01    0,000000000e+00    0,000000000e+00    0,000000000e+00    0,000000000e+00
      156000000   -5,465706345e-03   -1,063386425e-01   -7,871943116e-01    7,326791435e-02    0,000000000e+00    0,000000000e+00    0,000000000e+00    0,000000000e+00
      170000000   -5,756531283e-02   -9,058510512e-02   -6,276596785e-01    4,871282578e-01    0,000000000e+00    0,000000000e+00    0,000000000e+00    0,000000000e+00
      184000000   -8,362004161e-02   -4,945457727e-02   -2,646645904e-01    7,511019707e-01    0,000000000e+00    0,000000000e+00    0,000000000e+00    0,000000000e+00
      198000000   -7,955127954e-02   -1,047958620e-02    1,834465414e-01    7,730884552e-01    0,000000000e+00    0,000000000e+00    0,000000000e+00    0,000000000e+00
      212000000   -6,224092096e-02    1,311109308e-02    5,697256327e-01    5,491392612e-01    0,000000000e+00    0,000000000e+00    0,000000000e+00    0,000000000e+00
      226000000   -4,318806902e-02    2,759378031e-02    7,707135081e-01    1,542873681e-01    0,000000000e+00    0,000000000e+00    0,000000000e+00    0,000000000e+00
      240000000   -1,815426908e-02    3,841628879e-02    7,266828418e-01   -2,821143568e-01    0,000000000e+00    0,000000000e+00    0,000000000e+00    0,000000000e+00
      254000000    1,713054441e-02    3,507390991e-02    4,578893781e-01   -6,204509735e-01    0,000000000e+00    0,000000000e+00    0,000000000e+00    0,000000000e+00
      268000000    4,868421704e-02    5,490921438e-03    5,862813070e-02   -7,600905299e-01    0,000000000e+00    0,000000000e+00    0,000000000e+00    0,000000000e+00
      282000000    5,327836424e-02   -4,176138341e-02   -3,487895131e-01   -6,714156270e-01    0,000000000e+00    0,000000000e+00    0,000000000e+00    0,000000000e+00
      296000000    2,398853190e-02   -7,937282324e-02   -6,517516971e-01   -3,850975931e-01    0,000000000e+00    0,000000000e+00    0,000000000e+00    0,000000000e+00
      310000000   -1,791838184e-02   -8,307950199e-02   -7,626297474e-01    2,004138939e-02    0,000000000e+00    0,000000000e+00    0,000000000e+00    0,000000000e+00
      324000000   -4,190785065e-02   -5,891974643e-02   -6,319192648e-01    4,312263727e-01    0,000000000e+00    0,000000000e+00    0,000000000e+00    0,000000000e+00
      338000000   -3,438179940e-02   -3,695556149e-02   -2,945659161e-01    7,002055645e-01    0,000000000e+00    0,000000000e+00    0,000000000e+00    0,000000000e+00
      352000000   -1,731861942e-02   -4,078586400e-02    1,259015948e-01    7,413021326e-01    0,000000000e+00    0,000000000e+00    0,000000000e+00    0,000000000e+00
      366000000   -1,902386360e-02   -6,209257245e-02    4,984112382e-01    5,536584258e-01    0,000000000e+00    0,000000000e+00    0,000000000e+00    0,000000000e+00
      380000000   -4,454302415e-02   -7,257225364e-02    7,134109735e-01    1,995087266e-01    0,000000000e+00    0,000000000e+00    0,000000000e+00    0,000000000e+00
      394000000   -7,091145962e-02   -5,821840465e-02    7,039543390e-01   -2,168152928e-01    0,000000000e+00    0,000000000e+00    0,000000000e+00    0,000000000e+00
      408000000   -7,706634700e-02   -3,028188087e-02    4,704580903e-01   -5,588350892e-01    0,000000000e+00    0,000000000e+00    0,000000000e+00    0,000000000e+00
      422000000   -6,552950293e-02   -1,146302186e-02    9,326802194e-02   -7,180760503e-01    0,000000000e+00    0,000000000e+00    0,000000000e+00    0,000000000e+00
      436000000   -5,317633599e-02   -4,482861143e-03   -3,019950688e-01   -6,473073959e-01    0,000000000e+00    0,000000000e+00    0,000000000e+00    0,000000000e+00
      450000000   -4,482208565e-02    1,734739984e-03   -5,933632255e-01   -3,777819872e-01    0,000000000e+00    0,000000000e+00    0,000000000e+00    0,000000000e+00
      464000000   -2,924479730e-02    1,154894568e-02   -6,909843683e-01    6,585312658e-04    0,000000000e+00    0,000000000e+00    0,000000000e+00    0,000000000e+00
      478000000   -1,039413270e-03    1,102352701e-02   -5,726630092e-01    3,632843494e-01    0,000000000e+00    0,000000000e+00    0,000000000e+00    0,000000000e+00
      492000000    2,816002071e-02   -1,250733901e-02   -2,882806957e-01    6,016017199e-01    0,000000000e+00    0,000000000e+00    0,000000000e+00    0,000000000e+00
      506000000    3,662532568e-02   -5,654288828e-02    6,920178235e-02    6,582156420e-01    0,000000000e+00    0,000000000e+00    0,000000000e+00    0,000000000e+00
      520000000    1,171645429e-02   -9,896181524e-02    4,035370052e-01    5,247774124e-01    0,000000000e+00    0,000000000e+00    0,000000000e+00    0,000000000e+00
      534000000   -3,462715074e-02   -1,160121411e-01    6,238831878e-01    2,356227338e-01    0,000000000e+00    0,000000000e+00    0,000000000e+00    0,000000000e+00
      548000000   -7,710140198e-02   -9,845659137e-02    6,575921774e-01   -1,328894347e-01    0,000000000e+00    0,000000000e+00    0,000000000e+00    0,000000000e+00
      562000000   -9,336865693e-02   -6,581463665e-02    4,817336500e-01   -4,664259553e-01    0,000000000e+00    0,000000000e+00    0,000000000e+00    0,000000000e+00
      576000000   -8,614662290e-02   -4,461889714e-02    1,504925638e-01   -6,478328109e-01    0,000000000e+00    0,000000000e+00    0,000000000e+00    0,000000000e+00
      590000000   -8,082713932e-02   -4,185039550e-02   -2,195706666e-01   -6,266927123e-01    0,000000000e+00    0,000000000e+00    0,000000000e+00    0,000000000e+00
      604000000   -8,913958073e-02   -3,718577698e-02   -5,198483467e-01   -4,062805772e-01    0,000000000e+00    0,000000000e+00    0,000000000e+00    0,000000000e+00
      618000000   -9,659489244e-02   -1,536623295e-02   -6,536487937e-01   -5,827087909e-02    0,000000000e+00    0,000000000e+00    0,000000000e+00    0,000000000e+00
      632000000   -8,153858781e-02    1,542816032e-02   -5,757039189e-01    3,030160666e-01    0,000000000e+00    0,000000000e+00    0,000000000e+00    0,000000000e+00
      646000000   -4,253552482e-02    2,722412348e-02   -3,189049661e-01    5,567102432e-01    0,000000000e+00    0,000000000e+00    0,000000000e+00    0,000000000e+00
      660000000   -7,738204673e-03    6,604530383e-03    2,226050943e-02    6,302353144e-01    0,000000000e+00    0,000000000e+00    0,000000000e+00    0,000000000e+00
      674000000    1,182234962e-03   -2,968313731e-02    3,425998092e-01    5,183276534e-01    0,000000000e+00    0,000000000e+00    0,000000000e+00    0,000000000e+00
      688000000   -1,515867654e-02   -5,579576269e-02    5,588269234e-01    2,580684125e-01    0,000000000e+00    0,000000000e+00    0,000000000e+00    0,000000000e+00
      702000000   -3,341997415e-02   -6,013025343e-02    6,063936949e-01   -7,843434811e-02    0,000000000e+00    0,000000000e+00    0,000000000e+00    0,000000000e+00
      716000000   -3,753893077e-02   -5,563578755e-02    4,597343504e-01   -3,903184533e-01    0,000000000e+00    0,000000000e+00    0,000000000e+00    0,000000000e+00
      730000000   -3,295230865e-02   -6,508877128e-02    1,732609421e-01   -5,667262673e-01    0,000000000e+00    0,000000000e+00    0,000000000e+00    0,000000000e+00
      744000000   -4,026347399e-02   -8,790689707e-02   -1,539278924e-01   -5,641695261e-01    0,000000000e+00    0,000000000e+00    0,000000000e+00    0,000000000e+00
      758000000   -7,308464497e-02   -1,037888229e-01   -4,284685850e-01   -3,943191171e-01    0,000000000e+00    0,000000000e+00    0,000000000e+00    0,000000000e+00
      772000000   -1,132580489e-01   -9,301378578e-02   -5,742035508e-01   -1,051919460e-01    0,000000000e+00    0,000000000e+00    0,000000000e+00    0,000000000e+00
      786000000   -1,382194608e-01   -5,601400137e-02   -5,438094735e-01    2,217048705e-01    0,000000000e+00    0,000000000e+00    0,000000000e+00    0,000000000e+00
      800000000   -1,313179731e-01   -1,494280715e-02   -3,415360451e-01    4,798279405e-01    0,000000000e+00    0,000000000e+00    0,000000000e+00    0,000000000e+00
      814000000   -1,069082767e-01    7,675373461e-03   -3,304510936e-02    5,857156515e-01    0,000000000e+00    0,000000000e+00    0,000000000e+00    0,000000000e+00
      828000000   -8,546978235e-02    1,176144648e-02    2,788036466e-01    5,149925351e-01    0,000000000e+00    0,000000000e+00    0,000000000e+00    0,000000000e+00
      842000000   -7,114443928e-02    1,429984439e-02    5,019609332e-01    2,894057035e-01    0,000000000e+00    0,000000000e+00    0,000000000e+00    0,000000000e+00
      856000000   -5,381325260e-02    1,849698834e-02    5,704032183e-01   -1,806974411e-02    0,000000000e+00    0,000000000e+00    0,000000000e+00    0,000000000e+00
      870000000   -2,385243028e-02    1,429020148e-02    4,641584158e-01   -3,071239889e-01    0,000000000e+00    0,000000000e+00    0,000000000e+00    0,000000000e+00
      884000000    4,902215675e-03   -1,371646486e-02    2,305529565e-01   -4,884403050e-01    0,000000000e+00    0,000000000e+00    0,000000000e+00    0,000000000e+00
      898000000    1,170289144e-02   -6,256270409e-02   -5,229991674e-02   -5,281587243e-01    0,000000000e+00    0,000000000e+00    0,000000000e+00    0,000000000e+00
      912000000   -2,405245043e-02   -1,076124087e-01   -3,530004323e-01   -4,040068388e-01    0,000000000e+00    0,000000000e+00    0,000000000e+00    0,000000000e+00
      926000000   -7,255390286e-02   -1,229095832e-01   -5,291123390e-01   -1,566267163e-01    0,000000000e+00    0,000000000e+00    0,000000000e+00    0,000000000e+00
      940000000   -1,220926940e-01   -1,003416404e-01   -5,502851605e-01    1,559948176e-01    0,000000000e+00    0,000000000e+00    0,000000000e+00    0,000000000e+00
      954000000   -1,427682191e-01   -5,812240019e-02   -3,926864266e-01    4,470809996e-01    0,000000000e+00    0,000000000e+00    0,000000000e+00    0,000000000e+00
      968000000   -1,291539222e-01   -2,939430997e-02   -9,038513154e-02    6,032527089e-01    0,000000000e+00    0,000000000e+00    0,000000000e+00    0,000000000e+00
      982000000   -1,174081564e-01   -1,875059865e-02    2,453661561e-01    5,721040368e-01    0,000000000e+00    0,000000000e+00    0,000000000e+00    0,000000000e+00
      996000000   -1,069830507e-01   -1,201643981e-02    5,141628385e-01    3,661350906e-01    0,000000000e+00    0,000000000e+00    0,000000000e+00    0,000000000e+00
     1010000000   -1,028606892e-01   -1,051382720e-02    6,312990785e-01    5,102524534e-02    0,000000000e+00    0,000000000e+00    0,000000000e+00    0,000000000e+00
     1024000000   -8,865363896e-02    8,446646389e-04    5,628176928e-01   -2,737184167e-01    0,000000000e+00    0,000000000e+00    0,000000000e+00    0,000000000e+00
     1038000000   -7,708401978e-02   -2,793350955e-03    3,355050087e-01   -5,044912100e-01    0,000000000e+00    0,000000000e+00    0,000000000e+00    0,000000000e+00
     1052000000   -6,303400546e-02   -1,904077455e-02    3,198322281e-02   -5,857063532e-01    0,000000000e+00    0,000000000e+00    0,000000000e+00    0,000000000e+00
     1066000000   -6,494943798e-02   -3,278596327e-02   -2,747845352e-01   -4,975779653e-01    0,000000000e+00    0,000000000e+00    0,000000000e+00    0,000000000e+00
     1080000000   -8,451833576e-02   -3,308523819e-02   -4,819937050e-01   -2,668946087e-01    0,000000000e+00    0,000000000e+00    0,000000000e+00    0,000000000e+00
     1094000000   -8,058038354e-02   -2,055288851e-02   -5,325170159e-01    4,474284500e-02    0,000000000e+00    0,000000000e+00    0,000000000e+00    0,000000000e+00
     1108000000   -5,829378217e-02   -1,447245385e-02   -3,957347274e-01    3,275034726e-01    0,000000000e+00    0,000000000e+00    0,000000000e+00    0,000000000e+00
     1122000000   -2,967975102e-02   -3,442065790e-02   -1,313210577e-01    4,817371368e-01    0,000000000e+00    0,000000000e+00    0,000000000e+00    0,000000000e+00
     1136000000   -3,017717786e-02   -8,634307981e-02    1,643783301e-01    4,681399167e-01    0,000000000e+00    0,000000000e+00    0,000000000e+00    0,000000000e+00
     1150000000   -6,746742874e-02   -1,326358318e-01    4,181504250e-01    3,058420122e-01    0,000000000e+00    0,000000000e+00    0,000000000e+00    0,000000000e+00
     1164000000   -1,324399561e-01   -1,500907242e-01    5,598362684e-01    2,576465532e-02    0,000000000e+00    0,000000000e+00    0,000000000e+00    0,000000000e+00
     1178000000   -2,096793056e-01   -1,194115579e-01    5,278640389e-01   -3,133941293e-01    0,000000000e+00    0,000000000e+00    0,000000000e+00    0,000000000e+00
     1192000000   -2,489891797e-01   -4,204964265e-02    2,962124944e-01   -5,976907611e-01    0,000000000e+00    0,000000000e+00    0,000000000e+00    0,000000000e+00
     1206000000   -2,338646203e-01    3,386361152e-02   -6,532903016e-02   -6,938980818e-01    0,000000000e+00    0,000000000e+00    0,000000000e+00    0,000000000e+00
     1220000000   -1,838032007e-01    8,475840092e-02   -4,181779325e-01   -5,780998468e-01    0,000000000e+00    0,000000000e+00    0,000000000e+00    0,000000000e+00
     1234000000   -1,278298348e-01    1,078729406e-01   -6,454369426e-01   -2,868162394e-01    0,000000000e+00    0,000000000e+00    0,000000000e+00    0,000000000e+00
     1248000000   -6,635223329e-02    9,707488120e-02   -6,699455976e-01    6,445853412e-02    0,000000000e+00    0,000000000e+00    0,000000000e+00    0,000000000e+00
     1262000000   -1,459917333e-02    6,294636428e-02   -5,135472417e-01    3,673902154e-01    0,000000000e+00    0,000000000e+00    0,000000000e+00    0,000000000e+00
     1276000000    2,333774976e-02   -1,938916859e-03   -2,472081631e-01    5,381214619e-01    0,000000000e+00    0,000000000e+00    0,000000000e+00    0,000000000e+00
     1290000000    2,028891258e-02   -8,374799043e-02    6,659086794e-02    5,733640194e-01    0,000000000e+00    0,000000000e+00    0,000000000e+00    0,000000000e+00
     1304000000   -2,840759046e-02   -1,670122743e-01    3,572302759e-01    4,641915560e-01    0,000000000e+00    0,000000000e+00    0,000000000e+00    0,000000000e+00
     1318000000   -1,323947161e-01   -2,199541330e-01    5,802806020e-01    2,150401473e-01    0,000000000e+00    0,000000000e+00    0,000000000e+00    0,000000000e+00
     1332000000   -2,490468025e-01   -1,891553402e-01    6,472734809e-01   -1,220035404e-01    0,000000000e+00    0,000000000e+00    0,000000000e+00    0,000000000e+00
     1346000000   -3,327798545e-01   -9,929058701e-02    5,147798061e-01   -4,582335651e-01    0,000000000e+00    0,000000000e+00    0,000000000e+00    0,000000000e+00
     1360000000   -3,335355222e-01    2,333883382e-02    1,925164461e-01   -6,477107406e-01    0,000000000e+00    0,000000000e+00    0,000000000e+00    0,000000000e+00
     1374000000   -2,807370722e-01    1,017403081e-01   -1,519928724e-01   -5,971521139e-01    0,000000000e+00    0,000000000e+00    0,000000000e+00    0,000000000e+00
     1388000000   -2,133736014e-01    1,379299909e-01   -3,960696757e-01   -3,716646731e-01    0,000000000e+00    0,000000000e+00    0,000000000e+00    0,000000000e+00
     1402000000   -1,588433385e-01    1,404401064e-01   -4,866171777e-01   -6,834053993e-02    0,000000000e+00    0,000000000e+00    0,000000000e+00    0,000000000e+00
     1416000000   -9,879260510e-02    1,133509129e-01   -3,737015426e-01    2,365809530e-01    0,000000000e+00    0,000000000e+00    0,000000000e+00    0,000000000e+00
     1430000000   -5,385965481e-02    7,576823980e-02   -1,509131938e-01    4,521316290e-01    0,000000000e+00    0,000000000e+00    0,000000000e+00    0,000000000e+00
     1444000000   -3,363458812e-02    1,438662293e-03    1,635751724e-01    5,258374214e-01    0,000000000e+00    0,000000000e+00    0,000000000e+00    0,000000000e+00
     1458000000   -6,060142815e-02   -7,436167449e-02    4,916349053e-01    4,776088297e-01    0,000000000e+00    0,000000000e+00    0,000000000e+00    0,000000000e+00
     1472000000   -1,383984685e-01   -1,295379549e-01    7,501056194e-01    2,565079927e-01    0,000000000e+00    0,000000000e+00    0,000000000e+00    0,000000000e+00
     1486000000   -2,230495512e-01   -1,232460588e-01    8,964633942e-01   -8,496136963e-02    0,000000000e+00    0,000000000e+00    0,000000000e+00    0,000000000e+00
     1500000000   -2,939582169e-01   -4,790290073e-02    8,027852178e-01   -4,554232955e-01    0,000000000e+00    0,000000000e+00    0,000000000e+00    0,000000000e+00
