! NanoVNA-App
! Date: 2025-09-25 15:08:03
! Start: 100MHz Stop: 1,5GHz Points: 101
! S-Parameter data: F S11 S21 S12 S22
# Hz S RI R 50
!     Frequency           S11_Real           S11_Imag           S21_Real           S21_Imag           S12_Real           S12_Imag           S22_Real           S22_Imag
      100000000    3,114524856e-02    2,865102328e-02    4,348699749e-01   -6,686493158e-01    0,000000000e+00    0,000000000e+00    0,000000000e+00    0,000000000e+00
      114000000    5,759316310e-02    5,507378839e-03    7,740486879e-03   -7,908999920e-01    0,000000000e+00    0,000000000e+00    0,000000000e+00    0,000000000e+00
      128000000    6,729166955e-02   -3,781858087e-02   -4,101358354e-01   -6,709102392e-01    0,000000000e+00    0,000000000e+00    0,000000000e+00    0,000000000e+00
      142000000    4,470747709e-02   -8,423253894e-02   -7,030323148e-01   -3,532629311e-01    0,000000000e+00    0,000000000e+00    0,000000000e+00    0,000000000e+00
      156000000   -5,849053152e-03   -1,068108082e-01   -7,866821885e-01    7,394017279e-02    0,000000000e+00    0,000000000e+00    0,000000000e+00    0,000000000e+00
      170000000   -5,765655637e-02   -9,056700021e-02   -6,277092099e-01    4,870839417e-01    0,000000000e+00    0,000000000e+00    0,000000000e+00    0,000000000e+00
      184000000   -8,368138969e-02   -4,946563765e-02   -2,650660872e-01    7,512937188e-01    0,000000000e+00    0,000000000e+00    0,000000000e+00    0,000000000e+00
      198000000   -7,961819321e-02   -1,044875383e-02    1,835290641e-01    7,733103633e-01    0,000000000e+00    0,000000000e+00    0,000000000e+00    0,000000000e+00
      212000000   -6,226705015e-02    1,320185605e-02    5,693695545e-01    5,490681529e-01    0,000000000e+00    0,000000000e+00    0,000000000e+00    0,000000000e+00
      226000000   -4,330255836e-02    2,772702836e-02    7,708327770e-01    1,545012146e-01    0,000000000e+00    0,000000000e+00    0,000000000e+00    0,000000000e+00
      240000000   -1,819349080e-02    3,846044466e-02    7,267598510e-01   -2,820650339e-01    0,000000000e+00    0,000000000e+00    0,000000000e+00    0,000000000e+00
      254000000    1,721750014e-02    3,519627452e-02    4,578392208e-01   -6,203256845e-01    0,000000000e+00    0,000000000e+00    0,000000000e+00    0,000000000e+00
      268000000    4,877126589e-02    5,607725587e-03    5,854358897e-02   -7,604112625e-01    0,000000000e+00    0,000000000e+00    0,000000000e+00    0,000000000e+00
      282000000    5,340850353e-02   -4,182362929e-02   -3,488316238e-01   -6,713890433e-01    0,000000000e+00    0,000000000e+00    0,000000000e+00    0,000000000e+00
      296000000    2,400999516e-02   -7,951769233e-02   -6,521968842e-01   -3,852813840e-01    0,000000000e+00    0,000000000e+00    0,000000000e+00    0,000000000e+00
      310000000   -1,770021394e-02   -8,325568587e-02   -7,631306052e-01    2,102353424e-02    0,000000000e+00    0,000000000e+00    0,000000000e+00    0,000000000e+00
      324000000   -4,161512479e-02   -5,885884538e-02   -6,319133043e-01    4,313361049e-01    0,000000000e+00    0,000000000e+00    0,000000000e+00    0,000000000e+00
      338000000   -3,414359316e-02   -3,664031625e-02   -2,977178991e-01    6,988682151e-01    0,000000000e+00    0,000000000e+00    0,000000000e+00    0,000000000e+00
      352000000   -1,735405065e-02   -4,062921554e-02    1,258154064e-01    7,427021265e-01    0,000000000e+00    0,000000000e+00    0,000000000e+00    0,000000000e+00
      366000000   -1,956690475e-02   -6,208574027e-02    4,981092215e-01    5,545275211e-01    0,000000000e+00    0,000000000e+00    0,000000000e+00    0,000000000e+00
      380000000   -4,434745759e-02   -7,295782119e-02    7,137368321e-01    1,993571967e-01    0,000000000e+00    0,000000000e+00    0,000000000e+00    0,000000000e+00
      394000000   -7,089813799e-02   -5,805613101e-02    7,037805915e-01   -2,163534015e-01    0,000000000e+00    0,000000000e+00    0,000000000e+00    0,000000000e+00
      408000000   -7,690419257e-02   -3,041400760e-02    4,709714353e-01   -5,595592260e-01    0,000000000e+00    0,000000000e+00    0,000000000e+00    0,000000000e+00
      422000000   -6,557506323e-02   -1,108733844e-02    9,254949540e-02   -7,172037959e-01    0,000000000e+00    0,000000000e+00    0,000000000e+00    0,000000000e+00
      436000000   -5,310328305e-02   -4,556023050e-03   -3,022903502e-01   -6,474409699e-01    0,000000000e+00    0,000000000e+00    0,000000000e+00    0,000000000e+00
      450000000   -4,430321231e-02    1,469002687e-03   -5,929321647e-01   -3,778639436e-01    0,000000000e+00    0,000000000e+00    0,000000000e+00    0,000000000e+00
      464000000   -2,912170440e-02    1,154812891e-02   -6,913542747e-01    1,946708653e-04    0,000000000e+00    0,000000000e+00    0,000000000e+00    0,000000000e+00
      478000000   -1,222266466e-03    1,141947135e-02   -5,732483268e-01    3,634685874e-01    0,000000000e+00    0,000000000e+00    0,000000000e+00    0,000000000e+00
      492000000    2,778090350e-02   -1,263427734e-02   -2,897389829e-01    6,021031141e-01    0,000000000e+00    0,000000000e+00    0,000000000e+00    0,000000000e+00
      506000000    3,673937917e-02   -5,577181280e-02    7,000157237e-02    6,584343314e-01    0,000000000e+00    0,000000000e+00    0,000000000e+00    0,000000000e+00
      520000000    1,283438504e-02   -9,858424962e-02    4,037615955e-01    5,280664563e-01    0,000000000e+00    0,000000000e+00    0,000000000e+00    0,000000000e+00
      534000000   -3,405556455e-02   -1,158395708e-01    6,242899299e-01    2,363411635e-01    0,000000000e+00    0,000000000e+00    0,000000000e+00    0,000000000e+00
      548000000   -7,721868157e-02   -9,938490391e-02    6,585398912e-01   -1,336279064e-01    0,000000000e+00    0,000000000e+00    0,000000000e+00    0,000000000e+00
      562000000   -9,306214005e-02   -6,577111781e-02    4,819018841e-01   -4,665044546e-01    0,000000000e+00    0,000000000e+00    0,000000000e+00    0,000000000e+00
      576000000   -8,630899340e-02   -4,432364181e-02    1,508504897e-01   -6,475970149e-01    0,000000000e+00    0,000000000e+00    0,000000000e+00    0,000000000e+00
      590000000   -8,069840074e-02   -4,180084541e-02   -2,185574323e-01   -6,279165745e-01    0,000000000e+00    0,000000000e+00    0,000000000e+00    0,000000000e+00
      604000000   -8,857134730e-02   -3,706088290e-02   -5,190148354e-01   -4,062856734e-01    0,000000000e+00    0,000000000e+00    0,000000000e+00    0,000000000e+00
      618000000   -9,666161239e-02   -1,549239457e-02   -6,533066034e-01   -5,859133229e-02    0,000000000e+00    0,000000000e+00    0,000000000e+00    0,000000000e+00
      632000000   -8,068419248e-02    1,489827130e-02   -5,753300786e-01    3,029443622e-01    0,000000000e+00    0,000000000e+00    0,000000000e+00    0,000000000e+00
      646000000   -4,316442087e-02    2,643949725e-02   -3,184984326e-01    5,563753843e-01    0,000000000e+00    0,000000000e+00    0,000000000e+00    0,000000000e+00
      660000000   -8,526166901e-03    6,024642382e-03    2,122993208e-02    6,296946406e-01    0,000000000e+00    0,000000000e+00    0,000000000e+00    0,000000000e+00
      674000000    1,076999470e-03   -3,055103868e-02    3,422653079e-01    5,183382034e-01    0,000000000e+00    0,000000000e+00    0,000000000e+00    0,000000000e+00
      688000000   -1,495315600e-02   -5,501706526e-02    5,585857034e-01    2,582407892e-01    0,000000000e+00    0,000000000e+00    0,000000000e+00    0,000000000e+00
      702000000   -3,335667029e-02   -5,906239524e-02    6,053859591e-01   -8,108991385e-02    0,000000000e+00    0,000000000e+00    0,000000000e+00    0,000000000e+00
      716000000   -3,747678548e-02   -5,571703240e-02    4,597150385e-01   -3,898440301e-01    0,000000000e+00    0,000000000e+00    0,000000000e+00    0,000000000e+00
      730000000   -3,212710470e-02   -6,547114253e-02    1,740508676e-01   -5,659418106e-01    0,000000000e+00    0,000000000e+00    0,000000000e+00    0,000000000e+00
      744000000   -3,939149529e-02   -8,882822841e-02   -1,519951075e-01   -5,647723675e-01    0,000000000e+00    0,000000000e+00    0,000000000e+00    0,000000000e+00
      758000000   -7,194624096e-02   -1,048775613e-01   -4,274406433e-01   -3,949704170e-01    0,000000000e+00    0,000000000e+00    0,000000000e+00    0,000000000e+00
      772000000   -1,136874259e-01   -9,367310256e-02   -5,747076869e-01   -1,058118790e-01    0,000000000e+00    0,000000000e+00    0,000000000e+00    0,000000000e+00
      786000000   -1,390284300e-01   -5,645858869e-02   -5,449492931e-01    2,210785747e-01    0,000000000e+00    0,000000000e+00    0,000000000e+00    0,000000000e+00
      800000000   -1,320195496e-01   -1,470171288e-02   -3,422003984e-01    4,804403782e-01    0,000000000e+00    0,000000000e+00    0,000000000e+00    0,000000000e+00
      814000000   -1,085353419e-01    8,257506415e-03   -3,429369628e-02    5,856990218e-01    0,000000000e+00    0,000000000e+00    0,000000000e+00    0,000000000e+00
      828000000   -8,547316492e-02    1,359872054e-02    2,787236869e-01    5,135936141e-01    0,000000000e+00    0,000000000e+00    0,000000000e+00    0,000000000e+00
      842000000   -7,035137713e-02    1,526478119e-02    5,021652579e-01    2,887786925e-01    0,000000000e+00    0,000000000e+00    0,000000000e+00    0,000000000e+00
      856000000   -5,245099217e-02    1,965554245e-02    5,703875422e-01   -1,778450795e-02    0,000000000e+00    0,000000000e+00    0,000000000e+00    0,000000000e+00
      870000000   -2,253966965e-02    1,438325737e-02    4,634887576e-01   -3,067026734e-01    0,000000000e+00    0,000000000e+00    0,000000000e+00    0,000000000e+00
      884000000    5,618201569e-03   -1,468491368e-02    2,301949114e-01   -4,887014627e-01    0,000000000e+00    0,000000000e+00    0,000000000e+00    0,000000000e+00
      898000000    1,146609429e-02   -6,339634955e-02   -5,200269073e-02   -5,259521604e-01    0,000000000e+00    0,000000000e+00    0,000000000e+00    0,000000000e+00
      912000000   -2,328070998e-02   -1,070981398e-01   -3,654758334e-01   -3,966611028e-01    0,000000000e+00    0,000000000e+00    0,000000000e+00    0,000000000e+00
      926000000   -7,695954293e-02   -1,235394552e-01   -5,311855674e-01   -1,584304720e-01    0,000000000e+00    0,000000000e+00    0,000000000e+00    0,000000000e+00
      940000000   -1,238340735e-01   -1,050085351e-01   -5,521346927e-01    1,568241119e-01    0,000000000e+00    0,000000000e+00    0,000000000e+00    0,000000000e+00
      954000000   -1,418811977e-01   -6,429237127e-02   -3,921989501e-01    4,461015165e-01    0,000000000e+00    0,000000000e+00    0,000000000e+00    0,000000000e+00
      968000000   -1,344609708e-01   -2,575359307e-02   -9,468810260e-02    6,037652493e-01    0,000000000e+00    0,000000000e+00    0,000000000e+00    0,000000000e+00
      982000000   -1,130978167e-01   -1,772314310e-02    2,466116846e-01    5,722490549e-01    0,000000000e+00    0,000000000e+00    0,000000000e+00    0,000000000e+00
      996000000   -1,091340184e-01   -1,474132761e-02    5,126959085e-01    3,658282161e-01    0,000000000e+00    0,000000000e+00    0,000000000e+00    0,000000000e+00
     1010000000   -1,026065722e-01   -6,434642710e-03    6,293190718e-01    5,118241161e-02    0,000000000e+00    0,000000000e+00    0,000000000e+00    0,000000000e+00
     1024000000   -9,519641846e-02    4,249899939e-04    5,619408488e-01   -2,710250914e-01    0,000000000e+00    0,000000000e+00    0,000000000e+00    0,000000000e+00
     1038000000   -7,781524956e-02   -2,996761585e-03    3,381669819e-01   -5,035876036e-01    0,000000000e+00    0,000000000e+00    0,000000000e+00    0,000000000e+00
     1052000000   -6,742849201e-02   -1,826852746e-02    3,344778717e-02   -5,857181549e-01    0,000000000e+00    0,000000000e+00    0,000000000e+00    0,000000000e+00
     1066000000   -6,727975607e-02   -2,707120217e-02   -2,640261948e-01   -4,987885058e-01    0,000000000e+00    0,000000000e+00    0,000000000e+00    0,000000000e+00
     1080000000   -8,504964411e-02   -3,045639209e-02   -4,791392684e-01   -2,702909410e-01    0,000000000e+00    0,000000000e+00    0,000000000e+00    0,000000000e+00
     1094000000   -7,694702595e-02   -1,681145094e-02   -5,331014991e-01    4,269468412e-02    0,000000000e+00    0,000000000e+00    0,000000000e+00    0,000000000e+00
     1108000000   -6,027116627e-02   -9,088316001e-03   -3,971145749e-01    3,246297836e-01    0,000000000e+00    0,000000000e+00    0,000000000e+00    0,000000000e+00
     1122000000   -2,897211537e-02   -3,759023175e-02   -1,363530606e-01    4,824525416e-01    0,000000000e+00    0,000000000e+00    0,000000000e+00    0,000000000e+00
     1136000000   -3,161969036e-02   -8,577170223e-02    1,596891433e-01    4,755521715e-01    0,000000000e+00    0,000000000e+00    0,000000000e+00    0,000000000e+00
     1150000000   -7,054818422e-02   -1,353519410e-01    4,208711684e-01    3,121545613e-01    0,000000000e+00    0,000000000e+00    0,000000000e+00    0,000000000e+00
     1164000000   -1,370506585e-01   -1,506973505e-01    5,636024475e-01    2,887998149e-02    0,000000000e+00    0,000000000e+00    0,000000000e+00    0,000000000e+00
     1178000000   -2,090193629e-01   -1,194963083e-01    5,308340192e-01   -3,174425662e-01    0,000000000e+00    0,000000000e+00    0,000000000e+00    0,000000000e+00
     1192000000   -2,502567768e-01   -4,646795243e-02    2,993792295e-01   -5,998724103e-01    0,000000000e+00    0,000000000e+00    0,000000000e+00    0,000000000e+00
     1206000000   -2,328567803e-01    3,228865564e-02   -6,324607879e-02   -6,969134808e-01    0,000000000e+00    0,000000000e+00    0,000000000e+00    0,000000000e+00
     1220000000   -1,891521364e-01    8,450553566e-02   -4,206959903e-01   -5,810967684e-01    0,000000000e+00    0,000000000e+00    0,000000000e+00    0,000000000e+00
     1234000000   -1,272937655e-01    1,019726470e-01   -6,487028599e-01   -2,936646938e-01    0,000000000e+00    0,000000000e+00    0,000000000e+00    0,000000000e+00
     1248000000   -6,934857368e-02    9,961849451e-02   -6,759863496e-01    6,196098775e-02    0,000000000e+00    0,000000000e+00    0,000000000e+00    0,000000000e+00
     1262000000   -1,190251671e-02    6,137311831e-02   -5,188022256e-01    3,682945073e-01    0,000000000e+00    0,000000000e+00    0,000000000e+00    0,000000000e+00
     1276000000    2,719043568e-02   -6,407382898e-03   -2,454632223e-01    5,431531072e-01    0,000000000e+00    0,000000000e+00    0,000000000e+00    0,000000000e+00
     1290000000    1,980458945e-02   -8,633626997e-02    6,582257897e-02    5,762927532e-01    0,000000000e+00    0,000000000e+00    0,000000000e+00    0,000000000e+00
     1304000000   -2,971850522e-02   -1,674430221e-01    3,650447726e-01    4,676066935e-01    0,000000000e+00    0,000000000e+00    0,000000000e+00    0,000000000e+00
     1318000000   -1,345253438e-01   -2,133734077e-01    5,812268257e-01    2,229934931e-01    0,000000000e+00    0,000000000e+00    0,000000000e+00    0,000000000e+00
     1332000000   -2,519259453e-01   -1,896651089e-01    6,586123705e-01   -1,275950968e-01    0,000000000e+00    0,000000000e+00    0,000000000e+00    0,000000000e+00
     1346000000   -3,311471641e-01   -9,025048465e-02    4,994628727e-01   -4,688206613e-01    0,000000000e+00    0,000000000e+00    0,000000000e+00    0,000000000e+00
     1360000000   -3,379264474e-01    2,079233900e-02    1,878399104e-01   -6,536551714e-01    0,000000000e+00    0,000000000e+00    0,000000000e+00    0,000000000e+00
     1374000000   -2,800208032e-01    1,018657461e-01   -1,584169865e-01   -6,098935604e-01    0,000000000e+00    0,000000000e+00    0,000000000e+00    0,000000000e+00
     1388000000   -2,147071660e-01    1,346298158e-01   -4,061317444e-01   -3,788591027e-01    0,000000000e+00    0,000000000e+00    0,000000000e+00    0,000000000e+00
     1402000000   -1,473524123e-01    1,381929070e-01   -4,822572172e-01   -6,129918620e-02    0,000000000e+00    0,000000000e+00    0,000000000e+00    0,000000000e+00
     1416000000   -9,193569422e-02    1,206430495e-01   -3,776288033e-01    2,442752123e-01    0,000000000e+00    0,000000000e+00    0,000000000e+00    0,000000000e+00
     1430000000   -5,756155774e-02    6,816253066e-02   -1,521814615e-01    4,464056790e-01    0,000000000e+00    0,000000000e+00    0,000000000e+00    0,000000000e+00
     1444000000   -3,282007203e-02   -1,502468367e-03    1,717119217e-01    5,309014916e-01    0,000000000e+00    0,000000000e+00    0,000000000e+00    0,000000000e+00
     1458000000   -6,764868647e-02   -6,724675000e-02    4,889806211e-01    4,852405190e-01    0,000000000e+00    0,000000000e+00    0,000000000e+00    0,000000000e+00
     1472000000   -1,390045732e-01   -1,210024655e-01    7,532743812e-01    2,578788698e-01    0,000000000e+00    0,000000000e+00    0,000000000e+00    0,000000000e+00
     1486000000   -2,311537266e-01   -1,110935062e-01    9,010701180e-01   -8,696104586e-02    0,000000000e+00    0,000000000e+00    0,000000000e+00    0,000000000e+00
     1500000000   -2,795807421e-01   -5,178229511e-02    8,104112148e-01   -4,644262195e-01    0,000000000e+00    0,000000000e+00    0,000000000e+00    0,000000000e+00
