! NanoVNA-App
! Date: 2025-09-25 15:05:25
! Start: 100MHz Stop: 1,5GHz Points: 101
! S-Parameter data: F S11 S21 S12 S22
# Hz S RI R 50
!     Frequency           S11_Real           S11_Imag           S21_Real           S21_Imag           S12_Real           S12_Imag           S22_Real           S22_Imag
      100000000    3,112212755e-02    2,862232178e-02    4,348012209e-01   -6,687104106e-01    0,000000000e+00    0,000000000e+00    0,000000000e+00    0,000000000e+00
      114000000    5,752635002e-02    5,516354460e-03    7,680791430e-03   -7,911549211e-01    0,000000000e+00    0,000000000e+00    0,000000000e+00    0,000000000e+00
      128000000    6,718568504e-02   -3,776999563e-02   -4,104281664e-01   -6,710597277e-01    0,000000000e+00    0,000000000e+00    0,000000000e+00    0,000000000e+00
      142000000    4,467066377e-02   -8,415859193e-02   -7,029576302e-01   -3,531212807e-01    0,000000000e+00    0,000000000e+00    0,000000000e+00    0,000000000e+00
      156000000   -6,105377339e-03   -1,057370082e-01   -7,855917215e-01    7,280903310e-02    0,000000000e+00    0,000000000e+00    0,000000000e+00    0,000000000e+00
      170000000   -5,759096518e-02   -9,054396302e-02   -6,273707151e-01    4,871070683e-01    0,000000000e+00    0,000000000e+00    0,000000000e+00    0,000000000e+00
      184000000   -8,364821225e-02   -4,947009310e-02   -2,648828924e-01    7,509808540e-01    0,000000000e+00    0,000000000e+00    0,000000000e+00    0,000000000e+00
      198000000   -7,957424223e-02   -1,047290023e-02    1,836219877e-01    7,731096745e-01    0,000000000e+00    0,000000000e+00    0,000000000e+00    0,000000000e+00
      212000000   -6,221332401e-02    1,316743717e-02    5,694213510e-01    5,490338802e-01    0,000000000e+00    0,000000000e+00    0,000000000e+00    0,000000000e+00
      226000000   -4,322096333e-02    2,758743986e-02    7,706848979e-01    1,545360684e-01    0,000000000e+00    0,000000000e+00    0,000000000e+00    0,000000000e+00
      240000000   -1,823549345e-02    3,839071840e-02    7,269548774e-01   -2,820548117e-01    0,000000000e+00    0,000000000e+00    0,000000000e+00    0,000000000e+00
      254000000    1,712015085e-02    3,504174948e-02    4,581706226e-01   -6,202932596e-01    0,000000000e+00    0,000000000e+00    0,000000000e+00    0,000000000e+00
      268000000    4,871248454e-02    5,546717905e-03    5,835359544e-02   -7,600256801e-01    0,000000000e+00    0,000000000e+00    0,000000000e+00    0,000000000e+00
      282000000    5,337968841e-02   -4,172819480e-02   -3,493193686e-01   -6,714242101e-01    0,000000000e+00    0,000000000e+00    0,000000000e+00    0,000000000e+00
      296000000    2,389336750e-02   -7,948295772e-02   -6,522276402e-01   -3,856267035e-01    0,000000000e+00    0,000000000e+00    0,000000000e+00    0,000000000e+00
      310000000   -1,797720976e-02   -8,290983737e-02   -7,643907070e-01    1,955498010e-02    0,000000000e+00    0,000000000e+00    0,000000000e+00    0,000000000e+00
      324000000   -4,164757952e-02   -5,854732171e-02   -6,317772269e-01    4,308950305e-01    0,000000000e+00    0,000000000e+00    0,000000000e+00    0,000000000e+00
      338000000   -3,404646739e-02   -3,676221892e-02   -2,976811826e-01    7,020928264e-01    0,000000000e+00    0,000000000e+00    0,000000000e+00    0,000000000e+00
      352000000   -1,711046882e-02   -4,070598632e-02    1,255799681e-01    7,425283790e-01    0,000000000e+00    0,000000000e+00    0,000000000e+00    0,000000000e+00
      366000000   -1,896870136e-02   -6,193561852e-02    4,986393154e-01    5,540838838e-01    0,000000000e+00    0,000000000e+00    0,000000000e+00    0,000000000e+00
      380000000   -4,401690140e-02   -7,282556593e-02    7,137566805e-01    1,994180679e-01    0,000000000e+00    0,000000000e+00    0,000000000e+00    0,000000000e+00
      394000000   -7,073938847e-02   -5,843985826e-02    7,045336366e-01   -2,164392471e-01    0,000000000e+00    0,000000000e+00    0,000000000e+00    0,000000000e+00
      408000000   -7,683721185e-02   -3,062540106e-02    4,701011479e-01   -5,596872568e-01    0,000000000e+00    0,000000000e+00    0,000000000e+00    0,000000000e+00
      422000000   -6,553174555e-02   -1,144366153e-02    9,333685786e-02   -7,177321315e-01    0,000000000e+00    0,000000000e+00    0,000000000e+00    0,000000000e+00
      436000000   -5,319363251e-02   -4,791757092e-03   -3,022271395e-01   -6,475899816e-01    0,000000000e+00    0,000000000e+00    0,000000000e+00    0,000000000e+00
      450000000   -4,492324218e-02    1,631847699e-03   -5,935016274e-01   -3,773283958e-01    0,000000000e+00    0,000000000e+00    0,000000000e+00    0,000000000e+00
      464000000   -2,915051952e-02    1,149185281e-02   -6,913053989e-01    5,723002250e-04    0,000000000e+00    0,000000000e+00    0,000000000e+00    0,000000000e+00
      478000000   -9,788437746e-04    1,134803426e-02   -5,729456544e-01    3,636834025e-01    0,000000000e+00    0,000000000e+00    0,000000000e+00    0,000000000e+00
      492000000    2,838418819e-02   -1,246581879e-02   -2,884871662e-01    6,017576456e-01    0,000000000e+00    0,000000000e+00    0,000000000e+00    0,000000000e+00
      506000000    3,618780896e-02   -5,623067915e-02    6,863311678e-02    6,583766937e-01    0,000000000e+00    0,000000000e+00    0,000000000e+00    0,000000000e+00
      520000000    1,179685164e-02   -9,815031290e-02    4,029445350e-01    5,257273912e-01    0,000000000e+00    0,000000000e+00    0,000000000e+00    0,000000000e+00
      534000000   -3,423842788e-02   -1,157327369e-01    6,247503161e-01    2,368553728e-01    0,000000000e+00    0,000000000e+00    0,000000000e+00    0,000000000e+00
      548000000   -7,740721107e-02   -9,911523759e-02    6,576018333e-01   -1,333187968e-01    0,000000000e+00    0,000000000e+00    0,000000000e+00    0,000000000e+00
      562000000   -9,310127050e-02   -6,635001302e-02    4,817236066e-01   -4,666576087e-01    0,000000000e+00    0,000000000e+00    0,000000000e+00    0,000000000e+00
      576000000   -8,614414930e-02   -4,436926171e-02    1,506689042e-01   -6,473117471e-01    0,000000000e+00    0,000000000e+00    0,000000000e+00    0,000000000e+00
      590000000   -8,088380843e-02   -4,200468585e-02   -2,197429836e-01   -6,253710985e-01    0,000000000e+00    0,000000000e+00    0,000000000e+00    0,000000000e+00
      604000000   -8,887171000e-02   -3,755426779e-02   -5,196800828e-01   -4,067033231e-01    0,000000000e+00    0,000000000e+00    0,000000000e+00    0,000000000e+00
      618000000   -9,712088108e-02   -1,511121169e-02   -6,535115838e-01   -5,788172036e-02    0,000000000e+00    0,000000000e+00    0,000000000e+00    0,000000000e+00
      632000000   -8,084108680e-02    1,547563169e-02   -5,755092502e-01    3,030444980e-01    0,000000000e+00    0,000000000e+00    0,000000000e+00    0,000000000e+00
      646000000   -4,262786731e-02    2,711386047e-02   -3,190318346e-01    5,568237305e-01    0,000000000e+00    0,000000000e+00    0,000000000e+00    0,000000000e+00
      660000000   -7,584979758e-03    6,497160997e-03    2,213045768e-02    6,301726103e-01    0,000000000e+00    0,000000000e+00    0,000000000e+00    0,000000000e+00
      674000000    1,888115541e-03   -3,051306121e-02    3,433858156e-01    5,179871917e-01    0,000000000e+00    0,000000000e+00    0,000000000e+00    0,000000000e+00
      688000000   -1,490475331e-02   -5,609394610e-02    5,591334701e-01    2,581405342e-01    0,000000000e+00    0,000000000e+00    0,000000000e+00    0,000000000e+00
      702000000   -3,426096588e-02   -6,100683659e-02    6,075297594e-01   -8,081012219e-02    0,000000000e+00    0,000000000e+00    0,000000000e+00    0,000000000e+00
      716000000   -3,788487986e-02   -5,564463884e-02    4,592831731e-01   -3,906075656e-01    0,000000000e+00    0,000000000e+00    0,000000000e+00    0,000000000e+00
      730000000   -3,328728303e-02   -6,516381353e-02    1,733465791e-01   -5,660386682e-01    0,000000000e+00    0,000000000e+00    0,000000000e+00    0,000000000e+00
      744000000   -4,068648070e-02   -8,778288215e-02   -1,531332731e-01   -5,639705062e-01    0,000000000e+00    0,000000000e+00    0,000000000e+00    0,000000000e+00
      758000000   -7,308222353e-02   -1,035873890e-01   -4,284346700e-01   -3,936901987e-01    0,000000000e+00    0,000000000e+00    0,000000000e+00    0,000000000e+00
      772000000   -1,143744662e-01   -9,357903153e-02   -5,748541951e-01   -1,050486639e-01    0,000000000e+00    0,000000000e+00    0,000000000e+00    0,000000000e+00
      786000000   -1,380217373e-01   -5,491847172e-02   -5,446315408e-01    2,221214324e-01    0,000000000e+00    0,000000000e+00    0,000000000e+00    0,000000000e+00
      800000000   -1,317400187e-01   -1,520097442e-02   -3,422174156e-01    4,806883335e-01    0,000000000e+00    0,000000000e+00    0,000000000e+00    0,000000000e+00
      814000000   -1,075589433e-01    8,346463554e-03   -3,364385664e-02    5,851966143e-01    0,000000000e+00    0,000000000e+00    0,000000000e+00    0,000000000e+00
      828000000   -8,490116894e-02    1,191793662e-02    2,792987525e-01    5,136287808e-01    0,000000000e+00    0,000000000e+00    0,000000000e+00    0,000000000e+00
      842000000   -7,075939327e-02    1,415777486e-02    5,021712780e-01    2,892104387e-01    0,000000000e+00    0,000000000e+00    0,000000000e+00    0,000000000e+00
      856000000   -5,324267969e-02    1,889284514e-02    5,709481239e-01   -1,810643077e-02    0,000000000e+00    0,000000000e+00    0,000000000e+00    0,000000000e+00
      870000000   -2,370326780e-02    1,412657276e-02    4,637428224e-01   -3,069903553e-01    0,000000000e+00    0,000000000e+00    0,000000000e+00    0,000000000e+00
      884000000    4,855609499e-03   -1,374432538e-02    2,297500670e-01   -4,880844951e-01    0,000000000e+00    0,000000000e+00    0,000000000e+00    0,000000000e+00
      898000000    1,160540339e-02   -6,270355731e-02   -5,073185265e-02   -5,267035365e-01    0,000000000e+00    0,000000000e+00    0,000000000e+00    0,000000000e+00
      912000000   -2,257172018e-02   -1,075745896e-01   -3,651671112e-01   -4,105615914e-01    0,000000000e+00    0,000000000e+00    0,000000000e+00    0,000000000e+00
      926000000   -7,429673523e-02   -1,244522706e-01   -5,306807756e-01   -1,594603509e-01    0,000000000e+00    0,000000000e+00    0,000000000e+00    0,000000000e+00
      940000000   -1,239400879e-01   -1,005688906e-01   -5,512176752e-01    1,562836021e-01    0,000000000e+00    0,000000000e+00    0,000000000e+00    0,000000000e+00
      954000000   -1,388916522e-01   -6,333936751e-02   -3,914246559e-01    4,475415051e-01    0,000000000e+00    0,000000000e+00    0,000000000e+00    0,000000000e+00
      968000000   -1,297407299e-01   -2,874297090e-02   -9,106858075e-02    6,034707427e-01    0,000000000e+00    0,000000000e+00    0,000000000e+00    0,000000000e+00
      982000000   -1,157118604e-01   -1,938818581e-02    2,434603572e-01    5,743756890e-01    0,000000000e+00    0,000000000e+00    0,000000000e+00    0,000000000e+00
      996000000   -1,053933427e-01   -1,576177031e-02    5,162139535e-01    3,657252491e-01    0,000000000e+00    0,000000000e+00    0,000000000e+00    0,000000000e+00
     1010000000   -1,016030610e-01   -6,284987088e-03    6,300054193e-01    5,086881295e-02    0,000000000e+00    0,000000000e+00    0,000000000e+00    0,000000000e+00
     1024000000   -9,070607275e-02    3,204215318e-03    5,605242252e-01   -2,729209661e-01    0,000000000e+00    0,000000000e+00    0,000000000e+00    0,000000000e+00
     1038000000   -7,420814782e-02   -3,093969077e-03    3,368603587e-01   -5,038515329e-01    0,000000000e+00    0,000000000e+00    0,000000000e+00    0,000000000e+00
     1052000000   -6,516411901e-02   -1,613839343e-02    3,205960244e-02   -5,864317417e-01    0,000000000e+00    0,000000000e+00    0,000000000e+00    0,000000000e+00
     1066000000   -7,115512341e-02   -3,190319985e-02   -2,705615461e-01   -4,992270768e-01    0,000000000e+00    0,000000000e+00    0,000000000e+00    0,000000000e+00
     1080000000   -8,380988240e-02   -3,445906565e-02   -4,812402129e-01   -2,684326172e-01    0,000000000e+00    0,000000000e+00    0,000000000e+00    0,000000000e+00
     1094000000   -8,003930748e-02   -2,037980221e-02   -5,307334661e-01    4,410165548e-02    0,000000000e+00    0,000000000e+00    0,000000000e+00    0,000000000e+00
     1108000000   -5,536102504e-02   -1,245125011e-02   -3,963483572e-01    3,246845305e-01    0,000000000e+00    0,000000000e+00    0,000000000e+00    0,000000000e+00
     1122000000   -3,258726001e-02   -3,780288994e-02   -1,327284873e-01    4,815278947e-01    0,000000000e+00    0,000000000e+00    0,000000000e+00    0,000000000e+00
     1136000000   -3,213554621e-02   -8,240888268e-02    1,661330014e-01    4,711495638e-01    0,000000000e+00    0,000000000e+00    0,000000000e+00    0,000000000e+00
     1150000000   -6,817513704e-02   -1,366835982e-01    4,144456685e-01    3,063018918e-01    0,000000000e+00    0,000000000e+00    0,000000000e+00    0,000000000e+00
     1164000000   -1,384618133e-01   -1,503989697e-01    5,614713430e-01    2,294993214e-02    0,000000000e+00    0,000000000e+00    0,000000000e+00    0,000000000e+00
     1178000000   -2,069205940e-01   -1,206167117e-01    5,266255736e-01   -3,156433403e-01    0,000000000e+00    0,000000000e+00    0,000000000e+00    0,000000000e+00
     1192000000   -2,462947667e-01   -4,433136061e-02    2,921096087e-01   -5,950557590e-01    0,000000000e+00    0,000000000e+00    0,000000000e+00    0,000000000e+00
     1206000000   -2,342842072e-01    3,149950877e-02   -6,432366371e-02   -6,987372637e-01    0,000000000e+00    0,000000000e+00    0,000000000e+00    0,000000000e+00
     1220000000   -1,875001043e-01    7,973868400e-02   -4,227851629e-01   -5,781622529e-01    0,000000000e+00    0,000000000e+00    0,000000000e+00    0,000000000e+00
     1234000000   -1,267054677e-01    1,019555852e-01   -6,425991654e-01   -2,930760682e-01    0,000000000e+00    0,000000000e+00    0,000000000e+00    0,000000000e+00
     1248000000   -7,298246026e-02    9,722069651e-02   -6,766352057e-01    6,067094207e-02    0,000000000e+00    0,000000000e+00    0,000000000e+00    0,000000000e+00
     1262000000   -1,119263098e-02    6,564512104e-02   -5,146830678e-01    3,718604445e-01    0,000000000e+00    0,000000000e+00    0,000000000e+00    0,000000000e+00
     1276000000    2,490604669e-02   -5,209373776e-03   -2,384156138e-01    5,418803096e-01    0,000000000e+00    0,000000000e+00    0,000000000e+00    0,000000000e+00
     1290000000    1,709445193e-02   -9,196414798e-02    6,702466309e-02    5,696044564e-01    0,000000000e+00    0,000000000e+00    0,000000000e+00    0,000000000e+00
     1304000000   -3,092662618e-02   -1,681740731e-01    3,589699864e-01    4,681144655e-01    0,000000000e+00    0,000000000e+00    0,000000000e+00    0,000000000e+00
     1318000000   -1,387875974e-01   -2,129876614e-01    5,749213099e-01    2,202049047e-01    0,000000000e+00    0,000000000e+00    0,000000000e+00    0,000000000e+00
     1332000000   -2,555876970e-01   -1,904368848e-01    6,481156945e-01   -1,244020909e-01    0,000000000e+00    0,000000000e+00    0,000000000e+00    0,000000000e+00
     1346000000   -3,352574408e-01   -8,747855574e-02    5,116606355e-01   -4,549846053e-01    0,000000000e+00    0,000000000e+00    0,000000000e+00    0,000000000e+00
     1360000000   -3,345247209e-01    2,168346010e-02    2,001869977e-01   -6,471463442e-01    0,000000000e+00    0,000000000e+00    0,000000000e+00    0,000000000e+00
     1374000000   -2,816181183e-01    1,041933745e-01   -1,522603333e-01   -5,925775170e-01    0,000000000e+00    0,000000000e+00    0,000000000e+00    0,000000000e+00
     1388000000   -2,129895091e-01    1,396399587e-01   -3,966869414e-01   -3,758225739e-01    0,000000000e+00    0,000000000e+00    0,000000000e+00    0,000000000e+00
     1402000000   -1,529417038e-01    1,384028643e-01   -4,808169007e-01   -6,506934017e-02    0,000000000e+00    0,000000000e+00    0,000000000e+00    0,000000000e+00
     1416000000   -9,575906396e-02    1,236372069e-01   -3,745214045e-01    2,406774312e-01    0,000000000e+00    0,000000000e+00    0,000000000e+00    0,000000000e+00
     1430000000   -5,545781553e-02    7,405284792e-02   -1,565289944e-01    4,717710316e-01    0,000000000e+00    0,000000000e+00    0,000000000e+00    0,000000000e+00
     1444000000   -3,645905852e-02    5,628834479e-03    1,744655818e-01    5,311475396e-01    0,000000000e+00    0,000000000e+00    0,000000000e+00    0,000000000e+00
     1458000000   -5,949892104e-02   -7,323783636e-02    4,871079028e-01    4,767100811e-01    0,000000000e+00    0,000000000e+00    0,000000000e+00    0,000000000e+00
     1472000000   -1,263201237e-01   -1,247456521e-01    7,602974176e-01    2,537107766e-01    0,000000000e+00    0,000000000e+00    0,000000000e+00    0,000000000e+00
     1486000000   -2,264232486e-01   -1,096663177e-01    8,979110122e-01   -7,648417354e-02    0,000000000e+00    0,000000000e+00    0,000000000e+00    0,000000000e+00
     1500000000   -2,875832319e-01   -5,510998890e-02    7,932648659e-01   -4,566821754e-01    0,000000000e+00    0,000000000e+00    0,000000000e+00    0,000000000e+00
