! NanoVNA-App
! Date: 2025-09-25 15:06:17
! Start: 100MHz Stop: 1,5GHz Points: 101
! S-Parameter data: F S11 S21 S12 S22
# Hz S RI R 50
!     Frequency           S11_Real           S11_Imag           S21_Real           S21_Imag           S12_Real           S12_Imag           S22_Real           S22_Imag
      100000000    3,115578741e-02    2,863884158e-02    4,348791540e-01   -6,686705351e-01    0,000000000e+00    0,000000000e+00    0,000000000e+00    0,000000000e+00
      114000000    5,757188797e-02    5,526462570e-03    7,659527939e-03   -7,910630703e-01    0,000000000e+00    0,000000000e+00    0,000000000e+00    0,000000000e+00
      128000000    6,728132069e-02   -3,779342771e-02   -4,103502035e-01   -6,709468365e-01    0,000000000e+00    0,000000000e+00    0,000000000e+00    0,000000000e+00
      142000000    4,473265633e-02   -8,420085907e-02   -7,028030753e-01   -3,532895744e-01    0,000000000e+00    0,000000000e+00    0,000000000e+00    0,000000000e+00
      156000000   -5,477049854e-03   -1,069130301e-01   -7,871782780e-01    7,415600866e-02    0,000000000e+00    0,000000000e+00    0,000000000e+00    0,000000000e+00
      170000000   -5,768334493e-02   -9,065611660e-02   -6,277716756e-01    4,870908856e-01    0,000000000e+00    0,000000000e+00    0,000000000e+00    0,000000000e+00
      184000000   -8,366896957e-02   -4,949803278e-02   -2,648838162e-01    7,509946227e-01    0,000000000e+00    0,000000000e+00    0,000000000e+00    0,000000000e+00
      198000000   -7,961283624e-02   -1,045561954e-02    1,834660172e-01    7,733062506e-01    0,000000000e+00    0,000000000e+00    0,000000000e+00    0,000000000e+00
      212000000   -6,228601560e-02    1,316383015e-02    5,689030290e-01    5,490784049e-01    0,000000000e+00    0,000000000e+00    0,000000000e+00    0,000000000e+00
      226000000   -4,321866855e-02    2,766531147e-02    7,707422972e-01    1,544398367e-01    0,000000000e+00    0,000000000e+00    0,000000000e+00    0,000000000e+00
      240000000   -1,816308498e-02    3,849019110e-02    7,267392874e-01   -2,819758058e-01    0,000000000e+00    0,000000000e+00    0,000000000e+00    0,000000000e+00
      254000000    1,717935689e-02    3,518431261e-02    4,579077661e-01   -6,201555729e-01    0,000000000e+00    0,000000000e+00    0,000000000e+00    0,000000000e+00
      268000000    4,881918058e-02    5,562914535e-03    5,849204585e-02   -7,604117990e-01    0,000000000e+00    0,000000000e+00    0,000000000e+00    0,000000000e+00
      282000000    5,342495441e-02   -4,187301174e-02   -3,490321338e-01   -6,718236208e-01    0,000000000e+00    0,000000000e+00    0,000000000e+00    0,000000000e+00
      296000000    2,398511581e-02   -7,963425666e-02   -6,516838670e-01   -3,852664530e-01    0,000000000e+00    0,000000000e+00    0,000000000e+00    0,000000000e+00
      310000000   -1,783921011e-02   -8,311591297e-02   -7,629185319e-01    2,141052485e-02    0,000000000e+00    0,000000000e+00    0,000000000e+00    0,000000000e+00
      324000000   -4,157347977e-02   -5,903685838e-02   -6,315940022e-01    4,305593967e-01    0,000000000e+00    0,000000000e+00    0,000000000e+00    0,000000000e+00
      338000000   -3,430725634e-02   -3,672635555e-02   -2,952365875e-01    6,996961832e-01    0,000000000e+00    0,000000000e+00    0,000000000e+00    0,000000000e+00
      352000000   -1,732770167e-02   -4,073698074e-02    1,245985404e-01    7,419350147e-01    0,000000000e+00    0,000000000e+00    0,000000000e+00    0,000000000e+00
      366000000   -1,923359744e-02   -6,210326776e-02    4,981358647e-01    5,546329021e-01    0,000000000e+00    0,000000000e+00    0,000000000e+00    0,000000000e+00
      380000000   -4,421098903e-02   -7,269199193e-02    7,136499882e-01    2,002168745e-01    0,000000000e+00    0,000000000e+00    0,000000000e+00    0,000000000e+00
      394000000   -7,082893699e-02   -5,779619887e-02    7,044939995e-01   -2,157219946e-01    0,000000000e+00    0,000000000e+00    0,000000000e+00    0,000000000e+00
      408000000   -7,693653554e-02   -3,051951900e-02    4,709780216e-01   -5,607627034e-01    0,000000000e+00    0,000000000e+00    0,000000000e+00    0,000000000e+00
      422000000   -6,558468938e-02   -1,123691630e-02    9,255360812e-02   -7,177823782e-01    0,000000000e+00    0,000000000e+00    0,000000000e+00    0,000000000e+00
      436000000   -5,313936993e-02   -4,630272277e-03   -3,025330007e-01   -6,473566294e-01    0,000000000e+00    0,000000000e+00    0,000000000e+00    0,000000000e+00
      450000000   -4,462199286e-02    1,687583979e-03   -5,928562284e-01   -3,783700466e-01    0,000000000e+00    0,000000000e+00    0,000000000e+00    0,000000000e+00
      464000000   -2,958766185e-02    1,160376240e-02   -6,914601922e-01    4,287809716e-04    0,000000000e+00    0,000000000e+00    0,000000000e+00    0,000000000e+00
      478000000   -1,203036751e-03    1,123175584e-02   -5,733879805e-01    3,630319238e-01    0,000000000e+00    0,000000000e+00    0,000000000e+00    0,000000000e+00
      492000000    2,791436389e-02   -1,259316131e-02   -2,896767557e-01    6,014189124e-01    0,000000000e+00    0,000000000e+00    0,000000000e+00    0,000000000e+00
      506000000    3,638403863e-02   -5,580434576e-02    6,905060261e-02    6,591524482e-01    0,000000000e+00    0,000000000e+00    0,000000000e+00    0,000000000e+00
      520000000    1,208840311e-02   -9,876046330e-02    4,043129086e-01    5,246070027e-01    0,000000000e+00    0,000000000e+00    0,000000000e+00    0,000000000e+00
      534000000   -3,460642695e-02   -1,160418391e-01    6,234880686e-01    2,358878702e-01    0,000000000e+00    0,000000000e+00    0,000000000e+00    0,000000000e+00
      548000000   -7,718081027e-02   -9,884478897e-02    6,583484411e-01   -1,333098263e-01    0,000000000e+00    0,000000000e+00    0,000000000e+00    0,000000000e+00
      562000000   -9,328011423e-02   -6,566242129e-02    4,811308682e-01   -4,662719965e-01    0,000000000e+00    0,000000000e+00    0,000000000e+00    0,000000000e+00
      576000000   -8,608714491e-02   -4,386381432e-02    1,500737667e-01   -6,474964023e-01    0,000000000e+00    0,000000000e+00    0,000000000e+00    0,000000000e+00
      590000000   -8,072981983e-02   -4,156256467e-02   -2,209013104e-01   -6,264638901e-01    0,000000000e+00    0,000000000e+00    0,000000000e+00    0,000000000e+00
      604000000   -8,853097260e-02   -3,711346537e-02   -5,196249485e-01   -4,053134620e-01    0,000000000e+00    0,000000000e+00    0,000000000e+00    0,000000000e+00
      618000000   -9,633328766e-02   -1,592678204e-02   -6,529829502e-01   -5,859642103e-02    0,000000000e+00    0,000000000e+00    0,000000000e+00    0,000000000e+00
      632000000   -8,138584346e-02    1,497622207e-02   -5,754613280e-01    3,029621542e-01    0,000000000e+00    0,000000000e+00    0,000000000e+00    0,000000000e+00
      646000000   -4,264018312e-02    2,670062147e-02   -3,194865882e-01    5,560427904e-01    0,000000000e+00    0,000000000e+00    0,000000000e+00    0,000000000e+00
      660000000   -7,658665068e-03    6,535972003e-03    2,136536129e-02    6,294665337e-01    0,000000000e+00    0,000000000e+00    0,000000000e+00    0,000000000e+00
      674000000    1,542272628e-03   -3,020226024e-02    3,432984948e-01    5,184600949e-01    0,000000000e+00    0,000000000e+00    0,000000000e+00    0,000000000e+00
      688000000   -1,430540532e-02   -5,507632717e-02    5,584539175e-01    2,578643560e-01    0,000000000e+00    0,000000000e+00    0,000000000e+00    0,000000000e+00
      702000000   -3,322093561e-02   -6,026980653e-02    6,042010784e-01   -8,229520917e-02    0,000000000e+00    0,000000000e+00    0,000000000e+00    0,000000000e+00
      716000000   -3,709155321e-02   -5,512883887e-02    4,589787722e-01   -3,903272152e-01    0,000000000e+00    0,000000000e+00    0,000000000e+00    0,000000000e+00
      730000000   -3,114110790e-02   -6,526616961e-02    1,732282341e-01   -5,654841661e-01    0,000000000e+00    0,000000000e+00    0,000000000e+00    0,000000000e+00
      744000000   -3,969032690e-02   -8,838459849e-02   -1,525330693e-01   -5,636143684e-01    0,000000000e+00    0,000000000e+00    0,000000000e+00    0,000000000e+00
      758000000   -7,168973237e-02   -1,046547666e-01   -4,270090461e-01   -3,946923912e-01    0,000000000e+00    0,000000000e+00    0,000000000e+00    0,000000000e+00
      772000000   -1,143034324e-01   -9,340751171e-02   -5,746308565e-01   -1,055521443e-01    0,000000000e+00    0,000000000e+00    0,000000000e+00    0,000000000e+00
      786000000   -1,385587156e-01   -5,674401671e-02   -5,450035334e-01    2,210294604e-01    0,000000000e+00    0,000000000e+00    0,000000000e+00    0,000000000e+00
      800000000   -1,333944052e-01   -1,452097576e-02   -3,414428830e-01    4,796997607e-01    0,000000000e+00    0,000000000e+00    0,000000000e+00    0,000000000e+00
      814000000   -1,079333052e-01    9,044668637e-03   -3,489541262e-02    5,864397883e-01    0,000000000e+00    0,000000000e+00    0,000000000e+00    0,000000000e+00
      828000000   -8,508320153e-02    1,314902399e-02    2,785642147e-01    5,148537755e-01    0,000000000e+00    0,000000000e+00    0,000000000e+00    0,000000000e+00
      842000000   -7,093567401e-02    1,475532539e-02    5,021096468e-01    2,893805504e-01    0,000000000e+00    0,000000000e+00    0,000000000e+00    0,000000000e+00
      856000000   -5,216009542e-02    1,939444058e-02    5,699643493e-01   -1,770960167e-02    0,000000000e+00    0,000000000e+00    0,000000000e+00    0,000000000e+00
      870000000   -2,259628102e-02    1,398682222e-02    4,632498920e-01   -3,064484596e-01    0,000000000e+00    0,000000000e+00    0,000000000e+00    0,000000000e+00
      884000000    5,379948299e-03   -1,481582876e-02    2,298722565e-01   -4,878925383e-01    0,000000000e+00    0,000000000e+00    0,000000000e+00    0,000000000e+00
      898000000    1,173456013e-02   -6,394851953e-02   -5,159385875e-02   -5,263825059e-01    0,000000000e+00    0,000000000e+00    0,000000000e+00    0,000000000e+00
      912000000   -2,267984860e-02   -1,078682616e-01   -3,645003736e-01   -4,086001813e-01    0,000000000e+00    0,000000000e+00    0,000000000e+00    0,000000000e+00
      926000000   -7,724286616e-02   -1,224910542e-01   -5,321745276e-01   -1,572402567e-01    0,000000000e+00    0,000000000e+00    0,000000000e+00    0,000000000e+00
      940000000   -1,258538663e-01   -1,038454846e-01   -5,535594821e-01    1,549404263e-01    0,000000000e+00    0,000000000e+00    0,000000000e+00    0,000000000e+00
      954000000   -1,414525062e-01   -6,323248148e-02   -3,936867714e-01    4,454308152e-01    0,000000000e+00    0,000000000e+00    0,000000000e+00    0,000000000e+00
      968000000   -1,291836649e-01   -2,769632079e-02   -9,359995276e-02    6,032269001e-01    0,000000000e+00    0,000000000e+00    0,000000000e+00    0,000000000e+00
      982000000   -1,164201871e-01   -1,667627506e-02    2,461416870e-01    5,725429058e-01    0,000000000e+00    0,000000000e+00    0,000000000e+00    0,000000000e+00
      996000000   -1,047998220e-01   -1,316362992e-02    5,128560662e-01    3,689328432e-01    0,000000000e+00    0,000000000e+00    0,000000000e+00    0,000000000e+00
     1010000000   -1,051544100e-01   -6,305106916e-03    6,282191873e-01    5,325685069e-02    0,000000000e+00    0,000000000e+00    0,000000000e+00    0,000000000e+00
     1024000000   -9,416224808e-02   -2,664476400e-03    5,612407327e-01   -2,729967535e-01    0,000000000e+00    0,000000000e+00    0,000000000e+00    0,000000000e+00
     1038000000   -7,493204623e-02   -4,671557806e-03    3,374684453e-01   -5,029096603e-01    0,000000000e+00    0,000000000e+00    0,000000000e+00    0,000000000e+00
     1052000000   -6,756702811e-02   -1,486591343e-02    3,560681269e-02   -5,880301595e-01    0,000000000e+00    0,000000000e+00    0,000000000e+00    0,000000000e+00
     1066000000   -6,871455163e-02   -2,813850343e-02   -2,701679170e-01   -5,017319918e-01    0,000000000e+00    0,000000000e+00    0,000000000e+00    0,000000000e+00
     1080000000   -8,383946121e-02   -2,838793024e-02   -4,805349708e-01   -2,727936804e-01    0,000000000e+00    0,000000000e+00    0,000000000e+00    0,000000000e+00
     1094000000   -8,400325477e-02   -1,820404083e-02   -5,310782790e-01    4,119643569e-02    0,000000000e+00    0,000000000e+00    0,000000000e+00    0,000000000e+00
     1108000000   -5,829784274e-02   -9,500916116e-03   -4,000056088e-01    3,265980482e-01    0,000000000e+00    0,000000000e+00    0,000000000e+00    0,000000000e+00
     1122000000   -3,273458779e-02   -3,329050541e-02   -1,360311806e-01    4,841506183e-01    0,000000000e+00    0,000000000e+00    0,000000000e+00    0,000000000e+00
     1136000000   -3,188565746e-02   -8,618646115e-02    1,638859659e-01    4,745840728e-01    0,000000000e+00    0,000000000e+00    0,000000000e+00    0,000000000e+00
     1150000000   -6,644944102e-02   -1,332081705e-01    4,202306867e-01    3,127793968e-01    0,000000000e+00    0,000000000e+00    0,000000000e+00    0,000000000e+00
     1164000000   -1,343887746e-01   -1,556889266e-01    5,633406043e-01    2,445841022e-02    0,000000000e+00    0,000000000e+00    0,000000000e+00    0,000000000e+00
     1178000000   -2,088215202e-01   -1,168751344e-01    5,291975141e-01   -3,158381283e-01    0,000000000e+00    0,000000000e+00    0,000000000e+00    0,000000000e+00
     1192000000   -2,489853650e-01   -4,688900709e-02    2,936041653e-01   -5,951193571e-01    0,000000000e+00    0,000000000e+00    0,000000000e+00    0,000000000e+00
     1206000000   -2,372087538e-01    3,494127095e-02   -6,858120114e-02   -6,943460703e-01    0,000000000e+00    0,000000000e+00    0,000000000e+00    0,000000000e+00
     1220000000   -1,869723797e-01    8,179128915e-02   -4,177153409e-01   -5,778864026e-01    0,000000000e+00    0,000000000e+00    0,000000000e+00    0,000000000e+00
     1234000000   -1,275947541e-01    1,049395651e-01   -6,488718987e-01   -2,857967913e-01    0,000000000e+00    0,000000000e+00    0,000000000e+00    0,000000000e+00
     1248000000   -6,430402398e-02    9,619583189e-02   -6,755912900e-01    6,470203400e-02    0,000000000e+00    0,000000000e+00    0,000000000e+00    0,000000000e+00
     1262000000   -1,378141623e-02    6,397548318e-02   -5,181131959e-01    3,706114888e-01    0,000000000e+00    0,000000000e+00    0,000000000e+00    0,000000000e+00
     1276000000    2,403962612e-02   -1,862942125e-03   -2,419813424e-01    5,490580797e-01    0,000000000e+00    0,000000000e+00    0,000000000e+00    0,000000000e+00
     1290000000    1,817943901e-02   -8,923467249e-02    7,410945743e-02    5,749852657e-01    0,000000000e+00    0,000000000e+00    0,000000000e+00    0,000000000e+00
     1304000000   -2,974127606e-02   -1,688202024e-01    3,638695776e-01    4,636693001e-01    0,000000000e+00    0,000000000e+00    0,000000000e+00    0,000000000e+00
     1318000000   -1,371874362e-01   -2,089018077e-01    5,913904905e-01    2,248021215e-01    0,000000000e+00    0,000000000e+00    0,000000000e+00    0,000000000e+00
     1332000000   -2,554820776e-01   -1,862808615e-01    6,469994783e-01   -1,301436275e-01    0,000000000e+00    0,000000000e+00    0,000000000e+00    0,000000000e+00
     1346000000   -3,352468610e-01   -9,371150285e-02    5,107510090e-01   -4,697184861e-01    0,000000000e+00    0,000000000e+00    0,000000000e+00    0,000000000e+00
     1360000000   -3,364004195e-01    2,248115465e-02    1,900980175e-01   -6,436155438e-01    0,000000000e+00    0,000000000e+00    0,000000000e+00    0,000000000e+00
     1374000000   -2,830431163e-01    1,056087315e-01   -1,706616282e-01   -6,050179601e-01    0,000000000e+00    0,000000000e+00    0,000000000e+00    0,000000000e+00
     1388000000   -2,136542946e-01    1,372888535e-01   -4,104328156e-01   -3,734887242e-01    0,000000000e+00    0,000000000e+00    0,000000000e+00    0,000000000e+00
     1402000000   -1,542027742e-01    1,386690289e-01   -4,951604605e-01   -5,630512908e-02    0,000000000e+00    0,000000000e+00    0,000000000e+00    0,000000000e+00
     1416000000   -9,447906911e-02    1,197761297e-01   -3,726867735e-01    2,533233762e-01    0,000000000e+00    0,000000000e+00    0,000000000e+00    0,000000000e+00
     1430000000   -5,407067388e-02    6,955941767e-02   -1,692113876e-01    4,486527443e-01    0,000000000e+00    0,000000000e+00    0,000000000e+00    0,000000000e+00
     1444000000   -3,882813826e-02    3,564979415e-03    1,608073711e-01    5,363486409e-01    0,000000000e+00    0,000000000e+00    0,000000000e+00    0,000000000e+00
     1458000000   -6,360058486e-02   -6,417178363e-02    4,785946608e-01    4,902517200e-01    0,000000000e+00    0,000000000e+00    0,000000000e+00    0,000000000e+00
     1472000000   -1,325232238e-01   -1,247569248e-01    7,702937126e-01    2,568605244e-01    0,000000000e+00    0,000000000e+00    0,000000000e+00    0,000000000e+00
     1486000000   -2,305702269e-01   -1,162118912e-01    8,771871328e-01   -8,609081060e-02    0,000000000e+00    0,000000000e+00    0,000000000e+00    0,000000000e+00
     1500000000   -2,823688090e-01   -5,149094760e-02    8,010364771e-01   -4,653106034e-01    0,000000000e+00    0,000000000e+00    0,000000000e+00    0,000000000e+00
