! NanoVNA-App
! Date: 2025-09-25 15:04:39
! Start: 100MHz Stop: 1,5GHz Points: 101
! S-Parameter data: F S11 S21 S12 S22
# Hz S RI R 50
!     Frequency           S11_Real           S11_Imag           S21_Real           S21_Imag           S12_Real           S12_Imag           S22_Real           S22_Imag
      100000000    3,110364266e-02    2,860767767e-02    4,348386526e-01   -6,686808467e-01    0,000000000e+00    0,000000000e+00    0,000000000e+00    0,000000000e+00
      114000000    5,748704448e-02    5,454545841e-03    7,632525638e-03   -7,909444571e-01    0,000000000e+00    0,000000000e+00    0,000000000e+00    0,000000000e+00
      128000000    6,721891463e-02   -3,778531775e-02   -4,104603231e-01   -6,711608768e-01    0,000000000e+00    0,000000000e+00    0,000000000e+00    0,000000000e+00
      142000000    4,465095699e-02   -8,411016315e-02   -7,029899359e-01   -3,532723784e-01    0,000000000e+00    0,000000000e+00    0,000000000e+00    0,000000000e+00
      156000000   -5,651403219e-03   -1,060738340e-01   -7,866594195e-01    7,281528413e-02    0,000000000e+00    0,000000000e+00    0,000000000e+00    0,000000000e+00
      170000000   -5,756404251e-02   -9,060403705e-02   -6,277058125e-01    4,874065518e-01    0,000000000e+00    0,000000000e+00    0,000000000e+00    0,000000000e+00
      184000000   -8,362147957e-02   -4,945285618e-02   -2,647471428e-01    7,514396310e-01    0,000000000e+00    0,000000000e+00    0,000000000e+00    0,000000000e+00
      198000000   -7,957404107e-02   -1,043771487e-02    1,835861653e-01    7,732483149e-01    0,000000000e+00    0,000000000e+00    0,000000000e+00    0,000000000e+00
      212000000   -6,224075332e-02    1,313557476e-02    5,692796111e-01    5,489002466e-01    0,000000000e+00    0,000000000e+00    0,000000000e+00    0,000000000e+00
      226000000   -4,325621948e-02    2,759722248e-02    7,707819343e-01    1,544189006e-01    0,000000000e+00    0,000000000e+00    0,000000000e+00    0,000000000e+00
      240000000   -1,814710535e-02    3,842384741e-02    7,266921997e-01   -2,821028233e-01    0,000000000e+00    0,000000000e+00    0,000000000e+00    0,000000000e+00
      254000000    1,713118888e-02    3,507746756e-02    4,578338861e-01   -6,200569272e-01    0,000000000e+00    0,000000000e+00    0,000000000e+00    0,000000000e+00
      268000000    4,863814265e-02    5,540043116e-03    5,835209042e-02   -7,600807548e-01    0,000000000e+00    0,000000000e+00    0,000000000e+00    0,000000000e+00
      282000000    5,327047035e-02   -4,177284613e-02   -3,492870927e-01   -6,716488600e-01    0,000000000e+00    0,000000000e+00    0,000000000e+00    0,000000000e+00
      296000000    2,383827046e-02   -7,953057438e-02   -6,522223949e-01   -3,854737580e-01    0,000000000e+00    0,000000000e+00    0,000000000e+00    0,000000000e+00
      310000000   -1,783702336e-02   -8,323580027e-02   -7,639795542e-01    1,968172938e-02    0,000000000e+00    0,000000000e+00    0,000000000e+00    0,000000000e+00
      324000000   -4,160451144e-02   -5,869071186e-02   -6,322453618e-01    4,316143692e-01    0,000000000e+00    0,000000000e+00    0,000000000e+00    0,000000000e+00
      338000000   -3,434840217e-02   -3,678140044e-02   -2,969602942e-01    7,014803290e-01    0,000000000e+00    0,000000000e+00    0,000000000e+00    0,000000000e+00
      352000000   -1,716809347e-02   -4,078860208e-02    1,261140704e-01    7,421892881e-01    0,000000000e+00    0,000000000e+00    0,000000000e+00    0,000000000e+00
      366000000   -1,891347207e-02   -6,191108748e-02    4,985996485e-01    5,542727113e-01    0,000000000e+00    0,000000000e+00    0,000000000e+00    0,000000000e+00
      380000000   -4,419356957e-02   -7,266880572e-02    7,134079337e-01    1,998857558e-01    0,000000000e+00    0,000000000e+00    0,000000000e+00    0,000000000e+00
      394000000   -7,075224817e-02   -5,808738619e-02    7,041929960e-01   -2,177576274e-01    0,000000000e+00    0,000000000e+00    0,000000000e+00    0,000000000e+00
      408000000   -7,724317163e-02   -3,017664328e-02    4,695868790e-01   -5,595073700e-01    0,000000000e+00    0,000000000e+00    0,000000000e+00    0,000000000e+00
      422000000   -6,539706886e-02   -1,140302047e-02    9,380435944e-02   -7,177206874e-01    0,000000000e+00    0,000000000e+00    0,000000000e+00    0,000000000e+00
      436000000   -5,342132971e-02   -4,512446001e-03   -3,032611907e-01   -6,469128728e-01    0,000000000e+00    0,000000000e+00    0,000000000e+00    0,000000000e+00
      450000000   -4,467661679e-02    1,959241461e-03   -5,931734443e-01   -3,775174916e-01    0,000000000e+00    0,000000000e+00    0,000000000e+00    0,000000000e+00
      464000000   -2,928787284e-02    1,148370840e-02   -6,908274889e-01    7,552671013e-04    0,000000000e+00    0,000000000e+00    0,000000000e+00    0,000000000e+00
      478000000   -4,798281589e-04    1,132879592e-02   -5,730189085e-01    3,636387289e-01    0,000000000e+00    0,000000000e+00    0,000000000e+00    0,000000000e+00
      492000000    2,845221199e-02   -1,241380908e-02   -2,893892527e-01    6,017825007e-01    0,000000000e+00    0,000000000e+00    0,000000000e+00    0,000000000e+00
      506000000    3,627109900e-02   -5,638789386e-02    6,924176961e-02    6,581746340e-01    0,000000000e+00    0,000000000e+00    0,000000000e+00    0,000000000e+00
      520000000    1,198132802e-02   -9,874738753e-02    4,031926394e-01    5,244227052e-01    0,000000000e+00    0,000000000e+00    0,000000000e+00    0,000000000e+00
      534000000   -3,469104320e-02   -1,160883233e-01    6,233493090e-01    2,359931320e-01    0,000000000e+00    0,000000000e+00    0,000000000e+00    0,000000000e+00
      548000000   -7,728487253e-02   -9,910381585e-02    6,580927968e-01   -1,334409565e-01    0,000000000e+00    0,000000000e+00    0,000000000e+00    0,000000000e+00
      562000000   -9,268112481e-02   -6,592623889e-02    4,817256629e-01   -4,665041864e-01    0,000000000e+00    0,000000000e+00    0,000000000e+00    0,000000000e+00
      576000000   -8,615747094e-02   -4,422021285e-02    1,505822241e-01   -6,484773159e-01    0,000000000e+00    0,000000000e+00    0,000000000e+00    0,000000000e+00
      590000000   -8,074383438e-02   -4,188276827e-02   -2,191769779e-01   -6,270995140e-01    0,000000000e+00    0,000000000e+00    0,000000000e+00    0,000000000e+00
      604000000   -8,894667029e-02   -3,732617944e-02   -5,204632878e-01   -4,049831331e-01    0,000000000e+00    0,000000000e+00    0,000000000e+00    0,000000000e+00
      618000000   -9,645871073e-02   -1,534214150e-02   -6,535437703e-01   -5,844683573e-02    0,000000000e+00    0,000000000e+00    0,000000000e+00    0,000000000e+00
      632000000   -8,145379275e-02    1,503226627e-02   -5,751960278e-01    3,027843535e-01    0,000000000e+00    0,000000000e+00    0,000000000e+00    0,000000000e+00
      646000000   -4,269311577e-02    2,627698891e-02   -3,190332651e-01    5,565837622e-01    0,000000000e+00    0,000000000e+00    0,000000000e+00    0,000000000e+00
      660000000   -7,019553334e-03    5,698257126e-03    2,193256095e-02    6,299365163e-01    0,000000000e+00    0,000000000e+00    0,000000000e+00    0,000000000e+00
      674000000    8,811810985e-04   -3,032954969e-02    3,428245187e-01    5,181838870e-01    0,000000000e+00    0,000000000e+00    0,000000000e+00    0,000000000e+00
      688000000   -1,417025272e-02   -5,536615103e-02    5,587619543e-01    2,585518062e-01    0,000000000e+00    0,000000000e+00    0,000000000e+00    0,000000000e+00
      702000000   -3,385901079e-02   -5,929046497e-02    6,068580151e-01   -8,050687611e-02    0,000000000e+00    0,000000000e+00    0,000000000e+00    0,000000000e+00
      716000000   -3,690521419e-02   -5,663237348e-02    4,585059583e-01   -3,906374872e-01    0,000000000e+00    0,000000000e+00    0,000000000e+00    0,000000000e+00
      730000000   -3,193189576e-02   -6,509840488e-02    1,732400060e-01   -5,658006072e-01    0,000000000e+00    0,000000000e+00    0,000000000e+00    0,000000000e+00
      744000000   -4,105915502e-02   -8,894687146e-02   -1,529882997e-01   -5,637387037e-01    0,000000000e+00    0,000000000e+00    0,000000000e+00    0,000000000e+00
      758000000   -7,347730547e-02   -1,043732166e-01   -4,276659489e-01   -3,948884606e-01    0,000000000e+00    0,000000000e+00    0,000000000e+00    0,000000000e+00
      772000000   -1,139083207e-01   -9,221487492e-02   -5,743972063e-01   -1,049428508e-01    0,000000000e+00    0,000000000e+00    0,000000000e+00    0,000000000e+00
      786000000   -1,387263238e-01   -5,516603962e-02   -5,446257591e-01    2,214647532e-01    0,000000000e+00    0,000000000e+00    0,000000000e+00    0,000000000e+00
      800000000   -1,321041286e-01   -1,489151828e-02   -3,410945535e-01    4,794284999e-01    0,000000000e+00    0,000000000e+00    0,000000000e+00    0,000000000e+00
      814000000   -1,071855426e-01    8,179944009e-03   -3,349163383e-02    5,859107375e-01    0,000000000e+00    0,000000000e+00    0,000000000e+00    0,000000000e+00
      828000000   -8,564577252e-02    1,264190301e-02    2,780709863e-01    5,130567551e-01    0,000000000e+00    0,000000000e+00    0,000000000e+00    0,000000000e+00
      842000000   -7,067091763e-02    1,408285182e-02    5,025706887e-01    2,893967628e-01    0,000000000e+00    0,000000000e+00    0,000000000e+00    0,000000000e+00
      856000000   -5,354517698e-02    1,800644025e-02    5,708430409e-01   -1,761665195e-02    0,000000000e+00    0,000000000e+00    0,000000000e+00    0,000000000e+00
      870000000   -2,424307726e-02    1,494355779e-02    4,638612568e-01   -3,061094880e-01    0,000000000e+00    0,000000000e+00    0,000000000e+00    0,000000000e+00
      884000000    5,132918246e-03   -1,391789783e-02    2,310134470e-01   -4,875708818e-01    0,000000000e+00    0,000000000e+00    0,000000000e+00    0,000000000e+00
      898000000    1,118130982e-02   -6,244561821e-02   -5,217794701e-02   -5,261963606e-01    0,000000000e+00    0,000000000e+00    0,000000000e+00    0,000000000e+00
      912000000   -2,312145941e-02   -1,066436768e-01   -3,608216047e-01   -3,938718438e-01    0,000000000e+00    0,000000000e+00    0,000000000e+00    0,000000000e+00
      926000000   -7,584083825e-02   -1,228209063e-01   -5,329000950e-01   -1,564338505e-01    0,000000000e+00    0,000000000e+00    0,000000000e+00    0,000000000e+00
      940000000   -1,250969321e-01   -1,021807641e-01   -5,530352592e-01    1,579973251e-01    0,000000000e+00    0,000000000e+00    0,000000000e+00    0,000000000e+00
      954000000   -1,388508528e-01   -6,032240763e-02   -3,906457722e-01    4,469838440e-01    0,000000000e+00    0,000000000e+00    0,000000000e+00    0,000000000e+00
      968000000   -1,321818531e-01   -2,840156108e-02   -9,206563234e-02    6,023796797e-01    0,000000000e+00    0,000000000e+00    0,000000000e+00    0,000000000e+00
      982000000   -1,124530733e-01   -1,601112820e-02    2,486065328e-01    5,709512830e-01    0,000000000e+00    0,000000000e+00    0,000000000e+00    0,000000000e+00
      996000000   -1,084797159e-01   -1,236785948e-02    5,129100084e-01    3,663935065e-01    0,000000000e+00    0,000000000e+00    0,000000000e+00    0,000000000e+00
     1010000000   -1,078156754e-01   -7,580724079e-03    6,314232945e-01    5,023119226e-02    0,000000000e+00    0,000000000e+00    0,000000000e+00    0,000000000e+00
     1024000000   -9,528524429e-02   -2,005444840e-04    5,607054234e-01   -2,726249993e-01    0,000000000e+00    0,000000000e+00    0,000000000e+00    0,000000000e+00
     1038000000   -7,490082085e-02   -3,951377701e-03    3,336235881e-01   -5,074149370e-01    0,000000000e+00    0,000000000e+00    0,000000000e+00    0,000000000e+00
     1052000000   -6,006694958e-02   -1,770647243e-02    2,937204577e-02   -5,851778388e-01    0,000000000e+00    0,000000000e+00    0,000000000e+00    0,000000000e+00
     1066000000   -7,132293284e-02   -3,106499650e-02   -2,675843537e-01   -4,967184961e-01    0,000000000e+00    0,000000000e+00    0,000000000e+00    0,000000000e+00
     1080000000   -8,407355100e-02   -3,496308252e-02   -4,816302359e-01   -2,678600550e-01    0,000000000e+00    0,000000000e+00    0,000000000e+00    0,000000000e+00
     1094000000   -8,311446011e-02   -1,318625454e-02   -5,299169421e-01    4,505009949e-02    0,000000000e+00    0,000000000e+00    0,000000000e+00    0,000000000e+00
     1108000000   -5,613090470e-02   -1,212178823e-02   -3,956084251e-01    3,265072703e-01    0,000000000e+00    0,000000000e+00    0,000000000e+00    0,000000000e+00
     1122000000   -3,033649735e-02   -3,346192464e-02   -1,330183148e-01    4,795841575e-01    0,000000000e+00    0,000000000e+00    0,000000000e+00    0,000000000e+00
     1136000000   -2,651680820e-02   -8,740160614e-02    1,624474674e-01    4,715301394e-01    0,000000000e+00    0,000000000e+00    0,000000000e+00    0,000000000e+00
     1150000000   -6,830909848e-02   -1,333070099e-01    4,169864357e-01    3,059090972e-01    0,000000000e+00    0,000000000e+00    0,000000000e+00    0,000000000e+00
     1164000000   -1,338901073e-01   -1,509141177e-01    5,593300462e-01    2,445051819e-02    0,000000000e+00    0,000000000e+00    0,000000000e+00    0,000000000e+00
     1178000000   -2,128410935e-01   -1,230790243e-01    5,255367756e-01   -3,168157637e-01    0,000000000e+00    0,000000000e+00    0,000000000e+00    0,000000000e+00
     1192000000   -2,469513267e-01   -4,920240119e-02    2,965426743e-01   -5,980083346e-01    0,000000000e+00    0,000000000e+00    0,000000000e+00    0,000000000e+00
     1206000000   -2,374632359e-01    3,340829536e-02   -6,820084155e-02   -6,988883018e-01    0,000000000e+00    0,000000000e+00    0,000000000e+00    0,000000000e+00
     1220000000   -1,894725859e-01    8,141350746e-02   -4,211384654e-01   -5,749239922e-01    0,000000000e+00    0,000000000e+00    0,000000000e+00    0,000000000e+00
     1234000000   -1,304953992e-01    1,058317944e-01   -6,484215260e-01   -2,894583941e-01    0,000000000e+00    0,000000000e+00    0,000000000e+00    0,000000000e+00
     1248000000   -6,957443058e-02    9,803801030e-02   -6,730573177e-01    6,213228777e-02    0,000000000e+00    0,000000000e+00    0,000000000e+00    0,000000000e+00
     1262000000   -1,189411990e-02    6,043670326e-02   -5,162789226e-01    3,653590679e-01    0,000000000e+00    0,000000000e+00    0,000000000e+00    0,000000000e+00
     1276000000    1,971208863e-02   -6,648632698e-04   -2,484164387e-01    5,440975428e-01    0,000000000e+00    0,000000000e+00    0,000000000e+00    0,000000000e+00
     1290000000    2,079519629e-02   -9,056756645e-02    6,907957047e-02    5,676482320e-01    0,000000000e+00    0,000000000e+00    0,000000000e+00    0,000000000e+00
     1304000000   -3,292168677e-02   -1,682072133e-01    3,614103794e-01    4,659170806e-01    0,000000000e+00    0,000000000e+00    0,000000000e+00    0,000000000e+00
     1318000000   -1,295335889e-01   -2,136237472e-01    5,832149982e-01    2,175069302e-01    0,000000000e+00    0,000000000e+00    0,000000000e+00    0,000000000e+00
     1332000000   -2,541761994e-01   -1,868308634e-01    6,453531981e-01   -1,235943511e-01    0,000000000e+00    0,000000000e+00    0,000000000e+00    0,000000000e+00
     1346000000   -3,325038254e-01   -9,509485960e-02    5,079126358e-01   -4,509969354e-01    0,000000000e+00    0,000000000e+00    0,000000000e+00    0,000000000e+00
     1360000000   -3,374112844e-01    2,181161754e-02    1,846175045e-01   -6,515005827e-01    0,000000000e+00    0,000000000e+00    0,000000000e+00    0,000000000e+00
     1374000000   -2,809917927e-01    9,826425463e-02   -1,489723325e-01   -6,017376781e-01    0,000000000e+00    0,000000000e+00    0,000000000e+00    0,000000000e+00
     1388000000   -2,114022374e-01    1,374011338e-01   -4,086951017e-01   -3,805548549e-01    0,000000000e+00    0,000000000e+00    0,000000000e+00    0,000000000e+00
     1402000000   -1,496256292e-01    1,420049220e-01   -4,766001701e-01   -5,829945579e-02    0,000000000e+00    0,000000000e+00    0,000000000e+00    0,000000000e+00
     1416000000   -9,591507167e-02    1,153892428e-01   -3,789151311e-01    2,403889447e-01    0,000000000e+00    0,000000000e+00    0,000000000e+00    0,000000000e+00
     1430000000   -5,866596475e-02    7,986900955e-02   -1,568238586e-01    4,553430974e-01    0,000000000e+00    0,000000000e+00    0,000000000e+00    0,000000000e+00
     1444000000   -3,747690469e-02    9,501651861e-03    1,699257344e-01    5,418195724e-01    0,000000000e+00    0,000000000e+00    0,000000000e+00    0,000000000e+00
     1458000000   -6,344720721e-02   -7,660974562e-02    4,769240916e-01    4,621729851e-01    0,000000000e+00    0,000000000e+00    0,000000000e+00    0,000000000e+00
     1472000000   -1,443578452e-01   -1,217063963e-01    7,452126741e-01    2,663353384e-01    0,000000000e+00    0,000000000e+00    0,000000000e+00    0,000000000e+00
     1486000000   -2,253285199e-01   -1,140990257e-01    8,924872875e-01   -7,382804155e-02    0,000000000e+00    0,000000000e+00    0,000000000e+00    0,000000000e+00
     1500000000   -2,833205462e-01   -4,445933923e-02    8,047215343e-01   -4,503543973e-01    0,000000000e+00    0,000000000e+00    0,000000000e+00    0,000000000e+00
