! NanoVNA-App
! Date: 2025-09-25 15:06:07
! Start: 100MHz Stop: 1,5GHz Points: 101
! S-Parameter data: F S11 S21 S12 S22
# Hz S RI R 50
!     Frequency           S11_Real           S11_Imag           S21_Real           S21_Imag           S12_Real           S12_Imag           S22_Real           S22_Imag
      100000000    3,115293570e-02    2,865177020e-02    4,348109365e-01   -6,686687469e-01    0,000000000e+00    0,000000000e+00    0,000000000e+00    0,000000000e+00
      114000000    5,755914748e-02    5,474232603e-03    7,717809174e-03   -7,909722924e-01    0,000000000e+00    0,000000000e+00    0,000000000e+00    0,000000000e+00
      128000000    6,729692966e-02   -3,785367310e-02   -4,104461372e-01   -6,711782813e-01    0,000000000e+00    0,000000000e+00    0,000000000e+00    0,000000000e+00
      142000000    4,472497106e-02   -8,419185132e-02   -7,029567957e-01   -3,531120420e-01    0,000000000e+00    0,000000000e+00    0,000000000e+00    0,000000000e+00
      156000000   -5,302023143e-03   -1,070349887e-01   -7,876252532e-01    7,383871824e-02    0,000000000e+00    0,000000000e+00    0,000000000e+00    0,000000000e+00
      170000000   -5,758732930e-02   -9,061829001e-02   -6,277033687e-01    4,871924520e-01    0,000000000e+00    0,000000000e+00    0,000000000e+00    0,000000000e+00
      184000000   -8,369299769e-02   -4,945631698e-02   -2,650007904e-01    7,511734962e-01    0,000000000e+00    0,000000000e+00    0,000000000e+00    0,000000000e+00
      198000000   -7,961478829e-02   -1,047675963e-02    1,837116927e-01    7,732502222e-01    0,000000000e+00    0,000000000e+00    0,000000000e+00    0,000000000e+00
      212000000   -6,221920997e-02    1,321749110e-02    5,693145394e-01    5,490597486e-01    0,000000000e+00    0,000000000e+00    0,000000000e+00    0,000000000e+00
      226000000   -4,332065582e-02    2,771468274e-02    7,707275152e-01    1,545086652e-01    0,000000000e+00    0,000000000e+00    0,000000000e+00    0,000000000e+00
      240000000   -1,824428141e-02    3,849723935e-02    7,270492315e-01   -2,820644081e-01    0,000000000e+00    0,000000000e+00    0,000000000e+00    0,000000000e+00
      254000000    1,719617471e-02    3,519421443e-02    4,579240084e-01   -6,202833652e-01    0,000000000e+00    0,000000000e+00    0,000000000e+00    0,000000000e+00
      268000000    4,876672104e-02    5,558605306e-03    5,869040266e-02   -7,603824139e-01    0,000000000e+00    0,000000000e+00    0,000000000e+00    0,000000000e+00
      282000000    5,345721170e-02   -4,174016416e-02   -3,489832878e-01   -6,715698838e-01    0,000000000e+00    0,000000000e+00    0,000000000e+00    0,000000000e+00
      296000000    2,397199534e-02   -7,946222275e-02   -6,523212790e-01   -3,857518733e-01    0,000000000e+00    0,000000000e+00    0,000000000e+00    0,000000000e+00
      310000000   -1,800653711e-02   -8,313576132e-02   -7,639790177e-01    1,986661181e-02    0,000000000e+00    0,000000000e+00    0,000000000e+00    0,000000000e+00
      324000000   -4,154459387e-02   -5,909439176e-02   -6,323324442e-01    4,307567775e-01    0,000000000e+00    0,000000000e+00    0,000000000e+00    0,000000000e+00
      338000000   -3,432691097e-02   -3,670034558e-02   -2,945721745e-01    6,990611553e-01    0,000000000e+00    0,000000000e+00    0,000000000e+00    0,000000000e+00
      352000000   -1,723031513e-02   -4,078549519e-02    1,258588731e-01    7,417389154e-01    0,000000000e+00    0,000000000e+00    0,000000000e+00    0,000000000e+00
      366000000   -1,929679886e-02   -6,186934933e-02    4,975335896e-01    5,538735390e-01    0,000000000e+00    0,000000000e+00    0,000000000e+00    0,000000000e+00
      380000000   -4,461871088e-02   -7,250872999e-02    7,132152915e-01    1,999874711e-01    0,000000000e+00    0,000000000e+00    0,000000000e+00    0,000000000e+00
      394000000   -7,078303397e-02   -5,829009414e-02    7,035399079e-01   -2,164256126e-01    0,000000000e+00    0,000000000e+00    0,000000000e+00    0,000000000e+00
      408000000   -7,681697607e-02   -3,038863279e-02    4,712615907e-01   -5,595338941e-01    0,000000000e+00    0,000000000e+00    0,000000000e+00    0,000000000e+00
      422000000   -6,548681855e-02   -1,109381672e-02    9,363015741e-02   -7,176546454e-01    0,000000000e+00    0,000000000e+00    0,000000000e+00    0,000000000e+00
      436000000   -5,288990214e-02   -4,937863443e-03   -3,021165729e-01   -6,476845145e-01    0,000000000e+00    0,000000000e+00    0,000000000e+00    0,000000000e+00
      450000000   -4,474805668e-02    1,787659596e-03   -5,937278271e-01   -3,780944645e-01    0,000000000e+00    0,000000000e+00    0,000000000e+00    0,000000000e+00
      464000000   -2,952499501e-02    1,137754973e-02   -6,910035014e-01   -1,809840069e-05    0,000000000e+00    0,000000000e+00    0,000000000e+00    0,000000000e+00
      478000000   -7,281388389e-04    1,149609033e-02   -5,736072063e-01    3,633964956e-01    0,000000000e+00    0,000000000e+00    0,000000000e+00    0,000000000e+00
      492000000    2,807921730e-02   -1,213372685e-02   -2,891187668e-01    6,020687819e-01    0,000000000e+00    0,000000000e+00    0,000000000e+00    0,000000000e+00
      506000000    3,627407178e-02   -5,595830828e-02    6,827637553e-02    6,579369903e-01    0,000000000e+00    0,000000000e+00    0,000000000e+00    0,000000000e+00
      520000000    1,296063140e-02   -9,866873920e-02    4,057511091e-01    5,247404575e-01    0,000000000e+00    0,000000000e+00    0,000000000e+00    0,000000000e+00
      534000000   -3,443466499e-02   -1,162127033e-01    6,238039732e-01    2,357387692e-01    0,000000000e+00    0,000000000e+00    0,000000000e+00    0,000000000e+00
      548000000   -7,725681365e-02   -9,935988486e-02    6,582376361e-01   -1,332828254e-01    0,000000000e+00    0,000000000e+00    0,000000000e+00    0,000000000e+00
      562000000   -9,344127774e-02   -6,604199111e-02    4,816326797e-01   -4,665013552e-01    0,000000000e+00    0,000000000e+00    0,000000000e+00    0,000000000e+00
      576000000   -8,649487793e-02   -4,413930699e-02    1,508659124e-01   -6,472734213e-01    0,000000000e+00    0,000000000e+00    0,000000000e+00    0,000000000e+00
      590000000   -8,048634231e-02   -4,143351689e-02   -2,205211967e-01   -6,266508698e-01    0,000000000e+00    0,000000000e+00    0,000000000e+00    0,000000000e+00
      604000000   -8,844195306e-02   -3,713265061e-02   -5,193160176e-01   -4,060074687e-01    0,000000000e+00    0,000000000e+00    0,000000000e+00    0,000000000e+00
      618000000   -9,590941668e-02   -1,488091704e-02   -6,525451541e-01   -5,822541192e-02    0,000000000e+00    0,000000000e+00    0,000000000e+00    0,000000000e+00
      632000000   -8,131442964e-02    1,531684306e-02   -5,755592585e-01    3,026275933e-01    0,000000000e+00    0,000000000e+00    0,000000000e+00    0,000000000e+00
      646000000   -4,339159653e-02    2,630378306e-02   -3,182471693e-01    5,556711555e-01    0,000000000e+00    0,000000000e+00    0,000000000e+00    0,000000000e+00
      660000000   -7,607760839e-03    6,296746433e-03    2,117917873e-02    6,289787889e-01    0,000000000e+00    0,000000000e+00    0,000000000e+00    0,000000000e+00
      674000000    1,282194164e-03   -3,052160330e-02    3,428988457e-01    5,190512538e-01    0,000000000e+00    0,000000000e+00    0,000000000e+00    0,000000000e+00
      688000000   -1,425036695e-02   -5,572215095e-02    5,585074425e-01    2,585020363e-01    0,000000000e+00    0,000000000e+00    0,000000000e+00    0,000000000e+00
      702000000   -3,441571444e-02   -5,986012891e-02    6,070480943e-01   -7,843519002e-02    0,000000000e+00    0,000000000e+00    0,000000000e+00    0,000000000e+00
      716000000   -3,695800900e-02   -5,474381894e-02    4,603726268e-01   -3,902872801e-01    0,000000000e+00    0,000000000e+00    0,000000000e+00    0,000000000e+00
      730000000   -3,201994300e-02   -6,443382800e-02    1,742459238e-01   -5,658643246e-01    0,000000000e+00    0,000000000e+00    0,000000000e+00    0,000000000e+00
      744000000   -3,955324367e-02   -8,852681518e-02   -1,528096497e-01   -5,641362667e-01    0,000000000e+00    0,000000000e+00    0,000000000e+00    0,000000000e+00
      758000000   -7,198696584e-02   -1,046038121e-01   -4,275225401e-01   -3,950170577e-01    0,000000000e+00    0,000000000e+00    0,000000000e+00    0,000000000e+00
      772000000   -1,143437251e-01   -9,374903888e-02   -5,743248463e-01   -1,058576480e-01    0,000000000e+00    0,000000000e+00    0,000000000e+00    0,000000000e+00
      786000000   -1,396630406e-01   -5,624303594e-02   -5,451619625e-01    2,207662761e-01    0,000000000e+00    0,000000000e+00    0,000000000e+00    0,000000000e+00
      800000000   -1,329314411e-01   -1,409475505e-02   -3,422547877e-01    4,799575508e-01    0,000000000e+00    0,000000000e+00    0,000000000e+00    0,000000000e+00
      814000000   -1,085812971e-01    8,869202808e-03   -3,436426073e-02    5,854123831e-01    0,000000000e+00    0,000000000e+00    0,000000000e+00    0,000000000e+00
      828000000   -8,524108678e-02    1,385978609e-02    2,787630856e-01    5,130856037e-01    0,000000000e+00    0,000000000e+00    0,000000000e+00    0,000000000e+00
      842000000   -7,030932605e-02    1,491893362e-02    5,021797419e-01    2,893023193e-01    0,000000000e+00    0,000000000e+00    0,000000000e+00    0,000000000e+00
      856000000   -5,269078165e-02    1,930839941e-02    5,700422525e-01   -1,827017777e-02    0,000000000e+00    0,000000000e+00    0,000000000e+00    0,000000000e+00
      870000000   -2,305735275e-02    1,380567439e-02    4,640614986e-01   -3,071644902e-01    0,000000000e+00    0,000000000e+00    0,000000000e+00    0,000000000e+00
      884000000    6,471564062e-03   -1,444139704e-02    2,295591682e-01   -4,867410362e-01    0,000000000e+00    0,000000000e+00    0,000000000e+00    0,000000000e+00
      898000000    1,174044237e-02   -6,416683644e-02   -5,244330317e-02   -5,267655253e-01    0,000000000e+00    0,000000000e+00    0,000000000e+00    0,000000000e+00
      912000000   -2,348399349e-02   -1,086841375e-01   -3,532024622e-01   -4,021355510e-01    0,000000000e+00    0,000000000e+00    0,000000000e+00    0,000000000e+00
      926000000   -7,633713633e-02   -1,245959997e-01   -5,305168033e-01   -1,606277227e-01    0,000000000e+00    0,000000000e+00    0,000000000e+00    0,000000000e+00
      940000000   -1,242832243e-01   -1,001214907e-01   -5,526371002e-01    1,571544409e-01    0,000000000e+00    0,000000000e+00    0,000000000e+00    0,000000000e+00
      954000000   -1,401778013e-01   -6,081478298e-02   -3,906704783e-01    4,438981712e-01    0,000000000e+00    0,000000000e+00    0,000000000e+00    0,000000000e+00
      968000000   -1,323255748e-01   -3,004162945e-02   -9,470828623e-02    6,036046147e-01    0,000000000e+00    0,000000000e+00    0,000000000e+00    0,000000000e+00
      982000000   -1,130388901e-01   -1,773511060e-02    2,479420602e-01    5,707800388e-01    0,000000000e+00    0,000000000e+00    0,000000000e+00    0,000000000e+00
      996000000   -1,043750644e-01   -1,239903178e-02    5,135123730e-01    3,666545153e-01    0,000000000e+00    0,000000000e+00    0,000000000e+00    0,000000000e+00
     1010000000   -1,037823632e-01   -6,719034631e-03    6,286719441e-01    5,283199623e-02    0,000000000e+00    0,000000000e+00    0,000000000e+00    0,000000000e+00
     1024000000   -8,947438002e-02   -6,295773783e-04    5,604243279e-01   -2,711003721e-01    0,000000000e+00    0,000000000e+00    0,000000000e+00    0,000000000e+00
     1038000000   -7,408455759e-02    1,371156308e-03    3,385389745e-01   -5,050970912e-01    0,000000000e+00    0,000000000e+00    0,000000000e+00    0,000000000e+00
     1052000000   -6,301780790e-02   -1,869392954e-02    3,255443648e-02   -5,860282183e-01    0,000000000e+00    0,000000000e+00    0,000000000e+00    0,000000000e+00
     1066000000   -6,674314290e-02   -3,199206665e-02   -2,726181746e-01   -5,016257167e-01    0,000000000e+00    0,000000000e+00    0,000000000e+00    0,000000000e+00
     1080000000   -8,029555529e-02   -2,719124593e-02   -4,807443321e-01   -2,719051838e-01    0,000000000e+00    0,000000000e+00    0,000000000e+00    0,000000000e+00
     1094000000   -8,414842188e-02   -1,451074332e-02   -5,306124687e-01    4,254680127e-02    0,000000000e+00    0,000000000e+00    0,000000000e+00    0,000000000e+00
     1108000000   -6,015015021e-02   -1,451027673e-02   -3,980771899e-01    3,247016370e-01    0,000000000e+00    0,000000000e+00    0,000000000e+00    0,000000000e+00
     1122000000   -3,094310500e-02   -3,842802346e-02   -1,338659823e-01    4,828502238e-01    0,000000000e+00    0,000000000e+00    0,000000000e+00    0,000000000e+00
     1136000000   -2,545653097e-02   -8,629310876e-02    1,660526693e-01    4,736241400e-01    0,000000000e+00    0,000000000e+00    0,000000000e+00    0,000000000e+00
     1150000000   -6,852144003e-02   -1,367041320e-01    4,219388366e-01    3,119564652e-01    0,000000000e+00    0,000000000e+00    0,000000000e+00    0,000000000e+00
     1164000000   -1,393762976e-01   -1,499847323e-01    5,637790561e-01    2,624791116e-02    0,000000000e+00    0,000000000e+00    0,000000000e+00    0,000000000e+00
     1178000000   -2,146306783e-01   -1,219466031e-01    5,310042500e-01   -3,176374733e-01    0,000000000e+00    0,000000000e+00    0,000000000e+00    0,000000000e+00
     1192000000   -2,460298240e-01   -4,619448632e-02    2,939405441e-01   -5,995742679e-01    0,000000000e+00    0,000000000e+00    0,000000000e+00    0,000000000e+00
     1206000000   -2,357635349e-01    3,419585526e-02   -6,684555113e-02   -6,996527314e-01    0,000000000e+00    0,000000000e+00    0,000000000e+00    0,000000000e+00
     1220000000   -1,845452785e-01    8,766062558e-02   -4,194433987e-01   -5,789468288e-01    0,000000000e+00    0,000000000e+00    0,000000000e+00    0,000000000e+00
     1234000000   -1,303151995e-01    1,073831096e-01   -6,418413520e-01   -2,881916165e-01    0,000000000e+00    0,000000000e+00    0,000000000e+00    0,000000000e+00
     1248000000   -6,506829709e-02    9,662500769e-02   -6,725328565e-01    6,482379884e-02    0,000000000e+00    0,000000000e+00    0,000000000e+00    0,000000000e+00
     1262000000   -8,710035123e-03    6,322535872e-02   -5,148174763e-01    3,728118241e-01    0,000000000e+00    0,000000000e+00    0,000000000e+00    0,000000000e+00
     1276000000    2,662623860e-02   -6,895878469e-04   -2,419468760e-01    5,460604429e-01    0,000000000e+00    0,000000000e+00    0,000000000e+00    0,000000000e+00
     1290000000    2,303999849e-02   -8,662334085e-02    7,298568636e-02    5,789555907e-01    0,000000000e+00    0,000000000e+00    0,000000000e+00    0,000000000e+00
     1304000000   -3,049101681e-02   -1,698212624e-01    3,696681559e-01    4,638919830e-01    0,000000000e+00    0,000000000e+00    0,000000000e+00    0,000000000e+00
     1318000000   -1,377467066e-01   -2,167875171e-01    5,813833475e-01    2,205606550e-01    0,000000000e+00    0,000000000e+00    0,000000000e+00    0,000000000e+00
     1332000000   -2,505661845e-01   -1,881980151e-01    6,522336602e-01   -1,309657544e-01    0,000000000e+00    0,000000000e+00    0,000000000e+00    0,000000000e+00
     1346000000   -3,302331269e-01   -9,412372112e-02    5,067634583e-01   -4,663676023e-01    0,000000000e+00    0,000000000e+00    0,000000000e+00    0,000000000e+00
     1360000000   -3,381516039e-01    2,751765773e-02    1,851140261e-01   -6,453123093e-01    0,000000000e+00    0,000000000e+00    0,000000000e+00    0,000000000e+00
     1374000000   -2,832500041e-01    1,038453951e-01   -1,694181412e-01   -6,092957258e-01    0,000000000e+00    0,000000000e+00    0,000000000e+00    0,000000000e+00
     1388000000   -2,130656987e-01    1,398971379e-01   -4,026744664e-01   -3,746608496e-01    0,000000000e+00    0,000000000e+00    0,000000000e+00    0,000000000e+00
     1402000000   -1,479851753e-01    1,375118792e-01   -4,770206809e-01   -6,446601450e-02    0,000000000e+00    0,000000000e+00    0,000000000e+00    0,000000000e+00
     1416000000   -9,679932147e-02    1,210237890e-01   -3,729694784e-01    2,500203252e-01    0,000000000e+00    0,000000000e+00    0,000000000e+00    0,000000000e+00
     1430000000   -5,017397180e-02    7,320051640e-02   -1,221774966e-01    4,456712604e-01    0,000000000e+00    0,000000000e+00    0,000000000e+00    0,000000000e+00
     1444000000   -3,901104257e-02    3,441716777e-03    1,701238155e-01    5,344694257e-01    0,000000000e+00    0,000000000e+00    0,000000000e+00    0,000000000e+00
     1458000000   -6,139679998e-02   -6,745578349e-02    4,810972810e-01    4,761061668e-01    0,000000000e+00    0,000000000e+00    0,000000000e+00    0,000000000e+00
     1472000000   -1,329024136e-01   -1,248851195e-01    7,624862790e-01    2,564212978e-01    0,000000000e+00    0,000000000e+00    0,000000000e+00    0,000000000e+00
     1486000000   -2,294146568e-01   -1,177058741e-01    8,911970854e-01   -8,899962902e-02    0,000000000e+00    0,000000000e+00    0,000000000e+00    0,000000000e+00
     1500000000   -2,777617872e-01   -4,329800978e-02    8,115591407e-01   -4,393764436e-01    0,000000000e+00    0,000000000e+00    0,000000000e+00    0,000000000e+00
