! NanoVNA-App
! Date: 2025-09-25 15:07:34
! Start: 100MHz Stop: 1,5GHz Points: 101
! S-Parameter data: F S11 S21 S12 S22
# Hz S RI R 50
!     Frequency           S11_Real           S11_Imag           S21_Real           S21_Imag           S12_Real           S12_Imag           S22_Real           S22_Imag
      100000000    3,115125373e-02    2,865620330e-02    4,348273277e-01   -6,686630845e-01    0,000000000e+00    0,000000000e+00    0,000000000e+00    0,000000000e+00
      114000000    5,759280547e-02    5,483503919e-03    7,759676781e-03   -7,908548117e-01    0,000000000e+00    0,000000000e+00    0,000000000e+00    0,000000000e+00
      128000000    6,728196889e-02   -3,783525899e-02   -4,102026522e-01   -6,712359786e-01    0,000000000e+00    0,000000000e+00    0,000000000e+00    0,000000000e+00
      142000000    4,478202760e-02   -8,421999216e-02   -7,026759386e-01   -3,531179428e-01    0,000000000e+00    0,000000000e+00    0,000000000e+00    0,000000000e+00
      156000000   -5,439097062e-03   -1,068612784e-01   -7,875288725e-01    7,352960110e-02    0,000000000e+00    0,000000000e+00    0,000000000e+00    0,000000000e+00
      170000000   -5,761564896e-02   -9,054633975e-02   -6,275012493e-01    4,870050251e-01    0,000000000e+00    0,000000000e+00    0,000000000e+00    0,000000000e+00
      184000000   -8,366098255e-02   -4,944613576e-02   -2,649942935e-01    7,511180043e-01    0,000000000e+00    0,000000000e+00    0,000000000e+00    0,000000000e+00
      198000000   -7,962778211e-02   -1,044224575e-02    1,833367944e-01    7,732281685e-01    0,000000000e+00    0,000000000e+00    0,000000000e+00    0,000000000e+00
      212000000   -6,228790432e-02    1,315477863e-02    5,691388845e-01    5,492228270e-01    0,000000000e+00    0,000000000e+00    0,000000000e+00    0,000000000e+00
      226000000   -4,328583553e-02    2,764075249e-02    7,707353830e-01    1,546649188e-01    0,000000000e+00    0,000000000e+00    0,000000000e+00    0,000000000e+00
      240000000   -1,825634763e-02    3,852855042e-02    7,269138694e-01   -2,819471657e-01    0,000000000e+00    0,000000000e+00    0,000000000e+00    0,000000000e+00
      254000000    1,722292602e-02    3,515587375e-02    4,576308429e-01   -6,202400327e-01    0,000000000e+00    0,000000000e+00    0,000000000e+00    0,000000000e+00
      268000000    4,873884469e-02    5,601224490e-03    5,868051946e-02   -7,604175806e-01    0,000000000e+00    0,000000000e+00    0,000000000e+00    0,000000000e+00
      282000000    5,352861807e-02   -4,179312289e-02   -3,492600024e-01   -6,714962125e-01    0,000000000e+00    0,000000000e+00    0,000000000e+00    0,000000000e+00
      296000000    2,405935898e-02   -7,950248569e-02   -6,518115401e-01   -3,853575587e-01    0,000000000e+00    0,000000000e+00    0,000000000e+00    0,000000000e+00
      310000000   -1,786955260e-02   -8,311600238e-02   -7,638334632e-01    2,054769918e-02    0,000000000e+00    0,000000000e+00    0,000000000e+00    0,000000000e+00
      324000000   -4,142932594e-02   -5,874903128e-02   -6,314371228e-01    4,312075675e-01    0,000000000e+00    0,000000000e+00    0,000000000e+00    0,000000000e+00
      338000000   -3,426501900e-02   -3,669995070e-02   -2,983894050e-01    7,020772099e-01    0,000000000e+00    0,000000000e+00    0,000000000e+00    0,000000000e+00
      352000000   -1,727869734e-02   -4,061251879e-02    1,255502850e-01    7,431058884e-01    0,000000000e+00    0,000000000e+00    0,000000000e+00    0,000000000e+00
      366000000   -1,918758824e-02   -6,216073036e-02    4,981289208e-01    5,544571280e-01    0,000000000e+00    0,000000000e+00    0,000000000e+00    0,000000000e+00
      380000000   -4,430910945e-02   -7,283188403e-02    7,138916254e-01    2,002972662e-01    0,000000000e+00    0,000000000e+00    0,000000000e+00    0,000000000e+00
      394000000   -7,090099156e-02   -5,805818737e-02    7,042059302e-01   -2,168370336e-01    0,000000000e+00    0,000000000e+00    0,000000000e+00    0,000000000e+00
      408000000   -7,689539343e-02   -3,064312413e-02    4,706639946e-01   -5,601869822e-01    0,000000000e+00    0,000000000e+00    0,000000000e+00    0,000000000e+00
      422000000   -6,553030014e-02   -1,112360414e-02    9,284365177e-02   -7,183312774e-01    0,000000000e+00    0,000000000e+00    0,000000000e+00    0,000000000e+00
      436000000   -5,287999660e-02   -4,528061487e-03   -3,028157949e-01   -6,478468776e-01    0,000000000e+00    0,000000000e+00    0,000000000e+00    0,000000000e+00
      450000000   -4,479056597e-02    1,659659785e-03   -5,933558941e-01   -3,780766129e-01    0,000000000e+00    0,000000000e+00    0,000000000e+00    0,000000000e+00
      464000000   -2,919346467e-02    1,124502812e-02   -6,913153529e-01    2,885013964e-05    0,000000000e+00    0,000000000e+00    0,000000000e+00    0,000000000e+00
      478000000   -1,044583973e-03    1,110261586e-02   -5,731104612e-01    3,634469807e-01    0,000000000e+00    0,000000000e+00    0,000000000e+00    0,000000000e+00
      492000000    2,787452191e-02   -1,247252058e-02   -2,889564335e-01    6,017739177e-01    0,000000000e+00    0,000000000e+00    0,000000000e+00    0,000000000e+00
      506000000    3,637244552e-02   -5,561695993e-02    6,878338009e-02    6,593486071e-01    0,000000000e+00    0,000000000e+00    0,000000000e+00    0,000000000e+00
      520000000    1,221699268e-02   -9,826730192e-02    4,002470970e-01    5,237277150e-01    0,000000000e+00    0,000000000e+00    0,000000000e+00    0,000000000e+00
      534000000   -3,443016484e-02   -1,160428599e-01    6,243352890e-01    2,360868305e-01    0,000000000e+00    0,000000000e+00    0,000000000e+00    0,000000000e+00
      548000000   -7,731297612e-02   -9,974215180e-02    6,580069065e-01   -1,338187307e-01    0,000000000e+00    0,000000000e+00    0,000000000e+00    0,000000000e+00
      562000000   -9,373070300e-02   -6,581840664e-02    4,813530743e-01   -4,670188129e-01    0,000000000e+00    0,000000000e+00    0,000000000e+00    0,000000000e+00
      576000000   -8,605466038e-02   -4,428146407e-02    1,509830952e-01   -6,478055120e-01    0,000000000e+00    0,000000000e+00    0,000000000e+00    0,000000000e+00
      590000000   -8,068542928e-02   -4,167731106e-02   -2,205919474e-01   -6,260523200e-01    0,000000000e+00    0,000000000e+00    0,000000000e+00    0,000000000e+00
      604000000   -8,912635595e-02   -3,737267107e-02   -5,202611089e-01   -4,058046937e-01    0,000000000e+00    0,000000000e+00    0,000000000e+00    0,000000000e+00
      618000000   -9,629693627e-02   -1,466294564e-02   -6,530519128e-01   -5,799807608e-02    0,000000000e+00    0,000000000e+00    0,000000000e+00    0,000000000e+00
      632000000   -8,123360574e-02    1,563510858e-02   -5,754259229e-01    3,030067682e-01    0,000000000e+00    0,000000000e+00    0,000000000e+00    0,000000000e+00
      646000000   -4,257963225e-02    2,594320476e-02   -3,180683553e-01    5,559121370e-01    0,000000000e+00    0,000000000e+00    0,000000000e+00    0,000000000e+00
      660000000   -7,147200871e-03    5,881260615e-03    2,195346728e-02    6,287418008e-01    0,000000000e+00    0,000000000e+00    0,000000000e+00    0,000000000e+00
      674000000    7,870335248e-04   -3,051170334e-02    3,411098719e-01    5,188979506e-01    0,000000000e+00    0,000000000e+00    0,000000000e+00    0,000000000e+00
      688000000   -1,453446038e-02   -5,612555519e-02    5,591207743e-01    2,586661875e-01    0,000000000e+00    0,000000000e+00    0,000000000e+00    0,000000000e+00
      702000000   -3,274786472e-02   -6,048375741e-02    6,066430211e-01   -7,856816798e-02    0,000000000e+00    0,000000000e+00    0,000000000e+00    0,000000000e+00
      716000000   -3,759040311e-02   -5,568905920e-02    4,595927894e-01   -3,895078003e-01    0,000000000e+00    0,000000000e+00    0,000000000e+00    0,000000000e+00
      730000000   -3,200959414e-02   -6,444441527e-02    1,743335128e-01   -5,669755340e-01    0,000000000e+00    0,000000000e+00    0,000000000e+00    0,000000000e+00
      744000000   -4,101119936e-02   -8,819925040e-02   -1,540140212e-01   -5,641962886e-01    0,000000000e+00    0,000000000e+00    0,000000000e+00    0,000000000e+00
      758000000   -7,270450145e-02   -1,053952724e-01   -4,279902577e-01   -3,943886161e-01    0,000000000e+00    0,000000000e+00    0,000000000e+00    0,000000000e+00
      772000000   -1,143073440e-01   -9,323573858e-02   -5,739483237e-01   -1,059718952e-01    0,000000000e+00    0,000000000e+00    0,000000000e+00    0,000000000e+00
      786000000   -1,381702572e-01   -5,616462603e-02   -5,446770191e-01    2,209986597e-01    0,000000000e+00    0,000000000e+00    0,000000000e+00    0,000000000e+00
      800000000   -1,331219524e-01   -1,505277958e-02   -3,407131135e-01    4,799849689e-01    0,000000000e+00    0,000000000e+00    0,000000000e+00    0,000000000e+00
      814000000   -1,082582399e-01    8,917205036e-03   -3,342284262e-02    5,869529247e-01    0,000000000e+00    0,000000000e+00    0,000000000e+00    0,000000000e+00
      828000000   -8,605361730e-02    1,342413574e-02    2,781414688e-01    5,154518485e-01    0,000000000e+00    0,000000000e+00    0,000000000e+00    0,000000000e+00
      842000000   -7,090669870e-02    1,461032499e-02    5,027920008e-01    2,892636657e-01    0,000000000e+00    0,000000000e+00    0,000000000e+00    0,000000000e+00
      856000000   -5,220548809e-02    1,864969730e-02    5,705974698e-01   -1,814033650e-02    0,000000000e+00    0,000000000e+00    0,000000000e+00    0,000000000e+00
      870000000   -2,336078137e-02    1,414994150e-02    4,632194638e-01   -3,063526452e-01    0,000000000e+00    0,000000000e+00    0,000000000e+00    0,000000000e+00
      884000000    5,836107768e-03   -1,472499035e-02    2,297800183e-01   -4,882381558e-01    0,000000000e+00    0,000000000e+00    0,000000000e+00    0,000000000e+00
      898000000    1,139699016e-02   -6,338096410e-02   -5,247427151e-02   -5,268444419e-01    0,000000000e+00    0,000000000e+00    0,000000000e+00    0,000000000e+00
      912000000   -2,380470186e-02   -1,081864238e-01   -3,668968379e-01   -4,039828181e-01    0,000000000e+00    0,000000000e+00    0,000000000e+00    0,000000000e+00
      926000000   -7,548566163e-02   -1,223604009e-01   -5,307690501e-01   -1,565750092e-01    0,000000000e+00    0,000000000e+00    0,000000000e+00    0,000000000e+00
      940000000   -1,217335016e-01   -1,050288528e-01   -5,506395698e-01    1,550601572e-01    0,000000000e+00    0,000000000e+00    0,000000000e+00    0,000000000e+00
      954000000   -1,449374855e-01   -6,156179309e-02   -3,918453455e-01    4,467331171e-01    0,000000000e+00    0,000000000e+00    0,000000000e+00    0,000000000e+00
      968000000   -1,328880787e-01   -3,123840503e-02   -9,173833579e-02    6,017768979e-01    0,000000000e+00    0,000000000e+00    0,000000000e+00    0,000000000e+00
      982000000   -1,150025502e-01   -1,294931956e-02    2,454895973e-01    5,704172850e-01    0,000000000e+00    0,000000000e+00    0,000000000e+00    0,000000000e+00
      996000000   -1,039184034e-01   -1,410111692e-02    5,142015815e-01    3,661604524e-01    0,000000000e+00    0,000000000e+00    0,000000000e+00    0,000000000e+00
     1010000000   -1,005725116e-01   -8,006388322e-03    6,285952330e-01    5,308472365e-02    0,000000000e+00    0,000000000e+00    0,000000000e+00    0,000000000e+00
     1024000000   -9,420049191e-02   -2,767054597e-03    5,613725781e-01   -2,696385980e-01    0,000000000e+00    0,000000000e+00    0,000000000e+00    0,000000000e+00
     1038000000   -7,422762364e-02   -2,820945811e-03    3,388443291e-01   -5,028669834e-01    0,000000000e+00    0,000000000e+00    0,000000000e+00    0,000000000e+00
     1052000000   -6,720551848e-02   -1,609270461e-02    3,289721906e-02   -5,836519003e-01    0,000000000e+00    0,000000000e+00    0,000000000e+00    0,000000000e+00
     1066000000   -7,022193074e-02   -3,338609636e-02   -2,700411677e-01   -5,014266372e-01    0,000000000e+00    0,000000000e+00    0,000000000e+00    0,000000000e+00
     1080000000   -8,376339823e-02   -2,789967880e-02   -4,807105064e-01   -2,703056633e-01    0,000000000e+00    0,000000000e+00    0,000000000e+00    0,000000000e+00
     1094000000   -7,777963579e-02   -1,665139385e-02   -5,323585868e-01    4,239535704e-02    0,000000000e+00    0,000000000e+00    0,000000000e+00    0,000000000e+00
     1108000000   -5,654454604e-02   -1,073674113e-02   -3,987734616e-01    3,246731162e-01    0,000000000e+00    0,000000000e+00    0,000000000e+00    0,000000000e+00
     1122000000   -3,340887651e-02   -3,394990042e-02   -1,364463717e-01    4,806478918e-01    0,000000000e+00    0,000000000e+00    0,000000000e+00    0,000000000e+00
     1136000000   -3,058016859e-02   -8,717523515e-02    1,646072119e-01    4,738941789e-01    0,000000000e+00    0,000000000e+00    0,000000000e+00    0,000000000e+00
     1150000000   -6,448438764e-02   -1,385775954e-01    4,139370024e-01    3,109625876e-01    0,000000000e+00    0,000000000e+00    0,000000000e+00    0,000000000e+00
     1164000000   -1,401613951e-01   -1,520842463e-01    5,653187633e-01    2,714317292e-02    0,000000000e+00    0,000000000e+00    0,000000000e+00    0,000000000e+00
     1178000000   -2,149250805e-01   -1,211401969e-01    5,309677720e-01   -3,161960244e-01    0,000000000e+00    0,000000000e+00    0,000000000e+00    0,000000000e+00
     1192000000   -2,460520416e-01   -4,005932063e-02    2,960475087e-01   -5,980996490e-01    0,000000000e+00    0,000000000e+00    0,000000000e+00    0,000000000e+00
     1206000000   -2,283096313e-01    3,252009675e-02   -6,893423945e-02   -6,966087222e-01    0,000000000e+00    0,000000000e+00    0,000000000e+00    0,000000000e+00
     1220000000   -1,877577156e-01    8,254752308e-02   -4,218115509e-01   -5,781004429e-01    0,000000000e+00    0,000000000e+00    0,000000000e+00    0,000000000e+00
     1234000000   -1,261362433e-01    9,772246331e-02   -6,443256140e-01   -2,946426272e-01    0,000000000e+00    0,000000000e+00    0,000000000e+00    0,000000000e+00
     1248000000   -6,347658485e-02    9,850291163e-02   -6,744751334e-01    6,679651886e-02    0,000000000e+00    0,000000000e+00    0,000000000e+00    0,000000000e+00
     1262000000   -1,429049484e-02    6,029273942e-02   -5,198690295e-01    3,717755079e-01    0,000000000e+00    0,000000000e+00    0,000000000e+00    0,000000000e+00
     1276000000    2,292245813e-02   -7,391746040e-04   -2,403251529e-01    5,490329862e-01    0,000000000e+00    0,000000000e+00    0,000000000e+00    0,000000000e+00
     1290000000    1,891958527e-02   -8,571001887e-02    6,294997036e-02    5,766652226e-01    0,000000000e+00    0,000000000e+00    0,000000000e+00    0,000000000e+00
     1304000000   -3,564341739e-02   -1,720413119e-01    3,598532975e-01    4,636043310e-01    0,000000000e+00    0,000000000e+00    0,000000000e+00    0,000000000e+00
     1318000000   -1,351989955e-01   -2,143409103e-01    5,874320865e-01    2,159377784e-01    0,000000000e+00    0,000000000e+00    0,000000000e+00    0,000000000e+00
     1332000000   -2,545242608e-01   -1,893763244e-01    6,485322714e-01   -1,257303357e-01    0,000000000e+00    0,000000000e+00    0,000000000e+00    0,000000000e+00
     1346000000   -3,327133656e-01   -9,314281493e-02    5,002151132e-01   -4,693668783e-01    0,000000000e+00    0,000000000e+00    0,000000000e+00    0,000000000e+00
     1360000000   -3,346999288e-01    2,227439545e-02    1,896553338e-01   -6,469968557e-01    0,000000000e+00    0,000000000e+00    0,000000000e+00    0,000000000e+00
     1374000000   -2,789568603e-01    1,061062738e-01   -1,605816633e-01   -6,022079587e-01    0,000000000e+00    0,000000000e+00    0,000000000e+00    0,000000000e+00
     1388000000   -2,159034908e-01    1,346489191e-01   -4,140287936e-01   -3,733631968e-01    0,000000000e+00    0,000000000e+00    0,000000000e+00    0,000000000e+00
     1402000000   -1,522626132e-01    1,313787699e-01   -4,889598191e-01   -6,200376526e-02    0,000000000e+00    0,000000000e+00    0,000000000e+00    0,000000000e+00
     1416000000   -9,992462397e-02    1,188294664e-01   -3,775973618e-01    2,519534826e-01    0,000000000e+00    0,000000000e+00    0,000000000e+00    0,000000000e+00
     1430000000   -5,390968919e-02    7,176259905e-02   -1,431120187e-01    4,527079761e-01    0,000000000e+00    0,000000000e+00    0,000000000e+00    0,000000000e+00
     1444000000   -3,805882484e-02    5,153161474e-04    1,651545167e-01    5,298221111e-01    0,000000000e+00    0,000000000e+00    0,000000000e+00    0,000000000e+00
     1458000000   -6,366632134e-02   -6,851442903e-02    4,923693836e-01    4,826880693e-01    0,000000000e+00    0,000000000e+00    0,000000000e+00    0,000000000e+00
     1472000000   -1,403959990e-01   -1,188962162e-01    7,477332354e-01    2,680605650e-01    0,000000000e+00    0,000000000e+00    0,000000000e+00    0,000000000e+00
     1486000000   -2,288662493e-01   -1,093329489e-01    9,014353752e-01   -9,072586149e-02    0,000000000e+00    0,000000000e+00    0,000000000e+00    0,000000000e+00
     1500000000   -2,803489268e-01   -4,221362248e-02    8,096687794e-01   -4,450750947e-01    0,000000000e+00    0,000000000e+00    0,000000000e+00    0,000000000e+00
