! NanoVNA-App
! Date: 2025-09-25 15:10:18
! Start: 100MHz Stop: 1,5GHz Points: 101
! S-Parameter data: F S11 S21 S12 S22
# Hz S RI R 50
!     Frequency           S11_Real           S11_Imag           S21_Real           S21_Imag           S12_Real           S12_Imag           S22_Real           S22_Imag
      100000000    3,115662187e-02    2,865880542e-02    4,348829985e-01   -6,685810685e-01    0,000000000e+00    0,000000000e+00    0,000000000e+00    0,000000000e+00
      114000000    5,758194253e-02    5,495386198e-03    7,779646665e-03   -7,909979820e-01    0,000000000e+00    0,000000000e+00    0,000000000e+00    0,000000000e+00
      128000000    6,726809591e-02   -3,780759126e-02   -4,104097486e-01   -6,712481976e-01    0,000000000e+00    0,000000000e+00    0,000000000e+00    0,000000000e+00
      142000000    4,471748322e-02   -8,426059037e-02   -7,029001117e-01   -3,533830047e-01    0,000000000e+00    0,000000000e+00    0,000000000e+00    0,000000000e+00
      156000000   -5,930798594e-03   -1,064735129e-01   -7,861574292e-01    7,360689342e-02    0,000000000e+00    0,000000000e+00    0,000000000e+00    0,000000000e+00
      170000000   -5,773552507e-02   -9,065631777e-02   -6,275323629e-01    4,867688119e-01    0,000000000e+00    0,000000000e+00    0,000000000e+00    0,000000000e+00
      184000000   -8,371498436e-02   -4,944653064e-02   -2,648732364e-01    7,511882782e-01    0,000000000e+00    0,000000000e+00    0,000000000e+00    0,000000000e+00
      198000000   -7,964892685e-02   -1,043420006e-02    1,831582934e-01    7,730468512e-01    0,000000000e+00    0,000000000e+00    0,000000000e+00    0,000000000e+00
      212000000   -6,227147952e-02    1,313460711e-02    5,691909790e-01    5,492957830e-01    0,000000000e+00    0,000000000e+00    0,000000000e+00    0,000000000e+00
      226000000   -4,323901236e-02    2,766138688e-02    7,706351280e-01    1,545843333e-01    0,000000000e+00    0,000000000e+00    0,000000000e+00    0,000000000e+00
      240000000   -1,825492270e-02    3,850022331e-02    7,270078063e-01   -2,818041742e-01    0,000000000e+00    0,000000000e+00    0,000000000e+00    0,000000000e+00
      254000000    1,716696098e-02    3,520323336e-02    4,579384625e-01   -6,201149821e-01    0,000000000e+00    0,000000000e+00    0,000000000e+00    0,000000000e+00
      268000000    4,878408089e-02    5,638161208e-03    5,884169042e-02   -7,601382136e-01    0,000000000e+00    0,000000000e+00    0,000000000e+00    0,000000000e+00
      282000000    5,346932635e-02   -4,186655208e-02   -3,489771187e-01   -6,720852852e-01    0,000000000e+00    0,000000000e+00    0,000000000e+00    0,000000000e+00
      296000000    2,408842370e-02   -7,948999852e-02   -6,516998410e-01   -3,856026828e-01    0,000000000e+00    0,000000000e+00    0,000000000e+00    0,000000000e+00
      310000000   -1,792510971e-02   -8,310865611e-02   -7,641524076e-01    1,960490271e-02    0,000000000e+00    0,000000000e+00    0,000000000e+00    0,000000000e+00
      324000000   -4,175277054e-02   -5,866861716e-02   -6,318920851e-01    4,299955070e-01    0,000000000e+00    0,000000000e+00    0,000000000e+00    0,000000000e+00
      338000000   -3,452850506e-02   -3,693359345e-02   -2,975210845e-01    7,002612352e-01    0,000000000e+00    0,000000000e+00    0,000000000e+00    0,000000000e+00
      352000000   -1,741771773e-02   -4,065749794e-02    1,252722889e-01    7,411108017e-01    0,000000000e+00    0,000000000e+00    0,000000000e+00    0,000000000e+00
      366000000   -1,917457394e-02   -6,197165325e-02    4,986413717e-01    5,551683307e-01    0,000000000e+00    0,000000000e+00    0,000000000e+00    0,000000000e+00
      380000000   -4,444683716e-02   -7,259938121e-02    7,131650448e-01    1,999019384e-01    0,000000000e+00    0,000000000e+00    0,000000000e+00    0,000000000e+00
      394000000   -7,083377987e-02   -5,799207836e-02    7,044374943e-01   -2,162165940e-01    0,000000000e+00    0,000000000e+00    0,000000000e+00    0,000000000e+00
      408000000   -7,706152648e-02   -3,014302067e-02    4,700958729e-01   -5,588843822e-01    0,000000000e+00    0,000000000e+00    0,000000000e+00    0,000000000e+00
      422000000   -6,529647857e-02   -1,115014683e-02    9,401527047e-02   -7,178378701e-01    0,000000000e+00    0,000000000e+00    0,000000000e+00    0,000000000e+00
      436000000   -5,254386365e-02   -4,625364672e-03   -3,015660048e-01   -6,475209594e-01    0,000000000e+00    0,000000000e+00    0,000000000e+00    0,000000000e+00
      450000000   -4,478804022e-02    1,562378369e-03   -5,934325457e-01   -3,781094551e-01    0,000000000e+00    0,000000000e+00    0,000000000e+00    0,000000000e+00
      464000000   -2,950739674e-02    1,135236211e-02   -6,912504435e-01   -1,742869208e-04    0,000000000e+00    0,000000000e+00    0,000000000e+00    0,000000000e+00
      478000000   -1,074858126e-03    1,086649299e-02   -5,733491182e-01    3,632164299e-01    0,000000000e+00    0,000000000e+00    0,000000000e+00    0,000000000e+00
      492000000    2,753520198e-02   -1,238235086e-02   -2,899820507e-01    6,018425822e-01    0,000000000e+00    0,000000000e+00    0,000000000e+00    0,000000000e+00
      506000000    3,641567752e-02   -5,550172925e-02    6,936606020e-02    6,585042477e-01    0,000000000e+00    0,000000000e+00    0,000000000e+00    0,000000000e+00
      520000000    1,292707585e-02   -9,880553186e-02    4,073419869e-01    5,242008567e-01    0,000000000e+00    0,000000000e+00    0,000000000e+00    0,000000000e+00
      534000000   -3,422899917e-02   -1,159074306e-01    6,236210465e-01    2,364221662e-01    0,000000000e+00    0,000000000e+00    0,000000000e+00    0,000000000e+00
      548000000   -7,769603282e-02   -9,959197044e-02    6,581040621e-01   -1,336520910e-01    0,000000000e+00    0,000000000e+00    0,000000000e+00    0,000000000e+00
      562000000   -9,307793528e-02   -6,580195576e-02    4,818005562e-01   -4,659512043e-01    0,000000000e+00    0,000000000e+00    0,000000000e+00    0,000000000e+00
      576000000   -8,633311838e-02   -4,470567033e-02    1,507888734e-01   -6,472915411e-01    0,000000000e+00    0,000000000e+00    0,000000000e+00    0,000000000e+00
      590000000   -8,086028695e-02   -4,194973037e-02   -2,198813558e-01   -6,272844076e-01    0,000000000e+00    0,000000000e+00    0,000000000e+00    0,000000000e+00
      604000000   -8,884488791e-02   -3,691385314e-02   -5,193045735e-01   -4,054892659e-01    0,000000000e+00    0,000000000e+00    0,000000000e+00    0,000000000e+00
      618000000   -9,708356112e-02   -1,512689143e-02   -6,535244584e-01   -5,857562646e-02    0,000000000e+00    0,000000000e+00    0,000000000e+00    0,000000000e+00
      632000000   -8,155313134e-02    1,485797297e-02   -5,758293271e-01    3,023645878e-01    0,000000000e+00    0,000000000e+00    0,000000000e+00    0,000000000e+00
      646000000   -4,266066104e-02    2,594551817e-02   -3,184509277e-01    5,555165410e-01    0,000000000e+00    0,000000000e+00    0,000000000e+00    0,000000000e+00
      660000000   -8,018794470e-03    6,362881977e-03    2,132054977e-02    6,302826405e-01    0,000000000e+00    0,000000000e+00    0,000000000e+00    0,000000000e+00
      674000000    1,592381042e-03   -2,974077128e-02    3,425310254e-01    5,185509324e-01    0,000000000e+00    0,000000000e+00    0,000000000e+00    0,000000000e+00
      688000000   -1,481915452e-02   -5,639767274e-02    5,588877797e-01    2,582120895e-01    0,000000000e+00    0,000000000e+00    0,000000000e+00    0,000000000e+00
      702000000   -3,386804089e-02   -6,034848839e-02    6,069414020e-01   -7,850803435e-02    0,000000000e+00    0,000000000e+00    0,000000000e+00    0,000000000e+00
      716000000   -3,748039901e-02   -5,541144684e-02    4,601333141e-01   -3,898321092e-01    0,000000000e+00    0,000000000e+00    0,000000000e+00    0,000000000e+00
      730000000   -3,258620948e-02   -6,534769386e-02    1,743749678e-01   -5,668013692e-01    0,000000000e+00    0,000000000e+00    0,000000000e+00    0,000000000e+00
      744000000   -4,072513431e-02   -8,789794892e-02   -1,522820443e-01   -5,640732050e-01    0,000000000e+00    0,000000000e+00    0,000000000e+00    0,000000000e+00
      758000000   -7,277649641e-02   -1,050702557e-01   -4,274975359e-01   -3,949797750e-01    0,000000000e+00    0,000000000e+00    0,000000000e+00    0,000000000e+00
      772000000   -1,141366661e-01   -9,441018105e-02   -5,742328167e-01   -1,057479903e-01    0,000000000e+00    0,000000000e+00    0,000000000e+00    0,000000000e+00
      786000000   -1,384204626e-01   -5,634504184e-02   -5,456053019e-01    2,206057757e-01    0,000000000e+00    0,000000000e+00    0,000000000e+00    0,000000000e+00
      800000000   -1,336268038e-01   -1,483538654e-02   -3,422760665e-01    4,803093076e-01    0,000000000e+00    0,000000000e+00    0,000000000e+00    0,000000000e+00
      814000000   -1,083348393e-01    8,884309791e-03   -3,485463560e-02    5,856117010e-01    0,000000000e+00    0,000000000e+00    0,000000000e+00    0,000000000e+00
      828000000   -8,521450311e-02    1,337832119e-02    2,780452669e-01    5,150510669e-01    0,000000000e+00    0,000000000e+00    0,000000000e+00    0,000000000e+00
      842000000   -7,066183537e-02    1,454590075e-02    5,031176805e-01    2,898089290e-01    0,000000000e+00    0,000000000e+00    0,000000000e+00    0,000000000e+00
      856000000   -5,219829828e-02    1,917657629e-02    5,707368255e-01   -1,782346331e-02    0,000000000e+00    0,000000000e+00    0,000000000e+00    0,000000000e+00
      870000000   -2,335416339e-02    1,425944176e-02    4,637157619e-01   -3,061641753e-01    0,000000000e+00    0,000000000e+00    0,000000000e+00    0,000000000e+00
      884000000    6,206401624e-03   -1,484121848e-02    2,304665595e-01   -4,890629053e-01    0,000000000e+00    0,000000000e+00    0,000000000e+00    0,000000000e+00
      898000000    1,144187339e-02   -6,377808750e-02   -5,288510770e-02   -5,256320834e-01    0,000000000e+00    0,000000000e+00    0,000000000e+00    0,000000000e+00
      912000000   -2,335469611e-02   -1,082294807e-01   -3,547968566e-01   -4,106323421e-01    0,000000000e+00    0,000000000e+00    0,000000000e+00    0,000000000e+00
      926000000   -7,384140790e-02   -1,233214140e-01   -5,296465755e-01   -1,568309963e-01    0,000000000e+00    0,000000000e+00    0,000000000e+00    0,000000000e+00
      940000000   -1,222065017e-01   -1,004645750e-01   -5,526819825e-01    1,569619179e-01    0,000000000e+00    0,000000000e+00    0,000000000e+00    0,000000000e+00
      954000000   -1,438661665e-01   -5,934912711e-02   -3,913742602e-01    4,489023089e-01    0,000000000e+00    0,000000000e+00    0,000000000e+00    0,000000000e+00
      968000000   -1,304449439e-01   -2,757899649e-02   -9,168773890e-02    6,031695604e-01    0,000000000e+00    0,000000000e+00    0,000000000e+00    0,000000000e+00
      982000000   -1,162931472e-01   -1,794183441e-02    2,463078499e-01    5,721907616e-01    0,000000000e+00    0,000000000e+00    0,000000000e+00    0,000000000e+00
      996000000   -1,076183319e-01   -1,143379137e-02    5,137171149e-01    3,670077324e-01    0,000000000e+00    0,000000000e+00    0,000000000e+00    0,000000000e+00
     1010000000   -1,044890061e-01   -9,972528554e-03    6,294369102e-01    5,197495222e-02    0,000000000e+00    0,000000000e+00    0,000000000e+00    0,000000000e+00
     1024000000   -9,067931026e-02    2,872594632e-03    5,604014993e-01   -2,715416849e-01    0,000000000e+00    0,000000000e+00    0,000000000e+00    0,000000000e+00
     1038000000   -7,942064106e-02   -1,244638232e-03    3,385848403e-01   -5,013317466e-01    0,000000000e+00    0,000000000e+00    0,000000000e+00    0,000000000e+00
     1052000000   -6,189487502e-02   -1,515410468e-02    3,504814208e-02   -5,873282552e-01    0,000000000e+00    0,000000000e+00    0,000000000e+00    0,000000000e+00
     1066000000   -7,112412900e-02   -3,352406994e-02   -2,665644586e-01   -5,009492040e-01    0,000000000e+00    0,000000000e+00    0,000000000e+00    0,000000000e+00
     1080000000   -7,936351001e-02   -3,213018924e-02   -4,810125828e-01   -2,707842588e-01    0,000000000e+00    0,000000000e+00    0,000000000e+00    0,000000000e+00
     1094000000   -8,231291920e-02   -1,845143922e-02   -5,323775411e-01    4,175558314e-02    0,000000000e+00    0,000000000e+00    0,000000000e+00    0,000000000e+00
     1108000000   -5,895187706e-02   -6,872814149e-03   -4,010728300e-01    3,262379467e-01    0,000000000e+00    0,000000000e+00    0,000000000e+00    0,000000000e+00
     1122000000   -3,372159228e-02   -3,211992234e-02   -1,355819404e-01    4,826554060e-01    0,000000000e+00    0,000000000e+00    0,000000000e+00    0,000000000e+00
     1136000000   -3,054539487e-02   -8,465599269e-02    1,616356075e-01    4,722440243e-01    0,000000000e+00    0,000000000e+00    0,000000000e+00    0,000000000e+00
     1150000000   -6,924515218e-02   -1,357075274e-01    4,192563295e-01    3,139515519e-01    0,000000000e+00    0,000000000e+00    0,000000000e+00    0,000000000e+00
     1164000000   -1,376755387e-01   -1,497255266e-01    5,647000074e-01    2,880684473e-02    0,000000000e+00    0,000000000e+00    0,000000000e+00    0,000000000e+00
     1178000000   -2,144164294e-01   -1,142702997e-01    5,294690728e-01   -3,148568869e-01    0,000000000e+00    0,000000000e+00    0,000000000e+00    0,000000000e+00
     1192000000   -2,513007820e-01   -4,285910726e-02    2,954761684e-01   -5,972712040e-01    0,000000000e+00    0,000000000e+00    0,000000000e+00    0,000000000e+00
     1206000000   -2,359865308e-01    3,183425963e-02   -6,923099607e-02   -6,962175369e-01    0,000000000e+00    0,000000000e+00    0,000000000e+00    0,000000000e+00
     1220000000   -1,849034876e-01    8,806666732e-02   -4,171052873e-01   -5,798181891e-01    0,000000000e+00    0,000000000e+00    0,000000000e+00    0,000000000e+00
     1234000000   -1,303243637e-01    1,070370376e-01   -6,479350328e-01   -2,903235257e-01    0,000000000e+00    0,000000000e+00    0,000000000e+00    0,000000000e+00
     1248000000   -6,482690573e-02    9,471940249e-02   -6,687852740e-01    6,402960420e-02    0,000000000e+00    0,000000000e+00    0,000000000e+00    0,000000000e+00
     1262000000   -1,287385263e-02    6,085982546e-02   -5,184080005e-01    3,642206490e-01    0,000000000e+00    0,000000000e+00    0,000000000e+00    0,000000000e+00
     1276000000    2,276701108e-02   -1,596147777e-04   -2,448021024e-01    5,495838523e-01    0,000000000e+00    0,000000000e+00    0,000000000e+00    0,000000000e+00
     1290000000    2,293613367e-02   -8,802085370e-02    7,710200548e-02    5,751412511e-01    0,000000000e+00    0,000000000e+00    0,000000000e+00    0,000000000e+00
     1304000000   -3,322136402e-02   -1,718232483e-01    3,620562553e-01    4,628677070e-01    0,000000000e+00    0,000000000e+00    0,000000000e+00    0,000000000e+00
     1318000000   -1,353262067e-01   -2,191176564e-01    5,873680711e-01    2,158171386e-01    0,000000000e+00    0,000000000e+00    0,000000000e+00    0,000000000e+00
     1332000000   -2,498447746e-01   -1,863365471e-01    6,645362973e-01   -1,317739040e-01    0,000000000e+00    0,000000000e+00    0,000000000e+00    0,000000000e+00
     1346000000   -3,337347507e-01   -9,349843860e-02    5,070688725e-01   -4,719038606e-01    0,000000000e+00    0,000000000e+00    0,000000000e+00    0,000000000e+00
     1360000000   -3,365935981e-01    2,284561284e-02    1,911787987e-01   -6,481220126e-01    0,000000000e+00    0,000000000e+00    0,000000000e+00    0,000000000e+00
     1374000000   -2,849165201e-01    1,058301106e-01   -1,605071127e-01   -5,993263721e-01    0,000000000e+00    0,000000000e+00    0,000000000e+00    0,000000000e+00
     1388000000   -2,131018639e-01    1,373699456e-01   -4,055075049e-01   -3,859131038e-01    0,000000000e+00    0,000000000e+00    0,000000000e+00    0,000000000e+00
     1402000000   -1,531854421e-01    1,421975046e-01   -4,806624651e-01   -6,524685770e-02    0,000000000e+00    0,000000000e+00    0,000000000e+00    0,000000000e+00
     1416000000   -1,008671150e-01    1,181687862e-01   -3,780673742e-01    2,464243621e-01    0,000000000e+00    0,000000000e+00    0,000000000e+00    0,000000000e+00
     1430000000   -5,371316150e-02    7,625281811e-02   -1,633373052e-01    4,677041471e-01    0,000000000e+00    0,000000000e+00    0,000000000e+00    0,000000000e+00
     1444000000   -3,468829393e-02   -5,246792571e-04    1,684407592e-01    5,286738873e-01    0,000000000e+00    0,000000000e+00    0,000000000e+00    0,000000000e+00
     1458000000   -6,373759359e-02   -7,043842971e-02    4,906645715e-01    4,789310098e-01    0,000000000e+00    0,000000000e+00    0,000000000e+00    0,000000000e+00
     1472000000   -1,415737420e-01   -1,182205901e-01    7,512381077e-01    2,742695510e-01    0,000000000e+00    0,000000000e+00    0,000000000e+00    0,000000000e+00
     1486000000   -2,315752208e-01   -1,098015979e-01    8,842390180e-01   -8,806322515e-02    0,000000000e+00    0,000000000e+00    0,000000000e+00    0,000000000e+00
     1500000000   -2,853405476e-01   -4,852552712e-02    8,114936352e-01   -4,627459347e-01    0,000000000e+00    0,000000000e+00    0,000000000e+00    0,000000000e+00
