! NanoVNA-App
! Date: 2025-09-25 15:04:31
! Start: 100MHz Stop: 1,5GHz Points: 101
! S-Parameter data: F S11 S21 S12 S22
# Hz S RI R 50
!     Frequency           S11_Real           S11_Imag           S21_Real           S21_Imag           S12_Real           S12_Imag           S22_Real           S22_Imag
      100000000    3,111305088e-02    2,860808931e-02    4,347966313e-01   -6,687043309e-01    0,000000000e+00    0,000000000e+00    0,000000000e+00    0,000000000e+00
      114000000    5,752928555e-02    5,453307182e-03    7,588532753e-03   -7,910804749e-01    0,000000000e+00    0,000000000e+00    0,000000000e+00    0,000000000e+00
      128000000    6,716672331e-02   -3,774973378e-02   -4,104075432e-01   -6,712642908e-01    0,000000000e+00    0,000000000e+00    0,000000000e+00    0,000000000e+00
      142000000    4,471230134e-02   -8,413296938e-02   -7,030637264e-01   -3,532502949e-01    0,000000000e+00    0,000000000e+00    0,000000000e+00    0,000000000e+00
      156000000   -5,556950811e-03   -1,067797989e-01   -7,870489955e-01    7,416762412e-02    0,000000000e+00    0,000000000e+00    0,000000000e+00    0,000000000e+00
      170000000   -5,758420378e-02   -9,061258286e-02   -6,273998618e-01    4,869332314e-01    0,000000000e+00    0,000000000e+00    0,000000000e+00    0,000000000e+00
      184000000   -8,362619579e-02   -4,943336174e-02   -2,648088634e-01    7,510264516e-01    0,000000000e+00    0,000000000e+00    0,000000000e+00    0,000000000e+00
      198000000   -7,957082242e-02   -1,048640069e-02    1,834939420e-01    7,730910182e-01    0,000000000e+00    0,000000000e+00    0,000000000e+00    0,000000000e+00
      212000000   -6,216513366e-02    1,312344987e-02    5,691971183e-01    5,490200520e-01    0,000000000e+00    0,000000000e+00    0,000000000e+00    0,000000000e+00
      226000000   -4,318373650e-02    2,760702744e-02    7,707609534e-01    1,544257849e-01    0,000000000e+00    0,000000000e+00    0,000000000e+00    0,000000000e+00
      240000000   -1,816586405e-02    3,840847686e-02    7,266458869e-01   -2,820508778e-01    0,000000000e+00    0,000000000e+00    0,000000000e+00    0,000000000e+00
      254000000    1,712736860e-02    3,507872298e-02    4,580741525e-01   -6,204110980e-01    0,000000000e+00    0,000000000e+00    0,000000000e+00    0,000000000e+00
      268000000    4,866456985e-02    5,504980683e-03    5,837715417e-02   -7,603892088e-01    0,000000000e+00    0,000000000e+00    0,000000000e+00    0,000000000e+00
      282000000    5,330069363e-02   -4,186312482e-02   -3,490566909e-01   -6,716450453e-01    0,000000000e+00    0,000000000e+00    0,000000000e+00    0,000000000e+00
      296000000    2,394459769e-02   -7,940241694e-02   -6,524010301e-01   -3,855651021e-01    0,000000000e+00    0,000000000e+00    0,000000000e+00    0,000000000e+00
      310000000   -1,784462109e-02   -8,322454244e-02   -7,628825903e-01    2,095134370e-02    0,000000000e+00    0,000000000e+00    0,000000000e+00    0,000000000e+00
      324000000   -4,148502648e-02   -5,877660587e-02   -6,323101521e-01    4,309159815e-01    0,000000000e+00    0,000000000e+00    0,000000000e+00    0,000000000e+00
      338000000   -3,424908966e-02   -3,666040301e-02   -2,959478498e-01    6,975173950e-01    0,000000000e+00    0,000000000e+00    0,000000000e+00    0,000000000e+00
      352000000   -1,720635965e-02   -4,087284952e-02    1,267089397e-01    7,418718934e-01    0,000000000e+00    0,000000000e+00    0,000000000e+00    0,000000000e+00
      366000000   -1,889939420e-02   -6,201438606e-02    4,983868003e-01    5,542604923e-01    0,000000000e+00    0,000000000e+00    0,000000000e+00    0,000000000e+00
      380000000   -4,413950816e-02   -7,270276546e-02    7,140967846e-01    1,993654072e-01    0,000000000e+00    0,000000000e+00    0,000000000e+00    0,000000000e+00
      394000000   -7,078645378e-02   -5,813525617e-02    7,038965225e-01   -2,167153358e-01    0,000000000e+00    0,000000000e+00    0,000000000e+00    0,000000000e+00
      408000000   -7,691638172e-02   -3,052889556e-02    4,703009725e-01   -5,594219565e-01    0,000000000e+00    0,000000000e+00    0,000000000e+00    0,000000000e+00
      422000000   -6,577096879e-02   -1,126530580e-02    9,242633730e-02   -7,178359628e-01    0,000000000e+00    0,000000000e+00    0,000000000e+00    0,000000000e+00
      436000000   -5,300486460e-02   -4,590737633e-03   -3,016684651e-01   -6,466924548e-01    0,000000000e+00    0,000000000e+00    0,000000000e+00    0,000000000e+00
      450000000   -4,496413469e-02    1,956534805e-03   -5,933429599e-01   -3,777988255e-01    0,000000000e+00    0,000000000e+00    0,000000000e+00    0,000000000e+00
      464000000   -2,935699373e-02    1,148275379e-02   -6,910446882e-01    2,627085196e-04    0,000000000e+00    0,000000000e+00    0,000000000e+00    0,000000000e+00
      478000000   -3,704180126e-04    1,116258092e-02   -5,724346042e-01    3,636732996e-01    0,000000000e+00    0,000000000e+00    0,000000000e+00    0,000000000e+00
      492000000    2,777457237e-02   -1,298986189e-02   -2,888871133e-01    6,014133692e-01    0,000000000e+00    0,000000000e+00    0,000000000e+00    0,000000000e+00
      506000000    3,644383326e-02   -5,649755150e-02    6,883032620e-02    6,577340961e-01    0,000000000e+00    0,000000000e+00    0,000000000e+00    0,000000000e+00
      520000000    1,244061440e-02   -9,854862839e-02    4,024176002e-01    5,246755481e-01    0,000000000e+00    0,000000000e+00    0,000000000e+00    0,000000000e+00
      534000000   -3,481920063e-02   -1,159088612e-01    6,242243052e-01    2,363848537e-01    0,000000000e+00    0,000000000e+00    0,000000000e+00    0,000000000e+00
      548000000   -7,737698406e-02   -9,864753485e-02    6,581583023e-01   -1,331398040e-01    0,000000000e+00    0,000000000e+00    0,000000000e+00    0,000000000e+00
      562000000   -9,313955903e-02   -6,572118402e-02    4,813439548e-01   -4,662837088e-01    0,000000000e+00    0,000000000e+00    0,000000000e+00    0,000000000e+00
      576000000   -8,621487767e-02   -4,458245635e-02    1,503687799e-01   -6,474152803e-01    0,000000000e+00    0,000000000e+00    0,000000000e+00    0,000000000e+00
      590000000   -8,060730994e-02   -4,183541611e-02   -2,198745608e-01   -6,267129779e-01    0,000000000e+00    0,000000000e+00    0,000000000e+00    0,000000000e+00
      604000000   -8,903466910e-02   -3,732461855e-02   -5,202630162e-01   -4,055249989e-01    0,000000000e+00    0,000000000e+00    0,000000000e+00    0,000000000e+00
      618000000   -9,644246846e-02   -1,559649128e-02   -6,532514691e-01   -5,839297920e-02    0,000000000e+00    0,000000000e+00    0,000000000e+00    0,000000000e+00
      632000000   -8,185094595e-02    1,522253081e-02   -5,754284263e-01    3,030818403e-01    0,000000000e+00    0,000000000e+00    0,000000000e+00    0,000000000e+00
      646000000   -4,293882102e-02    2,615462244e-02   -3,189245760e-01    5,562726855e-01    0,000000000e+00    0,000000000e+00    0,000000000e+00    0,000000000e+00
      660000000   -7,742810529e-03    6,605749484e-03    2,189322934e-02    6,308252215e-01    0,000000000e+00    0,000000000e+00    0,000000000e+00    0,000000000e+00
      674000000    2,090677386e-03   -2,981985733e-02    3,415376246e-01    5,182247758e-01    0,000000000e+00    0,000000000e+00    0,000000000e+00    0,000000000e+00
      688000000   -1,462063845e-02   -5,645619705e-02    5,594653487e-01    2,583761513e-01    0,000000000e+00    0,000000000e+00    0,000000000e+00    0,000000000e+00
      702000000   -3,446839750e-02   -6,046811491e-02    6,027928591e-01   -7,875589281e-02    0,000000000e+00    0,000000000e+00    0,000000000e+00    0,000000000e+00
      716000000   -3,788122535e-02   -5,651606619e-02    4,593228400e-01   -3,897315860e-01    0,000000000e+00    0,000000000e+00    0,000000000e+00    0,000000000e+00
      730000000   -3,307204694e-02   -6,613605469e-02    1,740956306e-01   -5,664204359e-01    0,000000000e+00    0,000000000e+00    0,000000000e+00    0,000000000e+00
      744000000   -4,100078717e-02   -8,898012340e-02   -1,541426331e-01   -5,635624528e-01    0,000000000e+00    0,000000000e+00    0,000000000e+00    0,000000000e+00
      758000000   -7,250598818e-02   -1,050093248e-01   -4,276812673e-01   -3,936055005e-01    0,000000000e+00    0,000000000e+00    0,000000000e+00    0,000000000e+00
      772000000   -1,135275811e-01   -9,347093850e-02   -5,745374560e-01   -1,049256474e-01    0,000000000e+00    0,000000000e+00    0,000000000e+00    0,000000000e+00
      786000000   -1,385744512e-01   -5,547306687e-02   -5,443584919e-01    2,214630097e-01    0,000000000e+00    0,000000000e+00    0,000000000e+00    0,000000000e+00
      800000000   -1,318241507e-01   -1,496515702e-02   -3,408632278e-01    4,791654348e-01    0,000000000e+00    0,000000000e+00    0,000000000e+00    0,000000000e+00
      814000000   -1,071833447e-01    7,429988589e-03   -3,322759271e-02    5,854566693e-01    0,000000000e+00    0,000000000e+00    0,000000000e+00    0,000000000e+00
      828000000   -8,468871564e-02    1,221308112e-02    2,791569233e-01    5,133257508e-01    0,000000000e+00    0,000000000e+00    0,000000000e+00    0,000000000e+00
      842000000   -7,127349079e-02    1,357968245e-02    5,024814606e-01    2,887072265e-01    0,000000000e+00    0,000000000e+00    0,000000000e+00    0,000000000e+00
      856000000   -5,323273316e-02    1,904414408e-02    5,702035427e-01   -1,838858984e-02    0,000000000e+00    0,000000000e+00    0,000000000e+00    0,000000000e+00
      870000000   -2,349740081e-02    1,424117386e-02    4,632254243e-01   -3,067556024e-01    0,000000000e+00    0,000000000e+00    0,000000000e+00    0,000000000e+00
      884000000    4,633225966e-03   -1,411991846e-02    2,308528274e-01   -4,879720807e-01    0,000000000e+00    0,000000000e+00    0,000000000e+00    0,000000000e+00
      898000000    1,189787872e-02   -6,298521906e-02   -5,137155578e-02   -5,276038051e-01    0,000000000e+00    0,000000000e+00    0,000000000e+00    0,000000000e+00
      912000000   -2,342917770e-02   -1,072200090e-01   -3,526411951e-01   -4,049499035e-01    0,000000000e+00    0,000000000e+00    0,000000000e+00    0,000000000e+00
      926000000   -7,366410643e-02   -1,225539818e-01   -5,291438699e-01   -1,562818438e-01    0,000000000e+00    0,000000000e+00    0,000000000e+00    0,000000000e+00
      940000000   -1,218819916e-01   -9,981440753e-02   -5,520763397e-01    1,571717709e-01    0,000000000e+00    0,000000000e+00    0,000000000e+00    0,000000000e+00
      954000000   -1,426495314e-01   -5,967245623e-02   -3,912370801e-01    4,465357959e-01    0,000000000e+00    0,000000000e+00    0,000000000e+00    0,000000000e+00
      968000000   -1,291927993e-01   -2,780804224e-02   -9,113848209e-02    6,032174826e-01    0,000000000e+00    0,000000000e+00    0,000000000e+00    0,000000000e+00
      982000000   -1,163287610e-01   -1,483955141e-02    2,465539426e-01    5,713671446e-01    0,000000000e+00    0,000000000e+00    0,000000000e+00    0,000000000e+00
      996000000   -1,066782624e-01   -1,599633321e-02    5,163288116e-01    3,675571978e-01    0,000000000e+00    0,000000000e+00    0,000000000e+00    0,000000000e+00
     1010000000   -1,067866385e-01   -9,136348031e-03    6,302571893e-01    4,994760826e-02    0,000000000e+00    0,000000000e+00    0,000000000e+00    0,000000000e+00
     1024000000   -9,157378972e-02   -1,185824396e-03    5,586731434e-01   -2,728304863e-01    0,000000000e+00    0,000000000e+00    0,000000000e+00    0,000000000e+00
     1038000000   -7,127705216e-02   -3,931925457e-04    3,348772526e-01   -5,046604276e-01    0,000000000e+00    0,000000000e+00    0,000000000e+00    0,000000000e+00
     1052000000   -6,614120305e-02   -1,746584103e-02    3,017532825e-02   -5,845435262e-01    0,000000000e+00    0,000000000e+00    0,000000000e+00    0,000000000e+00
     1066000000   -6,952755898e-02   -3,482477739e-02   -2,644340992e-01   -5,014722347e-01    0,000000000e+00    0,000000000e+00    0,000000000e+00    0,000000000e+00
     1080000000   -8,231742680e-02   -2,837667055e-02   -4,813228250e-01   -2,685703635e-01    0,000000000e+00    0,000000000e+00    0,000000000e+00    0,000000000e+00
     1094000000   -7,948143035e-02   -1,912534796e-02   -5,306850672e-01    4,360312968e-02    0,000000000e+00    0,000000000e+00    0,000000000e+00    0,000000000e+00
     1108000000   -6,155824289e-02   -1,516382396e-02   -3,946561813e-01    3,252759576e-01    0,000000000e+00    0,000000000e+00    0,000000000e+00    0,000000000e+00
     1122000000   -3,070930392e-02   -3,770133480e-02   -1,321957856e-01    4,810807407e-01    0,000000000e+00    0,000000000e+00    0,000000000e+00    0,000000000e+00
     1136000000   -3,151971847e-02   -8,254469186e-02    1,646451056e-01    4,722902775e-01    0,000000000e+00    0,000000000e+00    0,000000000e+00    0,000000000e+00
     1150000000   -6,311760843e-02   -1,326719224e-01    4,203899503e-01    3,071958423e-01    0,000000000e+00    0,000000000e+00    0,000000000e+00    0,000000000e+00
     1164000000   -1,364820451e-01   -1,470376998e-01    5,616234541e-01    2,460758574e-02    0,000000000e+00    0,000000000e+00    0,000000000e+00    0,000000000e+00
     1178000000   -2,110042572e-01   -1,155466735e-01    5,262786746e-01   -3,120297492e-01    0,000000000e+00    0,000000000e+00    0,000000000e+00    0,000000000e+00
     1192000000   -2,513153553e-01   -4,313392937e-02    2,884238660e-01   -5,955227017e-01    0,000000000e+00    0,000000000e+00    0,000000000e+00    0,000000000e+00
     1206000000   -2,323627621e-01    3,626937792e-02   -6,528722495e-02   -6,909257174e-01    0,000000000e+00    0,000000000e+00    0,000000000e+00    0,000000000e+00
     1220000000   -1,884197742e-01    8,648186177e-02   -4,178543985e-01   -5,740554929e-01    0,000000000e+00    0,000000000e+00    0,000000000e+00    0,000000000e+00
     1234000000   -1,244608313e-01    1,046060994e-01   -6,400110126e-01   -2,917686701e-01    0,000000000e+00    0,000000000e+00    0,000000000e+00    0,000000000e+00
     1248000000   -6,849425286e-02    9,595564008e-02   -6,749830246e-01    6,437750906e-02    0,000000000e+00    0,000000000e+00    0,000000000e+00    0,000000000e+00
     1262000000   -1,120348554e-02    6,025424600e-02   -5,145460963e-01    3,654755652e-01    0,000000000e+00    0,000000000e+00    0,000000000e+00    0,000000000e+00
     1276000000    2,638720162e-02   -4,659635015e-04   -2,414128184e-01    5,399942398e-01    0,000000000e+00    0,000000000e+00    0,000000000e+00    0,000000000e+00
     1290000000    2,549469098e-02   -8,963173628e-02    7,335464656e-02    5,691875815e-01    0,000000000e+00    0,000000000e+00    0,000000000e+00    0,000000000e+00
     1304000000   -3,396266699e-02   -1,693251878e-01    3,581820726e-01    4,638727307e-01    0,000000000e+00    0,000000000e+00    0,000000000e+00    0,000000000e+00
     1318000000   -1,336421072e-01   -2,140592635e-01    5,756780505e-01    2,150329500e-01    0,000000000e+00    0,000000000e+00    0,000000000e+00    0,000000000e+00
     1332000000   -2,532529831e-01   -1,908063591e-01    6,485786438e-01   -1,274901479e-01    0,000000000e+00    0,000000000e+00    0,000000000e+00    0,000000000e+00
     1346000000   -3,328718543e-01   -8,578743041e-02    5,102351308e-01   -4,666962624e-01    0,000000000e+00    0,000000000e+00    0,000000000e+00    0,000000000e+00
     1360000000   -3,390642703e-01    1,738165691e-02    1,843204796e-01   -6,483739614e-01    0,000000000e+00    0,000000000e+00    0,000000000e+00    0,000000000e+00
     1374000000   -2,817930579e-01    1,027990580e-01   -1,556326300e-01   -5,988618731e-01    0,000000000e+00    0,000000000e+00    0,000000000e+00    0,000000000e+00
     1388000000   -2,182636708e-01    1,356752664e-01   -4,018396735e-01   -3,751391172e-01    0,000000000e+00    0,000000000e+00    0,000000000e+00    0,000000000e+00
     1402000000   -1,481164843e-01    1,328253299e-01   -4,845057130e-01   -6,034826487e-02    0,000000000e+00    0,000000000e+00    0,000000000e+00    0,000000000e+00
     1416000000   -1,006422192e-01    1,190001816e-01   -3,878436387e-01    2,458439022e-01    0,000000000e+00    0,000000000e+00    0,000000000e+00    0,000000000e+00
     1430000000   -5,387677625e-02    6,894590706e-02   -1,488835216e-01    4,413039088e-01    0,000000000e+00    0,000000000e+00    0,000000000e+00    0,000000000e+00
     1444000000   -3,482874110e-02    6,336630322e-03    1,629714072e-01    5,400327444e-01    0,000000000e+00    0,000000000e+00    0,000000000e+00    0,000000000e+00
     1458000000   -5,904743075e-02   -7,841977477e-02    4,852941036e-01    4,689401388e-01    0,000000000e+00    0,000000000e+00    0,000000000e+00    0,000000000e+00
     1472000000   -1,352260560e-01   -1,218791157e-01    7,605614662e-01    2,635810077e-01    0,000000000e+00    0,000000000e+00    0,000000000e+00    0,000000000e+00
     1486000000   -2,280902714e-01   -1,180635989e-01    9,006694555e-01   -9,141957015e-02    0,000000000e+00    0,000000000e+00    0,000000000e+00    0,000000000e+00
     1500000000   -2,827378809e-01   -4,685727879e-02    8,232292533e-01   -4,547559023e-01    0,000000000e+00    0,000000000e+00    0,000000000e+00    0,000000000e+00
