! NanoVNA-App
! Date: 2025-09-25 15:09:14
! Start: 100MHz Stop: 1,5GHz Points: 101
! S-Parameter data: F S11 S21 S12 S22
# Hz S RI R 50
!     Frequency           S11_Real           S11_Imag           S21_Real           S21_Imag           S12_Real           S12_Imag           S22_Real           S22_Imag
      100000000    3,115134872e-02    2,865373902e-02    4,348768592e-01   -6,686031818e-01    0,000000000e+00    0,000000000e+00    0,000000000e+00    0,000000000e+00
      114000000    5,760275945e-02    5,523337517e-03    7,648103405e-03   -7,910048962e-01    0,000000000e+00    0,000000000e+00    0,000000000e+00    0,000000000e+00
      128000000    6,726083159e-02   -3,779072315e-02   -4,104058444e-01   -6,712673903e-01    0,000000000e+00    0,000000000e+00    0,000000000e+00    0,000000000e+00
      142000000    4,473237321e-02   -8,424150199e-02   -7,028732300e-01   -3,532805145e-01    0,000000000e+00    0,000000000e+00    0,000000000e+00    0,000000000e+00
      156000000   -6,146003492e-03   -1,062020436e-01   -7,857345939e-01    7,338938117e-02    0,000000000e+00    0,000000000e+00    0,000000000e+00    0,000000000e+00
      170000000   -5,764456838e-02   -9,069284052e-02   -6,276461482e-01    4,871232212e-01    0,000000000e+00    0,000000000e+00    0,000000000e+00    0,000000000e+00
      184000000   -8,368262649e-02   -4,946389794e-02   -2,649813592e-01    7,512308359e-01    0,000000000e+00    0,000000000e+00    0,000000000e+00    0,000000000e+00
      198000000   -7,962042838e-02   -1,047690306e-02    1,831094772e-01    7,734277844e-01    0,000000000e+00    0,000000000e+00    0,000000000e+00    0,000000000e+00
      212000000   -6,223978102e-02    1,314125769e-02    5,691854954e-01    5,491679907e-01    0,000000000e+00    0,000000000e+00    0,000000000e+00    0,000000000e+00
      226000000   -4,334134981e-02    2,765944973e-02    7,707378268e-01    1,545949280e-01    0,000000000e+00    0,000000000e+00    0,000000000e+00    0,000000000e+00
      240000000   -1,824825257e-02    3,847562894e-02    7,268669605e-01   -2,817959785e-01    0,000000000e+00    0,000000000e+00    0,000000000e+00    0,000000000e+00
      254000000    1,720059663e-02    3,523381427e-02    4,580875039e-01   -6,203085780e-01    0,000000000e+00    0,000000000e+00    0,000000000e+00    0,000000000e+00
      268000000    4,882241786e-02    5,575517192e-03    5,841351300e-02   -7,603923082e-01    0,000000000e+00    0,000000000e+00    0,000000000e+00    0,000000000e+00
      282000000    5,351980031e-02   -4,175455123e-02   -3,489511609e-01   -6,712425947e-01    0,000000000e+00    0,000000000e+00    0,000000000e+00    0,000000000e+00
      296000000    2,407911606e-02   -7,947541028e-02   -6,518876553e-01   -3,852605820e-01    0,000000000e+00    0,000000000e+00    0,000000000e+00    0,000000000e+00
      310000000   -1,777066104e-02   -8,315885067e-02   -7,627047300e-01    2,125560492e-02    0,000000000e+00    0,000000000e+00    0,000000000e+00    0,000000000e+00
      324000000   -4,180352762e-02   -5,871685222e-02   -6,320973635e-01    4,314623475e-01    0,000000000e+00    0,000000000e+00    0,000000000e+00    0,000000000e+00
      338000000   -3,449315578e-02   -3,689355403e-02   -2,956939042e-01    6,986524463e-01    0,000000000e+00    0,000000000e+00    0,000000000e+00    0,000000000e+00
      352000000   -1,715721190e-02   -4,082604870e-02    1,257876307e-01    7,422674894e-01    0,000000000e+00    0,000000000e+00    0,000000000e+00    0,000000000e+00
      366000000   -1,938411407e-02   -6,194549799e-02    4,972855151e-01    5,545403361e-01    0,000000000e+00    0,000000000e+00    0,000000000e+00    0,000000000e+00
      380000000   -4,427726939e-02   -7,267848402e-02    7,136477828e-01    1,999991238e-01    0,000000000e+00    0,000000000e+00    0,000000000e+00    0,000000000e+00
      394000000   -7,072824985e-02   -5,778158829e-02    7,040197253e-01   -2,160738558e-01    0,000000000e+00    0,000000000e+00    0,000000000e+00    0,000000000e+00
      408000000   -7,691903412e-02   -3,030671738e-02    4,711764753e-01   -5,598411560e-01    0,000000000e+00    0,000000000e+00    0,000000000e+00    0,000000000e+00
      422000000   -6,524361670e-02   -1,117638312e-02    9,366759658e-02   -7,182052732e-01    0,000000000e+00    0,000000000e+00    0,000000000e+00    0,000000000e+00
      436000000   -5,262940377e-02   -4,612176679e-03   -3,019920290e-01   -6,477444172e-01    0,000000000e+00    0,000000000e+00    0,000000000e+00    0,000000000e+00
      450000000   -4,468572140e-02    1,643219846e-03   -5,932409763e-01   -3,779053092e-01    0,000000000e+00    0,000000000e+00    0,000000000e+00    0,000000000e+00
      464000000   -2,986745536e-02    1,138431951e-02   -6,916025877e-01    3,242854145e-04    0,000000000e+00    0,000000000e+00    0,000000000e+00    0,000000000e+00
      478000000   -1,505089225e-03    1,128760353e-02   -5,737062693e-01    3,630231321e-01    0,000000000e+00    0,000000000e+00    0,000000000e+00    0,000000000e+00
      492000000    2,780517191e-02   -1,249251422e-02   -2,889994681e-01    6,013253331e-01    0,000000000e+00    0,000000000e+00    0,000000000e+00    0,000000000e+00
      506000000    3,625218943e-02   -5,571883917e-02    6,891582161e-02    6,578098536e-01    0,000000000e+00    0,000000000e+00    0,000000000e+00    0,000000000e+00
      520000000    1,298839413e-02   -9,868185222e-02    4,036579728e-01    5,252923965e-01    0,000000000e+00    0,000000000e+00    0,000000000e+00    0,000000000e+00
      534000000   -3,419626132e-02   -1,157197207e-01    6,243054271e-01    2,367402613e-01    0,000000000e+00    0,000000000e+00    0,000000000e+00    0,000000000e+00
      548000000   -7,781060040e-02   -9,907352179e-02    6,579319239e-01   -1,330786347e-01    0,000000000e+00    0,000000000e+00    0,000000000e+00    0,000000000e+00
      562000000   -9,344794601e-02   -6,665421277e-02    4,819640815e-01   -4,667805433e-01    0,000000000e+00    0,000000000e+00    0,000000000e+00    0,000000000e+00
      576000000   -8,590962738e-02   -4,433749616e-02    1,499990672e-01   -6,475926638e-01    0,000000000e+00    0,000000000e+00    0,000000000e+00    0,000000000e+00
      590000000   -8,091084659e-02   -4,182580486e-02   -2,212971598e-01   -6,290338039e-01    0,000000000e+00    0,000000000e+00    0,000000000e+00    0,000000000e+00
      604000000   -8,884298056e-02   -3,713152185e-02   -5,201308131e-01   -4,060643911e-01    0,000000000e+00    0,000000000e+00    0,000000000e+00    0,000000000e+00
      618000000   -9,694930911e-02   -1,496596169e-02   -6,535520554e-01   -5,798406154e-02    0,000000000e+00    0,000000000e+00    0,000000000e+00    0,000000000e+00
      632000000   -8,073753119e-02    1,524209511e-02   -5,753577948e-01    3,027045429e-01    0,000000000e+00    0,000000000e+00    0,000000000e+00    0,000000000e+00
      646000000   -4,252414405e-02    2,662614174e-02   -3,187775612e-01    5,567302704e-01    0,000000000e+00    0,000000000e+00    0,000000000e+00    0,000000000e+00
      660000000   -7,329399697e-03    5,689618643e-03    2,096312866e-02    6,295403838e-01    0,000000000e+00    0,000000000e+00    0,000000000e+00    0,000000000e+00
      674000000    1,683851704e-03   -2,977340668e-02    3,417454958e-01    5,191663504e-01    0,000000000e+00    0,000000000e+00    0,000000000e+00    0,000000000e+00
      688000000   -1,450902130e-02   -5,501435697e-02    5,594504476e-01    2,584419250e-01    0,000000000e+00    0,000000000e+00    0,000000000e+00    0,000000000e+00
      702000000   -3,355236351e-02   -5,959093198e-02    6,079634428e-01   -8,081338555e-02    0,000000000e+00    0,000000000e+00    0,000000000e+00    0,000000000e+00
      716000000   -3,645113111e-02   -5,542035028e-02    4,594531059e-01   -3,900585175e-01    0,000000000e+00    0,000000000e+00    0,000000000e+00    0,000000000e+00
      730000000   -3,190407157e-02   -6,582602859e-02    1,740100086e-01   -5,660564303e-01    0,000000000e+00    0,000000000e+00    0,000000000e+00    0,000000000e+00
      744000000   -3,965889663e-02   -8,810812980e-02   -1,525371075e-01   -5,633102059e-01    0,000000000e+00    0,000000000e+00    0,000000000e+00    0,000000000e+00
      758000000   -7,235555351e-02   -1,053448617e-01   -4,276552498e-01   -3,940109909e-01    0,000000000e+00    0,000000000e+00    0,000000000e+00    0,000000000e+00
      772000000   -1,140026674e-01   -9,458509833e-02   -5,742457509e-01   -1,062193438e-01    0,000000000e+00    0,000000000e+00    0,000000000e+00    0,000000000e+00
      786000000   -1,384873539e-01   -5,640088022e-02   -5,448865294e-01    2,212477922e-01    0,000000000e+00    0,000000000e+00    0,000000000e+00    0,000000000e+00
      800000000   -1,325449497e-01   -1,438148413e-02   -3,421739638e-01    4,795247614e-01    0,000000000e+00    0,000000000e+00    0,000000000e+00    0,000000000e+00
      814000000   -1,080246344e-01    7,858579978e-03   -3,368484974e-02    5,868559480e-01    0,000000000e+00    0,000000000e+00    0,000000000e+00    0,000000000e+00
      828000000   -8,610925078e-02    1,332460623e-02    2,789514065e-01    5,148251653e-01    0,000000000e+00    0,000000000e+00    0,000000000e+00    0,000000000e+00
      842000000   -7,116599381e-02    1,458123699e-02    5,029545426e-01    2,893961668e-01    0,000000000e+00    0,000000000e+00    0,000000000e+00    0,000000000e+00
      856000000   -5,211529136e-02    1,898955368e-02    5,707588792e-01   -1,801977493e-02    0,000000000e+00    0,000000000e+00    0,000000000e+00    0,000000000e+00
      870000000   -2,329301648e-02    1,449563447e-02    4,630613327e-01   -3,065546751e-01    0,000000000e+00    0,000000000e+00    0,000000000e+00    0,000000000e+00
      884000000    5,902166478e-03   -1,467069425e-02    2,300035954e-01   -4,892549515e-01    0,000000000e+00    0,000000000e+00    0,000000000e+00    0,000000000e+00
      898000000    1,136829890e-02   -6,356284022e-02   -5,162481964e-02   -5,258663893e-01    0,000000000e+00    0,000000000e+00    0,000000000e+00    0,000000000e+00
      912000000   -2,328404039e-02   -1,073598489e-01   -3,636824489e-01   -3,936660290e-01    0,000000000e+00    0,000000000e+00    0,000000000e+00    0,000000000e+00
      926000000   -7,328838855e-02   -1,244773492e-01   -5,299530625e-01   -1,591165513e-01    0,000000000e+00    0,000000000e+00    0,000000000e+00    0,000000000e+00
      940000000   -1,227297187e-01   -1,012456194e-01   -5,506483912e-01    1,566559225e-01    0,000000000e+00    0,000000000e+00    0,000000000e+00    0,000000000e+00
      954000000   -1,430926770e-01   -5,929549783e-02   -3,920830786e-01    4,469517171e-01    0,000000000e+00    0,000000000e+00    0,000000000e+00    0,000000000e+00
      968000000   -1,336144656e-01   -2,840570360e-02   -9,210599214e-02    6,021548510e-01    0,000000000e+00    0,000000000e+00    0,000000000e+00    0,000000000e+00
      982000000   -1,130512729e-01   -1,387504674e-02    2,448457927e-01    5,716351271e-01    0,000000000e+00    0,000000000e+00    0,000000000e+00    0,000000000e+00
      996000000   -1,055091172e-01   -1,566481590e-02    5,125117302e-01    3,675515950e-01    0,000000000e+00    0,000000000e+00    0,000000000e+00    0,000000000e+00
     1010000000   -1,060366333e-01   -7,217955310e-03    6,280465722e-01    5,298504233e-02    0,000000000e+00    0,000000000e+00    0,000000000e+00    0,000000000e+00
     1024000000   -9,284356982e-02   -2,916831290e-03    5,627250075e-01   -2,696740329e-01    0,000000000e+00    0,000000000e+00    0,000000000e+00    0,000000000e+00
     1038000000   -7,410189509e-02   -3,381132614e-03    3,366866410e-01   -5,031464696e-01    0,000000000e+00    0,000000000e+00    0,000000000e+00    0,000000000e+00
     1052000000   -6,356157362e-02   -1,493096631e-02    3,156688809e-02   -5,872029662e-01    0,000000000e+00    0,000000000e+00    0,000000000e+00    0,000000000e+00
     1066000000   -7,183963805e-02   -3,315558657e-02   -2,686606646e-01   -5,042222142e-01    0,000000000e+00    0,000000000e+00    0,000000000e+00    0,000000000e+00
     1080000000   -8,457510918e-02   -3,006366640e-02   -4,812269509e-01   -2,720394135e-01    0,000000000e+00    0,000000000e+00    0,000000000e+00    0,000000000e+00
     1094000000   -8,481980860e-02   -1,867794059e-02   -5,345577598e-01    4,163862392e-02    0,000000000e+00    0,000000000e+00    0,000000000e+00    0,000000000e+00
     1108000000   -5,930039659e-02   -8,984050713e-03   -4,002903104e-01    3,254767358e-01    0,000000000e+00    0,000000000e+00    0,000000000e+00    0,000000000e+00
     1122000000   -3,212494776e-02   -3,338510171e-02   -1,367325187e-01    4,798749387e-01    0,000000000e+00    0,000000000e+00    0,000000000e+00    0,000000000e+00
     1136000000   -2,638835460e-02   -8,370531350e-02    1,626879275e-01    4,727393389e-01    0,000000000e+00    0,000000000e+00    0,000000000e+00    0,000000000e+00
     1150000000   -6,363911927e-02   -1,387312710e-01    4,222765565e-01    3,126887381e-01    0,000000000e+00    0,000000000e+00    0,000000000e+00    0,000000000e+00
     1164000000   -1,411721557e-01   -1,538289636e-01    5,624371171e-01    2,834725939e-02    0,000000000e+00    0,000000000e+00    0,000000000e+00    0,000000000e+00
     1178000000   -2,138031870e-01   -1,184935346e-01    5,297951102e-01   -3,156040013e-01    0,000000000e+00    0,000000000e+00    0,000000000e+00    0,000000000e+00
     1192000000   -2,457349002e-01   -3,953929991e-02    2,960804999e-01   -5,986585617e-01    0,000000000e+00    0,000000000e+00    0,000000000e+00    0,000000000e+00
     1206000000   -2,377907187e-01    3,574002162e-02   -6,684119254e-02   -6,975973248e-01    0,000000000e+00    0,000000000e+00    0,000000000e+00    0,000000000e+00
     1220000000   -1,883392930e-01    8,359503001e-02   -4,262690842e-01   -5,820456743e-01    0,000000000e+00    0,000000000e+00    0,000000000e+00    0,000000000e+00
     1234000000   -1,280391067e-01    1,048599929e-01   -6,475960612e-01   -2,904948592e-01    0,000000000e+00    0,000000000e+00    0,000000000e+00    0,000000000e+00
     1248000000   -6,492267549e-02    9,366104752e-02   -6,732316017e-01    6,493432075e-02    0,000000000e+00    0,000000000e+00    0,000000000e+00    0,000000000e+00
     1262000000   -1,095273159e-02    6,695631146e-02   -5,188739896e-01    3,748624027e-01    0,000000000e+00    0,000000000e+00    0,000000000e+00    0,000000000e+00
     1276000000    2,522193082e-02   -2,825567732e-03   -2,427102923e-01    5,437219143e-01    0,000000000e+00    0,000000000e+00    0,000000000e+00    0,000000000e+00
     1290000000    2,162049897e-02   -8,428339660e-02    7,230062038e-02    5,788773298e-01    0,000000000e+00    0,000000000e+00    0,000000000e+00    0,000000000e+00
     1304000000   -2,797911502e-02   -1,720305532e-01    3,651099205e-01    4,654214084e-01    0,000000000e+00    0,000000000e+00    0,000000000e+00    0,000000000e+00
     1318000000   -1,369487494e-01   -2,167335749e-01    5,804536939e-01    2,121008337e-01    0,000000000e+00    0,000000000e+00    0,000000000e+00    0,000000000e+00
     1332000000   -2,504419684e-01   -1,888621747e-01    6,562960148e-01   -1,326017827e-01    0,000000000e+00    0,000000000e+00    0,000000000e+00    0,000000000e+00
     1346000000   -3,378336132e-01   -9,240748733e-02    5,069023967e-01   -4,618946314e-01    0,000000000e+00    0,000000000e+00    0,000000000e+00    0,000000000e+00
     1360000000   -3,319235146e-01    2,319247648e-02    1,950097680e-01   -6,535221934e-01    0,000000000e+00    0,000000000e+00    0,000000000e+00    0,000000000e+00
     1374000000   -2,799770236e-01    9,674987942e-02   -1,643397361e-01   -6,028515697e-01    0,000000000e+00    0,000000000e+00    0,000000000e+00    0,000000000e+00
     1388000000   -2,122192681e-01    1,370901167e-01   -4,024277627e-01   -3,845402896e-01    0,000000000e+00    0,000000000e+00    0,000000000e+00    0,000000000e+00
     1402000000   -1,464240104e-01    1,397781819e-01   -4,793192744e-01   -5,944060534e-02    0,000000000e+00    0,000000000e+00    0,000000000e+00    0,000000000e+00
     1416000000   -9,413628280e-02    1,217323989e-01   -3,779413700e-01    2,504092157e-01    0,000000000e+00    0,000000000e+00    0,000000000e+00    0,000000000e+00
     1430000000   -5,114988238e-02    7,235784829e-02   -1,437702477e-01    4,592671692e-01    0,000000000e+00    0,000000000e+00    0,000000000e+00    0,000000000e+00
     1444000000   -4,088881239e-02    5,938974209e-03    1,574201435e-01    5,311660767e-01    0,000000000e+00    0,000000000e+00    0,000000000e+00    0,000000000e+00
     1458000000   -6,241749227e-02   -6,682533771e-02    4,836767316e-01    4,824522138e-01    0,000000000e+00    0,000000000e+00    0,000000000e+00    0,000000000e+00
     1472000000   -1,319164336e-01   -1,249912158e-01    7,653589249e-01    2,626736760e-01    0,000000000e+00    0,000000000e+00    0,000000000e+00    0,000000000e+00
     1486000000   -2,283963561e-01   -1,169234738e-01    8,986787200e-01   -9,154196829e-02    0,000000000e+00    0,000000000e+00    0,000000000e+00    0,000000000e+00
     1500000000   -2,925729156e-01   -4,590185359e-02    8,176532984e-01   -4,606925845e-01    0,000000000e+00    0,000000000e+00    0,000000000e+00    0,000000000e+00
