! NanoVNA-App
! Date: 2025-09-25 15:11:15
! Start: 100MHz Stop: 1,5GHz Points: 101
! S-Parameter data: F S11 S21 S12 S22
# Hz S RI R 50
!     Frequency           S11_Real           S11_Imag           S21_Real           S21_Imag           S12_Real           S12_Imag           S22_Real           S22_Imag
      100000000    3,115768917e-02    2,864532918e-02    4,348990321e-01   -6,685693264e-01    0,000000000e+00    0,000000000e+00    0,000000000e+00    0,000000000e+00
      114000000    5,759608746e-02    5,511263851e-03    7,717977278e-03   -7,909483910e-01    0,000000000e+00    0,000000000e+00    0,000000000e+00    0,000000000e+00
      128000000    6,726177782e-02   -3,779690340e-02   -4,102592170e-01   -6,710034013e-01    0,000000000e+00    0,000000000e+00    0,000000000e+00    0,000000000e+00
      142000000    4,472293332e-02   -8,427415788e-02   -7,028511763e-01   -3,534081876e-01    0,000000000e+00    0,000000000e+00    0,000000000e+00    0,000000000e+00
      156000000   -5,448340904e-03   -1,069355160e-01   -7,872890830e-01    7,401955873e-02    0,000000000e+00    0,000000000e+00    0,000000000e+00    0,000000000e+00
      170000000   -5,768492445e-02   -9,062077105e-02   -6,277139783e-01    4,868230224e-01    0,000000000e+00    0,000000000e+00    0,000000000e+00    0,000000000e+00
      184000000   -8,367709070e-02   -4,946089536e-02   -2,651753724e-01    7,512311935e-01    0,000000000e+00    0,000000000e+00    0,000000000e+00    0,000000000e+00
      198000000   -7,963166386e-02   -1,044640318e-02    1,831455529e-01    7,733329535e-01    0,000000000e+00    0,000000000e+00    0,000000000e+00    0,000000000e+00
      212000000   -6,227836013e-02    1,313718315e-02    5,692282915e-01    5,493268967e-01    0,000000000e+00    0,000000000e+00    0,000000000e+00    0,000000000e+00
      226000000   -4,333337396e-02    2,767287195e-02    7,707125545e-01    1,546255201e-01    0,000000000e+00    0,000000000e+00    0,000000000e+00    0,000000000e+00
      240000000   -1,816895418e-02    3,851273656e-02    7,268204689e-01   -2,818787098e-01    0,000000000e+00    0,000000000e+00    0,000000000e+00    0,000000000e+00
      254000000    1,720306836e-02    3,519079834e-02    4,580141008e-01   -6,201044917e-01    0,000000000e+00    0,000000000e+00    0,000000000e+00    0,000000000e+00
      268000000    4,876232147e-02    5,576766096e-03    5,901852995e-02   -7,601370215e-01    0,000000000e+00    0,000000000e+00    0,000000000e+00    0,000000000e+00
      282000000    5,347858742e-02   -4,174460098e-02   -3,490892351e-01   -6,719600558e-01    0,000000000e+00    0,000000000e+00    0,000000000e+00    0,000000000e+00
      296000000    2,403097972e-02   -7,945284992e-02   -6,519014239e-01   -3,855116963e-01    0,000000000e+00    0,000000000e+00    0,000000000e+00    0,000000000e+00
      310000000   -1,783417352e-02   -8,314116299e-02   -7,630347610e-01    1,951088570e-02    0,000000000e+00    0,000000000e+00    0,000000000e+00    0,000000000e+00
      324000000   -4,156551510e-02   -5,918417871e-02   -6,317124367e-01    4,304978549e-01    0,000000000e+00    0,000000000e+00    0,000000000e+00    0,000000000e+00
      338000000   -3,424633667e-02   -3,700916842e-02   -2,975740433e-01    7,011358738e-01    0,000000000e+00    0,000000000e+00    0,000000000e+00    0,000000000e+00
      352000000   -1,750712469e-02   -4,086716473e-02    1,259976625e-01    7,412787080e-01    0,000000000e+00    0,000000000e+00    0,000000000e+00    0,000000000e+00
      366000000   -1,950716972e-02   -6,206465513e-02    4,971631169e-01    5,537638664e-01    0,000000000e+00    0,000000000e+00    0,000000000e+00    0,000000000e+00
      380000000   -4,447929934e-02   -7,308670878e-02    7,131771445e-01    1,997366548e-01    0,000000000e+00    0,000000000e+00    0,000000000e+00    0,000000000e+00
      394000000   -7,096751779e-02   -5,777547881e-02    7,042382360e-01   -2,166301906e-01    0,000000000e+00    0,000000000e+00    0,000000000e+00    0,000000000e+00
      408000000   -7,730191201e-02   -3,042348102e-02    4,705761671e-01   -5,601973534e-01    0,000000000e+00    0,000000000e+00    0,000000000e+00    0,000000000e+00
      422000000   -6,532751769e-02   -1,107444987e-02    9,431722760e-02   -7,178325057e-01    0,000000000e+00    0,000000000e+00    0,000000000e+00    0,000000000e+00
      436000000   -5,270998552e-02   -4,311797675e-03   -3,014006019e-01   -6,477066278e-01    0,000000000e+00    0,000000000e+00    0,000000000e+00    0,000000000e+00
      450000000   -4,485342652e-02    1,548245898e-03   -5,926147699e-01   -3,780265749e-01    0,000000000e+00    0,000000000e+00    0,000000000e+00    0,000000000e+00
      464000000   -2,979183383e-02    1,104079280e-02   -6,913933158e-01   -1,495365141e-04    0,000000000e+00    0,000000000e+00    0,000000000e+00    0,000000000e+00
      478000000   -1,235492295e-03    1,141889114e-02   -5,734020472e-01    3,633497953e-01    0,000000000e+00    0,000000000e+00    0,000000000e+00    0,000000000e+00
      492000000    2,804820426e-02   -1,236640103e-02   -2,896830142e-01    6,014435887e-01    0,000000000e+00    0,000000000e+00    0,000000000e+00    0,000000000e+00
      506000000    3,681218252e-02   -5,574334040e-02    6,917385757e-02    6,584311724e-01    0,000000000e+00    0,000000000e+00    0,000000000e+00    0,000000000e+00
      520000000    1,291500032e-02   -9,796756506e-02    4,010535181e-01    5,268318057e-01    0,000000000e+00    0,000000000e+00    0,000000000e+00    0,000000000e+00
      534000000   -3,409398347e-02   -1,165542901e-01    6,239196062e-01    2,362808734e-01    0,000000000e+00    0,000000000e+00    0,000000000e+00    0,000000000e+00
      548000000   -7,761476189e-02   -9,953387082e-02    6,578420401e-01   -1,338205636e-01    0,000000000e+00    0,000000000e+00    0,000000000e+00    0,000000000e+00
      562000000   -9,356356412e-02   -6,605444849e-02    4,812532067e-01   -4,671125114e-01    0,000000000e+00    0,000000000e+00    0,000000000e+00    0,000000000e+00
      576000000   -8,604197949e-02   -4,457538947e-02    1,504605263e-01   -6,483684778e-01    0,000000000e+00    0,000000000e+00    0,000000000e+00    0,000000000e+00
      590000000   -8,083985001e-02   -4,161458462e-02   -2,190508842e-01   -6,280512810e-01    0,000000000e+00    0,000000000e+00    0,000000000e+00    0,000000000e+00
      604000000   -8,912928402e-02   -3,716193885e-02   -5,197413564e-01   -4,057652950e-01    0,000000000e+00    0,000000000e+00    0,000000000e+00    0,000000000e+00
      618000000   -9,610661864e-02   -1,557778753e-02   -6,531517506e-01   -5,847473815e-02    0,000000000e+00    0,000000000e+00    0,000000000e+00    0,000000000e+00
      632000000   -8,146350086e-02    1,524169743e-02   -5,754491091e-01    3,029592633e-01    0,000000000e+00    0,000000000e+00    0,000000000e+00    0,000000000e+00
      646000000   -4,229668528e-02    2,661415003e-02   -3,191510141e-01    5,560982227e-01    0,000000000e+00    0,000000000e+00    0,000000000e+00    0,000000000e+00
      660000000   -7,468612399e-03    5,603932310e-03    2,302640490e-02    6,296048760e-01    0,000000000e+00    0,000000000e+00    0,000000000e+00    0,000000000e+00
      674000000    5,633990513e-04   -2,988695540e-02    3,418616056e-01    5,194438696e-01    0,000000000e+00    0,000000000e+00    0,000000000e+00    0,000000000e+00
      688000000   -1,448629331e-02   -5,531369150e-02    5,587633848e-01    2,590484619e-01    0,000000000e+00    0,000000000e+00    0,000000000e+00    0,000000000e+00
      702000000   -3,342768922e-02   -5,854064599e-02    6,076069474e-01   -8,289729059e-02    0,000000000e+00    0,000000000e+00    0,000000000e+00    0,000000000e+00
      716000000   -3,684785590e-02   -5,636762455e-02    4,599684775e-01   -3,889813721e-01    0,000000000e+00    0,000000000e+00    0,000000000e+00    0,000000000e+00
      730000000   -3,130736202e-02   -6,507623941e-02    1,733358800e-01   -5,656087995e-01    0,000000000e+00    0,000000000e+00    0,000000000e+00    0,000000000e+00
      744000000   -4,069250450e-02   -8,885275573e-02   -1,527539641e-01   -5,643930435e-01    0,000000000e+00    0,000000000e+00    0,000000000e+00    0,000000000e+00
      758000000   -7,252925634e-02   -1,043523476e-01   -4,272743762e-01   -3,945661187e-01    0,000000000e+00    0,000000000e+00    0,000000000e+00    0,000000000e+00
      772000000   -1,143201888e-01   -9,357964247e-02   -5,743839145e-01   -1,062515751e-01    0,000000000e+00    0,000000000e+00    0,000000000e+00    0,000000000e+00
      786000000   -1,393283010e-01   -5,611991510e-02   -5,446768999e-01    2,209230363e-01    0,000000000e+00    0,000000000e+00    0,000000000e+00    0,000000000e+00
      800000000   -1,334181130e-01   -1,515182666e-02   -3,421544135e-01    4,803968370e-01    0,000000000e+00    0,000000000e+00    0,000000000e+00    0,000000000e+00
      814000000   -1,085501984e-01    8,792206645e-03   -3,409084305e-02    5,861696601e-01    0,000000000e+00    0,000000000e+00    0,000000000e+00    0,000000000e+00
      828000000   -8,631729335e-02    1,360525936e-02    2,787819803e-01    5,141820312e-01    0,000000000e+00    0,000000000e+00    0,000000000e+00    0,000000000e+00
      842000000   -7,077898830e-02    1,442630030e-02    5,027863979e-01    2,893538177e-01    0,000000000e+00    0,000000000e+00    0,000000000e+00    0,000000000e+00
      856000000   -5,267036706e-02    1,996253803e-02    5,703851581e-01   -1,756320521e-02    0,000000000e+00    0,000000000e+00    0,000000000e+00    0,000000000e+00
      870000000   -2,314314805e-02    1,447278354e-02    4,640301764e-01   -3,065741658e-01    0,000000000e+00    0,000000000e+00    0,000000000e+00    0,000000000e+00
      884000000    6,283149123e-03   -1,408220828e-02    2,304315567e-01   -4,878702760e-01    0,000000000e+00    0,000000000e+00    0,000000000e+00    0,000000000e+00
      898000000    1,150182821e-02   -6,351887435e-02   -5,333717540e-02   -5,270239115e-01    0,000000000e+00    0,000000000e+00    0,000000000e+00    0,000000000e+00
      912000000   -2,379815653e-02   -1,087675169e-01   -3,646001816e-01   -4,090259969e-01    0,000000000e+00    0,000000000e+00    0,000000000e+00    0,000000000e+00
      926000000   -7,613313198e-02   -1,237232834e-01   -5,301969051e-01   -1,563213915e-01    0,000000000e+00    0,000000000e+00    0,000000000e+00    0,000000000e+00
      940000000   -1,218909919e-01   -1,043688804e-01   -5,517140627e-01    1,559496224e-01    0,000000000e+00    0,000000000e+00    0,000000000e+00    0,000000000e+00
      954000000   -1,454207897e-01   -6,094261631e-02   -3,927795589e-01    4,463226795e-01    0,000000000e+00    0,000000000e+00    0,000000000e+00    0,000000000e+00
      968000000   -1,333806813e-01   -3,051339462e-02   -9,305487573e-02    6,049547195e-01    0,000000000e+00    0,000000000e+00    0,000000000e+00    0,000000000e+00
      982000000   -1,155969054e-01   -1,354909316e-02    2,481056899e-01    5,733758807e-01    0,000000000e+00    0,000000000e+00    0,000000000e+00    0,000000000e+00
      996000000   -1,037244573e-01   -1,410219539e-02    5,140771866e-01    3,665101230e-01    0,000000000e+00    0,000000000e+00    0,000000000e+00    0,000000000e+00
     1010000000   -1,010775715e-01   -6,151796784e-03    6,288553476e-01    5,249365419e-02    0,000000000e+00    0,000000000e+00    0,000000000e+00    0,000000000e+00
     1024000000   -9,053418785e-02    1,895276364e-03    5,593645573e-01   -2,694088519e-01    0,000000000e+00    0,000000000e+00    0,000000000e+00    0,000000000e+00
     1038000000   -7,286036015e-02   -4,279218614e-03    3,366937339e-01   -5,038670301e-01    0,000000000e+00    0,000000000e+00    0,000000000e+00    0,000000000e+00
     1052000000   -6,179465726e-02   -1,668502577e-02    3,245283291e-02   -5,843462944e-01    0,000000000e+00    0,000000000e+00    0,000000000e+00    0,000000000e+00
     1066000000   -6,684727967e-02   -3,007222712e-02   -2,620872855e-01   -5,044274330e-01    0,000000000e+00    0,000000000e+00    0,000000000e+00    0,000000000e+00
     1080000000   -8,320744336e-02   -3,436076641e-02   -4,798612595e-01   -2,698346674e-01    0,000000000e+00    0,000000000e+00    0,000000000e+00    0,000000000e+00
     1094000000   -7,917614281e-02   -1,850686409e-02   -5,310032964e-01    4,257793725e-02    0,000000000e+00    0,000000000e+00    0,000000000e+00    0,000000000e+00
     1108000000   -6,063126028e-02   -1,269790344e-02   -3,987039328e-01    3,259677291e-01    0,000000000e+00    0,000000000e+00    0,000000000e+00    0,000000000e+00
     1122000000   -2,871947177e-02   -3,377916664e-02   -1,362724602e-01    4,822170138e-01    0,000000000e+00    0,000000000e+00    0,000000000e+00    0,000000000e+00
     1136000000   -2,946819924e-02   -8,188656718e-02    1,632313281e-01    4,749489725e-01    0,000000000e+00    0,000000000e+00    0,000000000e+00    0,000000000e+00
     1150000000   -6,130731851e-02   -1,352471560e-01    4,176353514e-01    3,122839332e-01    0,000000000e+00    0,000000000e+00    0,000000000e+00    0,000000000e+00
     1164000000   -1,348360330e-01   -1,489031613e-01    5,658692718e-01    2,632494085e-02    0,000000000e+00    0,000000000e+00    0,000000000e+00    0,000000000e+00
     1178000000   -2,149127573e-01   -1,178584769e-01    5,325415730e-01   -3,145132959e-01    0,000000000e+00    0,000000000e+00    0,000000000e+00    0,000000000e+00
     1192000000   -2,440702915e-01   -3,980785608e-02    2,962698042e-01   -5,927380919e-01    0,000000000e+00    0,000000000e+00    0,000000000e+00    0,000000000e+00
     1206000000   -2,329067141e-01    3,755996376e-02   -6,651122123e-02   -6,973150969e-01    0,000000000e+00    0,000000000e+00    0,000000000e+00    0,000000000e+00
     1220000000   -1,885138005e-01    8,474682271e-02   -4,253085256e-01   -5,739146471e-01    0,000000000e+00    0,000000000e+00    0,000000000e+00    0,000000000e+00
     1234000000   -1,253397465e-01    1,077048704e-01   -6,464376450e-01   -2,872999907e-01    0,000000000e+00    0,000000000e+00    0,000000000e+00    0,000000000e+00
     1248000000   -6,723961979e-02    1,000664756e-01   -6,725243926e-01    6,559570879e-02    0,000000000e+00    0,000000000e+00    0,000000000e+00    0,000000000e+00
     1262000000   -1,009262912e-02    6,098434329e-02   -5,157597065e-01    3,672014773e-01    0,000000000e+00    0,000000000e+00    0,000000000e+00    0,000000000e+00
     1276000000    2,494988404e-02   -1,445842674e-03   -2,416553348e-01    5,444589853e-01    0,000000000e+00    0,000000000e+00    0,000000000e+00    0,000000000e+00
     1290000000    2,211112715e-02   -8,745993674e-02    7,360300422e-02    5,818855762e-01    0,000000000e+00    0,000000000e+00    0,000000000e+00    0,000000000e+00
     1304000000   -3,113575466e-02   -1,657725424e-01    3,646668494e-01    4,684830010e-01    0,000000000e+00    0,000000000e+00    0,000000000e+00    0,000000000e+00
     1318000000   -1,386862993e-01   -2,126049697e-01    5,855453610e-01    2,226619571e-01    0,000000000e+00    0,000000000e+00    0,000000000e+00    0,000000000e+00
     1332000000   -2,576073408e-01   -1,879537404e-01    6,532137394e-01   -1,282535493e-01    0,000000000e+00    0,000000000e+00    0,000000000e+00    0,000000000e+00
     1346000000   -3,283781409e-01   -9,310982376e-02    5,129790902e-01   -4,686940014e-01    0,000000000e+00    0,000000000e+00    0,000000000e+00    0,000000000e+00
     1360000000   -3,332611024e-01    1,669161022e-02    1,884565502e-01   -6,544712782e-01    0,000000000e+00    0,000000000e+00    0,000000000e+00    0,000000000e+00
     1374000000   -2,800998390e-01    1,000908464e-01   -1,519724727e-01   -6,034976840e-01    0,000000000e+00    0,000000000e+00    0,000000000e+00    0,000000000e+00
     1388000000   -2,108733952e-01    1,379753649e-01   -4,040585160e-01   -3,831602633e-01    0,000000000e+00    0,000000000e+00    0,000000000e+00    0,000000000e+00
     1402000000   -1,477816999e-01    1,430598497e-01   -4,859393239e-01   -5,419041216e-02    0,000000000e+00    0,000000000e+00    0,000000000e+00    0,000000000e+00
     1416000000   -9,958510846e-02    1,187809259e-01   -3,869113624e-01    2,385980040e-01    0,000000000e+00    0,000000000e+00    0,000000000e+00    0,000000000e+00
     1430000000   -5,016891286e-02    6,984411180e-02   -1,466606855e-01    4,405539334e-01    0,000000000e+00    0,000000000e+00    0,000000000e+00    0,000000000e+00
     1444000000   -3,588180616e-02   -5,716855521e-04    1,637437791e-01    5,270780325e-01    0,000000000e+00    0,000000000e+00    0,000000000e+00    0,000000000e+00
     1458000000   -6,625178456e-02   -7,638127357e-02    4,875504375e-01    4,702996016e-01    0,000000000e+00    0,000000000e+00    0,000000000e+00    0,000000000e+00
     1472000000   -1,361113489e-01   -1,180434227e-01    7,503869534e-01    2,727427483e-01    0,000000000e+00    0,000000000e+00    0,000000000e+00    0,000000000e+00
     1486000000   -2,302111834e-01   -1,171363443e-01    8,853414059e-01   -8,404690027e-02    0,000000000e+00    0,000000000e+00    0,000000000e+00    0,000000000e+00
     1500000000   -2,909890413e-01   -4,078216478e-02    8,042131662e-01   -4,350644648e-01    0,000000000e+00    0,000000000e+00    0,000000000e+00    0,000000000e+00
