! NanoVNA-App
! Date: 2025-09-25 15:08:56
! Start: 100MHz Stop: 1,5GHz Points: 101
! S-Parameter data: F S11 S21 S12 S22
# Hz S RI R 50
!     Frequency           S11_Real           S11_Imag           S21_Real           S21_Imag           S12_Real           S12_Imag           S22_Real           S22_Imag
      100000000    3,115425259e-02    2,863507532e-02    4,348967671e-01   -6,686320305e-01    0,000000000e+00    0,000000000e+00    0,000000000e+00    0,000000000e+00
      114000000    5,755985156e-02    5,492424592e-03    7,741801441e-03   -7,909324765e-01    0,000000000e+00    0,000000000e+00    0,000000000e+00    0,000000000e+00
      128000000    6,727412343e-02   -3,788299114e-02   -4,103043377e-01   -6,709727645e-01    0,000000000e+00    0,000000000e+00    0,000000000e+00    0,000000000e+00
      142000000    4,474980012e-02   -8,425114304e-02   -7,027911544e-01   -3,531580865e-01    0,000000000e+00    0,000000000e+00    0,000000000e+00    0,000000000e+00
      156000000   -5,569493864e-03   -1,067326143e-01   -7,870589495e-01    7,407326996e-02    0,000000000e+00    0,000000000e+00    0,000000000e+00    0,000000000e+00
      170000000   -5,772273242e-02   -9,065030515e-02   -6,276922822e-01    4,868449271e-01    0,000000000e+00    0,000000000e+00    0,000000000e+00    0,000000000e+00
      184000000   -8,366866410e-02   -4,943745956e-02   -2,649606764e-01    7,509208322e-01    0,000000000e+00    0,000000000e+00    0,000000000e+00    0,000000000e+00
      198000000   -7,962872833e-02   -1,048427168e-02    1,834719181e-01    7,733926177e-01    0,000000000e+00    0,000000000e+00    0,000000000e+00    0,000000000e+00
      212000000   -6,229039654e-02    1,313426439e-02    5,690500140e-01    5,492089987e-01    0,000000000e+00    0,000000000e+00    0,000000000e+00    0,000000000e+00
      226000000   -4,330082238e-02    2,763594501e-02    7,707372904e-01    1,545539647e-01    0,000000000e+00    0,000000000e+00    0,000000000e+00    0,000000000e+00
      240000000   -1,824018545e-02    3,847298771e-02    7,269355655e-01   -2,817400098e-01    0,000000000e+00    0,000000000e+00    0,000000000e+00    0,000000000e+00
      254000000    1,720283180e-02    3,517886251e-02    4,576950669e-01   -6,201768517e-01    0,000000000e+00    0,000000000e+00    0,000000000e+00    0,000000000e+00
      268000000    4,878263548e-02    5,632857326e-03    5,867984518e-02   -7,602400184e-01    0,000000000e+00    0,000000000e+00    0,000000000e+00    0,000000000e+00
      282000000    5,352762714e-02   -4,176634550e-02   -3,492093384e-01   -6,710232496e-01    0,000000000e+00    0,000000000e+00    0,000000000e+00    0,000000000e+00
      296000000    2,397150919e-02   -7,966995984e-02   -6,523923874e-01   -3,855099082e-01    0,000000000e+00    0,000000000e+00    0,000000000e+00    0,000000000e+00
      310000000   -1,763134636e-02   -8,307046443e-02   -7,632489204e-01    1,916984841e-02    0,000000000e+00    0,000000000e+00    0,000000000e+00    0,000000000e+00
      324000000   -4,161648452e-02   -5,900616944e-02   -6,325437427e-01    4,305176437e-01    0,000000000e+00    0,000000000e+00    0,000000000e+00    0,000000000e+00
      338000000   -3,429488093e-02   -3,708615899e-02   -2,949816585e-01    7,017122507e-01    0,000000000e+00    0,000000000e+00    0,000000000e+00    0,000000000e+00
      352000000   -1,741737127e-02   -4,079709575e-02    1,249552891e-01    7,414436936e-01    0,000000000e+00    0,000000000e+00    0,000000000e+00    0,000000000e+00
      366000000   -1,934849657e-02   -6,204265729e-02    4,978274703e-01    5,536499619e-01    0,000000000e+00    0,000000000e+00    0,000000000e+00    0,000000000e+00
      380000000   -4,456679896e-02   -7,248164713e-02    7,128348947e-01    2,000543475e-01    0,000000000e+00    0,000000000e+00    0,000000000e+00    0,000000000e+00
      394000000   -7,076661289e-02   -5,801853910e-02    7,047718763e-01   -2,162265331e-01    0,000000000e+00    0,000000000e+00    0,000000000e+00    0,000000000e+00
      408000000   -7,701478153e-02   -3,016441129e-02    4,711052179e-01   -5,593799353e-01    0,000000000e+00    0,000000000e+00    0,000000000e+00    0,000000000e+00
      422000000   -6,547583640e-02   -1,125346124e-02    9,290228784e-02   -7,180079222e-01    0,000000000e+00    0,000000000e+00    0,000000000e+00    0,000000000e+00
      436000000   -5,253545567e-02   -4,512023646e-03   -3,015216291e-01   -6,473717093e-01    0,000000000e+00    0,000000000e+00    0,000000000e+00    0,000000000e+00
      450000000   -4,470858723e-02    1,582372584e-03   -5,929986835e-01   -3,785397410e-01    0,000000000e+00    0,000000000e+00    0,000000000e+00    0,000000000e+00
      464000000   -2,976162918e-02    1,110460330e-02   -6,915299296e-01   -5,425604832e-05    0,000000000e+00    0,000000000e+00    0,000000000e+00    0,000000000e+00
      478000000   -8,621647139e-04    1,108191628e-02   -5,732010007e-01    3,636476099e-01    0,000000000e+00    0,000000000e+00    0,000000000e+00    0,000000000e+00
      492000000    2,749294043e-02   -1,229337696e-02   -2,894118428e-01    6,022268534e-01    0,000000000e+00    0,000000000e+00    0,000000000e+00    0,000000000e+00
      506000000    3,626987711e-02   -5,590602010e-02    6,972021610e-02    6,585564017e-01    0,000000000e+00    0,000000000e+00    0,000000000e+00    0,000000000e+00
      520000000    1,249722950e-02   -9,858857840e-02    4,029532969e-01    5,240920186e-01    0,000000000e+00    0,000000000e+00    0,000000000e+00    0,000000000e+00
      534000000   -3,383795917e-02   -1,159850284e-01    6,246430278e-01    2,365874946e-01    0,000000000e+00    0,000000000e+00    0,000000000e+00    0,000000000e+00
      548000000   -7,763545215e-02   -9,921085835e-02    6,581206322e-01   -1,326624751e-01    0,000000000e+00    0,000000000e+00    0,000000000e+00    0,000000000e+00
      562000000   -9,341930598e-02   -6,593454629e-02    4,822101593e-01   -4,666790366e-01    0,000000000e+00    0,000000000e+00    0,000000000e+00    0,000000000e+00
      576000000   -8,587659150e-02   -4,427738115e-02    1,506787091e-01   -6,480443478e-01    0,000000000e+00    0,000000000e+00    0,000000000e+00    0,000000000e+00
      590000000   -8,075123280e-02   -4,156649858e-02   -2,213699967e-01   -6,278594732e-01    0,000000000e+00    0,000000000e+00    0,000000000e+00    0,000000000e+00
      604000000   -8,884808421e-02   -3,685468063e-02   -5,196387172e-01   -4,061667919e-01    0,000000000e+00    0,000000000e+00    0,000000000e+00    0,000000000e+00
      618000000   -9,692519903e-02   -1,471340377e-02   -6,530366540e-01   -5,858022347e-02    0,000000000e+00    0,000000000e+00    0,000000000e+00    0,000000000e+00
      632000000   -8,150939643e-02    1,508936938e-02   -5,755484104e-01    3,030556440e-01    0,000000000e+00    0,000000000e+00    0,000000000e+00    0,000000000e+00
      646000000   -4,252444580e-02    2,684485726e-02   -3,174761832e-01    5,563710332e-01    0,000000000e+00    0,000000000e+00    0,000000000e+00    0,000000000e+00
      660000000   -8,001631126e-03    6,504201330e-03    2,154969797e-02    6,295336485e-01    0,000000000e+00    0,000000000e+00    0,000000000e+00    0,000000000e+00
      674000000    5,115481326e-04   -2,976038307e-02    3,425738215e-01    5,189356208e-01    0,000000000e+00    0,000000000e+00    0,000000000e+00    0,000000000e+00
      688000000   -1,543072239e-02   -5,571261421e-02    5,587662458e-01    2,587664723e-01    0,000000000e+00    0,000000000e+00    0,000000000e+00    0,000000000e+00
      702000000   -3,341647983e-02   -6,030302495e-02    6,045290232e-01   -8,242234588e-02    0,000000000e+00    0,000000000e+00    0,000000000e+00    0,000000000e+00
      716000000   -3,734169528e-02   -5,533459410e-02    4,603312910e-01   -3,897264302e-01    0,000000000e+00    0,000000000e+00    0,000000000e+00    0,000000000e+00
      730000000   -3,140001744e-02   -6,529733539e-02    1,744898856e-01   -5,654943585e-01    0,000000000e+00    0,000000000e+00    0,000000000e+00    0,000000000e+00
      744000000   -4,091963172e-02   -8,848296106e-02   -1,532644629e-01   -5,647854209e-01    0,000000000e+00    0,000000000e+00    0,000000000e+00    0,000000000e+00
      758000000   -7,203172147e-02   -1,042224020e-01   -4,280588627e-01   -3,945808113e-01    0,000000000e+00    0,000000000e+00    0,000000000e+00    0,000000000e+00
      772000000   -1,137479693e-01   -9,474571049e-02   -5,741313696e-01   -1,061196774e-01    0,000000000e+00    0,000000000e+00    0,000000000e+00    0,000000000e+00
      786000000   -1,382308900e-01   -5,636616796e-02   -5,453070402e-01    2,206473053e-01    0,000000000e+00    0,000000000e+00    0,000000000e+00    0,000000000e+00
      800000000   -1,331904233e-01   -1,522959676e-02   -3,421775401e-01    4,794299006e-01    0,000000000e+00    0,000000000e+00    0,000000000e+00    0,000000000e+00
      814000000   -1,083055735e-01    8,011291735e-03   -3,501380235e-02    5,865423083e-01    0,000000000e+00    0,000000000e+00    0,000000000e+00    0,000000000e+00
      828000000   -8,598806709e-02    1,355951838e-02    2,786367834e-01    5,142103434e-01    0,000000000e+00    0,000000000e+00    0,000000000e+00    0,000000000e+00
      842000000   -7,055308670e-02    1,537167467e-02    5,028818250e-01    2,896146178e-01    0,000000000e+00    0,000000000e+00    0,000000000e+00    0,000000000e+00
      856000000   -5,289838091e-02    1,963071898e-02    5,707059503e-01   -1,787508465e-02    0,000000000e+00    0,000000000e+00    0,000000000e+00    0,000000000e+00
      870000000   -2,275625058e-02    1,488472335e-02    4,633724093e-01   -3,063144982e-01    0,000000000e+00    0,000000000e+00    0,000000000e+00    0,000000000e+00
      884000000    6,285286043e-03   -1,470802352e-02    2,314534038e-01   -4,885472059e-01    0,000000000e+00    0,000000000e+00    0,000000000e+00    0,000000000e+00
      898000000    1,245833375e-02   -6,349167973e-02   -5,034043640e-02   -5,256016850e-01    0,000000000e+00    0,000000000e+00    0,000000000e+00    0,000000000e+00
      912000000   -2,325669490e-02   -1,083194464e-01   -3,538902700e-01   -4,081383944e-01    0,000000000e+00    0,000000000e+00    0,000000000e+00    0,000000000e+00
      926000000   -7,575380802e-02   -1,252236962e-01   -5,301374197e-01   -1,609885842e-01    0,000000000e+00    0,000000000e+00    0,000000000e+00    0,000000000e+00
      940000000   -1,222932786e-01   -1,043477803e-01   -5,518839359e-01    1,563024372e-01    0,000000000e+00    0,000000000e+00    0,000000000e+00    0,000000000e+00
      954000000   -1,456129253e-01   -6,154296920e-02   -3,928259313e-01    4,460130632e-01    0,000000000e+00    0,000000000e+00    0,000000000e+00    0,000000000e+00
      968000000   -1,316520125e-01   -3,066181950e-02   -9,118089825e-02    6,037263274e-01    0,000000000e+00    0,000000000e+00    0,000000000e+00    0,000000000e+00
      982000000   -1,179511920e-01   -1,453995984e-02    2,466395050e-01    5,733292699e-01    0,000000000e+00    0,000000000e+00    0,000000000e+00    0,000000000e+00
      996000000   -1,077444851e-01   -1,424893923e-02    5,129976273e-01    3,656623363e-01    0,000000000e+00    0,000000000e+00    0,000000000e+00    0,000000000e+00
     1010000000   -1,023350731e-01   -1,058164611e-02    6,298928261e-01    5,117296427e-02    0,000000000e+00    0,000000000e+00    0,000000000e+00    0,000000000e+00
     1024000000   -8,872686327e-02   -6,201448850e-04    5,608016849e-01   -2,688842118e-01    0,000000000e+00    0,000000000e+00    0,000000000e+00    0,000000000e+00
     1038000000   -7,800535113e-02   -3,847439541e-03    3,363991678e-01   -5,020998716e-01    0,000000000e+00    0,000000000e+00    0,000000000e+00    0,000000000e+00
     1052000000   -6,429785490e-02   -1,942704991e-02    3,110128641e-02   -5,848257542e-01    0,000000000e+00    0,000000000e+00    0,000000000e+00    0,000000000e+00
     1066000000   -6,823485345e-02   -3,327515349e-02   -2,658531070e-01   -5,043184757e-01    0,000000000e+00    0,000000000e+00    0,000000000e+00    0,000000000e+00
     1080000000   -8,490427583e-02   -3,164540976e-02   -4,802528620e-01   -2,726768553e-01    0,000000000e+00    0,000000000e+00    0,000000000e+00    0,000000000e+00
     1094000000   -8,255209774e-02   -1,920950413e-02   -5,324986577e-01    3,979350254e-02    0,000000000e+00    0,000000000e+00    0,000000000e+00    0,000000000e+00
     1108000000   -5,652087927e-02   -1,224371791e-02   -3,988626301e-01    3,250987530e-01    0,000000000e+00    0,000000000e+00    0,000000000e+00    0,000000000e+00
     1122000000   -3,381591290e-02   -3,437531367e-02   -1,352393776e-01    4,838653803e-01    0,000000000e+00    0,000000000e+00    0,000000000e+00    0,000000000e+00
     1136000000   -2,485705540e-02   -8,265295625e-02    1,624140441e-01    4,757951796e-01    0,000000000e+00    0,000000000e+00    0,000000000e+00    0,000000000e+00
     1150000000   -6,777829677e-02   -1,322189271e-01    4,171705842e-01    3,090850711e-01    0,000000000e+00    0,000000000e+00    0,000000000e+00    0,000000000e+00
     1164000000   -1,393206120e-01   -1,536294669e-01    5,634577274e-01    2,421901003e-02    0,000000000e+00    0,000000000e+00    0,000000000e+00    0,000000000e+00
     1178000000   -2,103828341e-01   -1,161380261e-01    5,288916826e-01   -3,138940632e-01    0,000000000e+00    0,000000000e+00    0,000000000e+00    0,000000000e+00
     1192000000   -2,520431578e-01   -4,017534852e-02    2,962909341e-01   -5,958803296e-01    0,000000000e+00    0,000000000e+00    0,000000000e+00    0,000000000e+00
     1206000000   -2,370909452e-01    3,332011402e-02   -6,568802148e-02   -7,011356354e-01    0,000000000e+00    0,000000000e+00    0,000000000e+00    0,000000000e+00
     1220000000   -1,851496398e-01    8,770386130e-02   -4,198033214e-01   -5,797826648e-01    0,000000000e+00    0,000000000e+00    0,000000000e+00    0,000000000e+00
     1234000000   -1,284466535e-01    1,084266752e-01   -6,475622058e-01   -2,866083980e-01    0,000000000e+00    0,000000000e+00    0,000000000e+00    0,000000000e+00
     1248000000   -7,043287903e-02    9,743329883e-02   -6,761971116e-01    6,731829047e-02    0,000000000e+00    0,000000000e+00    0,000000000e+00    0,000000000e+00
     1262000000   -7,833357900e-03    5,978993326e-02   -5,169973969e-01    3,696168363e-01    0,000000000e+00    0,000000000e+00    0,000000000e+00    0,000000000e+00
     1276000000    2,409191802e-02   -2,474939218e-03   -2,453925908e-01    5,490975976e-01    0,000000000e+00    0,000000000e+00    0,000000000e+00    0,000000000e+00
     1290000000    1,763718203e-02   -8,777316660e-02    6,491997838e-02    5,769929290e-01    0,000000000e+00    0,000000000e+00    0,000000000e+00    0,000000000e+00
     1304000000   -2,818936855e-02   -1,682990491e-01    3,673336208e-01    4,691361487e-01    0,000000000e+00    0,000000000e+00    0,000000000e+00    0,000000000e+00
     1318000000   -1,336683780e-01   -2,109503150e-01    5,804325938e-01    2,209147662e-01    0,000000000e+00    0,000000000e+00    0,000000000e+00    0,000000000e+00
     1332000000   -2,474151999e-01   -1,901448518e-01    6,585947871e-01   -1,280494928e-01    0,000000000e+00    0,000000000e+00    0,000000000e+00    0,000000000e+00
     1346000000   -3,292047083e-01   -9,054455161e-02    5,121661425e-01   -4,633790851e-01    0,000000000e+00    0,000000000e+00    0,000000000e+00    0,000000000e+00
     1360000000   -3,315952718e-01    2,722629346e-02    2,000487298e-01   -6,400483847e-01    0,000000000e+00    0,000000000e+00    0,000000000e+00    0,000000000e+00
     1374000000   -2,779343128e-01    1,014448851e-01   -1,585689187e-01   -6,101717353e-01    0,000000000e+00    0,000000000e+00    0,000000000e+00    0,000000000e+00
     1388000000   -2,121159583e-01    1,366261989e-01   -4,018425643e-01   -3,758136928e-01    0,000000000e+00    0,000000000e+00    0,000000000e+00    0,000000000e+00
     1402000000   -1,501010060e-01    1,366279721e-01   -4,780867398e-01   -6,032706797e-02    0,000000000e+00    0,000000000e+00    0,000000000e+00    0,000000000e+00
     1416000000   -8,972173184e-02    1,176154539e-01   -3,702054620e-01    2,449597865e-01    0,000000000e+00    0,000000000e+00    0,000000000e+00    0,000000000e+00
     1430000000   -5,091334879e-02    6,962768734e-02   -1,352795064e-01    4,604637921e-01    0,000000000e+00    0,000000000e+00    0,000000000e+00    0,000000000e+00
     1444000000   -3,556698188e-02    9,844998131e-04    1,690794080e-01    5,359846354e-01    0,000000000e+00    0,000000000e+00    0,000000000e+00    0,000000000e+00
     1458000000   -6,156592816e-02   -7,219713181e-02    4,900421202e-01    4,723289311e-01    0,000000000e+00    0,000000000e+00    0,000000000e+00    0,000000000e+00
     1472000000   -1,327410787e-01   -1,298136711e-01    7,664000392e-01    2,536776364e-01    0,000000000e+00    0,000000000e+00    0,000000000e+00    0,000000000e+00
     1486000000   -2,273188531e-01   -1,150480211e-01    9,035161138e-01   -7,946949452e-02    0,000000000e+00    0,000000000e+00    0,000000000e+00    0,000000000e+00
     1500000000   -2,859647870e-01   -4,334181547e-02    8,038934469e-01   -4,503960311e-01    0,000000000e+00    0,000000000e+00    0,000000000e+00    0,000000000e+00
