! NanoVNA-App
! Date: 2025-09-25 15:05:38
! Start: 100MHz Stop: 1,5GHz Points: 101
! S-Parameter data: F S11 S21 S12 S22
# Hz S RI R 50
!     Frequency           S11_Real           S11_Imag           S21_Real           S21_Imag           S12_Real           S12_Imag           S22_Real           S22_Imag
      100000000    3,114610165e-02    2,864446491e-02    4,348436892e-01   -6,686691046e-01    0,000000000e+00    0,000000000e+00    0,000000000e+00    0,000000000e+00
      114000000    5,757223815e-02    5,529109854e-03    7,817288861e-03   -7,910863757e-01    0,000000000e+00    0,000000000e+00    0,000000000e+00    0,000000000e+00
      128000000    6,722947955e-02   -3,781738132e-02   -4,104168117e-01   -6,711517572e-01    0,000000000e+00    0,000000000e+00    0,000000000e+00    0,000000000e+00
      142000000    4,470301047e-02   -8,418642730e-02   -7,029095292e-01   -3,533197045e-01    0,000000000e+00    0,000000000e+00    0,000000000e+00    0,000000000e+00
      156000000   -6,047356874e-03   -1,062292010e-01   -7,856869698e-01    7,341388613e-02    0,000000000e+00    0,000000000e+00    0,000000000e+00    0,000000000e+00
      170000000   -5,764713883e-02   -9,056939930e-02   -6,274183393e-01    4,871143401e-01    0,000000000e+00    0,000000000e+00    0,000000000e+00    0,000000000e+00
      184000000   -8,367713541e-02   -4,949127883e-02   -2,648959756e-01    7,509998083e-01    0,000000000e+00    0,000000000e+00    0,000000000e+00    0,000000000e+00
      198000000   -7,963408530e-02   -1,048655994e-02    1,835611314e-01    7,732266188e-01    0,000000000e+00    0,000000000e+00    0,000000000e+00    0,000000000e+00
      212000000   -6,226662546e-02    1,311715413e-02    5,691908598e-01    5,491089225e-01    0,000000000e+00    0,000000000e+00    0,000000000e+00    0,000000000e+00
      226000000   -4,331408814e-02    2,774817310e-02    7,707638741e-01    1,545703709e-01    0,000000000e+00    0,000000000e+00    0,000000000e+00    0,000000000e+00
      240000000   -1,819803007e-02    3,847484291e-02    7,267929912e-01   -2,819306254e-01    0,000000000e+00    0,000000000e+00    0,000000000e+00    0,000000000e+00
      254000000    1,719900034e-02    3,518451378e-02    4,579266310e-01   -6,203758121e-01    0,000000000e+00    0,000000000e+00    0,000000000e+00    0,000000000e+00
      268000000    4,875809327e-02    5,568905734e-03    5,879188702e-02   -7,602908015e-01    0,000000000e+00    0,000000000e+00    0,000000000e+00    0,000000000e+00
      282000000    5,343312398e-02   -4,177325219e-02   -3,491224051e-01   -6,714152098e-01    0,000000000e+00    0,000000000e+00    0,000000000e+00    0,000000000e+00
      296000000    2,399286442e-02   -7,941987365e-02   -6,522455812e-01   -3,854507506e-01    0,000000000e+00    0,000000000e+00    0,000000000e+00    0,000000000e+00
      310000000   -1,790316589e-02   -8,314179629e-02   -7,623081207e-01    2,055556700e-02    0,000000000e+00    0,000000000e+00    0,000000000e+00    0,000000000e+00
      324000000   -4,156615958e-02   -5,872323364e-02   -6,318745613e-01    4,302054346e-01    0,000000000e+00    0,000000000e+00    0,000000000e+00    0,000000000e+00
      338000000   -3,426041454e-02   -3,699482977e-02   -2,972968817e-01    7,022994757e-01    0,000000000e+00    0,000000000e+00    0,000000000e+00    0,000000000e+00
      352000000   -1,724651642e-02   -4,059968516e-02    1,255154461e-01    7,425845861e-01    0,000000000e+00    0,000000000e+00    0,000000000e+00    0,000000000e+00
      366000000   -1,933333464e-02   -6,185341254e-02    4,977430105e-01    5,550658703e-01    0,000000000e+00    0,000000000e+00    0,000000000e+00    0,000000000e+00
      380000000   -4,429211840e-02   -7,278191298e-02    7,139313221e-01    1,995413303e-01    0,000000000e+00    0,000000000e+00    0,000000000e+00    0,000000000e+00
      394000000   -7,100657374e-02   -5,828490108e-02    7,043581009e-01   -2,167769223e-01    0,000000000e+00    0,000000000e+00    0,000000000e+00    0,000000000e+00
      408000000   -7,692214847e-02   -3,075675666e-02    4,707174301e-01   -5,599086285e-01    0,000000000e+00    0,000000000e+00    0,000000000e+00    0,000000000e+00
      422000000   -6,551116705e-02   -1,148819923e-02    9,271014482e-02   -7,182334065e-01    0,000000000e+00    0,000000000e+00    0,000000000e+00    0,000000000e+00
      436000000   -5,303023756e-02   -4,341298714e-03   -3,021174967e-01   -6,467680931e-01    0,000000000e+00    0,000000000e+00    0,000000000e+00    0,000000000e+00
      450000000   -4,455883801e-02    1,538948854e-03   -5,929114223e-01   -3,784219027e-01    0,000000000e+00    0,000000000e+00    0,000000000e+00    0,000000000e+00
      464000000   -2,932322770e-02    1,153624617e-02   -6,912428141e-01    2,599135332e-04    0,000000000e+00    0,000000000e+00    0,000000000e+00    0,000000000e+00
      478000000   -1,202460378e-03    1,104825735e-02   -5,729453564e-01    3,632137775e-01    0,000000000e+00    0,000000000e+00    0,000000000e+00    0,000000000e+00
      492000000    2,790245041e-02   -1,263007801e-02   -2,891032100e-01    6,015558243e-01    0,000000000e+00    0,000000000e+00    0,000000000e+00    0,000000000e+00
      506000000    3,654981777e-02   -5,629386753e-02    6,894727796e-02    6,586906314e-01    0,000000000e+00    0,000000000e+00    0,000000000e+00    0,000000000e+00
      520000000    1,164991315e-02   -9,896650910e-02    4,040527642e-01    5,247465968e-01    0,000000000e+00    0,000000000e+00    0,000000000e+00    0,000000000e+00
      534000000   -3,456502408e-02   -1,160609424e-01    6,233850121e-01    2,363554686e-01    0,000000000e+00    0,000000000e+00    0,000000000e+00    0,000000000e+00
      548000000   -7,728435844e-02   -9,893620014e-02    6,579115987e-01   -1,329489201e-01    0,000000000e+00    0,000000000e+00    0,000000000e+00    0,000000000e+00
      562000000   -9,355185926e-02   -6,578173488e-02    4,808954000e-01   -4,663988948e-01    0,000000000e+00    0,000000000e+00    0,000000000e+00    0,000000000e+00
      576000000   -8,582478762e-02   -4,463877901e-02    1,508592367e-01   -6,475095153e-01    0,000000000e+00    0,000000000e+00    0,000000000e+00    0,000000000e+00
      590000000   -8,046551049e-02   -4,197245464e-02   -2,206494063e-01   -6,284410954e-01    0,000000000e+00    0,000000000e+00    0,000000000e+00    0,000000000e+00
      604000000   -8,854555339e-02   -3,713897243e-02   -5,194949508e-01   -4,058457315e-01    0,000000000e+00    0,000000000e+00    0,000000000e+00    0,000000000e+00
      618000000   -9,662018716e-02   -1,469741948e-02   -6,532390714e-01   -5,812898651e-02    0,000000000e+00    0,000000000e+00    0,000000000e+00    0,000000000e+00
      632000000   -8,137065172e-02    1,537361741e-02   -5,755550861e-01    3,028768301e-01    0,000000000e+00    0,000000000e+00    0,000000000e+00    0,000000000e+00
      646000000   -4,338317364e-02    2,598190494e-02   -3,185923696e-01    5,564340353e-01    0,000000000e+00    0,000000000e+00    0,000000000e+00    0,000000000e+00
      660000000   -8,145471103e-03    5,458239000e-03    2,190150321e-02    6,305115819e-01    0,000000000e+00    0,000000000e+00    0,000000000e+00    0,000000000e+00
      674000000    4,533573810e-04   -2,961708046e-02    3,427578211e-01    5,198677778e-01    0,000000000e+00    0,000000000e+00    0,000000000e+00    0,000000000e+00
      688000000   -1,540653501e-02   -5,590169877e-02    5,586951375e-01    2,583612204e-01    0,000000000e+00    0,000000000e+00    0,000000000e+00    0,000000000e+00
      702000000   -3,327538818e-02   -5,934998766e-02    6,021702290e-01   -7,869276404e-02    0,000000000e+00    0,000000000e+00    0,000000000e+00    0,000000000e+00
      716000000   -3,654213250e-02   -5,603912100e-02    4,595762789e-01   -3,902305663e-01    0,000000000e+00    0,000000000e+00    0,000000000e+00    0,000000000e+00
      730000000   -3,139403090e-02   -6,504732370e-02    1,740052998e-01   -5,660375953e-01    0,000000000e+00    0,000000000e+00    0,000000000e+00    0,000000000e+00
      744000000   -3,971464559e-02   -8,829521388e-02   -1,533004791e-01   -5,642982721e-01    0,000000000e+00    0,000000000e+00    0,000000000e+00    0,000000000e+00
      758000000   -7,227709889e-02   -1,044860929e-01   -4,269105792e-01   -3,940510452e-01    0,000000000e+00    0,000000000e+00    0,000000000e+00    0,000000000e+00
      772000000   -1,147444695e-01   -9,391611814e-02   -5,741056800e-01   -1,058735773e-01    0,000000000e+00    0,000000000e+00    0,000000000e+00    0,000000000e+00
      786000000   -1,383883357e-01   -5,564568192e-02   -5,446755290e-01    2,208826095e-01    0,000000000e+00    0,000000000e+00    0,000000000e+00    0,000000000e+00
      800000000   -1,325801760e-01   -1,510955207e-02   -3,430676162e-01    4,802210629e-01    0,000000000e+00    0,000000000e+00    0,000000000e+00    0,000000000e+00
      814000000   -1,080620289e-01    8,331341669e-03   -3,529087827e-02    5,863751173e-01    0,000000000e+00    0,000000000e+00    0,000000000e+00    0,000000000e+00
      828000000   -8,502747118e-02    1,382108964e-02    2,791080177e-01    5,147380233e-01    0,000000000e+00    0,000000000e+00    0,000000000e+00    0,000000000e+00
      842000000   -7,056342065e-02    1,444836427e-02    5,026808977e-01    2,899584472e-01    0,000000000e+00    0,000000000e+00    0,000000000e+00    0,000000000e+00
      856000000   -5,181886628e-02    1,921338774e-02    5,703743100e-01   -1,781987213e-02    0,000000000e+00    0,000000000e+00    0,000000000e+00    0,000000000e+00
      870000000   -2,267802693e-02    1,454191655e-02    4,637411535e-01   -3,063207567e-01    0,000000000e+00    0,000000000e+00    0,000000000e+00    0,000000000e+00
      884000000    5,659672432e-03   -1,430915017e-02    2,292515039e-01   -4,877389371e-01    0,000000000e+00    0,000000000e+00    0,000000000e+00    0,000000000e+00
      898000000    1,142528933e-02   -6,341607869e-02   -5,340949073e-02   -5,269654989e-01    0,000000000e+00    0,000000000e+00    0,000000000e+00    0,000000000e+00
      912000000   -2,251287922e-02   -1,080249622e-01   -3,534030318e-01   -4,017545581e-01    0,000000000e+00    0,000000000e+00    0,000000000e+00    0,000000000e+00
      926000000   -7,637321949e-02   -1,252932400e-01   -5,320475101e-01   -1,598447859e-01    0,000000000e+00    0,000000000e+00    0,000000000e+00    0,000000000e+00
      940000000   -1,227075234e-01   -1,040964872e-01   -5,520995259e-01    1,557149291e-01    0,000000000e+00    0,000000000e+00    0,000000000e+00    0,000000000e+00
      954000000   -1,396526992e-01   -6,213352457e-02   -3,904697895e-01    4,456755817e-01    0,000000000e+00    0,000000000e+00    0,000000000e+00    0,000000000e+00
      968000000   -1,294264346e-01   -2,860322781e-02   -9,131168574e-02    6,046841741e-01    0,000000000e+00    0,000000000e+00    0,000000000e+00    0,000000000e+00
      982000000   -1,128850877e-01   -1,380142570e-02    2,470341474e-01    5,736704469e-01    0,000000000e+00    0,000000000e+00    0,000000000e+00    0,000000000e+00
      996000000   -1,050827205e-01   -1,551619545e-02    5,134999752e-01    3,662536144e-01    0,000000000e+00    0,000000000e+00    0,000000000e+00    0,000000000e+00
     1010000000   -1,004784331e-01   -8,200346492e-03    6,279747486e-01    5,270629749e-02    0,000000000e+00    0,000000000e+00    0,000000000e+00    0,000000000e+00
     1024000000   -8,989042044e-02    1,876682858e-03    5,608378053e-01   -2,704454958e-01    0,000000000e+00    0,000000000e+00    0,000000000e+00    0,000000000e+00
     1038000000   -7,465834171e-02    1,612128573e-03    3,378020525e-01   -5,040139556e-01    0,000000000e+00    0,000000000e+00    0,000000000e+00    0,000000000e+00
     1052000000   -6,486701965e-02   -1,876850240e-02    3,246479109e-02   -5,874128938e-01    0,000000000e+00    0,000000000e+00    0,000000000e+00    0,000000000e+00
     1066000000   -6,691287458e-02   -2,926800586e-02   -2,682021856e-01   -5,003240108e-01    0,000000000e+00    0,000000000e+00    0,000000000e+00    0,000000000e+00
     1080000000   -8,094632626e-02   -3,382932395e-02   -4,821345806e-01   -2,697604597e-01    0,000000000e+00    0,000000000e+00    0,000000000e+00    0,000000000e+00
     1094000000   -7,895826548e-02   -1,774742454e-02   -5,322006345e-01    4,137402028e-02    0,000000000e+00    0,000000000e+00    0,000000000e+00    0,000000000e+00
     1108000000   -5,512693524e-02   -1,048985776e-02   -3,987654746e-01    3,246431351e-01    0,000000000e+00    0,000000000e+00    0,000000000e+00    0,000000000e+00
     1122000000   -3,401480615e-02   -3,636660054e-02   -1,378519535e-01    4,816452563e-01    0,000000000e+00    0,000000000e+00    0,000000000e+00    0,000000000e+00
     1136000000   -2,942387573e-02   -8,768704534e-02    1,646797508e-01    4,746899009e-01    0,000000000e+00    0,000000000e+00    0,000000000e+00    0,000000000e+00
     1150000000   -6,032215804e-02   -1,353358924e-01    4,187656045e-01    3,110811710e-01    0,000000000e+00    0,000000000e+00    0,000000000e+00    0,000000000e+00
     1164000000   -1,392805874e-01   -1,562121809e-01    5,613679290e-01    2,698102221e-02    0,000000000e+00    0,000000000e+00    0,000000000e+00    0,000000000e+00
     1178000000   -2,118221223e-01   -1,209652349e-01    5,319769979e-01   -3,174397051e-01    0,000000000e+00    0,000000000e+00    0,000000000e+00    0,000000000e+00
     1192000000   -2,494334728e-01   -3,990185261e-02    2,977254987e-01   -5,957987309e-01    0,000000000e+00    0,000000000e+00    0,000000000e+00    0,000000000e+00
     1206000000   -2,362223268e-01    3,266401589e-02   -6,434915960e-02   -6,980781555e-01    0,000000000e+00    0,000000000e+00    0,000000000e+00    0,000000000e+00
     1220000000   -1,828524470e-01    8,645808697e-02   -4,198763669e-01   -5,775181055e-01    0,000000000e+00    0,000000000e+00    0,000000000e+00    0,000000000e+00
     1234000000   -1,267429143e-01    1,075643227e-01   -6,443483233e-01   -2,892946601e-01    0,000000000e+00    0,000000000e+00    0,000000000e+00    0,000000000e+00
     1248000000   -6,836127490e-02    9,950857610e-02   -6,732736826e-01    6,780422479e-02    0,000000000e+00    0,000000000e+00    0,000000000e+00    0,000000000e+00
     1262000000   -1,055867784e-02    6,460416317e-02   -5,179881454e-01    3,705582619e-01    0,000000000e+00    0,000000000e+00    0,000000000e+00    0,000000000e+00
     1276000000    2,234630659e-02   -3,575304756e-03   -2,466855645e-01    5,441840887e-01    0,000000000e+00    0,000000000e+00    0,000000000e+00    0,000000000e+00
     1290000000    1,961390674e-02   -8,627779782e-02    6,405723095e-02    5,773912072e-01    0,000000000e+00    0,000000000e+00    0,000000000e+00    0,000000000e+00
     1304000000   -3,628033400e-02   -1,720622182e-01    3,648396134e-01    4,624058902e-01    0,000000000e+00    0,000000000e+00    0,000000000e+00    0,000000000e+00
     1318000000   -1,377249211e-01   -2,132430375e-01    5,809924006e-01    2,257591784e-01    0,000000000e+00    0,000000000e+00    0,000000000e+00    0,000000000e+00
     1332000000   -2,559403479e-01   -1,885809600e-01    6,499062181e-01   -1,177307367e-01    0,000000000e+00    0,000000000e+00    0,000000000e+00    0,000000000e+00
     1346000000   -3,312442005e-01   -9,546156228e-02    5,108878016e-01   -4,622857571e-01    0,000000000e+00    0,000000000e+00    0,000000000e+00    0,000000000e+00
     1360000000   -3,356087208e-01    2,181608975e-02    1,995948255e-01   -6,455086470e-01    0,000000000e+00    0,000000000e+00    0,000000000e+00    0,000000000e+00
     1374000000   -2,804382741e-01    1,019371599e-01   -1,595473588e-01   -6,064957976e-01    0,000000000e+00    0,000000000e+00    0,000000000e+00    0,000000000e+00
     1388000000   -2,124952227e-01    1,379019767e-01   -4,090383351e-01   -3,718790412e-01    0,000000000e+00    0,000000000e+00    0,000000000e+00    0,000000000e+00
     1402000000   -1,513682306e-01    1,384370476e-01   -4,918162525e-01   -5,508035421e-02    0,000000000e+00    0,000000000e+00    0,000000000e+00    0,000000000e+00
     1416000000   -9,599085152e-02    1,132435650e-01   -3,814513981e-01    2,346791476e-01    0,000000000e+00    0,000000000e+00    0,000000000e+00    0,000000000e+00
     1430000000   -5,852558464e-02    7,567492872e-02   -1,347219795e-01    4,441378117e-01    0,000000000e+00    0,000000000e+00    0,000000000e+00    0,000000000e+00
     1444000000   -3,638174757e-02    3,369261976e-03    1,668090075e-01    5,368439555e-01    0,000000000e+00    0,000000000e+00    0,000000000e+00    0,000000000e+00
     1458000000   -6,371746957e-02   -7,501673698e-02    4,764089286e-01    4,727694988e-01    0,000000000e+00    0,000000000e+00    0,000000000e+00    0,000000000e+00
     1472000000   -1,397655755e-01   -1,218734905e-01    7,614722252e-01    2,536970377e-01    0,000000000e+00    0,000000000e+00    0,000000000e+00    0,000000000e+00
     1486000000   -2,331454009e-01   -1,169647649e-01    8,876901269e-01   -7,671193033e-02    0,000000000e+00    0,000000000e+00    0,000000000e+00    0,000000000e+00
     1500000000   -2,835602462e-01   -4,180511087e-02    8,007351160e-01   -4,372463524e-01    0,000000000e+00    0,000000000e+00    0,000000000e+00    0,000000000e+00
