! NanoVNA-App
! Date: 2025-09-26 09:42:48
! Start: 100MHz Stop: 1,5GHz Points: 101
! S-Parameter data: F S11 S21 S12 S22
# Hz S RI R 50
!     Frequency           S11_Real           S11_Imag           S21_Real           S21_Imag           S12_Real           S12_Imag           S22_Real           S22_Imag
      100000000   -2,898065187e-02   -4,492101260e-03    3,739083409e-01   -7,230552435e-01    0,000000000e+00    0,000000000e+00    0,000000000e+00    0,000000000e+00
      114000000   -1,689310744e-02    1,124791987e-02   -9,011614323e-02   -8,065270185e-01    0,000000000e+00    0,000000000e+00    0,000000000e+00    0,000000000e+00
      128000000    2,917811507e-03    1,055299118e-02   -5,160189867e-01   -6,208508015e-01    0,000000000e+00    0,000000000e+00    0,000000000e+00    0,000000000e+00
      142000000    1,403587684e-02   -2,632049378e-03   -7,685551643e-01   -2,362782359e-01    0,000000000e+00    0,000000000e+00    0,000000000e+00    0,000000000e+00
      156000000    1,493956894e-02   -1,458080206e-02   -7,701069117e-01    2,209169418e-01    0,000000000e+00    0,000000000e+00    0,000000000e+00    0,000000000e+00
      170000000    1,689963974e-02   -2,224730328e-02   -5,180639625e-01    6,063665152e-01    0,000000000e+00    0,000000000e+00    0,000000000e+00    0,000000000e+00
      184000000    2,117231302e-02   -3,706702590e-02   -1,003419906e-01    7,874599695e-01    0,000000000e+00    0,000000000e+00    0,000000000e+00    0,000000000e+00
      198000000    1,288048644e-02   -6,252496690e-02    3,446181417e-01    7,129437923e-01    0,000000000e+00    0,000000000e+00    0,000000000e+00    0,000000000e+00
      212000000   -1,891461015e-02   -8,112888038e-02    6,799647808e-01    4,099874496e-01    0,000000000e+00    0,000000000e+00    0,000000000e+00    0,000000000e+00
      226000000   -6,158860028e-02   -6,866644323e-02    7,974340916e-01   -3,128880635e-02    0,000000000e+00    0,000000000e+00    0,000000000e+00    0,000000000e+00
      240000000   -8,186432719e-02   -2,552673034e-02    6,473628283e-01   -4,681737125e-01    0,000000000e+00    0,000000000e+00    0,000000000e+00    0,000000000e+00
      254000000   -6,304088980e-02    1,684809476e-02    2,770344913e-01   -7,450668812e-01    0,000000000e+00    0,000000000e+00    0,000000000e+00    0,000000000e+00
      268000000   -2,371404134e-02    2,828399837e-02   -1,777525544e-01   -7,661930919e-01    0,000000000e+00    0,000000000e+00    0,000000000e+00    0,000000000e+00
      282000000    3,677815199e-03    1,138639543e-02   -5,628736019e-01   -5,376696587e-01    0,000000000e+00    0,000000000e+00    0,000000000e+00    0,000000000e+00
      296000000    9,311194532e-03   -7,809503470e-03   -7,614771724e-01   -1,410723627e-01    0,000000000e+00    0,000000000e+00    0,000000000e+00    0,000000000e+00
      310000000    1,113517303e-02   -1,598270237e-02   -7,128850818e-01    2,994681299e-01    0,000000000e+00    0,000000000e+00    0,000000000e+00    0,000000000e+00
      324000000    1,997349784e-02   -2,673067525e-02   -4,283400178e-01    6,402477622e-01    0,000000000e+00    0,000000000e+00    0,000000000e+00    0,000000000e+00
      338000000    2,558040619e-02   -5,238165334e-02   -7,809380069e-03    7,619616985e-01    0,000000000e+00    0,000000000e+00    0,000000000e+00    0,000000000e+00
      352000000    6,351004355e-03   -8,528684080e-02    4,065174460e-01    6,413273811e-01    0,000000000e+00    0,000000000e+00    0,000000000e+00    0,000000000e+00
      366000000   -3,542326018e-02   -9,517002106e-02    6,921120286e-01    3,124470115e-01    0,000000000e+00    0,000000000e+00    0,000000000e+00    0,000000000e+00
      380000000   -7,091443241e-02   -7,010692358e-02    7,497248650e-01   -1,260407120e-01    0,000000000e+00    0,000000000e+00    0,000000000e+00    0,000000000e+00
      394000000   -7,203361392e-02   -3,168875724e-02    5,473011732e-01   -5,234084129e-01    0,000000000e+00    0,000000000e+00    0,000000000e+00    0,000000000e+00
      408000000   -4,573797807e-02   -1,616179198e-02    1,600808352e-01   -7,342184782e-01    0,000000000e+00    0,000000000e+00    0,000000000e+00    0,000000000e+00
      422000000   -2,787996270e-02   -3,246867657e-02   -2,670911252e-01   -6,967840791e-01    0,000000000e+00    0,000000000e+00    0,000000000e+00    0,000000000e+00
      436000000   -4,056872800e-02   -5,211114883e-02   -6,048122048e-01   -4,339502454e-01    0,000000000e+00    0,000000000e+00    0,000000000e+00    0,000000000e+00
      450000000   -6,735891104e-02   -4,363977909e-02   -7,423428297e-01   -2,238933183e-02    0,000000000e+00    0,000000000e+00    0,000000000e+00    0,000000000e+00
      464000000   -7,265716046e-02   -1,150637027e-02   -6,208603382e-01    3,972800076e-01    0,000000000e+00    0,000000000e+00    0,000000000e+00    0,000000000e+00
      478000000   -4,732037708e-02    1,104584057e-02   -2,843166292e-01    6,692597270e-01    0,000000000e+00    0,000000000e+00    0,000000000e+00    0,000000000e+00
      492000000   -1,556288544e-02    5,284698214e-03    1,367760748e-01    7,037624717e-01    0,000000000e+00    0,000000000e+00    0,000000000e+00    0,000000000e+00
      506000000   -3,154743696e-03   -1,681786589e-02    4,995931387e-01    5,049769282e-01    0,000000000e+00    0,000000000e+00    0,000000000e+00    0,000000000e+00
      520000000   -5,925961770e-03   -3,127605841e-02    6,892330647e-01    1,440142989e-01    0,000000000e+00    0,000000000e+00    0,000000000e+00    0,000000000e+00
      534000000   -4,282682668e-03   -3,794171661e-02    6,459849477e-01   -2,628996670e-01    0,000000000e+00    0,000000000e+00    0,000000000e+00    0,000000000e+00
      548000000    6,591829937e-03   -5,411387235e-02    3,824780881e-01   -5,683702826e-01    0,000000000e+00    0,000000000e+00    0,000000000e+00    0,000000000e+00
      562000000    3,573099151e-03   -9,025172889e-02    3,364998614e-03   -6,740857959e-01    0,000000000e+00    0,000000000e+00    0,000000000e+00    0,000000000e+00
      576000000   -3,468731418e-02   -1,249008104e-01   -3,697275519e-01   -5,604578853e-01    0,000000000e+00    0,000000000e+00    0,000000000e+00    0,000000000e+00
      590000000   -9,706464410e-02   -1,223682165e-01   -6,239336133e-01   -2,651009262e-01    0,000000000e+00    0,000000000e+00    0,000000000e+00    0,000000000e+00
      604000000   -1,392694712e-01   -7,079245150e-02   -6,671584845e-01    1,373066902e-01    0,000000000e+00    0,000000000e+00    0,000000000e+00    0,000000000e+00
      618000000   -1,288820356e-01   -9,000207298e-03   -4,667249322e-01    4,950000346e-01    0,000000000e+00    0,000000000e+00    0,000000000e+00    0,000000000e+00
      632000000   -8,281029761e-02    1,643498614e-02   -1,007112637e-01    6,656986475e-01    0,000000000e+00    0,000000000e+00    0,000000000e+00    0,000000000e+00
      646000000   -5,066723004e-02   -5,466453731e-04    2,870696485e-01    5,959436893e-01    0,000000000e+00    0,000000000e+00    0,000000000e+00    0,000000000e+00
      660000000   -5,472900346e-02   -2,268032171e-02    5,685639977e-01    3,242368996e-01    0,000000000e+00    0,000000000e+00    0,000000000e+00    0,000000000e+00
      674000000   -7,124011964e-02   -1,743326895e-02    6,439523697e-01   -6,562678516e-02    0,000000000e+00    0,000000000e+00    0,000000000e+00    0,000000000e+00
      688000000   -6,812226772e-02    9,100599214e-03    4,721334279e-01   -4,292775393e-01    0,000000000e+00    0,000000000e+00    0,000000000e+00    0,000000000e+00
      702000000   -3,627653047e-02    2,617945336e-02    1,172946095e-01   -6,156403422e-01    0,000000000e+00    0,000000000e+00    0,000000000e+00    0,000000000e+00
      716000000    3,216982121e-03    1,700934209e-02   -2,663982809e-01   -5,475470424e-01    0,000000000e+00    0,000000000e+00    0,000000000e+00    0,000000000e+00
      730000000    3,593142331e-02   -1,127407420e-02   -5,300376415e-01   -2,699117362e-01    0,000000000e+00    0,000000000e+00    0,000000000e+00    0,000000000e+00
      744000000    6,595881283e-02   -6,192749739e-02   -5,655113459e-01    1,070636883e-01    0,000000000e+00    0,000000000e+00    0,000000000e+00    0,000000000e+00
      758000000    6,793879718e-02   -1,524334252e-01   -3,629449308e-01    4,114129245e-01    0,000000000e+00    0,000000000e+00    0,000000000e+00    0,000000000e+00
      772000000   -1,284885034e-02   -2,650939524e-01   -3,343877569e-02    5,146826506e-01    0,000000000e+00    0,000000000e+00    0,000000000e+00    0,000000000e+00
      786000000   -2,094567418e-01   -3,044406474e-01    2,752913833e-01    3,935262561e-01    0,000000000e+00    0,000000000e+00    0,000000000e+00    0,000000000e+00
      800000000   -4,304755330e-01   -1,282382607e-01    4,170717299e-01    9,518105537e-02    0,000000000e+00    0,000000000e+00    0,000000000e+00    0,000000000e+00
      814000000   -3,914885819e-01    2,262482643e-01    2,788316011e-01   -1,759528816e-01    0,000000000e+00    0,000000000e+00    0,000000000e+00    0,000000000e+00
      828000000   -4,671988264e-02    3,704729080e-01    5,130579695e-02   -1,881865114e-01    0,000000000e+00    0,000000000e+00    0,000000000e+00    0,000000000e+00
      842000000    2,391771972e-01    1,854862571e-01   -1,912484691e-02   -6,867679954e-02    0,000000000e+00    0,000000000e+00    0,000000000e+00    0,000000000e+00
      856000000    2,830212116e-01   -1,281378418e-01    4,496243596e-02   -1,117687393e-02    0,000000000e+00    0,000000000e+00    0,000000000e+00    0,000000000e+00
      870000000    7,450592518e-02   -3,805866539e-01    1,137811020e-01   -9,011527896e-02    0,000000000e+00    0,000000000e+00    0,000000000e+00    0,000000000e+00
      884000000   -2,981192172e-01   -3,644185364e-01    2,838705108e-02   -2,439922690e-01    0,000000000e+00    0,000000000e+00    0,000000000e+00    0,000000000e+00
      898000000   -4,754264951e-01    1,069816295e-02   -2,217003256e-01   -2,257722914e-01    0,000000000e+00    0,000000000e+00    0,000000000e+00    0,000000000e+00
      912000000   -2,265559286e-01    2,989957333e-01   -3,540547788e-01    6,388114393e-02    0,000000000e+00    0,000000000e+00    0,000000000e+00    0,000000000e+00
      926000000    7,006809115e-02    2,678972483e-01   -2,160086036e-01    2,616917491e-01    0,000000000e+00    0,000000000e+00    0,000000000e+00    0,000000000e+00
      940000000    2,178773880e-01    7,881209999e-02   -3,961420804e-02    3,253978193e-01    0,000000000e+00    0,000000000e+00    0,000000000e+00    0,000000000e+00
      954000000    2,235945910e-01   -1,300117522e-01    1,257787496e-01    3,060217500e-01    0,000000000e+00    0,000000000e+00    0,000000000e+00    0,000000000e+00
      968000000    1,176294014e-01   -3,021752536e-01    2,649814487e-01    2,210790217e-01    0,000000000e+00    0,000000000e+00    0,000000000e+00    0,000000000e+00
      982000000   -8,366411924e-02   -3,941620588e-01    3,640422523e-01    7,040563971e-02    0,000000000e+00    0,000000000e+00    0,000000000e+00    0,000000000e+00
      996000000   -3,204629719e-01   -3,332833052e-01    3,661708236e-01   -1,398889869e-01    0,000000000e+00    0,000000000e+00    0,000000000e+00    0,000000000e+00
     1010000000   -4,696991444e-01   -1,125795171e-01    2,210518569e-01   -3,354925215e-01    0,000000000e+00    0,000000000e+00    0,000000000e+00    0,000000000e+00
     1024000000   -4,158216715e-01    1,498811841e-01   -3,397313505e-02   -3,895377517e-01    0,000000000e+00    0,000000000e+00    0,000000000e+00    0,000000000e+00
     1038000000   -2,151401192e-01    2,939973176e-01   -2,476178110e-01   -2,583353519e-01    0,000000000e+00    0,000000000e+00    0,000000000e+00    0,000000000e+00
     1052000000   -9,159300476e-03    2,829172313e-01   -3,174522817e-01   -4,698276892e-02    0,000000000e+00    0,000000000e+00    0,000000000e+00    0,000000000e+00
     1066000000    1,416620612e-01    1,627842486e-01   -2,597309351e-01    1,426995248e-01    0,000000000e+00    0,000000000e+00    0,000000000e+00    0,000000000e+00
     1080000000    1,955576539e-01   -1,987986267e-03   -1,214746982e-01    2,641295791e-01    0,000000000e+00    0,000000000e+00    0,000000000e+00    0,000000000e+00
     1094000000    1,567471623e-01   -1,780012101e-01    5,890017748e-02    3,056326807e-01    0,000000000e+00    0,000000000e+00    0,000000000e+00    0,000000000e+00
     1108000000   -4,913276061e-03   -3,112600446e-01    2,715449333e-01    2,520597577e-01    0,000000000e+00    0,000000000e+00    0,000000000e+00    0,000000000e+00
     1122000000   -2,564378977e-01   -2,568505108e-01    4,664446115e-01    1,777896471e-02    0,000000000e+00    0,000000000e+00    0,000000000e+00    0,000000000e+00
     1136000000   -3,136183321e-01    4,724623635e-02    3,905913532e-01   -3,802121282e-01    0,000000000e+00    0,000000000e+00    0,000000000e+00    0,000000000e+00
     1150000000   -2,388593554e-02    1,452331096e-01    4,837715998e-03   -5,238065720e-01    0,000000000e+00    0,000000000e+00    0,000000000e+00    0,000000000e+00
     1164000000    1,250919253e-01   -7,766767591e-02   -2,680875659e-01   -3,589401841e-01    0,000000000e+00    0,000000000e+00    0,000000000e+00    0,000000000e+00
     1178000000    1,139593311e-02   -3,187342286e-01   -3,461529911e-01   -1,403205842e-01    0,000000000e+00    0,000000000e+00    0,000000000e+00    0,000000000e+00
     1192000000   -2,803759873e-01   -3,733963966e-01   -2,979688644e-01    5,824337527e-02    0,000000000e+00    0,000000000e+00    0,000000000e+00    0,000000000e+00
     1206000000   -5,320307016e-01   -1,523217112e-01   -1,534834802e-01    1,687948555e-01    0,000000000e+00    0,000000000e+00    0,000000000e+00    0,000000000e+00
     1220000000   -5,107533932e-01    1,809354872e-01   -6,474625552e-04    1,386884153e-01    0,000000000e+00    0,000000000e+00    0,000000000e+00    0,000000000e+00
     1234000000   -2,763173580e-01    3,684701025e-01    5,777602643e-02    5,569523200e-02    0,000000000e+00    0,000000000e+00    0,000000000e+00    0,000000000e+00
     1248000000   -3,880533203e-02    3,610501885e-01    4,351679981e-02   -3,403996117e-03    0,000000000e+00    0,000000000e+00    0,000000000e+00    0,000000000e+00
     1262000000    1,276556998e-01    2,498674542e-01    1,429374050e-02   -1,489987131e-02    0,000000000e+00    0,000000000e+00    0,000000000e+00    0,000000000e+00
     1276000000    2,148159593e-01    9,396971017e-02   -2,770229010e-03    1,053524669e-02    0,000000000e+00    0,000000000e+00    0,000000000e+00    0,000000000e+00
     1290000000    2,237172872e-01   -7,947945595e-02    2,545319498e-02    5,944476277e-02    0,000000000e+00    0,000000000e+00    0,000000000e+00    0,000000000e+00
     1304000000    1,538431644e-01   -2,469355762e-01    1,511683911e-01    6,439045817e-02    0,000000000e+00    0,000000000e+00    0,000000000e+00    0,000000000e+00
     1318000000    3,324343264e-02   -3,377717435e-01    1,164299101e-01   -1,794222891e-01    0,000000000e+00    0,000000000e+00    0,000000000e+00    0,000000000e+00
     1332000000   -1,305408776e-01   -4,406629503e-01   -4,619434103e-02   -5,724981800e-02    0,000000000e+00    0,000000000e+00    0,000000000e+00    0,000000000e+00
     1346000000   -3,982245326e-01   -4,078104198e-01    1,872301102e-02    6,794932485e-02    0,000000000e+00    0,000000000e+00    0,000000000e+00    0,000000000e+00
     1360000000   -6,084414721e-01   -1,939982623e-01    1,297337115e-01    6,436051428e-02    0,000000000e+00    0,000000000e+00    0,000000000e+00    0,000000000e+00
     1374000000   -6,264240146e-01    1,241903380e-01    1,917438805e-01   -3,250902519e-03    0,000000000e+00    0,000000000e+00    0,000000000e+00    0,000000000e+00
     1388000000   -4,614101052e-01    3,629769087e-01    1,991445422e-01   -6,347928941e-02    0,000000000e+00    0,000000000e+00    0,000000000e+00    0,000000000e+00
     1402000000   -2,219141871e-01    4,481089711e-01    1,891425550e-01   -1,038850620e-01    0,000000000e+00    0,000000000e+00    0,000000000e+00    0,000000000e+00
     1416000000   -1,938474178e-02    4,095504284e-01    1,529558301e-01   -1,030760631e-01    0,000000000e+00    0,000000000e+00    0,000000000e+00    0,000000000e+00
     1430000000    1,218318567e-01    2,946059406e-01    1,643161476e-01   -8,807692677e-02    0,000000000e+00    0,000000000e+00    0,000000000e+00    0,000000000e+00
     1444000000    2,105560005e-01    1,429168433e-01    1,376048326e-01   -1,035273522e-01    0,000000000e+00    0,000000000e+00    0,000000000e+00    0,000000000e+00
     1458000000    2,371755987e-01   -2,723896317e-02    1,235382482e-01   -7,116884738e-02    0,000000000e+00    0,000000000e+00    0,000000000e+00    0,000000000e+00
     1472000000    1,923660785e-01   -2,154307812e-01    1,257046610e-01   -4,208096117e-02    0,000000000e+00    0,000000000e+00    0,000000000e+00    0,000000000e+00
     1486000000    5,940660462e-02   -3,790898621e-01    1,589962393e-01    1,616639085e-02    0,000000000e+00    0,000000000e+00    0,000000000e+00    0,000000000e+00
     1500000000   -1,830413938e-01   -4,955891073e-01    2,179460824e-01    8,878899366e-02    0,000000000e+00    0,000000000e+00    0,000000000e+00    0,000000000e+00
