! NanoVNA-App
! Date: 2025-09-26 09:42:41
! Start: 100MHz Stop: 1,5GHz Points: 101
! S-Parameter data: F S11 S21 S12 S22
# Hz S RI R 50
!     Frequency           S11_Real           S11_Imag           S21_Real           S21_Imag           S12_Real           S12_Imag           S22_Real           S22_Imag
      100000000   -2,898385562e-02   -4,487289581e-03    3,738909960e-01   -7,230162024e-01    0,000000000e+00    0,000000000e+00    0,000000000e+00    0,000000000e+00
      114000000   -1,687687635e-02    1,123872213e-02   -8,984781802e-02   -8,064568043e-01    0,000000000e+00    0,000000000e+00    0,000000000e+00    0,000000000e+00
      128000000    2,885446651e-03    1,051648427e-02   -5,160018802e-01   -6,208879948e-01    0,000000000e+00    0,000000000e+00    0,000000000e+00    0,000000000e+00
      142000000    1,402671356e-02   -2,628576476e-03   -7,686074376e-01   -2,360797673e-01    0,000000000e+00    0,000000000e+00    0,000000000e+00    0,000000000e+00
      156000000    1,598884538e-02   -1,379764453e-02   -7,732179761e-01    2,259445935e-01    0,000000000e+00    0,000000000e+00    0,000000000e+00    0,000000000e+00
      170000000    1,679596864e-02   -2,226105519e-02   -5,180152059e-01    6,064321399e-01    0,000000000e+00    0,000000000e+00    0,000000000e+00    0,000000000e+00
      184000000    2,113580145e-02   -3,713322803e-02   -1,001936123e-01    7,872070074e-01    0,000000000e+00    0,000000000e+00    0,000000000e+00    0,000000000e+00
      198000000    1,281289477e-02   -6,251268834e-02    3,450798690e-01    7,131056190e-01    0,000000000e+00    0,000000000e+00    0,000000000e+00    0,000000000e+00
      212000000   -1,887803897e-02   -8,108485490e-02    6,799862385e-01    4,098403752e-01    0,000000000e+00    0,000000000e+00    0,000000000e+00    0,000000000e+00
      226000000   -6,156623736e-02   -6,866304576e-02    7,975554466e-01   -3,125017136e-02    0,000000000e+00    0,000000000e+00    0,000000000e+00    0,000000000e+00
      240000000   -8,197106421e-02   -2,552181669e-02    6,474439502e-01   -4,681629241e-01    0,000000000e+00    0,000000000e+00    0,000000000e+00    0,000000000e+00
      254000000   -6,305200607e-02    1,681989618e-02    2,769750059e-01   -7,449925542e-01    0,000000000e+00    0,000000000e+00    0,000000000e+00    0,000000000e+00
      268000000   -2,368199639e-02    2,827467024e-02   -1,778453439e-01   -7,660875916e-01    0,000000000e+00    0,000000000e+00    0,000000000e+00    0,000000000e+00
      282000000    3,674373962e-03    1,145821251e-02   -5,628973842e-01   -5,377573967e-01    0,000000000e+00    0,000000000e+00    0,000000000e+00    0,000000000e+00
      296000000    9,393707849e-03   -7,841867395e-03   -7,615887523e-01   -1,410199255e-01    0,000000000e+00    0,000000000e+00    0,000000000e+00    0,000000000e+00
      310000000    1,103174221e-02   -1,595436595e-02   -7,133228779e-01    3,001748621e-01    0,000000000e+00    0,000000000e+00    0,000000000e+00    0,000000000e+00
      324000000    2,016897686e-02   -2,678538859e-02   -4,279624522e-01    6,396220326e-01    0,000000000e+00    0,000000000e+00    0,000000000e+00    0,000000000e+00
      338000000    2,550531551e-02   -5,281215534e-02   -9,993369691e-03    7,653213143e-01    0,000000000e+00    0,000000000e+00    0,000000000e+00    0,000000000e+00
      352000000    6,706663407e-03   -8,499333262e-02    4,075277448e-01    6,414294243e-01    0,000000000e+00    0,000000000e+00    0,000000000e+00    0,000000000e+00
      366000000   -3,544004261e-02   -9,503205121e-02    6,923744678e-01    3,126046658e-01    0,000000000e+00    0,000000000e+00    0,000000000e+00    0,000000000e+00
      380000000   -7,130783796e-02   -7,033447921e-02    7,493140697e-01   -1,264776140e-01    0,000000000e+00    0,000000000e+00    0,000000000e+00    0,000000000e+00
      394000000   -7,213611156e-02   -3,169014677e-02    5,476230383e-01   -5,242246389e-01    0,000000000e+00    0,000000000e+00    0,000000000e+00    0,000000000e+00
      408000000   -4,557210580e-02   -1,599393040e-02    1,617856622e-01   -7,340046763e-01    0,000000000e+00    0,000000000e+00    0,000000000e+00    0,000000000e+00
      422000000   -2,830952406e-02   -3,261189908e-02   -2,682703435e-01   -6,979773641e-01    0,000000000e+00    0,000000000e+00    0,000000000e+00    0,000000000e+00
      436000000   -4,059887305e-02   -5,214018002e-02   -6,047632098e-01   -4,337641299e-01    0,000000000e+00    0,000000000e+00    0,000000000e+00    0,000000000e+00
      450000000   -6,762909889e-02   -4,393302277e-02   -7,426370382e-01   -2,292584069e-02    0,000000000e+00    0,000000000e+00    0,000000000e+00    0,000000000e+00
      464000000   -7,291100174e-02   -1,121288911e-02   -6,209038496e-01    3,978277743e-01    0,000000000e+00    0,000000000e+00    0,000000000e+00    0,000000000e+00
      478000000   -4,713147134e-02    1,089649834e-02   -2,834709883e-01    6,695079803e-01    0,000000000e+00    0,000000000e+00    0,000000000e+00    0,000000000e+00
      492000000   -1,526252273e-02    4,848062526e-03    1,372451931e-01    7,031115294e-01    0,000000000e+00    0,000000000e+00    0,000000000e+00    0,000000000e+00
      506000000   -3,410334000e-03   -1,636344381e-02    4,989295900e-01    5,054886341e-01    0,000000000e+00    0,000000000e+00    0,000000000e+00    0,000000000e+00
      520000000   -5,824335851e-03   -3,145506233e-02    6,900436878e-01    1,421846896e-01    0,000000000e+00    0,000000000e+00    0,000000000e+00    0,000000000e+00
      534000000   -4,013081081e-03   -3,770541400e-02    6,457927823e-01   -2,624165416e-01    0,000000000e+00    0,000000000e+00    0,000000000e+00    0,000000000e+00
      548000000    6,438905839e-03   -5,366178602e-02    3,823951483e-01   -5,682356358e-01    0,000000000e+00    0,000000000e+00    0,000000000e+00    0,000000000e+00
      562000000    3,375323722e-03   -8,996548504e-02    3,248587018e-03   -6,742628813e-01    0,000000000e+00    0,000000000e+00    0,000000000e+00    0,000000000e+00
      576000000   -3,518547118e-02   -1,245367005e-01   -3,696389794e-01   -5,589311123e-01    0,000000000e+00    0,000000000e+00    0,000000000e+00    0,000000000e+00
      590000000   -9,724555910e-02   -1,225213259e-01   -6,236106157e-01   -2,645682096e-01    0,000000000e+00    0,000000000e+00    0,000000000e+00    0,000000000e+00
      604000000   -1,395185143e-01   -7,047840953e-02   -6,674803495e-01    1,377367377e-01    0,000000000e+00    0,000000000e+00    0,000000000e+00    0,000000000e+00
      618000000   -1,283043772e-01   -9,072647430e-03   -4,667234123e-01    4,952071607e-01    0,000000000e+00    0,000000000e+00    0,000000000e+00    0,000000000e+00
      632000000   -8,251590282e-02    1,566737704e-02   -1,012144759e-01    6,654162407e-01    0,000000000e+00    0,000000000e+00    0,000000000e+00    0,000000000e+00
      646000000   -5,043570325e-02   -9,597844328e-04    2,875526249e-01    5,969128013e-01    0,000000000e+00    0,000000000e+00    0,000000000e+00    0,000000000e+00
      660000000   -5,488554761e-02   -2,269573882e-02    5,688028336e-01    3,238501847e-01    0,000000000e+00    0,000000000e+00    0,000000000e+00    0,000000000e+00
      674000000   -7,119242102e-02   -1,754242554e-02    6,443234086e-01   -6,585557014e-02    0,000000000e+00    0,000000000e+00    0,000000000e+00    0,000000000e+00
      688000000   -6,755667925e-02    9,087445214e-03    4,713215232e-01   -4,293883145e-01    0,000000000e+00    0,000000000e+00    0,000000000e+00    0,000000000e+00
      702000000   -3,592608497e-02    2,654641680e-02    1,154653057e-01   -6,093936563e-01    0,000000000e+00    0,000000000e+00    0,000000000e+00    0,000000000e+00
      716000000    2,051652642e-03    1,649036072e-02   -2,654943168e-01   -5,490681529e-01    0,000000000e+00    0,000000000e+00    0,000000000e+00    0,000000000e+00
      730000000    3,651585430e-02   -1,064763404e-02   -5,304572582e-01   -2,697708011e-01    0,000000000e+00    0,000000000e+00    0,000000000e+00    0,000000000e+00
      744000000    6,590793282e-02   -6,304750592e-02   -5,656226873e-01    1,072968543e-01    0,000000000e+00    0,000000000e+00    0,000000000e+00    0,000000000e+00
      758000000    6,710542738e-02   -1,530970335e-01   -3,629433811e-01    4,102184772e-01    0,000000000e+00    0,000000000e+00    0,000000000e+00    0,000000000e+00
      772000000   -1,345660072e-02   -2,649692297e-01   -3,318564966e-02    5,153048635e-01    0,000000000e+00    0,000000000e+00    0,000000000e+00    0,000000000e+00
      786000000   -2,088541538e-01   -3,052705824e-01    2,751010060e-01    3,929941058e-01    0,000000000e+00    0,000000000e+00    0,000000000e+00    0,000000000e+00
      800000000   -4,296987057e-01   -1,295368820e-01    4,165211916e-01    9,610528499e-02    0,000000000e+00    0,000000000e+00    0,000000000e+00    0,000000000e+00
      814000000   -3,900816441e-01    2,259587497e-01    2,783710361e-01   -1,753515601e-01    0,000000000e+00    0,000000000e+00    0,000000000e+00    0,000000000e+00
      828000000   -4,530239478e-02    3,705913424e-01    5,155172944e-02   -1,888837218e-01    0,000000000e+00    0,000000000e+00    0,000000000e+00    0,000000000e+00
      842000000    2,395049036e-01    1,850298792e-01   -1,927481219e-02   -6,815315783e-02    0,000000000e+00    0,000000000e+00    0,000000000e+00    0,000000000e+00
      856000000    2,827654183e-01   -1,281319112e-01    4,463395476e-02   -1,107687037e-02    0,000000000e+00    0,000000000e+00    0,000000000e+00    0,000000000e+00
      870000000    7,431155443e-02   -3,802578449e-01    1,135610789e-01   -9,066048265e-02    0,000000000e+00    0,000000000e+00    0,000000000e+00    0,000000000e+00
      884000000   -3,000603616e-01   -3,644966185e-01    2,835211903e-02   -2,450343072e-01    0,000000000e+00    0,000000000e+00    0,000000000e+00    0,000000000e+00
      898000000   -4,766920507e-01    1,007885300e-02   -2,221817523e-01   -2,263051271e-01    0,000000000e+00    0,000000000e+00    0,000000000e+00    0,000000000e+00
      912000000   -2,268127501e-01    2,984876633e-01   -3,490665257e-01    7,153385133e-02    0,000000000e+00    0,000000000e+00    0,000000000e+00    0,000000000e+00
      926000000    7,123687863e-02    2,649104595e-01   -2,152455896e-01    2,607499659e-01    0,000000000e+00    0,000000000e+00    0,000000000e+00    0,000000000e+00
      940000000    2,207704931e-01    8,071385324e-02   -3,927264363e-02    3,260000050e-01    0,000000000e+00    0,000000000e+00    0,000000000e+00    0,000000000e+00
      954000000    2,267668843e-01   -1,304702908e-01    1,254723221e-01    3,039857447e-01    0,000000000e+00    0,000000000e+00    0,000000000e+00    0,000000000e+00
      968000000    1,143365055e-01   -3,034054637e-01    2,653144300e-01    2,200365216e-01    0,000000000e+00    0,000000000e+00    0,000000000e+00    0,000000000e+00
      982000000   -8,530212194e-02   -3,923418820e-01    3,628097475e-01    7,013948262e-02    0,000000000e+00    0,000000000e+00    0,000000000e+00    0,000000000e+00
      996000000   -3,238556981e-01   -3,326613903e-01    3,662576079e-01   -1,411035508e-01    0,000000000e+00    0,000000000e+00    0,000000000e+00    0,000000000e+00
     1010000000   -4,660404027e-01   -1,078386307e-01    2,206461132e-01   -3,386542499e-01    0,000000000e+00    0,000000000e+00    0,000000000e+00    0,000000000e+00
     1024000000   -4,146850705e-01    1,553270072e-01   -3,407202289e-02   -3,894959092e-01    0,000000000e+00    0,000000000e+00    0,000000000e+00    0,000000000e+00
     1038000000   -2,148896605e-01    2,974882722e-01   -2,454684824e-01   -2,603105903e-01    0,000000000e+00    0,000000000e+00    0,000000000e+00    0,000000000e+00
     1052000000   -5,685144570e-03    2,821454108e-01   -3,160399795e-01   -4,566030204e-02    0,000000000e+00    0,000000000e+00    0,000000000e+00    0,000000000e+00
     1066000000    1,405017674e-01    1,596825570e-01   -2,589444816e-01    1,408244669e-01    0,000000000e+00    0,000000000e+00    0,000000000e+00    0,000000000e+00
     1080000000    1,946242303e-01   -2,002417343e-03   -1,221578494e-01    2,638618350e-01    0,000000000e+00    0,000000000e+00    0,000000000e+00    0,000000000e+00
     1094000000    1,515578181e-01   -1,802205443e-01    5,901695043e-02    3,056441247e-01    0,000000000e+00    0,000000000e+00    0,000000000e+00    0,000000000e+00
     1108000000   -3,030915512e-03   -3,077394962e-01    2,729424238e-01    2,516404390e-01    0,000000000e+00    0,000000000e+00    0,000000000e+00    0,000000000e+00
     1122000000   -2,539658546e-01   -2,587108910e-01    4,682196379e-01    1,837983727e-02    0,000000000e+00    0,000000000e+00    0,000000000e+00    0,000000000e+00
     1136000000   -3,088785708e-01    4,738404974e-02    3,908033073e-01   -3,808902204e-01    0,000000000e+00    0,000000000e+00    0,000000000e+00    0,000000000e+00
     1150000000   -2,450860478e-02    1,503208876e-01    2,859125379e-03   -5,240715146e-01    0,000000000e+00    0,000000000e+00    0,000000000e+00    0,000000000e+00
     1164000000    1,265294403e-01   -8,003953099e-02   -2,654994428e-01   -3,593518138e-01    0,000000000e+00    0,000000000e+00    0,000000000e+00    0,000000000e+00
     1178000000    8,355138823e-03   -3,206853569e-01   -3,488076031e-01   -1,407590508e-01    0,000000000e+00    0,000000000e+00    0,000000000e+00    0,000000000e+00
     1192000000   -2,834237218e-01   -3,749708533e-01   -3,001234829e-01    5,739636347e-02    0,000000000e+00    0,000000000e+00    0,000000000e+00    0,000000000e+00
     1206000000   -5,280390978e-01   -1,488942206e-01   -1,503050029e-01    1,673494726e-01    0,000000000e+00    0,000000000e+00    0,000000000e+00    0,000000000e+00
     1220000000   -5,124953389e-01    1,812727898e-01   -2,007392934e-03    1,404471695e-01    0,000000000e+00    0,000000000e+00    0,000000000e+00    0,000000000e+00
     1234000000   -2,808882892e-01    3,629352748e-01    5,842416361e-02    5,559410155e-02    0,000000000e+00    0,000000000e+00    0,000000000e+00    0,000000000e+00
     1248000000   -3,915874660e-02    3,667083979e-01    4,695954919e-02   -2,477051923e-03    0,000000000e+00    0,000000000e+00    0,000000000e+00    0,000000000e+00
     1262000000    1,284353435e-01    2,560870945e-01    1,126204897e-02   -1,247824356e-02    0,000000000e+00    0,000000000e+00    0,000000000e+00    0,000000000e+00
     1276000000    2,155102938e-01    9,537442774e-02   -2,753278241e-03    1,168201026e-02    0,000000000e+00    0,000000000e+00    0,000000000e+00    0,000000000e+00
     1290000000    2,242748439e-01   -7,977301627e-02    2,409755811e-02    6,184032559e-02    0,000000000e+00    0,000000000e+00    0,000000000e+00    0,000000000e+00
     1304000000    1,555098295e-01   -2,448285520e-01    1,477862895e-01    6,978041679e-02    0,000000000e+00    0,000000000e+00    0,000000000e+00    0,000000000e+00
     1318000000    3,459917381e-02   -3,384535611e-01    1,203779876e-01   -1,749504954e-01    0,000000000e+00    0,000000000e+00    0,000000000e+00    0,000000000e+00
     1332000000   -1,293017417e-01   -4,399887919e-01   -4,834092781e-02   -5,544915795e-02    0,000000000e+00    0,000000000e+00    0,000000000e+00    0,000000000e+00
     1346000000   -3,875055015e-01   -4,070904553e-01    2,076330781e-02    6,059332192e-02    0,000000000e+00    0,000000000e+00    0,000000000e+00    0,000000000e+00
     1360000000   -6,028541327e-01   -1,865688115e-01    1,375358552e-01    6,904426217e-02    0,000000000e+00    0,000000000e+00    0,000000000e+00    0,000000000e+00
     1374000000   -6,262834668e-01    1,274334490e-01    1,912783235e-01    8,573252708e-03    0,000000000e+00    0,000000000e+00    0,000000000e+00    0,000000000e+00
     1388000000   -4,613966048e-01    3,620381951e-01    1,964002550e-01   -7,293422520e-02    0,000000000e+00    0,000000000e+00    0,000000000e+00    0,000000000e+00
     1402000000   -2,283093631e-01    4,510242343e-01    1,776294857e-01   -9,537762403e-02    0,000000000e+00    0,000000000e+00    0,000000000e+00    0,000000000e+00
     1416000000   -1,696980558e-02    4,099719524e-01    1,634989679e-01   -1,110577658e-01    0,000000000e+00    0,000000000e+00    0,000000000e+00    0,000000000e+00
     1430000000    1,272251159e-01    2,948395610e-01    1,364497989e-01   -1,000675783e-01    0,000000000e+00    0,000000000e+00    0,000000000e+00    0,000000000e+00
     1444000000    2,125358582e-01    1,476752907e-01    1,466172636e-01   -9,720559418e-02    0,000000000e+00    0,000000000e+00    0,000000000e+00    0,000000000e+00
     1458000000    2,382603139e-01   -2,887457982e-02    1,340069175e-01   -8,459272981e-02    0,000000000e+00    0,000000000e+00    0,000000000e+00    0,000000000e+00
     1472000000    1,898225248e-01   -2,086919397e-01    1,358057559e-01   -3,549963981e-02    0,000000000e+00    0,000000000e+00    0,000000000e+00    0,000000000e+00
     1486000000    5,626023933e-02   -3,886609972e-01    1,644956023e-01    3,155189380e-02    0,000000000e+00    0,000000000e+00    0,000000000e+00    0,000000000e+00
     1500000000   -1,804619431e-01   -4,909830093e-01    2,356697023e-01    8,964447677e-02    0,000000000e+00    0,000000000e+00    0,000000000e+00    0,000000000e+00
