! NanoVNA-App
! Date: 2025-09-26 09:42:21
! Start: 100MHz Stop: 1,5GHz Points: 101
! S-Parameter data: F S11 S21 S12 S22
# Hz S RI R 50
!     Frequency           S11_Real           S11_Imag           S21_Real           S21_Imag           S12_Real           S12_Imag           S22_Real           S22_Imag
      100000000   -2,898641117e-02   -4,491862841e-03    3,738624156e-01   -7,230451107e-01    0,000000000e+00    0,000000000e+00    0,000000000e+00    0,000000000e+00
      114000000   -1,687898114e-02    1,122703217e-02   -9,007679671e-02   -8,063476682e-01    0,000000000e+00    0,000000000e+00    0,000000000e+00    0,000000000e+00
      128000000    2,906907117e-03    1,050819084e-02   -5,159340501e-01   -6,209435463e-01    0,000000000e+00    0,000000000e+00    0,000000000e+00    0,000000000e+00
      142000000    1,404544059e-02   -2,637810307e-03   -7,686262131e-01   -2,362784743e-01    0,000000000e+00    0,000000000e+00    0,000000000e+00    0,000000000e+00
      156000000    1,565263420e-02   -1,426116191e-02   -7,732853889e-01    2,249283195e-01    0,000000000e+00    0,000000000e+00    0,000000000e+00    0,000000000e+00
      170000000    1,687537134e-02   -2,219195850e-02   -5,178525448e-01    6,063464284e-01    0,000000000e+00    0,000000000e+00    0,000000000e+00    0,000000000e+00
      184000000    2,116172388e-02   -3,710255772e-02   -1,003106236e-01    7,874751091e-01    0,000000000e+00    0,000000000e+00    0,000000000e+00    0,000000000e+00
      198000000    1,288273185e-02   -6,253142655e-02    3,451087475e-01    7,131284475e-01    0,000000000e+00    0,000000000e+00    0,000000000e+00    0,000000000e+00
      212000000   -1,887935586e-02   -8,108472824e-02    6,797045469e-01    4,096861780e-01    0,000000000e+00    0,000000000e+00    0,000000000e+00    0,000000000e+00
      226000000   -6,159043312e-02   -6,868404150e-02    7,974025607e-01   -3,129753098e-02    0,000000000e+00    0,000000000e+00    0,000000000e+00    0,000000000e+00
      240000000   -8,185774833e-02   -2,553221025e-02    6,474781036e-01   -4,684738815e-01    0,000000000e+00    0,000000000e+00    0,000000000e+00    0,000000000e+00
      254000000   -6,304427236e-02    1,684870198e-02    2,769941390e-01   -7,449569702e-01    0,000000000e+00    0,000000000e+00    0,000000000e+00    0,000000000e+00
      268000000   -2,367343567e-02    2,826286852e-02   -1,776908338e-01   -7,661191821e-01    0,000000000e+00    0,000000000e+00    0,000000000e+00    0,000000000e+00
      282000000    3,570881439e-03    1,145486347e-02   -5,628024936e-01   -5,382531881e-01    0,000000000e+00    0,000000000e+00    0,000000000e+00    0,000000000e+00
      296000000    9,362287819e-03   -7,978302427e-03   -7,614993453e-01   -1,408689320e-01    0,000000000e+00    0,000000000e+00    0,000000000e+00    0,000000000e+00
      310000000    1,118989754e-02   -1,606382243e-02   -7,141692042e-01    3,008778095e-01    0,000000000e+00    0,000000000e+00    0,000000000e+00    0,000000000e+00
      324000000    1,986836269e-02   -2,661513351e-02   -4,278566539e-01    6,390562057e-01    0,000000000e+00    0,000000000e+00    0,000000000e+00    0,000000000e+00
      338000000    2,555713244e-02   -5,261676013e-02   -1,049908530e-02    7,644293308e-01    0,000000000e+00    0,000000000e+00    0,000000000e+00    0,000000000e+00
      352000000    6,684256252e-03   -8,503809571e-02    4,071013629e-01    6,417245269e-01    0,000000000e+00    0,000000000e+00    0,000000000e+00    0,000000000e+00
      366000000   -3,531477600e-02   -9,543950856e-02    6,925705075e-01    3,122695088e-01    0,000000000e+00    0,000000000e+00    0,000000000e+00    0,000000000e+00
      380000000   -7,121081650e-02   -7,064276934e-02    7,498836517e-01   -1,262675375e-01    0,000000000e+00    0,000000000e+00    0,000000000e+00    0,000000000e+00
      394000000   -7,210174948e-02   -3,183148429e-02    5,475606322e-01   -5,238373280e-01    0,000000000e+00    0,000000000e+00    0,000000000e+00    0,000000000e+00
      408000000   -4,574628174e-02   -1,614142768e-02    1,615520865e-01   -7,336415052e-01    0,000000000e+00    0,000000000e+00    0,000000000e+00    0,000000000e+00
      422000000   -2,821171843e-02   -3,273486346e-02   -2,680072784e-01   -6,980145574e-01    0,000000000e+00    0,000000000e+00    0,000000000e+00    0,000000000e+00
      436000000   -4,098840058e-02   -5,199649930e-02   -6,054419279e-01   -4,340232313e-01    0,000000000e+00    0,000000000e+00    0,000000000e+00    0,000000000e+00
      450000000   -6,735701114e-02   -4,343888164e-02   -7,426008582e-01   -2,256788313e-02    0,000000000e+00    0,000000000e+00    0,000000000e+00    0,000000000e+00
      464000000   -7,296261936e-02   -1,160601526e-02   -6,206288338e-01    3,974141479e-01    0,000000000e+00    0,000000000e+00    0,000000000e+00    0,000000000e+00
      478000000   -4,703698680e-02    1,122680027e-02   -2,845173776e-01    6,693491340e-01    0,000000000e+00    0,000000000e+00    0,000000000e+00    0,000000000e+00
      492000000   -1,555735711e-02    5,313046277e-03    1,365685910e-01    7,040309906e-01    0,000000000e+00    0,000000000e+00    0,000000000e+00    0,000000000e+00
      506000000   -3,266168060e-03   -1,646461152e-02    4,991877377e-01    5,047342777e-01    0,000000000e+00    0,000000000e+00    0,000000000e+00    0,000000000e+00
      520000000   -5,820664577e-03   -3,132325038e-02    6,885722280e-01    1,426828653e-01    0,000000000e+00    0,000000000e+00    0,000000000e+00    0,000000000e+00
      534000000   -3,846286563e-03   -3,779298440e-02    6,460348964e-01   -2,627404034e-01    0,000000000e+00    0,000000000e+00    0,000000000e+00    0,000000000e+00
      548000000    6,004567258e-03   -5,389382690e-02    3,824290037e-01   -5,683857203e-01    0,000000000e+00    0,000000000e+00    0,000000000e+00    0,000000000e+00
      562000000    2,817925531e-03   -9,015508741e-02    2,748793922e-03   -6,734216809e-01    0,000000000e+00    0,000000000e+00    0,000000000e+00    0,000000000e+00
      576000000   -3,519626707e-02   -1,249803156e-01   -3,696277738e-01   -5,605039597e-01    0,000000000e+00    0,000000000e+00    0,000000000e+00    0,000000000e+00
      590000000   -9,704028070e-02   -1,223018244e-01   -6,228506565e-01   -2,638701499e-01    0,000000000e+00    0,000000000e+00    0,000000000e+00    0,000000000e+00
      604000000   -1,396840513e-01   -7,095573843e-02   -6,679206491e-01    1,374113709e-01    0,000000000e+00    0,000000000e+00    0,000000000e+00    0,000000000e+00
      618000000   -1,281631291e-01   -8,726123720e-03   -4,665070176e-01    4,964413047e-01    0,000000000e+00    0,000000000e+00    0,000000000e+00    0,000000000e+00
      632000000   -8,282645792e-02    1,638807543e-02   -9,974701703e-02    6,662753224e-01    0,000000000e+00    0,000000000e+00    0,000000000e+00    0,000000000e+00
      646000000   -5,147006363e-02   -1,077707740e-03    2,869067490e-01    5,967843533e-01    0,000000000e+00    0,000000000e+00    0,000000000e+00    0,000000000e+00
      660000000   -5,432266369e-02   -2,169967815e-02    5,684426427e-01    3,246337175e-01    0,000000000e+00    0,000000000e+00    0,000000000e+00    0,000000000e+00
      674000000   -7,127481699e-02   -1,655541919e-02    6,446170807e-01   -6,563951075e-02    0,000000000e+00    0,000000000e+00    0,000000000e+00    0,000000000e+00
      688000000   -6,851970404e-02    9,994610213e-03    4,723845720e-01   -4,287713170e-01    0,000000000e+00    0,000000000e+00    0,000000000e+00    0,000000000e+00
      702000000   -3,618418798e-02    2,614581585e-02    1,184787750e-01   -6,107037663e-01    0,000000000e+00    0,000000000e+00    0,000000000e+00    0,000000000e+00
      716000000    1,982146176e-03    1,691607945e-02   -2,650473118e-01   -5,481411219e-01    0,000000000e+00    0,000000000e+00    0,000000000e+00    0,000000000e+00
      730000000    3,640357032e-02   -1,178501733e-02   -5,300484300e-01   -2,697856426e-01    0,000000000e+00    0,000000000e+00    0,000000000e+00    0,000000000e+00
      744000000    6,545849144e-02   -6,288138032e-02   -5,654359460e-01    1,075051501e-01    0,000000000e+00    0,000000000e+00    0,000000000e+00    0,000000000e+00
      758000000    6,773190945e-02   -1,538070291e-01   -3,632716238e-01    4,108992219e-01    0,000000000e+00    0,000000000e+00    0,000000000e+00    0,000000000e+00
      772000000   -1,352978311e-02   -2,648029029e-01   -3,374183550e-02    5,154126287e-01    0,000000000e+00    0,000000000e+00    0,000000000e+00    0,000000000e+00
      786000000   -2,104353905e-01   -3,050221205e-01    2,760802805e-01    3,937435746e-01    0,000000000e+00    0,000000000e+00    0,000000000e+00    0,000000000e+00
      800000000   -4,310911596e-01   -1,290664524e-01    4,168914258e-01    9,563721716e-02    0,000000000e+00    0,000000000e+00    0,000000000e+00    0,000000000e+00
      814000000   -3,898048699e-01    2,268907130e-01    2,787658870e-01   -1,755875498e-01    0,000000000e+00    0,000000000e+00    0,000000000e+00    0,000000000e+00
      828000000   -4,593529925e-02    3,715616465e-01    5,133883655e-02   -1,883939952e-01    0,000000000e+00    0,000000000e+00    0,000000000e+00    0,000000000e+00
      842000000    2,392286211e-01    1,849198192e-01   -1,900461689e-02   -6,801316887e-02    0,000000000e+00    0,000000000e+00    0,000000000e+00    0,000000000e+00
      856000000    2,828005254e-01   -1,284223497e-01    4,490998760e-02   -1,102360245e-02    0,000000000e+00    0,000000000e+00    0,000000000e+00    0,000000000e+00
      870000000    7,436625659e-02   -3,795624971e-01    1,139544696e-01   -9,073971212e-02    0,000000000e+00    0,000000000e+00    0,000000000e+00    0,000000000e+00
      884000000   -2,985877991e-01   -3,636845946e-01    2,735872753e-02   -2,444113940e-01    0,000000000e+00    0,000000000e+00    0,000000000e+00    0,000000000e+00
      898000000   -4,760616720e-01    9,877674282e-03   -2,218512595e-01   -2,266529799e-01    0,000000000e+00    0,000000000e+00    0,000000000e+00    0,000000000e+00
      912000000   -2,262240946e-01    2,983484864e-01   -3,509942889e-01    5,860217661e-02    0,000000000e+00    0,000000000e+00    0,000000000e+00    0,000000000e+00
      926000000    7,034446299e-02    2,672797143e-01   -2,178170383e-01    2,604256868e-01    0,000000000e+00    0,000000000e+00    0,000000000e+00    0,000000000e+00
      940000000    2,203154713e-01    8,112472296e-02   -4,044232890e-02    3,280882537e-01    0,000000000e+00    0,000000000e+00    0,000000000e+00    0,000000000e+00
      954000000    2,246658206e-01   -1,281413287e-01    1,254833490e-01    3,062072694e-01    0,000000000e+00    0,000000000e+00    0,000000000e+00    0,000000000e+00
      968000000    1,149405912e-01   -3,031014204e-01    2,646565735e-01    2,212750018e-01    0,000000000e+00    0,000000000e+00    0,000000000e+00    0,000000000e+00
      982000000   -8,216238022e-02   -3,938893378e-01    3,616924286e-01    6,911442429e-02    0,000000000e+00    0,000000000e+00    0,000000000e+00    0,000000000e+00
      996000000   -3,188786209e-01   -3,317508101e-01    3,661656678e-01   -1,398817152e-01    0,000000000e+00    0,000000000e+00    0,000000000e+00    0,000000000e+00
     1010000000   -4,719173908e-01   -1,104287580e-01    2,235050350e-01   -3,369490504e-01    0,000000000e+00    0,000000000e+00    0,000000000e+00    0,000000000e+00
     1024000000   -4,194372594e-01    1,513417363e-01   -3,334490582e-02   -3,906016052e-01    0,000000000e+00    0,000000000e+00    0,000000000e+00    0,000000000e+00
     1038000000   -2,176019251e-01    2,931560278e-01   -2,446832657e-01   -2,587199807e-01    0,000000000e+00    0,000000000e+00    0,000000000e+00    0,000000000e+00
     1052000000   -5,823008250e-03    2,831348181e-01   -3,175423145e-01   -4,668065161e-02    0,000000000e+00    0,000000000e+00    0,000000000e+00    0,000000000e+00
     1066000000    1,403925419e-01    1,616687775e-01   -2,602531612e-01    1,404848397e-01    0,000000000e+00    0,000000000e+00    0,000000000e+00    0,000000000e+00
     1080000000    1,995368004e-01   -2,872501267e-03   -1,232818142e-01    2,617247105e-01    0,000000000e+00    0,000000000e+00    0,000000000e+00    0,000000000e+00
     1094000000    1,570862383e-01   -1,779440045e-01    5,741498619e-02    3,072187603e-01    0,000000000e+00    0,000000000e+00    0,000000000e+00    0,000000000e+00
     1108000000   -7,533787750e-03   -3,121159077e-01    2,718667090e-01    2,521200776e-01    0,000000000e+00    0,000000000e+00    0,000000000e+00    0,000000000e+00
     1122000000   -2,565727830e-01   -2,567916811e-01    4,672751129e-01    1,873583160e-02    0,000000000e+00    0,000000000e+00    0,000000000e+00    0,000000000e+00
     1136000000   -3,123232126e-01    4,776461422e-02    3,918337226e-01   -3,798900843e-01    0,000000000e+00    0,000000000e+00    0,000000000e+00    0,000000000e+00
     1150000000   -2,538253181e-02    1,495478302e-01    2,768444363e-03   -5,204592347e-01    0,000000000e+00    0,000000000e+00    0,000000000e+00    0,000000000e+00
     1164000000    1,258762479e-01   -7,687217742e-02   -2,637683749e-01   -3,597879112e-01    0,000000000e+00    0,000000000e+00    0,000000000e+00    0,000000000e+00
     1178000000    6,127760746e-03   -3,176625371e-01   -3,488914371e-01   -1,408303380e-01    0,000000000e+00    0,000000000e+00    0,000000000e+00    0,000000000e+00
     1192000000   -2,796344459e-01   -3,726205528e-01   -2,975319624e-01    5,885808170e-02    0,000000000e+00    0,000000000e+00    0,000000000e+00    0,000000000e+00
     1206000000   -5,307149887e-01   -1,536142081e-01   -1,522566080e-01    1,661816686e-01    0,000000000e+00    0,000000000e+00    0,000000000e+00    0,000000000e+00
     1220000000   -5,073065758e-01    1,801476479e-01    3,897120012e-03    1,402852535e-01    0,000000000e+00    0,000000000e+00    0,000000000e+00    0,000000000e+00
     1234000000   -2,824361026e-01    3,606324792e-01    6,171801686e-02    5,317861959e-02    0,000000000e+00    0,000000000e+00    0,000000000e+00    0,000000000e+00
     1248000000   -4,018028080e-02    3,585932255e-01    5,082087964e-02   -6,087536458e-03    0,000000000e+00    0,000000000e+00    0,000000000e+00    0,000000000e+00
     1262000000    1,290452182e-01    2,507944703e-01    1,691521518e-02   -1,391490176e-02    0,000000000e+00    0,000000000e+00    0,000000000e+00    0,000000000e+00
     1276000000    2,165742815e-01    9,335014969e-02    1,664560754e-03    1,738098077e-02    0,000000000e+00    0,000000000e+00    0,000000000e+00    0,000000000e+00
     1290000000    2,242527157e-01   -7,874248177e-02    2,847812138e-02    6,321023405e-02    0,000000000e+00    0,000000000e+00    0,000000000e+00    0,000000000e+00
     1304000000    1,510654837e-01   -2,473309934e-01    1,490917504e-01    7,312206179e-02    0,000000000e+00    0,000000000e+00    0,000000000e+00    0,000000000e+00
     1318000000    3,129113466e-02   -3,349886537e-01    1,222165748e-01   -1,755240560e-01    0,000000000e+00    0,000000000e+00    0,000000000e+00    0,000000000e+00
     1332000000   -1,350514293e-01   -4,382280409e-01   -5,172207579e-02   -4,501851276e-02    0,000000000e+00    0,000000000e+00    0,000000000e+00    0,000000000e+00
     1346000000   -3,986144662e-01   -4,041622281e-01    1,045775414e-02    6,264245510e-02    0,000000000e+00    0,000000000e+00    0,000000000e+00    0,000000000e+00
     1360000000   -6,037977338e-01   -1,844408810e-01    1,353338659e-01    7,225410640e-02    0,000000000e+00    0,000000000e+00    0,000000000e+00    0,000000000e+00
     1374000000   -6,285536289e-01    1,240385398e-01    1,911910027e-01    2,237382578e-03    0,000000000e+00    0,000000000e+00    0,000000000e+00    0,000000000e+00
     1388000000   -4,594114721e-01    3,669542372e-01    1,965091825e-01   -6,982652843e-02    0,000000000e+00    0,000000000e+00    0,000000000e+00    0,000000000e+00
     1402000000   -2,212753743e-01    4,513781667e-01    1,825546622e-01   -9,619584680e-02    0,000000000e+00    0,000000000e+00    0,000000000e+00    0,000000000e+00
     1416000000   -2,213918976e-02    4,050558209e-01    1,656424105e-01   -1,040259376e-01    0,000000000e+00    0,000000000e+00    0,000000000e+00    0,000000000e+00
     1430000000    1,245762855e-01    2,912443578e-01    1,340817362e-01   -1,255754977e-01    0,000000000e+00    0,000000000e+00    0,000000000e+00    0,000000000e+00
     1444000000    2,107000053e-01    1,496198624e-01    1,398588717e-01   -9,272998571e-02    0,000000000e+00    0,000000000e+00    0,000000000e+00    0,000000000e+00
     1458000000    2,344270349e-01   -2,564240247e-02    1,253046244e-01   -7,233124971e-02    0,000000000e+00    0,000000000e+00    0,000000000e+00    0,000000000e+00
     1472000000    1,923422217e-01   -2,091656774e-01    1,340734214e-01   -3,931315243e-02    0,000000000e+00    0,000000000e+00    0,000000000e+00    0,000000000e+00
     1486000000    5,220785737e-02   -3,842287064e-01    1,555903703e-01    1,803476922e-02    0,000000000e+00    0,000000000e+00    0,000000000e+00    0,000000000e+00
     1500000000   -1,820755452e-01   -4,879094958e-01    2,379365712e-01    9,861192852e-02    0,000000000e+00    0,000000000e+00    0,000000000e+00    0,000000000e+00
