! NanoVNA-App
! Date: 2025-09-26 09:42:08
! Start: 100MHz Stop: 1,5GHz Points: 101
! S-Parameter data: F S11 S21 S12 S22
# Hz S RI R 50
!     Frequency           S11_Real           S11_Imag           S21_Real           S21_Imag           S12_Real           S12_Imag           S22_Real           S22_Imag
      100000000   -2,899289131e-02   -4,478295334e-03    3,739261031e-01   -7,231191993e-01    0,000000000e+00    0,000000000e+00    0,000000000e+00    0,000000000e+00
      114000000   -1,686684228e-02    1,122949831e-02   -9,001225233e-02   -8,067134619e-01    0,000000000e+00    0,000000000e+00    0,000000000e+00    0,000000000e+00
      128000000    2,870332217e-03    1,054398250e-02   -5,160771608e-01   -6,210383773e-01    0,000000000e+00    0,000000000e+00    0,000000000e+00    0,000000000e+00
      142000000    1,403380744e-02   -2,637668978e-03   -7,687068582e-01   -2,362039685e-01    0,000000000e+00    0,000000000e+00    0,000000000e+00    0,000000000e+00
      156000000    1,422692556e-02   -1,442651264e-02   -7,653482556e-01    2,193820775e-01    0,000000000e+00    0,000000000e+00    0,000000000e+00    0,000000000e+00
      170000000    1,682228968e-02   -2,222436853e-02   -5,181654692e-01    6,064603925e-01    0,000000000e+00    0,000000000e+00    0,000000000e+00    0,000000000e+00
      184000000    2,116645686e-02   -3,711476922e-02   -1,003788039e-01    7,872068286e-01    0,000000000e+00    0,000000000e+00    0,000000000e+00    0,000000000e+00
      198000000    1,287732273e-02   -6,252767891e-02    3,450492024e-01    7,130774856e-01    0,000000000e+00    0,000000000e+00    0,000000000e+00    0,000000000e+00
      212000000   -1,890095137e-02   -8,109240234e-02    6,797773242e-01    4,098695815e-01    0,000000000e+00    0,000000000e+00    0,000000000e+00    0,000000000e+00
      226000000   -6,158372387e-02   -6,866911799e-02    7,974246740e-01   -3,128063306e-02    0,000000000e+00    0,000000000e+00    0,000000000e+00    0,000000000e+00
      240000000   -8,199114352e-02   -2,552558109e-02    6,474623680e-01   -4,684642851e-01    0,000000000e+00    0,000000000e+00    0,000000000e+00    0,000000000e+00
      254000000   -6,307329983e-02    1,685567945e-02    2,766959369e-01   -7,451438904e-01    0,000000000e+00    0,000000000e+00    0,000000000e+00    0,000000000e+00
      268000000   -2,364877425e-02    2,835672349e-02   -1,778141260e-01   -7,662473321e-01    0,000000000e+00    0,000000000e+00    0,000000000e+00    0,000000000e+00
      282000000    3,658761038e-03    1,147199702e-02   -5,627266169e-01   -5,376524329e-01    0,000000000e+00    0,000000000e+00    0,000000000e+00    0,000000000e+00
      296000000    9,389563464e-03   -7,840667851e-03   -7,613763213e-01   -1,407631338e-01    0,000000000e+00    0,000000000e+00    0,000000000e+00    0,000000000e+00
      310000000    1,107854303e-02   -1,587511972e-02   -7,136939764e-01    2,985979915e-01    0,000000000e+00    0,000000000e+00    0,000000000e+00    0,000000000e+00
      324000000    1,988081262e-02   -2,657947876e-02   -4,283328950e-01    6,404098272e-01    0,000000000e+00    0,000000000e+00    0,000000000e+00    0,000000000e+00
      338000000    2,535840869e-02   -5,263525993e-02   -7,137514651e-03    7,660287619e-01    0,000000000e+00    0,000000000e+00    0,000000000e+00    0,000000000e+00
      352000000    6,893054117e-03   -8,540216088e-02    4,072638154e-01    6,419789195e-01    0,000000000e+00    0,000000000e+00    0,000000000e+00    0,000000000e+00
      366000000   -3,566909954e-02   -9,514185786e-02    6,920192242e-01    3,122908473e-01    0,000000000e+00    0,000000000e+00    0,000000000e+00    0,000000000e+00
      380000000   -7,101003826e-02   -7,023399323e-02    7,497754097e-01   -1,260872632e-01    0,000000000e+00    0,000000000e+00    0,000000000e+00    0,000000000e+00
      394000000   -7,207930088e-02   -3,171752393e-02    5,476251841e-01   -5,226479769e-01    0,000000000e+00    0,000000000e+00    0,000000000e+00    0,000000000e+00
      408000000   -4,552556574e-02   -1,609767973e-02    1,637214869e-01   -7,347735167e-01    0,000000000e+00    0,000000000e+00    0,000000000e+00    0,000000000e+00
      422000000   -2,759948000e-02   -3,265127912e-02   -2,667125165e-01   -6,967912912e-01    0,000000000e+00    0,000000000e+00    0,000000000e+00    0,000000000e+00
      436000000   -4,094650224e-02   -5,231008306e-02   -6,050713062e-01   -4,344449937e-01    0,000000000e+00    0,000000000e+00    0,000000000e+00    0,000000000e+00
      450000000   -6,774298847e-02   -4,382695630e-02   -7,432339787e-01   -2,253413759e-02    0,000000000e+00    0,000000000e+00    0,000000000e+00    0,000000000e+00
      464000000   -7,288599014e-02   -1,163463201e-02   -6,206032634e-01    3,978239894e-01    0,000000000e+00    0,000000000e+00    0,000000000e+00    0,000000000e+00
      478000000   -4,690252244e-02    1,115457807e-02   -2,849290669e-01    6,688434482e-01    0,000000000e+00    0,000000000e+00    0,000000000e+00    0,000000000e+00
      492000000   -1,587749645e-02    4,727590363e-03    1,370046884e-01    7,032673955e-01    0,000000000e+00    0,000000000e+00    0,000000000e+00    0,000000000e+00
      506000000   -3,346506739e-03   -1,660223678e-02    4,996331632e-01    5,049108863e-01    0,000000000e+00    0,000000000e+00    0,000000000e+00    0,000000000e+00
      520000000   -5,948018748e-03   -3,122600727e-02    6,890813112e-01    1,440524906e-01    0,000000000e+00    0,000000000e+00    0,000000000e+00    0,000000000e+00
      534000000   -4,158047494e-03   -3,791844100e-02    6,453868151e-01   -2,631828487e-01    0,000000000e+00    0,000000000e+00    0,000000000e+00    0,000000000e+00
      548000000    6,164571270e-03   -5,413892120e-02    3,821654618e-01   -5,690163374e-01    0,000000000e+00    0,000000000e+00    0,000000000e+00    0,000000000e+00
      562000000    3,059141105e-03   -8,979909122e-02    3,374855267e-03   -6,751036644e-01    0,000000000e+00    0,000000000e+00    0,000000000e+00    0,000000000e+00
      576000000   -3,470443562e-02   -1,250042468e-01   -3,691108525e-01   -5,596723557e-01    0,000000000e+00    0,000000000e+00    0,000000000e+00    0,000000000e+00
      590000000   -9,714205563e-02   -1,224625409e-01   -6,209991574e-01   -2,665469646e-01    0,000000000e+00    0,000000000e+00    0,000000000e+00    0,000000000e+00
      604000000   -1,393737048e-01   -7,107894868e-02   -6,671889424e-01    1,373958439e-01    0,000000000e+00    0,000000000e+00    0,000000000e+00    0,000000000e+00
      618000000   -1,286819726e-01   -9,324450977e-03   -4,671296477e-01    4,953136742e-01    0,000000000e+00    0,000000000e+00    0,000000000e+00    0,000000000e+00
      632000000   -8,293121308e-02    1,568380743e-02   -1,009010226e-01    6,654545665e-01    0,000000000e+00    0,000000000e+00    0,000000000e+00    0,000000000e+00
      646000000   -5,171042681e-02   -5,066231824e-04    2,877108157e-01    5,969455838e-01    0,000000000e+00    0,000000000e+00    0,000000000e+00    0,000000000e+00
      660000000   -5,370408297e-02   -2,185037173e-02    5,686804056e-01    3,245557547e-01    0,000000000e+00    0,000000000e+00    0,000000000e+00    0,000000000e+00
      674000000   -7,042480260e-02   -1,707017422e-02    6,444506049e-01   -6,555017829e-02    0,000000000e+00    0,000000000e+00    0,000000000e+00    0,000000000e+00
      688000000   -6,729204208e-02    9,993301705e-03    4,724693894e-01   -4,286685884e-01    0,000000000e+00    0,000000000e+00    0,000000000e+00    0,000000000e+00
      702000000   -3,649558127e-02    2,704089321e-02    1,186906099e-01   -6,148465276e-01    0,000000000e+00    0,000000000e+00    0,000000000e+00    0,000000000e+00
      716000000    2,644375199e-03    1,611459255e-02   -2,647907138e-01   -5,480495691e-01    0,000000000e+00    0,000000000e+00    0,000000000e+00    0,000000000e+00
      730000000    3,635690734e-02   -1,219940279e-02   -5,297517180e-01   -2,711435258e-01    0,000000000e+00    0,000000000e+00    0,000000000e+00    0,000000000e+00
      744000000    6,445372850e-02   -6,184154004e-02   -5,658754110e-01    1,062780619e-01    0,000000000e+00    0,000000000e+00    0,000000000e+00    0,000000000e+00
      758000000    6,668920815e-02   -1,526040733e-01   -3,646655679e-01    4,111518264e-01    0,000000000e+00    0,000000000e+00    0,000000000e+00    0,000000000e+00
      772000000   -1,282931585e-02   -2,640165687e-01   -3,403450921e-02    5,167350769e-01    0,000000000e+00    0,000000000e+00    0,000000000e+00    0,000000000e+00
      786000000   -2,079214752e-01   -3,052006960e-01    2,751005888e-01    3,952742517e-01    0,000000000e+00    0,000000000e+00    0,000000000e+00    0,000000000e+00
      800000000   -4,285046756e-01   -1,311965287e-01    4,185391366e-01    9,805864096e-02    0,000000000e+00    0,000000000e+00    0,000000000e+00    0,000000000e+00
      814000000   -3,918020725e-01    2,239320576e-01    2,827351093e-01   -1,758249700e-01    0,000000000e+00    0,000000000e+00    0,000000000e+00    0,000000000e+00
      828000000   -4,975830019e-02    3,701094687e-01    5,255758762e-02   -1,922349483e-01    0,000000000e+00    0,000000000e+00    0,000000000e+00    0,000000000e+00
      842000000    2,378039956e-01    1,868777573e-01   -2,111120895e-02   -7,215806097e-02    0,000000000e+00    0,000000000e+00    0,000000000e+00    0,000000000e+00
      856000000    2,836507857e-01   -1,253281087e-01    4,158914462e-02   -1,158335619e-02    0,000000000e+00    0,000000000e+00    0,000000000e+00    0,000000000e+00
      870000000    7,776819915e-02   -3,798458576e-01    1,109958887e-01   -8,767948300e-02    0,000000000e+00    0,000000000e+00    0,000000000e+00    0,000000000e+00
      884000000   -2,967808545e-01   -3,655602336e-01    2,861391753e-02   -2,409844697e-01    0,000000000e+00    0,000000000e+00    0,000000000e+00    0,000000000e+00
      898000000   -4,765794873e-01    7,623126265e-03   -2,190622091e-01   -2,248814404e-01    0,000000000e+00    0,000000000e+00    0,000000000e+00    0,000000000e+00
      912000000   -2,282019556e-01    2,982434332e-01   -3,426350057e-01    7,183175534e-02    0,000000000e+00    0,000000000e+00    0,000000000e+00    0,000000000e+00
      926000000    6,817341596e-02    2,687235773e-01   -2,167132646e-01    2,602373958e-01    0,000000000e+00    0,000000000e+00    0,000000000e+00    0,000000000e+00
      940000000    2,183433026e-01    8,229553699e-02   -4,022277147e-02    3,259501457e-01    0,000000000e+00    0,000000000e+00    0,000000000e+00    0,000000000e+00
      954000000    2,272972763e-01   -1,308929175e-01    1,246980056e-01    3,030780256e-01    0,000000000e+00    0,000000000e+00    0,000000000e+00    0,000000000e+00
      968000000    1,152430028e-01   -3,029111326e-01    2,636913061e-01    2,188952416e-01    0,000000000e+00    0,000000000e+00    0,000000000e+00    0,000000000e+00
      982000000   -8,489139378e-02   -3,909518123e-01    3,607670963e-01    6,938019395e-02    0,000000000e+00    0,000000000e+00    0,000000000e+00    0,000000000e+00
      996000000   -3,198132217e-01   -3,342235982e-01    3,670637608e-01   -1,392240524e-01    0,000000000e+00    0,000000000e+00    0,000000000e+00    0,000000000e+00
     1010000000   -4,661329985e-01   -1,122993901e-01    2,232540846e-01   -3,366862535e-01    0,000000000e+00    0,000000000e+00    0,000000000e+00    0,000000000e+00
     1024000000   -4,119218588e-01    1,515238583e-01   -3,336411715e-02   -3,848054707e-01    0,000000000e+00    0,000000000e+00    0,000000000e+00    0,000000000e+00
     1038000000   -2,151921690e-01    2,946444750e-01   -2,467335612e-01   -2,588562369e-01    0,000000000e+00    0,000000000e+00    0,000000000e+00    0,000000000e+00
     1052000000   -8,268360049e-03    2,806729674e-01   -3,140456378e-01   -4,649047554e-02    0,000000000e+00    0,000000000e+00    0,000000000e+00    0,000000000e+00
     1066000000    1,414050162e-01    1,617552787e-01   -2,570576072e-01    1,398952454e-01    0,000000000e+00    0,000000000e+00    0,000000000e+00    0,000000000e+00
     1080000000    1,953691989e-01   -2,978127450e-03   -1,219848916e-01    2,632576823e-01    0,000000000e+00    0,000000000e+00    0,000000000e+00    0,000000000e+00
     1094000000    1,541515291e-01   -1,815801263e-01    5,730756745e-02    3,088131845e-01    0,000000000e+00    0,000000000e+00    0,000000000e+00    0,000000000e+00
     1108000000   -3,695253516e-03   -3,083417714e-01    2,698798776e-01    2,514106035e-01    0,000000000e+00    0,000000000e+00    0,000000000e+00    0,000000000e+00
     1122000000   -2,571668625e-01   -2,551423311e-01    4,703175724e-01    1,892612688e-02    0,000000000e+00    0,000000000e+00    0,000000000e+00    0,000000000e+00
     1136000000   -3,069130182e-01    5,136103556e-02    3,871439099e-01   -3,840246499e-01    0,000000000e+00    0,000000000e+00    0,000000000e+00    0,000000000e+00
     1150000000   -2,151895501e-02    1,498854458e-01    4,029686097e-03   -5,224744081e-01    0,000000000e+00    0,000000000e+00    0,000000000e+00    0,000000000e+00
     1164000000    1,277147830e-01   -8,462339640e-02   -2,645732462e-01   -3,584304750e-01    0,000000000e+00    0,000000000e+00    0,000000000e+00    0,000000000e+00
     1178000000    5,400434136e-03   -3,209157586e-01   -3,476253450e-01   -1,391414404e-01    0,000000000e+00    0,000000000e+00    0,000000000e+00    0,000000000e+00
     1192000000   -2,819325030e-01   -3,727423549e-01   -2,951527834e-01    5,632661283e-02    0,000000000e+00    0,000000000e+00    0,000000000e+00    0,000000000e+00
     1206000000   -5,306442380e-01   -1,473664939e-01   -1,431987137e-01    1,662809998e-01    0,000000000e+00    0,000000000e+00    0,000000000e+00    0,000000000e+00
     1220000000   -5,022202730e-01    1,877977252e-01    4,886921030e-03    1,368664950e-01    0,000000000e+00    0,000000000e+00    0,000000000e+00    0,000000000e+00
     1234000000   -2,803463638e-01    3,634868860e-01    5,777453259e-02    5,184792355e-02    0,000000000e+00    0,000000000e+00    0,000000000e+00    0,000000000e+00
     1248000000   -3,967677057e-02    3,603145480e-01    4,479455948e-02   -8,508269675e-03    0,000000000e+00    0,000000000e+00    0,000000000e+00    0,000000000e+00
     1262000000    1,276935041e-01    2,507970333e-01    1,443055086e-02   -1,630882360e-02    0,000000000e+00    0,000000000e+00    0,000000000e+00    0,000000000e+00
     1276000000    2,119727880e-01    9,739591181e-02   -2,363999141e-03    1,740941592e-02    0,000000000e+00    0,000000000e+00    0,000000000e+00    0,000000000e+00
     1290000000    2,228909284e-01   -8,171631396e-02    2,320312150e-02    5,808643624e-02    0,000000000e+00    0,000000000e+00    0,000000000e+00    0,000000000e+00
     1304000000    1,500110030e-01   -2,456461936e-01    1,475069970e-01    6,908526272e-02    0,000000000e+00    0,000000000e+00    0,000000000e+00    0,000000000e+00
     1318000000    3,511024639e-02   -3,358735144e-01    1,251397878e-01   -1,757434458e-01    0,000000000e+00    0,000000000e+00    0,000000000e+00    0,000000000e+00
     1332000000   -1,351493597e-01   -4,363006949e-01   -5,003478751e-02   -4,918327183e-02    0,000000000e+00    0,000000000e+00    0,000000000e+00    0,000000000e+00
     1346000000   -3,897953928e-01   -4,107936919e-01    2,108739130e-02    6,013117731e-02    0,000000000e+00    0,000000000e+00    0,000000000e+00    0,000000000e+00
     1360000000   -5,981914401e-01   -1,928403676e-01    1,357133240e-01    6,843434274e-02    0,000000000e+00    0,000000000e+00    0,000000000e+00    0,000000000e+00
     1374000000   -6,312207580e-01    1,297663897e-01    1,847459525e-01    8,781211451e-03    0,000000000e+00    0,000000000e+00    0,000000000e+00    0,000000000e+00
     1388000000   -4,633849263e-01    3,637896776e-01    1,927027702e-01   -6,894794106e-02    0,000000000e+00    0,000000000e+00    0,000000000e+00    0,000000000e+00
     1402000000   -2,304391712e-01    4,444901049e-01    1,772660315e-01   -1,073194966e-01    0,000000000e+00    0,000000000e+00    0,000000000e+00    0,000000000e+00
     1416000000   -1,898210309e-02    4,067535102e-01    1,612890512e-01   -1,154733896e-01    0,000000000e+00    0,000000000e+00    0,000000000e+00    0,000000000e+00
     1430000000    1,143384054e-01    2,976601720e-01    1,279288232e-01   -9,949333221e-02    0,000000000e+00    0,000000000e+00    0,000000000e+00    0,000000000e+00
     1444000000    2,110669613e-01    1,457499415e-01    1,449739635e-01   -1,020299122e-01    0,000000000e+00    0,000000000e+00    0,000000000e+00    0,000000000e+00
     1458000000    2,358788997e-01   -2,581723593e-02    1,246178150e-01   -8,923540264e-02    0,000000000e+00    0,000000000e+00    0,000000000e+00    0,000000000e+00
     1472000000    1,874057353e-01   -2,108358443e-01    1,239833683e-01   -3,376444429e-02    0,000000000e+00    0,000000000e+00    0,000000000e+00    0,000000000e+00
     1486000000    4,931313545e-02   -3,812187314e-01    1,415635496e-01    2,809839137e-02    0,000000000e+00    0,000000000e+00    0,000000000e+00    0,000000000e+00
     1500000000   -1,858475059e-01   -4,899775684e-01    2,171309143e-01    8,366123587e-02    0,000000000e+00    0,000000000e+00    0,000000000e+00    0,000000000e+00
