! NanoVNA-App
! Date: 2025-09-26 09:42:28
! Start: 100MHz Stop: 1,5GHz Points: 101
! S-Parameter data: F S11 S21 S12 S22
# Hz S RI R 50
!     Frequency           S11_Real           S11_Imag           S21_Real           S21_Imag           S12_Real           S12_Imag           S22_Real           S22_Imag
      100000000   -2,898340859e-02   -4,485443700e-03    3,738476634e-01   -7,230587602e-01    0,000000000e+00    0,000000000e+00    0,000000000e+00    0,000000000e+00
      114000000   -1,687546819e-02    1,123086456e-02   -8,989028633e-02   -8,066138625e-01    0,000000000e+00    0,000000000e+00    0,000000000e+00    0,000000000e+00
      128000000    2,873594640e-03    1,052099280e-02   -5,160380006e-01   -6,209664941e-01    0,000000000e+00    0,000000000e+00    0,000000000e+00    0,000000000e+00
      142000000    1,403851062e-02   -2,628824906e-03   -7,685024738e-01   -2,362553179e-01    0,000000000e+00    0,000000000e+00    0,000000000e+00    0,000000000e+00
      156000000    1,593575254e-02   -1,382711437e-02   -7,714049220e-01    2,256787270e-01    0,000000000e+00    0,000000000e+00    0,000000000e+00    0,000000000e+00
      170000000    1,688650250e-02   -2,222635038e-02   -5,179806948e-01    6,061981916e-01    0,000000000e+00    0,000000000e+00    0,000000000e+00    0,000000000e+00
      184000000    2,113709040e-02   -3,715656698e-02   -1,005604789e-01    7,871507406e-01    0,000000000e+00    0,000000000e+00    0,000000000e+00    0,000000000e+00
      198000000    1,287076995e-02   -6,246300042e-02    3,448688388e-01    7,129957676e-01    0,000000000e+00    0,000000000e+00    0,000000000e+00    0,000000000e+00
      212000000   -1,887075789e-02   -8,107628673e-02    6,796424985e-01    4,097018242e-01    0,000000000e+00    0,000000000e+00    0,000000000e+00    0,000000000e+00
      226000000   -6,152400747e-02   -6,868018955e-02    7,973748446e-01   -3,134974092e-02    0,000000000e+00    0,000000000e+00    0,000000000e+00    0,000000000e+00
      240000000   -8,196994662e-02   -2,554266900e-02    6,477172375e-01   -4,684273899e-01    0,000000000e+00    0,000000000e+00    0,000000000e+00    0,000000000e+00
      254000000   -6,308756024e-02    1,685331203e-02    2,768521905e-01   -7,445347309e-01    0,000000000e+00    0,000000000e+00    0,000000000e+00    0,000000000e+00
      268000000   -2,370528504e-02    2,822104469e-02   -1,776799709e-01   -7,661468983e-01    0,000000000e+00    0,000000000e+00    0,000000000e+00    0,000000000e+00
      282000000    3,555302043e-03    1,139557641e-02   -5,627878904e-01   -5,376434922e-01    0,000000000e+00    0,000000000e+00    0,000000000e+00    0,000000000e+00
      296000000    9,197912179e-03   -7,860695943e-03   -7,613613009e-01   -1,409969628e-01    0,000000000e+00    0,000000000e+00    0,000000000e+00    0,000000000e+00
      310000000    1,122373622e-02   -1,595529728e-02   -7,136512995e-01    2,997891605e-01    0,000000000e+00    0,000000000e+00    0,000000000e+00    0,000000000e+00
      324000000    1,971888728e-02   -2,667282708e-02   -4,287808239e-01    6,396481395e-01    0,000000000e+00    0,000000000e+00    0,000000000e+00    0,000000000e+00
      338000000    2,542236261e-02   -5,260653421e-02   -8,310697973e-03    7,624583244e-01    0,000000000e+00    0,000000000e+00    0,000000000e+00    0,000000000e+00
      352000000    6,643870845e-03   -8,531492949e-02    4,065670967e-01    6,414556503e-01    0,000000000e+00    0,000000000e+00    0,000000000e+00    0,000000000e+00
      366000000   -3,552382067e-02   -9,530086070e-02    6,925043464e-01    3,121784925e-01    0,000000000e+00    0,000000000e+00    0,000000000e+00    0,000000000e+00
      380000000   -7,111708820e-02   -7,019898295e-02    7,491341233e-01   -1,263026148e-01    0,000000000e+00    0,000000000e+00    0,000000000e+00    0,000000000e+00
      394000000   -7,213324308e-02   -3,177952766e-02    5,478767753e-01   -5,225738287e-01    0,000000000e+00    0,000000000e+00    0,000000000e+00    0,000000000e+00
      408000000   -4,560621083e-02   -1,644461416e-02    1,613723785e-01   -7,337763309e-01    0,000000000e+00    0,000000000e+00    0,000000000e+00    0,000000000e+00
      422000000   -2,840889618e-02   -3,271342069e-02   -2,675623000e-01   -6,966541409e-01    0,000000000e+00    0,000000000e+00    0,000000000e+00    0,000000000e+00
      436000000   -4,105943069e-02   -5,194006488e-02   -6,051945686e-01   -4,339931011e-01    0,000000000e+00    0,000000000e+00    0,000000000e+00    0,000000000e+00
      450000000   -6,745488942e-02   -4,376105592e-02   -7,427302003e-01   -2,223870158e-02    0,000000000e+00    0,000000000e+00    0,000000000e+00    0,000000000e+00
      464000000   -7,296314090e-02   -1,136404555e-02   -6,208573580e-01    3,976497054e-01    0,000000000e+00    0,000000000e+00    0,000000000e+00    0,000000000e+00
      478000000   -4,709138721e-02    1,085224655e-02   -2,840141058e-01    6,682312489e-01    0,000000000e+00    0,000000000e+00    0,000000000e+00    0,000000000e+00
      492000000   -1,577830873e-02    5,176552571e-03    1,368189007e-01    7,042387724e-01    0,000000000e+00    0,000000000e+00    0,000000000e+00    0,000000000e+00
      506000000   -3,212360898e-03   -1,670115814e-02    4,990586340e-01    5,043674111e-01    0,000000000e+00    0,000000000e+00    0,000000000e+00    0,000000000e+00
      520000000   -6,087792106e-03   -3,159915656e-02    6,884167194e-01    1,433684677e-01    0,000000000e+00    0,000000000e+00    0,000000000e+00    0,000000000e+00
      534000000   -4,624640103e-03   -3,772892058e-02    6,453287601e-01   -2,628329992e-01    0,000000000e+00    0,000000000e+00    0,000000000e+00    0,000000000e+00
      548000000    6,709423382e-03   -5,388085917e-02    3,829245865e-01   -5,675116777e-01    0,000000000e+00    0,000000000e+00    0,000000000e+00    0,000000000e+00
      562000000    3,050915431e-03   -8,978120238e-02    3,442318644e-03   -6,739852428e-01    0,000000000e+00    0,000000000e+00    0,000000000e+00    0,000000000e+00
      576000000   -3,510292247e-02   -1,248586178e-01   -3,693034351e-01   -5,603487492e-01    0,000000000e+00    0,000000000e+00    0,000000000e+00    0,000000000e+00
      590000000   -9,717368335e-02   -1,226865351e-01   -6,224755645e-01   -2,635827065e-01    0,000000000e+00    0,000000000e+00    0,000000000e+00    0,000000000e+00
      604000000   -1,393048763e-01   -7,102417201e-02   -6,675940752e-01    1,367921978e-01    0,000000000e+00    0,000000000e+00    0,000000000e+00    0,000000000e+00
      618000000   -1,289184541e-01   -8,527558297e-03   -4,665498734e-01    4,956544042e-01    0,000000000e+00    0,000000000e+00    0,000000000e+00    0,000000000e+00
      632000000   -8,331760019e-02    1,651921310e-02   -1,010725796e-01    6,654556394e-01    0,000000000e+00    0,000000000e+00    0,000000000e+00    0,000000000e+00
      646000000   -5,136004090e-02   -3,882064775e-04    2,874625325e-01    5,971462727e-01    0,000000000e+00    0,000000000e+00    0,000000000e+00    0,000000000e+00
      660000000   -5,507100001e-02   -2,191597410e-02    5,686895251e-01    3,235203326e-01    0,000000000e+00    0,000000000e+00    0,000000000e+00    0,000000000e+00
      674000000   -7,057683915e-02   -1,671211794e-02    6,443127394e-01   -6,570702791e-02    0,000000000e+00    0,000000000e+00    0,000000000e+00    0,000000000e+00
      688000000   -6,852498651e-02    9,765924886e-03    4,714448750e-01   -4,290720820e-01    0,000000000e+00    0,000000000e+00    0,000000000e+00    0,000000000e+00
      702000000   -3,751477599e-02    2,599904314e-02    1,197074354e-01   -6,082757711e-01    0,000000000e+00    0,000000000e+00    0,000000000e+00    0,000000000e+00
      716000000    3,340475494e-03    1,746258140e-02   -2,656037211e-01   -5,478920341e-01    0,000000000e+00    0,000000000e+00    0,000000000e+00    0,000000000e+00
      730000000    3,726933524e-02   -1,095441543e-02   -5,293974876e-01   -2,695558667e-01    0,000000000e+00    0,000000000e+00    0,000000000e+00    0,000000000e+00
      744000000    6,573187560e-02   -6,307463348e-02   -5,652993321e-01    1,074333116e-01    0,000000000e+00    0,000000000e+00    0,000000000e+00    0,000000000e+00
      758000000    6,731156260e-02   -1,532094777e-01   -3,629945517e-01    4,118512869e-01    0,000000000e+00    0,000000000e+00    0,000000000e+00    0,000000000e+00
      772000000   -1,325411629e-02   -2,647836208e-01   -3,353191540e-02    5,154337883e-01    0,000000000e+00    0,000000000e+00    0,000000000e+00    0,000000000e+00
      786000000   -2,095559686e-01   -3,054200411e-01    2,761672437e-01    3,929930329e-01    0,000000000e+00    0,000000000e+00    0,000000000e+00    0,000000000e+00
      800000000   -4,311502576e-01   -1,293732524e-01    4,169403017e-01    9,589654207e-02    0,000000000e+00    0,000000000e+00    0,000000000e+00    0,000000000e+00
      814000000   -3,911852241e-01    2,259406596e-01    2,788438201e-01   -1,753657162e-01    0,000000000e+00    0,000000000e+00    0,000000000e+00    0,000000000e+00
      828000000   -4,560332000e-02    3,715114295e-01    5,124720186e-02   -1,886455715e-01    0,000000000e+00    0,000000000e+00    0,000000000e+00    0,000000000e+00
      842000000    2,393281460e-01    1,850685179e-01   -1,953015663e-02   -6,844282150e-02    0,000000000e+00    0,000000000e+00    0,000000000e+00    0,000000000e+00
      856000000    2,825603783e-01   -1,278962642e-01    4,489011317e-02   -1,156959962e-02    0,000000000e+00    0,000000000e+00    0,000000000e+00    0,000000000e+00
      870000000    7,448631525e-02   -3,804997206e-01    1,141169444e-01   -8,976548910e-02    0,000000000e+00    0,000000000e+00    0,000000000e+00    0,000000000e+00
      884000000   -2,984325886e-01   -3,639964461e-01    2,813133411e-02   -2,450185120e-01    0,000000000e+00    0,000000000e+00    0,000000000e+00    0,000000000e+00
      898000000   -4,754748940e-01    1,054965705e-02   -2,222987860e-01   -2,261613607e-01    0,000000000e+00    0,000000000e+00    0,000000000e+00    0,000000000e+00
      912000000   -2,271477431e-01    2,990873456e-01   -3,505250216e-01    7,008447498e-02    0,000000000e+00    0,000000000e+00    0,000000000e+00    0,000000000e+00
      926000000    7,089591026e-02    2,654462457e-01   -2,173427790e-01    2,585215271e-01    0,000000000e+00    0,000000000e+00    0,000000000e+00    0,000000000e+00
      940000000    2,220046669e-01    7,960368693e-02   -3,998874873e-02    3,278665245e-01    0,000000000e+00    0,000000000e+00    0,000000000e+00    0,000000000e+00
      954000000    2,234402895e-01   -1,302967519e-01    1,232990324e-01    3,065526485e-01    0,000000000e+00    0,000000000e+00    0,000000000e+00    0,000000000e+00
      968000000    1,183881164e-01   -3,018183708e-01    2,662443221e-01    2,210809439e-01    0,000000000e+00    0,000000000e+00    0,000000000e+00    0,000000000e+00
      982000000   -8,282084763e-02   -3,894085586e-01    3,625609577e-01    6,926327199e-02    0,000000000e+00    0,000000000e+00    0,000000000e+00    0,000000000e+00
      996000000   -3,213879466e-01   -3,354597092e-01    3,663394153e-01   -1,385487169e-01    0,000000000e+00    0,000000000e+00    0,000000000e+00    0,000000000e+00
     1010000000   -4,709725976e-01   -1,080516204e-01    2,224613726e-01   -3,377761543e-01    0,000000000e+00    0,000000000e+00    0,000000000e+00    0,000000000e+00
     1024000000   -4,123610556e-01    1,535492390e-01   -3,311126307e-02   -3,912944198e-01    0,000000000e+00    0,000000000e+00    0,000000000e+00    0,000000000e+00
     1038000000   -2,187423706e-01    2,937585711e-01   -2,471077591e-01   -2,580161393e-01    0,000000000e+00    0,000000000e+00    0,000000000e+00    0,000000000e+00
     1052000000   -6,911781151e-03    2,779202461e-01   -3,164225221e-01   -4,489255324e-02    0,000000000e+00    0,000000000e+00    0,000000000e+00    0,000000000e+00
     1066000000    1,386919171e-01    1,624016166e-01   -2,578896284e-01    1,424736679e-01    0,000000000e+00    0,000000000e+00    0,000000000e+00    0,000000000e+00
     1080000000    1,970070451e-01   -4,450348672e-03   -1,252277642e-01    2,644591630e-01    0,000000000e+00    0,000000000e+00    0,000000000e+00    0,000000000e+00
     1094000000    1,532220095e-01   -1,762244105e-01    5,895427987e-02    3,038674295e-01    0,000000000e+00    0,000000000e+00    0,000000000e+00    0,000000000e+00
     1108000000   -1,987869153e-03   -3,111514449e-01    2,712694108e-01    2,529733181e-01    0,000000000e+00    0,000000000e+00    0,000000000e+00    0,000000000e+00
     1122000000   -2,622556388e-01   -2,609537244e-01    4,682175517e-01    1,732582599e-02    0,000000000e+00    0,000000000e+00    0,000000000e+00    0,000000000e+00
     1136000000   -3,167816997e-01    4,217295721e-02    3,897592127e-01   -3,815733790e-01    0,000000000e+00    0,000000000e+00    0,000000000e+00    0,000000000e+00
     1150000000   -2,941987105e-02    1,460520923e-01    2,860144479e-03   -5,222842097e-01    0,000000000e+00    0,000000000e+00    0,000000000e+00    0,000000000e+00
     1164000000    1,250342727e-01   -7,973571867e-02   -2,666347325e-01   -3,599030375e-01    0,000000000e+00    0,000000000e+00    0,000000000e+00    0,000000000e+00
     1178000000    9,714767337e-03   -3,180719018e-01   -3,494705856e-01   -1,427704245e-01    0,000000000e+00    0,000000000e+00    0,000000000e+00    0,000000000e+00
     1192000000   -2,811233699e-01   -3,728530109e-01   -2,994430661e-01    5,520452559e-02    0,000000000e+00    0,000000000e+00    0,000000000e+00    0,000000000e+00
     1206000000   -5,329174995e-01   -1,545842737e-01   -1,508046240e-01    1,627650559e-01    0,000000000e+00    0,000000000e+00    0,000000000e+00    0,000000000e+00
     1220000000   -5,101059675e-01    1,830022782e-01    4,190171137e-03    1,366818398e-01    0,000000000e+00    0,000000000e+00    0,000000000e+00    0,000000000e+00
     1234000000   -2,810548842e-01    3,642380238e-01    5,912972614e-02    5,374860018e-02    0,000000000e+00    0,000000000e+00    0,000000000e+00    0,000000000e+00
     1248000000   -4,031772539e-02    3,598529398e-01    4,593032598e-02   -2,518313704e-03    0,000000000e+00    0,000000000e+00    0,000000000e+00    0,000000000e+00
     1262000000    1,306202263e-01    2,493081242e-01    1,471426990e-02   -1,451681927e-02    0,000000000e+00    0,000000000e+00    0,000000000e+00    0,000000000e+00
     1276000000    2,128064185e-01    9,620716423e-02   -2,125473926e-03    1,453788020e-02    0,000000000e+00    0,000000000e+00    0,000000000e+00    0,000000000e+00
     1290000000    2,242816240e-01   -7,994468510e-02    2,752397209e-02    5,738236755e-02    0,000000000e+00    0,000000000e+00    0,000000000e+00    0,000000000e+00
     1304000000    1,534933001e-01   -2,476156801e-01    1,507533193e-01    6,623742729e-02    0,000000000e+00    0,000000000e+00    0,000000000e+00    0,000000000e+00
     1318000000    3,619730100e-02   -3,348983228e-01    1,264189035e-01   -1,750598103e-01    0,000000000e+00    0,000000000e+00    0,000000000e+00    0,000000000e+00
     1332000000   -1,325069219e-01   -4,445110261e-01   -5,431720242e-02   -5,211922899e-02    0,000000000e+00    0,000000000e+00    0,000000000e+00    0,000000000e+00
     1346000000   -3,937772512e-01   -4,122286141e-01    1,139147300e-02    5,681331083e-02    0,000000000e+00    0,000000000e+00    0,000000000e+00    0,000000000e+00
     1360000000   -6,068927646e-01   -1,795803607e-01    1,273530126e-01    7,500860840e-02    0,000000000e+00    0,000000000e+00    0,000000000e+00    0,000000000e+00
     1374000000   -6,303681731e-01    1,271734387e-01    1,930854768e-01   -2,033106983e-03    0,000000000e+00    0,000000000e+00    0,000000000e+00    0,000000000e+00
     1388000000   -4,533116221e-01    3,605344892e-01    2,086672783e-01   -6,936767697e-02    0,000000000e+00    0,000000000e+00    0,000000000e+00    0,000000000e+00
     1402000000   -2,328486592e-01    4,541027546e-01    1,669548750e-01   -9,191128612e-02    0,000000000e+00    0,000000000e+00    0,000000000e+00    0,000000000e+00
     1416000000   -2,223653905e-02    4,131189585e-01    1,642770171e-01   -1,032445803e-01    0,000000000e+00    0,000000000e+00    0,000000000e+00    0,000000000e+00
     1430000000    1,299892515e-01    3,029911816e-01    1,519384384e-01   -1,044989005e-01    0,000000000e+00    0,000000000e+00    0,000000000e+00    0,000000000e+00
     1444000000    2,128870040e-01    1,465562433e-01    1,456955373e-01   -9,410762042e-02    0,000000000e+00    0,000000000e+00    0,000000000e+00    0,000000000e+00
     1458000000    2,358295172e-01   -2,807804011e-02    1,205305904e-01   -9,010635316e-02    0,000000000e+00    0,000000000e+00    0,000000000e+00    0,000000000e+00
     1472000000    1,870563924e-01   -2,085351646e-01    1,253490895e-01   -2,326608263e-02    0,000000000e+00    0,000000000e+00    0,000000000e+00    0,000000000e+00
     1486000000    5,854961649e-02   -3,823764324e-01    1,540054530e-01    2,006092109e-02    0,000000000e+00    0,000000000e+00    0,000000000e+00    0,000000000e+00
     1500000000   -1,790012270e-01   -4,998722374e-01    2,317616642e-01    7,289409637e-02    0,000000000e+00    0,000000000e+00    0,000000000e+00    0,000000000e+00
