! NanoVNA-App
! Date: 2025-09-26 09:42:37
! Start: 100MHz Stop: 1,5GHz Points: 101
! S-Parameter data: F S11 S21 S12 S22
# Hz S RI R 50
!     Frequency           S11_Real           S11_Imag           S21_Real           S21_Imag           S12_Real           S12_Imag           S22_Real           S22_Imag
      100000000   -2,898320556e-02   -4,490558058e-03    3,738831282e-01   -7,230383158e-01    0,000000000e+00    0,000000000e+00    0,000000000e+00    0,000000000e+00
      114000000   -1,691763103e-02    1,122717094e-02   -9,004489332e-02   -8,064880967e-01    0,000000000e+00    0,000000000e+00    0,000000000e+00    0,000000000e+00
      128000000    2,876246348e-03    1,044206042e-02   -5,160779953e-01   -6,208883524e-01    0,000000000e+00    0,000000000e+00    0,000000000e+00    0,000000000e+00
      142000000    1,402891893e-02   -2,630349016e-03   -7,685452104e-01   -2,360793799e-01    0,000000000e+00    0,000000000e+00    0,000000000e+00    0,000000000e+00
      156000000    1,420151629e-02   -1,435886137e-02   -7,653376460e-01    2,213489264e-01    0,000000000e+00    0,000000000e+00    0,000000000e+00    0,000000000e+00
      170000000    1,686394028e-02   -2,218546346e-02   -5,181781650e-01    6,065329909e-01    0,000000000e+00    0,000000000e+00    0,000000000e+00    0,000000000e+00
      184000000    2,115207352e-02   -3,713148832e-02   -1,004597247e-01    7,871305346e-01    0,000000000e+00    0,000000000e+00    0,000000000e+00    0,000000000e+00
      198000000    1,292007882e-02   -6,253477186e-02    3,449513912e-01    7,129867673e-01    0,000000000e+00    0,000000000e+00    0,000000000e+00    0,000000000e+00
      212000000   -1,891268045e-02   -8,109620214e-02    6,799591184e-01    4,100583196e-01    0,000000000e+00    0,000000000e+00    0,000000000e+00    0,000000000e+00
      226000000   -6,155051664e-02   -6,857669353e-02    7,974198461e-01   -3,127717599e-02    0,000000000e+00    0,000000000e+00    0,000000000e+00    0,000000000e+00
      240000000   -8,193811774e-02   -2,550942451e-02    6,474866867e-01   -4,682778120e-01    0,000000000e+00    0,000000000e+00    0,000000000e+00    0,000000000e+00
      254000000   -6,305591017e-02    1,683774404e-02    2,769380212e-01   -7,451117039e-01    0,000000000e+00    0,000000000e+00    0,000000000e+00    0,000000000e+00
      268000000   -2,368773706e-02    2,834497578e-02   -1,778119057e-01   -7,659720778e-01    0,000000000e+00    0,000000000e+00    0,000000000e+00    0,000000000e+00
      282000000    3,703542519e-03    1,141772885e-02   -5,625187159e-01   -5,376127958e-01    0,000000000e+00    0,000000000e+00    0,000000000e+00    0,000000000e+00
      296000000    9,276383556e-03   -7,947661914e-03   -7,614918351e-01   -1,409170926e-01    0,000000000e+00    0,000000000e+00    0,000000000e+00    0,000000000e+00
      310000000    1,112357154e-02   -1,585238986e-02   -7,144421935e-01    2,999510169e-01    0,000000000e+00    0,000000000e+00    0,000000000e+00    0,000000000e+00
      324000000    2,003771998e-02   -2,667822130e-02   -4,281706512e-01    6,398791671e-01    0,000000000e+00    0,000000000e+00    0,000000000e+00    0,000000000e+00
      338000000    2,561782114e-02   -5,258443952e-02   -9,020474739e-03    7,641128302e-01    0,000000000e+00    0,000000000e+00    0,000000000e+00    0,000000000e+00
      352000000    6,746118888e-03   -8,504922688e-02    4,071525037e-01    6,412858367e-01    0,000000000e+00    0,000000000e+00    0,000000000e+00    0,000000000e+00
      366000000   -3,542767838e-02   -9,522542357e-02    6,926810145e-01    3,118808866e-01    0,000000000e+00    0,000000000e+00    0,000000000e+00    0,000000000e+00
      380000000   -7,125667483e-02   -7,016745210e-02    7,492845058e-01   -1,262840778e-01    0,000000000e+00    0,000000000e+00    0,000000000e+00    0,000000000e+00
      394000000   -7,210008055e-02   -3,184595704e-02    5,482491255e-01   -5,228196383e-01    0,000000000e+00    0,000000000e+00    0,000000000e+00    0,000000000e+00
      408000000   -4,569601640e-02   -1,629283838e-02    1,625992507e-01   -7,336341143e-01    0,000000000e+00    0,000000000e+00    0,000000000e+00    0,000000000e+00
      422000000   -2,794196457e-02   -3,265493736e-02   -2,672766447e-01   -6,976974010e-01    0,000000000e+00    0,000000000e+00    0,000000000e+00    0,000000000e+00
      436000000   -4,105722904e-02   -5,208712816e-02   -6,053937674e-01   -4,339404106e-01    0,000000000e+00    0,000000000e+00    0,000000000e+00    0,000000000e+00
      450000000   -6,758615375e-02   -4,409038275e-02   -7,426011562e-01   -2,263235115e-02    0,000000000e+00    0,000000000e+00    0,000000000e+00    0,000000000e+00
      464000000   -7,276983559e-02   -1,139535476e-02   -6,210584641e-01    3,975590467e-01    0,000000000e+00    0,000000000e+00    0,000000000e+00    0,000000000e+00
      478000000   -4,713202640e-02    1,149352081e-02   -2,838100195e-01    6,687797904e-01    0,000000000e+00    0,000000000e+00    0,000000000e+00    0,000000000e+00
      492000000   -1,581650972e-02    4,809668753e-03    1,363492310e-01    7,039261460e-01    0,000000000e+00    0,000000000e+00    0,000000000e+00    0,000000000e+00
      506000000   -3,359788563e-03   -1,673657261e-02    4,993709624e-01    5,050052404e-01    0,000000000e+00    0,000000000e+00    0,000000000e+00    0,000000000e+00
      520000000   -5,698175170e-03   -3,151156008e-02    6,898932457e-01    1,425607055e-01    0,000000000e+00    0,000000000e+00    0,000000000e+00    0,000000000e+00
      534000000   -3,938451875e-03   -3,765777871e-02    6,456986070e-01   -2,630070746e-01    0,000000000e+00    0,000000000e+00    0,000000000e+00    0,000000000e+00
      548000000    6,281617563e-03   -5,397311971e-02    3,820893764e-01   -5,685414672e-01    0,000000000e+00    0,000000000e+00    0,000000000e+00    0,000000000e+00
      562000000    3,145520343e-03   -8,930287510e-02    2,639484359e-03   -6,744506955e-01    0,000000000e+00    0,000000000e+00    0,000000000e+00    0,000000000e+00
      576000000   -3,498407826e-02   -1,250489950e-01   -3,691108823e-01   -5,596248507e-01    0,000000000e+00    0,000000000e+00    0,000000000e+00    0,000000000e+00
      590000000   -9,706407040e-02   -1,226048544e-01   -6,235746741e-01   -2,668710351e-01    0,000000000e+00    0,000000000e+00    0,000000000e+00    0,000000000e+00
      604000000   -1,393354684e-01   -7,125806808e-02   -6,675383449e-01    1,370696276e-01    0,000000000e+00    0,000000000e+00    0,000000000e+00    0,000000000e+00
      618000000   -1,287766844e-01   -9,018721990e-03   -4,667207301e-01    4,944708049e-01    0,000000000e+00    0,000000000e+00    0,000000000e+00    0,000000000e+00
      632000000   -8,309456706e-02    1,666532457e-02   -1,012509689e-01    6,663851738e-01    0,000000000e+00    0,000000000e+00    0,000000000e+00    0,000000000e+00
      646000000   -5,141734332e-02   -1,347904326e-03    2,876507938e-01    5,966913700e-01    0,000000000e+00    0,000000000e+00    0,000000000e+00    0,000000000e+00
      660000000   -5,379287526e-02   -2,179107256e-02    5,684395432e-01    3,239594102e-01    0,000000000e+00    0,000000000e+00    0,000000000e+00    0,000000000e+00
      674000000   -7,088852674e-02   -1,747013628e-02    6,440973282e-01   -6,544680148e-02    0,000000000e+00    0,000000000e+00    0,000000000e+00    0,000000000e+00
      688000000   -6,745825708e-02    9,612542577e-03    4,720128477e-01   -4,291402996e-01    0,000000000e+00    0,000000000e+00    0,000000000e+00    0,000000000e+00
      702000000   -3,752303496e-02    2,665661462e-02    1,197528169e-01   -6,080403924e-01    0,000000000e+00    0,000000000e+00    0,000000000e+00    0,000000000e+00
      716000000    2,123205457e-03    1,762984321e-02   -2,654045820e-01   -5,478841662e-01    0,000000000e+00    0,000000000e+00    0,000000000e+00    0,000000000e+00
      730000000    3,605746478e-02   -1,120397355e-02   -5,302917361e-01   -2,699785233e-01    0,000000000e+00    0,000000000e+00    0,000000000e+00    0,000000000e+00
      744000000    6,500302255e-02   -6,269681454e-02   -5,649427176e-01    1,069475785e-01    0,000000000e+00    0,000000000e+00    0,000000000e+00    0,000000000e+00
      758000000    6,714720279e-02   -1,538092792e-01   -3,623159826e-01    4,122168720e-01    0,000000000e+00    0,000000000e+00    0,000000000e+00    0,000000000e+00
      772000000   -1,238082722e-02   -2,649088800e-01   -3,437252343e-02    5,146741867e-01    0,000000000e+00    0,000000000e+00    0,000000000e+00    0,000000000e+00
      786000000   -2,098800540e-01   -3,051325083e-01    2,756832540e-01    3,939984441e-01    0,000000000e+00    0,000000000e+00    0,000000000e+00    0,000000000e+00
      800000000   -4,302057028e-01   -1,279461533e-01    4,170980453e-01    9,546066076e-02    0,000000000e+00    0,000000000e+00    0,000000000e+00    0,000000000e+00
      814000000   -3,908918202e-01    2,276707441e-01    2,782870233e-01   -1,755878776e-01    0,000000000e+00    0,000000000e+00    0,000000000e+00    0,000000000e+00
      828000000   -4,545981437e-02    3,709871769e-01    5,096307769e-02   -1,886638999e-01    0,000000000e+00    0,000000000e+00    0,000000000e+00    0,000000000e+00
      842000000    2,395356596e-01    1,843174547e-01   -1,912553422e-02   -6,868398935e-02    0,000000000e+00    0,000000000e+00    0,000000000e+00    0,000000000e+00
      856000000    2,830334306e-01   -1,284313500e-01    4,514205083e-02   -1,090595406e-02    0,000000000e+00    0,000000000e+00    0,000000000e+00    0,000000000e+00
      870000000    7,373201847e-02   -3,804681003e-01    1,134967282e-01   -9,018696845e-02    0,000000000e+00    0,000000000e+00    0,000000000e+00    0,000000000e+00
      884000000   -2,997569740e-01   -3,645738363e-01    2,755578235e-02   -2,452922910e-01    0,000000000e+00    0,000000000e+00    0,000000000e+00    0,000000000e+00
      898000000   -4,761607349e-01    9,853830561e-03   -2,221388072e-01   -2,270193398e-01    0,000000000e+00    0,000000000e+00    0,000000000e+00    0,000000000e+00
      912000000   -2,275513560e-01    2,990458310e-01   -3,370665312e-01    6,600607187e-02    0,000000000e+00    0,000000000e+00    0,000000000e+00    0,000000000e+00
      926000000    7,151840627e-02    2,671857476e-01   -2,163662314e-01    2,600304484e-01    0,000000000e+00    0,000000000e+00    0,000000000e+00    0,000000000e+00
      940000000    2,196656018e-01    7,876341790e-02   -4,089393467e-02    3,247045875e-01    0,000000000e+00    0,000000000e+00    0,000000000e+00    0,000000000e+00
      954000000    2,259783298e-01   -1,315532923e-01    1,257669330e-01    3,048206270e-01    0,000000000e+00    0,000000000e+00    0,000000000e+00    0,000000000e+00
      968000000    1,154376864e-01   -3,021341264e-01    2,645635903e-01    2,206928730e-01    0,000000000e+00    0,000000000e+00    0,000000000e+00    0,000000000e+00
      982000000   -8,233924210e-02   -3,923871517e-01    3,609325588e-01    6,791995466e-02    0,000000000e+00    0,000000000e+00    0,000000000e+00    0,000000000e+00
      996000000   -3,186914921e-01   -3,321883380e-01    3,649492860e-01   -1,401177645e-01    0,000000000e+00    0,000000000e+00    0,000000000e+00    0,000000000e+00
     1010000000   -4,657282829e-01   -1,093959808e-01    2,208812833e-01   -3,361014724e-01    0,000000000e+00    0,000000000e+00    0,000000000e+00    0,000000000e+00
     1024000000   -4,137759209e-01    1,541461349e-01   -3,230603784e-02   -3,892481625e-01    0,000000000e+00    0,000000000e+00    0,000000000e+00    0,000000000e+00
     1038000000   -2,150044739e-01    2,974144816e-01   -2,500548959e-01   -2,581525147e-01    0,000000000e+00    0,000000000e+00    0,000000000e+00    0,000000000e+00
     1052000000   -2,328576986e-03    2,802249193e-01   -3,183910847e-01   -4,593627900e-02    0,000000000e+00    0,000000000e+00    0,000000000e+00    0,000000000e+00
     1066000000    1,415728629e-01    1,637954861e-01   -2,596566081e-01    1,420979500e-01    0,000000000e+00    0,000000000e+00    0,000000000e+00    0,000000000e+00
     1080000000    1,958550066e-01   -4,203274380e-03   -1,224720776e-01    2,645278275e-01    0,000000000e+00    0,000000000e+00    0,000000000e+00    0,000000000e+00
     1094000000    1,546569467e-01   -1,821652353e-01    6,081855670e-02    3,054326475e-01    0,000000000e+00    0,000000000e+00    0,000000000e+00    0,000000000e+00
     1108000000   -7,152047940e-03   -3,068263531e-01    2,712415755e-01    2,505231202e-01    0,000000000e+00    0,000000000e+00    0,000000000e+00    0,000000000e+00
     1122000000   -2,574840486e-01   -2,568399012e-01    4,658935666e-01    1,744842716e-02    0,000000000e+00    0,000000000e+00    0,000000000e+00    0,000000000e+00
     1136000000   -3,153854907e-01    4,322651774e-02    3,915040493e-01   -3,822760582e-01    0,000000000e+00    0,000000000e+00    0,000000000e+00    0,000000000e+00
     1150000000   -2,962010913e-02    1,454064548e-01    4,546181299e-03   -5,193769336e-01    0,000000000e+00    0,000000000e+00    0,000000000e+00    0,000000000e+00
     1164000000    1,256798953e-01   -7,700627297e-02   -2,648324966e-01   -3,601255715e-01    0,000000000e+00    0,000000000e+00    0,000000000e+00    0,000000000e+00
     1178000000    7,730682380e-03   -3,180906773e-01   -3,475850224e-01   -1,390190274e-01    0,000000000e+00    0,000000000e+00    0,000000000e+00    0,000000000e+00
     1192000000   -2,846353352e-01   -3,741196990e-01   -2,987812459e-01    5,841517821e-02    0,000000000e+00    0,000000000e+00    0,000000000e+00    0,000000000e+00
     1206000000   -5,277183652e-01   -1,518878937e-01   -1,434571147e-01    1,658909321e-01    0,000000000e+00    0,000000000e+00    0,000000000e+00    0,000000000e+00
     1220000000   -5,088344216e-01    1,808438897e-01   -1,466546324e-03    1,375357509e-01    0,000000000e+00    0,000000000e+00    0,000000000e+00    0,000000000e+00
     1234000000   -2,816853225e-01    3,635945320e-01    6,023884192e-02    5,338447914e-02    0,000000000e+00    0,000000000e+00    0,000000000e+00    0,000000000e+00
     1248000000   -3,920952231e-02    3,681919277e-01    5,021020398e-02   -3,458451247e-03    0,000000000e+00    0,000000000e+00    0,000000000e+00    0,000000000e+00
     1262000000    1,283107400e-01    2,548902631e-01    1,150946040e-02   -9,511042386e-03    0,000000000e+00    0,000000000e+00    0,000000000e+00    0,000000000e+00
     1276000000    2,121663690e-01    9,626511484e-02   -1,342417905e-03    1,672592573e-02    0,000000000e+00    0,000000000e+00    0,000000000e+00    0,000000000e+00
     1290000000    2,250407189e-01   -8,152596653e-02    2,782868966e-02    5,464578047e-02    0,000000000e+00    0,000000000e+00    0,000000000e+00    0,000000000e+00
     1304000000    1,508965939e-01   -2,467180789e-01    1,425216645e-01    6,457005441e-02    0,000000000e+00    0,000000000e+00    0,000000000e+00    0,000000000e+00
     1318000000    3,415733203e-02   -3,360454440e-01    1,238418967e-01   -1,736060232e-01    0,000000000e+00    0,000000000e+00    0,000000000e+00    0,000000000e+00
     1332000000   -1,294256002e-01   -4,419947267e-01   -4,226037487e-02   -5,257843807e-02    0,000000000e+00    0,000000000e+00    0,000000000e+00    0,000000000e+00
     1346000000   -3,909196854e-01   -4,103175998e-01    2,292282134e-02    5,570527911e-02    0,000000000e+00    0,000000000e+00    0,000000000e+00    0,000000000e+00
     1360000000   -6,008458734e-01   -1,860289425e-01    1,306139827e-01    6,646770984e-02    0,000000000e+00    0,000000000e+00    0,000000000e+00    0,000000000e+00
     1374000000   -6,362097263e-01    1,276874840e-01    1,857992262e-01    1,272026217e-03    0,000000000e+00    0,000000000e+00    0,000000000e+00    0,000000000e+00
     1388000000   -4,571527839e-01    3,656016886e-01    2,054053694e-01   -5,827588215e-02    0,000000000e+00    0,000000000e+00    0,000000000e+00    0,000000000e+00
     1402000000   -2,248562127e-01    4,497234821e-01    1,789048016e-01   -9,571431577e-02    0,000000000e+00    0,000000000e+00    0,000000000e+00    0,000000000e+00
     1416000000   -1,979378983e-02    4,113703966e-01    1,570818275e-01   -1,018107980e-01    0,000000000e+00    0,000000000e+00    0,000000000e+00    0,000000000e+00
     1430000000    1,201359332e-01    2,922699451e-01    1,212517023e-01   -1,065444276e-01    0,000000000e+00    0,000000000e+00    0,000000000e+00    0,000000000e+00
     1444000000    2,138609737e-01    1,445091814e-01    1,454883367e-01   -1,038235053e-01    0,000000000e+00    0,000000000e+00    0,000000000e+00    0,000000000e+00
     1458000000    2,326422036e-01   -2,943666652e-02    1,172396466e-01   -7,863535732e-02    0,000000000e+00    0,000000000e+00    0,000000000e+00    0,000000000e+00
     1472000000    1,935523301e-01   -2,133866251e-01    1,344943494e-01   -3,298734874e-02    0,000000000e+00    0,000000000e+00    0,000000000e+00    0,000000000e+00
     1486000000    5,674133822e-02   -3,837662339e-01    1,553530097e-01    1,829159632e-02    0,000000000e+00    0,000000000e+00    0,000000000e+00    0,000000000e+00
     1500000000   -1,816385239e-01   -4,963440597e-01    2,462463081e-01    7,992795110e-02    0,000000000e+00    0,000000000e+00    0,000000000e+00    0,000000000e+00
