! NanoVNA-App
! Date: 2025-09-26 09:42:09
! Start: 100MHz Stop: 1,5GHz Points: 101
! S-Parameter data: F S11 S21 S12 S22
# Hz S RI R 50
!     Frequency           S11_Real           S11_Imag           S21_Real           S21_Imag           S12_Real           S12_Imag           S22_Real           S22_Imag
      100000000   -2,899455838e-02   -4,494620953e-03    3,739647269e-01   -7,230874896e-01    0,000000000e+00    0,000000000e+00    0,000000000e+00    0,000000000e+00
      114000000   -1,687689312e-02    1,121918671e-02   -9,004414827e-02   -8,066041470e-01    0,000000000e+00    0,000000000e+00    0,000000000e+00    0,000000000e+00
      128000000    2,862210851e-03    1,051095221e-02   -5,159880519e-01   -6,209138036e-01    0,000000000e+00    0,000000000e+00    0,000000000e+00    0,000000000e+00
      142000000    1,403158531e-02   -2,628751565e-03   -7,685763240e-01   -2,361463904e-01    0,000000000e+00    0,000000000e+00    0,000000000e+00    0,000000000e+00
      156000000    1,421801839e-02   -1,436047349e-02   -7,653567195e-01    2,193026096e-01    0,000000000e+00    0,000000000e+00    0,000000000e+00    0,000000000e+00
      170000000    1,681021601e-02   -2,217505872e-02   -5,183104873e-01    6,065213680e-01    0,000000000e+00    0,000000000e+00    0,000000000e+00    0,000000000e+00
      184000000    2,117833868e-02   -3,709326312e-02   -1,004361585e-01    7,875286937e-01    0,000000000e+00    0,000000000e+00    0,000000000e+00    0,000000000e+00
      198000000    1,283537503e-02   -6,252528727e-02    3,450176418e-01    7,132848501e-01    0,000000000e+00    0,000000000e+00    0,000000000e+00    0,000000000e+00
      212000000   -1,886480488e-02   -8,114103228e-02    6,799908280e-01    4,097341001e-01    0,000000000e+00    0,000000000e+00    0,000000000e+00    0,000000000e+00
      226000000   -6,157976761e-02   -6,869000196e-02    7,974107862e-01   -3,132751957e-02    0,000000000e+00    0,000000000e+00    0,000000000e+00    0,000000000e+00
      240000000   -8,186705410e-02   -2,551360615e-02    6,475449204e-01   -4,682286680e-01    0,000000000e+00    0,000000000e+00    0,000000000e+00    0,000000000e+00
      254000000   -6,305155158e-02    1,682662219e-02    2,768897414e-01   -7,452169657e-01    0,000000000e+00    0,000000000e+00    0,000000000e+00    0,000000000e+00
      268000000   -2,369039319e-02    2,829273976e-02   -1,776225567e-01   -7,660160065e-01    0,000000000e+00    0,000000000e+00    0,000000000e+00    0,000000000e+00
      282000000    3,656573594e-03    1,131603867e-02   -5,628430843e-01   -5,378009677e-01    0,000000000e+00    0,000000000e+00    0,000000000e+00    0,000000000e+00
      296000000    9,327150881e-03   -7,840408012e-03   -7,617869377e-01   -1,412595809e-01    0,000000000e+00    0,000000000e+00    0,000000000e+00    0,000000000e+00
      310000000    1,095632557e-02   -1,590641774e-02   -7,149913907e-01    3,006723225e-01    0,000000000e+00    0,000000000e+00    0,000000000e+00    0,000000000e+00
      324000000    1,975161396e-02   -2,654844336e-02   -4,290677309e-01    6,390147209e-01    0,000000000e+00    0,000000000e+00    0,000000000e+00    0,000000000e+00
      338000000    2,543526702e-02   -5,277241766e-02   -7,317310665e-03    7,635951638e-01    0,000000000e+00    0,000000000e+00    0,000000000e+00    0,000000000e+00
      352000000    6,910718046e-03   -8,517207205e-02    4,080571234e-01    6,420375109e-01    0,000000000e+00    0,000000000e+00    0,000000000e+00    0,000000000e+00
      366000000   -3,552908078e-02   -9,528620541e-02    6,928648353e-01    3,124499321e-01    0,000000000e+00    0,000000000e+00    0,000000000e+00    0,000000000e+00
      380000000   -7,145149261e-02   -7,055782527e-02    7,492691875e-01   -1,263158917e-01    0,000000000e+00    0,000000000e+00    0,000000000e+00    0,000000000e+00
      394000000   -7,203322649e-02   -3,152287006e-02    5,486481786e-01   -5,239311457e-01    0,000000000e+00    0,000000000e+00    0,000000000e+00    0,000000000e+00
      408000000   -4,587563872e-02   -1,622662321e-02    1,615701318e-01   -7,344685793e-01    0,000000000e+00    0,000000000e+00    0,000000000e+00    0,000000000e+00
      422000000   -2,797829732e-02   -3,257419541e-02   -2,677437365e-01   -6,975826621e-01    0,000000000e+00    0,000000000e+00    0,000000000e+00    0,000000000e+00
      436000000   -4,080003873e-02   -5,193997175e-02   -6,053991318e-01   -4,339053035e-01    0,000000000e+00    0,000000000e+00    0,000000000e+00    0,000000000e+00
      450000000   -6,758464128e-02   -4,357627034e-02   -7,427116036e-01   -2,233358845e-02    0,000000000e+00    0,000000000e+00    0,000000000e+00    0,000000000e+00
      464000000   -7,302978635e-02   -1,165900379e-02   -6,209942698e-01    3,972530365e-01    0,000000000e+00    0,000000000e+00    0,000000000e+00    0,000000000e+00
      478000000   -4,715479910e-02    1,111674774e-02   -2,842122316e-01    6,697205305e-01    0,000000000e+00    0,000000000e+00    0,000000000e+00    0,000000000e+00
      492000000   -1,585153490e-02    5,359569099e-03    1,364334077e-01    7,040234804e-01    0,000000000e+00    0,000000000e+00    0,000000000e+00    0,000000000e+00
      506000000   -3,602626268e-03   -1,667687111e-02    4,991759956e-01    5,051813722e-01    0,000000000e+00    0,000000000e+00    0,000000000e+00    0,000000000e+00
      520000000   -5,809247494e-03   -3,189197183e-02    6,896314621e-01    1,425785422e-01    0,000000000e+00    0,000000000e+00    0,000000000e+00    0,000000000e+00
      534000000   -4,284967203e-03   -3,786156327e-02    6,450262666e-01   -2,626586556e-01    0,000000000e+00    0,000000000e+00    0,000000000e+00    0,000000000e+00
      548000000    6,463551894e-03   -5,356779695e-02    3,832369745e-01   -5,686246157e-01    0,000000000e+00    0,000000000e+00    0,000000000e+00    0,000000000e+00
      562000000    3,592284163e-03   -8,993346244e-02    3,107466269e-03   -6,744791269e-01    0,000000000e+00    0,000000000e+00    0,000000000e+00    0,000000000e+00
      576000000   -3,529410809e-02   -1,244890541e-01   -3,692963719e-01   -5,599606633e-01    0,000000000e+00    0,000000000e+00    0,000000000e+00    0,000000000e+00
      590000000   -9,714657813e-02   -1,224957556e-01   -6,241024137e-01   -2,678233683e-01    0,000000000e+00    0,000000000e+00    0,000000000e+00    0,000000000e+00
      604000000   -1,393710077e-01   -7,070900500e-02   -6,675009131e-01    1,373957247e-01    0,000000000e+00    0,000000000e+00    0,000000000e+00    0,000000000e+00
      618000000   -1,283083707e-01   -9,079769254e-03   -4,670630693e-01    4,956953526e-01    0,000000000e+00    0,000000000e+00    0,000000000e+00    0,000000000e+00
      632000000   -8,271339536e-02    1,574305072e-02   -9,991129488e-02    6,645112038e-01    0,000000000e+00    0,000000000e+00    0,000000000e+00    0,000000000e+00
      646000000   -5,163347721e-02   -3,844445455e-04    2,878218889e-01    5,975975990e-01    0,000000000e+00    0,000000000e+00    0,000000000e+00    0,000000000e+00
      660000000   -5,355445296e-02   -2,216109447e-02    5,678255558e-01    3,242412806e-01    0,000000000e+00    0,000000000e+00    0,000000000e+00    0,000000000e+00
      674000000   -7,138998061e-02   -1,747029647e-02    6,445963383e-01   -6,511357427e-02    0,000000000e+00    0,000000000e+00    0,000000000e+00    0,000000000e+00
      688000000   -6,822909415e-02    8,941461332e-03    4,718853831e-01   -4,286924899e-01    0,000000000e+00    0,000000000e+00    0,000000000e+00    0,000000000e+00
      702000000   -3,715111688e-02    2,586781047e-02    1,177658439e-01   -6,163408160e-01    0,000000000e+00    0,000000000e+00    0,000000000e+00    0,000000000e+00
      716000000    2,411295427e-03    1,607190818e-02   -2,651750445e-01   -5,491146445e-01    0,000000000e+00    0,000000000e+00    0,000000000e+00    0,000000000e+00
      730000000    3,594828025e-02   -1,086715609e-02   -5,298441648e-01   -2,706118524e-01    0,000000000e+00    0,000000000e+00    0,000000000e+00    0,000000000e+00
      744000000    6,425425410e-02   -6,209200993e-02   -5,656798482e-01    1,064337194e-01    0,000000000e+00    0,000000000e+00    0,000000000e+00    0,000000000e+00
      758000000    6,692678481e-02   -1,526816785e-01   -3,642786145e-01    4,118545651e-01    0,000000000e+00    0,000000000e+00    0,000000000e+00    0,000000000e+00
      772000000   -1,207044907e-02   -2,641358674e-01   -3,418283910e-02    5,170989037e-01    0,000000000e+00    0,000000000e+00    0,000000000e+00    0,000000000e+00
      786000000   -2,082297951e-01   -3,039824367e-01    2,750993371e-01    3,963992298e-01    0,000000000e+00    0,000000000e+00    0,000000000e+00    0,000000000e+00
      800000000   -4,278781116e-01   -1,313826591e-01    4,184933901e-01    9,805308282e-02    0,000000000e+00    0,000000000e+00    0,000000000e+00    0,000000000e+00
      814000000   -3,908573687e-01    2,228647023e-01    2,830147147e-01   -1,760819554e-01    0,000000000e+00    0,000000000e+00    0,000000000e+00    0,000000000e+00
      828000000   -4,954649881e-02    3,705208302e-01    5,309407413e-02   -1,922882497e-01    0,000000000e+00    0,000000000e+00    0,000000000e+00    0,000000000e+00
      842000000    2,374478728e-01    1,875060201e-01   -2,156926319e-02   -7,206206024e-02    0,000000000e+00    0,000000000e+00    0,000000000e+00    0,000000000e+00
      856000000    2,833051682e-01   -1,255594194e-01    4,034396634e-02   -1,183262188e-02    0,000000000e+00    0,000000000e+00    0,000000000e+00    0,000000000e+00
      870000000    7,740951329e-02   -3,789408505e-01    1,112958342e-01   -8,707396686e-02    0,000000000e+00    0,000000000e+00    0,000000000e+00    0,000000000e+00
      884000000   -2,964630425e-01   -3,664228022e-01    2,900330536e-02   -2,406278700e-01    0,000000000e+00    0,000000000e+00    0,000000000e+00    0,000000000e+00
      898000000   -4,771380723e-01    6,871997379e-03   -2,188425809e-01   -2,263877839e-01    0,000000000e+00    0,000000000e+00    0,000000000e+00    0,000000000e+00
      912000000   -2,288931012e-01    2,980062664e-01   -3,505880237e-01    6,784243882e-02    0,000000000e+00    0,000000000e+00    0,000000000e+00    0,000000000e+00
      926000000    6,764201075e-02    2,673228085e-01   -2,188983560e-01    2,590068877e-01    0,000000000e+00    0,000000000e+00    0,000000000e+00    0,000000000e+00
      940000000    2,182084769e-01    7,992804796e-02   -3,997291997e-02    3,253628612e-01    0,000000000e+00    0,000000000e+00    0,000000000e+00    0,000000000e+00
      954000000    2,269044816e-01   -1,277879328e-01    1,249972954e-01    3,040074706e-01    0,000000000e+00    0,000000000e+00    0,000000000e+00    0,000000000e+00
      968000000    1,180931181e-01   -3,018375337e-01    2,643207610e-01    2,202055603e-01    0,000000000e+00    0,000000000e+00    0,000000000e+00    0,000000000e+00
      982000000   -8,385107666e-02   -3,906768858e-01    3,624747396e-01    7,016059756e-02    0,000000000e+00    0,000000000e+00    0,000000000e+00    0,000000000e+00
      996000000   -3,208619356e-01   -3,297575712e-01    3,656643927e-01   -1,400171220e-01    0,000000000e+00    0,000000000e+00    0,000000000e+00    0,000000000e+00
     1010000000   -4,689491093e-01   -1,069447547e-01    2,212738544e-01   -3,370252252e-01    0,000000000e+00    0,000000000e+00    0,000000000e+00    0,000000000e+00
     1024000000   -4,159808457e-01    1,501642764e-01   -3,238575161e-02   -3,895920813e-01    0,000000000e+00    0,000000000e+00    0,000000000e+00    0,000000000e+00
     1038000000   -2,188627124e-01    2,990492284e-01   -2,459295392e-01   -2,593420744e-01    0,000000000e+00    0,000000000e+00    0,000000000e+00    0,000000000e+00
     1052000000   -4,768633749e-03    2,789350450e-01   -3,168241978e-01   -4,437454790e-02    0,000000000e+00    0,000000000e+00    0,000000000e+00    0,000000000e+00
     1066000000    1,429943293e-01    1,638212204e-01   -2,577874362e-01    1,400881857e-01    0,000000000e+00    0,000000000e+00    0,000000000e+00    0,000000000e+00
     1080000000    1,950463355e-01   -4,787254147e-03   -1,240185723e-01    2,631911337e-01    0,000000000e+00    0,000000000e+00    0,000000000e+00    0,000000000e+00
     1094000000    1,530561894e-01   -1,805171669e-01    6,034809351e-02    3,075006306e-01    0,000000000e+00    0,000000000e+00    0,000000000e+00    0,000000000e+00
     1108000000   -6,220547482e-03   -3,048123717e-01    2,704468369e-01    2,499677539e-01    0,000000000e+00    0,000000000e+00    0,000000000e+00    0,000000000e+00
     1122000000   -2,589176893e-01   -2,613867819e-01    4,673012793e-01    1,917181909e-02    0,000000000e+00    0,000000000e+00    0,000000000e+00    0,000000000e+00
     1136000000   -3,070331812e-01    4,307624698e-02    3,881848454e-01   -3,855240345e-01    0,000000000e+00    0,000000000e+00    0,000000000e+00    0,000000000e+00
     1150000000   -1,803127490e-02    1,437507570e-01    1,886415877e-03   -5,197849274e-01    0,000000000e+00    0,000000000e+00    0,000000000e+00    0,000000000e+00
     1164000000    1,300637573e-01   -8,307588100e-02   -2,628862858e-01   -3,588186800e-01    0,000000000e+00    0,000000000e+00    0,000000000e+00    0,000000000e+00
     1178000000    7,374021690e-03   -3,184002936e-01   -3,455094099e-01   -1,370863616e-01    0,000000000e+00    0,000000000e+00    0,000000000e+00    0,000000000e+00
     1192000000   -2,846993208e-01   -3,704874814e-01   -2,964409888e-01    5,242484063e-02    0,000000000e+00    0,000000000e+00    0,000000000e+00    0,000000000e+00
     1206000000   -5,311908722e-01   -1,442185491e-01   -1,455720514e-01    1,686796546e-01    0,000000000e+00    0,000000000e+00    0,000000000e+00    0,000000000e+00
     1220000000   -5,081677437e-01    1,877629161e-01    2,489608712e-03    1,391629428e-01    0,000000000e+00    0,000000000e+00    0,000000000e+00    0,000000000e+00
     1234000000   -2,810822725e-01    3,714488149e-01    5,705301091e-02    5,392459780e-02    0,000000000e+00    0,000000000e+00    0,000000000e+00    0,000000000e+00
     1248000000   -4,000888765e-02    3,628978729e-01    4,218848795e-02   -1,081488212e-03    0,000000000e+00    0,000000000e+00    0,000000000e+00    0,000000000e+00
     1262000000    1,311633885e-01    2,513673902e-01    1,704547927e-02   -1,076662727e-02    0,000000000e+00    0,000000000e+00    0,000000000e+00    0,000000000e+00
     1276000000    2,118002325e-01    9,230657667e-02   -5,639074370e-03    1,254790835e-02    0,000000000e+00    0,000000000e+00    0,000000000e+00    0,000000000e+00
     1290000000    2,242181599e-01   -8,311060071e-02    2,611547709e-02    5,863714963e-02    0,000000000e+00    0,000000000e+00    0,000000000e+00    0,000000000e+00
     1304000000    1,536105871e-01   -2,459258884e-01    1,462193131e-01    6,802141666e-02    0,000000000e+00    0,000000000e+00    0,000000000e+00    0,000000000e+00
     1318000000    3,401814029e-02   -3,382637799e-01    1,237830743e-01   -1,799746603e-01    0,000000000e+00    0,000000000e+00    0,000000000e+00    0,000000000e+00
     1332000000   -1,270298064e-01   -4,411870837e-01   -4,780466855e-02   -5,779448897e-02    0,000000000e+00    0,000000000e+00    0,000000000e+00    0,000000000e+00
     1346000000   -3,955625594e-01   -4,103876948e-01    1,258407906e-02    5,649085715e-02    0,000000000e+00    0,000000000e+00    0,000000000e+00    0,000000000e+00
     1360000000   -6,116017699e-01   -1,918437630e-01    1,185171604e-01    6,316477805e-02    0,000000000e+00    0,000000000e+00    0,000000000e+00    0,000000000e+00
     1374000000   -6,317427158e-01    1,338918358e-01    1,910065562e-01    9,905605577e-03    0,000000000e+00    0,000000000e+00    0,000000000e+00    0,000000000e+00
     1388000000   -4,571362138e-01    3,615698814e-01    2,042968869e-01   -7,230729610e-02    0,000000000e+00    0,000000000e+00    0,000000000e+00    0,000000000e+00
     1402000000   -2,284795940e-01    4,486190975e-01    1,668038517e-01   -9,794230014e-02    0,000000000e+00    0,000000000e+00    0,000000000e+00    0,000000000e+00
     1416000000   -2,350256592e-02    4,093636870e-01    1,632352471e-01   -1,011017486e-01    0,000000000e+00    0,000000000e+00    0,000000000e+00    0,000000000e+00
     1430000000    1,320231855e-01    2,964346111e-01    1,495552063e-01   -1,351703107e-01    0,000000000e+00    0,000000000e+00    0,000000000e+00    0,000000000e+00
     1444000000    2,113014907e-01    1,425615698e-01    1,486384571e-01   -1,005619019e-01    0,000000000e+00    0,000000000e+00    0,000000000e+00    0,000000000e+00
     1458000000    2,354753911e-01   -2,968224324e-02    1,172606274e-01   -8,269283921e-02    0,000000000e+00    0,000000000e+00    0,000000000e+00    0,000000000e+00
     1472000000    1,916239113e-01   -2,115972042e-01    1,359264851e-01   -3,237514198e-02    0,000000000e+00    0,000000000e+00    0,000000000e+00    0,000000000e+00
     1486000000    5,447028950e-02   -3,787469268e-01    1,502535641e-01    2,000377141e-02    0,000000000e+00    0,000000000e+00    0,000000000e+00    0,000000000e+00
     1500000000   -1,838826388e-01   -4,768700004e-01    2,261009216e-01    9,374947846e-02    0,000000000e+00    0,000000000e+00    0,000000000e+00    0,000000000e+00
