! NanoVNA-App
! Date: 2025-09-26 09:42:26
! Start: 100MHz Stop: 1,5GHz Points: 101
! S-Parameter data: F S11 S21 S12 S22
# Hz S RI R 50
!     Frequency           S11_Real           S11_Imag           S21_Real           S21_Imag           S12_Real           S12_Imag           S22_Real           S22_Imag
      100000000   -2,896881104e-02   -4,483355209e-03    3,738780916e-01   -7,230516672e-01    0,000000000e+00    0,000000000e+00    0,000000000e+00    0,000000000e+00
      114000000   -1,688677631e-02    1,119783614e-02   -9,006565809e-02   -8,064751625e-01    0,000000000e+00    0,000000000e+00    0,000000000e+00    0,000000000e+00
      128000000    2,830191748e-03    1,051487774e-02   -5,158206820e-01   -6,208063960e-01    0,000000000e+00    0,000000000e+00    0,000000000e+00    0,000000000e+00
      142000000    1,402881928e-02   -2,625695197e-03   -7,685239911e-01   -2,360553443e-01    0,000000000e+00    0,000000000e+00    0,000000000e+00    0,000000000e+00
      156000000    1,560019609e-02   -1,424904633e-02   -7,732934952e-01    2,248243541e-01    0,000000000e+00    0,000000000e+00    0,000000000e+00    0,000000000e+00
      170000000    1,685450040e-02   -2,220656537e-02   -5,181704760e-01    6,064822674e-01    0,000000000e+00    0,000000000e+00    0,000000000e+00    0,000000000e+00
      184000000    2,116207033e-02   -3,712886944e-02   -1,002682075e-01    7,875494957e-01    0,000000000e+00    0,000000000e+00    0,000000000e+00    0,000000000e+00
      198000000    1,285556145e-02   -6,251457334e-02    3,448900282e-01    7,131755352e-01    0,000000000e+00    0,000000000e+00    0,000000000e+00    0,000000000e+00
      212000000   -1,887447760e-02   -8,111543953e-02    6,799814105e-01    4,099090397e-01    0,000000000e+00    0,000000000e+00    0,000000000e+00    0,000000000e+00
      226000000   -6,156523898e-02   -6,866380572e-02    7,975145578e-01   -3,130399063e-02    0,000000000e+00    0,000000000e+00    0,000000000e+00    0,000000000e+00
      240000000   -8,192323148e-02   -2,557191253e-02    6,474564075e-01   -4,682302773e-01    0,000000000e+00    0,000000000e+00    0,000000000e+00    0,000000000e+00
      254000000   -6,306228787e-02    1,686461270e-02    2,768128216e-01   -7,445402145e-01    0,000000000e+00    0,000000000e+00    0,000000000e+00    0,000000000e+00
      268000000   -2,363270521e-02    2,832070738e-02   -1,778075844e-01   -7,661825418e-01    0,000000000e+00    0,000000000e+00    0,000000000e+00    0,000000000e+00
      282000000    3,656494897e-03    1,134196296e-02   -5,626982450e-01   -5,374592543e-01    0,000000000e+00    0,000000000e+00    0,000000000e+00    0,000000000e+00
      296000000    9,364020079e-03   -7,789993659e-03   -7,617252469e-01   -1,410173178e-01    0,000000000e+00    0,000000000e+00    0,000000000e+00    0,000000000e+00
      310000000    1,104261167e-02   -1,605286635e-02   -7,151121497e-01    2,991122901e-01    0,000000000e+00    0,000000000e+00    0,000000000e+00    0,000000000e+00
      324000000    1,992006227e-02   -2,680357546e-02   -4,278850555e-01    6,397104859e-01    0,000000000e+00    0,000000000e+00    0,000000000e+00    0,000000000e+00
      338000000    2,565757371e-02   -5,268583074e-02   -9,554720484e-03    7,651571631e-01    0,000000000e+00    0,000000000e+00    0,000000000e+00    0,000000000e+00
      352000000    6,429732312e-03   -8,525220305e-02    4,063168466e-01    6,407579184e-01    0,000000000e+00    0,000000000e+00    0,000000000e+00    0,000000000e+00
      366000000   -3,546070680e-02   -9,519819915e-02    6,926319003e-01    3,124742210e-01    0,000000000e+00    0,000000000e+00    0,000000000e+00    0,000000000e+00
      380000000   -7,127549499e-02   -7,036718726e-02    7,492012382e-01   -1,268705726e-01    0,000000000e+00    0,000000000e+00    0,000000000e+00    0,000000000e+00
      394000000   -7,207994908e-02   -3,156901523e-02    5,486178994e-01   -5,216332078e-01    0,000000000e+00    0,000000000e+00    0,000000000e+00    0,000000000e+00
      408000000   -4,561121017e-02   -1,623435691e-02    1,626310498e-01   -7,334606647e-01    0,000000000e+00    0,000000000e+00    0,000000000e+00    0,000000000e+00
      422000000   -2,795248479e-02   -3,260331601e-02   -2,673935592e-01   -6,976692677e-01    0,000000000e+00    0,000000000e+00    0,000000000e+00    0,000000000e+00
      436000000   -4,098574072e-02   -5,238070711e-02   -6,055608392e-01   -4,342480302e-01    0,000000000e+00    0,000000000e+00    0,000000000e+00    0,000000000e+00
      450000000   -6,734134257e-02   -4,349097237e-02   -7,427462339e-01   -2,304608189e-02    0,000000000e+00    0,000000000e+00    0,000000000e+00    0,000000000e+00
      464000000   -7,285813987e-02   -1,131787430e-02   -6,206918955e-01    3,976882696e-01    0,000000000e+00    0,000000000e+00    0,000000000e+00    0,000000000e+00
      478000000   -4,721672833e-02    1,079075318e-02   -2,841980457e-01    6,683640480e-01    0,000000000e+00    0,000000000e+00    0,000000000e+00    0,000000000e+00
      492000000   -1,584527455e-02    4,891598132e-03    1,361560822e-01    7,039422393e-01    0,000000000e+00    0,000000000e+00    0,000000000e+00    0,000000000e+00
      506000000   -3,053033492e-03   -1,658581756e-02    4,998697042e-01    5,053778887e-01    0,000000000e+00    0,000000000e+00    0,000000000e+00    0,000000000e+00
      520000000   -5,771026481e-03   -3,106691875e-02    6,904236078e-01    1,431711316e-01    0,000000000e+00    0,000000000e+00    0,000000000e+00    0,000000000e+00
      534000000   -4,393824842e-03   -3,799306601e-02    6,455277801e-01   -2,627261281e-01    0,000000000e+00    0,000000000e+00    0,000000000e+00    0,000000000e+00
      548000000    6,377719343e-03   -5,377601832e-02    3,829497099e-01   -5,679851770e-01    0,000000000e+00    0,000000000e+00    0,000000000e+00    0,000000000e+00
      562000000    3,297573887e-03   -8,965881169e-02    2,908028895e-03   -6,737340689e-01    0,000000000e+00    0,000000000e+00    0,000000000e+00    0,000000000e+00
      576000000   -3,494594619e-02   -1,246845201e-01   -3,696034253e-01   -5,592125058e-01    0,000000000e+00    0,000000000e+00    0,000000000e+00    0,000000000e+00
      590000000   -9,703649580e-02   -1,222443357e-01   -6,238305569e-01   -2,643732429e-01    0,000000000e+00    0,000000000e+00    0,000000000e+00    0,000000000e+00
      604000000   -1,397638917e-01   -7,077107579e-02   -6,676038504e-01    1,372817457e-01    0,000000000e+00    0,000000000e+00    0,000000000e+00    0,000000000e+00
      618000000   -1,282497197e-01   -8,870953694e-03   -4,659343958e-01    4,950604141e-01    0,000000000e+00    0,000000000e+00    0,000000000e+00    0,000000000e+00
      632000000   -8,347830921e-02    1,620193198e-02   -9,976146370e-02    6,653880477e-01    0,000000000e+00    0,000000000e+00    0,000000000e+00    0,000000000e+00
      646000000   -5,075625703e-02   -7,158286171e-04    2,876115143e-01    5,970340371e-01    0,000000000e+00    0,000000000e+00    0,000000000e+00    0,000000000e+00
      660000000   -5,388108268e-02   -2,185188793e-02    5,688477159e-01    3,243227899e-01    0,000000000e+00    0,000000000e+00    0,000000000e+00    0,000000000e+00
      674000000   -7,137129456e-02   -1,740320772e-02    6,440276504e-01   -6,562379748e-02    0,000000000e+00    0,000000000e+00    0,000000000e+00    0,000000000e+00
      688000000   -6,813785434e-02    9,061548859e-03    4,718395472e-01   -4,286113083e-01    0,000000000e+00    0,000000000e+00    0,000000000e+00    0,000000000e+00
      702000000   -3,655902669e-02    2,751550078e-02    1,179009378e-01   -6,132685542e-01    0,000000000e+00    0,000000000e+00    0,000000000e+00    0,000000000e+00
      716000000    2,647023881e-03    1,647039317e-02   -2,652661800e-01   -5,494732261e-01    0,000000000e+00    0,000000000e+00    0,000000000e+00    0,000000000e+00
      730000000    3,607376665e-02   -1,080561336e-02   -5,303297639e-01   -2,696368098e-01    0,000000000e+00    0,000000000e+00    0,000000000e+00    0,000000000e+00
      744000000    6,585180759e-02   -6,305287033e-02   -5,655891299e-01    1,073845550e-01    0,000000000e+00    0,000000000e+00    0,000000000e+00    0,000000000e+00
      758000000    6,753175706e-02   -1,537942439e-01   -3,629716039e-01    4,107731879e-01    0,000000000e+00    0,000000000e+00    0,000000000e+00    0,000000000e+00
      772000000   -1,315891277e-02   -2,659931481e-01   -3,341840208e-02    5,154942870e-01    0,000000000e+00    0,000000000e+00    0,000000000e+00    0,000000000e+00
      786000000   -2,092284858e-01   -3,062985539e-01    2,754866779e-01    3,938657045e-01    0,000000000e+00    0,000000000e+00    0,000000000e+00    0,000000000e+00
      800000000   -4,296301305e-01   -1,295047104e-01    4,166159630e-01    9,562437981e-02    0,000000000e+00    0,000000000e+00    0,000000000e+00    0,000000000e+00
      814000000   -3,911255300e-01    2,271707058e-01    2,787389159e-01   -1,754497141e-01    0,000000000e+00    0,000000000e+00    0,000000000e+00    0,000000000e+00
      828000000   -4,575055093e-02    3,718547225e-01    5,124058574e-02   -1,881806403e-01    0,000000000e+00    0,000000000e+00    0,000000000e+00    0,000000000e+00
      842000000    2,398181260e-01    1,850386560e-01   -1,865092292e-02   -6,810194999e-02    0,000000000e+00    0,000000000e+00    0,000000000e+00    0,000000000e+00
      856000000    2,825959325e-01   -1,282348782e-01    4,493959621e-02   -1,132782828e-02    0,000000000e+00    0,000000000e+00    0,000000000e+00    0,000000000e+00
      870000000    7,338905334e-02   -3,811614811e-01    1,131821871e-01   -9,072063118e-02    0,000000000e+00    0,000000000e+00    0,000000000e+00    0,000000000e+00
      884000000   -2,994865775e-01   -3,627589643e-01    2,770655416e-02   -2,447726727e-01    0,000000000e+00    0,000000000e+00    0,000000000e+00    0,000000000e+00
      898000000   -4,768710434e-01    1,063846610e-02   -2,220888287e-01   -2,260762155e-01    0,000000000e+00    0,000000000e+00    0,000000000e+00    0,000000000e+00
      912000000   -2,277810425e-01    2,992015481e-01   -3,384224176e-01    7,137201726e-02    0,000000000e+00    0,000000000e+00    0,000000000e+00    0,000000000e+00
      926000000    7,030597329e-02    2,673708200e-01   -2,173695862e-01    2,618378401e-01    0,000000000e+00    0,000000000e+00    0,000000000e+00    0,000000000e+00
      940000000    2,203137428e-01    8,160374314e-02   -3,968814388e-02    3,273897469e-01    0,000000000e+00    0,000000000e+00    0,000000000e+00    0,000000000e+00
      954000000    2,254867554e-01   -1,315418482e-01    1,244565398e-01    3,072484732e-01    0,000000000e+00    0,000000000e+00    0,000000000e+00    0,000000000e+00
      968000000    1,148858666e-01   -3,028511405e-01    2,664190829e-01    2,212612778e-01    0,000000000e+00    0,000000000e+00    0,000000000e+00    0,000000000e+00
      982000000   -8,559568226e-02   -3,903566301e-01    3,615951240e-01    6,979980320e-02    0,000000000e+00    0,000000000e+00    0,000000000e+00    0,000000000e+00
      996000000   -3,231664896e-01   -3,309205770e-01    3,663297892e-01   -1,414825022e-01    0,000000000e+00    0,000000000e+00    0,000000000e+00    0,000000000e+00
     1010000000   -4,645007253e-01   -1,088323966e-01    2,215057462e-01   -3,374438882e-01    0,000000000e+00    0,000000000e+00    0,000000000e+00    0,000000000e+00
     1024000000   -4,123969972e-01    1,538913548e-01   -3,361309320e-02   -3,890373409e-01    0,000000000e+00    0,000000000e+00    0,000000000e+00    0,000000000e+00
     1038000000   -2,184808105e-01    2,937878072e-01   -2,461975813e-01   -2,586592138e-01    0,000000000e+00    0,000000000e+00    0,000000000e+00    0,000000000e+00
     1052000000   -9,300313890e-03    2,797642052e-01   -3,160057664e-01   -4,614873230e-02    0,000000000e+00    0,000000000e+00    0,000000000e+00    0,000000000e+00
     1066000000    1,387640834e-01    1,609775126e-01   -2,579851151e-01    1,434213817e-01    0,000000000e+00    0,000000000e+00    0,000000000e+00    0,000000000e+00
     1080000000    1,993037313e-01   -4,128166009e-03   -1,237085685e-01    2,634668350e-01    0,000000000e+00    0,000000000e+00    0,000000000e+00    0,000000000e+00
     1094000000    1,524355710e-01   -1,789716333e-01    5,887873471e-02    3,057379723e-01    0,000000000e+00    0,000000000e+00    0,000000000e+00    0,000000000e+00
     1108000000   -3,288672771e-03   -3,086590767e-01    2,713374794e-01    2,514727712e-01    0,000000000e+00    0,000000000e+00    0,000000000e+00    0,000000000e+00
     1122000000   -2,518934608e-01   -2,577988505e-01    4,689059854e-01    1,422339585e-02    0,000000000e+00    0,000000000e+00    0,000000000e+00    0,000000000e+00
     1136000000   -3,145398200e-01    4,202361032e-02    3,911372423e-01   -3,803321421e-01    0,000000000e+00    0,000000000e+00    0,000000000e+00    0,000000000e+00
     1150000000   -2,270383202e-02    1,490151733e-01    1,509390539e-03   -5,207716227e-01    0,000000000e+00    0,000000000e+00    0,000000000e+00    0,000000000e+00
     1164000000    1,283892840e-01   -7,989750803e-02   -2,647697926e-01   -3,578096032e-01    0,000000000e+00    0,000000000e+00    0,000000000e+00    0,000000000e+00
     1178000000    8,448724635e-03   -3,171015084e-01   -3,490667939e-01   -1,369218379e-01    0,000000000e+00    0,000000000e+00    0,000000000e+00    0,000000000e+00
     1192000000   -2,854687274e-01   -3,714380264e-01   -3,036448956e-01    5,975340307e-02    0,000000000e+00    0,000000000e+00    0,000000000e+00    0,000000000e+00
     1206000000   -5,325639248e-01   -1,546009928e-01   -1,488615870e-01    1,614966989e-01    0,000000000e+00    0,000000000e+00    0,000000000e+00    0,000000000e+00
     1220000000   -5,048751831e-01    1,752805263e-01    1,562285703e-03    1,396488100e-01    0,000000000e+00    0,000000000e+00    0,000000000e+00    0,000000000e+00
     1234000000   -2,762181163e-01    3,638179302e-01    6,365200132e-02    5,695758015e-02    0,000000000e+00    0,000000000e+00    0,000000000e+00    0,000000000e+00
     1248000000   -3,418585286e-02    3,611327112e-01    4,671058059e-02   -8,441716433e-03    0,000000000e+00    0,000000000e+00    0,000000000e+00    0,000000000e+00
     1262000000    1,290217787e-01    2,541190982e-01    1,638615504e-02   -1,230809651e-02    0,000000000e+00    0,000000000e+00    0,000000000e+00    0,000000000e+00
     1276000000    2,132094204e-01    9,291089326e-02   -5,556809716e-03    1,068832353e-02    0,000000000e+00    0,000000000e+00    0,000000000e+00    0,000000000e+00
     1290000000    2,231230736e-01   -7,608754933e-02    2,930563316e-02    6,120038778e-02    0,000000000e+00    0,000000000e+00    0,000000000e+00    0,000000000e+00
     1304000000    1,501353830e-01   -2,469346821e-01    1,437604576e-01    6,851195544e-02    0,000000000e+00    0,000000000e+00    0,000000000e+00    0,000000000e+00
     1318000000    3,425497562e-02   -3,356823921e-01    1,199037284e-01   -1,760086119e-01    0,000000000e+00    0,000000000e+00    0,000000000e+00    0,000000000e+00
     1332000000   -1,324933618e-01   -4,422560930e-01   -4,777783528e-02   -6,011166424e-02    0,000000000e+00    0,000000000e+00    0,000000000e+00    0,000000000e+00
     1346000000   -4,017015994e-01   -4,067253470e-01    2,070733905e-02    6,201848015e-02    0,000000000e+00    0,000000000e+00    0,000000000e+00    0,000000000e+00
     1360000000   -6,093972921e-01   -1,872839034e-01    1,226084381e-01    6,580196321e-02    0,000000000e+00    0,000000000e+00    0,000000000e+00    0,000000000e+00
     1374000000   -6,269896030e-01    1,345796436e-01    1,932967156e-01    1,132104732e-02    0,000000000e+00    0,000000000e+00    0,000000000e+00    0,000000000e+00
     1388000000   -4,641393423e-01    3,718816340e-01    1,898251027e-01   -5,538276583e-02    0,000000000e+00    0,000000000e+00    0,000000000e+00    0,000000000e+00
     1402000000   -2,218296975e-01    4,511144459e-01    1,763781011e-01   -9,694605321e-02    0,000000000e+00    0,000000000e+00    0,000000000e+00    0,000000000e+00
     1416000000   -1,888153329e-02    4,080823660e-01    1,583522856e-01   -1,108782589e-01    0,000000000e+00    0,000000000e+00    0,000000000e+00    0,000000000e+00
     1430000000    1,259878278e-01    2,908263803e-01    1,543180645e-01   -9,764750302e-02    0,000000000e+00    0,000000000e+00    0,000000000e+00    0,000000000e+00
     1444000000    2,096879780e-01    1,470559239e-01    1,320964545e-01   -1,007238179e-01    0,000000000e+00    0,000000000e+00    0,000000000e+00    0,000000000e+00
     1458000000    2,373543382e-01   -2,251651697e-02    1,276762486e-01   -7,349242270e-02    0,000000000e+00    0,000000000e+00    0,000000000e+00    0,000000000e+00
     1472000000    1,891068220e-01   -2,122774422e-01    1,200417578e-01   -4,032898694e-02    0,000000000e+00    0,000000000e+00    0,000000000e+00    0,000000000e+00
     1486000000    5,772725120e-02   -3,800815940e-01    1,629718840e-01    1,568148658e-02    0,000000000e+00    0,000000000e+00    0,000000000e+00    0,000000000e+00
     1500000000   -1,868563145e-01   -4,881981611e-01    2,230199426e-01    9,921669960e-02    0,000000000e+00    0,000000000e+00    0,000000000e+00    0,000000000e+00
