! NanoVNA-App
! Date: 2025-09-26 09:42:47
! Start: 100MHz Stop: 1,5GHz Points: 101
! S-Parameter data: F S11 S21 S12 S22
# Hz S RI R 50
!     Frequency           S11_Real           S11_Imag           S21_Real           S21_Imag           S12_Real           S12_Imag           S22_Real           S22_Imag
      100000000   -2,899198234e-02   -4,486916121e-03    3,738951087e-01   -7,230421901e-01    0,000000000e+00    0,000000000e+00    0,000000000e+00    0,000000000e+00
      114000000   -1,688228548e-02    1,123456936e-02   -8,996517956e-02   -8,062756658e-01    0,000000000e+00    0,000000000e+00    0,000000000e+00    0,000000000e+00
      128000000    2,913046628e-03    1,051859837e-02   -5,159100890e-01   -6,210950017e-01    0,000000000e+00    0,000000000e+00    0,000000000e+00    0,000000000e+00
      142000000    1,402644068e-02   -2,641584957e-03   -7,686080337e-01   -2,363234609e-01    0,000000000e+00    0,000000000e+00    0,000000000e+00    0,000000000e+00
      156000000    1,492861845e-02   -1,462832559e-02   -7,699558735e-01    2,210648060e-01    0,000000000e+00    0,000000000e+00    0,000000000e+00    0,000000000e+00
      170000000    1,681882143e-02   -2,224256471e-02   -5,180298686e-01    6,063128710e-01    0,000000000e+00    0,000000000e+00    0,000000000e+00    0,000000000e+00
      184000000    2,116596512e-02   -3,712068498e-02   -1,003739536e-01    7,874890566e-01    0,000000000e+00    0,000000000e+00    0,000000000e+00    0,000000000e+00
      198000000    1,283848006e-02   -6,252435595e-02    3,449080586e-01    7,129739523e-01    0,000000000e+00    0,000000000e+00    0,000000000e+00    0,000000000e+00
      212000000   -1,887571812e-02   -8,109244704e-02    6,798375845e-01    4,099089503e-01    0,000000000e+00    0,000000000e+00    0,000000000e+00    0,000000000e+00
      226000000   -6,154212728e-02   -6,865992397e-02    7,973820567e-01   -3,123127297e-02    0,000000000e+00    0,000000000e+00    0,000000000e+00    0,000000000e+00
      240000000   -8,195731789e-02   -2,548713610e-02    6,477137208e-01   -4,685694873e-01    0,000000000e+00    0,000000000e+00    0,000000000e+00    0,000000000e+00
      254000000   -6,305769831e-02    1,681368053e-02    2,770071030e-01   -7,450216413e-01    0,000000000e+00    0,000000000e+00    0,000000000e+00    0,000000000e+00
      268000000   -2,369230054e-02    2,835781686e-02   -1,775522828e-01   -7,663457394e-01    0,000000000e+00    0,000000000e+00    0,000000000e+00    0,000000000e+00
      282000000    3,606487997e-03    1,141068526e-02   -5,629849434e-01   -5,379830003e-01    0,000000000e+00    0,000000000e+00    0,000000000e+00    0,000000000e+00
      296000000    9,329992346e-03   -7,879384793e-03   -7,612104416e-01   -1,408431232e-01    0,000000000e+00    0,000000000e+00    0,000000000e+00    0,000000000e+00
      310000000    1,121338736e-02   -1,589861512e-02   -7,145467997e-01    3,002549410e-01    0,000000000e+00    0,000000000e+00    0,000000000e+00    0,000000000e+00
      324000000    1,974505000e-02   -2,672354132e-02   -4,277396798e-01    6,388841271e-01    0,000000000e+00    0,000000000e+00    0,000000000e+00    0,000000000e+00
      338000000    2,568451501e-02   -5,254020914e-02   -9,758520871e-03    7,616317868e-01    0,000000000e+00    0,000000000e+00    0,000000000e+00    0,000000000e+00
      352000000    6,915599573e-03   -8,544895053e-02    4,074862301e-01    6,415098310e-01    0,000000000e+00    0,000000000e+00    0,000000000e+00    0,000000000e+00
      366000000   -3,553469107e-02   -9,521456808e-02    6,917675734e-01    3,126558065e-01    0,000000000e+00    0,000000000e+00    0,000000000e+00    0,000000000e+00
      380000000   -7,116686553e-02   -7,025204599e-02    7,501118183e-01   -1,267565340e-01    0,000000000e+00    0,000000000e+00    0,000000000e+00    0,000000000e+00
      394000000   -7,220400125e-02   -3,180687502e-02    5,472517610e-01   -5,230852962e-01    0,000000000e+00    0,000000000e+00    0,000000000e+00    0,000000000e+00
      408000000   -4,578923807e-02   -1,616300829e-02    1,617417932e-01   -7,342303991e-01    0,000000000e+00    0,000000000e+00    0,000000000e+00    0,000000000e+00
      422000000   -2,817394584e-02   -3,238289803e-02   -2,684160471e-01   -6,972090602e-01    0,000000000e+00    0,000000000e+00    0,000000000e+00    0,000000000e+00
      436000000   -4,090097174e-02   -5,227493122e-02   -6,050794721e-01   -4,340913892e-01    0,000000000e+00    0,000000000e+00    0,000000000e+00    0,000000000e+00
      450000000   -6,744097918e-02   -4,380460829e-02   -7,425702810e-01   -2,230777778e-02    0,000000000e+00    0,000000000e+00    0,000000000e+00    0,000000000e+00
      464000000   -7,303193957e-02   -1,175640058e-02   -6,206115484e-01    3,978811800e-01    0,000000000e+00    0,000000000e+00    0,000000000e+00    0,000000000e+00
      478000000   -4,717432708e-02    1,135762874e-02   -2,835250497e-01    6,694426537e-01    0,000000000e+00    0,000000000e+00    0,000000000e+00    0,000000000e+00
      492000000   -1,566193812e-02    5,154501647e-03    1,367160827e-01    7,040706873e-01    0,000000000e+00    0,000000000e+00    0,000000000e+00    0,000000000e+00
      506000000   -3,207986243e-03   -1,629140042e-02    4,993615150e-01    5,050980449e-01    0,000000000e+00    0,000000000e+00    0,000000000e+00    0,000000000e+00
      520000000   -6,048281677e-03   -3,159457818e-02    6,892413497e-01    1,419132650e-01    0,000000000e+00    0,000000000e+00    0,000000000e+00    0,000000000e+00
      534000000   -4,163126927e-03   -3,759406880e-02    6,455612183e-01   -2,627644241e-01    0,000000000e+00    0,000000000e+00    0,000000000e+00    0,000000000e+00
      548000000    6,124180276e-03   -5,367083102e-02    3,828575611e-01   -5,686475635e-01    0,000000000e+00    0,000000000e+00    0,000000000e+00    0,000000000e+00
      562000000    3,630328225e-03   -9,006585181e-02    2,838654211e-03   -6,739290357e-01    0,000000000e+00    0,000000000e+00    0,000000000e+00    0,000000000e+00
      576000000   -3,443472087e-02   -1,247425079e-01   -3,690519929e-01   -5,588058233e-01    0,000000000e+00    0,000000000e+00    0,000000000e+00    0,000000000e+00
      590000000   -9,685171396e-02   -1,225286722e-01   -6,216778159e-01   -2,660849392e-01    0,000000000e+00    0,000000000e+00    0,000000000e+00    0,000000000e+00
      604000000   -1,395094991e-01   -7,087067515e-02   -6,677801609e-01    1,373913586e-01    0,000000000e+00    0,000000000e+00    0,000000000e+00    0,000000000e+00
      618000000   -1,281439662e-01   -8,855741471e-03   -4,666467607e-01    4,954245389e-01    0,000000000e+00    0,000000000e+00    0,000000000e+00    0,000000000e+00
      632000000   -8,242605627e-02    1,632698253e-02   -1,008312106e-01    6,659598947e-01    0,000000000e+00    0,000000000e+00    0,000000000e+00    0,000000000e+00
      646000000   -5,163728073e-02   -1,275070943e-03    2,869357467e-01    5,968765020e-01    0,000000000e+00    0,000000000e+00    0,000000000e+00    0,000000000e+00
      660000000   -5,487756431e-02   -2,244360186e-02    5,694101453e-01    3,246228695e-01    0,000000000e+00    0,000000000e+00    0,000000000e+00    0,000000000e+00
      674000000   -7,158300281e-02   -1,744923554e-02    6,441812515e-01   -6,555584818e-02    0,000000000e+00    0,000000000e+00    0,000000000e+00    0,000000000e+00
      688000000   -6,771571934e-02    1,040679123e-02    4,724197388e-01   -4,284090102e-01    0,000000000e+00    0,000000000e+00    0,000000000e+00    0,000000000e+00
      702000000   -3,660387546e-02    2,654300816e-02    1,182222068e-01   -6,084143519e-01    0,000000000e+00    0,000000000e+00    0,000000000e+00    0,000000000e+00
      716000000    2,807485173e-03    1,656847633e-02   -2,659293711e-01   -5,475047827e-01    0,000000000e+00    0,000000000e+00    0,000000000e+00    0,000000000e+00
      730000000    3,672844917e-02   -1,193981897e-02   -5,299122334e-01   -2,698355019e-01    0,000000000e+00    0,000000000e+00    0,000000000e+00    0,000000000e+00
      744000000    6,618841738e-02   -6,253109127e-02   -5,658375025e-01    1,074233726e-01    0,000000000e+00    0,000000000e+00    0,000000000e+00    0,000000000e+00
      758000000    6,743761152e-02   -1,533260792e-01   -3,627935052e-01    4,120651782e-01    0,000000000e+00    0,000000000e+00    0,000000000e+00    0,000000000e+00
      772000000   -1,245885249e-02   -2,648944259e-01   -3,388699144e-02    5,164028406e-01    0,000000000e+00    0,000000000e+00    0,000000000e+00    0,000000000e+00
      786000000   -2,092835158e-01   -3,045860231e-01    2,754381001e-01    3,938021064e-01    0,000000000e+00    0,000000000e+00    0,000000000e+00    0,000000000e+00
      800000000   -4,308004975e-01   -1,281271726e-01    4,168288410e-01    9,542141110e-02    0,000000000e+00    0,000000000e+00    0,000000000e+00    0,000000000e+00
      814000000   -3,913250566e-01    2,266380638e-01    2,786042094e-01   -1,758930236e-01    0,000000000e+00    0,000000000e+00    0,000000000e+00    0,000000000e+00
      828000000   -4,665246233e-02    3,708992600e-01    5,114717409e-02   -1,893074811e-01    0,000000000e+00    0,000000000e+00    0,000000000e+00    0,000000000e+00
      842000000    2,389363945e-01    1,848773211e-01   -1,937588304e-02   -6,881927699e-02    0,000000000e+00    0,000000000e+00    0,000000000e+00    0,000000000e+00
      856000000    2,828751802e-01   -1,281163841e-01    4,459710792e-02   -1,123915985e-02    0,000000000e+00    0,000000000e+00    0,000000000e+00    0,000000000e+00
      870000000    7,381445915e-02   -3,809243441e-01    1,138652936e-01   -9,049545228e-02    0,000000000e+00    0,000000000e+00    0,000000000e+00    0,000000000e+00
      884000000   -2,990293801e-01   -3,640875518e-01    2,746460773e-02   -2,444608063e-01    0,000000000e+00    0,000000000e+00    0,000000000e+00    0,000000000e+00
      898000000   -4,752070010e-01    1,015731599e-02   -2,212849855e-01   -2,258475423e-01    0,000000000e+00    0,000000000e+00    0,000000000e+00    0,000000000e+00
      912000000   -2,282059491e-01    2,989778817e-01   -3,527970910e-01    6,286071241e-02    0,000000000e+00    0,000000000e+00    0,000000000e+00    0,000000000e+00
      926000000    6,813082099e-02    2,655798793e-01   -2,182685137e-01    2,592123449e-01    0,000000000e+00    0,000000000e+00    0,000000000e+00    0,000000000e+00
      940000000    2,187991589e-01    7,849235088e-02   -4,006360471e-02    3,275232613e-01    0,000000000e+00    0,000000000e+00    0,000000000e+00    0,000000000e+00
      954000000    2,252820283e-01   -1,280234456e-01    1,266936362e-01    3,070543706e-01    0,000000000e+00    0,000000000e+00    0,000000000e+00    0,000000000e+00
      968000000    1,171102300e-01   -3,056271672e-01    2,669943273e-01    2,193723172e-01    0,000000000e+00    0,000000000e+00    0,000000000e+00    0,000000000e+00
      982000000   -8,355352283e-02   -3,897526860e-01    3,623695374e-01    7,014409453e-02    0,000000000e+00    0,000000000e+00    0,000000000e+00    0,000000000e+00
      996000000   -3,219785690e-01   -3,286738992e-01    3,663577735e-01   -1,416157484e-01    0,000000000e+00    0,000000000e+00    0,000000000e+00    0,000000000e+00
     1010000000   -4,650779366e-01   -1,117323339e-01    2,211964577e-01   -3,378115892e-01    0,000000000e+00    0,000000000e+00    0,000000000e+00    0,000000000e+00
     1024000000   -4,206673801e-01    1,521649659e-01   -3,203960881e-02   -3,910517097e-01    0,000000000e+00    0,000000000e+00    0,000000000e+00    0,000000000e+00
     1038000000   -2,206585109e-01    2,949562073e-01   -2,458079457e-01   -2,592742443e-01    0,000000000e+00    0,000000000e+00    0,000000000e+00    0,000000000e+00
     1052000000   -7,168840151e-03    2,794340551e-01   -3,171439171e-01   -4,476067051e-02    0,000000000e+00    0,000000000e+00    0,000000000e+00    0,000000000e+00
     1066000000    1,392126828e-01    1,599916369e-01   -2,587331235e-01    1,404775381e-01    0,000000000e+00    0,000000000e+00    0,000000000e+00    0,000000000e+00
     1080000000    1,987462193e-01   -4,817055073e-03   -1,222149357e-01    2,623945475e-01    0,000000000e+00    0,000000000e+00    0,000000000e+00    0,000000000e+00
     1094000000    1,559385210e-01   -1,816765964e-01    5,954379216e-02    3,065602481e-01    0,000000000e+00    0,000000000e+00    0,000000000e+00    0,000000000e+00
     1108000000   -3,610644955e-03   -3,103789091e-01    2,689778805e-01    2,512527704e-01    0,000000000e+00    0,000000000e+00    0,000000000e+00    0,000000000e+00
     1122000000   -2,595110238e-01   -2,575110495e-01    4,669834971e-01    1,739826612e-02    0,000000000e+00    0,000000000e+00    0,000000000e+00    0,000000000e+00
     1136000000   -3,156283498e-01    4,510368034e-02    3,912464380e-01   -3,834216297e-01    0,000000000e+00    0,000000000e+00    0,000000000e+00    0,000000000e+00
     1150000000   -2,215114608e-02    1,480541676e-01    6,263513584e-03   -5,237390995e-01    0,000000000e+00    0,000000000e+00    0,000000000e+00    0,000000000e+00
     1164000000    1,287392825e-01   -7,702889293e-02   -2,636227906e-01   -3,594367504e-01    0,000000000e+00    0,000000000e+00    0,000000000e+00    0,000000000e+00
     1178000000    8,263915777e-03   -3,176285625e-01   -3,492544591e-01   -1,419342011e-01    0,000000000e+00    0,000000000e+00    0,000000000e+00    0,000000000e+00
     1192000000   -2,804581225e-01   -3,748453557e-01   -2,989788055e-01    5,439618602e-02    0,000000000e+00    0,000000000e+00    0,000000000e+00    0,000000000e+00
     1206000000   -5,245163441e-01   -1,553669274e-01   -1,468681991e-01    1,661824286e-01    0,000000000e+00    0,000000000e+00    0,000000000e+00    0,000000000e+00
     1220000000   -5,103310347e-01    1,843043864e-01    1,637315960e-03    1,400002688e-01    0,000000000e+00    0,000000000e+00    0,000000000e+00    0,000000000e+00
     1234000000   -2,744667530e-01    3,676085770e-01    6,237452477e-02    5,420839787e-02    0,000000000e+00    0,000000000e+00    0,000000000e+00    0,000000000e+00
     1248000000   -3,610920534e-02    3,678467870e-01    4,908129573e-02   -8,085178211e-03    0,000000000e+00    0,000000000e+00    0,000000000e+00    0,000000000e+00
     1262000000    1,262698472e-01    2,501283586e-01    7,983611897e-03   -1,399774291e-02    0,000000000e+00    0,000000000e+00    0,000000000e+00    0,000000000e+00
     1276000000    2,141204178e-01    9,621237218e-02    1,894202898e-03    1,675048284e-02    0,000000000e+00    0,000000000e+00    0,000000000e+00    0,000000000e+00
     1290000000    2,266548276e-01   -8,313771337e-02    3,169531003e-02    5,708907545e-02    0,000000000e+00    0,000000000e+00    0,000000000e+00    0,000000000e+00
     1304000000    1,537831575e-01   -2,463213652e-01    1,508560628e-01    6,423295289e-02    0,000000000e+00    0,000000000e+00    0,000000000e+00    0,000000000e+00
     1318000000    3,501887247e-02   -3,367666304e-01    1,187525541e-01   -1,722020209e-01    0,000000000e+00    0,000000000e+00    0,000000000e+00    0,000000000e+00
     1332000000   -1,337320656e-01   -4,406886995e-01   -5,216468871e-02   -4,516656324e-02    0,000000000e+00    0,000000000e+00    0,000000000e+00    0,000000000e+00
     1346000000   -3,874762654e-01   -4,093705118e-01    2,022230625e-02    5,782478675e-02    0,000000000e+00    0,000000000e+00    0,000000000e+00    0,000000000e+00
     1360000000   -5,996348858e-01   -1,823466420e-01    1,318129599e-01    6,612718105e-02    0,000000000e+00    0,000000000e+00    0,000000000e+00    0,000000000e+00
     1374000000   -6,305570602e-01    1,243507192e-01    1,949002296e-01    2,128541470e-03    0,000000000e+00    0,000000000e+00    0,000000000e+00    0,000000000e+00
     1388000000   -4,630360007e-01    3,650966883e-01    2,029102892e-01   -5,542264134e-02    0,000000000e+00    0,000000000e+00    0,000000000e+00    0,000000000e+00
     1402000000   -2,248350531e-01    4,445766807e-01    1,744664311e-01   -1,002161354e-01    0,000000000e+00    0,000000000e+00    0,000000000e+00    0,000000000e+00
     1416000000   -2,513486892e-02    4,104862511e-01    1,635826975e-01   -1,010791436e-01    0,000000000e+00    0,000000000e+00    0,000000000e+00    0,000000000e+00
     1430000000    1,275524050e-01    3,038427830e-01    1,542241126e-01   -1,083296016e-01    0,000000000e+00    0,000000000e+00    0,000000000e+00    0,000000000e+00
     1444000000    2,135020643e-01    1,470818818e-01    1,360768080e-01   -9,606666863e-02    0,000000000e+00    0,000000000e+00    0,000000000e+00    0,000000000e+00
     1458000000    2,344990522e-01   -3,127969801e-02    1,279352307e-01   -8,165095747e-02    0,000000000e+00    0,000000000e+00    0,000000000e+00    0,000000000e+00
     1472000000    1,908685118e-01   -2,089855373e-01    1,330314130e-01   -3,733992204e-02    0,000000000e+00    0,000000000e+00    0,000000000e+00    0,000000000e+00
     1486000000    5,268371478e-02   -3,812166750e-01    1,483712196e-01    1,428113692e-02    0,000000000e+00    0,000000000e+00    0,000000000e+00    0,000000000e+00
     1500000000   -1,837599874e-01   -4,910740554e-01    2,339638025e-01    9,269182384e-02    0,000000000e+00    0,000000000e+00    0,000000000e+00    0,000000000e+00
