! NanoVNA-App
! Date: 2025-09-26 09:42:37
! Start: 100MHz Stop: 1,5GHz Points: 101
! S-Parameter data: F S11 S21 S12 S22
# Hz S RI R 50
!     Frequency           S11_Real           S11_Imag           S21_Real           S21_Imag           S12_Real           S12_Imag           S22_Real           S22_Imag
      100000000   -2,899005078e-02   -4,495006055e-03    3,738425970e-01   -7,230184674e-01    0,000000000e+00    0,000000000e+00    0,000000000e+00    0,000000000e+00
      114000000   -1,688395254e-02    1,123783458e-02   -8,984193206e-02   -8,065486550e-01    0,000000000e+00    0,000000000e+00    0,000000000e+00    0,000000000e+00
      128000000    2,902639331e-03    1,049131341e-02   -5,161585212e-01   -6,210553050e-01    0,000000000e+00    0,000000000e+00    0,000000000e+00    0,000000000e+00
      142000000    1,404068153e-02   -2,632160205e-03   -7,685160041e-01   -2,361806631e-01    0,000000000e+00    0,000000000e+00    0,000000000e+00    0,000000000e+00
      156000000    1,462975889e-02   -1,424841117e-02   -7,669813037e-01    2,229223996e-01    0,000000000e+00    0,000000000e+00    0,000000000e+00    0,000000000e+00
      170000000    1,678480394e-02   -2,222055010e-02   -5,181446671e-01    6,064108014e-01    0,000000000e+00    0,000000000e+00    0,000000000e+00    0,000000000e+00
      184000000    2,113990858e-02   -3,713309392e-02   -1,002328172e-01    7,876695991e-01    0,000000000e+00    0,000000000e+00    0,000000000e+00    0,000000000e+00
      198000000    1,282645576e-02   -6,250527501e-02    3,448540270e-01    7,129763961e-01    0,000000000e+00    0,000000000e+00    0,000000000e+00    0,000000000e+00
      212000000   -1,889136992e-02   -8,108361065e-02    6,797816753e-01    4,097806811e-01    0,000000000e+00    0,000000000e+00    0,000000000e+00    0,000000000e+00
      226000000   -6,155768782e-02   -6,863196194e-02    7,973923087e-01   -3,127557039e-02    0,000000000e+00    0,000000000e+00    0,000000000e+00    0,000000000e+00
      240000000   -8,198101074e-02   -2,553176694e-02    6,474952698e-01   -4,682453573e-01    0,000000000e+00    0,000000000e+00    0,000000000e+00    0,000000000e+00
      254000000   -6,307360530e-02    1,682947017e-02    2,770275176e-01   -7,451215982e-01    0,000000000e+00    0,000000000e+00    0,000000000e+00    0,000000000e+00
      268000000   -2,356225066e-02    2,825575136e-02   -1,779252440e-01   -7,663600445e-01    0,000000000e+00    0,000000000e+00    0,000000000e+00    0,000000000e+00
      282000000    3,624962876e-03    1,145186648e-02   -5,627020597e-01   -5,376893282e-01    0,000000000e+00    0,000000000e+00    0,000000000e+00    0,000000000e+00
      296000000    9,336765856e-03   -7,793027442e-03   -7,614939809e-01   -1,408329606e-01    0,000000000e+00    0,000000000e+00    0,000000000e+00    0,000000000e+00
      310000000    1,122379769e-02   -1,602349803e-02   -7,132037282e-01    3,002194464e-01    0,000000000e+00    0,000000000e+00    0,000000000e+00    0,000000000e+00
      324000000    2,003932931e-02   -2,656425908e-02   -4,279407561e-01    6,400257945e-01    0,000000000e+00    0,000000000e+00    0,000000000e+00    0,000000000e+00
      338000000    2,519945242e-02   -5,240575597e-02   -6,339671090e-03    7,631795406e-01    0,000000000e+00    0,000000000e+00    0,000000000e+00    0,000000000e+00
      352000000    6,539720576e-03   -8,533130586e-02    4,064394832e-01    6,406317949e-01    0,000000000e+00    0,000000000e+00    0,000000000e+00    0,000000000e+00
      366000000   -3,551439941e-02   -9,504519403e-02    6,925906539e-01    3,126793504e-01    0,000000000e+00    0,000000000e+00    0,000000000e+00    0,000000000e+00
      380000000   -7,096047699e-02   -7,024644315e-02    7,497922778e-01   -1,258260012e-01    0,000000000e+00    0,000000000e+00    0,000000000e+00    0,000000000e+00
      394000000   -7,225212455e-02   -3,150488064e-02    5,478191376e-01   -5,218912363e-01    0,000000000e+00    0,000000000e+00    0,000000000e+00    0,000000000e+00
      408000000   -4,592464492e-02   -1,617570408e-02    1,617337167e-01   -7,344768643e-01    0,000000000e+00    0,000000000e+00    0,000000000e+00    0,000000000e+00
      422000000   -2,789799497e-02   -3,261189535e-02   -2,671990693e-01   -6,986473203e-01    0,000000000e+00    0,000000000e+00    0,000000000e+00    0,000000000e+00
      436000000   -4,086037725e-02   -5,217514932e-02   -6,049145460e-01   -4,338232279e-01    0,000000000e+00    0,000000000e+00    0,000000000e+00    0,000000000e+00
      450000000   -6,731712073e-02   -4,404272139e-02   -7,426318526e-01   -2,235429548e-02    0,000000000e+00    0,000000000e+00    0,000000000e+00    0,000000000e+00
      464000000   -7,280351967e-02   -1,158387307e-02   -6,211587191e-01    3,974866569e-01    0,000000000e+00    0,000000000e+00    0,000000000e+00    0,000000000e+00
      478000000   -4,727843404e-02    1,132707391e-02   -2,841465175e-01    6,691018343e-01    0,000000000e+00    0,000000000e+00    0,000000000e+00    0,000000000e+00
      492000000   -1,578249969e-02    4,671827890e-03    1,372507215e-01    7,032191753e-01    0,000000000e+00    0,000000000e+00    0,000000000e+00    0,000000000e+00
      506000000   -3,255629912e-03   -1,684666984e-02    4,992851615e-01    5,048793554e-01    0,000000000e+00    0,000000000e+00    0,000000000e+00    0,000000000e+00
      520000000   -5,899788812e-03   -3,162606433e-02    6,901300550e-01    1,415352821e-01    0,000000000e+00    0,000000000e+00    0,000000000e+00    0,000000000e+00
      534000000   -4,304264206e-03   -3,745109588e-02    6,451304555e-01   -2,629699707e-01    0,000000000e+00    0,000000000e+00    0,000000000e+00    0,000000000e+00
      548000000    6,501968950e-03   -5,392940342e-02    3,836752772e-01   -5,682991743e-01    0,000000000e+00    0,000000000e+00    0,000000000e+00    0,000000000e+00
      562000000    3,481345018e-03   -8,977577835e-02    2,996100811e-03   -6,737341285e-01    0,000000000e+00    0,000000000e+00    0,000000000e+00    0,000000000e+00
      576000000   -3,489416093e-02   -1,249990910e-01   -3,699917197e-01   -5,597259402e-01    0,000000000e+00    0,000000000e+00    0,000000000e+00    0,000000000e+00
      590000000   -9,690573812e-02   -1,223292351e-01   -6,235200763e-01   -2,645037174e-01    0,000000000e+00    0,000000000e+00    0,000000000e+00    0,000000000e+00
      604000000   -1,395984739e-01   -7,094491273e-02   -6,676048040e-01    1,374453902e-01    0,000000000e+00    0,000000000e+00    0,000000000e+00    0,000000000e+00
      618000000   -1,282089055e-01   -8,643945679e-03   -4,670141041e-01    4,952966869e-01    0,000000000e+00    0,000000000e+00    0,000000000e+00    0,000000000e+00
      632000000   -8,253477514e-02    1,571667381e-02   -1,012204066e-01    6,650993228e-01    0,000000000e+00    0,000000000e+00    0,000000000e+00    0,000000000e+00
      646000000   -5,145268887e-02   -1,442858134e-03    2,870930731e-01    5,975192785e-01    0,000000000e+00    0,000000000e+00    0,000000000e+00    0,000000000e+00
      660000000   -5,487781391e-02   -2,267947793e-02    5,689582825e-01    3,239967227e-01    0,000000000e+00    0,000000000e+00    0,000000000e+00    0,000000000e+00
      674000000   -7,141905278e-02   -1,745350845e-02    6,444847584e-01   -6,584012508e-02    0,000000000e+00    0,000000000e+00    0,000000000e+00    0,000000000e+00
      688000000   -6,784243882e-02    1,045447215e-02    4,724909961e-01   -4,291103184e-01    0,000000000e+00    0,000000000e+00    0,000000000e+00    0,000000000e+00
      702000000   -3,617866710e-02    2,599890530e-02    1,183366701e-01   -6,133254170e-01    0,000000000e+00    0,000000000e+00    0,000000000e+00    0,000000000e+00
      716000000    2,909783740e-03    1,638476551e-02   -2,651978433e-01   -5,482457280e-01    0,000000000e+00    0,000000000e+00    0,000000000e+00    0,000000000e+00
      730000000    3,621102124e-02   -1,127239875e-02   -5,299664140e-01   -2,697927058e-01    0,000000000e+00    0,000000000e+00    0,000000000e+00    0,000000000e+00
      744000000    6,608942896e-02   -6,227814779e-02   -5,654233098e-01    1,071559191e-01    0,000000000e+00    0,000000000e+00    0,000000000e+00    0,000000000e+00
      758000000    6,816536188e-02   -1,527583748e-01   -3,627468944e-01    4,110598862e-01    0,000000000e+00    0,000000000e+00    0,000000000e+00    0,000000000e+00
      772000000   -1,267335471e-02   -2,648433745e-01   -3,320933133e-02    5,155191422e-01    0,000000000e+00    0,000000000e+00    0,000000000e+00    0,000000000e+00
      786000000   -2,095671147e-01   -3,059056401e-01    2,756155133e-01    3,942312598e-01    0,000000000e+00    0,000000000e+00    0,000000000e+00    0,000000000e+00
      800000000   -4,296919703e-01   -1,293864399e-01    4,169868231e-01    9,552250803e-02    0,000000000e+00    0,000000000e+00    0,000000000e+00    0,000000000e+00
      814000000   -3,914762437e-01    2,263709009e-01    2,789039314e-01   -1,754500568e-01    0,000000000e+00    0,000000000e+00    0,000000000e+00    0,000000000e+00
      828000000   -4,604993388e-02    3,710147440e-01    5,159691721e-02   -1,882634312e-01    0,000000000e+00    0,000000000e+00    0,000000000e+00    0,000000000e+00
      842000000    2,395909131e-01    1,846757531e-01   -1,935335249e-02   -6,879159063e-02    0,000000000e+00    0,000000000e+00    0,000000000e+00    0,000000000e+00
      856000000    2,827422321e-01   -1,282138228e-01    4,508947581e-02   -1,157205272e-02    0,000000000e+00    0,000000000e+00    0,000000000e+00    0,000000000e+00
      870000000    7,355243713e-02   -3,806939721e-01    1,135560945e-01   -9,032820910e-02    0,000000000e+00    0,000000000e+00    0,000000000e+00    0,000000000e+00
      884000000   -2,991557717e-01   -3,632887304e-01    2,807798795e-02   -2,449148446e-01    0,000000000e+00    0,000000000e+00    0,000000000e+00    0,000000000e+00
      898000000   -4,760464132e-01    1,087784674e-02   -2,215672433e-01   -2,260832936e-01    0,000000000e+00    0,000000000e+00    0,000000000e+00    0,000000000e+00
      912000000   -2,263330370e-01    2,980621159e-01   -3,515403867e-01    6,912398338e-02    0,000000000e+00    0,000000000e+00    0,000000000e+00    0,000000000e+00
      926000000    6,803323328e-02    2,650848627e-01   -2,191411704e-01    2,606764436e-01    0,000000000e+00    0,000000000e+00    0,000000000e+00    0,000000000e+00
      940000000    2,195109576e-01    8,193115145e-02   -3,913686424e-02    3,282250762e-01    0,000000000e+00    0,000000000e+00    0,000000000e+00    0,000000000e+00
      954000000    2,238451988e-01   -1,286698282e-01    1,249827296e-01    3,072603345e-01    0,000000000e+00    0,000000000e+00    0,000000000e+00    0,000000000e+00
      968000000    1,141991690e-01   -3,040850461e-01    2,661695778e-01    2,191346735e-01    0,000000000e+00    0,000000000e+00    0,000000000e+00    0,000000000e+00
      982000000   -8,432822675e-02   -3,938407898e-01    3,634294569e-01    6,959519535e-02    0,000000000e+00    0,000000000e+00    0,000000000e+00    0,000000000e+00
      996000000   -3,224951625e-01   -3,339492679e-01    3,657008410e-01   -1,383560598e-01    0,000000000e+00    0,000000000e+00    0,000000000e+00    0,000000000e+00
     1010000000   -4,684267640e-01   -1,068599522e-01    2,219198346e-01   -3,383296430e-01    0,000000000e+00    0,000000000e+00    0,000000000e+00    0,000000000e+00
     1024000000   -4,177128077e-01    1,554234475e-01   -3,333049640e-02   -3,897986114e-01    0,000000000e+00    0,000000000e+00    0,000000000e+00    0,000000000e+00
     1038000000   -2,193531692e-01    2,979245186e-01   -2,466199249e-01   -2,583597302e-01    0,000000000e+00    0,000000000e+00    0,000000000e+00    0,000000000e+00
     1052000000   -2,444586717e-03    2,794170380e-01   -3,161641359e-01   -4,564816877e-02    0,000000000e+00    0,000000000e+00    0,000000000e+00    0,000000000e+00
     1066000000    1,429246813e-01    1,634335965e-01   -2,580249012e-01    1,415760517e-01    0,000000000e+00    0,000000000e+00    0,000000000e+00    0,000000000e+00
     1080000000    1,952472329e-01   -2,077566693e-03   -1,216921806e-01    2,624063790e-01    0,000000000e+00    0,000000000e+00    0,000000000e+00    0,000000000e+00
     1094000000    1,533279419e-01   -1,798080802e-01    5,900217593e-02    3,061463833e-01    0,000000000e+00    0,000000000e+00    0,000000000e+00    0,000000000e+00
     1108000000   -4,967606626e-03   -3,063039184e-01    2,719278634e-01    2,484442592e-01    0,000000000e+00    0,000000000e+00    0,000000000e+00    0,000000000e+00
     1122000000   -2,566748261e-01   -2,575712800e-01    4,666301906e-01    1,853485405e-02    0,000000000e+00    0,000000000e+00    0,000000000e+00    0,000000000e+00
     1136000000   -3,155093491e-01    4,704894871e-02    3,915672004e-01   -3,811497986e-01    0,000000000e+00    0,000000000e+00    0,000000000e+00    0,000000000e+00
     1150000000   -2,239719406e-02    1,461498141e-01    3,358781338e-03   -5,229040980e-01    0,000000000e+00    0,000000000e+00    0,000000000e+00    0,000000000e+00
     1164000000    1,276617795e-01   -7,722900808e-02   -2,620823681e-01   -3,568533063e-01    0,000000000e+00    0,000000000e+00    0,000000000e+00    0,000000000e+00
     1178000000    1,210056152e-02   -3,184646368e-01   -3,472018838e-01   -1,414074153e-01    0,000000000e+00    0,000000000e+00    0,000000000e+00    0,000000000e+00
     1192000000   -2,802167237e-01   -3,722243011e-01   -2,973026037e-01    5,557377636e-02    0,000000000e+00    0,000000000e+00    0,000000000e+00    0,000000000e+00
     1206000000   -5,285801888e-01   -1,551763713e-01   -1,475253701e-01    1,643459499e-01    0,000000000e+00    0,000000000e+00    0,000000000e+00    0,000000000e+00
     1220000000   -5,110329986e-01    1,813650429e-01    1,219703467e-03    1,388408989e-01    0,000000000e+00    0,000000000e+00    0,000000000e+00    0,000000000e+00
     1234000000   -2,809004784e-01    3,614876866e-01    5,654540285e-02    5,242158845e-02    0,000000000e+00    0,000000000e+00    0,000000000e+00    0,000000000e+00
     1248000000   -4,652330279e-02    3,626877367e-01    4,933697730e-02   -4,984167404e-03    0,000000000e+00    0,000000000e+00    0,000000000e+00    0,000000000e+00
     1262000000    1,284735501e-01    2,488992661e-01    1,353606116e-02   -1,751143672e-02    0,000000000e+00    0,000000000e+00    0,000000000e+00    0,000000000e+00
     1276000000    2,114772201e-01    9,190764278e-02   -4,412111361e-03    1,114707068e-02    0,000000000e+00    0,000000000e+00    0,000000000e+00    0,000000000e+00
     1290000000    2,238285244e-01   -8,039927483e-02    2,136026882e-02    6,107801571e-02    0,000000000e+00    0,000000000e+00    0,000000000e+00    0,000000000e+00
     1304000000    1,527205408e-01   -2,485108078e-01    1,495810598e-01    6,400034577e-02    0,000000000e+00    0,000000000e+00    0,000000000e+00    0,000000000e+00
     1318000000    3,470869362e-02   -3,359954059e-01    1,239483505e-01   -1,767888814e-01    0,000000000e+00    0,000000000e+00    0,000000000e+00    0,000000000e+00
     1332000000   -1,295435727e-01   -4,408431947e-01   -4,379888251e-02   -5,348954722e-02    0,000000000e+00    0,000000000e+00    0,000000000e+00    0,000000000e+00
     1346000000   -3,963066041e-01   -4,095695317e-01    1,436479203e-02    6,062429026e-02    0,000000000e+00    0,000000000e+00    0,000000000e+00    0,000000000e+00
     1360000000   -6,000644565e-01   -1,921723783e-01    1,300259978e-01    6,801948696e-02    0,000000000e+00    0,000000000e+00    0,000000000e+00    0,000000000e+00
     1374000000   -6,305181980e-01    1,244243085e-01    1,943246275e-01    1,158086583e-02    0,000000000e+00    0,000000000e+00    0,000000000e+00    0,000000000e+00
     1388000000   -4,559676647e-01    3,621671796e-01    1,990511268e-01   -7,124879211e-02    0,000000000e+00    0,000000000e+00    0,000000000e+00    0,000000000e+00
     1402000000   -2,307899743e-01    4,544627666e-01    1,780419797e-01   -8,681833744e-02    0,000000000e+00    0,000000000e+00    0,000000000e+00    0,000000000e+00
     1416000000   -1,811461337e-02    4,076605737e-01    1,669535339e-01   -9,768951684e-02    0,000000000e+00    0,000000000e+00    0,000000000e+00    0,000000000e+00
     1430000000    1,268162280e-01    2,927955389e-01    1,400943547e-01   -8,685909212e-02    0,000000000e+00    0,000000000e+00    0,000000000e+00    0,000000000e+00
     1444000000    2,117104977e-01    1,479057819e-01    1,380636394e-01   -1,093193516e-01    0,000000000e+00    0,000000000e+00    0,000000000e+00    0,000000000e+00
     1458000000    2,372341603e-01   -2,828314714e-02    1,262084544e-01   -8,105787635e-02    0,000000000e+00    0,000000000e+00    0,000000000e+00    0,000000000e+00
     1472000000    1,913174093e-01   -2,099437565e-01    1,345483065e-01   -3,510963544e-02    0,000000000e+00    0,000000000e+00    0,000000000e+00    0,000000000e+00
     1486000000    5,294344202e-02   -3,780654669e-01    1,585707664e-01    1,832930930e-02    0,000000000e+00    0,000000000e+00    0,000000000e+00    0,000000000e+00
     1500000000   -1,849857420e-01   -4,928492904e-01    2,285445035e-01    8,540545404e-02    0,000000000e+00    0,000000000e+00    0,000000000e+00    0,000000000e+00
