! NanoVNA-App
! Date: 2025-09-26 09:42:44
! Start: 100MHz Stop: 1,5GHz Points: 101
! S-Parameter data: F S11 S21 S12 S22
# Hz S RI R 50
!     Frequency           S11_Real           S11_Imag           S21_Real           S21_Imag           S12_Real           S12_Imag           S22_Real           S22_Imag
      100000000   -2,898169495e-02   -4,485871643e-03    3,739110231e-01   -7,230409384e-01    0,000000000e+00    0,000000000e+00    0,000000000e+00    0,000000000e+00
      114000000   -1,686766744e-02    1,122103818e-02   -9,002240002e-02   -8,065406680e-01    0,000000000e+00    0,000000000e+00    0,000000000e+00    0,000000000e+00
      128000000    2,864255570e-03    1,052118652e-02   -5,159735680e-01   -6,210541129e-01    0,000000000e+00    0,000000000e+00    0,000000000e+00    0,000000000e+00
      142000000    1,403810456e-02   -2,643543994e-03   -7,684896588e-01   -2,363541573e-01    0,000000000e+00    0,000000000e+00    0,000000000e+00    0,000000000e+00
      156000000    1,460233051e-02   -1,449268032e-02   -7,677472830e-01    2,194978297e-01    0,000000000e+00    0,000000000e+00    0,000000000e+00    0,000000000e+00
      170000000    1,680379733e-02   -2,224278636e-02   -5,177695751e-01    6,059694290e-01    0,000000000e+00    0,000000000e+00    0,000000000e+00    0,000000000e+00
      184000000    2,115569077e-02   -3,714339435e-02   -1,004988551e-01    7,870404720e-01    0,000000000e+00    0,000000000e+00    0,000000000e+00    0,000000000e+00
      198000000    1,286441926e-02   -6,251438707e-02    3,448255658e-01    7,130871415e-01    0,000000000e+00    0,000000000e+00    0,000000000e+00    0,000000000e+00
      212000000   -1,889584400e-02   -8,104993403e-02    6,800010800e-01    4,100465775e-01    0,000000000e+00    0,000000000e+00    0,000000000e+00    0,000000000e+00
      226000000   -6,148369610e-02   -6,868340075e-02    7,973628044e-01   -3,124876879e-02    0,000000000e+00    0,000000000e+00    0,000000000e+00    0,000000000e+00
      240000000   -8,192736655e-02   -2,551798150e-02    6,476924419e-01   -4,682425857e-01    0,000000000e+00    0,000000000e+00    0,000000000e+00    0,000000000e+00
      254000000   -6,308641285e-02    1,680979319e-02    2,770939767e-01   -7,448909879e-01    0,000000000e+00    0,000000000e+00    0,000000000e+00    0,000000000e+00
      268000000   -2,367957123e-02    2,828380838e-02   -1,777309775e-01   -7,660871744e-01    0,000000000e+00    0,000000000e+00    0,000000000e+00    0,000000000e+00
      282000000    3,618332325e-03    1,143145375e-02   -5,628080368e-01   -5,374600291e-01    0,000000000e+00    0,000000000e+00    0,000000000e+00    0,000000000e+00
      296000000    9,326422587e-03   -7,864325307e-03   -7,614933848e-01   -1,408908963e-01    0,000000000e+00    0,000000000e+00    0,000000000e+00    0,000000000e+00
      310000000    1,120396983e-02   -1,600537263e-02   -7,136261463e-01    2,990618050e-01    0,000000000e+00    0,000000000e+00    0,000000000e+00    0,000000000e+00
      324000000    2,001139149e-02   -2,670997195e-02   -4,274927974e-01    6,387188435e-01    0,000000000e+00    0,000000000e+00    0,000000000e+00    0,000000000e+00
      338000000    2,531476878e-02   -5,270816386e-02   -7,019194309e-03    7,621976733e-01    0,000000000e+00    0,000000000e+00    0,000000000e+00    0,000000000e+00
      352000000    6,701134611e-03   -8,481833339e-02    4,070042968e-01    6,415696740e-01    0,000000000e+00    0,000000000e+00    0,000000000e+00    0,000000000e+00
      366000000   -3,557764739e-02   -9,530670941e-02    6,925253272e-01    3,121305704e-01    0,000000000e+00    0,000000000e+00    0,000000000e+00    0,000000000e+00
      380000000   -7,096771151e-02   -7,005718350e-02    7,495587468e-01   -1,256902367e-01    0,000000000e+00    0,000000000e+00    0,000000000e+00    0,000000000e+00
      394000000   -7,221730053e-02   -3,161233291e-02    5,478372574e-01   -5,230131745e-01    0,000000000e+00    0,000000000e+00    0,000000000e+00    0,000000000e+00
      408000000   -4,566742480e-02   -1,610373147e-02    1,622747481e-01   -7,348361015e-01    0,000000000e+00    0,000000000e+00    0,000000000e+00    0,000000000e+00
      422000000   -2,804476954e-02   -3,254894540e-02   -2,681162357e-01   -6,978469491e-01    0,000000000e+00    0,000000000e+00    0,000000000e+00    0,000000000e+00
      436000000   -4,081958160e-02   -5,192082003e-02   -6,053270102e-01   -4,340292513e-01    0,000000000e+00    0,000000000e+00    0,000000000e+00    0,000000000e+00
      450000000   -6,729622185e-02   -4,365125299e-02   -7,425696254e-01   -2,246825397e-02    0,000000000e+00    0,000000000e+00    0,000000000e+00    0,000000000e+00
      464000000   -7,325786352e-02   -1,151599921e-02   -6,212739944e-01    3,980962932e-01    0,000000000e+00    0,000000000e+00    0,000000000e+00    0,000000000e+00
      478000000   -4,707213491e-02    1,102509163e-02   -2,845368087e-01    6,690946221e-01    0,000000000e+00    0,000000000e+00    0,000000000e+00    0,000000000e+00
      492000000   -1,588466391e-02    5,001087673e-03    1,367208362e-01    7,030314803e-01    0,000000000e+00    0,000000000e+00    0,000000000e+00    0,000000000e+00
      506000000   -3,383073490e-03   -1,664576307e-02    4,991541505e-01    5,047951937e-01    0,000000000e+00    0,000000000e+00    0,000000000e+00    0,000000000e+00
      520000000   -6,047553848e-03   -3,111572936e-02    6,906441450e-01    1,420894116e-01    0,000000000e+00    0,000000000e+00    0,000000000e+00    0,000000000e+00
      534000000   -4,291354679e-03   -3,765905276e-02    6,453846097e-01   -2,624883950e-01    0,000000000e+00    0,000000000e+00    0,000000000e+00    0,000000000e+00
      548000000    6,545517128e-03   -5,425512046e-02    3,828190565e-01   -5,691981316e-01    0,000000000e+00    0,000000000e+00    0,000000000e+00    0,000000000e+00
      562000000    2,905300818e-03   -8,994967490e-02    2,900037216e-03   -6,747127175e-01    0,000000000e+00    0,000000000e+00    0,000000000e+00    0,000000000e+00
      576000000   -3,480983898e-02   -1,252069622e-01   -3,700712025e-01   -5,597814322e-01    0,000000000e+00    0,000000000e+00    0,000000000e+00    0,000000000e+00
      590000000   -9,695076942e-02   -1,224021688e-01   -6,242440939e-01   -2,648178339e-01    0,000000000e+00    0,000000000e+00    0,000000000e+00    0,000000000e+00
      604000000   -1,395663768e-01   -7,119736075e-02   -6,682223082e-01    1,372780800e-01    0,000000000e+00    0,000000000e+00    0,000000000e+00    0,000000000e+00
      618000000   -1,287705600e-01   -8,939266205e-03   -4,669908881e-01    4,955730438e-01    0,000000000e+00    0,000000000e+00    0,000000000e+00    0,000000000e+00
      632000000   -8,331098408e-02    1,558039803e-02   -1,004481390e-01    6,650838852e-01    0,000000000e+00    0,000000000e+00    0,000000000e+00    0,000000000e+00
      646000000   -5,103352666e-02   -2,656391298e-04    2,886154354e-01    5,977824926e-01    0,000000000e+00    0,000000000e+00    0,000000000e+00    0,000000000e+00
      660000000   -5,415561423e-02   -2,190818451e-02    5,685045719e-01    3,246745169e-01    0,000000000e+00    0,000000000e+00    0,000000000e+00    0,000000000e+00
      674000000   -7,113903761e-02   -1,734126918e-02    6,442585588e-01   -6,608482450e-02    0,000000000e+00    0,000000000e+00    0,000000000e+00    0,000000000e+00
      688000000   -6,816983968e-02    1,036883239e-02    4,718174040e-01   -4,288153648e-01    0,000000000e+00    0,000000000e+00    0,000000000e+00    0,000000000e+00
      702000000   -3,655374795e-02    2,548751980e-02    1,193734184e-01   -6,089296341e-01    0,000000000e+00    0,000000000e+00    0,000000000e+00    0,000000000e+00
      716000000    3,231846960e-03    1,657692902e-02   -2,646470964e-01   -5,485149026e-01    0,000000000e+00    0,000000000e+00    0,000000000e+00    0,000000000e+00
      730000000    3,599313647e-02   -1,099947840e-02   -5,299987197e-01   -2,694408596e-01    0,000000000e+00    0,000000000e+00    0,000000000e+00    0,000000000e+00
      744000000    6,513366848e-02   -6,264843792e-02   -5,651841760e-01    1,073176265e-01    0,000000000e+00    0,000000000e+00    0,000000000e+00    0,000000000e+00
      758000000    6,720379740e-02   -1,534415036e-01   -3,628947139e-01    4,117136896e-01    0,000000000e+00    0,000000000e+00    0,000000000e+00    0,000000000e+00
      772000000   -1,327693090e-02   -2,652355134e-01   -3,292040899e-02    5,154280663e-01    0,000000000e+00    0,000000000e+00    0,000000000e+00    0,000000000e+00
      786000000   -2,089925855e-01   -3,047829270e-01    2,756741643e-01    3,931035995e-01    0,000000000e+00    0,000000000e+00    0,000000000e+00    0,000000000e+00
      800000000   -4,305148423e-01   -1,295054704e-01    4,169458747e-01    9,598967433e-02    0,000000000e+00    0,000000000e+00    0,000000000e+00    0,000000000e+00
      814000000   -3,899069130e-01    2,276013643e-01    2,788482010e-01   -1,758735478e-01    0,000000000e+00    0,000000000e+00    0,000000000e+00    0,000000000e+00
      828000000   -4,605617374e-02    3,710721433e-01    5,065418035e-02   -1,889842749e-01    0,000000000e+00    0,000000000e+00    0,000000000e+00    0,000000000e+00
      842000000    2,393949330e-01    1,847370118e-01   -1,919130795e-02   -6,870092452e-02    0,000000000e+00    0,000000000e+00    0,000000000e+00    0,000000000e+00
      856000000    2,829100490e-01   -1,282525063e-01    4,485259205e-02   -1,086630672e-02    0,000000000e+00    0,000000000e+00    0,000000000e+00    0,000000000e+00
      870000000    7,444937527e-02   -3,809235394e-01    1,132130921e-01   -8,973126858e-02    0,000000000e+00    0,000000000e+00    0,000000000e+00    0,000000000e+00
      884000000   -2,983572185e-01   -3,638228476e-01    2,795575187e-02   -2,440382540e-01    0,000000000e+00    0,000000000e+00    0,000000000e+00    0,000000000e+00
      898000000   -4,761570990e-01    9,537753649e-03   -2,220389843e-01   -2,267657071e-01    0,000000000e+00    0,000000000e+00    0,000000000e+00    0,000000000e+00
      912000000   -2,265538126e-01    2,985345721e-01   -3,425689936e-01    7,285652310e-02    0,000000000e+00    0,000000000e+00    0,000000000e+00    0,000000000e+00
      926000000    6,939034909e-02    2,684564888e-01   -2,184000909e-01    2,615508437e-01    0,000000000e+00    0,000000000e+00    0,000000000e+00    0,000000000e+00
      940000000    2,212628573e-01    7,917305827e-02   -4,017604887e-02    3,261172771e-01    0,000000000e+00    0,000000000e+00    0,000000000e+00    0,000000000e+00
      954000000    2,279506773e-01   -1,317095011e-01    1,250499040e-01    3,074198365e-01    0,000000000e+00    0,000000000e+00    0,000000000e+00    0,000000000e+00
      968000000    1,183026135e-01   -3,040390611e-01    2,654777169e-01    2,193909138e-01    0,000000000e+00    0,000000000e+00    0,000000000e+00    0,000000000e+00
      982000000   -8,615799993e-02   -3,917060196e-01    3,614817560e-01    6,950750202e-02    0,000000000e+00    0,000000000e+00    0,000000000e+00    0,000000000e+00
      996000000   -3,183204830e-01   -3,302719593e-01    3,671272695e-01   -1,415441781e-01    0,000000000e+00    0,000000000e+00    0,000000000e+00    0,000000000e+00
     1010000000   -4,684925079e-01   -1,123820916e-01    2,215099335e-01   -3,380599916e-01    0,000000000e+00    0,000000000e+00    0,000000000e+00    0,000000000e+00
     1024000000   -4,152483046e-01    1,573477983e-01   -3,338577226e-02   -3,896470368e-01    0,000000000e+00    0,000000000e+00    0,000000000e+00    0,000000000e+00
     1038000000   -2,179471850e-01    2,944083810e-01   -2,469335198e-01   -2,586895525e-01    0,000000000e+00    0,000000000e+00    0,000000000e+00    0,000000000e+00
     1052000000   -5,293209571e-03    2,782402039e-01   -3,159113228e-01   -4,591049626e-02    0,000000000e+00    0,000000000e+00    0,000000000e+00    0,000000000e+00
     1066000000    1,411254555e-01    1,618049741e-01   -2,591453791e-01    1,430576295e-01    0,000000000e+00    0,000000000e+00    0,000000000e+00    0,000000000e+00
     1080000000    1,991763711e-01   -3,096473636e-03   -1,234717965e-01    2,628343105e-01    0,000000000e+00    0,000000000e+00    0,000000000e+00    0,000000000e+00
     1094000000    1,584650576e-01   -1,800375283e-01    5,780365318e-02    3,054373860e-01    0,000000000e+00    0,000000000e+00    0,000000000e+00    0,000000000e+00
     1108000000   -2,273767255e-03   -3,086155951e-01    2,716552615e-01    2,517863214e-01    0,000000000e+00    0,000000000e+00    0,000000000e+00    0,000000000e+00
     1122000000   -2,532703578e-01   -2,590794265e-01    4,677574337e-01    1,891514100e-02    0,000000000e+00    0,000000000e+00    0,000000000e+00    0,000000000e+00
     1136000000   -3,157088459e-01    4,016670957e-02    3,908179998e-01   -3,845384121e-01    0,000000000e+00    0,000000000e+00    0,000000000e+00    0,000000000e+00
     1150000000   -2,821539342e-02    1,440332979e-01    5,024078302e-03   -5,217759013e-01    0,000000000e+00    0,000000000e+00    0,000000000e+00    0,000000000e+00
     1164000000    1,270214319e-01   -7,986661792e-02   -2,658867240e-01   -3,580148518e-01    0,000000000e+00    0,000000000e+00    0,000000000e+00    0,000000000e+00
     1178000000    7,761175279e-03   -3,154846132e-01   -3,459089994e-01   -1,387190968e-01    0,000000000e+00    0,000000000e+00    0,000000000e+00    0,000000000e+00
     1192000000   -2,831507921e-01   -3,708602786e-01   -3,020335138e-01    5,641963705e-02    0,000000000e+00    0,000000000e+00    0,000000000e+00    0,000000000e+00
     1206000000   -5,298548937e-01   -1,452433765e-01   -1,498669535e-01    1,642378718e-01    0,000000000e+00    0,000000000e+00    0,000000000e+00    0,000000000e+00
     1220000000   -5,069037080e-01    1,813264936e-01    1,881967881e-03    1,380036026e-01    0,000000000e+00    0,000000000e+00    0,000000000e+00    0,000000000e+00
     1234000000   -2,798213363e-01    3,615918458e-01    5,776583031e-02    5,189536884e-02    0,000000000e+00    0,000000000e+00    0,000000000e+00    0,000000000e+00
     1248000000   -3,467733786e-02    3,620148003e-01    4,432249069e-02   -5,229030736e-03    0,000000000e+00    0,000000000e+00    0,000000000e+00    0,000000000e+00
     1262000000    1,299550682e-01    2,517338693e-01    1,662346348e-02   -1,155288052e-02    0,000000000e+00    0,000000000e+00    0,000000000e+00    0,000000000e+00
     1276000000    2,156698853e-01    9,469094127e-02    1,554674236e-03    1,595272683e-02    0,000000000e+00    0,000000000e+00    0,000000000e+00    0,000000000e+00
     1290000000    2,230249643e-01   -8,238155395e-02    2,859974839e-02    5,801614374e-02    0,000000000e+00    0,000000000e+00    0,000000000e+00    0,000000000e+00
     1304000000    1,514740139e-01   -2,444618940e-01    1,466945261e-01    6,719234586e-02    0,000000000e+00    0,000000000e+00    0,000000000e+00    0,000000000e+00
     1318000000    3,579805046e-02   -3,371930420e-01    1,209001616e-01   -1,810660660e-01    0,000000000e+00    0,000000000e+00    0,000000000e+00    0,000000000e+00
     1332000000   -1,335002780e-01   -4,386180937e-01   -5,138369650e-02   -5,009045452e-02    0,000000000e+00    0,000000000e+00    0,000000000e+00    0,000000000e+00
     1346000000   -3,929303885e-01   -4,080240428e-01    2,249549516e-02    6,280224025e-02    0,000000000e+00    0,000000000e+00    0,000000000e+00    0,000000000e+00
     1360000000   -6,124790907e-01   -1,863274872e-01    1,219143793e-01    5,967359245e-02    0,000000000e+00    0,000000000e+00    0,000000000e+00    0,000000000e+00
     1374000000   -6,308076382e-01    1,265833825e-01    1,911507845e-01    3,246068489e-03    0,000000000e+00    0,000000000e+00    0,000000000e+00    0,000000000e+00
     1388000000   -4,615155458e-01    3,608474135e-01    1,948098540e-01   -5,689473823e-02    0,000000000e+00    0,000000000e+00    0,000000000e+00    0,000000000e+00
     1402000000   -2,251776159e-01    4,514533281e-01    1,819852591e-01   -9,081204236e-02    0,000000000e+00    0,000000000e+00    0,000000000e+00    0,000000000e+00
     1416000000   -2,215545066e-02    4,071181118e-01    1,693638116e-01   -1,065250933e-01    0,000000000e+00    0,000000000e+00    0,000000000e+00    0,000000000e+00
     1430000000    1,278462857e-01    2,955744565e-01    1,414337009e-01   -1,180191711e-01    0,000000000e+00    0,000000000e+00    0,000000000e+00    0,000000000e+00
     1444000000    2,093638033e-01    1,422585249e-01    1,321377903e-01   -9,911040217e-02    0,000000000e+00    0,000000000e+00    0,000000000e+00    0,000000000e+00
     1458000000    2,388667166e-01   -2,517861128e-02    1,316948384e-01   -7,397390157e-02    0,000000000e+00    0,000000000e+00    0,000000000e+00    0,000000000e+00
     1472000000    1,868595481e-01   -2,071833462e-01    1,185650751e-01   -2,626927570e-02    0,000000000e+00    0,000000000e+00    0,000000000e+00    0,000000000e+00
     1486000000    5,387966335e-02   -3,799211383e-01    1,526078135e-01    2,738364041e-02    0,000000000e+00    0,000000000e+00    0,000000000e+00    0,000000000e+00
     1500000000   -1,799823195e-01   -4,955225289e-01    2,265322804e-01    6,983504444e-02    0,000000000e+00    0,000000000e+00    0,000000000e+00    0,000000000e+00
