! NanoVNA-App
! Date: 2025-09-26 09:42:48
! Start: 100MHz Stop: 1,5GHz Points: 101
! S-Parameter data: F S11 S21 S12 S22
# Hz S RI R 50
!     Frequency           S11_Real           S11_Imag           S21_Real           S21_Imag           S12_Real           S12_Imag           S22_Real           S22_Imag
      100000000   -2,898237668e-02   -4,487413447e-03    3,738856316e-01   -7,229880095e-01    0,000000000e+00    0,000000000e+00    0,000000000e+00    0,000000000e+00
      114000000   -1,692115888e-02    1,123714820e-02   -9,002032876e-02   -8,065680861e-01    0,000000000e+00    0,000000000e+00    0,000000000e+00    0,000000000e+00
      128000000    2,924344037e-03    1,045446470e-02   -5,159613490e-01   -6,208872199e-01    0,000000000e+00    0,000000000e+00    0,000000000e+00    0,000000000e+00
      142000000    1,402931008e-02   -2,655305900e-03   -7,686498761e-01   -2,362286150e-01    0,000000000e+00    0,000000000e+00    0,000000000e+00    0,000000000e+00
      156000000    1,453206129e-02   -1,456973981e-02   -7,674016356e-01    2,195760012e-01    0,000000000e+00    0,000000000e+00    0,000000000e+00    0,000000000e+00
      170000000    1,681663841e-02   -2,220162377e-02   -5,179128051e-01    6,063010097e-01    0,000000000e+00    0,000000000e+00    0,000000000e+00    0,000000000e+00
      184000000    2,115961537e-02   -3,710653633e-02   -1,002738774e-01    7,875092626e-01    0,000000000e+00    0,000000000e+00    0,000000000e+00    0,000000000e+00
      198000000    1,283945050e-02   -6,249476969e-02    3,449474275e-01    7,129431963e-01    0,000000000e+00    0,000000000e+00    0,000000000e+00    0,000000000e+00
      212000000   -1,890349947e-02   -8,108428121e-02    6,799269319e-01    4,098996520e-01    0,000000000e+00    0,000000000e+00    0,000000000e+00    0,000000000e+00
      226000000   -6,156817079e-02   -6,870643049e-02    7,974393964e-01   -3,121290356e-02    0,000000000e+00    0,000000000e+00    0,000000000e+00    0,000000000e+00
      240000000   -8,196472377e-02   -2,554663084e-02    6,477053761e-01   -4,681958556e-01    0,000000000e+00    0,000000000e+00    0,000000000e+00    0,000000000e+00
      254000000   -6,306868047e-02    1,681358553e-02    2,769484520e-01   -7,447147369e-01    0,000000000e+00    0,000000000e+00    0,000000000e+00    0,000000000e+00
      268000000   -2,367567271e-02    2,828581072e-02   -1,779768318e-01   -7,660307288e-01    0,000000000e+00    0,000000000e+00    0,000000000e+00    0,000000000e+00
      282000000    3,621573327e-03    1,137889642e-02   -5,627303123e-01   -5,376908779e-01    0,000000000e+00    0,000000000e+00    0,000000000e+00    0,000000000e+00
      296000000    9,233804420e-03   -8,011238649e-03   -7,616065741e-01   -1,408810765e-01    0,000000000e+00    0,000000000e+00    0,000000000e+00    0,000000000e+00
      310000000    1,126416959e-02   -1,612016559e-02   -7,138167024e-01    3,007435501e-01    0,000000000e+00    0,000000000e+00    0,000000000e+00    0,000000000e+00
      324000000    1,994694769e-02   -2,651150525e-02   -4,273075759e-01    6,388915777e-01    0,000000000e+00    0,000000000e+00    0,000000000e+00    0,000000000e+00
      338000000    2,536937408e-02   -5,247690901e-02   -9,134060703e-03    7,618074417e-01    0,000000000e+00    0,000000000e+00    0,000000000e+00    0,000000000e+00
      352000000    6,657030899e-03   -8,527041227e-02    4,074383974e-01    6,409994960e-01    0,000000000e+00    0,000000000e+00    0,000000000e+00    0,000000000e+00
      366000000   -3,549401090e-02   -9,522400051e-02    6,922114491e-01    3,117486835e-01    0,000000000e+00    0,000000000e+00    0,000000000e+00    0,000000000e+00
      380000000   -7,112514228e-02   -7,031363249e-02    7,496209145e-01   -1,258818209e-01    0,000000000e+00    0,000000000e+00    0,000000000e+00    0,000000000e+00
      394000000   -7,214760780e-02   -3,157033026e-02    5,483518243e-01   -5,222445130e-01    0,000000000e+00    0,000000000e+00    0,000000000e+00    0,000000000e+00
      408000000   -4,568393528e-02   -1,626682095e-02    1,613836437e-01   -7,351223826e-01    0,000000000e+00    0,000000000e+00    0,000000000e+00    0,000000000e+00
      422000000   -2,801102959e-02   -3,247703239e-02   -2,676614523e-01   -6,973382831e-01    0,000000000e+00    0,000000000e+00    0,000000000e+00    0,000000000e+00
      436000000   -4,092103243e-02   -5,186788738e-02   -6,050137281e-01   -4,336693883e-01    0,000000000e+00    0,000000000e+00    0,000000000e+00    0,000000000e+00
      450000000   -6,736985594e-02   -4,393664375e-02   -7,427859306e-01   -2,225410193e-02    0,000000000e+00    0,000000000e+00    0,000000000e+00    0,000000000e+00
      464000000   -7,283383608e-02   -1,168659702e-02   -6,206695437e-01    3,970743716e-01    0,000000000e+00    0,000000000e+00    0,000000000e+00    0,000000000e+00
      478000000   -4,719815031e-02    1,115939766e-02   -2,849802971e-01    6,681510210e-01    0,000000000e+00    0,000000000e+00    0,000000000e+00    0,000000000e+00
      492000000   -1,542931329e-02    5,391933490e-03    1,371558607e-01    7,038433552e-01    0,000000000e+00    0,000000000e+00    0,000000000e+00    0,000000000e+00
      506000000   -3,156956518e-03   -1,678570546e-02    4,989488423e-01    5,047757030e-01    0,000000000e+00    0,000000000e+00    0,000000000e+00    0,000000000e+00
      520000000   -6,265740842e-03   -3,113978356e-02    6,899915934e-01    1,422319114e-01    0,000000000e+00    0,000000000e+00    0,000000000e+00    0,000000000e+00
      534000000   -4,147808068e-03   -3,794675693e-02    6,454536915e-01   -2,628854513e-01    0,000000000e+00    0,000000000e+00    0,000000000e+00    0,000000000e+00
      548000000    6,182927173e-03   -5,356350541e-02    3,824674189e-01   -5,684989691e-01    0,000000000e+00    0,000000000e+00    0,000000000e+00    0,000000000e+00
      562000000    2,955837874e-03   -8,975514024e-02    2,266435418e-03   -6,737341881e-01    0,000000000e+00    0,000000000e+00    0,000000000e+00    0,000000000e+00
      576000000   -3,511269018e-02   -1,243764982e-01   -3,696146905e-01   -5,588763356e-01    0,000000000e+00    0,000000000e+00    0,000000000e+00    0,000000000e+00
      590000000   -9,694931656e-02   -1,223644763e-01   -6,211322546e-01   -2,667830288e-01    0,000000000e+00    0,000000000e+00    0,000000000e+00    0,000000000e+00
      604000000   -1,391675621e-01   -7,077123225e-02   -6,669564247e-01    1,370297074e-01    0,000000000e+00    0,000000000e+00    0,000000000e+00    0,000000000e+00
      618000000   -1,282242835e-01   -8,998729289e-03   -4,661883414e-01    4,948366880e-01    0,000000000e+00    0,000000000e+00    0,000000000e+00    0,000000000e+00
      632000000   -8,357407153e-02    1,613620110e-02   -1,004478410e-01    6,643631458e-01    0,000000000e+00    0,000000000e+00    0,000000000e+00    0,000000000e+00
      646000000   -5,171096697e-02   -9,932863759e-04    2,868478298e-01    5,978808999e-01    0,000000000e+00    0,000000000e+00    0,000000000e+00    0,000000000e+00
      660000000   -5,471776426e-02   -2,271278203e-02    5,682594180e-01    3,239290118e-01    0,000000000e+00    0,000000000e+00    0,000000000e+00    0,000000000e+00
      674000000   -7,051501423e-02   -1,658875123e-02    6,442019343e-01   -6,565529108e-02    0,000000000e+00    0,000000000e+00    0,000000000e+00    0,000000000e+00
      688000000   -6,785085797e-02    1,018732227e-02    4,716113508e-01   -4,282089770e-01    0,000000000e+00    0,000000000e+00    0,000000000e+00    0,000000000e+00
      702000000   -3,720151633e-02    2,730201930e-02    1,224331558e-01   -6,174021959e-01    0,000000000e+00    0,000000000e+00    0,000000000e+00    0,000000000e+00
      716000000    2,669351641e-03    1,658455841e-02   -2,655846477e-01   -5,481393337e-01    0,000000000e+00    0,000000000e+00    0,000000000e+00    0,000000000e+00
      730000000    3,629500791e-02   -1,064083260e-02   -5,298122764e-01   -2,697256505e-01    0,000000000e+00    0,000000000e+00    0,000000000e+00    0,000000000e+00
      744000000    6,613764167e-02   -6,274566799e-02   -5,656030774e-01    1,072899401e-01    0,000000000e+00    0,000000000e+00    0,000000000e+00    0,000000000e+00
      758000000    6,685834378e-02   -1,534175873e-01   -3,632448316e-01    4,115812182e-01    0,000000000e+00    0,000000000e+00    0,000000000e+00    0,000000000e+00
      772000000   -1,233634818e-02   -2,649902105e-01   -3,361653537e-02    5,153310299e-01    0,000000000e+00    0,000000000e+00    0,000000000e+00    0,000000000e+00
      786000000   -2,097305506e-01   -3,050216138e-01    2,759106159e-01    3,938131332e-01    0,000000000e+00    0,000000000e+00    0,000000000e+00    0,000000000e+00
      800000000   -4,298237562e-01   -1,283928305e-01    4,168759882e-01    9,567402303e-02    0,000000000e+00    0,000000000e+00    0,000000000e+00    0,000000000e+00
      814000000   -3,905656934e-01    2,262674868e-01    2,787561715e-01   -1,758727729e-01    0,000000000e+00    0,000000000e+00    0,000000000e+00    0,000000000e+00
      828000000   -4,578734562e-02    3,705819845e-01    5,136232451e-02   -1,887660772e-01    0,000000000e+00    0,000000000e+00    0,000000000e+00    0,000000000e+00
      842000000    2,396163791e-01    1,844789386e-01   -1,906791888e-02   -6,894949824e-02    0,000000000e+00    0,000000000e+00    0,000000000e+00    0,000000000e+00
      856000000    2,832334638e-01   -1,281462163e-01    4,483186081e-02   -1,123796403e-02    0,000000000e+00    0,000000000e+00    0,000000000e+00    0,000000000e+00
      870000000    7,423699647e-02   -3,805324137e-01    1,139297858e-01   -9,022878855e-02    0,000000000e+00    0,000000000e+00    0,000000000e+00    0,000000000e+00
      884000000   -2,997780144e-01   -3,653204739e-01    2,775908820e-02   -2,450945079e-01    0,000000000e+00    0,000000000e+00    0,000000000e+00    0,000000000e+00
      898000000   -4,753721654e-01    1,059288718e-02   -2,214381695e-01   -2,258976400e-01    0,000000000e+00    0,000000000e+00    0,000000000e+00    0,000000000e+00
      912000000   -2,258277535e-01    2,988997698e-01   -3,422585726e-01    5,840613693e-02    0,000000000e+00    0,000000000e+00    0,000000000e+00    0,000000000e+00
      926000000    6,958579272e-02    2,674967051e-01   -2,168223709e-01    2,622817457e-01    0,000000000e+00    0,000000000e+00    0,000000000e+00    0,000000000e+00
      940000000    2,200565785e-01    7,758071274e-02   -3,873519227e-02    3,259004653e-01    0,000000000e+00    0,000000000e+00    0,000000000e+00    0,000000000e+00
      954000000    2,265378982e-01   -1,314471811e-01    1,270554215e-01    3,047464788e-01    0,000000000e+00    0,000000000e+00    0,000000000e+00    0,000000000e+00
      968000000    1,180973202e-01   -3,045846820e-01    2,651027441e-01    2,185030431e-01    0,000000000e+00    0,000000000e+00    0,000000000e+00    0,000000000e+00
      982000000   -8,613304794e-02   -3,918694258e-01    3,612304926e-01    6,967181712e-02    0,000000000e+00    0,000000000e+00    0,000000000e+00    0,000000000e+00
      996000000   -3,187914193e-01   -3,306249976e-01    3,671694100e-01   -1,411921084e-01    0,000000000e+00    0,000000000e+00    0,000000000e+00    0,000000000e+00
     1010000000   -4,667119682e-01   -1,088970527e-01    2,234382033e-01   -3,366005719e-01    0,000000000e+00    0,000000000e+00    0,000000000e+00    0,000000000e+00
     1024000000   -4,121771157e-01    1,528330743e-01   -3,547790274e-02   -3,874464333e-01    0,000000000e+00    0,000000000e+00    0,000000000e+00    0,000000000e+00
     1038000000   -2,165422142e-01    2,959632277e-01   -2,478578091e-01   -2,583547235e-01    0,000000000e+00    0,000000000e+00    0,000000000e+00    0,000000000e+00
     1052000000   -8,113875054e-03    2,797243595e-01   -3,161642551e-01   -4,516215995e-02    0,000000000e+00    0,000000000e+00    0,000000000e+00    0,000000000e+00
     1066000000    1,383311003e-01    1,619298309e-01   -2,560169399e-01    1,417604387e-01    0,000000000e+00    0,000000000e+00    0,000000000e+00    0,000000000e+00
     1080000000    1,958936006e-01   -5,291657988e-03   -1,205556691e-01    2,637680173e-01    0,000000000e+00    0,000000000e+00    0,000000000e+00    0,000000000e+00
     1094000000    1,544162035e-01   -1,816433668e-01    5,866315961e-02    3,072527647e-01    0,000000000e+00    0,000000000e+00    0,000000000e+00    0,000000000e+00
     1108000000   -4,683602601e-03   -3,054969311e-01    2,706970274e-01    2,500658333e-01    0,000000000e+00    0,000000000e+00    0,000000000e+00    0,000000000e+00
     1122000000   -2,555389702e-01   -2,584429383e-01    4,679443240e-01    1,863138936e-02    0,000000000e+00    0,000000000e+00    0,000000000e+00    0,000000000e+00
     1136000000   -3,120079935e-01    4,808400944e-02    3,894667923e-01   -3,842922151e-01    0,000000000e+00    0,000000000e+00    0,000000000e+00    0,000000000e+00
     1150000000   -2,430571429e-02    1,439233571e-01    4,598542117e-03   -5,233343840e-01    0,000000000e+00    0,000000000e+00    0,000000000e+00    0,000000000e+00
     1164000000    1,297115386e-01   -7,999552786e-02   -2,650691271e-01   -3,587688208e-01    0,000000000e+00    0,000000000e+00    0,000000000e+00    0,000000000e+00
     1178000000    8,211078122e-03   -3,190050423e-01   -3,468991816e-01   -1,401893348e-01    0,000000000e+00    0,000000000e+00    0,000000000e+00    0,000000000e+00
     1192000000   -2,826774120e-01   -3,747347891e-01   -3,009263575e-01    5,786089227e-02    0,000000000e+00    0,000000000e+00    0,000000000e+00    0,000000000e+00
     1206000000   -5,298280716e-01   -1,523602456e-01   -1,497309804e-01    1,607217342e-01    0,000000000e+00    0,000000000e+00    0,000000000e+00    0,000000000e+00
     1220000000   -5,075170398e-01    1,779702753e-01    1,972092548e-03    1,413018554e-01    0,000000000e+00    0,000000000e+00    0,000000000e+00    0,000000000e+00
     1234000000   -2,759959698e-01    3,705465198e-01    6,213103980e-02    5,809273571e-02    0,000000000e+00    0,000000000e+00    0,000000000e+00    0,000000000e+00
     1248000000   -3,884941339e-02    3,673609495e-01    4,738108069e-02   -4,103409592e-03    0,000000000e+00    0,000000000e+00    0,000000000e+00    0,000000000e+00
     1262000000    1,267533451e-01    2,549444139e-01    1,253873669e-02   -1,064561028e-02    0,000000000e+00    0,000000000e+00    0,000000000e+00    0,000000000e+00
     1276000000    2,118054777e-01    9,513146430e-02   -4,451145884e-03    1,405350398e-02    0,000000000e+00    0,000000000e+00    0,000000000e+00    0,000000000e+00
     1290000000    2,273077965e-01   -8,064274490e-02    2,901365049e-02    5,779779702e-02    0,000000000e+00    0,000000000e+00    0,000000000e+00    0,000000000e+00
     1304000000    1,504593194e-01   -2,486351579e-01    1,477676481e-01    6,665850431e-02    0,000000000e+00    0,000000000e+00    0,000000000e+00    0,000000000e+00
     1318000000    3,802060708e-02   -3,352240324e-01    1,283719093e-01   -1,773057431e-01    0,000000000e+00    0,000000000e+00    0,000000000e+00    0,000000000e+00
     1332000000   -1,333682537e-01   -4,440720081e-01   -4,628330469e-02   -4,917668924e-02    0,000000000e+00    0,000000000e+00    0,000000000e+00    0,000000000e+00
     1346000000   -3,991250694e-01   -4,109362662e-01    1,595814340e-02    6,007656828e-02    0,000000000e+00    0,000000000e+00    0,000000000e+00    0,000000000e+00
     1360000000   -6,106041074e-01   -1,841187179e-01    1,250279993e-01    7,942598313e-02    0,000000000e+00    0,000000000e+00    0,000000000e+00    0,000000000e+00
     1374000000   -6,375022531e-01    1,320540607e-01    1,882171035e-01    1,072892826e-02    0,000000000e+00    0,000000000e+00    0,000000000e+00    0,000000000e+00
     1388000000   -4,588874280e-01    3,671848774e-01    1,879232526e-01   -4,655571654e-02    0,000000000e+00    0,000000000e+00    0,000000000e+00    0,000000000e+00
     1402000000   -2,261476815e-01    4,467113912e-01    1,743857563e-01   -1,027855724e-01    0,000000000e+00    0,000000000e+00    0,000000000e+00    0,000000000e+00
     1416000000   -2,049832232e-02    4,068942964e-01    1,684469581e-01   -1,062667742e-01    0,000000000e+00    0,000000000e+00    0,000000000e+00    0,000000000e+00
     1430000000    1,149265394e-01    2,954044640e-01    1,457162201e-01   -1,082931235e-01    0,000000000e+00    0,000000000e+00    0,000000000e+00    0,000000000e+00
     1444000000    2,099548429e-01    1,441169977e-01    1,370332241e-01   -1,092683077e-01    0,000000000e+00    0,000000000e+00    0,000000000e+00    0,000000000e+00
     1458000000    2,384258360e-01   -2,662441134e-02    1,305715740e-01   -8,207238466e-02    0,000000000e+00    0,000000000e+00    0,000000000e+00    0,000000000e+00
     1472000000    1,918969005e-01   -2,085034847e-01    1,343513280e-01   -4,101170227e-02    0,000000000e+00    0,000000000e+00    0,000000000e+00    0,000000000e+00
     1486000000    6,114448979e-02   -3,780221343e-01    1,639569402e-01    2,406151593e-02    0,000000000e+00    0,000000000e+00    0,000000000e+00    0,000000000e+00
     1500000000   -1,814158857e-01   -4,812040925e-01    2,472953051e-01    9,717402607e-02    0,000000000e+00    0,000000000e+00    0,000000000e+00    0,000000000e+00
