! NanoVNA-App
! Date: 2025-09-26 09:42:49
! Start: 100MHz Stop: 1,5GHz Points: 101
! S-Parameter data: F S11 S21 S12 S22
# Hz S RI R 50
!     Frequency           S11_Real           S11_Imag           S21_Real           S21_Imag           S12_Real           S12_Imag           S22_Real           S22_Imag
      100000000   -2,897659875e-02   -4,489947110e-03    3,739074171e-01   -7,230872512e-01    0,000000000e+00    0,000000000e+00    0,000000000e+00    0,000000000e+00
      114000000   -1,690597460e-02    1,121917926e-02   -8,993336558e-02   -8,064172268e-01    0,000000000e+00    0,000000000e+00    0,000000000e+00    0,000000000e+00
      128000000    2,931416500e-03    1,044813544e-02   -5,159271359e-01   -6,208836436e-01    0,000000000e+00    0,000000000e+00    0,000000000e+00    0,000000000e+00
      142000000    1,404047571e-02   -2,625313587e-03   -7,686196566e-01   -2,362010330e-01    0,000000000e+00    0,000000000e+00    0,000000000e+00    0,000000000e+00
      156000000    1,538947970e-02   -1,447568182e-02   -7,722676396e-01    2,229816765e-01    0,000000000e+00    0,000000000e+00    0,000000000e+00    0,000000000e+00
      170000000    1,678157970e-02   -2,218700014e-02   -5,180307031e-01    6,063866019e-01    0,000000000e+00    0,000000000e+00    0,000000000e+00    0,000000000e+00
      184000000    2,114258707e-02   -3,708799183e-02   -1,004761085e-01    7,877295017e-01    0,000000000e+00    0,000000000e+00    0,000000000e+00    0,000000000e+00
      198000000    1,288664620e-02   -6,254829466e-02    3,448255956e-01    7,131941319e-01    0,000000000e+00    0,000000000e+00    0,000000000e+00    0,000000000e+00
      212000000   -1,887923852e-02   -8,106842637e-02    6,799982786e-01    4,099236429e-01    0,000000000e+00    0,000000000e+00    0,000000000e+00    0,000000000e+00
      226000000   -6,157991663e-02   -6,862162799e-02    7,974016070e-01   -3,124569170e-02    0,000000000e+00    0,000000000e+00    0,000000000e+00    0,000000000e+00
      240000000   -8,194567263e-02   -2,556059696e-02    6,474815607e-01   -4,681188762e-01    0,000000000e+00    0,000000000e+00    0,000000000e+00    0,000000000e+00
      254000000   -6,306649745e-02    1,682253554e-02    2,769617736e-01   -7,446753383e-01    0,000000000e+00    0,000000000e+00    0,000000000e+00    0,000000000e+00
      268000000   -2,366018295e-02    2,830131724e-02   -1,778623462e-01   -7,661359906e-01    0,000000000e+00    0,000000000e+00    0,000000000e+00    0,000000000e+00
      282000000    3,617057810e-03    1,145416871e-02   -5,626036525e-01   -5,377129316e-01    0,000000000e+00    0,000000000e+00    0,000000000e+00    0,000000000e+00
      296000000    9,456566535e-03   -8,004645817e-03   -7,614116669e-01   -1,409499943e-01    0,000000000e+00    0,000000000e+00    0,000000000e+00    0,000000000e+00
      310000000    1,123140752e-02   -1,600673608e-02   -7,132937908e-01    2,989927232e-01    0,000000000e+00    0,000000000e+00    0,000000000e+00    0,000000000e+00
      324000000    1,970307529e-02   -2,653362416e-02   -4,288194478e-01    6,397840977e-01    0,000000000e+00    0,000000000e+00    0,000000000e+00    0,000000000e+00
      338000000    2,521625161e-02   -5,249012634e-02   -7,875742391e-03    7,611426711e-01    0,000000000e+00    0,000000000e+00    0,000000000e+00    0,000000000e+00
      352000000    6,530098617e-03   -8,511397988e-02    4,067239165e-01    6,414934397e-01    0,000000000e+00    0,000000000e+00    0,000000000e+00    0,000000000e+00
      366000000   -3,538367897e-02   -9,541129321e-02    6,926221848e-01    3,119922578e-01    0,000000000e+00    0,000000000e+00    0,000000000e+00    0,000000000e+00
      380000000   -7,121028751e-02   -7,008240372e-02    7,495627403e-01   -1,260346323e-01    0,000000000e+00    0,000000000e+00    0,000000000e+00    0,000000000e+00
      394000000   -7,215786725e-02   -3,167873994e-02    5,470508337e-01   -5,233255625e-01    0,000000000e+00    0,000000000e+00    0,000000000e+00    0,000000000e+00
      408000000   -4,590398073e-02   -1,632875763e-02    1,613244563e-01   -7,332895398e-01    0,000000000e+00    0,000000000e+00    0,000000000e+00    0,000000000e+00
      422000000   -2,812331170e-02   -3,276965767e-02   -2,676227391e-01   -6,964051723e-01    0,000000000e+00    0,000000000e+00    0,000000000e+00    0,000000000e+00
      436000000   -4,101786017e-02   -5,235096812e-02   -6,050233841e-01   -4,346636832e-01    0,000000000e+00    0,000000000e+00    0,000000000e+00    0,000000000e+00
      450000000   -6,771631539e-02   -4,374729469e-02   -7,427824736e-01   -2,262888476e-02    0,000000000e+00    0,000000000e+00    0,000000000e+00    0,000000000e+00
      464000000   -7,271183282e-02   -1,137234643e-02   -6,209682822e-01    3,979150653e-01    0,000000000e+00    0,000000000e+00    0,000000000e+00    0,000000000e+00
      478000000   -4,728999734e-02    1,131947525e-02   -2,843523920e-01    6,688125134e-01    0,000000000e+00    0,000000000e+00    0,000000000e+00    0,000000000e+00
      492000000   -1,575005241e-02    4,953206051e-03    1,366234869e-01    7,036039233e-01    0,000000000e+00    0,000000000e+00    0,000000000e+00    0,000000000e+00
      506000000   -3,586319741e-03   -1,670803316e-02    4,995481372e-01    5,045325160e-01    0,000000000e+00    0,000000000e+00    0,000000000e+00    0,000000000e+00
      520000000   -6,166794803e-03   -3,142894059e-02    6,905786395e-01    1,413133442e-01    0,000000000e+00    0,000000000e+00    0,000000000e+00    0,000000000e+00
      534000000   -4,200709052e-03   -3,751533106e-02    6,455017328e-01   -2,617869079e-01    0,000000000e+00    0,000000000e+00    0,000000000e+00    0,000000000e+00
      548000000    6,542604417e-03   -5,376940966e-02    3,822549582e-01   -5,685627460e-01    0,000000000e+00    0,000000000e+00    0,000000000e+00    0,000000000e+00
      562000000    2,845882671e-03   -8,972727507e-02    3,820458427e-03   -6,740348935e-01    0,000000000e+00    0,000000000e+00    0,000000000e+00    0,000000000e+00
      576000000   -3,475048020e-02   -1,245101914e-01   -3,695341051e-01   -5,595358610e-01    0,000000000e+00    0,000000000e+00    0,000000000e+00    0,000000000e+00
      590000000   -9,740840644e-02   -1,223328337e-01   -6,211770773e-01   -2,649456859e-01    0,000000000e+00    0,000000000e+00    0,000000000e+00    0,000000000e+00
      604000000   -1,394121647e-01   -7,093364745e-02   -6,675316095e-01    1,373085380e-01    0,000000000e+00    0,000000000e+00    0,000000000e+00    0,000000000e+00
      618000000   -1,284988225e-01   -8,242675103e-03   -4,667858779e-01    4,959641099e-01    0,000000000e+00    0,000000000e+00    0,000000000e+00    0,000000000e+00
      632000000   -8,324636519e-02    1,560232043e-02   -9,988360107e-02    6,658641696e-01    0,000000000e+00    0,000000000e+00    0,000000000e+00    0,000000000e+00
      646000000   -5,144391581e-02   -2,388927678e-04    2,879025638e-01    5,976470113e-01    0,000000000e+00    0,000000000e+00    0,000000000e+00    0,000000000e+00
      660000000   -5,400127545e-02   -2,256790176e-02    5,685535669e-01    3,234723508e-01    0,000000000e+00    0,000000000e+00    0,000000000e+00    0,000000000e+00
      674000000   -7,038106024e-02   -1,696033962e-02    6,438790560e-01   -6,576118618e-02    0,000000000e+00    0,000000000e+00    0,000000000e+00    0,000000000e+00
      688000000   -6,752628833e-02    1,000228152e-02    4,716547430e-01   -4,291342795e-01    0,000000000e+00    0,000000000e+00    0,000000000e+00    0,000000000e+00
      702000000   -3,638735041e-02    2,724293992e-02    1,178456619e-01   -6,153185964e-01    0,000000000e+00    0,000000000e+00    0,000000000e+00    0,000000000e+00
      716000000    2,897657454e-03    1,780200936e-02   -2,649543583e-01   -5,483785868e-01    0,000000000e+00    0,000000000e+00    0,000000000e+00    0,000000000e+00
      730000000    3,645547107e-02   -1,073826198e-02   -5,298092961e-01   -2,690680027e-01    0,000000000e+00    0,000000000e+00    0,000000000e+00    0,000000000e+00
      744000000    6,517023593e-02   -6,201414391e-02   -5,654481053e-01    1,072052345e-01    0,000000000e+00    0,000000000e+00    0,000000000e+00    0,000000000e+00
      758000000    6,833782792e-02   -1,533609033e-01   -3,635057509e-01    4,113496840e-01    0,000000000e+00    0,000000000e+00    0,000000000e+00    0,000000000e+00
      772000000   -1,246698480e-02   -2,645097673e-01   -3,331952170e-02    5,154955983e-01    0,000000000e+00    0,000000000e+00    0,000000000e+00    0,000000000e+00
      786000000   -2,099819332e-01   -3,052425086e-01    2,754563391e-01    3,935559094e-01    0,000000000e+00    0,000000000e+00    0,000000000e+00    0,000000000e+00
      800000000   -4,310869873e-01   -1,292041689e-01    4,170489311e-01    9,551471472e-02    0,000000000e+00    0,000000000e+00    0,000000000e+00    0,000000000e+00
      814000000   -3,916525245e-01    2,257128805e-01    2,786442339e-01   -1,755794585e-01    0,000000000e+00    0,000000000e+00    0,000000000e+00    0,000000000e+00
      828000000   -4,666339606e-02    3,709835112e-01    5,087274686e-02   -1,886238158e-01    0,000000000e+00    0,000000000e+00    0,000000000e+00    0,000000000e+00
      842000000    2,393043339e-01    1,851911843e-01   -1,917550899e-02   -6,851630658e-02    0,000000000e+00    0,000000000e+00    0,000000000e+00    0,000000000e+00
      856000000    2,830825746e-01   -1,281871498e-01    4,493810982e-02   -1,124818809e-02    0,000000000e+00    0,000000000e+00    0,000000000e+00    0,000000000e+00
      870000000    7,485256344e-02   -3,794805110e-01    1,139460206e-01   -8,978717774e-02    0,000000000e+00    0,000000000e+00    0,000000000e+00    0,000000000e+00
      884000000   -2,997653186e-01   -3,634759486e-01    2,789285593e-02   -2,446717620e-01    0,000000000e+00    0,000000000e+00    0,000000000e+00    0,000000000e+00
      898000000   -4,755634665e-01    9,770792909e-03   -2,210925668e-01   -2,258762866e-01    0,000000000e+00    0,000000000e+00    0,000000000e+00    0,000000000e+00
      912000000   -2,261517793e-01    2,975313962e-01   -3,367672563e-01    6,897510588e-02    0,000000000e+00    0,000000000e+00    0,000000000e+00    0,000000000e+00
      926000000    6,913979352e-02    2,675052881e-01   -2,157790810e-01    2,623729110e-01    0,000000000e+00    0,000000000e+00    0,000000000e+00    0,000000000e+00
      940000000    2,201942056e-01    7,891358435e-02   -3,817301244e-02    3,255568147e-01    0,000000000e+00    0,000000000e+00    0,000000000e+00    0,000000000e+00
      954000000    2,271276712e-01   -1,303407848e-01    1,262315959e-01    3,065941930e-01    0,000000000e+00    0,000000000e+00    0,000000000e+00    0,000000000e+00
      968000000    1,151301861e-01   -3,049522340e-01    2,649726272e-01    2,200104594e-01    0,000000000e+00    0,000000000e+00    0,000000000e+00    0,000000000e+00
      982000000   -8,280957490e-02   -3,905824423e-01    3,625243306e-01    6,888812035e-02    0,000000000e+00    0,000000000e+00    0,000000000e+00    0,000000000e+00
      996000000   -3,228895366e-01   -3,344432414e-01    3,668945134e-01   -1,408559978e-01    0,000000000e+00    0,000000000e+00    0,000000000e+00    0,000000000e+00
     1010000000   -4,677734375e-01   -1,131380424e-01    2,237344533e-01   -3,387247622e-01    0,000000000e+00    0,000000000e+00    0,000000000e+00    0,000000000e+00
     1024000000   -4,137953222e-01    1,506923735e-01   -3,395964205e-02   -3,879233301e-01    0,000000000e+00    0,000000000e+00    0,000000000e+00    0,000000000e+00
     1038000000   -2,142124474e-01    2,950424850e-01   -2,476193905e-01   -2,593315244e-01    0,000000000e+00    0,000000000e+00    0,000000000e+00    0,000000000e+00
     1052000000   -3,048825543e-03    2,817519307e-01   -3,175645769e-01   -4,617675766e-02    0,000000000e+00    0,000000000e+00    0,000000000e+00    0,000000000e+00
     1066000000    1,377658695e-01    1,615812331e-01   -2,559743524e-01    1,411871314e-01    0,000000000e+00    0,000000000e+00    0,000000000e+00    0,000000000e+00
     1080000000    1,970193982e-01   -5,230500828e-04   -1,220275685e-01    2,635103464e-01    0,000000000e+00    0,000000000e+00    0,000000000e+00    0,000000000e+00
     1094000000    1,557609439e-01   -1,824622750e-01    5,807952210e-02    3,069745600e-01    0,000000000e+00    0,000000000e+00    0,000000000e+00    0,000000000e+00
     1108000000   -8,342107758e-03   -3,097468913e-01    2,717259526e-01    2,506752014e-01    0,000000000e+00    0,000000000e+00    0,000000000e+00    0,000000000e+00
     1122000000   -2,574992776e-01   -2,618414760e-01    4,668262005e-01    2,053624950e-02    0,000000000e+00    0,000000000e+00    0,000000000e+00    0,000000000e+00
     1136000000   -3,124131560e-01    4,663134366e-02    3,909251988e-01   -3,848620355e-01    0,000000000e+00    0,000000000e+00    0,000000000e+00    0,000000000e+00
     1150000000   -2,516733855e-02    1,418993175e-01    1,160440035e-03   -5,247453451e-01    0,000000000e+00    0,000000000e+00    0,000000000e+00    0,000000000e+00
     1164000000    1,294253469e-01   -7,959962636e-02   -2,624641955e-01   -3,586179614e-01    0,000000000e+00    0,000000000e+00    0,000000000e+00    0,000000000e+00
     1178000000    6,631654222e-03   -3,161329329e-01   -3,482945263e-01   -1,396906823e-01    0,000000000e+00    0,000000000e+00    0,000000000e+00    0,000000000e+00
     1192000000   -2,839524150e-01   -3,714966774e-01   -3,006355166e-01    5,776578560e-02    0,000000000e+00    0,000000000e+00    0,000000000e+00    0,000000000e+00
     1206000000   -5,316677690e-01   -1,497615874e-01   -1,521461159e-01    1,653652936e-01    0,000000000e+00    0,000000000e+00    0,000000000e+00    0,000000000e+00
     1220000000   -5,113322139e-01    1,832836121e-01   -1,073893392e-03    1,409732401e-01    0,000000000e+00    0,000000000e+00    0,000000000e+00    0,000000000e+00
     1234000000   -2,811422646e-01    3,601849675e-01    5,964842066e-02    5,432321131e-02    0,000000000e+00    0,000000000e+00    0,000000000e+00    0,000000000e+00
     1248000000   -3,936435282e-02    3,619522154e-01    4,176355898e-02   -6,883821450e-03    0,000000000e+00    0,000000000e+00    0,000000000e+00    0,000000000e+00
     1262000000    1,265918463e-01    2,558502853e-01    1,494328771e-02   -1,409017853e-02    0,000000000e+00    0,000000000e+00    0,000000000e+00    0,000000000e+00
     1276000000    2,155171633e-01    9,522154927e-02    2,902702661e-03    9,318173863e-03    0,000000000e+00    0,000000000e+00    0,000000000e+00    0,000000000e+00
     1290000000    2,272145003e-01   -8,089382201e-02    2,751406468e-02    6,241598725e-02    0,000000000e+00    0,000000000e+00    0,000000000e+00    0,000000000e+00
     1304000000    1,510474533e-01   -2,466391772e-01    1,490180790e-01    6,582374126e-02    0,000000000e+00    0,000000000e+00    0,000000000e+00    0,000000000e+00
     1318000000    3,516156599e-02   -3,352015615e-01    1,224040389e-01   -1,834263504e-01    0,000000000e+00    0,000000000e+00    0,000000000e+00    0,000000000e+00
     1332000000   -1,281035244e-01   -4,410490990e-01   -4,925091565e-02   -5,491449684e-02    0,000000000e+00    0,000000000e+00    0,000000000e+00    0,000000000e+00
     1346000000   -3,964745700e-01   -4,074966908e-01    2,634737454e-02    6,270035356e-02    0,000000000e+00    0,000000000e+00    0,000000000e+00    0,000000000e+00
     1360000000   -6,049868464e-01   -1,857491881e-01    1,203225628e-01    6,906674057e-02    0,000000000e+00    0,000000000e+00    0,000000000e+00    0,000000000e+00
     1374000000   -6,275530457e-01    1,231706142e-01    1,910430938e-01    7,620173506e-03    0,000000000e+00    0,000000000e+00    0,000000000e+00    0,000000000e+00
     1388000000   -4,577101469e-01    3,672662377e-01    2,035421580e-01   -5,484784767e-02    0,000000000e+00    0,000000000e+00    0,000000000e+00    0,000000000e+00
     1402000000   -2,228758782e-01    4,470577538e-01    1,725095659e-01   -1,028385982e-01    0,000000000e+00    0,000000000e+00    0,000000000e+00    0,000000000e+00
     1416000000   -2,287777327e-02    4,033592343e-01    1,538051069e-01   -1,020242348e-01    0,000000000e+00    0,000000000e+00    0,000000000e+00    0,000000000e+00
     1430000000    1,257511377e-01    2,958475649e-01    1,696546525e-01   -9,078525752e-02    0,000000000e+00    0,000000000e+00    0,000000000e+00    0,000000000e+00
     1444000000    2,103027552e-01    1,445971578e-01    1,448474377e-01   -9,999086708e-02    0,000000000e+00    0,000000000e+00    0,000000000e+00    0,000000000e+00
     1458000000    2,410801798e-01   -2,856845781e-02    1,308925748e-01   -8,660015464e-02    0,000000000e+00    0,000000000e+00    0,000000000e+00    0,000000000e+00
     1472000000    1,851168722e-01   -2,091053426e-01    1,199110076e-01   -3,646931797e-02    0,000000000e+00    0,000000000e+00    0,000000000e+00    0,000000000e+00
     1486000000    4,942767322e-02   -3,802317977e-01    1,563881636e-01    2,573957294e-02    0,000000000e+00    0,000000000e+00    0,000000000e+00    0,000000000e+00
     1500000000   -1,814091206e-01   -4,900666773e-01    2,386731654e-01    7,381153107e-02    0,000000000e+00    0,000000000e+00    0,000000000e+00    0,000000000e+00
