! NanoVNA-App
! Date: 2025-09-26 09:42:36
! Start: 100MHz Stop: 1,5GHz Points: 101
! S-Parameter data: F S11 S21 S12 S22
# Hz S RI R 50
!     Frequency           S11_Real           S11_Imag           S21_Real           S21_Imag           S12_Real           S12_Imag           S22_Real           S22_Imag
      100000000   -2,898748219e-02   -4,492070526e-03    3,739206493e-01   -7,230849862e-01    0,000000000e+00    0,000000000e+00    0,000000000e+00    0,000000000e+00
      114000000   -1,689276285e-02    1,123413071e-02   -8,991645277e-02   -8,063642383e-01    0,000000000e+00    0,000000000e+00    0,000000000e+00    0,000000000e+00
      128000000    2,894761041e-03    1,045570150e-02   -5,160984397e-01   -6,209200621e-01    0,000000000e+00    0,000000000e+00    0,000000000e+00    0,000000000e+00
      142000000    1,403129008e-02   -2,647441346e-03   -7,686922550e-01   -2,362605929e-01    0,000000000e+00    0,000000000e+00    0,000000000e+00    0,000000000e+00
      156000000    1,583173685e-02   -1,389235072e-02   -7,710143328e-01    2,255199105e-01    0,000000000e+00    0,000000000e+00    0,000000000e+00    0,000000000e+00
      170000000    1,687375456e-02   -2,222468704e-02   -5,181462765e-01    6,063092351e-01    0,000000000e+00    0,000000000e+00    0,000000000e+00    0,000000000e+00
      184000000    2,116481215e-02   -3,709761053e-02   -1,005077884e-01    7,871135473e-01    0,000000000e+00    0,000000000e+00    0,000000000e+00    0,000000000e+00
      198000000    1,287873182e-02   -6,254212558e-02    3,447835743e-01    7,130656242e-01    0,000000000e+00    0,000000000e+00    0,000000000e+00    0,000000000e+00
      212000000   -1,886980049e-02   -8,109520376e-02    6,799173951e-01    4,100412726e-01    0,000000000e+00    0,000000000e+00    0,000000000e+00    0,000000000e+00
      226000000   -6,157238781e-02   -6,867520511e-02    7,974961400e-01   -3,123562410e-02    0,000000000e+00    0,000000000e+00    0,000000000e+00    0,000000000e+00
      240000000   -8,196154237e-02   -2,553919517e-02    6,476047039e-01   -4,682452679e-01    0,000000000e+00    0,000000000e+00    0,000000000e+00    0,000000000e+00
      254000000   -6,305361539e-02    1,686390303e-02    2,769585252e-01   -7,451806068e-01    0,000000000e+00    0,000000000e+00    0,000000000e+00    0,000000000e+00
      268000000   -2,367599681e-02    2,821729332e-02   -1,777311713e-01   -7,662123442e-01    0,000000000e+00    0,000000000e+00    0,000000000e+00    0,000000000e+00
      282000000    3,610205138e-03    1,135242172e-02   -5,627070069e-01   -5,376458168e-01    0,000000000e+00    0,000000000e+00    0,000000000e+00    0,000000000e+00
      296000000    9,271550924e-03   -7,742256392e-03   -7,617604136e-01   -1,410178393e-01    0,000000000e+00    0,000000000e+00    0,000000000e+00    0,000000000e+00
      310000000    1,113643125e-02   -1,565709524e-02   -7,134979367e-01    3,003002703e-01    0,000000000e+00    0,000000000e+00    0,000000000e+00    0,000000000e+00
      324000000    1,985195652e-02   -2,671792544e-02   -4,283067882e-01    6,396136284e-01    0,000000000e+00    0,000000000e+00    0,000000000e+00    0,000000000e+00
      338000000    2,574324794e-02   -5,288384855e-02   -9,764388204e-03    7,652392387e-01    0,000000000e+00    0,000000000e+00    0,000000000e+00    0,000000000e+00
      352000000    6,646767259e-03   -8,526502550e-02    4,070728123e-01    6,418235302e-01    0,000000000e+00    0,000000000e+00    0,000000000e+00    0,000000000e+00
      366000000   -3,543684632e-02   -9,551334381e-02    6,924454570e-01    3,125245273e-01    0,000000000e+00    0,000000000e+00    0,000000000e+00    0,000000000e+00
      380000000   -7,120516151e-02   -7,034555078e-02    7,498885989e-01   -1,260552555e-01    0,000000000e+00    0,000000000e+00    0,000000000e+00    0,000000000e+00
      394000000   -7,187531888e-02   -3,154700994e-02    5,476785302e-01   -5,236926675e-01    0,000000000e+00    0,000000000e+00    0,000000000e+00    0,000000000e+00
      408000000   -4,586959630e-02   -1,618312486e-02    1,615375429e-01   -7,338531613e-01    0,000000000e+00    0,000000000e+00    0,000000000e+00    0,000000000e+00
      422000000   -2,808265388e-02   -3,272061050e-02   -2,685514092e-01   -6,975247860e-01    0,000000000e+00    0,000000000e+00    0,000000000e+00    0,000000000e+00
      436000000   -4,095884040e-02   -5,231521651e-02   -6,057889462e-01   -4,345988035e-01    0,000000000e+00    0,000000000e+00    0,000000000e+00    0,000000000e+00
      450000000   -6,771782786e-02   -4,410075024e-02   -7,427776456e-01   -2,251568809e-02    0,000000000e+00    0,000000000e+00    0,000000000e+00    0,000000000e+00
      464000000   -7,307073474e-02   -1,141111087e-02   -6,207058430e-01    3,981513679e-01    0,000000000e+00    0,000000000e+00    0,000000000e+00    0,000000000e+00
      478000000   -4,718886316e-02    1,093407068e-02   -2,842460573e-01    6,686530113e-01    0,000000000e+00    0,000000000e+00    0,000000000e+00    0,000000000e+00
      492000000   -1,585908420e-02    4,813557956e-03    1,373512596e-01    7,037677169e-01    0,000000000e+00    0,000000000e+00    0,000000000e+00    0,000000000e+00
      506000000   -3,357734764e-03   -1,676537283e-02    4,995852411e-01    5,049998164e-01    0,000000000e+00    0,000000000e+00    0,000000000e+00    0,000000000e+00
      520000000   -5,925185047e-03   -3,168584406e-02    6,913512349e-01    1,433104575e-01    0,000000000e+00    0,000000000e+00    0,000000000e+00    0,000000000e+00
      534000000   -4,320813343e-03   -3,781813383e-02    6,453930140e-01   -2,626520097e-01    0,000000000e+00    0,000000000e+00    0,000000000e+00    0,000000000e+00
      548000000    6,175472867e-03   -5,411782116e-02    3,828977346e-01   -5,685643554e-01    0,000000000e+00    0,000000000e+00    0,000000000e+00    0,000000000e+00
      562000000    3,037670860e-03   -8,979925513e-02    2,913718112e-03   -6,735489368e-01    0,000000000e+00    0,000000000e+00    0,000000000e+00    0,000000000e+00
      576000000   -3,480887786e-02   -1,246455088e-01   -3,698514402e-01   -5,603050590e-01    0,000000000e+00    0,000000000e+00    0,000000000e+00    0,000000000e+00
      590000000   -9,712228179e-02   -1,221666262e-01   -6,216687560e-01   -2,642777860e-01    0,000000000e+00    0,000000000e+00    0,000000000e+00    0,000000000e+00
      604000000   -1,396168917e-01   -7,141409814e-02   -6,675239205e-01    1,372043937e-01    0,000000000e+00    0,000000000e+00    0,000000000e+00    0,000000000e+00
      618000000   -1,287803799e-01   -9,017568082e-03   -4,670164585e-01    4,949791133e-01    0,000000000e+00    0,000000000e+00    0,000000000e+00    0,000000000e+00
      632000000   -8,343122900e-02    1,566490158e-02   -1,013811007e-01    6,655722857e-01    0,000000000e+00    0,000000000e+00    0,000000000e+00    0,000000000e+00
      646000000   -5,142406747e-02   -4,996985663e-04    2,871563137e-01    5,972536206e-01    0,000000000e+00    0,000000000e+00    0,000000000e+00    0,000000000e+00
      660000000   -5,457704142e-02   -2,191050351e-02    5,690653324e-01    3,246829510e-01    0,000000000e+00    0,000000000e+00    0,000000000e+00    0,000000000e+00
      674000000   -7,077315450e-02   -1,726855896e-02    6,446672082e-01   -6,556561589e-02    0,000000000e+00    0,000000000e+00    0,000000000e+00    0,000000000e+00
      688000000   -6,763149053e-02    8,954988793e-03    4,712690711e-01   -4,294317067e-01    0,000000000e+00    0,000000000e+00    0,000000000e+00    0,000000000e+00
      702000000   -3,749091551e-02    2,645602822e-02    1,180456951e-01   -6,076902747e-01    0,000000000e+00    0,000000000e+00    0,000000000e+00    0,000000000e+00
      716000000    3,199137514e-03    1,656993851e-02   -2,656432986e-01   -5,478481054e-01    0,000000000e+00    0,000000000e+00    0,000000000e+00    0,000000000e+00
      730000000    3,616033494e-02   -1,123306714e-02   -5,301443934e-01   -2,703489959e-01    0,000000000e+00    0,000000000e+00    0,000000000e+00    0,000000000e+00
      744000000    6,520069391e-02   -6,216441467e-02   -5,655008554e-01    1,075045764e-01    0,000000000e+00    0,000000000e+00    0,000000000e+00    0,000000000e+00
      758000000    6,703716516e-02   -1,531491727e-01   -3,620244563e-01    4,110738039e-01    0,000000000e+00    0,000000000e+00    0,000000000e+00    0,000000000e+00
      772000000   -1,361419167e-02   -2,649113834e-01   -3,290883824e-02    5,148868561e-01    0,000000000e+00    0,000000000e+00    0,000000000e+00    0,000000000e+00
      786000000   -2,087053061e-01   -3,051768839e-01    2,752591074e-01    3,939133584e-01    0,000000000e+00    0,000000000e+00    0,000000000e+00    0,000000000e+00
      800000000   -4,306088090e-01   -1,293207258e-01    4,168745279e-01    9,609541297e-02    0,000000000e+00    0,000000000e+00    0,000000000e+00    0,000000000e+00
      814000000   -3,903153837e-01    2,275551111e-01    2,788002491e-01   -1,759426147e-01    0,000000000e+00    0,000000000e+00    0,000000000e+00    0,000000000e+00
      828000000   -4,660163075e-02    3,720854223e-01    5,131598935e-02   -1,883494854e-01    0,000000000e+00    0,000000000e+00    0,000000000e+00    0,000000000e+00
      842000000    2,391814888e-01    1,850047261e-01   -1,945744455e-02   -6,830292940e-02    0,000000000e+00    0,000000000e+00    0,000000000e+00    0,000000000e+00
      856000000    2,826566398e-01   -1,283115298e-01    4,440471902e-02   -1,121728495e-02    0,000000000e+00    0,000000000e+00    0,000000000e+00    0,000000000e+00
      870000000    7,348918915e-02   -3,799249828e-01    1,137311012e-01   -9,037559479e-02    0,000000000e+00    0,000000000e+00    0,000000000e+00    0,000000000e+00
      884000000   -2,995117903e-01   -3,639794290e-01    2,769516967e-02   -2,462682277e-01    0,000000000e+00    0,000000000e+00    0,000000000e+00    0,000000000e+00
      898000000   -4,764897525e-01    1,029193401e-02   -2,215619534e-01   -2,265322208e-01    0,000000000e+00    0,000000000e+00    0,000000000e+00    0,000000000e+00
      912000000   -2,250084281e-01    2,979884744e-01   -3,511226475e-01    5,857797712e-02    0,000000000e+00    0,000000000e+00    0,000000000e+00    0,000000000e+00
      926000000    6,931860000e-02    2,655486763e-01   -2,173359841e-01    2,602094114e-01    0,000000000e+00    0,000000000e+00    0,000000000e+00    0,000000000e+00
      940000000    2,194883227e-01    8,096110821e-02   -4,104872793e-02    3,268511891e-01    0,000000000e+00    0,000000000e+00    0,000000000e+00    0,000000000e+00
      954000000    2,271439433e-01   -1,290922016e-01    1,246259734e-01    3,063548505e-01    0,000000000e+00    0,000000000e+00    0,000000000e+00    0,000000000e+00
      968000000    1,152717918e-01   -3,061621785e-01    2,668823004e-01    2,200929224e-01    0,000000000e+00    0,000000000e+00    0,000000000e+00    0,000000000e+00
      982000000   -8,314465731e-02   -3,947735131e-01    3,616179526e-01    7,047266513e-02    0,000000000e+00    0,000000000e+00    0,000000000e+00    0,000000000e+00
      996000000   -3,225551844e-01   -3,336072564e-01    3,681312203e-01   -1,406012774e-01    0,000000000e+00    0,000000000e+00    0,000000000e+00    0,000000000e+00
     1010000000   -4,698992968e-01   -1,137201190e-01    2,224062085e-01   -3,373274505e-01    0,000000000e+00    0,000000000e+00    0,000000000e+00    0,000000000e+00
     1024000000   -4,166502059e-01    1,495145857e-01   -3,272668645e-02   -3,899834454e-01    0,000000000e+00    0,000000000e+00    0,000000000e+00    0,000000000e+00
     1038000000   -2,157434374e-01    2,980516553e-01   -2,465152591e-01   -2,577559948e-01    0,000000000e+00    0,000000000e+00    0,000000000e+00    0,000000000e+00
     1052000000   -5,759785417e-03    2,828480899e-01   -3,172094226e-01   -4,553507268e-02    0,000000000e+00    0,000000000e+00    0,000000000e+00    0,000000000e+00
     1066000000    1,388342977e-01    1,657492071e-01   -2,563337684e-01    1,393226832e-01    0,000000000e+00    0,000000000e+00    0,000000000e+00    0,000000000e+00
     1080000000    1,949469149e-01   -1,867134473e-03   -1,217774004e-01    2,640518546e-01    0,000000000e+00    0,000000000e+00    0,000000000e+00    0,000000000e+00
     1094000000    1,526675075e-01   -1,769487560e-01    5,784275383e-02    3,060754240e-01    0,000000000e+00    0,000000000e+00    0,000000000e+00    0,000000000e+00
     1108000000   -3,574692877e-03   -3,113537133e-01    2,708854675e-01    2,499283403e-01    0,000000000e+00    0,000000000e+00    0,000000000e+00    0,000000000e+00
     1122000000   -2,593400776e-01   -2,607984245e-01    4,672977328e-01    1,947882958e-02    0,000000000e+00    0,000000000e+00    0,000000000e+00    0,000000000e+00
     1136000000   -3,094487786e-01    4,707544670e-02    3,915005624e-01   -3,838196099e-01    0,000000000e+00    0,000000000e+00    0,000000000e+00    0,000000000e+00
     1150000000   -2,414233796e-02    1,490338743e-01    5,662019365e-03   -5,218511820e-01    0,000000000e+00    0,000000000e+00    0,000000000e+00    0,000000000e+00
     1164000000    1,276289821e-01   -7,624290138e-02   -2,645744383e-01   -3,592397273e-01    0,000000000e+00    0,000000000e+00    0,000000000e+00    0,000000000e+00
     1178000000    9,615868330e-03   -3,174714148e-01   -3,472547829e-01   -1,415757686e-01    0,000000000e+00    0,000000000e+00    0,000000000e+00    0,000000000e+00
     1192000000   -2,823417485e-01   -3,721921146e-01   -3,004542589e-01    5,474109203e-02    0,000000000e+00    0,000000000e+00    0,000000000e+00    0,000000000e+00
     1206000000   -5,348196626e-01   -1,528810710e-01   -1,502438039e-01    1,654997766e-01    0,000000000e+00    0,000000000e+00    0,000000000e+00    0,000000000e+00
     1220000000   -5,122212172e-01    1,803698987e-01    2,375123557e-03    1,400469393e-01    0,000000000e+00    0,000000000e+00    0,000000000e+00    0,000000000e+00
     1234000000   -2,792789936e-01    3,708667457e-01    6,259531528e-02    5,579907075e-02    0,000000000e+00    0,000000000e+00    0,000000000e+00    0,000000000e+00
     1248000000   -3,528203815e-02    3,638480902e-01    4,133896902e-02   -5,115356762e-03    0,000000000e+00    0,000000000e+00    0,000000000e+00    0,000000000e+00
     1262000000    1,280660629e-01    2,564471662e-01    1,123817638e-02   -1,359587628e-02    0,000000000e+00    0,000000000e+00    0,000000000e+00    0,000000000e+00
     1276000000    2,151371837e-01    9,162252396e-02   -2,128671855e-03    1,383350138e-02    0,000000000e+00    0,000000000e+00    0,000000000e+00    0,000000000e+00
     1290000000    2,240175605e-01   -7,869524509e-02    2,356150560e-02    6,095694005e-02    0,000000000e+00    0,000000000e+00    0,000000000e+00    0,000000000e+00
     1304000000    1,526823342e-01   -2,499125600e-01    1,485651582e-01    6,270393729e-02    0,000000000e+00    0,000000000e+00    0,000000000e+00    0,000000000e+00
     1318000000    3,391609713e-02   -3,361419439e-01    1,172884852e-01   -1,746095866e-01    0,000000000e+00    0,000000000e+00    0,000000000e+00    0,000000000e+00
     1332000000   -1,300648749e-01   -4,454323947e-01   -4,485165700e-02   -5,110703036e-02    0,000000000e+00    0,000000000e+00    0,000000000e+00    0,000000000e+00
     1346000000   -4,005397260e-01   -4,118366539e-01    1,819657162e-02    6,515324861e-02    0,000000000e+00    0,000000000e+00    0,000000000e+00    0,000000000e+00
     1360000000   -6,025750637e-01   -1,874198020e-01    1,358014941e-01    6,283017248e-02    0,000000000e+00    0,000000000e+00    0,000000000e+00    0,000000000e+00
     1374000000   -6,336367726e-01    1,328313500e-01    1,856836230e-01    5,148160271e-03    0,000000000e+00    0,000000000e+00    0,000000000e+00    0,000000000e+00
     1388000000   -4,575071037e-01    3,663924038e-01    2,083053440e-01   -5,657589808e-02    0,000000000e+00    0,000000000e+00    0,000000000e+00    0,000000000e+00
     1402000000   -2,239927053e-01    4,463336468e-01    1,675842702e-01   -1,001213789e-01    0,000000000e+00    0,000000000e+00    0,000000000e+00    0,000000000e+00
     1416000000   -1,458715368e-02    4,076254368e-01    1,687373072e-01   -1,013917550e-01    0,000000000e+00    0,000000000e+00    0,000000000e+00    0,000000000e+00
     1430000000    1,216115728e-01    2,979971170e-01    1,459551454e-01   -1,032271609e-01    0,000000000e+00    0,000000000e+00    0,000000000e+00    0,000000000e+00
     1444000000    2,092791945e-01    1,465729624e-01    1,376812458e-01   -1,112561375e-01    0,000000000e+00    0,000000000e+00    0,000000000e+00    0,000000000e+00
     1458000000    2,411122471e-01   -2,331544459e-02    1,270440519e-01   -7,058091462e-02    0,000000000e+00    0,000000000e+00    0,000000000e+00    0,000000000e+00
     1472000000    1,888843924e-01   -2,089248747e-01    1,217887849e-01   -2,942271344e-02    0,000000000e+00    0,000000000e+00    0,000000000e+00    0,000000000e+00
     1486000000    5,679199100e-02   -3,786643445e-01    1,595305353e-01    2,411588654e-02    0,000000000e+00    0,000000000e+00    0,000000000e+00    0,000000000e+00
     1500000000   -1,879884750e-01   -4,990081489e-01    2,238028497e-01    7,072776556e-02    0,000000000e+00    0,000000000e+00    0,000000000e+00    0,000000000e+00
