! NanoVNA-App
! Date: 2025-09-26 09:42:39
! Start: 100MHz Stop: 1,5GHz Points: 101
! S-Parameter data: F S11 S21 S12 S22
# Hz S RI R 50
!     Frequency           S11_Real           S11_Imag           S21_Real           S21_Imag           S12_Real           S12_Imag           S22_Real           S22_Imag
      100000000   -2,898085676e-02   -4,497980233e-03    3,739010990e-01   -7,230615616e-01    0,000000000e+00    0,000000000e+00    0,000000000e+00    0,000000000e+00
      114000000   -1,687624492e-02    1,121956483e-02   -9,007643908e-02   -8,065850139e-01    0,000000000e+00    0,000000000e+00    0,000000000e+00    0,000000000e+00
      128000000    2,861466026e-03    1,050501037e-02   -5,157513022e-01   -6,208219528e-01    0,000000000e+00    0,000000000e+00    0,000000000e+00    0,000000000e+00
      142000000    1,404039562e-02   -2,646456705e-03   -7,685816884e-01   -2,361545414e-01    0,000000000e+00    0,000000000e+00    0,000000000e+00    0,000000000e+00
      156000000    1,424561068e-02   -1,436342858e-02   -7,653542757e-01    2,192829251e-01    0,000000000e+00    0,000000000e+00    0,000000000e+00    0,000000000e+00
      170000000    1,686780155e-02   -2,215525880e-02   -5,179139376e-01    6,062462330e-01    0,000000000e+00    0,000000000e+00    0,000000000e+00    0,000000000e+00
      184000000    2,114775777e-02   -3,708567470e-02   -1,003867760e-01    7,875827551e-01    0,000000000e+00    0,000000000e+00    0,000000000e+00    0,000000000e+00
      198000000    1,285473723e-02   -6,252821535e-02    3,450557888e-01    7,131014466e-01    0,000000000e+00    0,000000000e+00    0,000000000e+00    0,000000000e+00
      212000000   -1,887376606e-02   -8,108919114e-02    6,800374389e-01    4,098242521e-01    0,000000000e+00    0,000000000e+00    0,000000000e+00    0,000000000e+00
      226000000   -6,153741479e-02   -6,860754639e-02    7,974590063e-01   -3,126822412e-02    0,000000000e+00    0,000000000e+00    0,000000000e+00    0,000000000e+00
      240000000   -8,192531765e-02   -2,550570853e-02    6,474416852e-01   -4,685471356e-01    0,000000000e+00    0,000000000e+00    0,000000000e+00    0,000000000e+00
      254000000   -6,301908195e-02    1,684650779e-02    2,770654857e-01   -7,451102734e-01    0,000000000e+00    0,000000000e+00    0,000000000e+00    0,000000000e+00
      268000000   -2,369916439e-02    2,829071321e-02   -1,775242537e-01   -7,663399577e-01    0,000000000e+00    0,000000000e+00    0,000000000e+00    0,000000000e+00
      282000000    3,712187521e-03    1,138155162e-02   -5,630596876e-01   -5,375875235e-01    0,000000000e+00    0,000000000e+00    0,000000000e+00    0,000000000e+00
      296000000    9,290136397e-03   -7,884017192e-03   -7,615324855e-01   -1,409467906e-01    0,000000000e+00    0,000000000e+00    0,000000000e+00    0,000000000e+00
      310000000    1,133596618e-02   -1,597776450e-02   -7,142068744e-01    3,000572920e-01    0,000000000e+00    0,000000000e+00    0,000000000e+00    0,000000000e+00
      324000000    1,995858550e-02   -2,656994388e-02   -4,284493923e-01    6,398332715e-01    0,000000000e+00    0,000000000e+00    0,000000000e+00    0,000000000e+00
      338000000    2,549107000e-02   -5,228733271e-02   -6,920190062e-03    7,636654377e-01    0,000000000e+00    0,000000000e+00    0,000000000e+00    0,000000000e+00
      352000000    6,579103880e-03   -8,501315117e-02    4,071351290e-01    6,411070228e-01    0,000000000e+00    0,000000000e+00    0,000000000e+00    0,000000000e+00
      366000000   -3,542609140e-02   -9,529809654e-02    6,924529672e-01    3,119635582e-01    0,000000000e+00    0,000000000e+00    0,000000000e+00    0,000000000e+00
      380000000   -7,109195739e-02   -7,047484815e-02    7,496317029e-01   -1,266463101e-01    0,000000000e+00    0,000000000e+00    0,000000000e+00    0,000000000e+00
      394000000   -7,199902087e-02   -3,161901608e-02    5,486786962e-01   -5,222721100e-01    0,000000000e+00    0,000000000e+00    0,000000000e+00    0,000000000e+00
      408000000   -4,567704350e-02   -1,618768647e-02    1,612321287e-01   -7,345260382e-01    0,000000000e+00    0,000000000e+00    0,000000000e+00    0,000000000e+00
      422000000   -2,799484320e-02   -3,248887509e-02   -2,680129707e-01   -6,962214112e-01    0,000000000e+00    0,000000000e+00    0,000000000e+00    0,000000000e+00
      436000000   -4,072303697e-02   -5,197861418e-02   -6,050997376e-01   -4,336848259e-01    0,000000000e+00    0,000000000e+00    0,000000000e+00    0,000000000e+00
      450000000   -6,779796630e-02   -4,367874563e-02   -7,431658506e-01   -2,263521589e-02    0,000000000e+00    0,000000000e+00    0,000000000e+00    0,000000000e+00
      464000000   -7,278801501e-02   -1,177147031e-02   -6,209669709e-01    3,973870575e-01    0,000000000e+00    0,000000000e+00    0,000000000e+00    0,000000000e+00
      478000000   -4,735567421e-02    1,111649163e-02   -2,838433385e-01    6,686290503e-01    0,000000000e+00    0,000000000e+00    0,000000000e+00    0,000000000e+00
      492000000   -1,557007525e-02    5,182466004e-03    1,368752867e-01    7,046219110e-01    0,000000000e+00    0,000000000e+00    0,000000000e+00    0,000000000e+00
      506000000   -3,076807363e-03   -1,655277796e-02    4,991663396e-01    5,048676133e-01    0,000000000e+00    0,000000000e+00    0,000000000e+00    0,000000000e+00
      520000000   -6,026044022e-03   -3,181351721e-02    6,900925636e-01    1,422037035e-01    0,000000000e+00    0,000000000e+00    0,000000000e+00    0,000000000e+00
      534000000   -4,477106500e-03   -3,783268854e-02    6,452107430e-01   -2,626135647e-01    0,000000000e+00    0,000000000e+00    0,000000000e+00    0,000000000e+00
      548000000    6,436772645e-03   -5,402166396e-02    3,832972050e-01   -5,685968399e-01    0,000000000e+00    0,000000000e+00    0,000000000e+00    0,000000000e+00
      562000000    3,349974519e-03   -8,993095160e-02    3,155248240e-03   -6,746826172e-01    0,000000000e+00    0,000000000e+00    0,000000000e+00    0,000000000e+00
      576000000   -3,520096093e-02   -1,250406504e-01   -3,699335456e-01   -5,597852468e-01    0,000000000e+00    0,000000000e+00    0,000000000e+00    0,000000000e+00
      590000000   -9,702948481e-02   -1,225028709e-01   -6,241026521e-01   -2,659677565e-01    0,000000000e+00    0,000000000e+00    0,000000000e+00    0,000000000e+00
      604000000   -1,393515468e-01   -7,070630789e-02   -6,674117446e-01    1,374246925e-01    0,000000000e+00    0,000000000e+00    0,000000000e+00    0,000000000e+00
      618000000   -1,287672818e-01   -9,000890888e-03   -4,669533968e-01    4,951359630e-01    0,000000000e+00    0,000000000e+00    0,000000000e+00    0,000000000e+00
      632000000   -8,278752118e-02    1,633030549e-02   -1,008367389e-01    6,649516225e-01    0,000000000e+00    0,000000000e+00    0,000000000e+00    0,000000000e+00
      646000000   -5,109135434e-02   -4,231798521e-04    2,872788310e-01    5,980050564e-01    0,000000000e+00    0,000000000e+00    0,000000000e+00    0,000000000e+00
      660000000   -5,479177833e-02   -2,162783593e-02    5,683352351e-01    3,244751096e-01    0,000000000e+00    0,000000000e+00    0,000000000e+00    0,000000000e+00
      674000000   -7,062806934e-02   -1,724492759e-02    6,440970302e-01   -6,533916295e-02    0,000000000e+00    0,000000000e+00    0,000000000e+00    0,000000000e+00
      688000000   -6,727502495e-02    9,550836869e-03    4,716076255e-01   -4,294398725e-01    0,000000000e+00    0,000000000e+00    0,000000000e+00    0,000000000e+00
      702000000   -3,565252945e-02    2,643589303e-02    1,176980436e-01   -6,112725139e-01    0,000000000e+00    0,000000000e+00    0,000000000e+00    0,000000000e+00
      716000000    2,126673236e-03    1,659004018e-02   -2,657731175e-01   -5,477299094e-01    0,000000000e+00    0,000000000e+00    0,000000000e+00    0,000000000e+00
      730000000    3,621578217e-02   -1,185539179e-02   -5,298982263e-01   -2,700649798e-01    0,000000000e+00    0,000000000e+00    0,000000000e+00    0,000000000e+00
      744000000    6,575014442e-02   -6,191908568e-02   -5,652795434e-01    1,073801666e-01    0,000000000e+00    0,000000000e+00    0,000000000e+00    0,000000000e+00
      758000000    6,740760058e-02   -1,537462026e-01   -3,625144064e-01    4,115865529e-01    0,000000000e+00    0,000000000e+00    0,000000000e+00    0,000000000e+00
      772000000   -1,313955709e-02   -2,658861578e-01   -3,386873007e-02    5,153146386e-01    0,000000000e+00    0,000000000e+00    0,000000000e+00    0,000000000e+00
      786000000   -2,100034654e-01   -3,060035408e-01    2,753059268e-01    3,938499391e-01    0,000000000e+00    0,000000000e+00    0,000000000e+00    0,000000000e+00
      800000000   -4,302621484e-01   -1,282794476e-01    4,170483947e-01    9,561329335e-02    0,000000000e+00    0,000000000e+00    0,000000000e+00    0,000000000e+00
      814000000   -3,901064992e-01    2,262691557e-01    2,782968283e-01   -1,752597988e-01    0,000000000e+00    0,000000000e+00    0,000000000e+00    0,000000000e+00
      828000000   -4,593051970e-02    3,712432384e-01    5,089198425e-02   -1,889114827e-01    0,000000000e+00    0,000000000e+00    0,000000000e+00    0,000000000e+00
      842000000    2,390359193e-01    1,850319654e-01   -1,951378770e-02   -6,896760315e-02    0,000000000e+00    0,000000000e+00    0,000000000e+00    0,000000000e+00
      856000000    2,829659581e-01   -1,282112896e-01    4,511043429e-02   -1,157098543e-02    0,000000000e+00    0,000000000e+00    0,000000000e+00    0,000000000e+00
      870000000    7,341372222e-02   -3,798975050e-01    1,139097363e-01   -8,986026049e-02    0,000000000e+00    0,000000000e+00    0,000000000e+00    0,000000000e+00
      884000000   -2,998263538e-01   -3,635041714e-01    2,743173577e-02   -2,451681197e-01    0,000000000e+00    0,000000000e+00    0,000000000e+00    0,000000000e+00
      898000000   -4,752813578e-01    1,070158929e-02   -2,211287320e-01   -2,265438735e-01    0,000000000e+00    0,000000000e+00    0,000000000e+00    0,000000000e+00
      912000000   -2,263300717e-01    2,993529439e-01   -3,425489962e-01    7,422023267e-02    0,000000000e+00    0,000000000e+00    0,000000000e+00    0,000000000e+00
      926000000    6,868343800e-02    2,679756880e-01   -2,172725350e-01    2,625031471e-01    0,000000000e+00    0,000000000e+00    0,000000000e+00    0,000000000e+00
      940000000    2,184941918e-01    8,168541640e-02   -4,070301354e-02    3,276889026e-01    0,000000000e+00    0,000000000e+00    0,000000000e+00    0,000000000e+00
      954000000    2,261408567e-01   -1,316439062e-01    1,260840595e-01    3,056486547e-01    0,000000000e+00    0,000000000e+00    0,000000000e+00    0,000000000e+00
      968000000    1,176746935e-01   -3,045139611e-01    2,668666840e-01    2,205115706e-01    0,000000000e+00    0,000000000e+00    0,000000000e+00    0,000000000e+00
      982000000   -8,589652181e-02   -3,904626966e-01    3,624423742e-01    6,805708259e-02    0,000000000e+00    0,000000000e+00    0,000000000e+00    0,000000000e+00
      996000000   -3,235667348e-01   -3,318586349e-01    3,671882153e-01   -1,407013386e-01    0,000000000e+00    0,000000000e+00    0,000000000e+00    0,000000000e+00
     1010000000   -4,717355371e-01   -1,105947793e-01    2,235058844e-01   -3,379785717e-01    0,000000000e+00    0,000000000e+00    0,000000000e+00    0,000000000e+00
     1024000000   -4,129058719e-01    1,539018303e-01   -3,325136006e-02   -3,882489204e-01    0,000000000e+00    0,000000000e+00    0,000000000e+00    0,000000000e+00
     1038000000   -2,193798423e-01    2,940855026e-01   -2,465839535e-01   -2,582750320e-01    0,000000000e+00    0,000000000e+00    0,000000000e+00    0,000000000e+00
     1052000000   -4,874294624e-03    2,838931680e-01   -3,162904084e-01   -4,645910859e-02    0,000000000e+00    0,000000000e+00    0,000000000e+00    0,000000000e+00
     1066000000    1,385667175e-01    1,597793996e-01   -2,586707175e-01    1,435542405e-01    0,000000000e+00    0,000000000e+00    0,000000000e+00    0,000000000e+00
     1080000000    1,976010054e-01   -4,657564685e-03   -1,245980114e-01    2,632388473e-01    0,000000000e+00    0,000000000e+00    0,000000000e+00    0,000000000e+00
     1094000000    1,549673676e-01   -1,821957231e-01    5,834392086e-02    3,052954078e-01    0,000000000e+00    0,000000000e+00    0,000000000e+00    0,000000000e+00
     1108000000   -6,267795339e-03   -3,069229126e-01    2,696536183e-01    2,497307807e-01    0,000000000e+00    0,000000000e+00    0,000000000e+00    0,000000000e+00
     1122000000   -2,537554204e-01   -2,622601390e-01    4,691178501e-01    1,932930946e-02    0,000000000e+00    0,000000000e+00    0,000000000e+00    0,000000000e+00
     1136000000   -3,074758947e-01    4,158881307e-02    3,927730620e-01   -3,785100281e-01    0,000000000e+00    0,000000000e+00    0,000000000e+00    0,000000000e+00
     1150000000   -2,788741328e-02    1,461350322e-01    5,872644950e-03   -5,207279921e-01    0,000000000e+00    0,000000000e+00    0,000000000e+00    0,000000000e+00
     1164000000    1,255144328e-01   -7,839751989e-02   -2,660116851e-01   -3,603652120e-01    0,000000000e+00    0,000000000e+00    0,000000000e+00    0,000000000e+00
     1178000000    9,253096767e-03   -3,150588274e-01   -3,452532291e-01   -1,398901939e-01    0,000000000e+00    0,000000000e+00    0,000000000e+00    0,000000000e+00
     1192000000   -2,820176780e-01   -3,726797402e-01   -2,985288501e-01    5,699948594e-02    0,000000000e+00    0,000000000e+00    0,000000000e+00    0,000000000e+00
     1206000000   -5,297663212e-01   -1,506671607e-01   -1,507322341e-01    1,651092023e-01    0,000000000e+00    0,000000000e+00    0,000000000e+00    0,000000000e+00
     1220000000   -5,040100813e-01    1,844810247e-01    2,834140789e-03    1,425478756e-01    0,000000000e+00    0,000000000e+00    0,000000000e+00    0,000000000e+00
     1234000000   -2,777049243e-01    3,697004318e-01    6,213061884e-02    5,583984032e-02    0,000000000e+00    0,000000000e+00    0,000000000e+00    0,000000000e+00
     1248000000   -4,000161216e-02    3,663923442e-01    4,672081769e-02   -6,469587330e-03    0,000000000e+00    0,000000000e+00    0,000000000e+00    0,000000000e+00
     1262000000    1,303482652e-01    2,512811124e-01    1,639809832e-02   -1,396215428e-02    0,000000000e+00    0,000000000e+00    0,000000000e+00    0,000000000e+00
     1276000000    2,104669660e-01    9,714654833e-02   -1,943189069e-03    1,463501807e-02    0,000000000e+00    0,000000000e+00    0,000000000e+00    0,000000000e+00
     1290000000    2,237198204e-01   -7,696237415e-02    2,760990150e-02    5,731958896e-02    0,000000000e+00    0,000000000e+00    0,000000000e+00    0,000000000e+00
     1304000000    1,526192427e-01   -2,454147935e-01    1,411844045e-01    6,803568453e-02    0,000000000e+00    0,000000000e+00    0,000000000e+00    0,000000000e+00
     1318000000    3,231825680e-02   -3,355047703e-01    1,166169718e-01   -1,802155077e-01    0,000000000e+00    0,000000000e+00    0,000000000e+00    0,000000000e+00
     1332000000   -1,335369200e-01   -4,428834915e-01   -5,323546752e-02   -5,368758366e-02    0,000000000e+00    0,000000000e+00    0,000000000e+00    0,000000000e+00
     1346000000   -3,965002596e-01   -4,036301076e-01    2,179322392e-02    6,326057762e-02    0,000000000e+00    0,000000000e+00    0,000000000e+00    0,000000000e+00
     1360000000   -6,075402498e-01   -1,909042597e-01    1,268239766e-01    5,804726109e-02    0,000000000e+00    0,000000000e+00    0,000000000e+00    0,000000000e+00
     1374000000   -6,276067495e-01    1,273680925e-01    1,856944114e-01    1,011319458e-02    0,000000000e+00    0,000000000e+00    0,000000000e+00    0,000000000e+00
     1388000000   -4,594960511e-01    3,661946952e-01    2,056321949e-01   -5,992036313e-02    0,000000000e+00    0,000000000e+00    0,000000000e+00    0,000000000e+00
     1402000000   -2,255775630e-01    4,515276849e-01    1,865835339e-01   -9,918069094e-02    0,000000000e+00    0,000000000e+00    0,000000000e+00    0,000000000e+00
     1416000000   -2,210674621e-02    4,116614461e-01    1,593040824e-01   -1,087824106e-01    0,000000000e+00    0,000000000e+00    0,000000000e+00    0,000000000e+00
     1430000000    1,308316439e-01    3,008390665e-01    1,554552764e-01   -1,016444191e-01    0,000000000e+00    0,000000000e+00    0,000000000e+00    0,000000000e+00
     1444000000    2,118972242e-01    1,422255486e-01    1,428589225e-01   -1,118409261e-01    0,000000000e+00    0,000000000e+00    0,000000000e+00    0,000000000e+00
     1458000000    2,325052321e-01   -2,596148849e-02    1,209445894e-01   -8,110055327e-02    0,000000000e+00    0,000000000e+00    0,000000000e+00    0,000000000e+00
     1472000000    1,867305636e-01   -2,058732212e-01    1,284544021e-01   -3,529440984e-02    0,000000000e+00    0,000000000e+00    0,000000000e+00    0,000000000e+00
     1486000000    5,468293652e-02   -3,748023510e-01    1,554069966e-01    3,753286600e-02    0,000000000e+00    0,000000000e+00    0,000000000e+00    0,000000000e+00
     1500000000   -1,907874644e-01   -4,997341037e-01    2,239211202e-01    7,673265785e-02    0,000000000e+00    0,000000000e+00    0,000000000e+00    0,000000000e+00
