! NanoVNA-App
! Date: 2025-09-26 09:42:21
! Start: 100MHz Stop: 1,5GHz Points: 101
! S-Parameter data: F S11 S21 S12 S22
# Hz S RI R 50
!     Frequency           S11_Real           S11_Imag           S21_Real           S21_Imag           S12_Real           S12_Imag           S22_Real           S22_Imag
      100000000   -2,899487130e-02   -4,495447967e-03    3,738570809e-01   -7,230097055e-01    0,000000000e+00    0,000000000e+00    0,000000000e+00    0,000000000e+00
      114000000   -1,689999737e-02    1,118922513e-02   -9,010946006e-02   -8,065405488e-01    0,000000000e+00    0,000000000e+00    0,000000000e+00    0,000000000e+00
      128000000    2,921008971e-03    1,048308797e-02   -5,160005689e-01   -6,209046245e-01    0,000000000e+00    0,000000000e+00    0,000000000e+00    0,000000000e+00
      142000000    1,402913500e-02   -2,635781188e-03   -7,687332034e-01   -2,362532765e-01    0,000000000e+00    0,000000000e+00    0,000000000e+00    0,000000000e+00
      156000000    1,529156789e-02   -1,452102233e-02   -7,722559571e-01    2,229802459e-01    0,000000000e+00    0,000000000e+00    0,000000000e+00    0,000000000e+00
      170000000    1,687071659e-02   -2,218742482e-02   -5,179927349e-01    6,062245965e-01    0,000000000e+00    0,000000000e+00    0,000000000e+00    0,000000000e+00
      184000000    2,118321508e-02   -3,710687906e-02   -1,002869681e-01    7,878915668e-01    0,000000000e+00    0,000000000e+00    0,000000000e+00    0,000000000e+00
      198000000    1,285373047e-02   -6,251596659e-02    3,448665738e-01    7,129511833e-01    0,000000000e+00    0,000000000e+00    0,000000000e+00    0,000000000e+00
      212000000   -1,888792031e-02   -8,110471815e-02    6,799035668e-01    4,099432528e-01    0,000000000e+00    0,000000000e+00    0,000000000e+00    0,000000000e+00
      226000000   -6,155665219e-02   -6,863199174e-02    7,974487543e-01   -3,127038106e-02    0,000000000e+00    0,000000000e+00    0,000000000e+00    0,000000000e+00
      240000000   -8,199039847e-02   -2,549122833e-02    6,475089192e-01   -4,683093131e-01    0,000000000e+00    0,000000000e+00    0,000000000e+00    0,000000000e+00
      254000000   -6,304645538e-02    1,687035337e-02    2,767817676e-01   -7,450321913e-01    0,000000000e+00    0,000000000e+00    0,000000000e+00    0,000000000e+00
      268000000   -2,370688505e-02    2,822623029e-02   -1,776913851e-01   -7,661207914e-01    0,000000000e+00    0,000000000e+00    0,000000000e+00    0,000000000e+00
      282000000    3,734833561e-03    1,139241084e-02   -5,625748038e-01   -5,376247168e-01    0,000000000e+00    0,000000000e+00    0,000000000e+00    0,000000000e+00
      296000000    9,365811944e-03   -7,913745008e-03   -7,616981268e-01   -1,410321891e-01    0,000000000e+00    0,000000000e+00    0,000000000e+00    0,000000000e+00
      310000000    1,110385824e-02   -1,583413221e-02   -7,142363787e-01    3,005641997e-01    0,000000000e+00    0,000000000e+00    0,000000000e+00    0,000000000e+00
      324000000    1,991730183e-02   -2,665704302e-02   -4,283455610e-01    6,398220658e-01    0,000000000e+00    0,000000000e+00    0,000000000e+00    0,000000000e+00
      338000000    2,542891353e-02   -5,249352753e-02   -6,568613928e-03    7,633065581e-01    0,000000000e+00    0,000000000e+00    0,000000000e+00    0,000000000e+00
      352000000    6,620565429e-03   -8,513235301e-02    4,071406424e-01    6,413834691e-01    0,000000000e+00    0,000000000e+00    0,000000000e+00    0,000000000e+00
      366000000   -3,549602628e-02   -9,504533559e-02    6,920316815e-01    3,119806647e-01    0,000000000e+00    0,000000000e+00    0,000000000e+00    0,000000000e+00
      380000000   -7,098568231e-02   -7,022582740e-02    7,488658428e-01   -1,260647327e-01    0,000000000e+00    0,000000000e+00    0,000000000e+00    0,000000000e+00
      394000000   -7,217672467e-02   -3,169640526e-02    5,471103191e-01   -5,224426985e-01    0,000000000e+00    0,000000000e+00    0,000000000e+00    0,000000000e+00
      408000000   -4,567277431e-02   -1,605577022e-02    1,623798758e-01   -7,349765301e-01    0,000000000e+00    0,000000000e+00    0,000000000e+00    0,000000000e+00
      422000000   -2,804728225e-02   -3,247618303e-02   -2,688287795e-01   -6,972688437e-01    0,000000000e+00    0,000000000e+00    0,000000000e+00    0,000000000e+00
      436000000   -4,095814005e-02   -5,220794305e-02   -6,051149368e-01   -4,344972372e-01    0,000000000e+00    0,000000000e+00    0,000000000e+00    0,000000000e+00
      450000000   -6,787636876e-02   -4,383869842e-02   -7,429974675e-01   -2,265859768e-02    0,000000000e+00    0,000000000e+00    0,000000000e+00    0,000000000e+00
      464000000   -7,305345684e-02   -1,145216171e-02   -6,210900545e-01    3,978465497e-01    0,000000000e+00    0,000000000e+00    0,000000000e+00    0,000000000e+00
      478000000   -4,707743600e-02    1,136824489e-02   -2,848811448e-01    6,696273088e-01    0,000000000e+00    0,000000000e+00    0,000000000e+00    0,000000000e+00
      492000000   -1,572445221e-02    4,711559508e-03    1,361892521e-01    7,041614056e-01    0,000000000e+00    0,000000000e+00    0,000000000e+00    0,000000000e+00
      506000000   -3,450552467e-03   -1,678278297e-02    4,989404976e-01    5,044955611e-01    0,000000000e+00    0,000000000e+00    0,000000000e+00    0,000000000e+00
      520000000   -5,930481479e-03   -3,174651787e-02    6,914789677e-01    1,425956935e-01    0,000000000e+00    0,000000000e+00    0,000000000e+00    0,000000000e+00
      534000000   -4,428102169e-03   -3,784601390e-02    6,453505158e-01   -2,630262673e-01    0,000000000e+00    0,000000000e+00    0,000000000e+00    0,000000000e+00
      548000000    6,094764452e-03   -5,423385277e-02    3,832355738e-01   -5,686888695e-01    0,000000000e+00    0,000000000e+00    0,000000000e+00    0,000000000e+00
      562000000    2,827296499e-03   -8,992704749e-02    2,856367268e-03   -6,744480133e-01    0,000000000e+00    0,000000000e+00    0,000000000e+00    0,000000000e+00
      576000000   -3,454004601e-02   -1,249943301e-01   -3,693953156e-01   -5,605294108e-01    0,000000000e+00    0,000000000e+00    0,000000000e+00    0,000000000e+00
      590000000   -9,701440483e-02   -1,223170683e-01   -6,216524243e-01   -2,663852870e-01    0,000000000e+00    0,000000000e+00    0,000000000e+00    0,000000000e+00
      604000000   -1,396441311e-01   -7,095644623e-02   -6,677201986e-01    1,371766627e-01    0,000000000e+00    0,000000000e+00    0,000000000e+00    0,000000000e+00
      618000000   -1,283579320e-01   -8,455663919e-03   -4,675498605e-01    4,963338077e-01    0,000000000e+00    0,000000000e+00    0,000000000e+00    0,000000000e+00
      632000000   -8,348388225e-02    1,581963338e-02   -9,993711859e-02    6,661714911e-01    0,000000000e+00    0,000000000e+00    0,000000000e+00    0,000000000e+00
      646000000   -5,077777430e-02   -7,737373235e-04    2,875843644e-01    5,974097252e-01    0,000000000e+00    0,000000000e+00    0,000000000e+00    0,000000000e+00
      660000000   -5,509833992e-02   -2,234593593e-02    5,689451098e-01    3,238385916e-01    0,000000000e+00    0,000000000e+00    0,000000000e+00    0,000000000e+00
      674000000   -7,090912759e-02   -1,635000296e-02    6,445648074e-01   -6,572697312e-02    0,000000000e+00    0,000000000e+00    0,000000000e+00    0,000000000e+00
      688000000   -6,798525900e-02    9,032951668e-03    4,717897475e-01   -4,289534688e-01    0,000000000e+00    0,000000000e+00    0,000000000e+00    0,000000000e+00
      702000000   -3,572780266e-02    2,626609430e-02    1,183650345e-01   -6,120609641e-01    0,000000000e+00    0,000000000e+00    0,000000000e+00    0,000000000e+00
      716000000    3,026592080e-03    1,695586927e-02   -2,658096552e-01   -5,483400822e-01    0,000000000e+00    0,000000000e+00    0,000000000e+00    0,000000000e+00
      730000000    3,608810529e-02   -1,110614184e-02   -5,296358466e-01   -2,698309124e-01    0,000000000e+00    0,000000000e+00    0,000000000e+00    0,000000000e+00
      744000000    6,511494517e-02   -6,200630963e-02   -5,654826760e-01    1,072821245e-01    0,000000000e+00    0,000000000e+00    0,000000000e+00    0,000000000e+00
      758000000    6,709689647e-02   -1,533574611e-01   -3,623875678e-01    4,116621912e-01    0,000000000e+00    0,000000000e+00    0,000000000e+00    0,000000000e+00
      772000000   -1,325089019e-02   -2,653207481e-01   -3,348470852e-02    5,151309371e-01    0,000000000e+00    0,000000000e+00    0,000000000e+00    0,000000000e+00
      786000000   -2,103129029e-01   -3,056308627e-01    2,757535577e-01    3,936908543e-01    0,000000000e+00    0,000000000e+00    0,000000000e+00    0,000000000e+00
      800000000   -4,297224879e-01   -1,281573325e-01    4,168415666e-01    9,580548108e-02    0,000000000e+00    0,000000000e+00    0,000000000e+00    0,000000000e+00
      814000000   -3,911405802e-01    2,268128991e-01    2,783728540e-01   -1,750188768e-01    0,000000000e+00    0,000000000e+00    0,000000000e+00    0,000000000e+00
      828000000   -4,527669400e-02    3,717095554e-01    5,107753351e-02   -1,883911639e-01    0,000000000e+00    0,000000000e+00    0,000000000e+00    0,000000000e+00
      842000000    2,392074168e-01    1,848753244e-01   -1,929506101e-02   -6,814353168e-02    0,000000000e+00    0,000000000e+00    0,000000000e+00    0,000000000e+00
      856000000    2,827864587e-01   -1,283337474e-01    4,499123618e-02   -1,071196981e-02    0,000000000e+00    0,000000000e+00    0,000000000e+00    0,000000000e+00
      870000000    7,344359905e-02   -3,803271651e-01    1,135949343e-01   -9,028880298e-02    0,000000000e+00    0,000000000e+00    0,000000000e+00    0,000000000e+00
      884000000   -2,991079688e-01   -3,630388677e-01    2,793996781e-02   -2,452174574e-01    0,000000000e+00    0,000000000e+00    0,000000000e+00    0,000000000e+00
      898000000   -4,757053256e-01    1,125732251e-02   -2,217247933e-01   -2,265377492e-01    0,000000000e+00    0,000000000e+00    0,000000000e+00    0,000000000e+00
      912000000   -2,261847854e-01    2,991405725e-01   -3,469485044e-01    5,630869791e-02    0,000000000e+00    0,000000000e+00    0,000000000e+00    0,000000000e+00
      926000000    6,955322623e-02    2,649352849e-01   -2,163977325e-01    2,592957914e-01    0,000000000e+00    0,000000000e+00    0,000000000e+00    0,000000000e+00
      940000000    2,193212658e-01    7,777384669e-02   -3,838627040e-02    3,263373971e-01    0,000000000e+00    0,000000000e+00    0,000000000e+00    0,000000000e+00
      954000000    2,269643694e-01   -1,284418255e-01    1,258465797e-01    3,065602779e-01    0,000000000e+00    0,000000000e+00    0,000000000e+00    0,000000000e+00
      968000000    1,170701757e-01   -3,022918105e-01    2,652740777e-01    2,200454026e-01    0,000000000e+00    0,000000000e+00    0,000000000e+00    0,000000000e+00
      982000000   -8,418214321e-02   -3,939613700e-01    3,616926670e-01    7,013498992e-02    0,000000000e+00    0,000000000e+00    0,000000000e+00    0,000000000e+00
      996000000   -3,219926953e-01   -3,296497762e-01    3,660983443e-01   -1,398135871e-01    0,000000000e+00    0,000000000e+00    0,000000000e+00    0,000000000e+00
     1010000000   -4,682192206e-01   -1,140234768e-01    2,216386497e-01   -3,354129791e-01    0,000000000e+00    0,000000000e+00    0,000000000e+00    0,000000000e+00
     1024000000   -4,150511324e-01    1,508074999e-01   -3,114430979e-02   -3,892796338e-01    0,000000000e+00    0,000000000e+00    0,000000000e+00    0,000000000e+00
     1038000000   -2,200721502e-01    2,965703011e-01   -2,453070283e-01   -2,578997612e-01    0,000000000e+00    0,000000000e+00    0,000000000e+00    0,000000000e+00
     1052000000   -2,715819282e-03    2,824741602e-01   -3,169230819e-01   -4,672765359e-02    0,000000000e+00    0,000000000e+00    0,000000000e+00    0,000000000e+00
     1066000000    1,415946037e-01    1,648297012e-01   -2,567740381e-01    1,421895474e-01    0,000000000e+00    0,000000000e+00    0,000000000e+00    0,000000000e+00
     1080000000    1,966373771e-01   -5,599936936e-03   -1,229502410e-01    2,639358044e-01    0,000000000e+00    0,000000000e+00    0,000000000e+00    0,000000000e+00
     1094000000    1,552901864e-01   -1,768921614e-01    5,927765742e-02    3,067070544e-01    0,000000000e+00    0,000000000e+00    0,000000000e+00    0,000000000e+00
     1108000000   -3,919257782e-03   -3,106634319e-01    2,711562216e-01    2,497152686e-01    0,000000000e+00    0,000000000e+00    0,000000000e+00    0,000000000e+00
     1122000000   -2,522205710e-01   -2,614602447e-01    4,688413441e-01    1,985316165e-02    0,000000000e+00    0,000000000e+00    0,000000000e+00    0,000000000e+00
     1136000000   -3,146921098e-01    4,436563328e-02    3,885846734e-01   -3,806897998e-01    0,000000000e+00    0,000000000e+00    0,000000000e+00    0,000000000e+00
     1150000000   -2,199235931e-02    1,482927203e-01    4,430201370e-03   -5,236371756e-01    0,000000000e+00    0,000000000e+00    0,000000000e+00    0,000000000e+00
     1164000000    1,273059696e-01   -7,593307644e-02   -2,638417482e-01   -3,616722226e-01    0,000000000e+00    0,000000000e+00    0,000000000e+00    0,000000000e+00
     1178000000    1,000963245e-02   -3,159428537e-01   -3,470870554e-01   -1,374243349e-01    0,000000000e+00    0,000000000e+00    0,000000000e+00    0,000000000e+00
     1192000000   -2,811143696e-01   -3,680697978e-01   -2,986658812e-01    5,674814805e-02    0,000000000e+00    0,000000000e+00    0,000000000e+00    0,000000000e+00
     1206000000   -5,312709808e-01   -1,481825560e-01   -1,480158567e-01    1,711800694e-01    0,000000000e+00    0,000000000e+00    0,000000000e+00    0,000000000e+00
     1220000000   -5,081784129e-01    1,822203249e-01    5,932385102e-03    1,362760961e-01    0,000000000e+00    0,000000000e+00    0,000000000e+00    0,000000000e+00
     1234000000   -2,818806171e-01    3,700903952e-01    5,575482920e-02    5,702651292e-02    0,000000000e+00    0,000000000e+00    0,000000000e+00    0,000000000e+00
     1248000000   -4,191345349e-02    3,639087081e-01    4,271951318e-02   -1,665775664e-03    0,000000000e+00    0,000000000e+00    0,000000000e+00    0,000000000e+00
     1262000000    1,242329031e-01    2,546565831e-01    1,312871464e-02   -1,358033530e-02    0,000000000e+00    0,000000000e+00    0,000000000e+00    0,000000000e+00
     1276000000    2,107520700e-01    9,295910597e-02   -4,660739098e-03    1,438508276e-02    0,000000000e+00    0,000000000e+00    0,000000000e+00    0,000000000e+00
     1290000000    2,223978490e-01   -8,189954609e-02    2,286197990e-02    5,832153559e-02    0,000000000e+00    0,000000000e+00    0,000000000e+00    0,000000000e+00
     1304000000    1,534209549e-01   -2,487778515e-01    1,469554752e-01    6,203592941e-02    0,000000000e+00    0,000000000e+00    0,000000000e+00    0,000000000e+00
     1318000000    3,606410697e-02   -3,387333155e-01    1,259514391e-01   -1,809615493e-01    0,000000000e+00    0,000000000e+00    0,000000000e+00    0,000000000e+00
     1332000000   -1,290353239e-01   -4,391051233e-01   -4,704901204e-02   -4,404445365e-02    0,000000000e+00    0,000000000e+00    0,000000000e+00    0,000000000e+00
     1346000000   -3,963958025e-01   -4,089222848e-01    1,895112731e-02    6,168694422e-02    0,000000000e+00    0,000000000e+00    0,000000000e+00    0,000000000e+00
     1360000000   -6,020031571e-01   -1,825595051e-01    1,295601577e-01    6,726644188e-02    0,000000000e+00    0,000000000e+00    0,000000000e+00    0,000000000e+00
     1374000000   -6,226696372e-01    1,270364672e-01    1,898981631e-01    1,417911518e-02    0,000000000e+00    0,000000000e+00    0,000000000e+00    0,000000000e+00
     1388000000   -4,609841704e-01    3,630712330e-01    2,033311427e-01   -7,041683048e-02    0,000000000e+00    0,000000000e+00    0,000000000e+00    0,000000000e+00
     1402000000   -2,344746590e-01    4,435244501e-01    1,786843389e-01   -1,022098660e-01    0,000000000e+00    0,000000000e+00    0,000000000e+00    0,000000000e+00
     1416000000   -2,387283742e-02    4,085015655e-01    1,634779871e-01   -1,124285907e-01    0,000000000e+00    0,000000000e+00    0,000000000e+00    0,000000000e+00
     1430000000    1,281707585e-01    2,996718585e-01    1,356402189e-01   -1,006185636e-01    0,000000000e+00    0,000000000e+00    0,000000000e+00    0,000000000e+00
     1444000000    2,142169327e-01    1,470185816e-01    1,436853260e-01   -1,023447812e-01    0,000000000e+00    0,000000000e+00    0,000000000e+00    0,000000000e+00
     1458000000    2,381228507e-01   -2,530656382e-02    1,307627708e-01   -7,244169712e-02    0,000000000e+00    0,000000000e+00    0,000000000e+00    0,000000000e+00
     1472000000    1,839015782e-01   -2,131038308e-01    1,260331869e-01   -4,147199169e-02    0,000000000e+00    0,000000000e+00    0,000000000e+00    0,000000000e+00
     1486000000    5,733322725e-02   -3,775173724e-01    1,649573594e-01    2,106009610e-02    0,000000000e+00    0,000000000e+00    0,000000000e+00    0,000000000e+00
     1500000000   -1,846504360e-01   -4,934521317e-01    2,351548076e-01    8,249269426e-02    0,000000000e+00    0,000000000e+00    0,000000000e+00    0,000000000e+00
