! NanoVNA-App
! Date: 2025-09-26 09:42:18
! Start: 100MHz Stop: 1,5GHz Points: 101
! S-Parameter data: F S11 S21 S12 S22
# Hz S RI R 50
!     Frequency           S11_Real           S11_Imag           S21_Real           S21_Imag           S12_Real           S12_Imag           S22_Real           S22_Imag
      100000000   -2,898862585e-02   -4,495939706e-03    3,738893270e-01   -7,230496407e-01    0,000000000e+00    0,000000000e+00    0,000000000e+00    0,000000000e+00
      114000000   -1,687105931e-02    1,122924313e-02   -9,015630186e-02   -8,064528704e-01    0,000000000e+00    0,000000000e+00    0,000000000e+00    0,000000000e+00
      128000000    2,916258760e-03    1,053787395e-02   -5,160362124e-01   -6,207677722e-01    0,000000000e+00    0,000000000e+00    0,000000000e+00    0,000000000e+00
      142000000    1,404439658e-02   -2,627202310e-03   -7,686004639e-01   -2,361383885e-01    0,000000000e+00    0,000000000e+00    0,000000000e+00    0,000000000e+00
      156000000    1,410288922e-02   -1,436215639e-02   -7,647639513e-01    2,202068567e-01    0,000000000e+00    0,000000000e+00    0,000000000e+00    0,000000000e+00
      170000000    1,681789570e-02   -2,221409231e-02   -5,179811120e-01    6,061226726e-01    0,000000000e+00    0,000000000e+00    0,000000000e+00    0,000000000e+00
      184000000    2,115430124e-02   -3,711532801e-02   -1,002693549e-01    7,874023914e-01    0,000000000e+00    0,000000000e+00    0,000000000e+00    0,000000000e+00
      198000000    1,287091523e-02   -6,254509091e-02    3,446215391e-01    7,129777670e-01    0,000000000e+00    0,000000000e+00    0,000000000e+00    0,000000000e+00
      212000000   -1,886334084e-02   -8,109617978e-02    6,800083518e-01    4,098184407e-01    0,000000000e+00    0,000000000e+00    0,000000000e+00    0,000000000e+00
      226000000   -6,153574213e-02   -6,863734126e-02    7,975090146e-01   -3,127187118e-02    0,000000000e+00    0,000000000e+00    0,000000000e+00    0,000000000e+00
      240000000   -8,199195564e-02   -2,552967519e-02    6,473781466e-01   -4,682326019e-01    0,000000000e+00    0,000000000e+00    0,000000000e+00    0,000000000e+00
      254000000   -6,301209331e-02    1,681960560e-02    2,770346701e-01   -7,449600697e-01    0,000000000e+00    0,000000000e+00    0,000000000e+00    0,000000000e+00
      268000000   -2,367549390e-02    2,823786251e-02   -1,781217754e-01   -7,661927342e-01    0,000000000e+00    0,000000000e+00    0,000000000e+00    0,000000000e+00
      282000000    3,694199258e-03    1,151421387e-02   -5,628919601e-01   -5,377044678e-01    0,000000000e+00    0,000000000e+00    0,000000000e+00    0,000000000e+00
      296000000    9,388834238e-03   -7,762553170e-03   -7,616451979e-01   -1,408682019e-01    0,000000000e+00    0,000000000e+00    0,000000000e+00    0,000000000e+00
      310000000    1,099781319e-02   -1,596603729e-02   -7,145336866e-01    3,006959856e-01    0,000000000e+00    0,000000000e+00    0,000000000e+00    0,000000000e+00
      324000000    1,998174936e-02   -2,659737505e-02   -4,275842309e-01    6,393267512e-01    0,000000000e+00    0,000000000e+00    0,000000000e+00    0,000000000e+00
      338000000    2,535601519e-02   -5,280831084e-02   -7,012145594e-03    7,635117173e-01    0,000000000e+00    0,000000000e+00    0,000000000e+00    0,000000000e+00
      352000000    6,727535278e-03   -8,505615592e-02    4,070808291e-01    6,415777802e-01    0,000000000e+00    0,000000000e+00    0,000000000e+00    0,000000000e+00
      366000000   -3,561127931e-02   -9,510707855e-02    6,927895546e-01    3,127986491e-01    0,000000000e+00    0,000000000e+00    0,000000000e+00    0,000000000e+00
      380000000   -7,105351985e-02   -7,034007460e-02    7,494686246e-01   -1,264666170e-01    0,000000000e+00    0,000000000e+00    0,000000000e+00    0,000000000e+00
      394000000   -7,221551985e-02   -3,155444935e-02    5,482553244e-01   -5,228046775e-01    0,000000000e+00    0,000000000e+00    0,000000000e+00    0,000000000e+00
      408000000   -4,591701925e-02   -1,576285250e-02    1,607101113e-01   -7,341154814e-01    0,000000000e+00    0,000000000e+00    0,000000000e+00    0,000000000e+00
      422000000   -2,789614908e-02   -3,294561803e-02   -2,679749131e-01   -6,978523731e-01    0,000000000e+00    0,000000000e+00    0,000000000e+00    0,000000000e+00
      436000000   -4,083795100e-02   -5,252620950e-02   -6,048015952e-01   -4,346958995e-01    0,000000000e+00    0,000000000e+00    0,000000000e+00    0,000000000e+00
      450000000   -6,748661399e-02   -4,390192032e-02   -7,428249121e-01   -2,250718884e-02    0,000000000e+00    0,000000000e+00    0,000000000e+00    0,000000000e+00
      464000000   -7,287424058e-02   -1,162929460e-02   -6,211941838e-01    3,975839317e-01    0,000000000e+00    0,000000000e+00    0,000000000e+00    0,000000000e+00
      478000000   -4,704571888e-02    1,114004757e-02   -2,836295664e-01    6,686139703e-01    0,000000000e+00    0,000000000e+00    0,000000000e+00    0,000000000e+00
      492000000   -1,555252448e-02    5,307378247e-03    1,371808350e-01    7,040059566e-01    0,000000000e+00    0,000000000e+00    0,000000000e+00    0,000000000e+00
      506000000   -3,429802135e-03   -1,677257940e-02    4,998517632e-01    5,047480464e-01    0,000000000e+00    0,000000000e+00    0,000000000e+00    0,000000000e+00
      520000000   -5,797083024e-03   -3,163124621e-02    6,887310147e-01    1,441767961e-01    0,000000000e+00    0,000000000e+00    0,000000000e+00    0,000000000e+00
      534000000   -4,150938708e-03   -3,752427921e-02    6,452829838e-01   -2,625420094e-01    0,000000000e+00    0,000000000e+00    0,000000000e+00    0,000000000e+00
      548000000    6,395467557e-03   -5,405158550e-02    3,827222586e-01   -5,684197545e-01    0,000000000e+00    0,000000000e+00    0,000000000e+00    0,000000000e+00
      562000000    2,936957404e-03   -9,011327475e-02    3,086986020e-03   -6,747099161e-01    0,000000000e+00    0,000000000e+00    0,000000000e+00    0,000000000e+00
      576000000   -3,487977758e-02   -1,254167706e-01   -3,692914546e-01   -5,592708588e-01    0,000000000e+00    0,000000000e+00    0,000000000e+00    0,000000000e+00
      590000000   -9,718368202e-02   -1,223068088e-01   -6,237258911e-01   -2,647711933e-01    0,000000000e+00    0,000000000e+00    0,000000000e+00    0,000000000e+00
      604000000   -1,390773803e-01   -7,107913494e-02   -6,670563221e-01    1,368910372e-01    0,000000000e+00    0,000000000e+00    0,000000000e+00    0,000000000e+00
      618000000   -1,290492117e-01   -8,814894594e-03   -4,669486284e-01    4,962172210e-01    0,000000000e+00    0,000000000e+00    0,000000000e+00    0,000000000e+00
      632000000   -8,345042914e-02    1,573112980e-02   -1,002849787e-01    6,661943197e-01    0,000000000e+00    0,000000000e+00    0,000000000e+00    0,000000000e+00
      646000000   -5,076972395e-02   -5,732828868e-04    2,868709266e-01    5,964676142e-01    0,000000000e+00    0,000000000e+00    0,000000000e+00    0,000000000e+00
      660000000   -5,417929590e-02   -2,178827859e-02    5,688965321e-01    3,243326843e-01    0,000000000e+00    0,000000000e+00    0,000000000e+00    0,000000000e+00
      674000000   -7,080596685e-02   -1,626723818e-02    6,444206238e-01   -6,570871919e-02    0,000000000e+00    0,000000000e+00    0,000000000e+00    0,000000000e+00
      688000000   -6,783895940e-02    9,393617511e-03    4,716476202e-01   -4,294757247e-01    0,000000000e+00    0,000000000e+00    0,000000000e+00    0,000000000e+00
      702000000   -3,608293459e-02    2,545555122e-02    1,190229878e-01   -6,095526814e-01    0,000000000e+00    0,000000000e+00    0,000000000e+00    0,000000000e+00
      716000000    3,146641888e-03    1,701715030e-02   -2,646671832e-01   -5,465208888e-01    0,000000000e+00    0,000000000e+00    0,000000000e+00    0,000000000e+00
      730000000    3,606000543e-02   -1,136175357e-02   -5,298197269e-01   -2,688936591e-01    0,000000000e+00    0,000000000e+00    0,000000000e+00    0,000000000e+00
      744000000    6,604804844e-02   -6,209518015e-02   -5,655481219e-01    1,075056717e-01    0,000000000e+00    0,000000000e+00    0,000000000e+00    0,000000000e+00
      758000000    6,736018509e-02   -1,527620554e-01   -3,620593846e-01    4,113308191e-01    0,000000000e+00    0,000000000e+00    0,000000000e+00    0,000000000e+00
      772000000   -1,226898842e-02   -2,652346492e-01   -3,297295421e-02    5,162121654e-01    0,000000000e+00    0,000000000e+00    0,000000000e+00    0,000000000e+00
      786000000   -2,089450061e-01   -3,057153225e-01    2,752341330e-01    3,939073682e-01    0,000000000e+00    0,000000000e+00    0,000000000e+00    0,000000000e+00
      800000000   -4,311906099e-01   -1,296066195e-01    4,167836905e-01    9,554789960e-02    0,000000000e+00    0,000000000e+00    0,000000000e+00    0,000000000e+00
      814000000   -3,898825347e-01    2,275897712e-01    2,786189914e-01   -1,762981713e-01    0,000000000e+00    0,000000000e+00    0,000000000e+00    0,000000000e+00
      828000000   -4,555742443e-02    3,719585240e-01    5,129850283e-02   -1,881714463e-01    0,000000000e+00    0,000000000e+00    0,000000000e+00    0,000000000e+00
      842000000    2,396296710e-01    1,847774237e-01   -1,914344542e-02   -6,840509176e-02    0,000000000e+00    0,000000000e+00    0,000000000e+00    0,000000000e+00
      856000000    2,826977670e-01   -1,286333054e-01    4,549783096e-02   -1,113923918e-02    0,000000000e+00    0,000000000e+00    0,000000000e+00    0,000000000e+00
      870000000    7,371167839e-02   -3,805524111e-01    1,143684685e-01   -9,044101089e-02    0,000000000e+00    0,000000000e+00    0,000000000e+00    0,000000000e+00
      884000000   -2,995453179e-01   -3,642151654e-01    2,722841688e-02   -2,451210171e-01    0,000000000e+00    0,000000000e+00    0,000000000e+00    0,000000000e+00
      898000000   -4,756938517e-01    1,120968256e-02   -2,215758860e-01   -2,262163758e-01    0,000000000e+00    0,000000000e+00    0,000000000e+00    0,000000000e+00
      912000000   -2,255159020e-01    2,987643480e-01   -3,445186019e-01    7,159186155e-02    0,000000000e+00    0,000000000e+00    0,000000000e+00    0,000000000e+00
      926000000    6,989070773e-02    2,652846277e-01   -2,169557214e-01    2,597695887e-01    0,000000000e+00    0,000000000e+00    0,000000000e+00    0,000000000e+00
      940000000    2,182477564e-01    8,096003532e-02   -4,029810429e-02    3,264947534e-01    0,000000000e+00    0,000000000e+00    0,000000000e+00    0,000000000e+00
      954000000    2,278466076e-01   -1,298223436e-01    1,265192330e-01    3,050679564e-01    0,000000000e+00    0,000000000e+00    0,000000000e+00    0,000000000e+00
      968000000    1,160516813e-01   -3,054612279e-01    2,653185725e-01    2,200681567e-01    0,000000000e+00    0,000000000e+00    0,000000000e+00    0,000000000e+00
      982000000   -8,242417127e-02   -3,896165788e-01    3,614607155e-01    6,970459968e-02    0,000000000e+00    0,000000000e+00    0,000000000e+00    0,000000000e+00
      996000000   -3,213192523e-01   -3,347066939e-01    3,667244315e-01   -1,412985921e-01    0,000000000e+00    0,000000000e+00    0,000000000e+00    0,000000000e+00
     1010000000   -4,676245749e-01   -1,128448099e-01    2,213801593e-01   -3,382532299e-01    0,000000000e+00    0,000000000e+00    0,000000000e+00    0,000000000e+00
     1024000000   -4,186844528e-01    1,566937268e-01   -3,180402517e-02   -3,884864151e-01    0,000000000e+00    0,000000000e+00    0,000000000e+00    0,000000000e+00
     1038000000   -2,143004537e-01    2,940607071e-01   -2,470907420e-01   -2,583182156e-01    0,000000000e+00    0,000000000e+00    0,000000000e+00    0,000000000e+00
     1052000000   -8,164712228e-03    2,816475928e-01   -3,167172670e-01   -4,647092894e-02    0,000000000e+00    0,000000000e+00    0,000000000e+00    0,000000000e+00
     1066000000    1,378653347e-01    1,608409137e-01   -2,587392032e-01    1,441563666e-01    0,000000000e+00    0,000000000e+00    0,000000000e+00    0,000000000e+00
     1080000000    1,971572787e-01   -5,536460318e-03   -1,229728237e-01    2,640965283e-01    0,000000000e+00    0,000000000e+00    0,000000000e+00    0,000000000e+00
     1094000000    1,530699283e-01   -1,770116985e-01    5,908753350e-02    3,066619933e-01    0,000000000e+00    0,000000000e+00    0,000000000e+00    0,000000000e+00
     1108000000   -3,696780419e-03   -3,088782728e-01    2,711767852e-01    2,507932484e-01    0,000000000e+00    0,000000000e+00    0,000000000e+00    0,000000000e+00
     1122000000   -2,526212335e-01   -2,577354312e-01    4,654014409e-01    1,657827199e-02    0,000000000e+00    0,000000000e+00    0,000000000e+00    0,000000000e+00
     1136000000   -3,131307364e-01    4,138809443e-02    3,899377286e-01   -3,823074400e-01    0,000000000e+00    0,000000000e+00    0,000000000e+00    0,000000000e+00
     1150000000   -2,460856736e-02    1,503066421e-01    2,556593623e-03   -5,214741230e-01    0,000000000e+00    0,000000000e+00    0,000000000e+00    0,000000000e+00
     1164000000    1,300870180e-01   -8,135208488e-02   -2,646387815e-01   -3,580595553e-01    0,000000000e+00    0,000000000e+00    0,000000000e+00    0,000000000e+00
     1178000000    5,704173818e-03   -3,151746094e-01   -3,479105532e-01   -1,374000609e-01    0,000000000e+00    0,000000000e+00    0,000000000e+00    0,000000000e+00
     1192000000   -2,827883065e-01   -3,709508777e-01   -2,984465361e-01    5,781154335e-02    0,000000000e+00    0,000000000e+00    0,000000000e+00    0,000000000e+00
     1206000000   -5,286904573e-01   -1,498360634e-01   -1,480141580e-01    1,637712121e-01    0,000000000e+00    0,000000000e+00    0,000000000e+00    0,000000000e+00
     1220000000   -5,128954053e-01    1,785688847e-01   -2,161881654e-03    1,417785436e-01    0,000000000e+00    0,000000000e+00    0,000000000e+00    0,000000000e+00
     1234000000   -2,802510262e-01    3,640446365e-01    5,633560196e-02    5,400486290e-02    0,000000000e+00    0,000000000e+00    0,000000000e+00    0,000000000e+00
     1248000000   -3,649882972e-02    3,690705895e-01    5,088889599e-02   -3,292844922e-04    0,000000000e+00    0,000000000e+00    0,000000000e+00    0,000000000e+00
     1262000000    1,293978244e-01    2,571924329e-01    1,178893261e-02   -1,294349506e-02    0,000000000e+00    0,000000000e+00    0,000000000e+00    0,000000000e+00
     1276000000    2,141032666e-01    9,389212728e-02   -1,277621370e-03    1,491787657e-02    0,000000000e+00    0,000000000e+00    0,000000000e+00    0,000000000e+00
     1290000000    2,232392877e-01   -8,060081303e-02    2,362345345e-02    6,285352260e-02    0,000000000e+00    0,000000000e+00    0,000000000e+00    0,000000000e+00
     1304000000    1,514322758e-01   -2,492305189e-01    1,513141841e-01    6,318545341e-02    0,000000000e+00    0,000000000e+00    0,000000000e+00    0,000000000e+00
     1318000000    3,833384067e-02   -3,374484479e-01    1,212430820e-01   -1,829654276e-01    0,000000000e+00    0,000000000e+00    0,000000000e+00    0,000000000e+00
     1332000000   -1,324577630e-01   -4,394665956e-01   -5,376330391e-02   -5,341571942e-02    0,000000000e+00    0,000000000e+00    0,000000000e+00    0,000000000e+00
     1346000000   -3,889750242e-01   -4,073026180e-01    1,751262136e-02    6,802321225e-02    0,000000000e+00    0,000000000e+00    0,000000000e+00    0,000000000e+00
     1360000000   -6,136242151e-01   -1,924299300e-01    1,194475070e-01    6,030485407e-02    0,000000000e+00    0,000000000e+00    0,000000000e+00    0,000000000e+00
     1374000000   -6,295204759e-01    1,233904362e-01    1,925401837e-01   -1,292837696e-04    0,000000000e+00    0,000000000e+00    0,000000000e+00    0,000000000e+00
     1388000000   -4,620319605e-01    3,615990877e-01    1,966715157e-01   -7,249505818e-02    0,000000000e+00    0,000000000e+00    0,000000000e+00    0,000000000e+00
     1402000000   -2,319274098e-01    4,444206059e-01    1,815749556e-01   -1,034193635e-01    0,000000000e+00    0,000000000e+00    0,000000000e+00    0,000000000e+00
     1416000000   -1,988727227e-02    4,058158398e-01    1,719430834e-01   -1,047711670e-01    0,000000000e+00    0,000000000e+00    0,000000000e+00    0,000000000e+00
     1430000000    1,283655763e-01    2,964964211e-01    1,387222260e-01   -1,001988053e-01    0,000000000e+00    0,000000000e+00    0,000000000e+00    0,000000000e+00
     1444000000    2,084086537e-01    1,464041919e-01    1,421656609e-01   -1,062284186e-01    0,000000000e+00    0,000000000e+00    0,000000000e+00    0,000000000e+00
     1458000000    2,379934192e-01   -2,899081446e-02    1,351200938e-01   -8,285425603e-02    0,000000000e+00    0,000000000e+00    0,000000000e+00    0,000000000e+00
     1472000000    1,906531751e-01   -2,102163732e-01    1,335393190e-01   -3,970628232e-02    0,000000000e+00    0,000000000e+00    0,000000000e+00    0,000000000e+00
     1486000000    5,167187750e-02   -3,779039681e-01    1,415025741e-01    1,965526491e-02    0,000000000e+00    0,000000000e+00    0,000000000e+00    0,000000000e+00
     1500000000   -1,811574250e-01   -4,979379177e-01    2,406836003e-01    7,044798136e-02    0,000000000e+00    0,000000000e+00    0,000000000e+00    0,000000000e+00
