! NanoVNA-App
! Date: 2025-09-26 09:42:40
! Start: 100MHz Stop: 1,5GHz Points: 101
! S-Parameter data: F S11 S21 S12 S22
# Hz S RI R 50
!     Frequency           S11_Real           S11_Imag           S21_Real           S21_Imag           S12_Real           S12_Imag           S22_Real           S22_Imag
      100000000   -2,897625044e-02   -4,480783362e-03    3,739700615e-01   -7,230527997e-01    0,000000000e+00    0,000000000e+00    0,000000000e+00    0,000000000e+00
      114000000   -1,687656157e-02    1,124328189e-02   -9,005778283e-02   -8,064275980e-01    0,000000000e+00    0,000000000e+00    0,000000000e+00    0,000000000e+00
      128000000    2,916032681e-03    1,050989330e-02   -5,160811543e-01   -6,208185554e-01    0,000000000e+00    0,000000000e+00    0,000000000e+00    0,000000000e+00
      142000000    1,404443942e-02   -2,644272288e-03   -7,686476111e-01   -2,362172455e-01    0,000000000e+00    0,000000000e+00    0,000000000e+00    0,000000000e+00
      156000000    1,461001020e-02   -1,452192198e-02   -7,674429417e-01    2,195336372e-01    0,000000000e+00    0,000000000e+00    0,000000000e+00    0,000000000e+00
      170000000    1,680200174e-02   -2,221299522e-02   -5,180629492e-01    6,065900326e-01    0,000000000e+00    0,000000000e+00    0,000000000e+00    0,000000000e+00
      184000000    2,110261098e-02   -3,711225092e-02   -1,001054943e-01    7,874553204e-01    0,000000000e+00    0,000000000e+00    0,000000000e+00    0,000000000e+00
      198000000    1,283595618e-02   -6,252086163e-02    3,451991379e-01    7,131789923e-01    0,000000000e+00    0,000000000e+00    0,000000000e+00    0,000000000e+00
      212000000   -1,887662895e-02   -8,111476153e-02    6,799319386e-01    4,098897874e-01    0,000000000e+00    0,000000000e+00    0,000000000e+00    0,000000000e+00
      226000000   -6,158851832e-02   -6,867436320e-02    7,974476814e-01   -3,130846098e-02    0,000000000e+00    0,000000000e+00    0,000000000e+00    0,000000000e+00
      240000000   -8,189363033e-02   -2,556833625e-02    6,476458907e-01   -4,683692157e-01    0,000000000e+00    0,000000000e+00    0,000000000e+00    0,000000000e+00
      254000000   -6,309079379e-02    1,681402884e-02    2,769544721e-01   -7,451189756e-01    0,000000000e+00    0,000000000e+00    0,000000000e+00    0,000000000e+00
      268000000   -2,371995710e-02    2,826875448e-02   -1,779100597e-01   -7,662360668e-01    0,000000000e+00    0,000000000e+00    0,000000000e+00    0,000000000e+00
      282000000    3,698501037e-03    1,140652783e-02   -5,632473826e-01   -5,375722051e-01    0,000000000e+00    0,000000000e+00    0,000000000e+00    0,000000000e+00
      296000000    9,331156500e-03   -7,748801261e-03   -7,614245415e-01   -1,409099400e-01    0,000000000e+00    0,000000000e+00    0,000000000e+00    0,000000000e+00
      310000000    1,111400127e-02   -1,580800861e-02   -7,141508460e-01    2,998312712e-01    0,000000000e+00    0,000000000e+00    0,000000000e+00    0,000000000e+00
      324000000    1,984927617e-02   -2,648780309e-02   -4,287800491e-01    6,395110488e-01    0,000000000e+00    0,000000000e+00    0,000000000e+00    0,000000000e+00
      338000000    2,540581301e-02   -5,259477720e-02   -7,495993748e-03    7,623223662e-01    0,000000000e+00    0,000000000e+00    0,000000000e+00    0,000000000e+00
      352000000    6,886443123e-03   -8,513784409e-02    4,073615670e-01    6,412961483e-01    0,000000000e+00    0,000000000e+00    0,000000000e+00    0,000000000e+00
      366000000   -3,562379256e-02   -9,525709599e-02    6,921614408e-01    3,119336963e-01    0,000000000e+00    0,000000000e+00    0,000000000e+00    0,000000000e+00
      380000000   -7,097107917e-02   -7,017627358e-02    7,496147156e-01   -1,263621598e-01    0,000000000e+00    0,000000000e+00    0,000000000e+00    0,000000000e+00
      394000000   -7,206263393e-02   -3,151461110e-02    5,489706993e-01   -5,234440565e-01    0,000000000e+00    0,000000000e+00    0,000000000e+00    0,000000000e+00
      408000000   -4,580017552e-02   -1,622925885e-02    1,619737744e-01   -7,331312895e-01    0,000000000e+00    0,000000000e+00    0,000000000e+00    0,000000000e+00
      422000000   -2,817877382e-02   -3,267048299e-02   -2,673559189e-01   -6,973226070e-01    0,000000000e+00    0,000000000e+00    0,000000000e+00    0,000000000e+00
      436000000   -4,083227739e-02   -5,239667743e-02   -6,048416495e-01   -4,340274632e-01    0,000000000e+00    0,000000000e+00    0,000000000e+00    0,000000000e+00
      450000000   -6,752790511e-02   -4,359139502e-02   -7,424300909e-01   -2,232667059e-02    0,000000000e+00    0,000000000e+00    0,000000000e+00    0,000000000e+00
      464000000   -7,288683206e-02   -1,135555841e-02   -6,210999489e-01    3,976075053e-01    0,000000000e+00    0,000000000e+00    0,000000000e+00    0,000000000e+00
      478000000   -4,696935415e-02    1,138172112e-02   -2,835673392e-01    6,691105962e-01    0,000000000e+00    0,000000000e+00    0,000000000e+00    0,000000000e+00
      492000000   -1,575660706e-02    4,754832480e-03    1,367571950e-01    7,036163807e-01    0,000000000e+00    0,000000000e+00    0,000000000e+00    0,000000000e+00
      506000000   -3,373749321e-03   -1,630556956e-02    4,988613129e-01    5,057237148e-01    0,000000000e+00    0,000000000e+00    0,000000000e+00    0,000000000e+00
      520000000   -6,310365628e-03   -3,171949089e-02    6,903878450e-01    1,418313980e-01    0,000000000e+00    0,000000000e+00    0,000000000e+00    0,000000000e+00
      534000000   -4,392555915e-03   -3,783702478e-02    6,448926926e-01   -2,626294792e-01    0,000000000e+00    0,000000000e+00    0,000000000e+00    0,000000000e+00
      548000000    6,569129881e-03   -5,381353199e-02    3,829725981e-01   -5,682056546e-01    0,000000000e+00    0,000000000e+00    0,000000000e+00    0,000000000e+00
      562000000    3,510519397e-03   -8,971373737e-02    3,434430342e-03   -6,742320061e-01    0,000000000e+00    0,000000000e+00    0,000000000e+00    0,000000000e+00
      576000000   -3,486584872e-02   -1,244741902e-01   -3,690419793e-01   -5,600005388e-01    0,000000000e+00    0,000000000e+00    0,000000000e+00    0,000000000e+00
      590000000   -9,727611393e-02   -1,224177927e-01   -6,213679314e-01   -2,668769658e-01    0,000000000e+00    0,000000000e+00    0,000000000e+00    0,000000000e+00
      604000000   -1,396531314e-01   -7,064445317e-02   -6,676443219e-01    1,369007528e-01    0,000000000e+00    0,000000000e+00    0,000000000e+00    0,000000000e+00
      618000000   -1,289721727e-01   -8,757121861e-03   -4,666073024e-01    4,959038198e-01    0,000000000e+00    0,000000000e+00    0,000000000e+00    0,000000000e+00
      632000000   -8,346773684e-02    1,605935767e-02   -1,017087996e-01    6,652852893e-01    0,000000000e+00    0,000000000e+00    0,000000000e+00    0,000000000e+00
      646000000   -5,041499436e-02   -8,382577798e-04    2,874934673e-01    5,975043178e-01    0,000000000e+00    0,000000000e+00    0,000000000e+00    0,000000000e+00
      660000000   -5,474774539e-02   -2,267314307e-02    5,681508183e-01    3,251360357e-01    0,000000000e+00    0,000000000e+00    0,000000000e+00    0,000000000e+00
      674000000   -7,091504335e-02   -1,637753285e-02    6,443088651e-01   -6,570289284e-02    0,000000000e+00    0,000000000e+00    0,000000000e+00    0,000000000e+00
      688000000   -6,794004142e-02    9,067063220e-03    4,722768366e-01   -4,287477136e-01    0,000000000e+00    0,000000000e+00    0,000000000e+00    0,000000000e+00
      702000000   -3,627019376e-02    2,601370402e-02    1,139686108e-01   -6,104558706e-01    0,000000000e+00    0,000000000e+00    0,000000000e+00    0,000000000e+00
      716000000    2,929293318e-03    1,644529961e-02   -2,663090229e-01   -5,485554934e-01    0,000000000e+00    0,000000000e+00    0,000000000e+00    0,000000000e+00
      730000000    3,694833070e-02   -1,163512003e-02   -5,302921534e-01   -2,695334256e-01    0,000000000e+00    0,000000000e+00    0,000000000e+00    0,000000000e+00
      744000000    6,506453454e-02   -6,220397726e-02   -5,650692582e-01    1,068247035e-01    0,000000000e+00    0,000000000e+00    0,000000000e+00    0,000000000e+00
      758000000    6,693527102e-02   -1,533197612e-01   -3,622477949e-01    4,108313322e-01    0,000000000e+00    0,000000000e+00    0,000000000e+00    0,000000000e+00
      772000000   -1,336183492e-02   -2,660170496e-01   -3,266432136e-02    5,155462623e-01    0,000000000e+00    0,000000000e+00    0,000000000e+00    0,000000000e+00
      786000000   -2,099600732e-01   -3,046456575e-01    2,755221128e-01    3,931981921e-01    0,000000000e+00    0,000000000e+00    0,000000000e+00    0,000000000e+00
      800000000   -4,297973514e-01   -1,297648251e-01    4,169782698e-01    9,643130004e-02    0,000000000e+00    0,000000000e+00    0,000000000e+00    0,000000000e+00
      814000000   -3,897323608e-01    2,260447592e-01    2,785524428e-01   -1,755831987e-01    0,000000000e+00    0,000000000e+00    0,000000000e+00    0,000000000e+00
      828000000   -4,507645592e-02    3,702550828e-01    5,083843321e-02   -1,881728321e-01    0,000000000e+00    0,000000000e+00    0,000000000e+00    0,000000000e+00
      842000000    2,398299873e-01    1,849598289e-01   -1,895732991e-02   -6,881285459e-02    0,000000000e+00    0,000000000e+00    0,000000000e+00    0,000000000e+00
      856000000    2,827857733e-01   -1,280144602e-01    4,440039396e-02   -1,136609353e-02    0,000000000e+00    0,000000000e+00    0,000000000e+00    0,000000000e+00
      870000000    7,404356450e-02   -3,804593682e-01    1,141701415e-01   -9,011703730e-02    0,000000000e+00    0,000000000e+00    0,000000000e+00    0,000000000e+00
      884000000   -2,992227077e-01   -3,637090921e-01    2,801834047e-02   -2,444514483e-01    0,000000000e+00    0,000000000e+00    0,000000000e+00    0,000000000e+00
      898000000   -4,764979780e-01    9,856770746e-03   -2,220026851e-01   -2,265282571e-01    0,000000000e+00    0,000000000e+00    0,000000000e+00    0,000000000e+00
      912000000   -2,266876251e-01    2,973863780e-01   -3,463270366e-01    7,302505523e-02    0,000000000e+00    0,000000000e+00    0,000000000e+00    0,000000000e+00
      926000000    7,093152404e-02    2,644856870e-01   -2,166017741e-01    2,592901289e-01    0,000000000e+00    0,000000000e+00    0,000000000e+00    0,000000000e+00
      940000000    2,211462408e-01    7,994020730e-02   -3,897921741e-02    3,259536922e-01    0,000000000e+00    0,000000000e+00    0,000000000e+00    0,000000000e+00
      954000000    2,275560945e-01   -1,293143034e-01    1,261027455e-01    3,047033548e-01    0,000000000e+00    0,000000000e+00    0,000000000e+00    0,000000000e+00
      968000000    1,178708822e-01   -3,010437489e-01    2,666960359e-01    2,192589790e-01    0,000000000e+00    0,000000000e+00    0,000000000e+00    0,000000000e+00
      982000000   -8,355968446e-02   -3,932369053e-01    3,611025810e-01    6,959797442e-02    0,000000000e+00    0,000000000e+00    0,000000000e+00    0,000000000e+00
      996000000   -3,195326626e-01   -3,338739574e-01    3,682782948e-01   -1,415076256e-01    0,000000000e+00    0,000000000e+00    0,000000000e+00    0,000000000e+00
     1010000000   -4,702862799e-01   -1,081609577e-01    2,211946249e-01   -3,380503058e-01    0,000000000e+00    0,000000000e+00    0,000000000e+00    0,000000000e+00
     1024000000   -4,208528101e-01    1,519356072e-01   -3,297818452e-02   -3,892568648e-01    0,000000000e+00    0,000000000e+00    0,000000000e+00    0,000000000e+00
     1038000000   -2,202002257e-01    2,928902507e-01   -2,459423095e-01   -2,582838833e-01    0,000000000e+00    0,000000000e+00    0,000000000e+00    0,000000000e+00
     1052000000   -7,990826853e-03    2,792991102e-01   -3,174613118e-01   -4,482567683e-02    0,000000000e+00    0,000000000e+00    0,000000000e+00    0,000000000e+00
     1066000000    1,381835341e-01    1,622245461e-01   -2,574861944e-01    1,406778842e-01    0,000000000e+00    0,000000000e+00    0,000000000e+00    0,000000000e+00
     1080000000    1,977954209e-01   -5,587460008e-03   -1,237870827e-01    2,630577683e-01    0,000000000e+00    0,000000000e+00    0,000000000e+00    0,000000000e+00
     1094000000    1,556998938e-01   -1,828126013e-01    5,710845068e-02    3,051997125e-01    0,000000000e+00    0,000000000e+00    0,000000000e+00    0,000000000e+00
     1108000000   -3,281974001e-03   -3,101789653e-01    2,717368901e-01    2,543683648e-01    0,000000000e+00    0,000000000e+00    0,000000000e+00    0,000000000e+00
     1122000000   -2,601971626e-01   -2,604686320e-01    4,680364728e-01    1,843263395e-02    0,000000000e+00    0,000000000e+00    0,000000000e+00    0,000000000e+00
     1136000000   -3,159308136e-01    4,303262383e-02    3,910182118e-01   -3,834612966e-01    0,000000000e+00    0,000000000e+00    0,000000000e+00    0,000000000e+00
     1150000000   -2,939035371e-02    1,447397470e-01    3,289779881e-03   -5,236911178e-01    0,000000000e+00    0,000000000e+00    0,000000000e+00    0,000000000e+00
     1164000000    1,278000027e-01   -7,539478689e-02   -2,655692101e-01   -3,606313765e-01    0,000000000e+00    0,000000000e+00    0,000000000e+00    0,000000000e+00
     1178000000    7,325800136e-03   -3,207961321e-01   -3,470073938e-01   -1,416701674e-01    0,000000000e+00    0,000000000e+00    0,000000000e+00    0,000000000e+00
     1192000000   -2,814589739e-01   -3,721089065e-01   -2,998893261e-01    5,653874204e-02    0,000000000e+00    0,000000000e+00    0,000000000e+00    0,000000000e+00
     1206000000   -5,309952497e-01   -1,472107470e-01   -1,494248658e-01    1,673160642e-01    0,000000000e+00    0,000000000e+00    0,000000000e+00    0,000000000e+00
     1220000000   -5,100037456e-01    1,847748011e-01    2,327346476e-03    1,403258741e-01    0,000000000e+00    0,000000000e+00    0,000000000e+00    0,000000000e+00
     1234000000   -2,756683826e-01    3,678081334e-01    5,914283916e-02    5,814973265e-02    0,000000000e+00    0,000000000e+00    0,000000000e+00    0,000000000e+00
     1248000000   -3,366503865e-02    3,607081175e-01    4,965420067e-02   -5,111803766e-03    0,000000000e+00    0,000000000e+00    0,000000000e+00    0,000000000e+00
     1262000000    1,321777105e-01    2,543244958e-01    1,794649288e-02   -1,259237155e-02    0,000000000e+00    0,000000000e+00    0,000000000e+00    0,000000000e+00
     1276000000    2,140863985e-01    9,578725696e-02   -6,028312258e-03    1,038781274e-02    0,000000000e+00    0,000000000e+00    0,000000000e+00    0,000000000e+00
     1290000000    2,235860825e-01   -7,975099236e-02    2,884960175e-02    6,377475709e-02    0,000000000e+00    0,000000000e+00    0,000000000e+00    0,000000000e+00
     1304000000    1,535417438e-01   -2,463747114e-01    1,477770060e-01    6,586289406e-02    0,000000000e+00    0,000000000e+00    0,000000000e+00    0,000000000e+00
     1318000000    3,626268357e-02   -3,371472359e-01    1,231701002e-01   -1,722293496e-01    0,000000000e+00    0,000000000e+00    0,000000000e+00    0,000000000e+00
     1332000000   -1,280493885e-01   -4,416982234e-01   -4,324380681e-02   -5,210150778e-02    0,000000000e+00    0,000000000e+00    0,000000000e+00    0,000000000e+00
     1346000000   -3,929219544e-01   -4,061855674e-01    2,015882730e-02    6,981182843e-02    0,000000000e+00    0,000000000e+00    0,000000000e+00    0,000000000e+00
     1360000000   -6,063842773e-01   -1,899709105e-01    1,133333817e-01    6,654447317e-02    0,000000000e+00    0,000000000e+00    0,000000000e+00    0,000000000e+00
     1374000000   -6,275429130e-01    1,342610866e-01    1,906462312e-01    8,869000711e-03    0,000000000e+00    0,000000000e+00    0,000000000e+00    0,000000000e+00
     1388000000   -4,670111835e-01    3,646442294e-01    1,952995807e-01   -7,311005890e-02    0,000000000e+00    0,000000000e+00    0,000000000e+00    0,000000000e+00
     1402000000   -2,282711267e-01    4,426770210e-01    1,724373847e-01   -1,010434628e-01    0,000000000e+00    0,000000000e+00    0,000000000e+00    0,000000000e+00
     1416000000   -2,249892056e-02    4,035739899e-01    1,609883308e-01   -1,087262183e-01    0,000000000e+00    0,000000000e+00    0,000000000e+00    0,000000000e+00
     1430000000    1,241450533e-01    2,970844507e-01    1,607933193e-01   -1,027633175e-01    0,000000000e+00    0,000000000e+00    0,000000000e+00    0,000000000e+00
     1444000000    2,098348290e-01    1,444319934e-01    1,336288750e-01   -1,034692153e-01    0,000000000e+00    0,000000000e+00    0,000000000e+00    0,000000000e+00
     1458000000    2,393614203e-01   -2,510827966e-02    1,317726970e-01   -6,892190129e-02    0,000000000e+00    0,000000000e+00    0,000000000e+00    0,000000000e+00
     1472000000    1,907361150e-01   -2,115704566e-01    1,290896386e-01   -4,442368075e-02    0,000000000e+00    0,000000000e+00    0,000000000e+00    0,000000000e+00
     1486000000    5,772972107e-02   -3,835358918e-01    1,546304375e-01    2,170562372e-02    0,000000000e+00    0,000000000e+00    0,000000000e+00    0,000000000e+00
     1500000000   -1,779237688e-01   -4,917109907e-01    2,428679317e-01    9,163344651e-02    0,000000000e+00    0,000000000e+00    0,000000000e+00    0,000000000e+00
