! NanoVNA-App
! Date: 2025-09-26 09:42:25
! Start: 100MHz Stop: 1,5GHz Points: 101
! S-Parameter data: F S11 S21 S12 S22
# Hz S RI R 50
!     Frequency           S11_Real           S11_Imag           S21_Real           S21_Imag           S12_Real           S12_Imag           S22_Real           S22_Imag
      100000000   -2,898572944e-02   -4,487611353e-03    3,738623261e-01   -7,230565548e-01    0,000000000e+00    0,000000000e+00    0,000000000e+00    0,000000000e+00
      114000000   -1,687120460e-02    1,125640143e-02   -9,015683085e-02   -8,065127134e-01    0,000000000e+00    0,000000000e+00    0,000000000e+00    0,000000000e+00
      128000000    2,891296055e-03    1,046772953e-02   -5,162315965e-01   -6,211165190e-01    0,000000000e+00    0,000000000e+00    0,000000000e+00    0,000000000e+00
      142000000    1,404040586e-02   -2,638987731e-03   -7,685962319e-01   -2,360121906e-01    0,000000000e+00    0,000000000e+00    0,000000000e+00    0,000000000e+00
      156000000    1,535203867e-02   -1,444294211e-02   -7,722328901e-01    2,230289876e-01    0,000000000e+00    0,000000000e+00    0,000000000e+00    0,000000000e+00
      170000000    1,688631810e-02   -2,218496613e-02   -5,179858804e-01    6,063761711e-01    0,000000000e+00    0,000000000e+00    0,000000000e+00    0,000000000e+00
      184000000    2,109299228e-02   -3,708533198e-02   -1,003045589e-01    7,876224518e-01    0,000000000e+00    0,000000000e+00    0,000000000e+00    0,000000000e+00
      198000000    1,288458519e-02   -6,248703226e-02    3,453011811e-01    7,134887576e-01    0,000000000e+00    0,000000000e+00    0,000000000e+00    0,000000000e+00
      212000000   -1,890117116e-02   -8,110202104e-02    6,797800660e-01    4,099590480e-01    0,000000000e+00    0,000000000e+00    0,000000000e+00    0,000000000e+00
      226000000   -6,157301366e-02   -6,866329163e-02    7,974277735e-01   -3,124858253e-02    0,000000000e+00    0,000000000e+00    0,000000000e+00    0,000000000e+00
      240000000   -8,200195432e-02   -2,548890933e-02    6,476119161e-01   -4,683302343e-01    0,000000000e+00    0,000000000e+00    0,000000000e+00    0,000000000e+00
      254000000   -6,303513795e-02    1,688403450e-02    2,770422399e-01   -7,449629903e-01    0,000000000e+00    0,000000000e+00    0,000000000e+00    0,000000000e+00
      268000000   -2,363741770e-02    2,820303291e-02   -1,779817045e-01   -7,665764093e-01    0,000000000e+00    0,000000000e+00    0,000000000e+00    0,000000000e+00
      282000000    3,629397601e-03    1,136352960e-02   -5,626494884e-01   -5,376972556e-01    0,000000000e+00    0,000000000e+00    0,000000000e+00    0,000000000e+00
      296000000    9,196545929e-03   -7,852965966e-03   -7,616119981e-01   -1,409650445e-01    0,000000000e+00    0,000000000e+00    0,000000000e+00    0,000000000e+00
      310000000    1,107736491e-02   -1,587401144e-02   -7,131169438e-01    2,991808355e-01    0,000000000e+00    0,000000000e+00    0,000000000e+00    0,000000000e+00
      324000000    1,987399161e-02   -2,670187689e-02   -4,280945957e-01    6,391344666e-01    0,000000000e+00    0,000000000e+00    0,000000000e+00    0,000000000e+00
      338000000    2,550179698e-02   -5,270792544e-02   -9,383017197e-03    7,610802054e-01    0,000000000e+00    0,000000000e+00    0,000000000e+00    0,000000000e+00
      352000000    6,596744992e-03   -8,505403996e-02    4,070757031e-01    6,422325969e-01    0,000000000e+00    0,000000000e+00    0,000000000e+00    0,000000000e+00
      366000000   -3,543738648e-02   -9,510736912e-02    6,921687722e-01    3,125880063e-01    0,000000000e+00    0,000000000e+00    0,000000000e+00    0,000000000e+00
      380000000   -7,121393085e-02   -7,033574581e-02    7,494490743e-01   -1,266782433e-01    0,000000000e+00    0,000000000e+00    0,000000000e+00    0,000000000e+00
      394000000   -7,188155502e-02   -3,138972074e-02    5,485294461e-01   -5,227102041e-01    0,000000000e+00    0,000000000e+00    0,000000000e+00    0,000000000e+00
      408000000   -4,558715969e-02   -1,641950570e-02    1,612583846e-01   -7,337528467e-01    0,000000000e+00    0,000000000e+00    0,000000000e+00    0,000000000e+00
      422000000   -2,819211222e-02   -3,274869174e-02   -2,670335174e-01   -6,969978213e-01    0,000000000e+00    0,000000000e+00    0,000000000e+00    0,000000000e+00
      436000000   -4,086551815e-02   -5,237177387e-02   -6,046723127e-01   -4,346767664e-01    0,000000000e+00    0,000000000e+00    0,000000000e+00    0,000000000e+00
      450000000   -6,756322086e-02   -4,357589409e-02   -7,427629232e-01   -2,244838327e-02    0,000000000e+00    0,000000000e+00    0,000000000e+00    0,000000000e+00
      464000000   -7,264982909e-02   -1,171109267e-02   -6,207646728e-01    3,974592686e-01    0,000000000e+00    0,000000000e+00    0,000000000e+00    0,000000000e+00
      478000000   -4,734809697e-02    1,092255488e-02   -2,843208611e-01    6,686633229e-01    0,000000000e+00    0,000000000e+00    0,000000000e+00    0,000000000e+00
      492000000   -1,552111004e-02    5,107313395e-03    1,366901845e-01    7,033207417e-01    0,000000000e+00    0,000000000e+00    0,000000000e+00    0,000000000e+00
      506000000   -3,063847311e-03   -1,654350385e-02    4,995820522e-01    5,047142506e-01    0,000000000e+00    0,000000000e+00    0,000000000e+00    0,000000000e+00
      520000000   -5,907449406e-03   -3,155020624e-02    6,894214749e-01    1,418576241e-01    0,000000000e+00    0,000000000e+00    0,000000000e+00    0,000000000e+00
      534000000   -4,267113283e-03   -3,781043738e-02    6,452639103e-01   -2,628876865e-01    0,000000000e+00    0,000000000e+00    0,000000000e+00    0,000000000e+00
      548000000    6,222128868e-03   -5,359939486e-02    3,829480708e-01   -5,684144497e-01    0,000000000e+00    0,000000000e+00    0,000000000e+00    0,000000000e+00
      562000000    2,950865543e-03   -8,962863684e-02    2,789894585e-03   -6,740106344e-01    0,000000000e+00    0,000000000e+00    0,000000000e+00    0,000000000e+00
      576000000   -3,470616788e-02   -1,248758584e-01   -3,692113757e-01   -5,600709915e-01    0,000000000e+00    0,000000000e+00    0,000000000e+00    0,000000000e+00
      590000000   -9,708833694e-02   -1,224687696e-01   -6,239671707e-01   -2,645785511e-01    0,000000000e+00    0,000000000e+00    0,000000000e+00    0,000000000e+00
      604000000   -1,397929043e-01   -7,095691562e-02   -6,676534414e-01    1,374312192e-01    0,000000000e+00    0,000000000e+00    0,000000000e+00    0,000000000e+00
      618000000   -1,289381236e-01   -8,771788329e-03   -4,672538936e-01    4,954048395e-01    0,000000000e+00    0,000000000e+00    0,000000000e+00    0,000000000e+00
      632000000   -8,265149593e-02    1,639808528e-02   -9,996702522e-02    6,664265990e-01    0,000000000e+00    0,000000000e+00    0,000000000e+00    0,000000000e+00
      646000000   -5,181504413e-02   -1,206479268e-03    2,869754732e-01    5,968256593e-01    0,000000000e+00    0,000000000e+00    0,000000000e+00    0,000000000e+00
      660000000   -5,443150923e-02   -2,254707925e-02    5,690026879e-01    3,246936500e-01    0,000000000e+00    0,000000000e+00    0,000000000e+00    0,000000000e+00
      674000000   -7,139322162e-02   -1,737727411e-02    6,445847154e-01   -6,567475945e-02    0,000000000e+00    0,000000000e+00    0,000000000e+00    0,000000000e+00
      688000000   -6,803640723e-02    8,944166824e-03    4,719755352e-01   -4,290803671e-01    0,000000000e+00    0,000000000e+00    0,000000000e+00    0,000000000e+00
      702000000   -3,764016181e-02    2,673970535e-02    1,204151958e-01   -6,168190837e-01    0,000000000e+00    0,000000000e+00    0,000000000e+00    0,000000000e+00
      716000000    3,205890767e-03    1,668651588e-02   -2,648814023e-01   -5,478633046e-01    0,000000000e+00    0,000000000e+00    0,000000000e+00    0,000000000e+00
      730000000    3,591205552e-02   -1,099584904e-02   -5,292561650e-01   -2,696440220e-01    0,000000000e+00    0,000000000e+00    0,000000000e+00    0,000000000e+00
      744000000    6,622165442e-02   -6,211851165e-02   -5,652935505e-01    1,074074879e-01    0,000000000e+00    0,000000000e+00    0,000000000e+00    0,000000000e+00
      758000000    6,812169403e-02   -1,530772597e-01   -3,632813692e-01    4,111689031e-01    0,000000000e+00    0,000000000e+00    0,000000000e+00    0,000000000e+00
      772000000   -1,305935252e-02   -2,655330002e-01   -3,355112672e-02    5,152412653e-01    0,000000000e+00    0,000000000e+00    0,000000000e+00    0,000000000e+00
      786000000   -2,098690718e-01   -3,045807481e-01    2,761614025e-01    3,929194510e-01    0,000000000e+00    0,000000000e+00    0,000000000e+00    0,000000000e+00
      800000000   -4,312092960e-01   -1,285507381e-01    4,165935516e-01    9,590206295e-02    0,000000000e+00    0,000000000e+00    0,000000000e+00    0,000000000e+00
      814000000   -3,898969293e-01    2,269353420e-01    2,783602178e-01   -1,753671765e-01    0,000000000e+00    0,000000000e+00    0,000000000e+00    0,000000000e+00
      828000000   -4,670226574e-02    3,712413609e-01    5,074027181e-02   -1,881042272e-01    0,000000000e+00    0,000000000e+00    0,000000000e+00    0,000000000e+00
      842000000    2,394722998e-01    1,847345084e-01   -1,888378710e-02   -6,816127151e-02    0,000000000e+00    0,000000000e+00    0,000000000e+00    0,000000000e+00
      856000000    2,830541432e-01   -1,281090081e-01    4,549841210e-02   -1,095544454e-02    0,000000000e+00    0,000000000e+00    0,000000000e+00    0,000000000e+00
      870000000    7,367432863e-02   -3,800465465e-01    1,138012186e-01   -9,061289579e-02    0,000000000e+00    0,000000000e+00    0,000000000e+00    0,000000000e+00
      884000000   -2,992148995e-01   -3,647304177e-01    2,780568041e-02   -2,450819314e-01    0,000000000e+00    0,000000000e+00    0,000000000e+00    0,000000000e+00
      898000000   -4,767268598e-01    1,076234132e-02   -2,226003557e-01   -2,264700234e-01    0,000000000e+00    0,000000000e+00    0,000000000e+00    0,000000000e+00
      912000000   -2,270790040e-01    2,985186279e-01   -3,466699719e-01    7,187678665e-02    0,000000000e+00    0,000000000e+00    0,000000000e+00    0,000000000e+00
      926000000    6,840169430e-02    2,665202022e-01   -2,200381756e-01    2,607249916e-01    0,000000000e+00    0,000000000e+00    0,000000000e+00    0,000000000e+00
      940000000    2,212273479e-01    8,059075475e-02   -3,834073246e-02    3,249221742e-01    0,000000000e+00    0,000000000e+00    0,000000000e+00    0,000000000e+00
      954000000    2,231582105e-01   -1,318454593e-01    1,259624362e-01    3,048741817e-01    0,000000000e+00    0,000000000e+00    0,000000000e+00    0,000000000e+00
      968000000    1,174054444e-01   -3,022347987e-01    2,657352388e-01    2,209641337e-01    0,000000000e+00    0,000000000e+00    0,000000000e+00    0,000000000e+00
      982000000   -8,124606311e-02   -3,914154470e-01    3,608738184e-01    7,060424238e-02    0,000000000e+00    0,000000000e+00    0,000000000e+00    0,000000000e+00
      996000000   -3,182992041e-01   -3,324533403e-01    3,659175634e-01   -1,406777352e-01    0,000000000e+00    0,000000000e+00    0,000000000e+00    0,000000000e+00
     1010000000   -4,705691338e-01   -1,121450216e-01    2,222955823e-01   -3,369216323e-01    0,000000000e+00    0,000000000e+00    0,000000000e+00    0,000000000e+00
     1024000000   -4,147912860e-01    1,554619968e-01   -3,441425040e-02   -3,889603913e-01    0,000000000e+00    0,000000000e+00    0,000000000e+00    0,000000000e+00
     1038000000   -2,177184820e-01    2,979934514e-01   -2,472445965e-01   -2,588421702e-01    0,000000000e+00    0,000000000e+00    0,000000000e+00    0,000000000e+00
     1052000000   -4,541084636e-03    2,777871192e-01   -3,163107634e-01   -4,435842484e-02    0,000000000e+00    0,000000000e+00    0,000000000e+00    0,000000000e+00
     1066000000    1,379066557e-01    1,661310047e-01   -2,589044869e-01    1,418075860e-01    0,000000000e+00    0,000000000e+00    0,000000000e+00    0,000000000e+00
     1080000000    1,985318959e-01   -5,058736540e-03   -1,229075864e-01    2,616424859e-01    0,000000000e+00    0,000000000e+00    0,000000000e+00    0,000000000e+00
     1094000000    1,566886008e-01   -1,788332313e-01    5,768993497e-02    3,060373962e-01    0,000000000e+00    0,000000000e+00    0,000000000e+00    0,000000000e+00
     1108000000   -2,707202919e-03   -3,074193597e-01    2,709183395e-01    2,509891391e-01    0,000000000e+00    0,000000000e+00    0,000000000e+00    0,000000000e+00
     1122000000   -2,530532479e-01   -2,603043914e-01    4,656997323e-01    1,819059625e-02    0,000000000e+00    0,000000000e+00    0,000000000e+00    0,000000000e+00
     1136000000   -3,143383265e-01    4,180137441e-02    3,922461569e-01   -3,827902377e-01    0,000000000e+00    0,000000000e+00    0,000000000e+00    0,000000000e+00
     1150000000   -2,511919290e-02    1,445455402e-01    2,620948013e-03   -5,207767487e-01    0,000000000e+00    0,000000000e+00    0,000000000e+00    0,000000000e+00
     1164000000    1,281696558e-01   -7,987052202e-02   -2,640030384e-01   -3,599330187e-01    0,000000000e+00    0,000000000e+00    0,000000000e+00    0,000000000e+00
     1178000000    7,568463217e-03   -3,157626987e-01   -3,470359445e-01   -1,413989365e-01    0,000000000e+00    0,000000000e+00    0,000000000e+00    0,000000000e+00
     1192000000   -2,795955241e-01   -3,719782233e-01   -2,986219823e-01    5,818417668e-02    0,000000000e+00    0,000000000e+00    0,000000000e+00    0,000000000e+00
     1206000000   -5,262008309e-01   -1,499223262e-01   -1,488869637e-01    1,648367345e-01    0,000000000e+00    0,000000000e+00    0,000000000e+00    0,000000000e+00
     1220000000   -5,103908181e-01    1,801578701e-01   -1,031208667e-03    1,413881630e-01    0,000000000e+00    0,000000000e+00    0,000000000e+00    0,000000000e+00
     1234000000   -2,747876644e-01    3,676895499e-01    5,994554237e-02    5,354099721e-02    0,000000000e+00    0,000000000e+00    0,000000000e+00    0,000000000e+00
     1248000000   -3,546185791e-02    3,644773066e-01    4,438271746e-02   -6,915262435e-03    0,000000000e+00    0,000000000e+00    0,000000000e+00    0,000000000e+00
     1262000000    1,287256181e-01    2,547875047e-01    1,535683125e-02   -1,250672899e-02    0,000000000e+00    0,000000000e+00    0,000000000e+00    0,000000000e+00
     1276000000    2,131817043e-01    9,457653016e-02   -3,377991088e-04    1,244420651e-02    0,000000000e+00    0,000000000e+00    0,000000000e+00    0,000000000e+00
     1290000000    2,267984152e-01   -8,144710958e-02    2,708205581e-02    5,944913253e-02    0,000000000e+00    0,000000000e+00    0,000000000e+00    0,000000000e+00
     1304000000    1,522075683e-01   -2,465156168e-01    1,517409682e-01    6,921542436e-02    0,000000000e+00    0,000000000e+00    0,000000000e+00    0,000000000e+00
     1318000000    3,480074182e-02   -3,384127021e-01    1,201589927e-01   -1,797320098e-01    0,000000000e+00    0,000000000e+00    0,000000000e+00    0,000000000e+00
     1332000000   -1,312095374e-01   -4,406199753e-01   -4,923662916e-02   -5,556664988e-02    0,000000000e+00    0,000000000e+00    0,000000000e+00    0,000000000e+00
     1346000000   -3,903651834e-01   -4,147368371e-01    1,531167421e-02    5,650671571e-02    0,000000000e+00    0,000000000e+00    0,000000000e+00    0,000000000e+00
     1360000000   -6,087982059e-01   -1,833842993e-01    1,229564399e-01    6,863772124e-02    0,000000000e+00    0,000000000e+00    0,000000000e+00    0,000000000e+00
     1374000000   -6,245081425e-01    1,242140904e-01    1,940914243e-01    2,190249506e-03    0,000000000e+00    0,000000000e+00    0,000000000e+00    0,000000000e+00
     1388000000   -4,662597179e-01    3,615397513e-01    1,952737719e-01   -6,156782061e-02    0,000000000e+00    0,000000000e+00    0,000000000e+00    0,000000000e+00
     1402000000   -2,223215550e-01    4,518294930e-01    1,784231067e-01   -9,403725713e-02    0,000000000e+00    0,000000000e+00    0,000000000e+00    0,000000000e+00
     1416000000   -1,912085153e-02    4,108510911e-01    1,618475765e-01   -1,010823622e-01    0,000000000e+00    0,000000000e+00    0,000000000e+00    0,000000000e+00
     1430000000    1,207023412e-01    2,932057083e-01    1,515926868e-01   -1,039919853e-01    0,000000000e+00    0,000000000e+00    0,000000000e+00    0,000000000e+00
     1444000000    2,112291753e-01    1,457710564e-01    1,457335055e-01   -1,063520089e-01    0,000000000e+00    0,000000000e+00    0,000000000e+00    0,000000000e+00
     1458000000    2,386251837e-01   -2,356895059e-02    1,342299730e-01   -7,887103409e-02    0,000000000e+00    0,000000000e+00    0,000000000e+00    0,000000000e+00
     1472000000    1,892619729e-01   -2,098064721e-01    1,311649829e-01   -4,552551359e-02    0,000000000e+00    0,000000000e+00    0,000000000e+00    0,000000000e+00
     1486000000    6,061087921e-02   -3,742585480e-01    1,582803577e-01    2,302642353e-02    0,000000000e+00    0,000000000e+00    0,000000000e+00    0,000000000e+00
     1500000000   -1,845949739e-01   -4,931922257e-01    2,244386673e-01    7,917639613e-02    0,000000000e+00    0,000000000e+00    0,000000000e+00    0,000000000e+00
