! NanoVNA-App
! Date: 2025-09-26 09:41:09
! Start: 100MHz Stop: 1,5GHz Points: 101
! S-Parameter data: F S11 S21 S12 S22
# Hz S RI R 50
!     Frequency           S11_Real           S11_Imag           S21_Real           S21_Imag           S12_Real           S12_Imag           S22_Real           S22_Imag
      100000000   -2,907928266e-02   -4,553333856e-03    3,740544319e-01   -7,230853438e-01    0,000000000e+00    0,000000000e+00    0,000000000e+00    0,000000000e+00
      114000000   -1,700665429e-02    1,123700757e-02   -8,986015618e-02   -8,066166043e-01    0,000000000e+00    0,000000000e+00    0,000000000e+00    0,000000000e+00
      128000000    2,821312053e-03    1,057501230e-02   -5,158498287e-01   -6,209991574e-01    0,000000000e+00    0,000000000e+00    0,000000000e+00    0,000000000e+00
      142000000    1,402069721e-02   -2,507467521e-03   -7,686950564e-01   -2,363466024e-01    0,000000000e+00    0,000000000e+00    0,000000000e+00    0,000000000e+00
      156000000    1,460069325e-02   -1,432924345e-02   -7,675478458e-01    2,194142640e-01    0,000000000e+00    0,000000000e+00    0,000000000e+00    0,000000000e+00
      170000000    1,697134785e-02   -2,202708460e-02   -5,180833340e-01    6,061233282e-01    0,000000000e+00    0,000000000e+00    0,000000000e+00    0,000000000e+00
      184000000    2,131363936e-02   -3,702032566e-02   -1,004010588e-01    7,874178290e-01    0,000000000e+00    0,000000000e+00    0,000000000e+00    0,000000000e+00
      198000000    1,303893235e-02   -6,253298372e-02    3,447207510e-01    7,131255865e-01    0,000000000e+00    0,000000000e+00    0,000000000e+00    0,000000000e+00
      212000000   -1,875158958e-02   -8,119986951e-02    6,799207926e-01    4,102448821e-01    0,000000000e+00    0,000000000e+00    0,000000000e+00    0,000000000e+00
      226000000   -6,153513864e-02   -6,884073466e-02    7,974765897e-01   -3,100347519e-02    0,000000000e+00    0,000000000e+00    0,000000000e+00    0,000000000e+00
      240000000   -8,208741993e-02   -2,569921128e-02    6,477317810e-01   -4,680600464e-01    0,000000000e+00    0,000000000e+00    0,000000000e+00    0,000000000e+00
      254000000   -6,319639087e-02    1,682759076e-02    2,772458196e-01   -7,448112965e-01    0,000000000e+00    0,000000000e+00    0,000000000e+00    0,000000000e+00
      268000000   -2,371156216e-02    2,842486650e-02   -1,770535558e-01   -7,660630345e-01    0,000000000e+00    0,000000000e+00    0,000000000e+00    0,000000000e+00
      282000000    3,601109143e-03    1,151859760e-02   -5,626340508e-01   -5,382784009e-01    0,000000000e+00    0,000000000e+00    0,000000000e+00    0,000000000e+00
      296000000    9,278009646e-03   -7,675821893e-03   -7,616167665e-01   -1,414266080e-01    0,000000000e+00    0,000000000e+00    0,000000000e+00    0,000000000e+00
      310000000    1,109442767e-02   -1,585794799e-02   -7,137712836e-01    2,993852496e-01    0,000000000e+00    0,000000000e+00    0,000000000e+00    0,000000000e+00
      324000000    1,978934556e-02   -2,648503892e-02   -4,293654263e-01    6,393143535e-01    0,000000000e+00    0,000000000e+00    0,000000000e+00    0,000000000e+00
      338000000    2,581010759e-02   -5,275880173e-02   -9,483497590e-03    7,627738118e-01    0,000000000e+00    0,000000000e+00    0,000000000e+00    0,000000000e+00
      352000000    6,849832367e-03   -8,518894017e-02    4,055536687e-01    6,415163279e-01    0,000000000e+00    0,000000000e+00    0,000000000e+00    0,000000000e+00
      366000000   -3,552396223e-02   -9,532852471e-02    6,918617487e-01    3,132394850e-01    0,000000000e+00    0,000000000e+00    0,000000000e+00    0,000000000e+00
      380000000   -7,100937515e-02   -7,012098283e-02    7,490901351e-01   -1,253057122e-01    0,000000000e+00    0,000000000e+00    0,000000000e+00    0,000000000e+00
      394000000   -7,199525088e-02   -3,160837293e-02    5,485859513e-01   -5,213198662e-01    0,000000000e+00    0,000000000e+00    0,000000000e+00    0,000000000e+00
      408000000   -4,566596821e-02   -1,620218344e-02    1,625164300e-01   -7,332778573e-01    0,000000000e+00    0,000000000e+00    0,000000000e+00    0,000000000e+00
      422000000   -2,788529359e-02   -3,238772228e-02   -2,671601772e-01   -6,972343922e-01    0,000000000e+00    0,000000000e+00    0,000000000e+00    0,000000000e+00
      436000000   -4,086942598e-02   -5,217950791e-02   -6,052081585e-01   -4,345445037e-01    0,000000000e+00    0,000000000e+00    0,000000000e+00    0,000000000e+00
      450000000   -6,756025553e-02   -4,403258860e-02   -7,424784303e-01   -2,368118428e-02    0,000000000e+00    0,000000000e+00    0,000000000e+00    0,000000000e+00
      464000000   -7,285416871e-02   -1,164186653e-02   -6,211279035e-01    3,970504999e-01    0,000000000e+00    0,000000000e+00    0,000000000e+00    0,000000000e+00
      478000000   -4,710534588e-02    1,165116765e-02   -2,849067450e-01    6,686864495e-01    0,000000000e+00    0,000000000e+00    0,000000000e+00    0,000000000e+00
      492000000   -1,594511047e-02    5,017946009e-03    1,359889507e-01    7,034600973e-01    0,000000000e+00    0,000000000e+00    0,000000000e+00    0,000000000e+00
      506000000   -3,576106858e-03   -1,663139649e-02    4,986973107e-01    5,056605339e-01    0,000000000e+00    0,000000000e+00    0,000000000e+00    0,000000000e+00
      520000000   -6,085186731e-03   -3,147516400e-02    6,888427734e-01    1,435062438e-01    0,000000000e+00    0,000000000e+00    0,000000000e+00    0,000000000e+00
      534000000   -4,427395295e-03   -3,737600520e-02    6,451238394e-01   -2,613903284e-01    0,000000000e+00    0,000000000e+00    0,000000000e+00    0,000000000e+00
      548000000    6,557594519e-03   -5,385842919e-02    3,832554221e-01   -5,672296286e-01    0,000000000e+00    0,000000000e+00    0,000000000e+00    0,000000000e+00
      562000000    3,370484337e-03   -8,969831467e-02    4,429511260e-03   -6,738197207e-01    0,000000000e+00    0,000000000e+00    0,000000000e+00    0,000000000e+00
      576000000   -3,471645713e-02   -1,248417050e-01   -3,680980504e-01   -5,601910353e-01    0,000000000e+00    0,000000000e+00    0,000000000e+00    0,000000000e+00
      590000000   -9,681049734e-02   -1,224701926e-01   -6,206019521e-01   -2,682485282e-01    0,000000000e+00    0,000000000e+00    0,000000000e+00    0,000000000e+00
      604000000   -1,393859386e-01   -7,156105340e-02   -6,673537493e-01    1,356839985e-01    0,000000000e+00    0,000000000e+00    0,000000000e+00    0,000000000e+00
      618000000   -1,287416667e-01   -9,754115716e-03   -4,675396681e-01    4,934392869e-01    0,000000000e+00    0,000000000e+00    0,000000000e+00    0,000000000e+00
      632000000   -8,437880129e-02    1,587305777e-02   -1,017204300e-01    6,637815237e-01    0,000000000e+00    0,000000000e+00    0,000000000e+00    0,000000000e+00
      646000000   -5,159191415e-02   -2,727867104e-04    2,857093513e-01    5,970674157e-01    0,000000000e+00    0,000000000e+00    0,000000000e+00    0,000000000e+00
      660000000   -5,507768691e-02   -2,135834470e-02    5,669569373e-01    3,263443112e-01    0,000000000e+00    0,000000000e+00    0,000000000e+00    0,000000000e+00
      674000000   -7,002770156e-02   -1,507543959e-02    6,429362893e-01   -6,228912622e-02    0,000000000e+00    0,000000000e+00    0,000000000e+00    0,000000000e+00
      688000000   -6,606160104e-02    1,062604040e-02    4,728677273e-01   -4,240849018e-01    0,000000000e+00    0,000000000e+00    0,000000000e+00    0,000000000e+00
      702000000   -3,556218743e-02    2,596337348e-02    1,230399087e-01   -6,045199037e-01    0,000000000e+00    0,000000000e+00    0,000000000e+00    0,000000000e+00
      716000000    3,902710509e-03    1,439599134e-02   -2,586133182e-01   -5,475154519e-01    0,000000000e+00    0,000000000e+00    0,000000000e+00    0,000000000e+00
      730000000    3,655195609e-02   -1,499912981e-02   -5,235508084e-01   -2,737252414e-01    0,000000000e+00    0,000000000e+00    0,000000000e+00    0,000000000e+00
      744000000    6,212387979e-02   -6,552163512e-02   -5,633714795e-01    9,788332134e-02    0,000000000e+00    0,000000000e+00    0,000000000e+00    0,000000000e+00
      758000000    6,066440418e-02   -1,515550613e-01   -3,689790368e-01    4,013908207e-01    0,000000000e+00    0,000000000e+00    0,000000000e+00    0,000000000e+00
      772000000   -1,624882594e-02   -2,558878660e-01   -4,720324650e-02    5,113194585e-01    0,000000000e+00    0,000000000e+00    0,000000000e+00    0,000000000e+00
      786000000   -2,029941976e-01   -2,930356562e-01    2,607603073e-01    4,011839330e-01    0,000000000e+00    0,000000000e+00    0,000000000e+00    0,000000000e+00
      800000000   -4,094939232e-01   -1,285229325e-01    4,100996554e-01    1,191472560e-01    0,000000000e+00    0,000000000e+00    0,000000000e+00    0,000000000e+00
      814000000   -3,794170022e-01    2,014785111e-01    2,989252210e-01   -1,549367756e-01    0,000000000e+00    0,000000000e+00    0,000000000e+00    0,000000000e+00
      828000000   -6,531096995e-02    3,512440324e-01    8,052894473e-02   -1,956994832e-01    0,000000000e+00    0,000000000e+00    0,000000000e+00    0,000000000e+00
      842000000    2,133145630e-01    1,889159381e-01   -9,048265405e-03   -9,633918107e-02    0,000000000e+00    0,000000000e+00    0,000000000e+00    0,000000000e+00
      856000000    2,701431811e-01   -1,047087908e-01    2,922283113e-02   -3,521797061e-02    0,000000000e+00    0,000000000e+00    0,000000000e+00    0,000000000e+00
      870000000    8,595574647e-02   -3,546513915e-01    8,427838981e-02   -9,156839550e-02    0,000000000e+00    0,000000000e+00    0,000000000e+00    0,000000000e+00
      884000000   -2,678438425e-01   -3,630081713e-01    1,327575184e-02   -2,209248990e-01    0,000000000e+00    0,000000000e+00    0,000000000e+00    0,000000000e+00
      898000000   -4,634851813e-01   -1,638666540e-02   -2,096304744e-01   -2,077967376e-01    0,000000000e+00    0,000000000e+00    0,000000000e+00    0,000000000e+00
      912000000   -2,394380271e-01    2,837411761e-01   -3,383129835e-01    7,204397768e-02    0,000000000e+00    0,000000000e+00    0,000000000e+00    0,000000000e+00
      926000000    5,549900234e-02    2,664934695e-01   -2,128494680e-01    2,565615773e-01    0,000000000e+00    0,000000000e+00    0,000000000e+00    0,000000000e+00
      940000000    2,147271484e-01    8,748107404e-02   -3,415753692e-02    3,203516304e-01    0,000000000e+00    0,000000000e+00    0,000000000e+00    0,000000000e+00
      954000000    2,255916148e-01   -1,217914969e-01    1,235311404e-01    2,990853190e-01    0,000000000e+00    0,000000000e+00    0,000000000e+00    0,000000000e+00
      968000000    1,197327301e-01   -3,006784618e-01    2,604421079e-01    2,155854404e-01    0,000000000e+00    0,000000000e+00    0,000000000e+00    0,000000000e+00
      982000000   -8,007524163e-02   -3,867906928e-01    3,543889225e-01    6,717538834e-02    0,000000000e+00    0,000000000e+00    0,000000000e+00    0,000000000e+00
      996000000   -3,178448081e-01   -3,324085772e-01    3,593479097e-01   -1,366022080e-01    0,000000000e+00    0,000000000e+00    0,000000000e+00    0,000000000e+00
     1010000000   -4,690828919e-01   -1,145741493e-01    2,218858451e-01   -3,289431036e-01    0,000000000e+00    0,000000000e+00    0,000000000e+00    0,000000000e+00
     1024000000   -4,241457582e-01    1,474669427e-01   -2,661876194e-02   -3,817756176e-01    0,000000000e+00    0,000000000e+00    0,000000000e+00    0,000000000e+00
     1038000000   -2,222274095e-01    2,960633337e-01   -2,382844836e-01   -2,541123629e-01    0,000000000e+00    0,000000000e+00    0,000000000e+00    0,000000000e+00
     1052000000   -1,146513131e-02    2,820298374e-01   -3,092131317e-01   -4,546052963e-02    0,000000000e+00    0,000000000e+00    0,000000000e+00    0,000000000e+00
     1066000000    1,345534027e-01    1,719052792e-01   -2,549226582e-01    1,374145895e-01    0,000000000e+00    0,000000000e+00    0,000000000e+00    0,000000000e+00
     1080000000    1,965740770e-01    8,932091296e-03   -1,206976846e-01    2,525708973e-01    0,000000000e+00    0,000000000e+00    0,000000000e+00    0,000000000e+00
     1094000000    1,643850505e-01   -1,679312587e-01    5,395419523e-02    2,936222255e-01    0,000000000e+00    0,000000000e+00    0,000000000e+00    0,000000000e+00
     1108000000    1,500369050e-02   -3,010962605e-01    2,541532516e-01    2,407304198e-01    0,000000000e+00    0,000000000e+00    0,000000000e+00    0,000000000e+00
     1122000000   -2,143497914e-01   -2,833423018e-01    4,310128093e-01    3,239242360e-02    0,000000000e+00    0,000000000e+00    0,000000000e+00    0,000000000e+00
     1136000000   -3,284908533e-01   -2,825807594e-02    3,980867863e-01   -3,299602866e-01    0,000000000e+00    0,000000000e+00    0,000000000e+00    0,000000000e+00
     1150000000   -9,909445047e-02    1,404395998e-01    5,351336300e-02   -5,101970434e-01    0,000000000e+00    0,000000000e+00    0,000000000e+00    0,000000000e+00
     1164000000    8,566639572e-02   -2,409648895e-02   -2,385389358e-01   -3,891203403e-01    0,000000000e+00    0,000000000e+00    0,000000000e+00    0,000000000e+00
     1178000000    2,142512985e-02   -2,593783140e-01   -3,520818353e-01   -1,703318506e-01    0,000000000e+00    0,000000000e+00    0,000000000e+00    0,000000000e+00
     1192000000   -2,317385226e-01   -3,511318862e-01   -3,188005388e-01    3,773055971e-02    0,000000000e+00    0,000000000e+00    0,000000000e+00    0,000000000e+00
     1206000000   -4,832163155e-01   -1,754885316e-01   -1,748969853e-01    1,742089242e-01    0,000000000e+00    0,000000000e+00    0,000000000e+00    0,000000000e+00
     1220000000   -5,031250715e-01    1,397203058e-01   -9,402249008e-03    1,586567760e-01    0,000000000e+00    0,000000000e+00    0,000000000e+00    0,000000000e+00
     1234000000   -2,993054092e-01    3,418961167e-01    6,472178549e-02    7,081057131e-02    0,000000000e+00    0,000000000e+00    0,000000000e+00    0,000000000e+00
     1248000000   -5,802815035e-02    3,541485965e-01    5,519881472e-02   -1,577195362e-04    0,000000000e+00    0,000000000e+00    0,000000000e+00    0,000000000e+00
     1262000000    1,124564558e-01    2,577184737e-01    2,579879947e-02   -1,613765955e-02    0,000000000e+00    0,000000000e+00    0,000000000e+00    0,000000000e+00
     1276000000    2,059688419e-01    1,045985520e-01    1,195181161e-02   -4,639881663e-03    0,000000000e+00    0,000000000e+00    0,000000000e+00    0,000000000e+00
     1290000000    2,216449082e-01   -6,703814119e-02    1,558430493e-02    3,002208285e-02    0,000000000e+00    0,000000000e+00    0,000000000e+00    0,000000000e+00
     1304000000    1,663304716e-01   -2,379440069e-01    6,741143018e-02    6,183803454e-02    0,000000000e+00    0,000000000e+00    0,000000000e+00    0,000000000e+00
     1318000000    2,083668113e-02   -3,639230430e-01    1,774541736e-01    1,327592321e-02    0,000000000e+00    0,000000000e+00    0,000000000e+00    0,000000000e+00
     1332000000   -1,465705037e-01   -3,963802159e-01    9,361308813e-02   -1,974113286e-01    0,000000000e+00    0,000000000e+00    0,000000000e+00    0,000000000e+00
     1346000000   -3,552993834e-01   -3,908780515e-01   -5,913899839e-02   -2,596334182e-02    0,000000000e+00    0,000000000e+00    0,000000000e+00    0,000000000e+00
     1360000000   -5,860189199e-01   -2,062727660e-01    4,691874981e-02    8,252448589e-02    0,000000000e+00    0,000000000e+00    0,000000000e+00    0,000000000e+00
     1374000000   -6,232002378e-01    1,004864946e-01    1,598177105e-01    5,196300894e-02    0,000000000e+00    0,000000000e+00    0,000000000e+00    0,000000000e+00
     1388000000   -4,696696103e-01    3,475727141e-01    2,135718614e-01   -1,740521006e-02    0,000000000e+00    0,000000000e+00    0,000000000e+00    0,000000000e+00
     1402000000   -2,428794354e-01    4,407262802e-01    2,063788921e-01   -8,361963928e-02    0,000000000e+00    0,000000000e+00    0,000000000e+00    0,000000000e+00
     1416000000   -3,258848563e-02    4,025535882e-01    1,827832609e-01   -1,169298813e-01    0,000000000e+00    0,000000000e+00    0,000000000e+00    0,000000000e+00
     1430000000    1,139079109e-01    3,016669452e-01    1,500394344e-01   -1,212341934e-01    0,000000000e+00    0,000000000e+00    0,000000000e+00    0,000000000e+00
     1444000000    2,059204429e-01    1,526159197e-01    1,472863555e-01   -1,139172241e-01    0,000000000e+00    0,000000000e+00    0,000000000e+00    0,000000000e+00
     1458000000    2,268660814e-01   -1,632411592e-02    1,219904795e-01   -8,876896650e-02    0,000000000e+00    0,000000000e+00    0,000000000e+00    0,000000000e+00
     1472000000    1,888577938e-01   -1,994775385e-01    1,221459284e-01   -4,444514960e-02    0,000000000e+00    0,000000000e+00    0,000000000e+00    0,000000000e+00
     1486000000    6,220175326e-02   -3,739904463e-01    1,485935748e-01    1,426230534e-03    0,000000000e+00    0,000000000e+00    0,000000000e+00    0,000000000e+00
     1500000000   -1,668026596e-01   -4,871053696e-01    2,155546099e-01    6,535928696e-02    0,000000000e+00    0,000000000e+00    0,000000000e+00    0,000000000e+00
