! NanoVNA-App
! Date: 2025-09-26 09:41:08
! Start: 100MHz Stop: 1,5GHz Points: 101
! S-Parameter data: F S11 S21 S12 S22
# Hz S RI R 50
!     Frequency           S11_Real           S11_Imag           S21_Real           S21_Imag           S12_Real           S12_Imag           S22_Real           S22_Imag
      100000000   -2,908236533e-02   -4,555723630e-03    3,739970922e-01   -7,231116891e-01    0,000000000e+00    0,000000000e+00    0,000000000e+00    0,000000000e+00
      114000000   -1,703346334e-02    1,125222631e-02   -8,993422240e-02   -8,065918088e-01    0,000000000e+00    0,000000000e+00    0,000000000e+00    0,000000000e+00
      128000000    2,788078971e-03    1,053233817e-02   -5,159518719e-01   -6,210007071e-01    0,000000000e+00    0,000000000e+00    0,000000000e+00    0,000000000e+00
      142000000    1,400787476e-02   -2,496910980e-03   -7,685441971e-01   -2,363326102e-01    0,000000000e+00    0,000000000e+00    0,000000000e+00    0,000000000e+00
      156000000    1,427529659e-02   -1,422730833e-02   -7,653756142e-01    2,214636356e-01    0,000000000e+00    0,000000000e+00    0,000000000e+00    0,000000000e+00
      170000000    1,698994637e-02   -2,209048904e-02   -5,182779431e-01    6,065523028e-01    0,000000000e+00    0,000000000e+00    0,000000000e+00    0,000000000e+00
      184000000    2,133744210e-02   -3,704011813e-02   -1,005747616e-01    7,873634100e-01    0,000000000e+00    0,000000000e+00    0,000000000e+00    0,000000000e+00
      198000000    1,300296653e-02   -6,252779812e-02    3,447310328e-01    7,131046653e-01    0,000000000e+00    0,000000000e+00    0,000000000e+00    0,000000000e+00
      212000000   -1,877033897e-02   -8,119066060e-02    6,800181866e-01    4,101411998e-01    0,000000000e+00    0,000000000e+00    0,000000000e+00    0,000000000e+00
      226000000   -6,148047000e-02   -6,885796785e-02    7,973843813e-01   -3,104188666e-02    0,000000000e+00    0,000000000e+00    0,000000000e+00    0,000000000e+00
      240000000   -8,204647154e-02   -2,569105104e-02    6,476020217e-01   -4,681415260e-01    0,000000000e+00    0,000000000e+00    0,000000000e+00    0,000000000e+00
      254000000   -6,316838413e-02    1,684935577e-02    2,776981294e-01   -7,446334362e-01    0,000000000e+00    0,000000000e+00    0,000000000e+00    0,000000000e+00
      268000000   -2,372862399e-02    2,839490958e-02   -1,773363054e-01   -7,660000920e-01    0,000000000e+00    0,000000000e+00    0,000000000e+00    0,000000000e+00
      282000000    3,606738755e-03    1,143341232e-02   -5,624693632e-01   -5,379331708e-01    0,000000000e+00    0,000000000e+00    0,000000000e+00    0,000000000e+00
      296000000    9,203327820e-03   -7,746265735e-03   -7,616108060e-01   -1,413681358e-01    0,000000000e+00    0,000000000e+00    0,000000000e+00    0,000000000e+00
      310000000    1,115211286e-02   -1,587959751e-02   -7,148200870e-01    2,991236448e-01    0,000000000e+00    0,000000000e+00    0,000000000e+00    0,000000000e+00
      324000000    2,009519562e-02   -2,666104399e-02   -4,285025001e-01    6,392721534e-01    0,000000000e+00    0,000000000e+00    0,000000000e+00    0,000000000e+00
      338000000    2,544482425e-02   -5,263312533e-02   -1,178303547e-02    7,637217641e-01    0,000000000e+00    0,000000000e+00    0,000000000e+00    0,000000000e+00
      352000000    6,859490648e-03   -8,503203094e-02    4,071365297e-01    6,423981786e-01    0,000000000e+00    0,000000000e+00    0,000000000e+00    0,000000000e+00
      366000000   -3,581556678e-02   -9,531907737e-02    6,918202043e-01    3,124957681e-01    0,000000000e+00    0,000000000e+00    0,000000000e+00    0,000000000e+00
      380000000   -7,101064175e-02   -7,041375339e-02    7,491610050e-01   -1,257835776e-01    0,000000000e+00    0,000000000e+00    0,000000000e+00    0,000000000e+00
      394000000   -7,194272429e-02   -3,160438687e-02    5,482228994e-01   -5,222513080e-01    0,000000000e+00    0,000000000e+00    0,000000000e+00    0,000000000e+00
      408000000   -4,603768140e-02   -1,627694070e-02    1,618408263e-01   -7,341848016e-01    0,000000000e+00    0,000000000e+00    0,000000000e+00    0,000000000e+00
      422000000   -2,797959931e-02   -3,239558637e-02   -2,671192288e-01   -6,965385079e-01    0,000000000e+00    0,000000000e+00    0,000000000e+00    0,000000000e+00
      436000000   -4,083733633e-02   -5,224936828e-02   -6,047890782e-01   -4,358174503e-01    0,000000000e+00    0,000000000e+00    0,000000000e+00    0,000000000e+00
      450000000   -6,738328189e-02   -4,367597774e-02   -7,426202893e-01   -2,348826639e-02    0,000000000e+00    0,000000000e+00    0,000000000e+00    0,000000000e+00
      464000000   -7,263372093e-02   -1,188061386e-02   -6,218427420e-01    3,962050676e-01    0,000000000e+00    0,000000000e+00    0,000000000e+00    0,000000000e+00
      478000000   -4,731319845e-02    1,102233585e-02   -2,851511836e-01    6,684523821e-01    0,000000000e+00    0,000000000e+00    0,000000000e+00    0,000000000e+00
      492000000   -1,582750492e-02    4,895146005e-03    1,362212449e-01    7,039120197e-01    0,000000000e+00    0,000000000e+00    0,000000000e+00    0,000000000e+00
      506000000   -3,674993990e-03   -1,672001556e-02    4,983499944e-01    5,049345493e-01    0,000000000e+00    0,000000000e+00    0,000000000e+00    0,000000000e+00
      520000000   -6,215046160e-03   -3,147895262e-02    6,899330616e-01    1,416394860e-01    0,000000000e+00    0,000000000e+00    0,000000000e+00    0,000000000e+00
      534000000   -4,115727264e-03   -3,732960299e-02    6,458000541e-01   -2,615422606e-01    0,000000000e+00    0,000000000e+00    0,000000000e+00    0,000000000e+00
      548000000    6,285872310e-03   -5,336155370e-02    3,834514320e-01   -5,674722195e-01    0,000000000e+00    0,000000000e+00    0,000000000e+00    0,000000000e+00
      562000000    3,229354974e-03   -8,991104364e-02    3,820865648e-03   -6,741964817e-01    0,000000000e+00    0,000000000e+00    0,000000000e+00    0,000000000e+00
      576000000   -3,466053680e-02   -1,244690120e-01   -3,674984276e-01   -5,609143972e-01    0,000000000e+00    0,000000000e+00    0,000000000e+00    0,000000000e+00
      590000000   -9,654711187e-02   -1,225842685e-01   -6,215659976e-01   -2,651484907e-01    0,000000000e+00    0,000000000e+00    0,000000000e+00    0,000000000e+00
      604000000   -1,391934156e-01   -7,209834456e-02   -6,667639017e-01    1,350603104e-01    0,000000000e+00    0,000000000e+00    0,000000000e+00    0,000000000e+00
      618000000   -1,284362078e-01   -9,530046955e-03   -4,671241939e-01    4,939947426e-01    0,000000000e+00    0,000000000e+00    0,000000000e+00    0,000000000e+00
      632000000   -8,350304514e-02    1,600301452e-02   -1,024096757e-01    6,647256017e-01    0,000000000e+00    0,000000000e+00    0,000000000e+00    0,000000000e+00
      646000000   -5,238104239e-02   -8,999938727e-04    2,852065265e-01    5,963250995e-01    0,000000000e+00    0,000000000e+00    0,000000000e+00    0,000000000e+00
      660000000   -5,447692052e-02   -2,144705132e-02    5,664919615e-01    3,266215920e-01    0,000000000e+00    0,000000000e+00    0,000000000e+00    0,000000000e+00
      674000000   -7,094495744e-02   -1,519418508e-02    6,424333453e-01   -6,239404902e-02    0,000000000e+00    0,000000000e+00    0,000000000e+00    0,000000000e+00
      688000000   -6,592974067e-02    9,668538347e-03    4,733118117e-01   -4,248968363e-01    0,000000000e+00    0,000000000e+00    0,000000000e+00    0,000000000e+00
      702000000   -3,450440615e-02    2,539852634e-02    1,220465228e-01   -6,099224687e-01    0,000000000e+00    0,000000000e+00    0,000000000e+00    0,000000000e+00
      716000000    4,269229714e-03    1,526129432e-02   -2,588795424e-01   -5,473964214e-01    0,000000000e+00    0,000000000e+00    0,000000000e+00    0,000000000e+00
      730000000    3,593533114e-02   -1,395093929e-02   -5,234357119e-01   -2,742781341e-01    0,000000000e+00    0,000000000e+00    0,000000000e+00    0,000000000e+00
      744000000    6,194235384e-02   -6,518106163e-02   -5,631055236e-01    9,777259827e-02    0,000000000e+00    0,000000000e+00    0,000000000e+00    0,000000000e+00
      758000000    6,053509191e-02   -1,514556855e-01   -3,685226738e-01    4,005936086e-01    0,000000000e+00    0,000000000e+00    0,000000000e+00    0,000000000e+00
      772000000   -1,638789102e-02   -2,559380829e-01   -4,743734747e-02    5,112513900e-01    0,000000000e+00    0,000000000e+00    0,000000000e+00    0,000000000e+00
      786000000   -2,023083866e-01   -2,929380834e-01    2,604161799e-01    4,012748301e-01    0,000000000e+00    0,000000000e+00    0,000000000e+00    0,000000000e+00
      800000000   -4,099109769e-01   -1,291863769e-01    4,101758897e-01    1,187204644e-01    0,000000000e+00    0,000000000e+00    0,000000000e+00    0,000000000e+00
      814000000   -3,793582618e-01    2,027285248e-01    2,991147041e-01   -1,541913301e-01    0,000000000e+00    0,000000000e+00    0,000000000e+00    0,000000000e+00
      828000000   -6,379347295e-02    3,511901200e-01    8,059188724e-02   -1,962237358e-01    0,000000000e+00    0,000000000e+00    0,000000000e+00    0,000000000e+00
      842000000    2,134802043e-01    1,890310794e-01   -9,308791719e-03   -9,618858248e-02    0,000000000e+00    0,000000000e+00    0,000000000e+00    0,000000000e+00
      856000000    2,701356113e-01   -1,047384292e-01    2,907462232e-02   -3,584585711e-02    0,000000000e+00    0,000000000e+00    0,000000000e+00    0,000000000e+00
      870000000    8,553234488e-02   -3,545928597e-01    8,455974609e-02   -9,129806608e-02    0,000000000e+00    0,000000000e+00    0,000000000e+00    0,000000000e+00
      884000000   -2,678433657e-01   -3,619941473e-01    1,267739013e-02   -2,199044079e-01    0,000000000e+00    0,000000000e+00    0,000000000e+00    0,000000000e+00
      898000000   -4,634529054e-01   -1,589083113e-02   -2,089982182e-01   -2,075188458e-01    0,000000000e+00    0,000000000e+00    0,000000000e+00    0,000000000e+00
      912000000   -2,389544845e-01    2,844769657e-01   -3,323457837e-01    7,328037918e-02    0,000000000e+00    0,000000000e+00    0,000000000e+00    0,000000000e+00
      926000000    5,639165267e-02    2,673884928e-01   -2,118228525e-01    2,575453818e-01    0,000000000e+00    0,000000000e+00    0,000000000e+00    0,000000000e+00
      940000000    2,150014490e-01    8,703786880e-02   -3,560947254e-02    3,194388449e-01    0,000000000e+00    0,000000000e+00    0,000000000e+00    0,000000000e+00
      954000000    2,259348035e-01   -1,227857471e-01    1,257300228e-01    2,998133302e-01    0,000000000e+00    0,000000000e+00    0,000000000e+00    0,000000000e+00
      968000000    1,192978621e-01   -2,963038683e-01    2,618688941e-01    2,150470912e-01    0,000000000e+00    0,000000000e+00    0,000000000e+00    0,000000000e+00
      982000000   -7,724591345e-02   -3,916547000e-01    3,543137014e-01    6,742718071e-02    0,000000000e+00    0,000000000e+00    0,000000000e+00    0,000000000e+00
      996000000   -3,181930780e-01   -3,320778608e-01    3,596716523e-01   -1,353182495e-01    0,000000000e+00    0,000000000e+00    0,000000000e+00    0,000000000e+00
     1010000000   -4,693215489e-01   -1,150119454e-01    2,169611901e-01   -3,295065165e-01    0,000000000e+00    0,000000000e+00    0,000000000e+00    0,000000000e+00
     1024000000   -4,177815318e-01    1,450894028e-01   -2,872692049e-02   -3,820550740e-01    0,000000000e+00    0,000000000e+00    0,000000000e+00    0,000000000e+00
     1038000000   -2,262091786e-01    2,916162610e-01   -2,379799038e-01   -2,552789748e-01    0,000000000e+00    0,000000000e+00    0,000000000e+00    0,000000000e+00
     1052000000   -1,400840469e-02    2,830725908e-01   -3,095394075e-01   -4,647447541e-02    0,000000000e+00    0,000000000e+00    0,000000000e+00    0,000000000e+00
     1066000000    1,359979063e-01    1,681756079e-01   -2,549481094e-01    1,377870888e-01    0,000000000e+00    0,000000000e+00    0,000000000e+00    0,000000000e+00
     1080000000    1,990969479e-01    4,453403875e-03   -1,199584752e-01    2,528005838e-01    0,000000000e+00    0,000000000e+00    0,000000000e+00    0,000000000e+00
     1094000000    1,619979441e-01   -1,666669995e-01    5,397464707e-02    2,926520705e-01    0,000000000e+00    0,000000000e+00    0,000000000e+00    0,000000000e+00
     1108000000    1,506826282e-02   -2,985196114e-01    2,512699366e-01    2,408434153e-01    0,000000000e+00    0,000000000e+00    0,000000000e+00    0,000000000e+00
     1122000000   -2,212610543e-01   -2,834090590e-01    4,318143725e-01    3,411778063e-02    0,000000000e+00    0,000000000e+00    0,000000000e+00    0,000000000e+00
     1136000000   -3,210771680e-01   -2,764314972e-02    3,946277499e-01   -3,260045052e-01    0,000000000e+00    0,000000000e+00    0,000000000e+00    0,000000000e+00
     1150000000   -9,629516304e-02    1,386042684e-01    5,354892835e-02   -5,120631456e-01    0,000000000e+00    0,000000000e+00    0,000000000e+00    0,000000000e+00
     1164000000    8,682489395e-02   -2,690241300e-02   -2,375764400e-01   -3,865587711e-01    0,000000000e+00    0,000000000e+00    0,000000000e+00    0,000000000e+00
     1178000000    2,037106268e-02   -2,611832321e-01   -3,506640196e-01   -1,733922213e-01    0,000000000e+00    0,000000000e+00    0,000000000e+00    0,000000000e+00
     1192000000   -2,292259336e-01   -3,469196260e-01   -3,228927255e-01    3,708611056e-02    0,000000000e+00    0,000000000e+00    0,000000000e+00    0,000000000e+00
     1206000000   -4,860411286e-01   -1,744991392e-01   -1,695559174e-01    1,680641025e-01    0,000000000e+00    0,000000000e+00    0,000000000e+00    0,000000000e+00
     1220000000   -4,999688566e-01    1,394653469e-01   -4,404838663e-03    1,604209691e-01    0,000000000e+00    0,000000000e+00    0,000000000e+00    0,000000000e+00
     1234000000   -2,947906554e-01    3,407264948e-01    6,329073012e-02    6,724821776e-02    0,000000000e+00    0,000000000e+00    0,000000000e+00    0,000000000e+00
     1248000000   -5,166408420e-02    3,603806496e-01    5,782365426e-02    1,253275317e-03    0,000000000e+00    0,000000000e+00    0,000000000e+00    0,000000000e+00
     1262000000    1,113754511e-01    2,563309371e-01    2,647805773e-02   -1,944735460e-02    0,000000000e+00    0,000000000e+00    0,000000000e+00    0,000000000e+00
     1276000000    2,063298821e-01    1,061534286e-01    7,933233865e-03    3,148089629e-03    0,000000000e+00    0,000000000e+00    0,000000000e+00    0,000000000e+00
     1290000000    2,204276323e-01   -6,726817042e-02    1,816630736e-02    2,777374536e-02    0,000000000e+00    0,000000000e+00    0,000000000e+00    0,000000000e+00
     1304000000    1,640378535e-01   -2,371654660e-01    6,787033379e-02    5,788636208e-02    0,000000000e+00    0,000000000e+00    0,000000000e+00    0,000000000e+00
     1318000000    2,039421909e-02   -3,642524481e-01    1,752104461e-01    9,603661485e-03    0,000000000e+00    0,000000000e+00    0,000000000e+00    0,000000000e+00
     1332000000   -1,511760652e-01   -3,955442607e-01    9,203133732e-02   -1,906323731e-01    0,000000000e+00    0,000000000e+00    0,000000000e+00    0,000000000e+00
     1346000000   -3,564977348e-01   -3,926926851e-01   -6,277327240e-02   -3,313867375e-02    0,000000000e+00    0,000000000e+00    0,000000000e+00    0,000000000e+00
     1360000000   -5,852331519e-01   -2,015523016e-01    4,482300207e-02    8,725058287e-02    0,000000000e+00    0,000000000e+00    0,000000000e+00    0,000000000e+00
     1374000000   -6,231777668e-01    1,052641347e-01    1,570642740e-01    5,471258610e-02    0,000000000e+00    0,000000000e+00    0,000000000e+00    0,000000000e+00
     1388000000   -4,712996781e-01    3,489408195e-01    2,071004808e-01   -2,406893671e-02    0,000000000e+00    0,000000000e+00    0,000000000e+00    0,000000000e+00
     1402000000   -2,403733283e-01    4,336231649e-01    1,964116395e-01   -8,628082275e-02    0,000000000e+00    0,000000000e+00    0,000000000e+00    0,000000000e+00
     1416000000   -3,473385796e-02    4,101278186e-01    1,809960157e-01   -1,004873887e-01    0,000000000e+00    0,000000000e+00    0,000000000e+00    0,000000000e+00
     1430000000    1,163447127e-01    2,986336350e-01    1,525802463e-01   -1,286407709e-01    0,000000000e+00    0,000000000e+00    0,000000000e+00    0,000000000e+00
     1444000000    2,020976841e-01    1,498517692e-01    1,440533251e-01   -1,108861640e-01    0,000000000e+00    0,000000000e+00    0,000000000e+00    0,000000000e+00
     1458000000    2,297305316e-01   -2,210991643e-02    1,238949299e-01   -9,859593958e-02    0,000000000e+00    0,000000000e+00    0,000000000e+00    0,000000000e+00
     1472000000    1,885684729e-01   -2,019376904e-01    1,306801736e-01   -5,224647000e-02    0,000000000e+00    0,000000000e+00    0,000000000e+00    0,000000000e+00
     1486000000    6,153739244e-02   -3,687998056e-01    1,416949034e-01    1,665375754e-02    0,000000000e+00    0,000000000e+00    0,000000000e+00    0,000000000e+00
     1500000000   -1,736058146e-01   -4,737315178e-01    2,228884548e-01    8,275232464e-02    0,000000000e+00    0,000000000e+00    0,000000000e+00    0,000000000e+00
