! NanoVNA-App
! Date: 2025-09-26 09:41:01
! Start: 100MHz Stop: 1,5GHz Points: 101
! S-Parameter data: F S11 S21 S12 S22
# Hz S RI R 50
!     Frequency           S11_Real           S11_Imag           S21_Real           S21_Imag           S12_Real           S12_Imag           S22_Real           S22_Imag
      100000000   -2,907755040e-02   -4,541119561e-03    3,740403056e-01   -7,230686545e-01    0,000000000e+00    0,000000000e+00    0,000000000e+00    0,000000000e+00
      114000000   -1,699790731e-02    1,122495998e-02   -8,998955786e-02   -8,066499233e-01    0,000000000e+00    0,000000000e+00    0,000000000e+00    0,000000000e+00
      128000000    2,794781933e-03    1,057536900e-02   -5,161106586e-01   -6,210964322e-01    0,000000000e+00    0,000000000e+00    0,000000000e+00    0,000000000e+00
      142000000    1,400945149e-02   -2,500022762e-03   -7,686452866e-01   -2,361610383e-01    0,000000000e+00    0,000000000e+00    0,000000000e+00    0,000000000e+00
      156000000    1,533891167e-02   -1,440258324e-02   -7,723244429e-01    2,229226083e-01    0,000000000e+00    0,000000000e+00    0,000000000e+00    0,000000000e+00
      170000000    1,697303355e-02   -2,215626463e-02   -5,181363225e-01    6,063020825e-01    0,000000000e+00    0,000000000e+00    0,000000000e+00    0,000000000e+00
      184000000    2,130075172e-02   -3,703835234e-02   -1,005299389e-01    7,873420715e-01    0,000000000e+00    0,000000000e+00    0,000000000e+00    0,000000000e+00
      198000000    1,307222713e-02   -6,257352978e-02    3,447892368e-01    7,130759358e-01    0,000000000e+00    0,000000000e+00    0,000000000e+00    0,000000000e+00
      212000000   -1,872777939e-02   -8,123386651e-02    6,798835993e-01    4,100915790e-01    0,000000000e+00    0,000000000e+00    0,000000000e+00    0,000000000e+00
      226000000   -6,155946106e-02   -6,891242415e-02    7,974940538e-01   -3,097420000e-02    0,000000000e+00    0,000000000e+00    0,000000000e+00    0,000000000e+00
      240000000   -8,210502565e-02   -2,573891170e-02    6,477165818e-01   -4,679601192e-01    0,000000000e+00    0,000000000e+00    0,000000000e+00    0,000000000e+00
      254000000   -6,321496516e-02    1,682741754e-02    2,773749232e-01   -7,443479300e-01    0,000000000e+00    0,000000000e+00    0,000000000e+00    0,000000000e+00
      268000000   -2,375063859e-02    2,833615802e-02   -1,771499664e-01   -7,663114667e-01    0,000000000e+00    0,000000000e+00    0,000000000e+00    0,000000000e+00
      282000000    3,598951269e-03    1,141875423e-02   -5,627312064e-01   -5,382819176e-01    0,000000000e+00    0,000000000e+00    0,000000000e+00    0,000000000e+00
      296000000    9,308662266e-03   -7,708746474e-03   -7,617085576e-01   -1,414246410e-01    0,000000000e+00    0,000000000e+00    0,000000000e+00    0,000000000e+00
      310000000    1,096384320e-02   -1,579368487e-02   -7,134285569e-01    2,996231019e-01    0,000000000e+00    0,000000000e+00    0,000000000e+00    0,000000000e+00
      324000000    2,007797360e-02   -2,692345530e-02   -4,291047156e-01    6,392223835e-01    0,000000000e+00    0,000000000e+00    0,000000000e+00    0,000000000e+00
      338000000    2,548192441e-02   -5,247608945e-02   -8,946646005e-03    7,625498772e-01    0,000000000e+00    0,000000000e+00    0,000000000e+00    0,000000000e+00
      352000000    6,649173796e-03   -8,510350436e-02    4,063034058e-01    6,418464184e-01    0,000000000e+00    0,000000000e+00    0,000000000e+00    0,000000000e+00
      366000000   -3,537837416e-02   -9,524966776e-02    6,924027205e-01    3,129674494e-01    0,000000000e+00    0,000000000e+00    0,000000000e+00    0,000000000e+00
      380000000   -7,113564759e-02   -7,046592236e-02    7,491846085e-01   -1,258489043e-01    0,000000000e+00    0,000000000e+00    0,000000000e+00    0,000000000e+00
      394000000   -7,203030586e-02   -3,159953654e-02    5,496823192e-01   -5,213908553e-01    0,000000000e+00    0,000000000e+00    0,000000000e+00    0,000000000e+00
      408000000   -4,553092644e-02   -1,604017243e-02    1,626232117e-01   -7,335403562e-01    0,000000000e+00    0,000000000e+00    0,000000000e+00    0,000000000e+00
      422000000   -2,803756855e-02   -3,240898997e-02   -2,675614953e-01   -6,976164579e-01    0,000000000e+00    0,000000000e+00    0,000000000e+00    0,000000000e+00
      436000000   -4,096405208e-02   -5,213922635e-02   -6,047424078e-01   -4,341738820e-01    0,000000000e+00    0,000000000e+00    0,000000000e+00    0,000000000e+00
      450000000   -6,748394668e-02   -4,371402785e-02   -7,425463796e-01   -2,349712327e-02    0,000000000e+00    0,000000000e+00    0,000000000e+00    0,000000000e+00
      464000000   -7,298371941e-02   -1,180030499e-02   -6,214073896e-01    3,957941234e-01    0,000000000e+00    0,000000000e+00    0,000000000e+00    0,000000000e+00
      478000000   -4,721853137e-02    1,073175296e-02   -2,847459912e-01    6,679540873e-01    0,000000000e+00    0,000000000e+00    0,000000000e+00    0,000000000e+00
      492000000   -1,579146087e-02    4,706039559e-03    1,356911659e-01    7,034482956e-01    0,000000000e+00    0,000000000e+00    0,000000000e+00    0,000000000e+00
      506000000   -3,549521323e-03   -1,640649699e-02    4,990346730e-01    5,050727725e-01    0,000000000e+00    0,000000000e+00    0,000000000e+00    0,000000000e+00
      520000000   -6,051212084e-03   -3,085773624e-02    6,895864606e-01    1,426689327e-01    0,000000000e+00    0,000000000e+00    0,000000000e+00    0,000000000e+00
      534000000   -4,312015604e-03   -3,751799837e-02    6,457130909e-01   -2,614390552e-01    0,000000000e+00    0,000000000e+00    0,000000000e+00    0,000000000e+00
      548000000    6,278973073e-03   -5,351678655e-02    3,835123777e-01   -5,679887533e-01    0,000000000e+00    0,000000000e+00    0,000000000e+00    0,000000000e+00
      562000000    3,186089452e-03   -9,017116576e-02    4,271281417e-03   -6,737998128e-01    0,000000000e+00    0,000000000e+00    0,000000000e+00    0,000000000e+00
      576000000   -3,444593400e-02   -1,249012128e-01   -3,674715757e-01   -5,610495806e-01    0,000000000e+00    0,000000000e+00    0,000000000e+00    0,000000000e+00
      590000000   -9,642588347e-02   -1,224674135e-01   -6,204956770e-01   -2,679472566e-01    0,000000000e+00    0,000000000e+00    0,000000000e+00    0,000000000e+00
      604000000   -1,394761205e-01   -7,168898731e-02   -6,676782966e-01    1,355839521e-01    0,000000000e+00    0,000000000e+00    0,000000000e+00    0,000000000e+00
      618000000   -1,294131130e-01   -9,300897829e-03   -4,669331014e-01    4,938383102e-01    0,000000000e+00    0,000000000e+00    0,000000000e+00    0,000000000e+00
      632000000   -8,353833109e-02    1,586037502e-02   -1,017680094e-01    6,639079452e-01    0,000000000e+00    0,000000000e+00    0,000000000e+00    0,000000000e+00
      646000000   -5,263023078e-02   -6,251573213e-04    2,848969996e-01    5,977553725e-01    0,000000000e+00    0,000000000e+00    0,000000000e+00    0,000000000e+00
      660000000   -5,525262281e-02   -2,151033469e-02    5,659818649e-01    3,254197240e-01    0,000000000e+00    0,000000000e+00    0,000000000e+00    0,000000000e+00
      674000000   -6,989394873e-02   -1,526067685e-02    6,426475644e-01   -6,243291497e-02    0,000000000e+00    0,000000000e+00    0,000000000e+00    0,000000000e+00
      688000000   -6,594605744e-02    1,056420151e-02    4,728197157e-01   -4,246241450e-01    0,000000000e+00    0,000000000e+00    0,000000000e+00    0,000000000e+00
      702000000   -3,531078622e-02    2,473407798e-02    1,213575006e-01   -6,045664549e-01    0,000000000e+00    0,000000000e+00    0,000000000e+00    0,000000000e+00
      716000000    3,784947097e-03    1,572415233e-02   -2,588317394e-01   -5,478604436e-01    0,000000000e+00    0,000000000e+00    0,000000000e+00    0,000000000e+00
      730000000    3,587801009e-02   -1,396999974e-02   -5,230252147e-01   -2,739031613e-01    0,000000000e+00    0,000000000e+00    0,000000000e+00    0,000000000e+00
      744000000    6,177202612e-02   -6,572527438e-02   -5,632062554e-01    9,787501395e-02    0,000000000e+00    0,000000000e+00    0,000000000e+00    0,000000000e+00
      758000000    6,090357900e-02   -1,514450312e-01   -3,685840666e-01    4,005824327e-01    0,000000000e+00    0,000000000e+00    0,000000000e+00    0,000000000e+00
      772000000   -1,636027917e-02   -2,559030354e-01   -4,691508040e-02    5,119309425e-01    0,000000000e+00    0,000000000e+00    0,000000000e+00    0,000000000e+00
      786000000   -2,031203508e-01   -2,927382886e-01    2,607434988e-01    4,015922844e-01    0,000000000e+00    0,000000000e+00    0,000000000e+00    0,000000000e+00
      800000000   -4,096836150e-01   -1,279634088e-01    4,101113677e-01    1,187019646e-01    0,000000000e+00    0,000000000e+00    0,000000000e+00    0,000000000e+00
      814000000   -3,802372217e-01    2,014243454e-01    2,991936207e-01   -1,551928967e-01    0,000000000e+00    0,000000000e+00    0,000000000e+00    0,000000000e+00
      828000000   -6,508569419e-02    3,506444097e-01    8,044933528e-02   -1,960481554e-01    0,000000000e+00    0,000000000e+00    0,000000000e+00    0,000000000e+00
      842000000    2,134355754e-01    1,892278343e-01   -1,003154553e-02   -9,663879126e-02    0,000000000e+00    0,000000000e+00    0,000000000e+00    0,000000000e+00
      856000000    2,700352073e-01   -1,047848985e-01    2,933973074e-02   -3,523013368e-02    0,000000000e+00    0,000000000e+00    0,000000000e+00    0,000000000e+00
      870000000    8,575287461e-02   -3,543151915e-01    8,440455049e-02   -9,125640988e-02    0,000000000e+00    0,000000000e+00    0,000000000e+00    0,000000000e+00
      884000000   -2,670767009e-01   -3,629810810e-01    1,275316346e-02   -2,208531201e-01    0,000000000e+00    0,000000000e+00    0,000000000e+00    0,000000000e+00
      898000000   -4,634115994e-01   -1,707476750e-02   -2,096626461e-01   -2,075407803e-01    0,000000000e+00    0,000000000e+00    0,000000000e+00    0,000000000e+00
      912000000   -2,392154038e-01    2,824181318e-01   -3,281350434e-01    7,320961356e-02    0,000000000e+00    0,000000000e+00    0,000000000e+00    0,000000000e+00
      926000000    5,760874227e-02    2,681053579e-01   -2,112758011e-01    2,542600334e-01    0,000000000e+00    0,000000000e+00    0,000000000e+00    0,000000000e+00
      940000000    2,120800614e-01    8,777397126e-02   -3,466144204e-02    3,202092648e-01    0,000000000e+00    0,000000000e+00    0,000000000e+00    0,000000000e+00
      954000000    2,226933241e-01   -1,220728606e-01    1,234887913e-01    2,994329333e-01    0,000000000e+00    0,000000000e+00    0,000000000e+00    0,000000000e+00
      968000000    1,171137318e-01   -2,976672351e-01    2,604176104e-01    2,142113000e-01    0,000000000e+00    0,000000000e+00    0,000000000e+00    0,000000000e+00
      982000000   -7,856883854e-02   -3,871250749e-01    3,551214635e-01    6,894934922e-02    0,000000000e+00    0,000000000e+00    0,000000000e+00    0,000000000e+00
      996000000   -3,149459362e-01   -3,305478990e-01    3,592333794e-01   -1,366301626e-01    0,000000000e+00    0,000000000e+00    0,000000000e+00    0,000000000e+00
     1010000000   -4,651375711e-01   -1,202707365e-01    2,210856229e-01   -3,278335929e-01    0,000000000e+00    0,000000000e+00    0,000000000e+00    0,000000000e+00
     1024000000   -4,171871543e-01    1,464890987e-01   -2,976526134e-02   -3,809302151e-01    0,000000000e+00    0,000000000e+00    0,000000000e+00    0,000000000e+00
     1038000000   -2,273932844e-01    2,940148413e-01   -2,382229269e-01   -2,537994385e-01    0,000000000e+00    0,000000000e+00    0,000000000e+00    0,000000000e+00
     1052000000   -1,399733964e-02    2,826234102e-01   -3,079314828e-01   -4,623437673e-02    0,000000000e+00    0,000000000e+00    0,000000000e+00    0,000000000e+00
     1066000000    1,367402822e-01    1,671786457e-01   -2,521828115e-01    1,355882138e-01    0,000000000e+00    0,000000000e+00    0,000000000e+00    0,000000000e+00
     1080000000    1,965800971e-01    8,901945315e-03   -1,197731793e-01    2,526221275e-01    0,000000000e+00    0,000000000e+00    0,000000000e+00    0,000000000e+00
     1094000000    1,660538018e-01   -1,678789556e-01    5,416601524e-02    2,932397425e-01    0,000000000e+00    0,000000000e+00    0,000000000e+00    0,000000000e+00
     1108000000    1,604666933e-02   -3,018465042e-01    2,508623004e-01    2,400368452e-01    0,000000000e+00    0,000000000e+00    0,000000000e+00    0,000000000e+00
     1122000000   -2,180233449e-01   -2,865689993e-01    4,314813316e-01    3,365273401e-02    0,000000000e+00    0,000000000e+00    0,000000000e+00    0,000000000e+00
     1136000000   -3,262786865e-01   -1,979119889e-02    3,964643478e-01   -3,302991092e-01    0,000000000e+00    0,000000000e+00    0,000000000e+00    0,000000000e+00
     1150000000   -1,024531573e-01    1,395702660e-01    5,482493341e-02   -5,084074140e-01    0,000000000e+00    0,000000000e+00    0,000000000e+00    0,000000000e+00
     1164000000    8,517932892e-02   -2,524903975e-02   -2,366198152e-01   -3,902257085e-01    0,000000000e+00    0,000000000e+00    0,000000000e+00    0,000000000e+00
     1178000000    2,358960919e-02   -2,619317174e-01   -3,499962389e-01   -1,712192595e-01    0,000000000e+00    0,000000000e+00    0,000000000e+00    0,000000000e+00
     1192000000   -2,280429006e-01   -3,521581888e-01   -3,212839067e-01    3,805132210e-02    0,000000000e+00    0,000000000e+00    0,000000000e+00    0,000000000e+00
     1206000000   -4,863334298e-01   -1,755700707e-01   -1,745247841e-01    1,705423445e-01    0,000000000e+00    0,000000000e+00    0,000000000e+00    0,000000000e+00
     1220000000   -5,023310184e-01    1,448287070e-01   -4,605055321e-03    1,604500711e-01    0,000000000e+00    0,000000000e+00    0,000000000e+00    0,000000000e+00
     1234000000   -2,946793139e-01    3,471238613e-01    6,643075496e-02    7,420599461e-02    0,000000000e+00    0,000000000e+00    0,000000000e+00    0,000000000e+00
     1248000000   -5,883541703e-02    3,605746329e-01    5,797572061e-02    5,157188512e-03    0,000000000e+00    0,000000000e+00    0,000000000e+00    0,000000000e+00
     1262000000    1,100284159e-01    2,584079802e-01    2,780679800e-02   -1,887787692e-02    0,000000000e+00    0,000000000e+00    0,000000000e+00    0,000000000e+00
     1276000000    2,048060000e-01    1,034249365e-01    5,005271640e-03   -1,584216370e-04    0,000000000e+00    0,000000000e+00    0,000000000e+00    0,000000000e+00
     1290000000    2,228651643e-01   -6,527898461e-02    1,773791388e-02    3,134030104e-02    0,000000000e+00    0,000000000e+00    0,000000000e+00    0,000000000e+00
     1304000000    1,674573272e-01   -2,362429053e-01    6,975790113e-02    5,305157602e-02    0,000000000e+00    0,000000000e+00    0,000000000e+00    0,000000000e+00
     1318000000    2,207259089e-02   -3,644965887e-01    1,735686660e-01    1,579414308e-02    0,000000000e+00    0,000000000e+00    0,000000000e+00    0,000000000e+00
     1332000000   -1,486289799e-01   -3,965188563e-01    1,050154194e-01   -1,866512299e-01    0,000000000e+00    0,000000000e+00    0,000000000e+00    0,000000000e+00
     1346000000   -3,578703105e-01   -3,880245388e-01   -6,300371885e-02   -2,238971181e-02    0,000000000e+00    0,000000000e+00    0,000000000e+00    0,000000000e+00
     1360000000   -5,863310099e-01   -2,008130997e-01    4,927904531e-02    8,967748284e-02    0,000000000e+00    0,000000000e+00    0,000000000e+00    0,000000000e+00
     1374000000   -6,209269762e-01    9,521456808e-02    1,625023782e-01    5,455023050e-02    0,000000000e+00    0,000000000e+00    0,000000000e+00    0,000000000e+00
     1388000000   -4,649176598e-01    3,537476659e-01    2,118546218e-01   -1,750796847e-02    0,000000000e+00    0,000000000e+00    0,000000000e+00    0,000000000e+00
     1402000000   -2,399507761e-01    4,459819794e-01    2,007725835e-01   -7,248316705e-02    0,000000000e+00    0,000000000e+00    0,000000000e+00    0,000000000e+00
     1416000000   -3,546082228e-02    4,070019126e-01    1,876153797e-01   -1,004608274e-01    0,000000000e+00    0,000000000e+00    0,000000000e+00    0,000000000e+00
     1430000000    1,195866987e-01    3,040384054e-01    1,592071056e-01   -1,209964603e-01    0,000000000e+00    0,000000000e+00    0,000000000e+00    0,000000000e+00
     1444000000    2,020345926e-01    1,515091509e-01    1,411006302e-01   -1,175877675e-01    0,000000000e+00    0,000000000e+00    0,000000000e+00    0,000000000e+00
     1458000000    2,321950793e-01   -1,971549168e-02    1,291849613e-01   -1,038607508e-01    0,000000000e+00    0,000000000e+00    0,000000000e+00    0,000000000e+00
     1472000000    1,867938489e-01   -1,953384578e-01    1,269772798e-01   -4,869323969e-02    0,000000000e+00    0,000000000e+00    0,000000000e+00    0,000000000e+00
     1486000000    5,779131874e-02   -3,663554192e-01    1,425139904e-01    2,434054203e-02    0,000000000e+00    0,000000000e+00    0,000000000e+00    0,000000000e+00
     1500000000   -1,740282774e-01   -4,843008220e-01    2,090079784e-01    6,616567820e-02    0,000000000e+00    0,000000000e+00    0,000000000e+00    0,000000000e+00
