! NanoVNA-App
! Date: 2025-09-26 09:40:51
! Start: 100MHz Stop: 1,5GHz Points: 101
! S-Parameter data: F S11 S21 S12 S22
# Hz S RI R 50
!     Frequency           S11_Real           S11_Imag           S21_Real           S21_Imag           S12_Real           S12_Imag           S22_Real           S22_Imag
      100000000   -2,907079086e-02   -4,549953155e-03    3,739856482e-01   -7,230922580e-01    0,000000000e+00    0,000000000e+00    0,000000000e+00    0,000000000e+00
      114000000   -1,699398458e-02    1,125817280e-02   -9,001434594e-02   -8,065685034e-01    0,000000000e+00    0,000000000e+00    0,000000000e+00    0,000000000e+00
      128000000    2,742598765e-03    1,059912238e-02   -5,161294341e-01   -6,211994886e-01    0,000000000e+00    0,000000000e+00    0,000000000e+00    0,000000000e+00
      142000000    1,402206160e-02   -2,493800130e-03   -7,687588334e-01   -2,363378704e-01    0,000000000e+00    0,000000000e+00    0,000000000e+00    0,000000000e+00
      156000000    1,418619882e-02   -1,413630694e-02   -7,647430301e-01    2,199289948e-01    0,000000000e+00    0,000000000e+00    0,000000000e+00    0,000000000e+00
      170000000    1,698283479e-02   -2,206394076e-02   -5,184040666e-01    6,064956784e-01    0,000000000e+00    0,000000000e+00    0,000000000e+00    0,000000000e+00
      184000000    2,128800936e-02   -3,711555526e-02   -1,008172482e-01    7,878224254e-01    0,000000000e+00    0,000000000e+00    0,000000000e+00    0,000000000e+00
      198000000    1,306150109e-02   -6,256581098e-02    3,449870944e-01    7,133035660e-01    0,000000000e+00    0,000000000e+00    0,000000000e+00    0,000000000e+00
      212000000   -1,871979982e-02   -8,123098314e-02    6,799448133e-01    4,099121392e-01    0,000000000e+00    0,000000000e+00    0,000000000e+00    0,000000000e+00
      226000000   -6,150911003e-02   -6,890634447e-02    7,975476980e-01   -3,086353838e-02    0,000000000e+00    0,000000000e+00    0,000000000e+00    0,000000000e+00
      240000000   -8,203081787e-02   -2,562979609e-02    6,477355957e-01   -4,679587781e-01    0,000000000e+00    0,000000000e+00    0,000000000e+00    0,000000000e+00
      254000000   -6,319391727e-02    1,684101112e-02    2,773652971e-01   -7,450265884e-01    0,000000000e+00    0,000000000e+00    0,000000000e+00    0,000000000e+00
      268000000   -2,374071255e-02    2,841550484e-02   -1,770509779e-01   -7,663431168e-01    0,000000000e+00    0,000000000e+00    0,000000000e+00    0,000000000e+00
      282000000    3,662692150e-03    1,146399882e-02   -5,625016093e-01   -5,381627083e-01    0,000000000e+00    0,000000000e+00    0,000000000e+00    0,000000000e+00
      296000000    9,189192206e-03   -7,748053875e-03   -7,616519332e-01   -1,415864378e-01    0,000000000e+00    0,000000000e+00    0,000000000e+00    0,000000000e+00
      310000000    1,112092379e-02   -1,591238007e-02   -7,135599256e-01    2,996442914e-01    0,000000000e+00    0,000000000e+00    0,000000000e+00    0,000000000e+00
      324000000    2,002394386e-02   -2,639223635e-02   -4,297199845e-01    6,390784979e-01    0,000000000e+00    0,000000000e+00    0,000000000e+00    0,000000000e+00
      338000000    2,526541613e-02   -5,272306874e-02   -8,948066272e-03    7,615240216e-01    0,000000000e+00    0,000000000e+00    0,000000000e+00    0,000000000e+00
      352000000    6,660207175e-03   -8,498029411e-02    4,063594639e-01    6,408664584e-01    0,000000000e+00    0,000000000e+00    0,000000000e+00    0,000000000e+00
      366000000   -3,536342457e-02   -9,529376030e-02    6,929429770e-01    3,130663037e-01    0,000000000e+00    0,000000000e+00    0,000000000e+00    0,000000000e+00
      380000000   -7,094576955e-02   -7,021158189e-02    7,496961355e-01   -1,255125701e-01    0,000000000e+00    0,000000000e+00    0,000000000e+00    0,000000000e+00
      394000000   -7,192650437e-02   -3,156766668e-02    5,493659973e-01   -5,215544701e-01    0,000000000e+00    0,000000000e+00    0,000000000e+00    0,000000000e+00
      408000000   -4,582388327e-02   -1,578346640e-02    1,637768745e-01   -7,331562042e-01    0,000000000e+00    0,000000000e+00    0,000000000e+00    0,000000000e+00
      422000000   -2,815010771e-02   -3,259757534e-02   -2,675871253e-01   -6,982359886e-01    0,000000000e+00    0,000000000e+00    0,000000000e+00    0,000000000e+00
      436000000   -4,082130641e-02   -5,232906342e-02   -6,052664518e-01   -4,348604083e-01    0,000000000e+00    0,000000000e+00    0,000000000e+00    0,000000000e+00
      450000000   -6,763456017e-02   -4,400023818e-02   -7,426040173e-01   -2,358797751e-02    0,000000000e+00    0,000000000e+00    0,000000000e+00    0,000000000e+00
      464000000   -7,294252515e-02   -1,173581276e-02   -6,217822433e-01    3,969509304e-01    0,000000000e+00    0,000000000e+00    0,000000000e+00    0,000000000e+00
      478000000   -4,684247822e-02    1,127301715e-02   -2,849894166e-01    6,689460874e-01    0,000000000e+00    0,000000000e+00    0,000000000e+00    0,000000000e+00
      492000000   -1,603708230e-02    4,775067791e-03    1,361454427e-01    7,035225034e-01    0,000000000e+00    0,000000000e+00    0,000000000e+00    0,000000000e+00
      506000000   -3,452631645e-03   -1,675870642e-02    4,983614683e-01    5,063343048e-01    0,000000000e+00    0,000000000e+00    0,000000000e+00    0,000000000e+00
      520000000   -6,015914027e-03   -3,091783449e-02    6,901894212e-01    1,445165873e-01    0,000000000e+00    0,000000000e+00    0,000000000e+00    0,000000000e+00
      534000000   -4,161532968e-03   -3,719369322e-02    6,451517344e-01   -2,617559135e-01    0,000000000e+00    0,000000000e+00    0,000000000e+00    0,000000000e+00
      548000000    6,710158661e-03   -5,379816890e-02    3,839088976e-01   -5,675482750e-01    0,000000000e+00    0,000000000e+00    0,000000000e+00    0,000000000e+00
      562000000    3,001047298e-03   -8,939429373e-02    4,503385164e-03   -6,733804345e-01    0,000000000e+00    0,000000000e+00    0,000000000e+00    0,000000000e+00
      576000000   -3,470096365e-02   -1,246114597e-01   -3,682126105e-01   -5,602534413e-01    0,000000000e+00    0,000000000e+00    0,000000000e+00    0,000000000e+00
      590000000   -9,658867121e-02   -1,224555373e-01   -6,220849752e-01   -2,679728568e-01    0,000000000e+00    0,000000000e+00    0,000000000e+00    0,000000000e+00
      604000000   -1,393903494e-01   -7,161504030e-02   -6,670752168e-01    1,358383298e-01    0,000000000e+00    0,000000000e+00    0,000000000e+00    0,000000000e+00
      618000000   -1,289654821e-01   -9,742041118e-03   -4,680190980e-01    4,934182465e-01    0,000000000e+00    0,000000000e+00    0,000000000e+00    0,000000000e+00
      632000000   -8,369114250e-02    1,528717112e-02   -1,027970687e-01    6,654249430e-01    0,000000000e+00    0,000000000e+00    0,000000000e+00    0,000000000e+00
      646000000   -5,268263072e-02    7,239220577e-05    2,846142054e-01    5,977686048e-01    0,000000000e+00    0,000000000e+00    0,000000000e+00    0,000000000e+00
      660000000   -5,408544466e-02   -2,142005041e-02    5,654094219e-01    3,251804411e-01    0,000000000e+00    0,000000000e+00    0,000000000e+00    0,000000000e+00
      674000000   -6,978780776e-02   -1,569620147e-02    6,424942017e-01   -6,220581010e-02    0,000000000e+00    0,000000000e+00    0,000000000e+00    0,000000000e+00
      688000000   -6,698618829e-02    9,572565556e-03    4,724398553e-01   -4,244032204e-01    0,000000000e+00    0,000000000e+00    0,000000000e+00    0,000000000e+00
      702000000   -3,412861750e-02    2,585800365e-02    1,220799908e-01   -6,079214811e-01    0,000000000e+00    0,000000000e+00    0,000000000e+00    0,000000000e+00
      716000000    3,458692692e-03    1,454846840e-02   -2,593483925e-01   -5,478314757e-01    0,000000000e+00    0,000000000e+00    0,000000000e+00    0,000000000e+00
      730000000    3,578349948e-02   -1,401886810e-02   -5,238431096e-01   -2,737983167e-01    0,000000000e+00    0,000000000e+00    0,000000000e+00    0,000000000e+00
      744000000    6,147939712e-02   -6,448350102e-02   -5,633253455e-01    9,746157378e-02    0,000000000e+00    0,000000000e+00    0,000000000e+00    0,000000000e+00
      758000000    6,135031208e-02   -1,519635618e-01   -3,695897460e-01    4,017030299e-01    0,000000000e+00    0,000000000e+00    0,000000000e+00    0,000000000e+00
      772000000   -1,669474319e-02   -2,570360005e-01   -4,642351344e-02    5,115770102e-01    0,000000000e+00    0,000000000e+00    0,000000000e+00    0,000000000e+00
      786000000   -2,015799880e-01   -2,931199074e-01    2,604265213e-01    4,012591541e-01    0,000000000e+00    0,000000000e+00    0,000000000e+00    0,000000000e+00
      800000000   -4,088083506e-01   -1,291706562e-01    4,096194804e-01    1,188725978e-01    0,000000000e+00    0,000000000e+00    0,000000000e+00    0,000000000e+00
      814000000   -3,812187612e-01    2,023998946e-01    2,992846966e-01   -1,551094055e-01    0,000000000e+00    0,000000000e+00    0,000000000e+00    0,000000000e+00
      828000000   -6,501684338e-02    3,502937257e-01    8,090759069e-02   -1,961425692e-01    0,000000000e+00    0,000000000e+00    0,000000000e+00    0,000000000e+00
      842000000    2,134248018e-01    1,887594312e-01   -9,345163591e-03   -9,610453993e-02    0,000000000e+00    0,000000000e+00    0,000000000e+00    0,000000000e+00
      856000000    2,701215446e-01   -1,046793908e-01    2,884387784e-02   -3,515829891e-02    0,000000000e+00    0,000000000e+00    0,000000000e+00    0,000000000e+00
      870000000    8,603601903e-02   -3,541949093e-01    8,435308933e-02   -9,111271054e-02    0,000000000e+00    0,000000000e+00    0,000000000e+00    0,000000000e+00
      884000000   -2,673887908e-01   -3,619693816e-01    1,299262326e-02   -2,208796889e-01    0,000000000e+00    0,000000000e+00    0,000000000e+00    0,000000000e+00
      898000000   -4,637533426e-01   -1,585444063e-02   -2,099232972e-01   -2,069408149e-01    0,000000000e+00    0,000000000e+00    0,000000000e+00    0,000000000e+00
      912000000   -2,397529930e-01    2,840293348e-01   -3,246169686e-01    7,037255168e-02    0,000000000e+00    0,000000000e+00    0,000000000e+00    0,000000000e+00
      926000000    5,696596205e-02    2,658106089e-01   -2,104701102e-01    2,554006577e-01    0,000000000e+00    0,000000000e+00    0,000000000e+00    0,000000000e+00
      940000000    2,143020481e-01    8,495970070e-02   -3,585596010e-02    3,203176856e-01    0,000000000e+00    0,000000000e+00    0,000000000e+00    0,000000000e+00
      954000000    2,263409048e-01   -1,216305569e-01    1,255837679e-01    2,993644476e-01    0,000000000e+00    0,000000000e+00    0,000000000e+00    0,000000000e+00
      968000000    1,207168698e-01   -2,976920605e-01    2,606986463e-01    2,161785662e-01    0,000000000e+00    0,000000000e+00    0,000000000e+00    0,000000000e+00
      982000000   -8,131796122e-02   -3,890159726e-01    3,563680947e-01    6,752967834e-02    0,000000000e+00    0,000000000e+00    0,000000000e+00    0,000000000e+00
      996000000   -3,187938035e-01   -3,335723281e-01    3,616928458e-01   -1,359447539e-01    0,000000000e+00    0,000000000e+00    0,000000000e+00    0,000000000e+00
     1010000000   -4,634898603e-01   -1,138674915e-01    2,201567888e-01   -3,279598653e-01    0,000000000e+00    0,000000000e+00    0,000000000e+00    0,000000000e+00
     1024000000   -4,247400761e-01    1,465018541e-01   -2,761395648e-02   -3,816372156e-01    0,000000000e+00    0,000000000e+00    0,000000000e+00    0,000000000e+00
     1038000000   -2,208150625e-01    2,951515317e-01   -2,389733344e-01   -2,537866533e-01    0,000000000e+00    0,000000000e+00    0,000000000e+00    0,000000000e+00
     1052000000   -9,627621621e-03    2,851044834e-01   -3,108529449e-01   -4,765924439e-02    0,000000000e+00    0,000000000e+00    0,000000000e+00    0,000000000e+00
     1066000000    1,358452588e-01    1,681289971e-01   -2,528563440e-01    1,354956329e-01    0,000000000e+00    0,000000000e+00    0,000000000e+00    0,000000000e+00
     1080000000    1,983669251e-01    3,965746611e-03   -1,191007644e-01    2,544153035e-01    0,000000000e+00    0,000000000e+00    0,000000000e+00    0,000000000e+00
     1094000000    1,606801152e-01   -1,652251929e-01    5,337548256e-02    2,938883901e-01    0,000000000e+00    0,000000000e+00    0,000000000e+00    0,000000000e+00
     1108000000    2,064394392e-02   -2,999633253e-01    2,491984814e-01    2,387946397e-01    0,000000000e+00    0,000000000e+00    0,000000000e+00    0,000000000e+00
     1122000000   -2,222582847e-01   -2,862473726e-01    4,327018857e-01    3,178639337e-02    0,000000000e+00    0,000000000e+00    0,000000000e+00    0,000000000e+00
     1136000000   -3,288778961e-01   -2,982526086e-02    3,974851370e-01   -3,277278543e-01    0,000000000e+00    0,000000000e+00    0,000000000e+00    0,000000000e+00
     1150000000   -1,029064730e-01    1,344336271e-01    5,307998508e-02   -5,103430152e-01    0,000000000e+00    0,000000000e+00    0,000000000e+00    0,000000000e+00
     1164000000    8,820865303e-02   -2,566765435e-02   -2,357121557e-01   -3,879897892e-01    0,000000000e+00    0,000000000e+00    0,000000000e+00    0,000000000e+00
     1178000000    2,421903238e-02   -2,613516748e-01   -3,494837284e-01   -1,721460968e-01    0,000000000e+00    0,000000000e+00    0,000000000e+00    0,000000000e+00
     1192000000   -2,306111306e-01   -3,538400233e-01   -3,182791471e-01    3,662382439e-02    0,000000000e+00    0,000000000e+00    0,000000000e+00    0,000000000e+00
     1206000000   -4,880766571e-01   -1,759883910e-01   -1,732808650e-01    1,722075194e-01    0,000000000e+00    0,000000000e+00    0,000000000e+00    0,000000000e+00
     1220000000   -5,035533309e-01    1,463035196e-01   -1,195619348e-02    1,576367170e-01    0,000000000e+00    0,000000000e+00    0,000000000e+00    0,000000000e+00
     1234000000   -3,018415272e-01    3,463477194e-01    6,600677222e-02    7,476514578e-02    0,000000000e+00    0,000000000e+00    0,000000000e+00    0,000000000e+00
     1248000000   -6,319822371e-02    3,554466367e-01    5,694998801e-02    3,490029369e-03    0,000000000e+00    0,000000000e+00    0,000000000e+00    0,000000000e+00
     1262000000    1,136087701e-01    2,605329752e-01    2,657479607e-02   -1,384828519e-02    0,000000000e+00    0,000000000e+00    0,000000000e+00    0,000000000e+00
     1276000000    2,050311267e-01    1,015085429e-01    7,422035560e-03   -3,568397369e-03    0,000000000e+00    0,000000000e+00    0,000000000e+00    0,000000000e+00
     1290000000    2,227226794e-01   -6,530658901e-02    1,654512435e-02    3,063986823e-02    0,000000000e+00    0,000000000e+00    0,000000000e+00    0,000000000e+00
     1304000000    1,667378247e-01   -2,359817922e-01    6,753794849e-02    5,795287713e-02    0,000000000e+00    0,000000000e+00    0,000000000e+00    0,000000000e+00
     1318000000    2,376434579e-02   -3,651770055e-01    1,722198725e-01    1,352844108e-02    0,000000000e+00    0,000000000e+00    0,000000000e+00    0,000000000e+00
     1332000000   -1,509616375e-01   -3,979251087e-01    8,993104845e-02   -1,884189695e-01    0,000000000e+00    0,000000000e+00    0,000000000e+00    0,000000000e+00
     1346000000   -3,641237020e-01   -3,865683377e-01   -6,670325249e-02   -2,125670202e-02    0,000000000e+00    0,000000000e+00    0,000000000e+00    0,000000000e+00
     1360000000   -5,812938809e-01   -2,066659331e-01    4,352470487e-02    8,952978253e-02    0,000000000e+00    0,000000000e+00    0,000000000e+00    0,000000000e+00
     1374000000   -6,150573492e-01    1,070592478e-01    1,626967788e-01    5,240539834e-02    0,000000000e+00    0,000000000e+00    0,000000000e+00    0,000000000e+00
     1388000000   -4,615397453e-01    3,508573472e-01    2,057604790e-01   -2,058183961e-02    0,000000000e+00    0,000000000e+00    0,000000000e+00    0,000000000e+00
     1402000000   -2,408268601e-01    4,398883879e-01    1,987407058e-01   -8,205959201e-02    0,000000000e+00    0,000000000e+00    0,000000000e+00    0,000000000e+00
     1416000000   -2,804540098e-02    4,132801592e-01    1,787932366e-01   -1,023956314e-01    0,000000000e+00    0,000000000e+00    0,000000000e+00    0,000000000e+00
     1430000000    1,091546565e-01    3,018351495e-01    1,426139921e-01   -1,166801751e-01    0,000000000e+00    0,000000000e+00    0,000000000e+00    0,000000000e+00
     1444000000    2,016080916e-01    1,491296291e-01    1,399979442e-01   -1,146641746e-01    0,000000000e+00    0,000000000e+00    0,000000000e+00    0,000000000e+00
     1458000000    2,297136933e-01   -1,931310259e-02    1,286343634e-01   -9,476618469e-02    0,000000000e+00    0,000000000e+00    0,000000000e+00    0,000000000e+00
     1472000000    1,918531656e-01   -1,950992048e-01    1,280782670e-01   -4,185961932e-02    0,000000000e+00    0,000000000e+00    0,000000000e+00    0,000000000e+00
     1486000000    6,023578346e-02   -3,630153239e-01    1,412866116e-01    1,162005961e-02    0,000000000e+00    0,000000000e+00    0,000000000e+00    0,000000000e+00
     1500000000   -1,697150618e-01   -4,733352959e-01    2,137975097e-01    8,502594382e-02    0,000000000e+00    0,000000000e+00    0,000000000e+00    0,000000000e+00
