! NanoVNA-App
! Date: 2025-09-26 09:40:45
! Start: 100MHz Stop: 1,5GHz Points: 101
! S-Parameter data: F S11 S21 S12 S22
# Hz S RI R 50
!     Frequency           S11_Real           S11_Imag           S21_Real           S21_Imag           S12_Real           S12_Imag           S22_Real           S22_Imag
      100000000   -2,908157557e-02   -4,554536194e-03    3,740098178e-01   -7,230828404e-01    0,000000000e+00    0,000000000e+00    0,000000000e+00    0,000000000e+00
      114000000   -1,703718677e-02    1,123554353e-02   -8,984525502e-02   -8,065428138e-01    0,000000000e+00    0,000000000e+00    0,000000000e+00    0,000000000e+00
      128000000    2,798182191e-03    1,053908002e-02   -5,158944726e-01   -6,209555864e-01    0,000000000e+00    0,000000000e+00    0,000000000e+00    0,000000000e+00
      142000000    1,400276367e-02   -2,505769720e-03   -7,687011957e-01   -2,363414615e-01    0,000000000e+00    0,000000000e+00    0,000000000e+00    0,000000000e+00
      156000000    1,426913589e-02   -1,420798898e-02   -7,654564381e-01    2,213656306e-01    0,000000000e+00    0,000000000e+00    0,000000000e+00    0,000000000e+00
      170000000    1,692076772e-02   -2,211135626e-02   -5,181968808e-01    6,060900092e-01    0,000000000e+00    0,000000000e+00    0,000000000e+00    0,000000000e+00
      184000000    2,129651420e-02   -3,703114763e-02   -1,006204188e-01    7,873548865e-01    0,000000000e+00    0,000000000e+00    0,000000000e+00    0,000000000e+00
      198000000    1,305353269e-02   -6,252928823e-02    3,448692262e-01    7,133046985e-01    0,000000000e+00    0,000000000e+00    0,000000000e+00    0,000000000e+00
      212000000   -1,872089505e-02   -8,118037134e-02    6,798915267e-01    4,100784957e-01    0,000000000e+00    0,000000000e+00    0,000000000e+00    0,000000000e+00
      226000000   -6,149853021e-02   -6,885162741e-02    7,975296378e-01   -3,100281209e-02    0,000000000e+00    0,000000000e+00    0,000000000e+00    0,000000000e+00
      240000000   -8,202286810e-02   -2,574372292e-02    6,478469372e-01   -4,682792127e-01    0,000000000e+00    0,000000000e+00    0,000000000e+00    0,000000000e+00
      254000000   -6,328714639e-02    1,674536616e-02    2,773516476e-01   -7,449641824e-01    0,000000000e+00    0,000000000e+00    0,000000000e+00    0,000000000e+00
      268000000   -2,386357822e-02    2,841694839e-02   -1,770708114e-01   -7,661827803e-01    0,000000000e+00    0,000000000e+00    0,000000000e+00    0,000000000e+00
      282000000    3,665495198e-03    1,153102890e-02   -5,626320839e-01   -5,380174518e-01    0,000000000e+00    0,000000000e+00    0,000000000e+00    0,000000000e+00
      296000000    9,318844415e-03   -7,747747470e-03   -7,617310286e-01   -1,416507810e-01    0,000000000e+00    0,000000000e+00    0,000000000e+00    0,000000000e+00
      310000000    1,111217961e-02   -1,567188278e-02   -7,138046622e-01    2,999034524e-01    0,000000000e+00    0,000000000e+00    0,000000000e+00    0,000000000e+00
      324000000    1,993412897e-02   -2,668543160e-02   -4,292764068e-01    6,395718455e-01    0,000000000e+00    0,000000000e+00    0,000000000e+00    0,000000000e+00
      338000000    2,555542998e-02   -5,255796760e-02   -1,158828475e-02    7,616079450e-01    0,000000000e+00    0,000000000e+00    0,000000000e+00    0,000000000e+00
      352000000    6,894093473e-03   -8,506344259e-02    4,067859650e-01    6,426616907e-01    0,000000000e+00    0,000000000e+00    0,000000000e+00    0,000000000e+00
      366000000   -3,536506742e-02   -9,514566511e-02    6,925878525e-01    3,126481473e-01    0,000000000e+00    0,000000000e+00    0,000000000e+00    0,000000000e+00
      380000000   -7,095839828e-02   -7,033110410e-02    7,496266365e-01   -1,255641431e-01    0,000000000e+00    0,000000000e+00    0,000000000e+00    0,000000000e+00
      394000000   -7,222969085e-02   -3,180690482e-02    5,493211746e-01   -5,217483640e-01    0,000000000e+00    0,000000000e+00    0,000000000e+00    0,000000000e+00
      408000000   -4,574883357e-02   -1,616235636e-02    1,616018564e-01   -7,334642410e-01    0,000000000e+00    0,000000000e+00    0,000000000e+00    0,000000000e+00
      422000000   -2,809374593e-02   -3,233198449e-02   -2,673644125e-01   -6,976241469e-01    0,000000000e+00    0,000000000e+00    0,000000000e+00    0,000000000e+00
      436000000   -4,072448611e-02   -5,190159008e-02   -6,047244668e-01   -4,345520735e-01    0,000000000e+00    0,000000000e+00    0,000000000e+00    0,000000000e+00
      450000000   -6,716085970e-02   -4,354672879e-02   -7,423844934e-01   -2,356276661e-02    0,000000000e+00    0,000000000e+00    0,000000000e+00    0,000000000e+00
      464000000   -7,304009050e-02   -1,205388457e-02   -6,212717891e-01    3,966761529e-01    0,000000000e+00    0,000000000e+00    0,000000000e+00    0,000000000e+00
      478000000   -4,735407233e-02    1,084647048e-02   -2,848413587e-01    6,683967113e-01    0,000000000e+00    0,000000000e+00    0,000000000e+00    0,000000000e+00
      492000000   -1,589655131e-02    4,794187844e-03    1,362714320e-01    7,037338614e-01    0,000000000e+00    0,000000000e+00    0,000000000e+00    0,000000000e+00
      506000000   -3,661823692e-03   -1,673743315e-02    4,985858500e-01    5,056164265e-01    0,000000000e+00    0,000000000e+00    0,000000000e+00    0,000000000e+00
      520000000   -6,062283181e-03   -3,143143281e-02    6,918168068e-01    1,438444406e-01    0,000000000e+00    0,000000000e+00    0,000000000e+00    0,000000000e+00
      534000000   -3,898392664e-03   -3,761078417e-02    6,453646421e-01   -2,619387805e-01    0,000000000e+00    0,000000000e+00    0,000000000e+00    0,000000000e+00
      548000000    6,849362515e-03   -5,372922868e-02    3,840509057e-01   -5,668562055e-01    0,000000000e+00    0,000000000e+00    0,000000000e+00    0,000000000e+00
      562000000    3,287713975e-03   -8,961995691e-02    4,286505748e-03   -6,741658449e-01    0,000000000e+00    0,000000000e+00    0,000000000e+00    0,000000000e+00
      576000000   -3,477409109e-02   -1,249383986e-01   -3,687746525e-01   -5,608795881e-01    0,000000000e+00    0,000000000e+00    0,000000000e+00    0,000000000e+00
      590000000   -9,661985189e-02   -1,228426099e-01   -6,227385402e-01   -2,673221231e-01    0,000000000e+00    0,000000000e+00    0,000000000e+00    0,000000000e+00
      604000000   -1,389533877e-01   -7,171129435e-02   -6,666201353e-01    1,356159002e-01    0,000000000e+00    0,000000000e+00    0,000000000e+00    0,000000000e+00
      618000000   -1,288222075e-01   -9,387461469e-03   -4,682282507e-01    4,939381778e-01    0,000000000e+00    0,000000000e+00    0,000000000e+00    0,000000000e+00
      632000000   -8,455557376e-02    1,575415395e-02   -1,024901494e-01    6,645981669e-01    0,000000000e+00    0,000000000e+00    0,000000000e+00    0,000000000e+00
      646000000   -5,161890015e-02   -3,226621775e-04    2,846609652e-01    5,964425802e-01    0,000000000e+00    0,000000000e+00    0,000000000e+00    0,000000000e+00
      660000000   -5,421815440e-02   -2,111835033e-02    5,658721328e-01    3,252543509e-01    0,000000000e+00    0,000000000e+00    0,000000000e+00    0,000000000e+00
      674000000   -6,963636726e-02   -1,555796526e-02    6,427346468e-01   -6,241920218e-02    0,000000000e+00    0,000000000e+00    0,000000000e+00    0,000000000e+00
      688000000   -6,697157025e-02    9,629709646e-03    4,718949795e-01   -4,239079654e-01    0,000000000e+00    0,000000000e+00    0,000000000e+00    0,000000000e+00
      702000000   -3,449935466e-02    2,661187202e-02    1,196417809e-01   -6,119392514e-01    0,000000000e+00    0,000000000e+00    0,000000000e+00    0,000000000e+00
      716000000    4,093599971e-03    1,441322640e-02   -2,583324611e-01   -5,481793284e-01    0,000000000e+00    0,000000000e+00    0,000000000e+00    0,000000000e+00
      730000000    3,553579003e-02   -1,404178329e-02   -5,231193304e-01   -2,746136785e-01    0,000000000e+00    0,000000000e+00    0,000000000e+00    0,000000000e+00
      744000000    6,209794432e-02   -6,521236897e-02   -5,634370446e-01    9,747719020e-02    0,000000000e+00    0,000000000e+00    0,000000000e+00    0,000000000e+00
      758000000    6,165772676e-02   -1,519268155e-01   -3,687021732e-01    4,007921219e-01    0,000000000e+00    0,000000000e+00    0,000000000e+00    0,000000000e+00
      772000000   -1,656256244e-02   -2,560829222e-01   -4,727013409e-02    5,113254786e-01    0,000000000e+00    0,000000000e+00    0,000000000e+00    0,000000000e+00
      786000000   -2,020050436e-01   -2,922535539e-01    2,603148222e-01    4,011330903e-01    0,000000000e+00    0,000000000e+00    0,000000000e+00    0,000000000e+00
      800000000   -4,090295136e-01   -1,298432648e-01    4,101770222e-01    1,195785552e-01    0,000000000e+00    0,000000000e+00    0,000000000e+00    0,000000000e+00
      814000000   -3,811583519e-01    2,025650293e-01    2,992016673e-01   -1,549060941e-01    0,000000000e+00    0,000000000e+00    0,000000000e+00    0,000000000e+00
      828000000   -6,505682319e-02    3,513657749e-01    8,086556941e-02   -1,961797625e-01    0,000000000e+00    0,000000000e+00    0,000000000e+00    0,000000000e+00
      842000000    2,133501470e-01    1,896960139e-01   -9,891198017e-03   -9,662939608e-02    0,000000000e+00    0,000000000e+00    0,000000000e+00    0,000000000e+00
      856000000    2,704963982e-01   -1,046809927e-01    2,858958766e-02   -3,530055657e-02    0,000000000e+00    0,000000000e+00    0,000000000e+00    0,000000000e+00
      870000000    8,693435043e-02   -3,541924357e-01    8,416897058e-02   -9,140252322e-02    0,000000000e+00    0,000000000e+00    0,000000000e+00    0,000000000e+00
      884000000   -2,677758336e-01   -3,626503646e-01    1,341778133e-02   -2,212599963e-01    0,000000000e+00    0,000000000e+00    0,000000000e+00    0,000000000e+00
      898000000   -4,643726349e-01   -1,617166586e-02   -2,101643384e-01   -2,073127031e-01    0,000000000e+00    0,000000000e+00    0,000000000e+00    0,000000000e+00
      912000000   -2,404326051e-01    2,840407491e-01   -3,373350799e-01    7,156558335e-02    0,000000000e+00    0,000000000e+00    0,000000000e+00    0,000000000e+00
      926000000    5,766245723e-02    2,660871446e-01   -2,088742554e-01    2,541093528e-01    0,000000000e+00    0,000000000e+00    0,000000000e+00    0,000000000e+00
      940000000    2,112597227e-01    8,623320609e-02   -3,521961346e-02    3,203618824e-01    0,000000000e+00    0,000000000e+00    0,000000000e+00    0,000000000e+00
      954000000    2,222804129e-01   -1,233445257e-01    1,232028604e-01    2,996886671e-01    0,000000000e+00    0,000000000e+00    0,000000000e+00    0,000000000e+00
      968000000    1,179876104e-01   -2,998208404e-01    2,595397234e-01    2,154604793e-01    0,000000000e+00    0,000000000e+00    0,000000000e+00    0,000000000e+00
      982000000   -8,000118285e-02   -3,919244111e-01    3,558053374e-01    6,838838011e-02    0,000000000e+00    0,000000000e+00    0,000000000e+00    0,000000000e+00
      996000000   -3,155256212e-01   -3,322148621e-01    3,589071631e-01   -1,363323927e-01    0,000000000e+00    0,000000000e+00    0,000000000e+00    0,000000000e+00
     1010000000   -4,668144584e-01   -1,200945601e-01    2,200594693e-01   -3,290320337e-01    0,000000000e+00    0,000000000e+00    0,000000000e+00    0,000000000e+00
     1024000000   -4,227166176e-01    1,504620612e-01   -2,777805179e-02   -3,816292584e-01    0,000000000e+00    0,000000000e+00    0,000000000e+00    0,000000000e+00
     1038000000   -2,205740362e-01    2,937103808e-01   -2,401947677e-01   -2,549408674e-01    0,000000000e+00    0,000000000e+00    0,000000000e+00    0,000000000e+00
     1052000000   -1,011744142e-02    2,858452797e-01   -3,103011250e-01   -4,609381035e-02    0,000000000e+00    0,000000000e+00    0,000000000e+00    0,000000000e+00
     1066000000    1,339991242e-01    1,691673398e-01   -2,537595630e-01    1,373272389e-01    0,000000000e+00    0,000000000e+00    0,000000000e+00    0,000000000e+00
     1080000000    1,989053637e-01    9,183943272e-03   -1,206981540e-01    2,497497201e-01    0,000000000e+00    0,000000000e+00    0,000000000e+00    0,000000000e+00
     1094000000    1,631399542e-01   -1,693668962e-01    5,266990513e-02    2,941590548e-01    0,000000000e+00    0,000000000e+00    0,000000000e+00    0,000000000e+00
     1108000000    1,880458556e-02   -2,978955209e-01    2,522567809e-01    2,399790734e-01    0,000000000e+00    0,000000000e+00    0,000000000e+00    0,000000000e+00
     1122000000   -2,140006870e-01   -2,879942954e-01    4,319800436e-01    3,621743619e-02    0,000000000e+00    0,000000000e+00    0,000000000e+00    0,000000000e+00
     1136000000   -3,242188990e-01   -2,953561023e-02    3,973405063e-01   -3,261696696e-01    0,000000000e+00    0,000000000e+00    0,000000000e+00    0,000000000e+00
     1150000000   -9,879310429e-02    1,371559352e-01    5,433373526e-02   -5,148814321e-01    0,000000000e+00    0,000000000e+00    0,000000000e+00    0,000000000e+00
     1164000000    8,480274677e-02   -2,249710821e-02   -2,383223921e-01   -3,885228634e-01    0,000000000e+00    0,000000000e+00    0,000000000e+00    0,000000000e+00
     1178000000    2,572752908e-02   -2,594736814e-01   -3,492069840e-01   -1,709330082e-01    0,000000000e+00    0,000000000e+00    0,000000000e+00    0,000000000e+00
     1192000000   -2,305127233e-01   -3,519428968e-01   -3,167176843e-01    3,770408034e-02    0,000000000e+00    0,000000000e+00    0,000000000e+00    0,000000000e+00
     1206000000   -4,834738970e-01   -1,756628752e-01   -1,728430241e-01    1,727655083e-01    0,000000000e+00    0,000000000e+00    0,000000000e+00    0,000000000e+00
     1220000000   -5,056899190e-01    1,390727609e-01   -1,131760143e-02    1,580888033e-01    0,000000000e+00    0,000000000e+00    0,000000000e+00    0,000000000e+00
     1234000000   -2,991275489e-01    3,479477167e-01    6,941375881e-02    7,469103485e-02    0,000000000e+00    0,000000000e+00    0,000000000e+00    0,000000000e+00
     1248000000   -5,679862946e-02    3,553038538e-01    5,636931211e-02   -3,398206318e-03    0,000000000e+00    0,000000000e+00    0,000000000e+00    0,000000000e+00
     1262000000    1,117334664e-01    2,614309490e-01    2,649148740e-02   -1,775163785e-02    0,000000000e+00    0,000000000e+00    0,000000000e+00    0,000000000e+00
     1276000000    2,075269222e-01    1,048381850e-01    1,133530587e-02   -2,887912327e-03    0,000000000e+00    0,000000000e+00    0,000000000e+00    0,000000000e+00
     1290000000    2,249297500e-01   -6,459339708e-02    1,871695742e-02    3,314308077e-02    0,000000000e+00    0,000000000e+00    0,000000000e+00    0,000000000e+00
     1304000000    1,649759710e-01   -2,354516238e-01    6,587253511e-02    6,095714495e-02    0,000000000e+00    0,000000000e+00    0,000000000e+00    0,000000000e+00
     1318000000    2,039480209e-02   -3,672026694e-01    1,754778326e-01    6,009326316e-03    0,000000000e+00    0,000000000e+00    0,000000000e+00    0,000000000e+00
     1332000000   -1,500429213e-01   -3,966684639e-01    8,884237707e-02   -1,936832219e-01    0,000000000e+00    0,000000000e+00    0,000000000e+00    0,000000000e+00
     1346000000   -3,588904142e-01   -3,947288990e-01   -6,943440437e-02   -3,408405930e-02    0,000000000e+00    0,000000000e+00    0,000000000e+00    0,000000000e+00
     1360000000   -5,852353573e-01   -2,106995583e-01    4,944135249e-02    8,430534601e-02    0,000000000e+00    0,000000000e+00    0,000000000e+00    0,000000000e+00
     1374000000   -6,206924915e-01    9,864197671e-02    1,684560478e-01    4,425268620e-02    0,000000000e+00    0,000000000e+00    0,000000000e+00    0,000000000e+00
     1388000000   -4,689394534e-01    3,419069052e-01    2,095188200e-01   -2,901793085e-02    0,000000000e+00    0,000000000e+00    0,000000000e+00    0,000000000e+00
     1402000000   -2,393963188e-01    4,399721324e-01    1,928377002e-01   -7,430668175e-02    0,000000000e+00    0,000000000e+00    0,000000000e+00    0,000000000e+00
     1416000000   -3,176991642e-02    4,080605209e-01    1,892625093e-01   -9,754151851e-02    0,000000000e+00    0,000000000e+00    0,000000000e+00    0,000000000e+00
     1430000000    1,088223830e-01    2,998155057e-01    1,568139493e-01   -9,894365817e-02    0,000000000e+00    0,000000000e+00    0,000000000e+00    0,000000000e+00
     1444000000    1,984108388e-01    1,536801606e-01    1,391262412e-01   -1,107309684e-01    0,000000000e+00    0,000000000e+00    0,000000000e+00    0,000000000e+00
     1458000000    2,339652330e-01   -1,371112186e-02    1,330560148e-01   -9,406956285e-02    0,000000000e+00    0,000000000e+00    0,000000000e+00    0,000000000e+00
     1472000000    1,888015419e-01   -2,015802711e-01    1,180250794e-01   -5,566103756e-02    0,000000000e+00    0,000000000e+00    0,000000000e+00    0,000000000e+00
     1486000000    6,236645579e-02   -3,605764210e-01    1,555181742e-01    2,093278617e-02    0,000000000e+00    0,000000000e+00    0,000000000e+00    0,000000000e+00
     1500000000   -1,703401208e-01   -4,750100672e-01    2,134495676e-01    8,007238805e-02    0,000000000e+00    0,000000000e+00    0,000000000e+00    0,000000000e+00
