! NanoVNA-App
! Date: 2025-09-25 17:41:45
! Start: 100MHz Stop: 1,5GHz Points: 101
! S-Parameter data: F S11 S21 S12 S22
# Hz S RI R 50
!     Frequency           S11_Real           S11_Imag           S21_Real           S21_Imag           S12_Real           S12_Imag           S22_Real           S22_Imag
      100000000   -2,885761112e-02   -4,264558665e-03    3,741954565e-01   -7,217125893e-01    0,000000000e+00    0,000000000e+00    0,000000000e+00    0,000000000e+00
      114000000   -1,652053557e-02    1,141072903e-02   -8,904831111e-02   -8,055360317e-01    0,000000000e+00    0,000000000e+00    0,000000000e+00    0,000000000e+00
      128000000    3,402598202e-03    1,042176224e-02   -5,146756768e-01   -6,206281781e-01    0,000000000e+00    0,000000000e+00    0,000000000e+00    0,000000000e+00
      142000000    1,442932431e-02   -2,934214193e-03   -7,671851516e-01   -2,367319018e-01    0,000000000e+00    0,000000000e+00    0,000000000e+00    0,000000000e+00
      156000000    1,506447978e-02   -1,455458347e-02   -7,677155137e-01    2,226609886e-01    0,000000000e+00    0,000000000e+00    0,000000000e+00    0,000000000e+00
      170000000    1,676558331e-02   -2,221246809e-02   -5,182800889e-01    6,046077609e-01    0,000000000e+00    0,000000000e+00    0,000000000e+00    0,000000000e+00
      184000000    2,131705731e-02   -3,677053377e-02   -1,014139056e-01    7,861136794e-01    0,000000000e+00    0,000000000e+00    0,000000000e+00    0,000000000e+00
      198000000    1,341807190e-02   -6,240862608e-02    3,432239592e-01    7,127074599e-01    0,000000000e+00    0,000000000e+00    0,000000000e+00    0,000000000e+00
      212000000   -1,826054975e-02   -8,145222068e-02    6,780800223e-01    4,099936485e-01    0,000000000e+00    0,000000000e+00    0,000000000e+00    0,000000000e+00
      226000000   -6,147873402e-02   -6,950763613e-02    7,958356738e-01   -3,026721813e-02    0,000000000e+00    0,000000000e+00    0,000000000e+00    0,000000000e+00
      240000000   -8,244022727e-02   -2,602890134e-02    6,465577483e-01   -4,668212831e-01    0,000000000e+00    0,000000000e+00    0,000000000e+00    0,000000000e+00
      254000000   -6,361314654e-02    1,698307693e-02    2,766356468e-01   -7,434806228e-01    0,000000000e+00    0,000000000e+00    0,000000000e+00    0,000000000e+00
      268000000   -2,378751338e-02    2,882104926e-02   -1,772492826e-01   -7,644191384e-01    0,000000000e+00    0,000000000e+00    0,000000000e+00    0,000000000e+00
      282000000    3,978998400e-03    1,168617420e-02   -5,618373156e-01   -5,363470316e-01    0,000000000e+00    0,000000000e+00    0,000000000e+00    0,000000000e+00
      296000000    9,540962055e-03   -7,789579686e-03   -7,598645687e-01   -1,402403414e-01    0,000000000e+00    0,000000000e+00    0,000000000e+00    0,000000000e+00
      310000000    1,100290567e-02   -1,618192717e-02   -7,120603919e-01    2,974068522e-01    0,000000000e+00    0,000000000e+00    0,000000000e+00    0,000000000e+00
      324000000    1,957844570e-02   -2,638379671e-02   -4,282251894e-01    6,380733252e-01    0,000000000e+00    0,000000000e+00    0,000000000e+00    0,000000000e+00
      338000000    2,537293173e-02   -5,199011415e-02   -8,124769665e-03    7,606008649e-01    0,000000000e+00    0,000000000e+00    0,000000000e+00    0,000000000e+00
      352000000    7,696335670e-03   -8,475881815e-02    4,059866667e-01    6,389786005e-01    0,000000000e+00    0,000000000e+00    0,000000000e+00    0,000000000e+00
      366000000   -3,445249051e-02   -9,562320262e-02    6,905542016e-01    3,112528026e-01    0,000000000e+00    0,000000000e+00    0,000000000e+00    0,000000000e+00
      380000000   -7,050453126e-02   -7,139138132e-02    7,480644584e-01   -1,256426126e-01    0,000000000e+00    0,000000000e+00    0,000000000e+00    0,000000000e+00
      394000000   -7,254327089e-02   -3,237633780e-02    5,470905900e-01   -5,225359797e-01    0,000000000e+00    0,000000000e+00    0,000000000e+00    0,000000000e+00
      408000000   -4,639785737e-02   -1,607952639e-02    1,621649861e-01   -7,331537604e-01    0,000000000e+00    0,000000000e+00    0,000000000e+00    0,000000000e+00
      422000000   -2,825622633e-02   -3,199959174e-02   -2,666246891e-01   -6,953399777e-01    0,000000000e+00    0,000000000e+00    0,000000000e+00    0,000000000e+00
      436000000   -4,053585604e-02   -5,185920373e-02   -6,035999060e-01   -4,330706000e-01    0,000000000e+00    0,000000000e+00    0,000000000e+00    0,000000000e+00
      450000000   -6,682408601e-02   -4,390159622e-02   -7,407471538e-01   -2,239661105e-02    0,000000000e+00    0,000000000e+00    0,000000000e+00    0,000000000e+00
      464000000   -7,323781401e-02   -1,195628475e-02   -6,195822358e-01    3,968974948e-01    0,000000000e+00    0,000000000e+00    0,000000000e+00    0,000000000e+00
      478000000   -4,776849970e-02    1,104635466e-02   -2,835764587e-01    6,675035954e-01    0,000000000e+00    0,000000000e+00    0,000000000e+00    0,000000000e+00
      492000000   -1,579816639e-02    5,391404033e-03    1,369973719e-01    7,007926702e-01    0,000000000e+00    0,000000000e+00    0,000000000e+00    0,000000000e+00
      506000000   -3,164269961e-03   -1,607983559e-02    4,973074198e-01    5,035386086e-01    0,000000000e+00    0,000000000e+00    0,000000000e+00    0,000000000e+00
      520000000   -5,679294001e-03   -3,119477630e-02    6,876894236e-01    1,425801069e-01    0,000000000e+00    0,000000000e+00    0,000000000e+00    0,000000000e+00
      534000000   -4,547569435e-03   -3,762429953e-02    6,438965201e-01   -2,614948153e-01    0,000000000e+00    0,000000000e+00    0,000000000e+00    0,000000000e+00
      548000000    5,962891039e-03   -5,311225355e-02    3,830625117e-01   -5,662320256e-01    0,000000000e+00    0,000000000e+00    0,000000000e+00    0,000000000e+00
      562000000    3,586650128e-03   -8,852374554e-02    4,175615497e-03   -6,721995473e-01    0,000000000e+00    0,000000000e+00    0,000000000e+00    0,000000000e+00
      576000000   -3,358562291e-02   -1,240219995e-01   -3,674809337e-01   -5,581557155e-01    0,000000000e+00    0,000000000e+00    0,000000000e+00    0,000000000e+00
      590000000   -9,551195800e-02   -1,229680553e-01   -6,183668375e-01   -2,664869428e-01    0,000000000e+00    0,000000000e+00    0,000000000e+00    0,000000000e+00
      604000000   -1,394023597e-01   -7,289730012e-02   -6,657333970e-01    1,345552504e-01    0,000000000e+00    0,000000000e+00    0,000000000e+00    0,000000000e+00
      618000000   -1,300427467e-01   -9,675671346e-03   -4,671568274e-01    4,919883609e-01    0,000000000e+00    0,000000000e+00    0,000000000e+00    0,000000000e+00
      632000000   -8,517389745e-02    1,611672528e-02   -1,015973836e-01    6,637973785e-01    0,000000000e+00    0,000000000e+00    0,000000000e+00    0,000000000e+00
      646000000   -5,260256678e-02    2,302126493e-03    2,846781611e-01    5,961287618e-01    0,000000000e+00    0,000000000e+00    0,000000000e+00    0,000000000e+00
      660000000   -5,326308683e-02   -1,919293962e-02    5,643749833e-01    3,265164793e-01    0,000000000e+00    0,000000000e+00    0,000000000e+00    0,000000000e+00
      674000000   -6,873932481e-02   -1,667623781e-02    6,423267126e-01   -5,991762131e-02    0,000000000e+00    0,000000000e+00    0,000000000e+00    0,000000000e+00
      688000000   -6,512555480e-02    9,100396186e-03    4,745995402e-01   -4,219431281e-01    0,000000000e+00    0,000000000e+00    0,000000000e+00    0,000000000e+00
      702000000   -3,501677141e-02    2,417483553e-02    1,224333718e-01   -6,037231684e-01    0,000000000e+00    0,000000000e+00    0,000000000e+00    0,000000000e+00
      716000000    2,066363813e-03    1,222989336e-02   -2,539033890e-01   -5,498262644e-01    0,000000000e+00    0,000000000e+00    0,000000000e+00    0,000000000e+00
      730000000    3,226216510e-02   -1,581067033e-02   -5,217128396e-01   -2,809022963e-01    0,000000000e+00    0,000000000e+00    0,000000000e+00    0,000000000e+00
      744000000    5,604611710e-02   -6,352341175e-02   -5,682438612e-01    9,051045775e-02    0,000000000e+00    0,000000000e+00    0,000000000e+00    0,000000000e+00
      758000000    5,703179538e-02   -1,433625817e-01   -3,798997700e-01    3,989903331e-01    0,000000000e+00    0,000000000e+00    0,000000000e+00    0,000000000e+00
      772000000   -1,311142929e-02   -2,434780598e-01   -5,695260316e-02    5,188996792e-01    0,000000000e+00    0,000000000e+00    0,000000000e+00    0,000000000e+00
      786000000   -1,861523092e-01   -2,850717306e-01    2,577763796e-01    4,187105000e-01    0,000000000e+00    0,000000000e+00    0,000000000e+00    0,000000000e+00
      800000000   -3,902912140e-01   -1,425167024e-01    4,239721894e-01    1,381005645e-01    0,000000000e+00    0,000000000e+00    0,000000000e+00    0,000000000e+00
      814000000   -3,847262561e-01    1,739599854e-01    3,294607997e-01   -1,551840603e-01    0,000000000e+00    0,000000000e+00    0,000000000e+00    0,000000000e+00
      828000000   -9,227647632e-02    3,430163562e-01    9,750155360e-02   -2,232067287e-01    0,000000000e+00    0,000000000e+00    0,000000000e+00    0,000000000e+00
      842000000    1,940039992e-01    2,080990076e-01   -2,135717124e-02   -1,244068667e-01    0,000000000e+00    0,000000000e+00    0,000000000e+00    0,000000000e+00
      856000000    2,726676464e-01   -7,863403857e-02    4,274769162e-04   -4,213021696e-02    0,000000000e+00    0,000000000e+00    0,000000000e+00    0,000000000e+00
      870000000    1,102395356e-01   -3,394460976e-01    6,214530766e-02   -7,183603197e-02    0,000000000e+00    0,000000000e+00    0,000000000e+00    0,000000000e+00
      884000000   -2,405844182e-01   -3,777757585e-01    1,928816736e-02   -1,921188980e-01    0,000000000e+00    0,000000000e+00    0,000000000e+00    0,000000000e+00
      898000000   -4,677255452e-01   -4,367122799e-02   -1,862925887e-01   -2,008673400e-01    0,000000000e+00    0,000000000e+00    0,000000000e+00    0,000000000e+00
      912000000   -2,573367953e-01    2,772248387e-01   -3,197212815e-01    5,241237208e-02    0,000000000e+00    0,000000000e+00    0,000000000e+00    0,000000000e+00
      926000000    4,511536285e-02    2,737382054e-01   -2,072421908e-01    2,507838011e-01    0,000000000e+00    0,000000000e+00    0,000000000e+00    0,000000000e+00
      940000000    2,071581632e-01    9,552266449e-02   -3,393867239e-02    3,156133294e-01    0,000000000e+00    0,000000000e+00    0,000000000e+00    0,000000000e+00
      954000000    2,235821486e-01   -1,163351536e-01    1,262906194e-01    2,950409353e-01    0,000000000e+00    0,000000000e+00    0,000000000e+00    0,000000000e+00
      968000000    1,227828339e-01   -2,942490876e-01    2,612799704e-01    2,112133801e-01    0,000000000e+00    0,000000000e+00    0,000000000e+00    0,000000000e+00
      982000000   -7,247494161e-02   -3,842437267e-01    3,519608378e-01    6,535127014e-02    0,000000000e+00    0,000000000e+00    0,000000000e+00    0,000000000e+00
      996000000   -3,053108752e-01   -3,352247477e-01    3,595581651e-01   -1,366951615e-01    0,000000000e+00    0,000000000e+00    0,000000000e+00    0,000000000e+00
     1010000000   -4,645344913e-01   -1,217320263e-01    2,217733860e-01   -3,295052052e-01    0,000000000e+00    0,000000000e+00    0,000000000e+00    0,000000000e+00
     1024000000   -4,229692221e-01    1,425201744e-01   -2,735463530e-02   -3,824496567e-01    0,000000000e+00    0,000000000e+00    0,000000000e+00    0,000000000e+00
     1038000000   -2,273348123e-01    2,870122194e-01   -2,368840724e-01   -2,563474476e-01    0,000000000e+00    0,000000000e+00    0,000000000e+00    0,000000000e+00
     1052000000   -1,452893857e-02    2,784410119e-01   -3,069141209e-01   -4,951917008e-02    0,000000000e+00    0,000000000e+00    0,000000000e+00    0,000000000e+00
     1066000000    1,350904703e-01    1,698137373e-01   -2,513689101e-01    1,371600330e-01    0,000000000e+00    0,000000000e+00    0,000000000e+00    0,000000000e+00
     1080000000    1,973321438e-01    9,059615433e-03   -1,188669130e-01    2,503783703e-01    0,000000000e+00    0,000000000e+00    0,000000000e+00    0,000000000e+00
     1094000000    1,598085612e-01   -1,653813720e-01    5,840566754e-02    2,904939950e-01    0,000000000e+00    0,000000000e+00    0,000000000e+00    0,000000000e+00
     1108000000    2,081356011e-02   -3,004880250e-01    2,568600476e-01    2,354824245e-01    0,000000000e+00    0,000000000e+00    0,000000000e+00    0,000000000e+00
     1122000000   -2,178681791e-01   -2,807327509e-01    4,378316402e-01    2,328232490e-02    0,000000000e+00    0,000000000e+00    0,000000000e+00    0,000000000e+00
     1136000000   -3,192780614e-01   -2,341996506e-02    3,956059515e-01   -3,455075026e-01    0,000000000e+00    0,000000000e+00    0,000000000e+00    0,000000000e+00
     1150000000   -9,593416005e-02    1,402057707e-01    4,477530718e-02   -5,237311125e-01    0,000000000e+00    0,000000000e+00    0,000000000e+00    0,000000000e+00
     1164000000    8,880678564e-02   -2,886645496e-02   -2,493395656e-01   -3,989252746e-01    0,000000000e+00    0,000000000e+00    0,000000000e+00    0,000000000e+00
     1178000000    1,948769391e-02   -2,603008747e-01   -3,648039401e-01   -1,732865274e-01    0,000000000e+00    0,000000000e+00    0,000000000e+00    0,000000000e+00
     1192000000   -2,303606868e-01   -3,461607993e-01   -3,335967362e-01    4,161265120e-02    0,000000000e+00    0,000000000e+00    0,000000000e+00    0,000000000e+00
     1206000000   -4,850849807e-01   -1,767645329e-01   -1,826208532e-01    1,722829491e-01    0,000000000e+00    0,000000000e+00    0,000000000e+00    0,000000000e+00
     1220000000   -5,040982366e-01    1,471867114e-01   -1,989344694e-02    1,694585681e-01    0,000000000e+00    0,000000000e+00    0,000000000e+00    0,000000000e+00
     1234000000   -2,885259688e-01    3,478423655e-01    6,880659610e-02    7,581248134e-02    0,000000000e+00    0,000000000e+00    0,000000000e+00    0,000000000e+00
     1248000000   -6,001807749e-02    3,554203808e-01    6,477931887e-02   -5,369365681e-04    0,000000000e+00    0,000000000e+00    0,000000000e+00    0,000000000e+00
     1262000000    1,097590104e-01    2,514483035e-01    2,939324826e-02   -2,260913886e-02    0,000000000e+00    0,000000000e+00    0,000000000e+00    0,000000000e+00
     1276000000    2,024074793e-01    1,064263582e-01    1,081623137e-03   -6,637551822e-03    0,000000000e+00    0,000000000e+00    0,000000000e+00    0,000000000e+00
     1290000000    2,180181891e-01   -6,872278452e-02    8,606455289e-03    2,550638095e-02    0,000000000e+00    0,000000000e+00    0,000000000e+00    0,000000000e+00
     1304000000    1,637256444e-01   -2,371716499e-01    6,543611735e-02    5,313652381e-02    0,000000000e+00    0,000000000e+00    0,000000000e+00    0,000000000e+00
     1318000000    2,183138765e-02   -3,667042553e-01    1,767147630e-01    2,335031331e-02    0,000000000e+00    0,000000000e+00    0,000000000e+00    0,000000000e+00
     1332000000   -1,572145224e-01   -3,954857588e-01    1,098206118e-01   -1,917338073e-01    0,000000000e+00    0,000000000e+00    0,000000000e+00    0,000000000e+00
     1346000000   -3,593415618e-01   -3,922654390e-01   -6,679982692e-02   -4,120369256e-02    0,000000000e+00    0,000000000e+00    0,000000000e+00    0,000000000e+00
     1360000000   -5,779805779e-01   -2,053706944e-01    6,020100787e-02    9,649049491e-02    0,000000000e+00    0,000000000e+00    0,000000000e+00    0,000000000e+00
     1374000000   -6,268033385e-01    9,784431756e-02    1,741356254e-01    5,498892814e-02    0,000000000e+00    0,000000000e+00    0,000000000e+00    0,000000000e+00
     1388000000   -4,691556692e-01    3,520923853e-01    2,214569896e-01   -2,280393615e-02    0,000000000e+00    0,000000000e+00    0,000000000e+00    0,000000000e+00
     1402000000   -2,554010153e-01    4,445346892e-01    2,013927698e-01   -8,106599748e-02    0,000000000e+00    0,000000000e+00    0,000000000e+00    0,000000000e+00
     1416000000   -3,973056749e-02    4,066739976e-01    1,822927147e-01   -1,047038659e-01    0,000000000e+00    0,000000000e+00    0,000000000e+00    0,000000000e+00
     1430000000    1,117095649e-01    2,992157340e-01    1,729935110e-01   -1,028610766e-01    0,000000000e+00    0,000000000e+00    0,000000000e+00    0,000000000e+00
     1444000000    1,960610449e-01    1,533003002e-01    1,648196876e-01   -1,150782555e-01    0,000000000e+00    0,000000000e+00    0,000000000e+00    0,000000000e+00
     1458000000    2,325787097e-01   -1,451299712e-02    1,501431465e-01   -8,529917896e-02    0,000000000e+00    0,000000000e+00    0,000000000e+00    0,000000000e+00
     1472000000    1,889980435e-01   -1,916960180e-01    1,355846375e-01   -4,525128007e-02    0,000000000e+00    0,000000000e+00    0,000000000e+00    0,000000000e+00
     1486000000    7,273926586e-02   -3,721031845e-01    1,687539667e-01    9,760441259e-03    0,000000000e+00    0,000000000e+00    0,000000000e+00    0,000000000e+00
     1500000000   -1,579457372e-01   -4,853269756e-01    2,297915965e-01    8,087380230e-02    0,000000000e+00    0,000000000e+00    0,000000000e+00    0,000000000e+00
