! NanoVNA-App
! Date: 2025-09-25 14:20:50
! Start: 100MHz Stop: 1,5GHz Points: 101
! S-Parameter data: F S11 S21 S12 S22
# Hz S RI R 50
!     Frequency           S11_Real           S11_Imag           S21_Real           S21_Imag           S12_Real           S12_Imag           S22_Real           S22_Imag
      100000000   -2,906745300e-02   -4,117507022e-03    3,744668663e-01   -7,220214009e-01    0,000000000e+00    0,000000000e+00    0,000000000e+00    0,000000000e+00
      114000000   -1,660519093e-02    1,159142517e-02   -8,886090666e-02   -8,057202101e-01    0,000000000e+00    0,000000000e+00    0,000000000e+00    0,000000000e+00
      128000000    3,433726262e-03    1,055690553e-02   -5,148194432e-01   -6,210319996e-01    0,000000000e+00    0,000000000e+00    0,000000000e+00    0,000000000e+00
      142000000    1,446886826e-02   -3,074545180e-03   -7,674981952e-01   -2,370053083e-01    0,000000000e+00    0,000000000e+00    0,000000000e+00    0,000000000e+00
      156000000    1,542149298e-02   -1,491883118e-02   -7,692993283e-01    2,232813537e-01    0,000000000e+00    0,000000000e+00    0,000000000e+00    0,000000000e+00
      170000000    1,654875092e-02   -2,250890620e-02   -5,187509656e-01    6,051080227e-01    0,000000000e+00    0,000000000e+00    0,000000000e+00    0,000000000e+00
      184000000    2,097978070e-02   -3,708668426e-02   -1,017552465e-01    7,868174314e-01    0,000000000e+00    0,000000000e+00    0,000000000e+00    0,000000000e+00
      198000000    1,303684432e-02   -6,263672560e-02    3,431474566e-01    7,131372690e-01    0,000000000e+00    0,000000000e+00    0,000000000e+00    0,000000000e+00
      212000000   -1,875852421e-02   -8,166853338e-02    6,784018874e-01    4,103915393e-01    0,000000000e+00    0,000000000e+00    0,000000000e+00    0,000000000e+00
      226000000   -6,214253604e-02   -6,958186626e-02    7,961065173e-01   -2,977922000e-02    0,000000000e+00    0,000000000e+00    0,000000000e+00    0,000000000e+00
      240000000   -8,315056562e-02   -2,598721907e-02    6,471908689e-01   -4,664584100e-01    0,000000000e+00    0,000000000e+00    0,000000000e+00    0,000000000e+00
      254000000   -6,428378075e-02    1,735447161e-02    2,773397267e-01   -7,431292534e-01    0,000000000e+00    0,000000000e+00    0,000000000e+00    0,000000000e+00
      268000000   -2,426704764e-02    2,943884395e-02   -1,773900539e-01   -7,654381990e-01    0,000000000e+00    0,000000000e+00    0,000000000e+00    0,000000000e+00
      282000000    4,085444845e-03    1,214990299e-02   -5,624528527e-01   -5,370599627e-01    0,000000000e+00    0,000000000e+00    0,000000000e+00    0,000000000e+00
      296000000    9,555185214e-03   -7,663830183e-03   -7,607732415e-01   -1,394411325e-01    0,000000000e+00    0,000000000e+00    0,000000000e+00    0,000000000e+00
      310000000    1,095444709e-02   -1,597379521e-02   -7,132368684e-01    2,964685857e-01    0,000000000e+00    0,000000000e+00    0,000000000e+00    0,000000000e+00
      324000000    1,951556653e-02   -2,652435936e-02   -4,274374545e-01    6,370601058e-01    0,000000000e+00    0,000000000e+00    0,000000000e+00    0,000000000e+00
      338000000    2,569389716e-02   -5,210791156e-02   -1,021154225e-02    7,619436383e-01    0,000000000e+00    0,000000000e+00    0,000000000e+00    0,000000000e+00
      352000000    7,379439659e-03   -8,477285504e-02    4,053306282e-01    6,400377750e-01    0,000000000e+00    0,000000000e+00    0,000000000e+00    0,000000000e+00
      366000000   -3,487081826e-02   -9,589449316e-02    6,905629635e-01    3,125467896e-01    0,000000000e+00    0,000000000e+00    0,000000000e+00    0,000000000e+00
      380000000   -7,152242959e-02   -7,106375694e-02    7,487646937e-01   -1,244946495e-01    0,000000000e+00    0,000000000e+00    0,000000000e+00    0,000000000e+00
      394000000   -7,316651940e-02   -3,244957328e-02    5,481753349e-01   -5,208414197e-01    0,000000000e+00    0,000000000e+00    0,000000000e+00    0,000000000e+00
      408000000   -4,694007337e-02   -1,591650397e-02    1,618789434e-01   -7,322787642e-01    0,000000000e+00    0,000000000e+00    0,000000000e+00    0,000000000e+00
      422000000   -2,856123447e-02   -3,125271574e-02   -2,659967840e-01   -6,961312294e-01    0,000000000e+00    0,000000000e+00    0,000000000e+00    0,000000000e+00
      436000000   -4,019477591e-02   -5,214386061e-02   -6,024950147e-01   -4,343453944e-01    0,000000000e+00    0,000000000e+00    0,000000000e+00    0,000000000e+00
      450000000   -6,769596040e-02   -4,501717165e-02   -7,403962612e-01   -2,525353059e-02    0,000000000e+00    0,000000000e+00    0,000000000e+00    0,000000000e+00
      464000000   -7,442069054e-02   -1,208513416e-02   -6,213477254e-01    3,946226239e-01    0,000000000e+00    0,000000000e+00    0,000000000e+00    0,000000000e+00
      478000000   -4,878180474e-02    1,188012864e-02   -2,864185870e-01    6,681340933e-01    0,000000000e+00    0,000000000e+00    0,000000000e+00    0,000000000e+00
      492000000   -1,661404409e-02    6,683397572e-03    1,345811933e-01    7,044529319e-01    0,000000000e+00    0,000000000e+00    0,000000000e+00    0,000000000e+00
      506000000   -3,695436753e-03   -1,481019240e-02    4,980919659e-01    5,061926246e-01    0,000000000e+00    0,000000000e+00    0,000000000e+00    0,000000000e+00
      520000000   -6,017719861e-03   -2,941316925e-02    6,876149178e-01    1,440979242e-01    0,000000000e+00    0,000000000e+00    0,000000000e+00    0,000000000e+00
      534000000   -3,576400224e-03   -3,578046709e-02    6,440404058e-01   -2,602581382e-01    0,000000000e+00    0,000000000e+00    0,000000000e+00    0,000000000e+00
      548000000    8,086365648e-03   -5,250508711e-02    3,851966262e-01   -5,638844371e-01    0,000000000e+00    0,000000000e+00    0,000000000e+00    0,000000000e+00
      562000000    5,702270195e-03   -8,920996636e-02    7,891987450e-03   -6,720355749e-01    0,000000000e+00    0,000000000e+00    0,000000000e+00    0,000000000e+00
      576000000   -3,107608482e-02   -1,260114908e-01   -3,619810343e-01   -5,604587197e-01    0,000000000e+00    0,000000000e+00    0,000000000e+00    0,000000000e+00
      590000000   -9,464470297e-02   -1,277122200e-01   -6,172450185e-01   -2,704141438e-01    0,000000000e+00    0,000000000e+00    0,000000000e+00    0,000000000e+00
      604000000   -1,429155022e-01   -7,839425653e-02   -6,672153473e-01    1,261686236e-01    0,000000000e+00    0,000000000e+00    0,000000000e+00    0,000000000e+00
      618000000   -1,389333457e-01   -1,144085452e-02   -4,750098288e-01    4,847660363e-01    0,000000000e+00    0,000000000e+00    0,000000000e+00    0,000000000e+00
      632000000   -9,290720522e-02    2,133564092e-02   -1,148586720e-01    6,628741622e-01    0,000000000e+00    0,000000000e+00    0,000000000e+00    0,000000000e+00
      646000000   -5,576616898e-02    1,165634952e-02    2,736477256e-01    6,033297181e-01    0,000000000e+00    0,000000000e+00    0,000000000e+00    0,000000000e+00
      660000000   -4,834748432e-02   -9,438163601e-03    5,569626689e-01    3,400328755e-01    0,000000000e+00    0,000000000e+00    0,000000000e+00    0,000000000e+00
      674000000   -5,596476048e-02   -1,000721008e-02    6,446563005e-01   -3,995990381e-02    0,000000000e+00    0,000000000e+00    0,000000000e+00    0,000000000e+00
      688000000   -4,985484481e-02    2,781607676e-03    4,935331047e-01   -4,032324553e-01    0,000000000e+00    0,000000000e+00    0,000000000e+00    0,000000000e+00
      702000000   -2,568200044e-02    7,116861176e-03    1,656480432e-01   -6,037467718e-01    0,000000000e+00    0,000000000e+00    0,000000000e+00    0,000000000e+00
      716000000   -2,524237847e-03   -9,304589592e-03   -2,191012949e-01   -5,754515529e-01    0,000000000e+00    0,000000000e+00    0,000000000e+00    0,000000000e+00
      730000000    1,008405909e-02   -3,414030373e-02   -5,092625022e-01   -3,337409794e-01    0,000000000e+00    0,000000000e+00    0,000000000e+00    0,000000000e+00
      744000000    1,707145199e-02   -6,036356837e-02   -6,005752683e-01    3,290723264e-02    0,000000000e+00    0,000000000e+00    0,000000000e+00    0,000000000e+00
      758000000    2,190309390e-02   -1,028724983e-01   -4,543479085e-01    3,773193061e-01    0,000000000e+00    0,000000000e+00    0,000000000e+00    0,000000000e+00
      772000000   -4,474511370e-03   -1,739820391e-01   -1,394231170e-01    5,585243702e-01    0,000000000e+00    0,000000000e+00    0,000000000e+00    0,000000000e+00
      786000000   -1,048110873e-01   -2,323101312e-01    2,112272829e-01    5,198550820e-01    0,000000000e+00    0,000000000e+00    0,000000000e+00    0,000000000e+00
      800000000   -2,650543451e-01   -1,920393705e-01    4,712229073e-01    2,746421397e-01    0,000000000e+00    0,000000000e+00    0,000000000e+00    0,000000000e+00
      814000000   -3,644528389e-01    2,935776953e-03    5,078426600e-01   -8,910915256e-02    0,000000000e+00    0,000000000e+00    0,000000000e+00    0,000000000e+00
      828000000   -2,473372966e-01    2,329102010e-01    2,812421024e-01   -3,526533544e-01    0,000000000e+00    0,000000000e+00    0,000000000e+00    0,000000000e+00
      842000000    1,331155095e-02    2,786287069e-01   -1,600052416e-02   -3,624215424e-01    0,000000000e+00    0,000000000e+00    0,000000000e+00    0,000000000e+00
      856000000    2,128070146e-01    1,156809777e-01   -1,875516921e-01   -2,038291395e-01    0,000000000e+00    0,000000000e+00    0,000000000e+00    0,000000000e+00
      870000000    2,384834439e-01   -1,483713388e-01   -2,002528608e-01   -2,608006075e-02    0,000000000e+00    0,000000000e+00    0,000000000e+00    0,000000000e+00
      884000000    3,732670099e-02   -3,867187500e-01   -1,038378105e-01    7,096299529e-02    0,000000000e+00    0,000000000e+00    0,000000000e+00    0,000000000e+00
      898000000   -3,694683313e-01   -3,431178331e-01   -1,693804190e-02    2,746106312e-02    0,000000000e+00    0,000000000e+00    0,000000000e+00    0,000000000e+00
      912000000   -4,674838185e-01    1,381346136e-01   -1,132964864e-01    4,096055403e-02    0,000000000e+00    0,000000000e+00    0,000000000e+00    0,000000000e+00
      926000000   -9,725277871e-02    3,513335288e-01   -1,314978004e-01    1,349568069e-01    0,000000000e+00    0,000000000e+00    0,000000000e+00    0,000000000e+00
      940000000    1,855802238e-01    1,938073784e-01   -3,700197861e-02    2,150610238e-01    0,000000000e+00    0,000000000e+00    0,000000000e+00    0,000000000e+00
      954000000    2,536147833e-01   -5,007659644e-02    7,908474654e-02    2,277885973e-01    0,000000000e+00    0,000000000e+00    0,000000000e+00    0,000000000e+00
      968000000    1,761313230e-01   -2,605476379e-01    1,928436458e-01    1,814724803e-01    0,000000000e+00    0,000000000e+00    0,000000000e+00    0,000000000e+00
      982000000   -1,498904638e-02   -3,937220871e-01    2,794089317e-01    7,859805226e-02    0,000000000e+00    0,000000000e+00    0,000000000e+00    0,000000000e+00
      996000000   -2,741834223e-01   -3,759121895e-01    3,101779521e-01   -8,074761182e-02    0,000000000e+00    0,000000000e+00    0,000000000e+00    0,000000000e+00
     1010000000   -4,676058590e-01   -1,701816469e-01    2,230553180e-01   -2,534164190e-01    0,000000000e+00    0,000000000e+00    0,000000000e+00    0,000000000e+00
     1024000000   -4,567496777e-01    1,138655245e-01    2,356005460e-02   -3,290782869e-01    0,000000000e+00    0,000000000e+00    0,000000000e+00    0,000000000e+00
     1038000000   -2,676357925e-01    2,955555916e-01   -1,739958972e-01   -2,481884807e-01    0,000000000e+00    0,000000000e+00    0,000000000e+00    0,000000000e+00
     1052000000   -3,604138643e-02    3,102583587e-01   -2,556168139e-01   -7,614402473e-02    0,000000000e+00    0,000000000e+00    0,000000000e+00    0,000000000e+00
     1066000000    1,268429458e-01    2,023946196e-01   -2,268321961e-01    8,631172031e-02    0,000000000e+00    0,000000000e+00    0,000000000e+00    0,000000000e+00
     1080000000    2,083800435e-01    5,031833425e-02   -1,198329628e-01    1,914752424e-01    0,000000000e+00    0,000000000e+00    0,000000000e+00    0,000000000e+00
     1094000000    2,042806745e-01   -1,288145930e-01    1,646344736e-02    2,351390570e-01    0,000000000e+00    0,000000000e+00    0,000000000e+00    0,000000000e+00
     1108000000    9,961406887e-02   -2,889921963e-01    1,674826741e-01    2,097410709e-01    0,000000000e+00    0,000000000e+00    0,000000000e+00    0,000000000e+00
     1122000000   -1,031870022e-01   -3,658207953e-01    3,157900870e-01    9,148384631e-02    0,000000000e+00    0,000000000e+00    0,000000000e+00    0,000000000e+00
     1136000000   -3,423603177e-01   -2,675571442e-01    3,917052448e-01   -1,518503726e-01    0,000000000e+00    0,000000000e+00    0,000000000e+00    0,000000000e+00
     1150000000   -4,073496759e-01    4,103754461e-02    2,453037649e-01   -4,351860881e-01    0,000000000e+00    0,000000000e+00    0,000000000e+00    0,000000000e+00
     1164000000   -1,592116654e-01    2,224016786e-01   -9,425676614e-02   -5,142710805e-01    0,000000000e+00    0,000000000e+00    0,000000000e+00    0,000000000e+00
     1178000000    7,942752540e-02    8,251045644e-02   -3,547456563e-01   -3,445301950e-01    0,000000000e+00    0,000000000e+00    0,000000000e+00    0,000000000e+00
     1192000000    7,343607396e-02   -1,750464141e-01   -4,545144439e-01   -8,613326401e-02    0,000000000e+00    0,000000000e+00    0,000000000e+00    0,000000000e+00
     1206000000   -1,633454561e-01   -3,274357915e-01   -3,671617210e-01    1,908710152e-01    0,000000000e+00    0,000000000e+00    0,000000000e+00    0,000000000e+00
     1220000000   -4,604209960e-01   -1,739489734e-01   -1,080894768e-01    3,296678066e-01    0,000000000e+00    0,000000000e+00    0,000000000e+00    0,000000000e+00
     1234000000   -4,746982157e-01    1,611503810e-01    1,368142962e-01    2,208768725e-01    0,000000000e+00    0,000000000e+00    0,000000000e+00    0,000000000e+00
     1248000000   -2,370410711e-01    3,487712741e-01    1,927459687e-01    3,174221143e-02    0,000000000e+00    0,000000000e+00    0,000000000e+00    0,000000000e+00
     1262000000   -3,842063306e-04    3,304020166e-01    1,251171678e-01   -7,269608974e-02    0,000000000e+00    0,000000000e+00    0,000000000e+00    0,000000000e+00
     1276000000    1,539207250e-01    1,958352923e-01    4,654301330e-02   -9,593141079e-02    0,000000000e+00    0,000000000e+00    0,000000000e+00    0,000000000e+00
     1290000000    2,138176262e-01    3,046391904e-02   -2,260687761e-03   -7,492606342e-02    0,000000000e+00    0,000000000e+00    0,000000000e+00    0,000000000e+00
     1304000000    2,066669017e-01   -1,480277926e-01   -1,920032874e-02   -3,095854819e-02    0,000000000e+00    0,000000000e+00    0,000000000e+00    0,000000000e+00
     1318000000    1,095392480e-01   -3,107521534e-01   -1,322176401e-02    1,830543764e-02    0,000000000e+00    0,000000000e+00    0,000000000e+00    0,000000000e+00
     1332000000   -6,650611758e-02   -4,323346913e-01    4,648807272e-02    5,967006087e-02    0,000000000e+00    0,000000000e+00    0,000000000e+00    0,000000000e+00
     1346000000   -3,360894024e-01   -4,332370460e-01    1,405981779e-01    5,289476737e-02    0,000000000e+00    0,000000000e+00    0,000000000e+00    0,000000000e+00
     1360000000   -5,545819402e-01   -2,406672537e-01    1,264390647e-01   -7,040883601e-02    0,000000000e+00    0,000000000e+00    0,000000000e+00    0,000000000e+00
     1374000000   -6,191737056e-01    2,782283910e-02    1,092348471e-01    4,788367823e-02    0,000000000e+00    0,000000000e+00    0,000000000e+00    0,000000000e+00
     1388000000   -5,236080289e-01    2,915746570e-01    2,201008350e-01    9,815633530e-04    0,000000000e+00    0,000000000e+00    0,000000000e+00    0,000000000e+00
     1402000000   -3,030221164e-01    4,215365946e-01    2,281018645e-01   -7,988087833e-02    0,000000000e+00    0,000000000e+00    0,000000000e+00    0,000000000e+00
     1416000000   -9,441979975e-02    4,193541706e-01    1,927174628e-01   -1,249644533e-01    0,000000000e+00    0,000000000e+00    0,000000000e+00    0,000000000e+00
     1430000000    6,941172481e-02    3,425532877e-01    1,790484041e-01   -1,331377178e-01    0,000000000e+00    0,000000000e+00    0,000000000e+00    0,000000000e+00
     1444000000    1,776500046e-01    2,027456611e-01    1,508050710e-01   -9,481874853e-02    0,000000000e+00    0,000000000e+00    0,000000000e+00    0,000000000e+00
     1458000000    2,241737992e-01    3,636113554e-02    1,446471810e-01   -7,694490254e-02    0,000000000e+00    0,000000000e+00    0,000000000e+00    0,000000000e+00
     1472000000    2,089335769e-01   -1,492648423e-01    1,437915415e-01   -5,627918616e-02    0,000000000e+00    0,000000000e+00    0,000000000e+00    0,000000000e+00
     1486000000    1,007990763e-01   -3,191625476e-01    1,664912105e-01    3,838366363e-03    0,000000000e+00    0,000000000e+00    0,000000000e+00    0,000000000e+00
     1500000000   -9,142927080e-02   -4,571481347e-01    2,169591486e-01    6,261497736e-02    0,000000000e+00    0,000000000e+00    0,000000000e+00    0,000000000e+00
