! NanoVNA-App
! Date: 2025-09-25 14:25:23
! Start: 100MHz Stop: 1,5GHz Points: 101
! S-Parameter data: F S11 S21 S12 S22
# Hz S RI R 50
!     Frequency           S11_Real           S11_Imag           S21_Real           S21_Imag           S12_Real           S12_Imag           S22_Real           S22_Imag
      100000000   -2,910274267e-02   -4,125236534e-03    3,744471371e-01   -7,220653296e-01    0,000000000e+00    0,000000000e+00    0,000000000e+00    0,000000000e+00
      114000000   -1,659141853e-02    1,160283014e-02   -8,896999061e-02   -8,057347536e-01    0,000000000e+00    0,000000000e+00    0,000000000e+00    0,000000000e+00
      128000000    3,454423742e-03    1,050237287e-02   -5,145581961e-01   -6,211353540e-01    0,000000000e+00    0,000000000e+00    0,000000000e+00    0,000000000e+00
      142000000    1,444540359e-02   -3,080608090e-03   -7,676503062e-01   -2,369981557e-01    0,000000000e+00    0,000000000e+00    0,000000000e+00    0,000000000e+00
      156000000    1,570292003e-02   -1,472579129e-02   -7,705966234e-01    2,238442004e-01    0,000000000e+00    0,000000000e+00    0,000000000e+00    0,000000000e+00
      170000000    1,654009148e-02   -2,253384516e-02   -5,184026361e-01    6,046491861e-01    0,000000000e+00    0,000000000e+00    0,000000000e+00    0,000000000e+00
      184000000    2,094583958e-02   -3,696650267e-02   -1,018792540e-01    7,867187858e-01    0,000000000e+00    0,000000000e+00    0,000000000e+00    0,000000000e+00
      198000000    1,314956136e-02   -6,261338294e-02    3,431084156e-01    7,130628228e-01    0,000000000e+00    0,000000000e+00    0,000000000e+00    0,000000000e+00
      212000000   -1,872510649e-02   -8,170976490e-02    6,785020828e-01    4,107785523e-01    0,000000000e+00    0,000000000e+00    0,000000000e+00    0,000000000e+00
      226000000   -6,203070655e-02   -6,961952150e-02    7,962059379e-01   -2,974143252e-02    0,000000000e+00    0,000000000e+00    0,000000000e+00    0,000000000e+00
      240000000   -8,328371495e-02   -2,604008093e-02    6,469988823e-01   -4,666637778e-01    0,000000000e+00    0,000000000e+00    0,000000000e+00    0,000000000e+00
      254000000   -6,437101215e-02    1,745543443e-02    2,771553993e-01   -7,436370254e-01    0,000000000e+00    0,000000000e+00    0,000000000e+00    0,000000000e+00
      268000000   -2,404583991e-02    2,943269908e-02   -1,770975590e-01   -7,652064562e-01    0,000000000e+00    0,000000000e+00    0,000000000e+00    0,000000000e+00
      282000000    4,023927730e-03    1,210843399e-02   -5,625499487e-01   -5,373792648e-01    0,000000000e+00    0,000000000e+00    0,000000000e+00    0,000000000e+00
      296000000    9,486709721e-03   -7,739622612e-03   -7,606933117e-01   -1,394383907e-01    0,000000000e+00    0,000000000e+00    0,000000000e+00    0,000000000e+00
      310000000    1,104447246e-02   -1,593645662e-02   -7,140644193e-01    2,977191508e-01    0,000000000e+00    0,000000000e+00    0,000000000e+00    0,000000000e+00
      324000000    1,962555945e-02   -2,632995509e-02   -4,279915392e-01    6,368254423e-01    0,000000000e+00    0,000000000e+00    0,000000000e+00    0,000000000e+00
      338000000    2,538778633e-02   -5,182497948e-02   -1,033995114e-02    7,604840994e-01    0,000000000e+00    0,000000000e+00    0,000000000e+00    0,000000000e+00
      352000000    7,473609876e-03   -8,463681489e-02    4,057314992e-01    6,408935189e-01    0,000000000e+00    0,000000000e+00    0,000000000e+00    0,000000000e+00
      366000000   -3,501660004e-02   -9,594214708e-02    6,908971667e-01    3,125299215e-01    0,000000000e+00    0,000000000e+00    0,000000000e+00    0,000000000e+00
      380000000   -7,139056921e-02   -7,128468156e-02    7,480862141e-01   -1,246430576e-01    0,000000000e+00    0,000000000e+00    0,000000000e+00    0,000000000e+00
      394000000   -7,334586978e-02   -3,242821246e-02    5,486183763e-01   -5,209875703e-01    0,000000000e+00    0,000000000e+00    0,000000000e+00    0,000000000e+00
      408000000   -4,669702053e-02   -1,557619590e-02    1,628520489e-01   -7,339439988e-01    0,000000000e+00    0,000000000e+00    0,000000000e+00    0,000000000e+00
      422000000   -2,837504633e-02   -3,135658056e-02   -2,666729689e-01   -6,954832673e-01    0,000000000e+00    0,000000000e+00    0,000000000e+00    0,000000000e+00
      436000000   -4,012851045e-02   -5,206058547e-02   -6,024704576e-01   -4,341530204e-01    0,000000000e+00    0,000000000e+00    0,000000000e+00    0,000000000e+00
      450000000   -6,775784492e-02   -4,479943216e-02   -7,406368256e-01   -2,492455766e-02    0,000000000e+00    0,000000000e+00    0,000000000e+00    0,000000000e+00
      464000000   -7,445111871e-02   -1,231535245e-02   -6,218368411e-01    3,954355419e-01    0,000000000e+00    0,000000000e+00    0,000000000e+00    0,000000000e+00
      478000000   -4,940169677e-02    1,178574748e-02   -2,866348028e-01    6,676616669e-01    0,000000000e+00    0,000000000e+00    0,000000000e+00    0,000000000e+00
      492000000   -1,710058935e-02    6,444169208e-03    1,337974221e-01    7,040324211e-01    0,000000000e+00    0,000000000e+00    0,000000000e+00    0,000000000e+00
      506000000   -3,528650850e-03   -1,491207350e-02    4,980234206e-01    5,066639781e-01    0,000000000e+00    0,000000000e+00    0,000000000e+00    0,000000000e+00
      520000000   -5,800742190e-03   -2,988513932e-02    6,894211173e-01    1,446615905e-01    0,000000000e+00    0,000000000e+00    0,000000000e+00    0,000000000e+00
      534000000   -3,445141017e-03   -3,606892750e-02    6,446507573e-01   -2,603743076e-01    0,000000000e+00    0,000000000e+00    0,000000000e+00    0,000000000e+00
      548000000    7,962168194e-03   -5,235647783e-02    3,850793839e-01   -5,639780760e-01    0,000000000e+00    0,000000000e+00    0,000000000e+00    0,000000000e+00
      562000000    5,827597342e-03   -8,948468417e-02    9,024074301e-03   -6,721678972e-01    0,000000000e+00    0,000000000e+00    0,000000000e+00    0,000000000e+00
      576000000   -3,137344867e-02   -1,264542490e-01   -3,632386327e-01   -5,616356730e-01    0,000000000e+00    0,000000000e+00    0,000000000e+00    0,000000000e+00
      590000000   -9,490601718e-02   -1,277963817e-01   -6,179744005e-01   -2,727203071e-01    0,000000000e+00    0,000000000e+00    0,000000000e+00    0,000000000e+00
      604000000   -1,431912035e-01   -7,802081853e-02   -6,676335931e-01    1,263742894e-01    0,000000000e+00    0,000000000e+00    0,000000000e+00    0,000000000e+00
      618000000   -1,384441406e-01   -1,088129450e-02   -4,755091965e-01    4,861469865e-01    0,000000000e+00    0,000000000e+00    0,000000000e+00    0,000000000e+00
      632000000   -9,349674731e-02    2,188213356e-02   -1,148559526e-01    6,627843380e-01    0,000000000e+00    0,000000000e+00    0,000000000e+00    0,000000000e+00
      646000000   -5,580275878e-02    1,168607455e-02    2,729187906e-01    6,028588414e-01    0,000000000e+00    0,000000000e+00    0,000000000e+00    0,000000000e+00
      660000000   -4,830746353e-02   -9,181413800e-03    5,578860044e-01    3,404213190e-01    0,000000000e+00    0,000000000e+00    0,000000000e+00    0,000000000e+00
      674000000   -5,576188117e-02   -1,000277139e-02    6,444774866e-01   -3,975848481e-02    0,000000000e+00    0,000000000e+00    0,000000000e+00    0,000000000e+00
      688000000   -5,034184456e-02    3,588382155e-03    4,933138490e-01   -4,019024968e-01    0,000000000e+00    0,000000000e+00    0,000000000e+00    0,000000000e+00
      702000000   -2,556275949e-02    6,952148862e-03    1,653893143e-01   -6,033059359e-01    0,000000000e+00    0,000000000e+00    0,000000000e+00    0,000000000e+00
      716000000   -2,595840255e-03   -9,226769209e-03   -2,185596526e-01   -5,761759281e-01    0,000000000e+00    0,000000000e+00    0,000000000e+00    0,000000000e+00
      730000000    9,371328168e-03   -3,512606025e-02   -5,091299415e-01   -3,330709934e-01    0,000000000e+00    0,000000000e+00    0,000000000e+00    0,000000000e+00
      744000000    1,680447906e-02   -6,144744903e-02   -6,006512046e-01    3,271285817e-02    0,000000000e+00    0,000000000e+00    0,000000000e+00    0,000000000e+00
      758000000    2,150881477e-02   -1,030744240e-01   -4,546450078e-01    3,767419457e-01    0,000000000e+00    0,000000000e+00    0,000000000e+00    0,000000000e+00
      772000000   -4,513227381e-03   -1,734229028e-01   -1,395213455e-01    5,577700734e-01    0,000000000e+00    0,000000000e+00    0,000000000e+00    0,000000000e+00
      786000000   -1,054389551e-01   -2,328495681e-01    2,116014063e-01    5,198092461e-01    0,000000000e+00    0,000000000e+00    0,000000000e+00    0,000000000e+00
      800000000   -2,654216290e-01   -1,931132823e-01    4,711720347e-01    2,760418057e-01    0,000000000e+00    0,000000000e+00    0,000000000e+00    0,000000000e+00
      814000000   -3,649777770e-01    3,183280118e-03    5,086833239e-01   -8,874279261e-02    0,000000000e+00    0,000000000e+00    0,000000000e+00    0,000000000e+00
      828000000   -2,481178194e-01    2,326662987e-01    2,816300392e-01   -3,529142141e-01    0,000000000e+00    0,000000000e+00    0,000000000e+00    0,000000000e+00
      842000000    1,235907618e-02    2,781565189e-01   -1,544273831e-02   -3,633408248e-01    0,000000000e+00    0,000000000e+00    0,000000000e+00    0,000000000e+00
      856000000    2,127852440e-01    1,155098602e-01   -1,874006838e-01   -2,051871419e-01    0,000000000e+00    0,000000000e+00    0,000000000e+00    0,000000000e+00
      870000000    2,391170412e-01   -1,482698321e-01   -2,004011571e-01   -2,555420622e-02    0,000000000e+00    0,000000000e+00    0,000000000e+00    0,000000000e+00
      884000000    3,728650138e-02   -3,855774999e-01   -1,037577763e-01    7,116461545e-02    0,000000000e+00    0,000000000e+00    0,000000000e+00    0,000000000e+00
      898000000   -3,709968626e-01   -3,416571021e-01   -1,689553820e-02    2,742224559e-02    0,000000000e+00    0,000000000e+00    0,000000000e+00    0,000000000e+00
      912000000   -4,671346545e-01    1,386497617e-01   -1,056158170e-01    2,641624026e-02    0,000000000e+00    0,000000000e+00    0,000000000e+00    0,000000000e+00
      926000000   -9,419200569e-02    3,504618704e-01   -1,260748059e-01    1,350835711e-01    0,000000000e+00    0,000000000e+00    0,000000000e+00    0,000000000e+00
      940000000    1,847843826e-01    1,947496682e-01   -3,701199219e-02    2,169297785e-01    0,000000000e+00    0,000000000e+00    0,000000000e+00    0,000000000e+00
      954000000    2,563598752e-01   -4,600324854e-02    8,029089123e-02    2,279908508e-01    0,000000000e+00    0,000000000e+00    0,000000000e+00    0,000000000e+00
      968000000    1,770749092e-01   -2,622450590e-01    1,910968274e-01    1,803933978e-01    0,000000000e+00    0,000000000e+00    0,000000000e+00    0,000000000e+00
      982000000   -1,333567593e-02   -3,947648704e-01    2,808897197e-01    7,897348702e-02    0,000000000e+00    0,000000000e+00    0,000000000e+00    0,000000000e+00
      996000000   -2,725168467e-01   -3,772583902e-01    3,089654446e-01   -7,990650088e-02    0,000000000e+00    0,000000000e+00    0,000000000e+00    0,000000000e+00
     1010000000   -4,703734517e-01   -1,759547591e-01    2,221779525e-01   -2,525963187e-01    0,000000000e+00    0,000000000e+00    0,000000000e+00    0,000000000e+00
     1024000000   -4,594129324e-01    1,194805205e-01    2,169639803e-02   -3,311028779e-01    0,000000000e+00    0,000000000e+00    0,000000000e+00    0,000000000e+00
     1038000000   -2,672410309e-01    3,007631004e-01   -1,722487658e-01   -2,482626289e-01    0,000000000e+00    0,000000000e+00    0,000000000e+00    0,000000000e+00
     1052000000   -3,524613753e-02    3,078660369e-01   -2,574132681e-01   -7,743379474e-02    0,000000000e+00    0,000000000e+00    0,000000000e+00    0,000000000e+00
     1066000000    1,241511479e-01    2,060649991e-01   -2,250338942e-01    8,650884777e-02    0,000000000e+00    0,000000000e+00    0,000000000e+00    0,000000000e+00
     1080000000    2,072545886e-01    4,493820667e-02   -1,211564019e-01    1,950031221e-01    0,000000000e+00    0,000000000e+00    0,000000000e+00    0,000000000e+00
     1094000000    2,021128386e-01   -1,238487363e-01    1,876008324e-02    2,324818224e-01    0,000000000e+00    0,000000000e+00    0,000000000e+00    0,000000000e+00
     1108000000    9,802270681e-02   -2,853508592e-01    1,686008275e-01    2,054778934e-01    0,000000000e+00    0,000000000e+00    0,000000000e+00    0,000000000e+00
     1122000000   -1,038640440e-01   -3,719771802e-01    3,181186318e-01    9,029377252e-02    0,000000000e+00    0,000000000e+00    0,000000000e+00    0,000000000e+00
     1136000000   -3,459214270e-01   -2,649182975e-01    3,896829486e-01   -1,513842195e-01    0,000000000e+00    0,000000000e+00    0,000000000e+00    0,000000000e+00
     1150000000   -4,089491963e-01    4,079791903e-02    2,440924793e-01   -4,359336793e-01    0,000000000e+00    0,000000000e+00    0,000000000e+00    0,000000000e+00
     1164000000   -1,604738832e-01    2,203411311e-01   -9,660320729e-02   -5,110768676e-01    0,000000000e+00    0,000000000e+00    0,000000000e+00    0,000000000e+00
     1178000000    7,191236317e-02    8,319135755e-02   -3,555645645e-01   -3,485371172e-01    0,000000000e+00    0,000000000e+00    0,000000000e+00    0,000000000e+00
     1192000000    7,618546486e-02   -1,711938530e-01   -4,574858844e-01   -8,120942116e-02    0,000000000e+00    0,000000000e+00    0,000000000e+00    0,000000000e+00
     1206000000   -1,655521989e-01   -3,251801133e-01   -3,703809679e-01    1,895148456e-01    0,000000000e+00    0,000000000e+00    0,000000000e+00    0,000000000e+00
     1220000000   -4,585811198e-01   -1,792443395e-01   -1,087514088e-01    3,295480907e-01    0,000000000e+00    0,000000000e+00    0,000000000e+00    0,000000000e+00
     1234000000   -4,783754945e-01    1,651465595e-01    1,366557330e-01    2,167991549e-01    0,000000000e+00    0,000000000e+00    0,000000000e+00    0,000000000e+00
     1248000000   -2,367780954e-01    3,502643704e-01    1,910594553e-01    3,576185182e-02    0,000000000e+00    0,000000000e+00    0,000000000e+00    0,000000000e+00
     1262000000    6,206058315e-04    3,331235647e-01    1,298379898e-01   -7,052900642e-02    0,000000000e+00    0,000000000e+00    0,000000000e+00    0,000000000e+00
     1276000000    1,523789912e-01    1,999396384e-01    4,941635951e-02   -9,528256953e-02    0,000000000e+00    0,000000000e+00    0,000000000e+00    0,000000000e+00
     1290000000    2,185380310e-01    2,657909505e-02    6,142170751e-04   -7,682335377e-02    0,000000000e+00    0,000000000e+00    0,000000000e+00    0,000000000e+00
     1304000000    2,078527510e-01   -1,472178549e-01   -1,683349162e-02   -3,254621848e-02    0,000000000e+00    0,000000000e+00    0,000000000e+00    0,000000000e+00
     1318000000    1,148301214e-01   -3,096368313e-01   -1,185446419e-02    2,170216478e-02    0,000000000e+00    0,000000000e+00    0,000000000e+00    0,000000000e+00
     1332000000   -6,543020159e-02   -4,327867031e-01    5,010119826e-02    6,673443317e-02    0,000000000e+00    0,000000000e+00    0,000000000e+00    0,000000000e+00
     1346000000   -3,296706975e-01   -4,367409945e-01    1,428694874e-01    4,256587476e-02    0,000000000e+00    0,000000000e+00    0,000000000e+00    0,000000000e+00
     1360000000   -5,580719709e-01   -2,400408834e-01    1,040626094e-01   -7,745990157e-02    0,000000000e+00    0,000000000e+00    0,000000000e+00    0,000000000e+00
     1374000000   -6,146560311e-01    3,422452137e-02    1,141536906e-01    6,353905797e-02    0,000000000e+00    0,000000000e+00    0,000000000e+00    0,000000000e+00
     1388000000   -5,104829669e-01    2,948260009e-01    2,379312366e-01    6,712764502e-03    0,000000000e+00    0,000000000e+00    0,000000000e+00    0,000000000e+00
     1402000000   -3,051119447e-01    4,285201430e-01    2,217000276e-01   -8,058755845e-02    0,000000000e+00    0,000000000e+00    0,000000000e+00    0,000000000e+00
     1416000000   -8,440662920e-02    4,160421491e-01    1,939997673e-01   -1,218394488e-01    0,000000000e+00    0,000000000e+00    0,000000000e+00    0,000000000e+00
     1430000000    7,196714729e-02    3,347458541e-01    1,691695899e-01   -1,061585322e-01    0,000000000e+00    0,000000000e+00    0,000000000e+00    0,000000000e+00
     1444000000    1,751013398e-01    2,013239413e-01    1,558193713e-01   -9,252501279e-02    0,000000000e+00    0,000000000e+00    0,000000000e+00    0,000000000e+00
     1458000000    2,196705490e-01    3,643991053e-02    1,402198374e-01   -7,371363789e-02    0,000000000e+00    0,000000000e+00    0,000000000e+00    0,000000000e+00
     1472000000    2,070447654e-01   -1,456825584e-01    1,400551200e-01   -5,365725979e-02    0,000000000e+00    0,000000000e+00    0,000000000e+00    0,000000000e+00
     1486000000    1,044921353e-01   -3,275792897e-01    1,709041446e-01   -1,087799575e-02    0,000000000e+00    0,000000000e+00    0,000000000e+00    0,000000000e+00
     1500000000   -8,374464512e-02   -4,516286254e-01    2,230731547e-01    6,223522499e-02    0,000000000e+00    0,000000000e+00    0,000000000e+00    0,000000000e+00
