! NanoVNA-App
! Date: 2025-09-25 14:24:10
! Start: 100MHz Stop: 1,5GHz Points: 101
! S-Parameter data: F S11 S21 S12 S22
# Hz S RI R 50
!     Frequency           S11_Real           S11_Imag           S21_Real           S21_Imag           S12_Real           S12_Imag           S22_Real           S22_Imag
      100000000   -2,909257635e-02   -4,115796648e-03    3,744925261e-01   -7,221211195e-01    0,000000000e+00    0,000000000e+00    0,000000000e+00    0,000000000e+00
      114000000   -1,659977995e-02    1,162523869e-02   -8,902709931e-02   -8,057144880e-01    0,000000000e+00    0,000000000e+00    0,000000000e+00    0,000000000e+00
      128000000    3,380745649e-03    1,050886605e-02   -5,147354007e-01   -6,210647821e-01    0,000000000e+00    0,000000000e+00    0,000000000e+00    0,000000000e+00
      142000000    1,445135009e-02   -3,067700891e-03   -7,676712275e-01   -2,368014008e-01    0,000000000e+00    0,000000000e+00    0,000000000e+00    0,000000000e+00
      156000000    1,532062795e-02   -1,481392048e-02   -7,692961097e-01    2,232990265e-01    0,000000000e+00    0,000000000e+00    0,000000000e+00    0,000000000e+00
      170000000    1,655841246e-02   -2,254925668e-02   -5,188896060e-01    6,049168110e-01    0,000000000e+00    0,000000000e+00    0,000000000e+00    0,000000000e+00
      184000000    2,099628374e-02   -3,705535084e-02   -1,016621292e-01    7,865111232e-01    0,000000000e+00    0,000000000e+00    0,000000000e+00    0,000000000e+00
      198000000    1,314215176e-02   -6,261118501e-02    3,431452513e-01    7,132099867e-01    0,000000000e+00    0,000000000e+00    0,000000000e+00    0,000000000e+00
      212000000   -1,868866943e-02   -8,171310276e-02    6,783292890e-01    4,105733335e-01    0,000000000e+00    0,000000000e+00    0,000000000e+00    0,000000000e+00
      226000000   -6,203343719e-02   -6,974387169e-02    7,961221337e-01   -2,976636589e-02    0,000000000e+00    0,000000000e+00    0,000000000e+00    0,000000000e+00
      240000000   -8,322641999e-02   -2,614301257e-02    6,471884847e-01   -4,666754305e-01    0,000000000e+00    0,000000000e+00    0,000000000e+00    0,000000000e+00
      254000000   -6,432873756e-02    1,739667542e-02    2,771483958e-01   -7,436956763e-01    0,000000000e+00    0,000000000e+00    0,000000000e+00    0,000000000e+00
      268000000   -2,414855361e-02    2,950247191e-02   -1,773035526e-01   -7,649782300e-01    0,000000000e+00    0,000000000e+00    0,000000000e+00    0,000000000e+00
      282000000    4,153868183e-03    1,215389930e-02   -5,625723004e-01   -5,372533202e-01    0,000000000e+00    0,000000000e+00    0,000000000e+00    0,000000000e+00
      296000000    9,538749233e-03   -7,677322254e-03   -7,608764172e-01   -1,396191120e-01    0,000000000e+00    0,000000000e+00    0,000000000e+00    0,000000000e+00
      310000000    1,082560793e-02   -1,585304365e-02   -7,131628394e-01    2,985979617e-01    0,000000000e+00    0,000000000e+00    0,000000000e+00    0,000000000e+00
      324000000    1,973898336e-02   -2,668710984e-02   -4,282726943e-01    6,371797919e-01    0,000000000e+00    0,000000000e+00    0,000000000e+00    0,000000000e+00
      338000000    2,532950975e-02   -5,205547065e-02   -8,974945173e-03    7,624944448e-01    0,000000000e+00    0,000000000e+00    0,000000000e+00    0,000000000e+00
      352000000    7,527979556e-03   -8,479326963e-02    4,058859646e-01    6,405907869e-01    0,000000000e+00    0,000000000e+00    0,000000000e+00    0,000000000e+00
      366000000   -3,470898420e-02   -9,599454701e-02    6,905432940e-01    3,126704693e-01    0,000000000e+00    0,000000000e+00    0,000000000e+00    0,000000000e+00
      380000000   -7,110695541e-02   -7,094053924e-02    7,484137416e-01   -1,245444566e-01    0,000000000e+00    0,000000000e+00    0,000000000e+00    0,000000000e+00
      394000000   -7,302694023e-02   -3,233679384e-02    5,477591157e-01   -5,197179317e-01    0,000000000e+00    0,000000000e+00    0,000000000e+00    0,000000000e+00
      408000000   -4,703541845e-02   -1,583565213e-02    1,631146371e-01   -7,335372567e-01    0,000000000e+00    0,000000000e+00    0,000000000e+00    0,000000000e+00
      422000000   -2,835293859e-02   -3,162647039e-02   -2,663297057e-01   -6,965602040e-01    0,000000000e+00    0,000000000e+00    0,000000000e+00    0,000000000e+00
      436000000   -4,032641649e-02   -5,170240253e-02   -6,026444435e-01   -4,334647357e-01    0,000000000e+00    0,000000000e+00    0,000000000e+00    0,000000000e+00
      450000000   -6,754631549e-02   -4,453201964e-02   -7,404201627e-01   -2,461387403e-02    0,000000000e+00    0,000000000e+00    0,000000000e+00    0,000000000e+00
      464000000   -7,440627366e-02   -1,246310677e-02   -6,217389107e-01    3,948672116e-01    0,000000000e+00    0,000000000e+00    0,000000000e+00    0,000000000e+00
      478000000   -4,908875003e-02    1,148371026e-02   -2,866438329e-01    6,671214104e-01    0,000000000e+00    0,000000000e+00    0,000000000e+00    0,000000000e+00
      492000000   -1,641426422e-02    5,973753985e-03    1,347886324e-01    7,040162683e-01    0,000000000e+00    0,000000000e+00    0,000000000e+00    0,000000000e+00
      506000000   -3,708017524e-03   -1,521581877e-02    4,970974922e-01    5,057736635e-01    0,000000000e+00    0,000000000e+00    0,000000000e+00    0,000000000e+00
      520000000   -5,734956823e-03   -2,936044522e-02    6,886025667e-01    1,435623914e-01    0,000000000e+00    0,000000000e+00    0,000000000e+00    0,000000000e+00
      534000000   -3,450765274e-03   -3,607893735e-02    6,445422173e-01   -2,600879967e-01    0,000000000e+00    0,000000000e+00    0,000000000e+00    0,000000000e+00
      548000000    8,326479234e-03   -5,294556916e-02    3,850291073e-01   -5,645423532e-01    0,000000000e+00    0,000000000e+00    0,000000000e+00    0,000000000e+00
      562000000    6,030187011e-03   -8,962048590e-02    9,116341360e-03   -6,721556187e-01    0,000000000e+00    0,000000000e+00    0,000000000e+00    0,000000000e+00
      576000000   -3,137755021e-02   -1,263663918e-01   -3,624594808e-01   -5,611306429e-01    0,000000000e+00    0,000000000e+00    0,000000000e+00    0,000000000e+00
      590000000   -9,502257407e-02   -1,276285797e-01   -6,185145974e-01   -2,726096213e-01    0,000000000e+00    0,000000000e+00    0,000000000e+00    0,000000000e+00
      604000000   -1,431802958e-01   -7,766474783e-02   -6,671835184e-01    1,263095886e-01    0,000000000e+00    0,000000000e+00    0,000000000e+00    0,000000000e+00
      618000000   -1,388720572e-01   -1,103228889e-02   -4,755502939e-01    4,859482646e-01    0,000000000e+00    0,000000000e+00    0,000000000e+00    0,000000000e+00
      632000000   -9,275551885e-02    2,200259082e-02   -1,139805838e-01    6,631786227e-01    0,000000000e+00    0,000000000e+00    0,000000000e+00    0,000000000e+00
      646000000   -5,491032824e-02    1,256517321e-02    2,739349008e-01    6,034988165e-01    0,000000000e+00    0,000000000e+00    0,000000000e+00    0,000000000e+00
      660000000   -4,827100411e-02   -8,247730322e-03    5,573026538e-01    3,394009173e-01    0,000000000e+00    0,000000000e+00    0,000000000e+00    0,000000000e+00
      674000000   -5,574996024e-02   -1,019696146e-02    6,442360282e-01   -3,941372037e-02    0,000000000e+00    0,000000000e+00    0,000000000e+00    0,000000000e+00
      688000000   -5,082041025e-02    2,989443252e-03    4,926294386e-01   -4,019691944e-01    0,000000000e+00    0,000000000e+00    0,000000000e+00    0,000000000e+00
      702000000   -2,654500864e-02    7,420861628e-03    1,619039178e-01   -6,052767634e-01    0,000000000e+00    0,000000000e+00    0,000000000e+00    0,000000000e+00
      716000000   -1,883931458e-03   -9,735011496e-03   -2,184667736e-01   -5,753744245e-01    0,000000000e+00    0,000000000e+00    0,000000000e+00    0,000000000e+00
      730000000    1,015681215e-02   -3,496214747e-02   -5,093059540e-01   -3,333269954e-01    0,000000000e+00    0,000000000e+00    0,000000000e+00    0,000000000e+00
      744000000    1,721248217e-02   -6,040903181e-02   -6,009637117e-01    3,297629207e-02    0,000000000e+00    0,000000000e+00    0,000000000e+00    0,000000000e+00
      758000000    2,221427299e-02   -1,031501144e-01   -4,543399811e-01    3,771067262e-01    0,000000000e+00    0,000000000e+00    0,000000000e+00    0,000000000e+00
      772000000   -4,607948940e-03   -1,742176265e-01   -1,386102736e-01    5,582474470e-01    0,000000000e+00    0,000000000e+00    0,000000000e+00    0,000000000e+00
      786000000   -1,048111618e-01   -2,325302213e-01    2,112349868e-01    5,196204185e-01    0,000000000e+00    0,000000000e+00    0,000000000e+00    0,000000000e+00
      800000000   -2,663850486e-01   -1,929969639e-01    4,720378816e-01    2,756955624e-01    0,000000000e+00    0,000000000e+00    0,000000000e+00    0,000000000e+00
      814000000   -3,648395240e-01    3,986851312e-03    5,078282356e-01   -8,834286779e-02    0,000000000e+00    0,000000000e+00    0,000000000e+00    0,000000000e+00
      828000000   -2,471283674e-01    2,330322713e-01    2,815564275e-01   -3,529117107e-01    0,000000000e+00    0,000000000e+00    0,000000000e+00    0,000000000e+00
      842000000    1,265913527e-02    2,777346671e-01   -1,566475257e-02   -3,630032539e-01    0,000000000e+00    0,000000000e+00    0,000000000e+00    0,000000000e+00
      856000000    2,126488686e-01    1,151908636e-01   -1,878428310e-01   -2,051947713e-01    0,000000000e+00    0,000000000e+00    0,000000000e+00    0,000000000e+00
      870000000    2,384830713e-01   -1,488628983e-01   -2,004145086e-01   -2,560258098e-02    0,000000000e+00    0,000000000e+00    0,000000000e+00    0,000000000e+00
      884000000    3,683684766e-02   -3,876507282e-01   -1,035145968e-01    7,094984502e-02    0,000000000e+00    0,000000000e+00    0,000000000e+00    0,000000000e+00
      898000000   -3,696015477e-01   -3,412186801e-01   -1,731662638e-02    2,776573971e-02    0,000000000e+00    0,000000000e+00    0,000000000e+00    0,000000000e+00
      912000000   -4,671749175e-01    1,366503537e-01   -1,078125909e-01    2,579413541e-02    0,000000000e+00    0,000000000e+00    0,000000000e+00    0,000000000e+00
      926000000   -9,853956103e-02    3,521400094e-01   -1,291839778e-01    1,347276270e-01    0,000000000e+00    0,000000000e+00    0,000000000e+00    0,000000000e+00
      940000000    1,861836910e-01    1,949947178e-01   -3,900078312e-02    2,145504504e-01    0,000000000e+00    0,000000000e+00    0,000000000e+00    0,000000000e+00
      954000000    2,545774579e-01   -4,620248079e-02    8,010777086e-02    2,283634245e-01    0,000000000e+00    0,000000000e+00    0,000000000e+00    0,000000000e+00
      968000000    1,780976802e-01   -2,624633908e-01    1,906973720e-01    1,796300113e-01    0,000000000e+00    0,000000000e+00    0,000000000e+00    0,000000000e+00
      982000000   -1,604567654e-02   -3,926274776e-01    2,817578912e-01    7,914727181e-02    0,000000000e+00    0,000000000e+00    0,000000000e+00    0,000000000e+00
      996000000   -2,728547156e-01   -3,803610206e-01    3,090766668e-01   -7,931605726e-02    0,000000000e+00    0,000000000e+00    0,000000000e+00    0,000000000e+00
     1010000000   -4,679262340e-01   -1,742851287e-01    2,222672105e-01   -2,528138459e-01    0,000000000e+00    0,000000000e+00    0,000000000e+00    0,000000000e+00
     1024000000   -4,561460912e-01    1,196337119e-01    2,232747711e-02   -3,316564560e-01    0,000000000e+00    0,000000000e+00    0,000000000e+00    0,000000000e+00
     1038000000   -2,651141584e-01    2,954729795e-01   -1,734342873e-01   -2,482664883e-01    0,000000000e+00    0,000000000e+00    0,000000000e+00    0,000000000e+00
     1052000000   -3,515876830e-02    3,081021309e-01   -2,573849559e-01   -7,721889764e-02    0,000000000e+00    0,000000000e+00    0,000000000e+00    0,000000000e+00
     1066000000    1,258669198e-01    2,065594792e-01   -2,231947482e-01    8,381189406e-02    0,000000000e+00    0,000000000e+00    0,000000000e+00    0,000000000e+00
     1080000000    2,101403028e-01    4,768647626e-02   -1,221911982e-01    1,930468827e-01    0,000000000e+00    0,000000000e+00    0,000000000e+00    0,000000000e+00
     1094000000    2,046402246e-01   -1,255947351e-01    1,815143414e-02    2,328379899e-01    0,000000000e+00    0,000000000e+00    0,000000000e+00    0,000000000e+00
     1108000000    1,003091559e-01   -2,889035642e-01    1,692710966e-01    2,069032937e-01    0,000000000e+00    0,000000000e+00    0,000000000e+00    0,000000000e+00
     1122000000   -1,034323350e-01   -3,685342669e-01    3,183042109e-01    8,665574342e-02    0,000000000e+00    0,000000000e+00    0,000000000e+00    0,000000000e+00
     1136000000   -3,503328860e-01   -2,678773105e-01    3,908718526e-01   -1,521731466e-01    0,000000000e+00    0,000000000e+00    0,000000000e+00    0,000000000e+00
     1150000000   -4,037375748e-01    3,797744215e-02    2,439961731e-01   -4,380168319e-01    0,000000000e+00    0,000000000e+00    0,000000000e+00    0,000000000e+00
     1164000000   -1,594853699e-01    2,153883874e-01   -9,669167548e-02   -5,163058043e-01    0,000000000e+00    0,000000000e+00    0,000000000e+00    0,000000000e+00
     1178000000    7,096213847e-02    8,301301301e-02   -3,578681350e-01   -3,459432125e-01    0,000000000e+00    0,000000000e+00    0,000000000e+00    0,000000000e+00
     1192000000    7,323028147e-02   -1,753688753e-01   -4,569653869e-01   -8,318828791e-02    0,000000000e+00    0,000000000e+00    0,000000000e+00    0,000000000e+00
     1206000000   -1,624172330e-01   -3,237018287e-01   -3,690859973e-01    1,899386048e-01    0,000000000e+00    0,000000000e+00    0,000000000e+00    0,000000000e+00
     1220000000   -4,533572793e-01   -1,802350730e-01   -1,079066023e-01    3,298719823e-01    0,000000000e+00    0,000000000e+00    0,000000000e+00    0,000000000e+00
     1234000000   -4,674634933e-01    1,641362309e-01    1,431919932e-01    2,252081633e-01    0,000000000e+00    0,000000000e+00    0,000000000e+00    0,000000000e+00
     1248000000   -2,334245443e-01    3,566300869e-01    1,926238090e-01    3,834281862e-02    0,000000000e+00    0,000000000e+00    0,000000000e+00    0,000000000e+00
     1262000000    2,150182845e-03    3,334645927e-01    1,281819195e-01   -7,273434848e-02    0,000000000e+00    0,000000000e+00    0,000000000e+00    0,000000000e+00
     1276000000    1,505609751e-01    1,990002394e-01    4,949154332e-02   -9,594690800e-02    0,000000000e+00    0,000000000e+00    0,000000000e+00    0,000000000e+00
     1290000000    2,166255414e-01    3,454561159e-02    2,750507789e-03   -7,028163224e-02    0,000000000e+00    0,000000000e+00    0,000000000e+00    0,000000000e+00
     1304000000    2,027471811e-01   -1,429004222e-01   -2,663332969e-02   -2,908251062e-02    0,000000000e+00    0,000000000e+00    0,000000000e+00    0,000000000e+00
     1318000000    1,146286130e-01   -3,148421943e-01   -3,483578563e-03    2,169753052e-02    0,000000000e+00    0,000000000e+00    0,000000000e+00    0,000000000e+00
     1332000000   -6,684578955e-02   -4,333262146e-01    4,817398265e-02    6,098445877e-02    0,000000000e+00    0,000000000e+00    0,000000000e+00    0,000000000e+00
     1346000000   -3,306485116e-01   -4,319994152e-01    1,431326866e-01    5,281027034e-02    0,000000000e+00    0,000000000e+00    0,000000000e+00    0,000000000e+00
     1360000000   -5,626615882e-01   -2,385639846e-01    1,126454473e-01   -6,995122880e-02    0,000000000e+00    0,000000000e+00    0,000000000e+00    0,000000000e+00
     1374000000   -6,203648448e-01    3,339854255e-02    1,107229665e-01    5,947370455e-02    0,000000000e+00    0,000000000e+00    0,000000000e+00    0,000000000e+00
     1388000000   -5,139002204e-01    2,984121740e-01    2,170145661e-01    1,418345608e-02    0,000000000e+00    0,000000000e+00    0,000000000e+00    0,000000000e+00
     1402000000   -3,064117432e-01    4,168686271e-01    2,175995111e-01   -8,529943228e-02    0,000000000e+00    0,000000000e+00    0,000000000e+00    0,000000000e+00
     1416000000   -9,802550822e-02    4,218035936e-01    1,832576245e-01   -1,148689091e-01    0,000000000e+00    0,000000000e+00    0,000000000e+00    0,000000000e+00
     1430000000    6,694410741e-02    3,315661848e-01    1,526541710e-01   -1,339996904e-01    0,000000000e+00    0,000000000e+00    0,000000000e+00    0,000000000e+00
     1444000000    1,743953675e-01    1,990990043e-01    1,497777402e-01   -9,727782756e-02    0,000000000e+00    0,000000000e+00    0,000000000e+00    0,000000000e+00
     1458000000    2,224692702e-01    3,844984248e-02    1,386059076e-01   -8,530686796e-02    0,000000000e+00    0,000000000e+00    0,000000000e+00    0,000000000e+00
     1472000000    2,079043686e-01   -1,443382949e-01    1,636569798e-01   -6,360004842e-02    0,000000000e+00    0,000000000e+00    0,000000000e+00    0,000000000e+00
     1486000000    1,058561727e-01   -3,221072555e-01    1,566508710e-01    1,187306014e-03    0,000000000e+00    0,000000000e+00    0,000000000e+00    0,000000000e+00
     1500000000   -8,096409589e-02   -4,579782486e-01    2,128963619e-01    6,340318918e-02    0,000000000e+00    0,000000000e+00    0,000000000e+00    0,000000000e+00
