! NanoVNA-App
! Date: 2025-09-25 14:21:06
! Start: 100MHz Stop: 1,5GHz Points: 101
! S-Parameter data: F S11 S21 S12 S22
# Hz S RI R 50
!     Frequency           S11_Real           S11_Imag           S21_Real           S21_Imag           S12_Real           S12_Imag           S22_Real           S22_Imag
      100000000   -2,908569388e-02   -4,122858867e-03    3,744453192e-01   -7,221159935e-01    0,000000000e+00    0,000000000e+00    0,000000000e+00    0,000000000e+00
      114000000   -1,659000106e-02    1,158462558e-02   -8,904079348e-02   -8,058462143e-01    0,000000000e+00    0,000000000e+00    0,000000000e+00    0,000000000e+00
      128000000    3,399770707e-03    1,056017820e-02   -5,145654082e-01   -6,210744381e-01    0,000000000e+00    0,000000000e+00    0,000000000e+00    0,000000000e+00
      142000000    1,445985399e-02   -3,069560044e-03   -7,675151229e-01   -2,370078713e-01    0,000000000e+00    0,000000000e+00    0,000000000e+00    0,000000000e+00
      156000000    1,440883335e-02   -1,508884039e-02   -7,647394538e-01    2,201780081e-01    0,000000000e+00    0,000000000e+00    0,000000000e+00    0,000000000e+00
      170000000    1,657525450e-02   -2,250051498e-02   -5,185624361e-01    6,048076153e-01    0,000000000e+00    0,000000000e+00    0,000000000e+00    0,000000000e+00
      184000000    2,098088339e-02   -3,709366545e-02   -1,019040793e-01    7,864378691e-01    0,000000000e+00    0,000000000e+00    0,000000000e+00    0,000000000e+00
      198000000    1,303595677e-02   -6,262598187e-02    3,433798552e-01    7,134321928e-01    0,000000000e+00    0,000000000e+00    0,000000000e+00    0,000000000e+00
      212000000   -1,878869906e-02   -8,172091842e-02    6,784027219e-01    4,103977084e-01    0,000000000e+00    0,000000000e+00    0,000000000e+00    0,000000000e+00
      226000000   -6,211521849e-02   -6,965131313e-02    7,961681485e-01   -2,981394902e-02    0,000000000e+00    0,000000000e+00    0,000000000e+00    0,000000000e+00
      240000000   -8,313835412e-02   -2,601520345e-02    6,470834613e-01   -4,666807950e-01    0,000000000e+00    0,000000000e+00    0,000000000e+00    0,000000000e+00
      254000000   -6,432700157e-02    1,732741669e-02    2,769917250e-01   -7,436288595e-01    0,000000000e+00    0,000000000e+00    0,000000000e+00    0,000000000e+00
      268000000   -2,428132854e-02    2,946835384e-02   -1,770537496e-01   -7,649529576e-01    0,000000000e+00    0,000000000e+00    0,000000000e+00    0,000000000e+00
      282000000    4,197218921e-03    1,206569932e-02   -5,623039603e-01   -5,375761390e-01    0,000000000e+00    0,000000000e+00    0,000000000e+00    0,000000000e+00
      296000000    9,604426101e-03   -7,603613660e-03   -7,607889771e-01   -1,395709366e-01    0,000000000e+00    0,000000000e+00    0,000000000e+00    0,000000000e+00
      310000000    1,104207616e-02   -1,620377228e-02   -7,141070962e-01    2,976746261e-01    0,000000000e+00    0,000000000e+00    0,000000000e+00    0,000000000e+00
      324000000    1,941910386e-02   -2,663601376e-02   -4,284768105e-01    6,370304823e-01    0,000000000e+00    0,000000000e+00    0,000000000e+00    0,000000000e+00
      338000000    2,578029037e-02   -5,200704187e-02   -9,273232892e-03    7,633911967e-01    0,000000000e+00    0,000000000e+00    0,000000000e+00    0,000000000e+00
      352000000    7,277958095e-03   -8,471527696e-02    4,058875144e-01    6,401804686e-01    0,000000000e+00    0,000000000e+00    0,000000000e+00    0,000000000e+00
      366000000   -3,497723490e-02   -9,611817449e-02    6,904587150e-01    3,116115630e-01    0,000000000e+00    0,000000000e+00    0,000000000e+00    0,000000000e+00
      380000000   -7,160072774e-02   -7,148198783e-02    7,481122613e-01   -1,248511672e-01    0,000000000e+00    0,000000000e+00    0,000000000e+00    0,000000000e+00
      394000000   -7,318153977e-02   -3,212343529e-02    5,480765700e-01   -5,213530064e-01    0,000000000e+00    0,000000000e+00    0,000000000e+00    0,000000000e+00
      408000000   -4,705265909e-02   -1,547223609e-02    1,624129713e-01   -7,319883704e-01    0,000000000e+00    0,000000000e+00    0,000000000e+00    0,000000000e+00
      422000000   -2,820298821e-02   -3,152549639e-02   -2,659524977e-01   -6,958140135e-01    0,000000000e+00    0,000000000e+00    0,000000000e+00    0,000000000e+00
      436000000   -4,011541605e-02   -5,186602473e-02   -6,023635864e-01   -4,335226417e-01    0,000000000e+00    0,000000000e+00    0,000000000e+00    0,000000000e+00
      450000000   -6,762126088e-02   -4,461983219e-02   -7,402362227e-01   -2,473512292e-02    0,000000000e+00    0,000000000e+00    0,000000000e+00    0,000000000e+00
      464000000   -7,458017766e-02   -1,179465652e-02   -6,218611002e-01    3,949185312e-01    0,000000000e+00    0,000000000e+00    0,000000000e+00    0,000000000e+00
      478000000   -4,925165325e-02    1,201288123e-02   -2,867115736e-01    6,675507426e-01    0,000000000e+00    0,000000000e+00    0,000000000e+00    0,000000000e+00
      492000000   -1,720059477e-02    6,669936236e-03    1,340556145e-01    7,036675811e-01    0,000000000e+00    0,000000000e+00    0,000000000e+00    0,000000000e+00
      506000000   -3,838635748e-03   -1,543324813e-02    4,970877767e-01    5,064604878e-01    0,000000000e+00    0,000000000e+00    0,000000000e+00    0,000000000e+00
      520000000   -5,726202391e-03   -2,962782234e-02    6,897677183e-01    1,438971013e-01    0,000000000e+00    0,000000000e+00    0,000000000e+00    0,000000000e+00
      534000000   -2,956765238e-03   -3,569111973e-02    6,446989179e-01   -2,594214380e-01    0,000000000e+00    0,000000000e+00    0,000000000e+00    0,000000000e+00
      548000000    8,256840520e-03   -5,303173885e-02    3,849137425e-01   -5,649939775e-01    0,000000000e+00    0,000000000e+00    0,000000000e+00    0,000000000e+00
      562000000    5,485298578e-03   -8,970080316e-02    7,301575970e-03   -6,719515324e-01    0,000000000e+00    0,000000000e+00    0,000000000e+00    0,000000000e+00
      576000000   -3,137009963e-02   -1,267304868e-01   -3,628875315e-01   -5,613371134e-01    0,000000000e+00    0,000000000e+00    0,000000000e+00    0,000000000e+00
      590000000   -9,498628229e-02   -1,274769455e-01   -6,160967946e-01   -2,736780941e-01    0,000000000e+00    0,000000000e+00    0,000000000e+00    0,000000000e+00
      604000000   -1,433257610e-01   -7,777979970e-02   -6,678960919e-01    1,264788806e-01    0,000000000e+00    0,000000000e+00    0,000000000e+00    0,000000000e+00
      618000000   -1,377031654e-01   -1,134655066e-02   -4,746620357e-01    4,855662584e-01    0,000000000e+00    0,000000000e+00    0,000000000e+00    0,000000000e+00
      632000000   -9,338011593e-02    2,139392309e-02   -1,131363511e-01    6,633557081e-01    0,000000000e+00    0,000000000e+00    0,000000000e+00    0,000000000e+00
      646000000   -5,569922552e-02    1,239178982e-02    2,741622329e-01    6,033154130e-01    0,000000000e+00    0,000000000e+00    0,000000000e+00    0,000000000e+00
      660000000   -4,724095389e-02   -8,349291049e-03    5,575878620e-01    3,404484689e-01    0,000000000e+00    0,000000000e+00    0,000000000e+00    0,000000000e+00
      674000000   -5,520245433e-02   -1,062293444e-02    6,447037458e-01   -3,978774324e-02    0,000000000e+00    0,000000000e+00    0,000000000e+00    0,000000000e+00
      688000000   -5,047575384e-02    2,599499188e-03    4,933179319e-01   -4,022347927e-01    0,000000000e+00    0,000000000e+00    0,000000000e+00    0,000000000e+00
      702000000   -2,621624805e-02    8,788495325e-03    1,620634645e-01   -6,078559160e-01    0,000000000e+00    0,000000000e+00    0,000000000e+00    0,000000000e+00
      716000000   -2,275923267e-03   -8,334460668e-03   -2,188029736e-01   -5,747832060e-01    0,000000000e+00    0,000000000e+00    0,000000000e+00    0,000000000e+00
      730000000    1,043192297e-02   -3,422582522e-02   -5,094256997e-01   -3,328339159e-01    0,000000000e+00    0,000000000e+00    0,000000000e+00    0,000000000e+00
      744000000    1,704020984e-02   -6,021262333e-02   -6,006844640e-01    3,306982666e-02    0,000000000e+00    0,000000000e+00    0,000000000e+00    0,000000000e+00
      758000000    2,194985561e-02   -1,029261425e-01   -4,539267719e-01    3,771487176e-01    0,000000000e+00    0,000000000e+00    0,000000000e+00    0,000000000e+00
      772000000   -5,337003618e-03   -1,731070131e-01   -1,399188787e-01    5,572797656e-01    0,000000000e+00    0,000000000e+00    0,000000000e+00    0,000000000e+00
      786000000   -1,043564677e-01   -2,322128117e-01    2,115074992e-01    5,196185708e-01    0,000000000e+00    0,000000000e+00    0,000000000e+00    0,000000000e+00
      800000000   -2,654826939e-01   -1,920700967e-01    4,713499546e-01    2,757460475e-01    0,000000000e+00    0,000000000e+00    0,000000000e+00    0,000000000e+00
      814000000   -3,639218211e-01    3,155617975e-03    5,078211427e-01   -8,845017850e-02    0,000000000e+00    0,000000000e+00    0,000000000e+00    0,000000000e+00
      828000000   -2,481595129e-01    2,332923859e-01    2,816764116e-01   -3,534890115e-01    0,000000000e+00    0,000000000e+00    0,000000000e+00    0,000000000e+00
      842000000    1,332649216e-02    2,781703472e-01   -1,561800204e-02   -3,623580337e-01    0,000000000e+00    0,000000000e+00    0,000000000e+00    0,000000000e+00
      856000000    2,124945372e-01    1,149885729e-01   -1,874099076e-01   -2,051023543e-01    0,000000000e+00    0,000000000e+00    0,000000000e+00    0,000000000e+00
      870000000    2,386257201e-01   -1,489532143e-01   -2,003225237e-01   -2,570407651e-02    0,000000000e+00    0,000000000e+00    0,000000000e+00    0,000000000e+00
      884000000    3,786678240e-02   -3,871607780e-01   -1,041917950e-01    7,027699798e-02    0,000000000e+00    0,000000000e+00    0,000000000e+00    0,000000000e+00
      898000000   -3,700371683e-01   -3,407879174e-01   -1,704898104e-02    2,795620449e-02    0,000000000e+00    0,000000000e+00    0,000000000e+00    0,000000000e+00
      912000000   -4,674353898e-01    1,379917860e-01   -1,089460030e-01    2,584655397e-02    0,000000000e+00    0,000000000e+00    0,000000000e+00    0,000000000e+00
      926000000   -9,590872377e-02    3,494437635e-01   -1,303091049e-01    1,332465261e-01    0,000000000e+00    0,000000000e+00    0,000000000e+00    0,000000000e+00
      940000000    1,855856478e-01    1,925320476e-01   -3,777174279e-02    2,157714963e-01    0,000000000e+00    0,000000000e+00    0,000000000e+00    0,000000000e+00
      954000000    2,522293329e-01   -4,893769696e-02    7,976269722e-02    2,276931703e-01    0,000000000e+00    0,000000000e+00    0,000000000e+00    0,000000000e+00
      968000000    1,736838073e-01   -2,640771270e-01    1,924349666e-01    1,801418364e-01    0,000000000e+00    0,000000000e+00    0,000000000e+00    0,000000000e+00
      982000000   -1,585281640e-02   -3,961953819e-01    2,812610567e-01    7,973563671e-02    0,000000000e+00    0,000000000e+00    0,000000000e+00    0,000000000e+00
      996000000   -2,713187039e-01   -3,786252439e-01    3,078030944e-01   -7,987079769e-02    0,000000000e+00    0,000000000e+00    0,000000000e+00    0,000000000e+00
     1010000000   -4,659877419e-01   -1,707282215e-01    2,214961052e-01   -2,533892393e-01    0,000000000e+00    0,000000000e+00    0,000000000e+00    0,000000000e+00
     1024000000   -4,598007202e-01    1,223175377e-01    2,207585238e-02   -3,321937323e-01    0,000000000e+00    0,000000000e+00    0,000000000e+00    0,000000000e+00
     1038000000   -2,673286796e-01    2,997270823e-01   -1,726205498e-01   -2,504232824e-01    0,000000000e+00    0,000000000e+00    0,000000000e+00    0,000000000e+00
     1052000000   -3,421888128e-02    3,083121181e-01   -2,553840280e-01   -7,799302042e-02    0,000000000e+00    0,000000000e+00    0,000000000e+00    0,000000000e+00
     1066000000    1,304646432e-01    2,057488859e-01   -2,249694020e-01    8,580252528e-02    0,000000000e+00    0,000000000e+00    0,000000000e+00    0,000000000e+00
     1080000000    2,091563195e-01    4,934134707e-02   -1,207929626e-01    1,918628216e-01    0,000000000e+00    0,000000000e+00    0,000000000e+00    0,000000000e+00
     1094000000    2,027699053e-01   -1,297333241e-01    1,859807968e-02    2,344647944e-01    0,000000000e+00    0,000000000e+00    0,000000000e+00    0,000000000e+00
     1108000000    9,895279258e-02   -2,868047655e-01    1,703342944e-01    2,074884325e-01    0,000000000e+00    0,000000000e+00    0,000000000e+00    0,000000000e+00
     1122000000   -1,032616794e-01   -3,708294630e-01    3,143113554e-01    9,072537720e-02    0,000000000e+00    0,000000000e+00    0,000000000e+00    0,000000000e+00
     1136000000   -3,432202339e-01   -2,720392644e-01    3,918369114e-01   -1,541953832e-01    0,000000000e+00    0,000000000e+00    0,000000000e+00    0,000000000e+00
     1150000000   -4,123645425e-01    3,349195793e-02    2,420026511e-01   -4,395020604e-01    0,000000000e+00    0,000000000e+00    0,000000000e+00    0,000000000e+00
     1164000000   -1,629286855e-01    2,184543312e-01   -9,968166798e-02   -5,144057274e-01    0,000000000e+00    0,000000000e+00    0,000000000e+00    0,000000000e+00
     1178000000    7,366439700e-02    8,671491593e-02   -3,578757048e-01   -3,426554501e-01    0,000000000e+00    0,000000000e+00    0,000000000e+00    0,000000000e+00
     1192000000    7,717808336e-02   -1,760254353e-01   -4,502544701e-01   -8,499893546e-02    0,000000000e+00    0,000000000e+00    0,000000000e+00    0,000000000e+00
     1206000000   -1,634681821e-01   -3,276340365e-01   -3,699099720e-01    1,886439472e-01    0,000000000e+00    0,000000000e+00    0,000000000e+00    0,000000000e+00
     1220000000   -4,532789886e-01   -1,732532233e-01   -1,051168814e-01    3,306423426e-01    0,000000000e+00    0,000000000e+00    0,000000000e+00    0,000000000e+00
     1234000000   -4,758100808e-01    1,677199155e-01    1,384234279e-01    2,218825072e-01    0,000000000e+00    0,000000000e+00    0,000000000e+00    0,000000000e+00
     1248000000   -2,390883714e-01    3,527057171e-01    1,939063966e-01    3,551062569e-02    0,000000000e+00    0,000000000e+00    0,000000000e+00    0,000000000e+00
     1262000000    2,840375761e-03    3,333077729e-01    1,278157234e-01   -7,112305611e-02    0,000000000e+00    0,000000000e+00    0,000000000e+00    0,000000000e+00
     1276000000    1,500285268e-01    2,005879134e-01    4,766028374e-02   -9,816156328e-02    0,000000000e+00    0,000000000e+00    0,000000000e+00    0,000000000e+00
     1290000000    2,165211439e-01    3,241679817e-02   -1,073056366e-03   -7,309543341e-02    0,000000000e+00    0,000000000e+00    0,000000000e+00    0,000000000e+00
     1304000000    2,037731558e-01   -1,433104724e-01   -2,109754644e-02   -2,929784730e-02    0,000000000e+00    0,000000000e+00    0,000000000e+00    0,000000000e+00
     1318000000    1,093112677e-01   -3,121299744e-01   -1,090131979e-02    1,700725965e-02    0,000000000e+00    0,000000000e+00    0,000000000e+00    0,000000000e+00
     1332000000   -6,830560416e-02   -4,329521060e-01    4,519493505e-02    6,039631739e-02    0,000000000e+00    0,000000000e+00    0,000000000e+00    0,000000000e+00
     1346000000   -3,299055994e-01   -4,359236360e-01    1,486390233e-01    3,818841651e-02    0,000000000e+00    0,000000000e+00    0,000000000e+00    0,000000000e+00
     1360000000   -5,483823419e-01   -2,475653291e-01    1,260207593e-01   -7,887098938e-02    0,000000000e+00    0,000000000e+00    0,000000000e+00    0,000000000e+00
     1374000000   -6,128017306e-01    3,306162730e-02    1,164603233e-01    6,496255845e-02    0,000000000e+00    0,000000000e+00    0,000000000e+00    0,000000000e+00
     1388000000   -5,165461898e-01    2,830882072e-01    2,231157720e-01   -8,939376101e-03    0,000000000e+00    0,000000000e+00    0,000000000e+00    0,000000000e+00
     1402000000   -3,108671010e-01    4,211127758e-01    2,184426636e-01   -7,216848433e-02    0,000000000e+00    0,000000000e+00    0,000000000e+00    0,000000000e+00
     1416000000   -9,016352147e-02    4,219385684e-01    1,950711757e-01   -1,066808328e-01    0,000000000e+00    0,000000000e+00    0,000000000e+00    0,000000000e+00
     1430000000    7,118225098e-02    3,297259510e-01    1,851690263e-01   -1,038463414e-01    0,000000000e+00    0,000000000e+00    0,000000000e+00    0,000000000e+00
     1444000000    1,779718995e-01    1,996639520e-01    1,566417664e-01   -9,626001120e-02    0,000000000e+00    0,000000000e+00    0,000000000e+00    0,000000000e+00
     1458000000    2,229267508e-01    3,816201910e-02    1,485704333e-01   -7,270811498e-02    0,000000000e+00    0,000000000e+00    0,000000000e+00    0,000000000e+00
     1472000000    2,002561837e-01   -1,406597942e-01    1,402507424e-01   -4,316908866e-02    0,000000000e+00    0,000000000e+00    0,000000000e+00    0,000000000e+00
     1486000000    1,094529703e-01   -3,315013647e-01    1,594423056e-01   -1,606794819e-02    0,000000000e+00    0,000000000e+00    0,000000000e+00    0,000000000e+00
     1500000000   -9,383565187e-02   -4,596409798e-01    2,060933709e-01    7,011826336e-02    0,000000000e+00    0,000000000e+00    0,000000000e+00    0,000000000e+00
