! NanoVNA-App
! Date: 2025-09-25 14:21:18
! Start: 100MHz Stop: 1,5GHz Points: 101
! S-Parameter data: F S11 S21 S12 S22
# Hz S RI R 50
!     Frequency           S11_Real           S11_Imag           S21_Real           S21_Imag           S12_Real           S12_Imag           S22_Real           S22_Imag
      100000000   -2,910002135e-02   -4,135485273e-03    3,744419217e-01   -7,220446467e-01    0,000000000e+00    0,000000000e+00    0,000000000e+00    0,000000000e+00
      114000000   -1,661312766e-02    1,162902452e-02   -8,878652751e-02   -8,057858944e-01    0,000000000e+00    0,000000000e+00    0,000000000e+00    0,000000000e+00
      128000000    3,423470538e-03    1,057744864e-02   -5,148159862e-01   -6,210374832e-01    0,000000000e+00    0,000000000e+00    0,000000000e+00    0,000000000e+00
      142000000    1,446478069e-02   -3,057106398e-03   -7,675873637e-01   -2,368791401e-01    0,000000000e+00    0,000000000e+00    0,000000000e+00    0,000000000e+00
      156000000    1,555188373e-02   -1,457866374e-02   -7,729015350e-01    2,232968807e-01    0,000000000e+00    0,000000000e+00    0,000000000e+00    0,000000000e+00
      170000000    1,652419940e-02   -2,255941555e-02   -5,187589526e-01    6,050291061e-01    0,000000000e+00    0,000000000e+00    0,000000000e+00    0,000000000e+00
      184000000    2,098650299e-02   -3,708841652e-02   -1,017108187e-01    7,863320708e-01    0,000000000e+00    0,000000000e+00    0,000000000e+00    0,000000000e+00
      198000000    1,301721856e-02   -6,263288856e-02    3,430370390e-01    7,130841017e-01    0,000000000e+00    0,000000000e+00    0,000000000e+00    0,000000000e+00
      212000000   -1,874173991e-02   -8,168195933e-02    6,783745885e-01    4,105077684e-01    0,000000000e+00    0,000000000e+00    0,000000000e+00    0,000000000e+00
      226000000   -6,209601089e-02   -6,963090599e-02    7,961173058e-01   -2,978404798e-02    0,000000000e+00    0,000000000e+00    0,000000000e+00    0,000000000e+00
      240000000   -8,315078169e-02   -2,602289617e-02    6,470044851e-01   -4,665136337e-01    0,000000000e+00    0,000000000e+00    0,000000000e+00    0,000000000e+00
      254000000   -6,431183964e-02    1,730348170e-02    2,772932649e-01   -7,435064912e-01    0,000000000e+00    0,000000000e+00    0,000000000e+00    0,000000000e+00
      268000000   -2,422842383e-02    2,942747809e-02   -1,769068688e-01   -7,651360035e-01    0,000000000e+00    0,000000000e+00    0,000000000e+00    0,000000000e+00
      282000000    4,173540510e-03    1,208123844e-02   -5,627951622e-01   -5,366973877e-01    0,000000000e+00    0,000000000e+00    0,000000000e+00    0,000000000e+00
      296000000    9,553848766e-03   -7,630258333e-03   -7,607498765e-01   -1,393688619e-01    0,000000000e+00    0,000000000e+00    0,000000000e+00    0,000000000e+00
      310000000    1,095260959e-02   -1,602015272e-02   -7,140288353e-01    2,978708744e-01    0,000000000e+00    0,000000000e+00    0,000000000e+00    0,000000000e+00
      324000000    1,945727319e-02   -2,644660883e-02   -4,285810888e-01    6,379891038e-01    0,000000000e+00    0,000000000e+00    0,000000000e+00    0,000000000e+00
      338000000    2,549514547e-02   -5,198507383e-02   -1,141669601e-02    7,606853247e-01    0,000000000e+00    0,000000000e+00    0,000000000e+00    0,000000000e+00
      352000000    7,262774277e-03   -8,502815664e-02    4,051685333e-01    6,407939792e-01    0,000000000e+00    0,000000000e+00    0,000000000e+00    0,000000000e+00
      366000000   -3,466886654e-02   -9,629557282e-02    6,911984086e-01    3,118716478e-01    0,000000000e+00    0,000000000e+00    0,000000000e+00    0,000000000e+00
      380000000   -7,129058987e-02   -7,109112293e-02    7,483057976e-01   -1,244807839e-01    0,000000000e+00    0,000000000e+00    0,000000000e+00    0,000000000e+00
      394000000   -7,320617884e-02   -3,232987970e-02    5,477035642e-01   -5,211682320e-01    0,000000000e+00    0,000000000e+00    0,000000000e+00    0,000000000e+00
      408000000   -4,712982476e-02   -1,568518765e-02    1,623331308e-01   -7,314006090e-01    0,000000000e+00    0,000000000e+00    0,000000000e+00    0,000000000e+00
      422000000   -2,847607061e-02   -3,138102219e-02   -2,661424875e-01   -6,960277557e-01    0,000000000e+00    0,000000000e+00    0,000000000e+00    0,000000000e+00
      436000000   -4,024665430e-02   -5,196170509e-02   -6,021559834e-01   -4,340128601e-01    0,000000000e+00    0,000000000e+00    0,000000000e+00    0,000000000e+00
      450000000   -6,768011302e-02   -4,474804923e-02   -7,406543493e-01   -2,483398095e-02    0,000000000e+00    0,000000000e+00    0,000000000e+00    0,000000000e+00
      464000000   -7,415547222e-02   -1,242536586e-02   -6,216222048e-01    3,948883414e-01    0,000000000e+00    0,000000000e+00    0,000000000e+00    0,000000000e+00
      478000000   -4,897470400e-02    1,167554315e-02   -2,860939205e-01    6,676994562e-01    0,000000000e+00    0,000000000e+00    0,000000000e+00    0,000000000e+00
      492000000   -1,688832045e-02    6,228826474e-03    1,340715438e-01    7,035025954e-01    0,000000000e+00    0,000000000e+00    0,000000000e+00    0,000000000e+00
      506000000   -3,766412847e-03   -1,495060232e-02    4,969369173e-01    5,061826110e-01    0,000000000e+00    0,000000000e+00    0,000000000e+00    0,000000000e+00
      520000000   -6,071754731e-03   -2,942351811e-02    6,894714832e-01    1,442971230e-01    0,000000000e+00    0,000000000e+00    0,000000000e+00    0,000000000e+00
      534000000   -3,404352348e-03   -3,609682247e-02    6,445530057e-01   -2,600006759e-01    0,000000000e+00    0,000000000e+00    0,000000000e+00    0,000000000e+00
      548000000    8,057743311e-03   -5,274946988e-02    3,849103153e-01   -5,648365021e-01    0,000000000e+00    0,000000000e+00    0,000000000e+00    0,000000000e+00
      562000000    5,516600795e-03   -8,963053674e-02    8,171919733e-03   -6,718907952e-01    0,000000000e+00    0,000000000e+00    0,000000000e+00    0,000000000e+00
      576000000   -3,157608956e-02   -1,260814518e-01   -3,627218902e-01   -5,614393353e-01    0,000000000e+00    0,000000000e+00    0,000000000e+00    0,000000000e+00
      590000000   -9,488815814e-02   -1,278490275e-01   -6,163926125e-01   -2,707376182e-01    0,000000000e+00    0,000000000e+00    0,000000000e+00    0,000000000e+00
      604000000   -1,432408690e-01   -7,826846093e-02   -6,672904491e-01    1,257321090e-01    0,000000000e+00    0,000000000e+00    0,000000000e+00    0,000000000e+00
      618000000   -1,378610581e-01   -1,147755608e-02   -4,744149745e-01    4,857344031e-01    0,000000000e+00    0,000000000e+00    0,000000000e+00    0,000000000e+00
      632000000   -9,352339059e-02    2,134625241e-02   -1,131315157e-01    6,623789072e-01    0,000000000e+00    0,000000000e+00    0,000000000e+00    0,000000000e+00
      646000000   -5,505955592e-02    1,177258510e-02    2,731789052e-01    6,036912799e-01    0,000000000e+00    0,000000000e+00    0,000000000e+00    0,000000000e+00
      660000000   -4,872154444e-02   -8,413749747e-03    5,574756265e-01    3,413215876e-01    0,000000000e+00    0,000000000e+00    0,000000000e+00    0,000000000e+00
      674000000   -5,550062656e-02   -1,015207078e-02    6,444087029e-01   -3,964186460e-02    0,000000000e+00    0,000000000e+00    0,000000000e+00    0,000000000e+00
      688000000   -5,027271807e-02    2,534063999e-03    4,934261441e-01   -4,016647637e-01    0,000000000e+00    0,000000000e+00    0,000000000e+00    0,000000000e+00
      702000000   -2,536252514e-02    7,825103588e-03    1,590134054e-01   -6,068084836e-01    0,000000000e+00    0,000000000e+00    0,000000000e+00    0,000000000e+00
      716000000   -1,455952879e-03   -9,034478106e-03   -2,187421918e-01   -5,760987997e-01    0,000000000e+00    0,000000000e+00    0,000000000e+00    0,000000000e+00
      730000000    9,279616177e-03   -3,472568840e-02   -5,095900893e-01   -3,330513537e-01    0,000000000e+00    0,000000000e+00    0,000000000e+00    0,000000000e+00
      744000000    1,634462550e-02   -6,154816598e-02   -6,006209254e-01    3,305013105e-02    0,000000000e+00    0,000000000e+00    0,000000000e+00    0,000000000e+00
      758000000    2,160278708e-02   -1,032741666e-01   -4,540844560e-01    3,773410916e-01    0,000000000e+00    0,000000000e+00    0,000000000e+00    0,000000000e+00
      772000000   -5,625762511e-03   -1,739002615e-01   -1,392527670e-01    5,580768585e-01    0,000000000e+00    0,000000000e+00    0,000000000e+00    0,000000000e+00
      786000000   -1,056026593e-01   -2,331836224e-01    2,120079994e-01    5,190293193e-01    0,000000000e+00    0,000000000e+00    0,000000000e+00    0,000000000e+00
      800000000   -2,663359642e-01   -1,921463609e-01    4,722088873e-01    2,753615081e-01    0,000000000e+00    0,000000000e+00    0,000000000e+00    0,000000000e+00
      814000000   -3,646402955e-01    2,934074029e-03    5,075707436e-01   -8,884502947e-02    0,000000000e+00    0,000000000e+00    0,000000000e+00    0,000000000e+00
      828000000   -2,476188093e-01    2,336544991e-01    2,801633179e-01   -3,532689810e-01    0,000000000e+00    0,000000000e+00    0,000000000e+00    0,000000000e+00
      842000000    1,300910860e-02    2,775138617e-01   -1,603384875e-02   -3,630709052e-01    0,000000000e+00    0,000000000e+00    0,000000000e+00    0,000000000e+00
      856000000    2,122512013e-01    1,154424399e-01   -1,877854615e-01   -2,045460194e-01    0,000000000e+00    0,000000000e+00    0,000000000e+00    0,000000000e+00
      870000000    2,384045273e-01   -1,486995965e-01   -2,006707042e-01   -2,602991089e-02    0,000000000e+00    0,000000000e+00    0,000000000e+00    0,000000000e+00
      884000000    3,841281310e-02   -3,868042231e-01   -1,036192253e-01    7,042422146e-02    0,000000000e+00    0,000000000e+00    0,000000000e+00    0,000000000e+00
      898000000   -3,682242334e-01   -3,413015902e-01   -1,607477479e-02    2,763892338e-02    0,000000000e+00    0,000000000e+00    0,000000000e+00    0,000000000e+00
      912000000   -4,671795368e-01    1,384943873e-01   -1,096114665e-01    4,030868039e-02    0,000000000e+00    0,000000000e+00    0,000000000e+00    0,000000000e+00
      926000000   -9,474256635e-02    3,501442075e-01   -1,273901761e-01    1,335338056e-01    0,000000000e+00    0,000000000e+00    0,000000000e+00    0,000000000e+00
      940000000    1,818247437e-01    1,927863508e-01   -4,031035304e-02    2,160265446e-01    0,000000000e+00    0,000000000e+00    0,000000000e+00    0,000000000e+00
      954000000    2,541386187e-01   -4,598687589e-02    7,949744165e-02    2,280663699e-01    0,000000000e+00    0,000000000e+00    0,000000000e+00    0,000000000e+00
      968000000    1,781072021e-01   -2,635715306e-01    1,917839348e-01    1,801102757e-01    0,000000000e+00    0,000000000e+00    0,000000000e+00    0,000000000e+00
      982000000   -2,009561285e-02   -3,931084871e-01    2,803196013e-01    7,984695584e-02    0,000000000e+00    0,000000000e+00    0,000000000e+00    0,000000000e+00
      996000000   -2,709190845e-01   -3,752956986e-01    3,092931211e-01   -7,975389063e-02    0,000000000e+00    0,000000000e+00    0,000000000e+00    0,000000000e+00
     1010000000   -4,673679471e-01   -1,692579687e-01    2,225365490e-01   -2,519490719e-01    0,000000000e+00    0,000000000e+00    0,000000000e+00    0,000000000e+00
     1024000000   -4,604271948e-01    1,204162613e-01    2,196830325e-02   -3,299182355e-01    0,000000000e+00    0,000000000e+00    0,000000000e+00    0,000000000e+00
     1038000000   -2,668972909e-01    2,999969721e-01   -1,748137623e-01   -2,499017864e-01    0,000000000e+00    0,000000000e+00    0,000000000e+00    0,000000000e+00
     1052000000   -3,954653814e-02    3,072916865e-01   -2,557286024e-01   -7,828832418e-02    0,000000000e+00    0,000000000e+00    0,000000000e+00    0,000000000e+00
     1066000000    1,277441084e-01    2,079452872e-01   -2,254686803e-01    8,565096557e-02    0,000000000e+00    0,000000000e+00    0,000000000e+00    0,000000000e+00
     1080000000    2,087348849e-01    4,522093385e-02   -1,217226014e-01    1,932015270e-01    0,000000000e+00    0,000000000e+00    0,000000000e+00    0,000000000e+00
     1094000000    2,037413120e-01   -1,254419982e-01    1,695015281e-02    2,339251339e-01    0,000000000e+00    0,000000000e+00    0,000000000e+00    0,000000000e+00
     1108000000    1,013597921e-01   -2,843447626e-01    1,675597876e-01    2,067642361e-01    0,000000000e+00    0,000000000e+00    0,000000000e+00    0,000000000e+00
     1122000000   -9,850488603e-02   -3,701725304e-01    3,158201575e-01    8,988344669e-02    0,000000000e+00    0,000000000e+00    0,000000000e+00    0,000000000e+00
     1136000000   -3,423118591e-01   -2,692763805e-01    3,919584155e-01   -1,487196088e-01    0,000000000e+00    0,000000000e+00    0,000000000e+00    0,000000000e+00
     1150000000   -4,115752578e-01    3,289720416e-02    2,415037900e-01   -4,361761510e-01    0,000000000e+00    0,000000000e+00    0,000000000e+00    0,000000000e+00
     1164000000   -1,594085246e-01    2,135531157e-01   -9,256364405e-02   -5,169213414e-01    0,000000000e+00    0,000000000e+00    0,000000000e+00    0,000000000e+00
     1178000000    7,386513054e-02    8,630037308e-02   -3,576028943e-01   -3,472309113e-01    0,000000000e+00    0,000000000e+00    0,000000000e+00    0,000000000e+00
     1192000000    7,332165539e-02   -1,762073338e-01   -4,530053139e-01   -8,316623420e-02    0,000000000e+00    0,000000000e+00    0,000000000e+00    0,000000000e+00
     1206000000   -1,644801348e-01   -3,249981999e-01   -3,703656197e-01    1,933687925e-01    0,000000000e+00    0,000000000e+00    0,000000000e+00    0,000000000e+00
     1220000000   -4,537583292e-01   -1,748159975e-01   -1,030345187e-01    3,289389908e-01    0,000000000e+00    0,000000000e+00    0,000000000e+00    0,000000000e+00
     1234000000   -4,696021080e-01    1,706538051e-01    1,435523033e-01    2,239135057e-01    0,000000000e+00    0,000000000e+00    0,000000000e+00    0,000000000e+00
     1248000000   -2,342675328e-01    3,614839315e-01    1,886375397e-01    3,819068149e-02    0,000000000e+00    0,000000000e+00    0,000000000e+00    0,000000000e+00
     1262000000    8,778136224e-03    3,254534304e-01    1,314885765e-01   -7,332354784e-02    0,000000000e+00    0,000000000e+00    0,000000000e+00    0,000000000e+00
     1276000000    1,586656868e-01    1,993489265e-01    5,465284735e-02   -9,353833646e-02    0,000000000e+00    0,000000000e+00    0,000000000e+00    0,000000000e+00
     1290000000    2,197859436e-01    3,223842010e-02    4,313231912e-03   -7,042916119e-02    0,000000000e+00    0,000000000e+00    0,000000000e+00    0,000000000e+00
     1304000000    2,025701702e-01   -1,480113864e-01   -1,912219450e-02   -3,478367254e-02    0,000000000e+00    0,000000000e+00    0,000000000e+00    0,000000000e+00
     1318000000    1,097062826e-01   -3,145842552e-01   -1,327513810e-02    1,775078103e-02    0,000000000e+00    0,000000000e+00    0,000000000e+00    0,000000000e+00
     1332000000   -6,883466989e-02   -4,301872253e-01    5,246016383e-02    7,041592896e-02    0,000000000e+00    0,000000000e+00    0,000000000e+00    0,000000000e+00
     1346000000   -3,312735558e-01   -4,322812557e-01    1,414663196e-01    5,270726234e-02    0,000000000e+00    0,000000000e+00    0,000000000e+00    0,000000000e+00
     1360000000   -5,591260195e-01   -2,463668287e-01    1,154179424e-01   -7,852879912e-02    0,000000000e+00    0,000000000e+00    0,000000000e+00    0,000000000e+00
     1374000000   -6,186045408e-01    4,098029807e-02    1,057357490e-01    6,713398546e-02    0,000000000e+00    0,000000000e+00    0,000000000e+00    0,000000000e+00
     1388000000   -5,137789249e-01    2,967923880e-01    2,112099677e-01    5,422276910e-03    0,000000000e+00    0,000000000e+00    0,000000000e+00    0,000000000e+00
     1402000000   -3,103429675e-01    4,225922525e-01    2,246813774e-01   -7,863315195e-02    0,000000000e+00    0,000000000e+00    0,000000000e+00    0,000000000e+00
     1416000000   -9,123940766e-02    4,250034094e-01    1,892200410e-01   -1,133219302e-01    0,000000000e+00    0,000000000e+00    0,000000000e+00    0,000000000e+00
     1430000000    6,067942083e-02    3,290482759e-01    1,356380135e-01   -1,101866588e-01    0,000000000e+00    0,000000000e+00    0,000000000e+00    0,000000000e+00
     1444000000    1,759355515e-01    2,015197128e-01    1,621937007e-01   -1,008553579e-01    0,000000000e+00    0,000000000e+00    0,000000000e+00    0,000000000e+00
     1458000000    2,243893445e-01    3,617139533e-02    1,576660573e-01   -7,710823417e-02    0,000000000e+00    0,000000000e+00    0,000000000e+00    0,000000000e+00
     1472000000    2,054753155e-01   -1,485642344e-01    1,586687714e-01   -5,561921000e-02    0,000000000e+00    0,000000000e+00    0,000000000e+00    0,000000000e+00
     1486000000    1,091077253e-01   -3,195134401e-01    1,786996424e-01   -4,890378565e-03    0,000000000e+00    0,000000000e+00    0,000000000e+00    0,000000000e+00
     1500000000   -8,864152431e-02   -4,567555189e-01    2,238728106e-01    6,410318613e-02    0,000000000e+00    0,000000000e+00    0,000000000e+00    0,000000000e+00
