! NanoVNA-App
! Date: 2025-09-25 14:26:44
! Start: 100MHz Stop: 1,5GHz Points: 101
! S-Parameter data: F S11 S21 S12 S22
# Hz S RI R 50
!     Frequency           S11_Real           S11_Imag           S21_Real           S21_Imag           S12_Real           S12_Imag           S22_Real           S22_Imag
      100000000   -2,909906209e-02   -4,110956099e-03    3,744957149e-01   -7,220173478e-01    0,000000000e+00    0,000000000e+00    0,000000000e+00    0,000000000e+00
      114000000   -1,661257073e-02    1,160791796e-02   -8,899117261e-02   -8,057692647e-01    0,000000000e+00    0,000000000e+00    0,000000000e+00    0,000000000e+00
      128000000    3,446397372e-03    1,053968538e-02   -5,146518350e-01   -6,210291386e-01    0,000000000e+00    0,000000000e+00    0,000000000e+00    0,000000000e+00
      142000000    1,444450393e-02   -3,086544806e-03   -7,673423886e-01   -2,368838787e-01    0,000000000e+00    0,000000000e+00    0,000000000e+00    0,000000000e+00
      156000000    1,559779607e-02   -1,464071870e-02   -7,706172466e-01    2,239347845e-01    0,000000000e+00    0,000000000e+00    0,000000000e+00    0,000000000e+00
      170000000    1,654440723e-02   -2,243877202e-02   -5,188196898e-01    6,051067114e-01    0,000000000e+00    0,000000000e+00    0,000000000e+00    0,000000000e+00
      184000000    2,098921314e-02   -3,697371483e-02   -1,018870175e-01    7,866257429e-01    0,000000000e+00    0,000000000e+00    0,000000000e+00    0,000000000e+00
      198000000    1,312024333e-02   -6,257218868e-02    3,428751528e-01    7,132178545e-01    0,000000000e+00    0,000000000e+00    0,000000000e+00    0,000000000e+00
      212000000   -1,870795339e-02   -8,169165254e-02    6,781782508e-01    4,106366932e-01    0,000000000e+00    0,000000000e+00    0,000000000e+00    0,000000000e+00
      226000000   -6,205829605e-02   -6,972610950e-02    7,960698009e-01   -2,971360646e-02    0,000000000e+00    0,000000000e+00    0,000000000e+00    0,000000000e+00
      240000000   -8,331004530e-02   -2,604387328e-02    6,472366452e-01   -4,665532112e-01    0,000000000e+00    0,000000000e+00    0,000000000e+00    0,000000000e+00
      254000000   -6,437550485e-02    1,747725159e-02    2,769135237e-01   -7,428714037e-01    0,000000000e+00    0,000000000e+00    0,000000000e+00    0,000000000e+00
      268000000   -2,405022085e-02    2,948275954e-02   -1,765770614e-01   -7,651467919e-01    0,000000000e+00    0,000000000e+00    0,000000000e+00    0,000000000e+00
      282000000    4,123214167e-03    1,215318125e-02   -5,626193881e-01   -5,375036597e-01    0,000000000e+00    0,000000000e+00    0,000000000e+00    0,000000000e+00
      296000000    9,496376850e-03   -7,687521167e-03   -7,608618140e-01   -1,395794898e-01    0,000000000e+00    0,000000000e+00    0,000000000e+00    0,000000000e+00
      310000000    1,085214689e-02   -1,606780849e-02   -7,120257616e-01    2,972171009e-01    0,000000000e+00    0,000000000e+00    0,000000000e+00    0,000000000e+00
      324000000    1,970519312e-02   -2,656210586e-02   -4,276837111e-01    6,371701360e-01    0,000000000e+00    0,000000000e+00    0,000000000e+00    0,000000000e+00
      338000000    2,539137192e-02   -5,214050412e-02   -7,677344605e-03    7,634880543e-01    0,000000000e+00    0,000000000e+00    0,000000000e+00    0,000000000e+00
      352000000    7,512330078e-03   -8,483468741e-02    4,057869613e-01    6,407490373e-01    0,000000000e+00    0,000000000e+00    0,000000000e+00    0,000000000e+00
      366000000   -3,495407477e-02   -9,605807066e-02    6,904456615e-01    3,126724958e-01    0,000000000e+00    0,000000000e+00    0,000000000e+00    0,000000000e+00
      380000000   -7,139451802e-02   -7,127317041e-02    7,482851744e-01   -1,250723898e-01    0,000000000e+00    0,000000000e+00    0,000000000e+00    0,000000000e+00
      394000000   -7,312766463e-02   -3,242830560e-02    5,477078557e-01   -5,207589865e-01    0,000000000e+00    0,000000000e+00    0,000000000e+00    0,000000000e+00
      408000000   -4,719600827e-02   -1,544769108e-02    1,624006182e-01   -7,324812412e-01    0,000000000e+00    0,000000000e+00    0,000000000e+00    0,000000000e+00
      422000000   -2,806553431e-02   -3,118404187e-02   -2,654364407e-01   -6,966167688e-01    0,000000000e+00    0,000000000e+00    0,000000000e+00    0,000000000e+00
      436000000   -4,028147087e-02   -5,210825428e-02   -6,032273769e-01   -4,344055951e-01    0,000000000e+00    0,000000000e+00    0,000000000e+00    0,000000000e+00
      450000000   -6,744863838e-02   -4,448916763e-02   -7,402515411e-01   -2,505088970e-02    0,000000000e+00    0,000000000e+00    0,000000000e+00    0,000000000e+00
      464000000   -7,461736351e-02   -1,212011091e-02   -6,211196780e-01    3,948012590e-01    0,000000000e+00    0,000000000e+00    0,000000000e+00    0,000000000e+00
      478000000   -4,902346805e-02    1,160640735e-02   -2,871814072e-01    6,676658392e-01    0,000000000e+00    0,000000000e+00    0,000000000e+00    0,000000000e+00
      492000000   -1,706827804e-02    6,668594666e-03    1,335491389e-01    7,035623193e-01    0,000000000e+00    0,000000000e+00    0,000000000e+00    0,000000000e+00
      506000000   -3,640105249e-03   -1,517195068e-02    4,980661571e-01    5,057795644e-01    0,000000000e+00    0,000000000e+00    0,000000000e+00    0,000000000e+00
      520000000   -5,993211642e-03   -2,959348634e-02    6,895095110e-01    1,445017755e-01    0,000000000e+00    0,000000000e+00    0,000000000e+00    0,000000000e+00
      534000000   -3,035992617e-03   -3,571289778e-02    6,453486085e-01   -2,599896491e-01    0,000000000e+00    0,000000000e+00    0,000000000e+00    0,000000000e+00
      548000000    7,982563227e-03   -5,274615437e-02    3,846733272e-01   -5,641381741e-01    0,000000000e+00    0,000000000e+00    0,000000000e+00    0,000000000e+00
      562000000    5,625033751e-03   -8,928610384e-02    8,115712553e-03   -6,717635393e-01    0,000000000e+00    0,000000000e+00    0,000000000e+00    0,000000000e+00
      576000000   -3,158886358e-02   -1,264002919e-01   -3,619822562e-01   -5,605633259e-01    0,000000000e+00    0,000000000e+00    0,000000000e+00    0,000000000e+00
      590000000   -9,493473172e-02   -1,277824491e-01   -6,175363064e-01   -2,738450468e-01    0,000000000e+00    0,000000000e+00    0,000000000e+00    0,000000000e+00
      604000000   -1,429231465e-01   -7,828372717e-02   -6,671911478e-01    1,258871108e-01    0,000000000e+00    0,000000000e+00    0,000000000e+00    0,000000000e+00
      618000000   -1,387407929e-01   -1,094554551e-02   -4,753429890e-01    4,865632057e-01    0,000000000e+00    0,000000000e+00    0,000000000e+00    0,000000000e+00
      632000000   -9,264679253e-02    2,197100222e-02   -1,136539504e-01    6,630427837e-01    0,000000000e+00    0,000000000e+00    0,000000000e+00    0,000000000e+00
      646000000   -5,490639061e-02    1,270377357e-02    2,733564079e-01    6,036444902e-01    0,000000000e+00    0,000000000e+00    0,000000000e+00    0,000000000e+00
      660000000   -4,766739160e-02   -8,992127143e-03    5,571734309e-01    3,407765925e-01    0,000000000e+00    0,000000000e+00    0,000000000e+00    0,000000000e+00
      674000000   -5,503241345e-02   -1,083006244e-02    6,444805264e-01   -3,951970860e-02    0,000000000e+00    0,000000000e+00    0,000000000e+00    0,000000000e+00
      688000000   -4,991384223e-02    3,256638767e-03    4,935958982e-01   -4,019858241e-01    0,000000000e+00    0,000000000e+00    0,000000000e+00    0,000000000e+00
      702000000   -2,612972446e-02    6,971647497e-03    1,596653461e-01   -6,036251187e-01    0,000000000e+00    0,000000000e+00    0,000000000e+00    0,000000000e+00
      716000000   -1,441470580e-03   -9,245771915e-03   -2,183679342e-01   -5,743234158e-01    0,000000000e+00    0,000000000e+00    0,000000000e+00    0,000000000e+00
      730000000    1,005285978e-02   -3,427955136e-02   -5,088424683e-01   -3,331297338e-01    0,000000000e+00    0,000000000e+00    0,000000000e+00    0,000000000e+00
      744000000    1,630216092e-02   -6,134390458e-02   -6,010401249e-01    3,295188770e-02    0,000000000e+00    0,000000000e+00    0,000000000e+00    0,000000000e+00
      758000000    2,235785313e-02   -1,037787944e-01   -4,545655549e-01    3,766813278e-01    0,000000000e+00    0,000000000e+00    0,000000000e+00    0,000000000e+00
      772000000   -4,379141144e-03   -1,732975990e-01   -1,392757744e-01    5,587469339e-01    0,000000000e+00    0,000000000e+00    0,000000000e+00    0,000000000e+00
      786000000   -1,057637259e-01   -2,323173881e-01    2,120168507e-01    5,203003287e-01    0,000000000e+00    0,000000000e+00    0,000000000e+00    0,000000000e+00
      800000000   -2,657678127e-01   -1,918264776e-01    4,718063474e-01    2,753179669e-01    0,000000000e+00    0,000000000e+00    0,000000000e+00    0,000000000e+00
      814000000   -3,645645976e-01    2,898651874e-03    5,078907013e-01   -8,830053359e-02    0,000000000e+00    0,000000000e+00    0,000000000e+00    0,000000000e+00
      828000000   -2,472067028e-01    2,336042970e-01    2,815193832e-01   -3,530584574e-01    0,000000000e+00    0,000000000e+00    0,000000000e+00    0,000000000e+00
      842000000    1,314283162e-02    2,780787945e-01   -1,553875860e-02   -3,637337387e-01    0,000000000e+00    0,000000000e+00    0,000000000e+00    0,000000000e+00
      856000000    2,127077430e-01    1,156244874e-01   -1,884347796e-01   -2,046435624e-01    0,000000000e+00    0,000000000e+00    0,000000000e+00    0,000000000e+00
      870000000    2,383735329e-01   -1,488665342e-01   -2,009114921e-01   -2,629268728e-02    0,000000000e+00    0,000000000e+00    0,000000000e+00    0,000000000e+00
      884000000    3,822540119e-02   -3,870967627e-01   -1,040612310e-01    7,040969282e-02    0,000000000e+00    0,000000000e+00    0,000000000e+00    0,000000000e+00
      898000000   -3,694519103e-01   -3,426129520e-01   -1,721588150e-02    2,732867934e-02    0,000000000e+00    0,000000000e+00    0,000000000e+00    0,000000000e+00
      912000000   -4,677037299e-01    1,379406899e-01   -1,080823392e-01    2,361937612e-02    0,000000000e+00    0,000000000e+00    0,000000000e+00    0,000000000e+00
      926000000   -9,374592453e-02    3,511383832e-01   -1,269113570e-01    1,332422793e-01    0,000000000e+00    0,000000000e+00    0,000000000e+00    0,000000000e+00
      940000000    1,845606416e-01    1,960839927e-01   -3,718930483e-02    2,161648273e-01    0,000000000e+00    0,000000000e+00    0,000000000e+00    0,000000000e+00
      954000000    2,569872737e-01   -4,876608029e-02    8,037239313e-02    2,260053903e-01    0,000000000e+00    0,000000000e+00    0,000000000e+00    0,000000000e+00
      968000000    1,748396009e-01   -2,638505995e-01    1,903240681e-01    1,811301112e-01    0,000000000e+00    0,000000000e+00    0,000000000e+00    0,000000000e+00
      982000000   -1,812383160e-02   -3,902772367e-01    2,790971994e-01    8,006834239e-02    0,000000000e+00    0,000000000e+00    0,000000000e+00    0,000000000e+00
      996000000   -2,760241628e-01   -3,763227463e-01    3,095536530e-01   -7,875936478e-02    0,000000000e+00    0,000000000e+00    0,000000000e+00    0,000000000e+00
     1010000000   -4,679279625e-01   -1,691502482e-01    2,223300636e-01   -2,521730959e-01    0,000000000e+00    0,000000000e+00    0,000000000e+00    0,000000000e+00
     1024000000   -4,585705996e-01    1,149552390e-01    2,085568197e-02   -3,284522891e-01    0,000000000e+00    0,000000000e+00    0,000000000e+00    0,000000000e+00
     1038000000   -2,678436935e-01    2,968851328e-01   -1,732883900e-01   -2,483812422e-01    0,000000000e+00    0,000000000e+00    0,000000000e+00    0,000000000e+00
     1052000000   -3,627470136e-02    3,067618608e-01   -2,576595843e-01   -7,848516107e-02    0,000000000e+00    0,000000000e+00    0,000000000e+00    0,000000000e+00
     1066000000    1,289756298e-01    2,060895711e-01   -2,255794406e-01    8,517082036e-02    0,000000000e+00    0,000000000e+00    0,000000000e+00    0,000000000e+00
     1080000000    2,094468474e-01    4,983343929e-02   -1,206211671e-01    1,915346086e-01    0,000000000e+00    0,000000000e+00    0,000000000e+00    0,000000000e+00
     1094000000    2,038731873e-01   -1,296113878e-01    1,802844554e-02    2,336918414e-01    0,000000000e+00    0,000000000e+00    0,000000000e+00    0,000000000e+00
     1108000000    1,040119901e-01   -2,852694392e-01    1,671218574e-01    2,073600739e-01    0,000000000e+00    0,000000000e+00    0,000000000e+00    0,000000000e+00
     1122000000   -1,013662145e-01   -3,716465235e-01    3,162411153e-01    9,082329273e-02    0,000000000e+00    0,000000000e+00    0,000000000e+00    0,000000000e+00
     1136000000   -3,445269763e-01   -2,716306448e-01    3,932687938e-01   -1,514841020e-01    0,000000000e+00    0,000000000e+00    0,000000000e+00    0,000000000e+00
     1150000000   -4,018647075e-01    3,705407679e-02    2,424255759e-01   -4,381815195e-01    0,000000000e+00    0,000000000e+00    0,000000000e+00    0,000000000e+00
     1164000000   -1,594047695e-01    2,228432298e-01   -9,552038461e-02   -5,127341747e-01    0,000000000e+00    0,000000000e+00    0,000000000e+00    0,000000000e+00
     1178000000    7,959876955e-02    8,248992264e-02   -3,564519584e-01   -3,457805514e-01    0,000000000e+00    0,000000000e+00    0,000000000e+00    0,000000000e+00
     1192000000    7,633680850e-02   -1,722393185e-01   -4,516934752e-01   -8,072776347e-02    0,000000000e+00    0,000000000e+00    0,000000000e+00    0,000000000e+00
     1206000000   -1,631206125e-01   -3,249825835e-01   -3,710631728e-01    1,891503185e-01    0,000000000e+00    0,000000000e+00    0,000000000e+00    0,000000000e+00
     1220000000   -4,515250027e-01   -1,746243834e-01   -1,036192402e-01    3,291618824e-01    0,000000000e+00    0,000000000e+00    0,000000000e+00    0,000000000e+00
     1234000000   -4,723226428e-01    1,729478985e-01    1,371536255e-01    2,274261713e-01    0,000000000e+00    0,000000000e+00    0,000000000e+00    0,000000000e+00
     1248000000   -2,338907868e-01    3,527386189e-01    1,884625852e-01    3,672703728e-02    0,000000000e+00    0,000000000e+00    0,000000000e+00    0,000000000e+00
     1262000000    1,133082062e-02    3,319212794e-01    1,306650341e-01   -7,257568836e-02    0,000000000e+00    0,000000000e+00    0,000000000e+00    0,000000000e+00
     1276000000    1,537325084e-01    2,019949704e-01    5,160505697e-02   -9,265766293e-02    0,000000000e+00    0,000000000e+00    0,000000000e+00    0,000000000e+00
     1290000000    2,235669196e-01    3,072104603e-02    1,785178087e-03   -7,412461936e-02    0,000000000e+00    0,000000000e+00    0,000000000e+00    0,000000000e+00
     1304000000    2,049740702e-01   -1,436954290e-01   -1,872475632e-02   -3,268207982e-02    0,000000000e+00    0,000000000e+00    0,000000000e+00    0,000000000e+00
     1318000000    1,148761958e-01   -3,129679561e-01   -6,455705967e-03    2,006890997e-02    0,000000000e+00    0,000000000e+00    0,000000000e+00    0,000000000e+00
     1332000000   -6,516032666e-02   -4,304787517e-01    3,926076367e-02    6,451833248e-02    0,000000000e+00    0,000000000e+00    0,000000000e+00    0,000000000e+00
     1346000000   -3,291692436e-01   -4,357752204e-01    1,453434527e-01    5,079500377e-02    0,000000000e+00    0,000000000e+00    0,000000000e+00    0,000000000e+00
     1360000000   -5,617697835e-01   -2,381629944e-01    1,077418178e-01   -7,832289487e-02    0,000000000e+00    0,000000000e+00    0,000000000e+00    0,000000000e+00
     1374000000   -6,300921440e-01    2,296153829e-02    1,072962508e-01    4,643742740e-02    0,000000000e+00    0,000000000e+00    0,000000000e+00    0,000000000e+00
     1388000000   -5,170693994e-01    2,929895222e-01    2,213283181e-01    1,008127257e-02    0,000000000e+00    0,000000000e+00    0,000000000e+00    0,000000000e+00
     1402000000   -3,031047583e-01    4,215129912e-01    2,316240519e-01   -8,342097700e-02    0,000000000e+00    0,000000000e+00    0,000000000e+00    0,000000000e+00
     1416000000   -8,751162887e-02    4,183398187e-01    1,887091249e-01   -1,221557334e-01    0,000000000e+00    0,000000000e+00    0,000000000e+00    0,000000000e+00
     1430000000    7,454863936e-02    3,338197172e-01    1,380262375e-01   -1,060865298e-01    0,000000000e+00    0,000000000e+00    0,000000000e+00    0,000000000e+00
     1444000000    1,782074720e-01    1,974921823e-01    1,592989713e-01   -1,102463230e-01    0,000000000e+00    0,000000000e+00    0,000000000e+00    0,000000000e+00
     1458000000    2,253217250e-01    3,276690468e-02    1,438530385e-01   -8,040448278e-02    0,000000000e+00    0,000000000e+00    0,000000000e+00    0,000000000e+00
     1472000000    2,106588036e-01   -1,457029581e-01    1,513854414e-01   -5,756335706e-02    0,000000000e+00    0,000000000e+00    0,000000000e+00    0,000000000e+00
     1486000000    1,052420586e-01   -3,222140074e-01    1,707224250e-01   -6,576908752e-03    0,000000000e+00    0,000000000e+00    0,000000000e+00    0,000000000e+00
     1500000000   -9,871091694e-02   -4,597593248e-01    2,106373310e-01    5,880799145e-02    0,000000000e+00    0,000000000e+00    0,000000000e+00    0,000000000e+00
