! NanoVNA-App
! Date: 2025-09-25 14:22:05
! Start: 100MHz Stop: 1,5GHz Points: 101
! S-Parameter data: F S11 S21 S12 S22
# Hz S RI R 50
!     Frequency           S11_Real           S11_Imag           S21_Real           S21_Imag           S12_Real           S12_Imag           S22_Real           S22_Imag
      100000000   -2,908667922e-02   -4,121800419e-03    3,745396137e-01   -7,221239805e-01    0,000000000e+00    0,000000000e+00    0,000000000e+00    0,000000000e+00
      114000000   -1,660463214e-02    1,160717383e-02   -8,897121251e-02   -8,057747483e-01    0,000000000e+00    0,000000000e+00    0,000000000e+00    0,000000000e+00
      128000000    3,471148200e-03    1,052656118e-02   -5,145280957e-01   -6,209781170e-01    0,000000000e+00    0,000000000e+00    0,000000000e+00    0,000000000e+00
      142000000    1,446594857e-02   -3,062452422e-03   -7,675043344e-01   -2,368307263e-01    0,000000000e+00    0,000000000e+00    0,000000000e+00    0,000000000e+00
      156000000    1,428401656e-02   -1,498090103e-02   -7,643581629e-01    2,189653516e-01    0,000000000e+00    0,000000000e+00    0,000000000e+00    0,000000000e+00
      170000000    1,655335724e-02   -2,254159190e-02   -5,187095404e-01    6,050215364e-01    0,000000000e+00    0,000000000e+00    0,000000000e+00    0,000000000e+00
      184000000    2,098509297e-02   -3,711862117e-02   -1,016987711e-01    7,866080999e-01    0,000000000e+00    0,000000000e+00    0,000000000e+00    0,000000000e+00
      198000000    1,304891333e-02   -6,261603534e-02    3,428245187e-01    7,132991552e-01    0,000000000e+00    0,000000000e+00    0,000000000e+00    0,000000000e+00
      212000000   -1,873847656e-02   -8,163233101e-02    6,784487963e-01    4,107014835e-01    0,000000000e+00    0,000000000e+00    0,000000000e+00    0,000000000e+00
      226000000   -6,208587438e-02   -6,964382529e-02    7,961665988e-01   -2,978258207e-02    0,000000000e+00    0,000000000e+00    0,000000000e+00    0,000000000e+00
      240000000   -8,315272629e-02   -2,607848123e-02    6,473392248e-01   -4,667016864e-01    0,000000000e+00    0,000000000e+00    0,000000000e+00    0,000000000e+00
      254000000   -6,436671317e-02    1,726721227e-02    2,771109641e-01   -7,431067228e-01    0,000000000e+00    0,000000000e+00    0,000000000e+00    0,000000000e+00
      268000000   -2,433901653e-02    2,947202884e-02   -1,773861498e-01   -7,656884789e-01    0,000000000e+00    0,000000000e+00    0,000000000e+00    0,000000000e+00
      282000000    4,161705729e-03    1,211361215e-02   -5,625644922e-01   -5,366404057e-01    0,000000000e+00    0,000000000e+00    0,000000000e+00    0,000000000e+00
      296000000    9,715503082e-03   -7,802805863e-03   -7,608129978e-01   -1,393930614e-01    0,000000000e+00    0,000000000e+00    0,000000000e+00    0,000000000e+00
      310000000    1,092883758e-02   -1,616426744e-02   -7,139973640e-01    2,971508503e-01    0,000000000e+00    0,000000000e+00    0,000000000e+00    0,000000000e+00
      324000000    1,953096129e-02   -2,661164850e-02   -4,282770753e-01    6,373546720e-01    0,000000000e+00    0,000000000e+00    0,000000000e+00    0,000000000e+00
      338000000    2,522563562e-02   -5,207638070e-02   -9,412623011e-03    7,611317039e-01    0,000000000e+00    0,000000000e+00    0,000000000e+00    0,000000000e+00
      352000000    7,469196804e-03   -8,468246460e-02    4,063156545e-01    6,407526135e-01    0,000000000e+00    0,000000000e+00    0,000000000e+00    0,000000000e+00
      366000000   -3,467779979e-02   -9,600596875e-02    6,918238401e-01    3,124594688e-01    0,000000000e+00    0,000000000e+00    0,000000000e+00    0,000000000e+00
      380000000   -7,131452113e-02   -7,115746289e-02    7,487875819e-01   -1,248658895e-01    0,000000000e+00    0,000000000e+00    0,000000000e+00    0,000000000e+00
      394000000   -7,315117121e-02   -3,219264001e-02    5,487841964e-01   -5,214695334e-01    0,000000000e+00    0,000000000e+00    0,000000000e+00    0,000000000e+00
      408000000   -4,687649012e-02   -1,580439135e-02    1,638317555e-01   -7,329010367e-01    0,000000000e+00    0,000000000e+00    0,000000000e+00    0,000000000e+00
      422000000   -2,812403440e-02   -3,152510896e-02   -2,666385770e-01   -6,960022449e-01    0,000000000e+00    0,000000000e+00    0,000000000e+00    0,000000000e+00
      436000000   -4,017102718e-02   -5,181414634e-02   -6,024844050e-01   -4,337752163e-01    0,000000000e+00    0,000000000e+00    0,000000000e+00    0,000000000e+00
      450000000   -6,757576764e-02   -4,446759447e-02   -7,402757406e-01   -2,443684824e-02    0,000000000e+00    0,000000000e+00    0,000000000e+00    0,000000000e+00
      464000000   -7,448268682e-02   -1,234495547e-02   -6,218950152e-01    3,941183388e-01    0,000000000e+00    0,000000000e+00    0,000000000e+00    0,000000000e+00
      478000000   -4,901007935e-02    1,179218385e-02   -2,859556377e-01    6,677171588e-01    0,000000000e+00    0,000000000e+00    0,000000000e+00    0,000000000e+00
      492000000   -1,687316783e-02    6,783752237e-03    1,340757012e-01    7,040581107e-01    0,000000000e+00    0,000000000e+00    0,000000000e+00    0,000000000e+00
      506000000   -3,682823852e-03   -1,486322749e-02    4,977514744e-01    5,066376328e-01    0,000000000e+00    0,000000000e+00    0,000000000e+00    0,000000000e+00
      520000000   -6,098244339e-03   -2,962707728e-02    6,892185211e-01    1,435724497e-01    0,000000000e+00    0,000000000e+00    0,000000000e+00    0,000000000e+00
      534000000   -3,224347951e-03   -3,599018604e-02    6,450827122e-01   -2,597908676e-01    0,000000000e+00    0,000000000e+00    0,000000000e+00    0,000000000e+00
      548000000    8,497326635e-03   -5,268203095e-02    3,849653006e-01   -5,640473366e-01    0,000000000e+00    0,000000000e+00    0,000000000e+00    0,000000000e+00
      562000000    5,537584424e-03   -8,975344151e-02    8,208651096e-03   -6,717598438e-01    0,000000000e+00    0,000000000e+00    0,000000000e+00    0,000000000e+00
      576000000   -3,147837520e-02   -1,263405681e-01   -3,618818223e-01   -5,611614585e-01    0,000000000e+00    0,000000000e+00    0,000000000e+00    0,000000000e+00
      590000000   -9,487047791e-02   -1,276531965e-01   -6,154496670e-01   -2,720405459e-01    0,000000000e+00    0,000000000e+00    0,000000000e+00    0,000000000e+00
      604000000   -1,428387314e-01   -7,793654501e-02   -6,673738956e-01    1,269389689e-01    0,000000000e+00    0,000000000e+00    0,000000000e+00    0,000000000e+00
      618000000   -1,383001357e-01   -1,174383890e-02   -4,747606516e-01    4,858979583e-01    0,000000000e+00    0,000000000e+00    0,000000000e+00    0,000000000e+00
      632000000   -9,301859140e-02    2,125864662e-02   -1,144498512e-01    6,627504826e-01    0,000000000e+00    0,000000000e+00    0,000000000e+00    0,000000000e+00
      646000000   -5,584829673e-02    1,243243832e-02    2,734820545e-01    6,038461924e-01    0,000000000e+00    0,000000000e+00    0,000000000e+00    0,000000000e+00
      660000000   -4,768899828e-02   -8,547295816e-03    5,574691892e-01    3,402788341e-01    0,000000000e+00    0,000000000e+00    0,000000000e+00    0,000000000e+00
      674000000   -5,624033138e-02   -1,094797626e-02    6,446602941e-01   -4,004871473e-02    0,000000000e+00    0,000000000e+00    0,000000000e+00    0,000000000e+00
      688000000   -5,008812249e-02    2,578227315e-03    4,936304688e-01   -4,018094838e-01    0,000000000e+00    0,000000000e+00    0,000000000e+00    0,000000000e+00
      702000000   -2,480601706e-02    7,063426077e-03    1,607774347e-01   -6,010856032e-01    0,000000000e+00    0,000000000e+00    0,000000000e+00    0,000000000e+00
      716000000   -1,315161935e-03   -9,068362415e-03   -2,191661447e-01   -5,760815144e-01    0,000000000e+00    0,000000000e+00    0,000000000e+00    0,000000000e+00
      730000000    1,005270239e-02   -3,422157839e-02   -5,093530416e-01   -3,332486451e-01    0,000000000e+00    0,000000000e+00    0,000000000e+00    0,000000000e+00
      744000000    1,691057160e-02   -6,175396591e-02   -6,008847356e-01    3,327403963e-02    0,000000000e+00    0,000000000e+00    0,000000000e+00    0,000000000e+00
      758000000    2,245651558e-02   -1,034981459e-01   -4,545409381e-01    3,768845499e-01    0,000000000e+00    0,000000000e+00    0,000000000e+00    0,000000000e+00
      772000000   -4,661208950e-03   -1,735431552e-01   -1,400120705e-01    5,588201880e-01    0,000000000e+00    0,000000000e+00    0,000000000e+00    0,000000000e+00
      786000000   -1,052012220e-01   -2,323236763e-01    2,110955268e-01    5,188452005e-01    0,000000000e+00    0,000000000e+00    0,000000000e+00    0,000000000e+00
      800000000   -2,649188340e-01   -1,929674149e-01    4,711767435e-01    2,753584981e-01    0,000000000e+00    0,000000000e+00    0,000000000e+00    0,000000000e+00
      814000000   -3,649614155e-01    3,407332115e-03    5,078511238e-01   -8,850090951e-02    0,000000000e+00    0,000000000e+00    0,000000000e+00    0,000000000e+00
      828000000   -2,474790663e-01    2,326344550e-01    2,815949619e-01   -3,520296216e-01    0,000000000e+00    0,000000000e+00    0,000000000e+00    0,000000000e+00
      842000000    1,303602755e-02    2,789446414e-01   -1,573686302e-02   -3,627410829e-01    0,000000000e+00    0,000000000e+00    0,000000000e+00    0,000000000e+00
      856000000    2,124154717e-01    1,153028384e-01   -1,883661747e-01   -2,047940046e-01    0,000000000e+00    0,000000000e+00    0,000000000e+00    0,000000000e+00
      870000000    2,390282899e-01   -1,489216834e-01   -2,006982863e-01   -2,615831234e-02    0,000000000e+00    0,000000000e+00    0,000000000e+00    0,000000000e+00
      884000000    3,790716082e-02   -3,877842724e-01   -1,034922525e-01    7,072611153e-02    0,000000000e+00    0,000000000e+00    0,000000000e+00    0,000000000e+00
      898000000   -3,696280718e-01   -3,412122428e-01   -1,660845429e-02    2,789789997e-02    0,000000000e+00    0,000000000e+00    0,000000000e+00    0,000000000e+00
      912000000   -4,670021534e-01    1,382268965e-01   -1,238652244e-01    3,010226972e-02    0,000000000e+00    0,000000000e+00    0,000000000e+00    0,000000000e+00
      926000000   -9,543502331e-02    3,491814733e-01   -1,279681027e-01    1,328712553e-01    0,000000000e+00    0,000000000e+00    0,000000000e+00    0,000000000e+00
      940000000    1,853128076e-01    1,928553879e-01   -3,875187039e-02    2,150692940e-01    0,000000000e+00    0,000000000e+00    0,000000000e+00    0,000000000e+00
      954000000    2,531799078e-01   -4,910755157e-02    8,007240295e-02    2,273322642e-01    0,000000000e+00    0,000000000e+00    0,000000000e+00    0,000000000e+00
      968000000    1,743732840e-01   -2,607297897e-01    1,916709244e-01    1,790531874e-01    0,000000000e+00    0,000000000e+00    0,000000000e+00    0,000000000e+00
      982000000   -1,877675764e-02   -3,923479915e-01    2,808605731e-01    7,988449186e-02    0,000000000e+00    0,000000000e+00    0,000000000e+00    0,000000000e+00
      996000000   -2,763339281e-01   -3,766921759e-01    3,090727627e-01   -7,829575986e-02    0,000000000e+00    0,000000000e+00    0,000000000e+00    0,000000000e+00
     1010000000   -4,691908360e-01   -1,682980657e-01    2,202342749e-01   -2,523975372e-01    0,000000000e+00    0,000000000e+00    0,000000000e+00    0,000000000e+00
     1024000000   -4,577550590e-01    1,130696759e-01    2,124936320e-02   -3,291683197e-01    0,000000000e+00    0,000000000e+00    0,000000000e+00    0,000000000e+00
     1038000000   -2,607917190e-01    2,990388870e-01   -1,730407178e-01   -2,495440245e-01    0,000000000e+00    0,000000000e+00    0,000000000e+00    0,000000000e+00
     1052000000   -3,559298068e-02    3,114534914e-01   -2,563778460e-01   -7,774181664e-02    0,000000000e+00    0,000000000e+00    0,000000000e+00    0,000000000e+00
     1066000000    1,262265593e-01    2,019507885e-01   -2,260212898e-01    8,338142186e-02    0,000000000e+00    0,000000000e+00    0,000000000e+00    0,000000000e+00
     1080000000    2,103630006e-01    4,860007390e-02   -1,207550392e-01    1,922259629e-01    0,000000000e+00    0,000000000e+00    0,000000000e+00    0,000000000e+00
     1094000000    2,023713589e-01   -1,312789172e-01    1,613946632e-02    2,338931412e-01    0,000000000e+00    0,000000000e+00    0,000000000e+00    0,000000000e+00
     1108000000    1,002604067e-01   -2,848601639e-01    1,704916358e-01    2,052249014e-01    0,000000000e+00    0,000000000e+00    0,000000000e+00    0,000000000e+00
     1122000000   -1,040933281e-01   -3,682339787e-01    3,167791963e-01    8,827389777e-02    0,000000000e+00    0,000000000e+00    0,000000000e+00    0,000000000e+00
     1136000000   -3,438976109e-01   -2,678668797e-01    3,920353651e-01   -1,524598300e-01    0,000000000e+00    0,000000000e+00    0,000000000e+00    0,000000000e+00
     1150000000   -4,037699103e-01    3,987145796e-02    2,447180003e-01   -4,382954240e-01    0,000000000e+00    0,000000000e+00    0,000000000e+00    0,000000000e+00
     1164000000   -1,628683805e-01    2,203372270e-01   -9,297578782e-02   -5,141626000e-01    0,000000000e+00    0,000000000e+00    0,000000000e+00    0,000000000e+00
     1178000000    7,096923888e-02    8,360028267e-02   -3,574272096e-01   -3,499478102e-01    0,000000000e+00    0,000000000e+00    0,000000000e+00    0,000000000e+00
     1192000000    7,421842963e-02   -1,729359329e-01   -4,550488591e-01   -8,219807595e-02    0,000000000e+00    0,000000000e+00    0,000000000e+00    0,000000000e+00
     1206000000   -1,663431078e-01   -3,234756887e-01   -3,718736172e-01    1,916424185e-01    0,000000000e+00    0,000000000e+00    0,000000000e+00    0,000000000e+00
     1220000000   -4,593941569e-01   -1,766812354e-01   -1,057549044e-01    3,271819949e-01    0,000000000e+00    0,000000000e+00    0,000000000e+00    0,000000000e+00
     1234000000   -4,688749015e-01    1,700533181e-01    1,392450780e-01    2,217709124e-01    0,000000000e+00    0,000000000e+00    0,000000000e+00    0,000000000e+00
     1248000000   -2,343982756e-01    3,610328734e-01    1,892651767e-01    3,667353466e-02    0,000000000e+00    0,000000000e+00    0,000000000e+00    0,000000000e+00
     1262000000    2,275371226e-03    3,301550746e-01    1,249681339e-01   -7,383187860e-02    0,000000000e+00    0,000000000e+00    0,000000000e+00    0,000000000e+00
     1276000000    1,586015373e-01    2,008772790e-01    5,575855449e-02   -9,506572783e-02    0,000000000e+00    0,000000000e+00    0,000000000e+00    0,000000000e+00
     1290000000    2,176627517e-01    2,570959739e-02    3,316265764e-03   -7,631678879e-02    0,000000000e+00    0,000000000e+00    0,000000000e+00    0,000000000e+00
     1304000000    2,056582421e-01   -1,469014436e-01   -2,239629254e-02   -3,523111716e-02    0,000000000e+00    0,000000000e+00    0,000000000e+00    0,000000000e+00
     1318000000    1,142293364e-01   -3,109338582e-01   -9,220290929e-03    2,097948454e-02    0,000000000e+00    0,000000000e+00    0,000000000e+00    0,000000000e+00
     1332000000   -6,866098940e-02   -4,321138859e-01    4,795252159e-02    5,859321728e-02    0,000000000e+00    0,000000000e+00    0,000000000e+00    0,000000000e+00
     1346000000   -3,285339773e-01   -4,416190982e-01    1,396249533e-01    3,736012056e-02    0,000000000e+00    0,000000000e+00    0,000000000e+00    0,000000000e+00
     1360000000   -5,602727532e-01   -2,452841997e-01    1,132391021e-01   -7,855792344e-02    0,000000000e+00    0,000000000e+00    0,000000000e+00    0,000000000e+00
     1374000000   -6,176331043e-01    3,952141851e-02    1,116133928e-01    6,547253579e-02    0,000000000e+00    0,000000000e+00    0,000000000e+00    0,000000000e+00
     1388000000   -5,131060481e-01    2,817098200e-01    2,274189144e-01   -2,457354916e-03    0,000000000e+00    0,000000000e+00    0,000000000e+00    0,000000000e+00
     1402000000   -2,969995141e-01    4,154081941e-01    2,358655781e-01   -8,192905784e-02    0,000000000e+00    0,000000000e+00    0,000000000e+00    0,000000000e+00
     1416000000   -9,628287703e-02    4,200779200e-01    1,849069446e-01   -1,218432412e-01    0,000000000e+00    0,000000000e+00    0,000000000e+00    0,000000000e+00
     1430000000    7,577069849e-02    3,268183172e-01    1,416519433e-01   -1,273972839e-01    0,000000000e+00    0,000000000e+00    0,000000000e+00    0,000000000e+00
     1444000000    1,773585677e-01    2,005078197e-01    1,601186842e-01   -1,025450975e-01    0,000000000e+00    0,000000000e+00    0,000000000e+00    0,000000000e+00
     1458000000    2,215944529e-01    3,334620595e-02    1,500236243e-01   -8,571169525e-02    0,000000000e+00    0,000000000e+00    0,000000000e+00    0,000000000e+00
     1472000000    2,035496682e-01   -1,459816545e-01    1,426542550e-01   -5,012672022e-02    0,000000000e+00    0,000000000e+00    0,000000000e+00    0,000000000e+00
     1486000000    1,047908738e-01   -3,209990859e-01    1,717186421e-01   -9,513280238e-04    0,000000000e+00    0,000000000e+00    0,000000000e+00    0,000000000e+00
     1500000000   -9,771741182e-02   -4,511844516e-01    2,117231339e-01    6,039566919e-02    0,000000000e+00    0,000000000e+00    0,000000000e+00    0,000000000e+00
