! NanoVNA-App
! Date: 2025-09-25 14:24:03
! Start: 100MHz Stop: 1,5GHz Points: 101
! S-Parameter data: F S11 S21 S12 S22
# Hz S RI R 50
!     Frequency           S11_Real           S11_Imag           S21_Real           S21_Imag           S12_Real           S12_Imag           S22_Real           S22_Imag
      100000000   -2,910246141e-02   -4,119298421e-03    3,744925857e-01   -7,220788002e-01    0,000000000e+00    0,000000000e+00    0,000000000e+00    0,000000000e+00
      114000000   -1,659124158e-02    1,163039263e-02   -8,890638500e-02   -8,058753014e-01    0,000000000e+00    0,000000000e+00    0,000000000e+00    0,000000000e+00
      128000000    3,360722447e-03    1,055209711e-02   -5,146679282e-01   -6,211232543e-01    0,000000000e+00    0,000000000e+00    0,000000000e+00    0,000000000e+00
      142000000    1,444708928e-02   -3,064282937e-03   -7,673538327e-01   -2,369181216e-01    0,000000000e+00    0,000000000e+00    0,000000000e+00    0,000000000e+00
      156000000    1,521462947e-02   -1,496397424e-02   -7,720829844e-01    2,215187252e-01    0,000000000e+00    0,000000000e+00    0,000000000e+00    0,000000000e+00
      170000000    1,653848402e-02   -2,253953367e-02   -5,187420845e-01    6,048686504e-01    0,000000000e+00    0,000000000e+00    0,000000000e+00    0,000000000e+00
      184000000    2,100483887e-02   -3,703358024e-02   -1,020301655e-01    7,865546346e-01    0,000000000e+00    0,000000000e+00    0,000000000e+00    0,000000000e+00
      198000000    1,314019039e-02   -6,258622557e-02    3,430403173e-01    7,134010196e-01    0,000000000e+00    0,000000000e+00    0,000000000e+00    0,000000000e+00
      212000000   -1,869265363e-02   -8,173841983e-02    6,783257127e-01    4,105029106e-01    0,000000000e+00    0,000000000e+00    0,000000000e+00    0,000000000e+00
      226000000   -6,208708882e-02   -6,973242015e-02    7,961637974e-01   -2,980969474e-02    0,000000000e+00    0,000000000e+00    0,000000000e+00    0,000000000e+00
      240000000   -8,326370269e-02   -2,611742355e-02    6,469408274e-01   -4,665630162e-01    0,000000000e+00    0,000000000e+00    0,000000000e+00    0,000000000e+00
      254000000   -6,431534141e-02    1,749143377e-02    2,769975960e-01   -7,431831360e-01    0,000000000e+00    0,000000000e+00    0,000000000e+00    0,000000000e+00
      268000000   -2,414413728e-02    2,949400619e-02   -1,770057380e-01   -7,650911808e-01    0,000000000e+00    0,000000000e+00    0,000000000e+00    0,000000000e+00
      282000000    4,100874998e-03    1,209067740e-02   -5,622010827e-01   -5,370739102e-01    0,000000000e+00    0,000000000e+00    0,000000000e+00    0,000000000e+00
      296000000    9,570703842e-03   -7,746200543e-03   -7,606276870e-01   -1,396377534e-01    0,000000000e+00    0,000000000e+00    0,000000000e+00    0,000000000e+00
      310000000    1,094091870e-02   -1,626533642e-02   -7,122766376e-01    2,972060144e-01    0,000000000e+00    0,000000000e+00    0,000000000e+00    0,000000000e+00
      324000000    1,943986863e-02   -2,653475478e-02   -4,290540814e-01    6,375913620e-01    0,000000000e+00    0,000000000e+00    0,000000000e+00    0,000000000e+00
      338000000    2,526220120e-02   -5,203732848e-02   -1,132041588e-02    7,606118917e-01    0,000000000e+00    0,000000000e+00    0,000000000e+00    0,000000000e+00
      352000000    7,494937163e-03   -8,469463140e-02    4,060441554e-01    6,407371163e-01    0,000000000e+00    0,000000000e+00    0,000000000e+00    0,000000000e+00
      366000000   -3,505600989e-02   -9,594307840e-02    6,904003620e-01    3,126348853e-01    0,000000000e+00    0,000000000e+00    0,000000000e+00    0,000000000e+00
      380000000   -7,152044773e-02   -7,107140124e-02    7,489335537e-01   -1,245534346e-01    0,000000000e+00    0,000000000e+00    0,000000000e+00    0,000000000e+00
      394000000   -7,317996770e-02   -3,237878159e-02    5,485907197e-01   -5,199245811e-01    0,000000000e+00    0,000000000e+00    0,000000000e+00    0,000000000e+00
      408000000   -4,677011818e-02   -1,544143632e-02    1,633502841e-01   -7,328247428e-01    0,000000000e+00    0,000000000e+00    0,000000000e+00    0,000000000e+00
      422000000   -2,846391127e-02   -3,152149543e-02   -2,655816376e-01   -6,953287125e-01    0,000000000e+00    0,000000000e+00    0,000000000e+00    0,000000000e+00
      436000000   -4,016428441e-02   -5,196058378e-02   -6,030886173e-01   -4,336776733e-01    0,000000000e+00    0,000000000e+00    0,000000000e+00    0,000000000e+00
      450000000   -6,738455594e-02   -4,466256499e-02   -7,408384085e-01   -2,513626963e-02    0,000000000e+00    0,000000000e+00    0,000000000e+00    0,000000000e+00
      464000000   -7,391390204e-02   -1,211678889e-02   -6,210054159e-01    3,945373893e-01    0,000000000e+00    0,000000000e+00    0,000000000e+00    0,000000000e+00
      478000000   -4,916351661e-02    1,177287381e-02   -2,865184546e-01    6,675264835e-01    0,000000000e+00    0,000000000e+00    0,000000000e+00    0,000000000e+00
      492000000   -1,727381907e-02    6,316622719e-03    1,335767508e-01    7,039100528e-01    0,000000000e+00    0,000000000e+00    0,000000000e+00    0,000000000e+00
      506000000   -3,672863822e-03   -1,536161453e-02    4,977164865e-01    5,059299469e-01    0,000000000e+00    0,000000000e+00    0,000000000e+00    0,000000000e+00
      520000000   -5,859704223e-03   -2,970236354e-02    6,882399321e-01    1,444830000e-01    0,000000000e+00    0,000000000e+00    0,000000000e+00    0,000000000e+00
      534000000   -3,679779125e-03   -3,601226956e-02    6,444517374e-01   -2,599106133e-01    0,000000000e+00    0,000000000e+00    0,000000000e+00    0,000000000e+00
      548000000    7,973792963e-03   -5,217210203e-02    3,845368922e-01   -5,640980601e-01    0,000000000e+00    0,000000000e+00    0,000000000e+00    0,000000000e+00
      562000000    6,064083427e-03   -8,965386450e-02    8,929307573e-03   -6,710723639e-01    0,000000000e+00    0,000000000e+00    0,000000000e+00    0,000000000e+00
      576000000   -3,132775798e-02   -1,260712594e-01   -3,627634645e-01   -5,602490306e-01    0,000000000e+00    0,000000000e+00    0,000000000e+00    0,000000000e+00
      590000000   -9,488950670e-02   -1,277194023e-01   -6,181473732e-01   -2,738136351e-01    0,000000000e+00    0,000000000e+00    0,000000000e+00    0,000000000e+00
      604000000   -1,432141662e-01   -7,776995748e-02   -6,673597097e-01    1,265093535e-01    0,000000000e+00    0,000000000e+00    0,000000000e+00    0,000000000e+00
      618000000   -1,382009834e-01   -1,177471969e-02   -4,751024544e-01    4,848932922e-01    0,000000000e+00    0,000000000e+00    0,000000000e+00    0,000000000e+00
      632000000   -9,358897805e-02    2,204501256e-02   -1,139974147e-01    6,637619138e-01    0,000000000e+00    0,000000000e+00    0,000000000e+00    0,000000000e+00
      646000000   -5,585959554e-02    1,150430739e-02    2,738701701e-01    6,042530537e-01    0,000000000e+00    0,000000000e+00    0,000000000e+00    0,000000000e+00
      660000000   -4,801373556e-02   -8,144791238e-03    5,568230152e-01    3,404387832e-01    0,000000000e+00    0,000000000e+00    0,000000000e+00    0,000000000e+00
      674000000   -5,618799478e-02   -1,009752229e-02    6,441158056e-01   -3,974487260e-02    0,000000000e+00    0,000000000e+00    0,000000000e+00    0,000000000e+00
      688000000   -5,107111484e-02    2,926893532e-03    4,938758016e-01   -4,019242227e-01    0,000000000e+00    0,000000000e+00    0,000000000e+00    0,000000000e+00
      702000000   -2,568054013e-02    8,038932458e-03    1,619416177e-01   -6,048481464e-01    0,000000000e+00    0,000000000e+00    0,000000000e+00    0,000000000e+00
      716000000   -2,072347328e-03   -8,310053498e-03   -2,182862312e-01   -5,753449202e-01    0,000000000e+00    0,000000000e+00    0,000000000e+00    0,000000000e+00
      730000000    9,167388082e-03   -3,428075463e-02   -5,085901022e-01   -3,334266245e-01    0,000000000e+00    0,000000000e+00    0,000000000e+00    0,000000000e+00
      744000000    1,746641658e-02   -6,053046137e-02   -6,010458469e-01    3,284053877e-02    0,000000000e+00    0,000000000e+00    0,000000000e+00    0,000000000e+00
      758000000    2,185269445e-02   -1,029237658e-01   -4,541189075e-01    3,772376478e-01    0,000000000e+00    0,000000000e+00    0,000000000e+00    0,000000000e+00
      772000000   -4,001410212e-03   -1,737170517e-01   -1,402710974e-01    5,583083034e-01    0,000000000e+00    0,000000000e+00    0,000000000e+00    0,000000000e+00
      786000000   -1,045128480e-01   -2,323073745e-01    2,117967308e-01    5,195545554e-01    0,000000000e+00    0,000000000e+00    0,000000000e+00    0,000000000e+00
      800000000   -2,661431432e-01   -1,931989491e-01    4,713551700e-01    2,759033144e-01    0,000000000e+00    0,000000000e+00    0,000000000e+00    0,000000000e+00
      814000000   -3,648362160e-01    3,987911623e-03    5,075637102e-01   -8,869934827e-02    0,000000000e+00    0,000000000e+00    0,000000000e+00    0,000000000e+00
      828000000   -2,470657378e-01    2,326083332e-01    2,813400328e-01   -3,527641296e-01    0,000000000e+00    0,000000000e+00    0,000000000e+00    0,000000000e+00
      842000000    1,216044836e-02    2,778541744e-01   -1,506818645e-02   -3,624280095e-01    0,000000000e+00    0,000000000e+00    0,000000000e+00    0,000000000e+00
      856000000    2,123395205e-01    1,158238724e-01   -1,878715903e-01   -2,045591921e-01    0,000000000e+00    0,000000000e+00    0,000000000e+00    0,000000000e+00
      870000000    2,381661534e-01   -1,484214664e-01   -2,008429766e-01   -2,593381517e-02    0,000000000e+00    0,000000000e+00    0,000000000e+00    0,000000000e+00
      884000000    3,706373647e-02   -3,875746429e-01   -1,038436890e-01    6,984262168e-02    0,000000000e+00    0,000000000e+00    0,000000000e+00    0,000000000e+00
      898000000   -3,692027330e-01   -3,415148556e-01   -1,659618504e-02    2,771211974e-02    0,000000000e+00    0,000000000e+00    0,000000000e+00    0,000000000e+00
      912000000   -4,669538438e-01    1,390905529e-01   -1,048792005e-01    2,968012542e-02    0,000000000e+00    0,000000000e+00    0,000000000e+00    0,000000000e+00
      926000000   -9,522999078e-02    3,517689109e-01   -1,297593862e-01    1,362817585e-01    0,000000000e+00    0,000000000e+00    0,000000000e+00    0,000000000e+00
      940000000    1,820506752e-01    1,946630776e-01   -3,857357055e-02    2,150791585e-01    0,000000000e+00    0,000000000e+00    0,000000000e+00    0,000000000e+00
      954000000    2,536216676e-01   -4,926545545e-02    7,918106765e-02    2,264117897e-01    0,000000000e+00    0,000000000e+00    0,000000000e+00    0,000000000e+00
      968000000    1,741869897e-01   -2,639302909e-01    1,931301206e-01    1,804981828e-01    0,000000000e+00    0,000000000e+00    0,000000000e+00    0,000000000e+00
      982000000   -1,979108900e-02   -3,923085034e-01    2,803103030e-01    7,995139062e-02    0,000000000e+00    0,000000000e+00    0,000000000e+00    0,000000000e+00
      996000000   -2,774332166e-01   -3,768999279e-01    3,090479374e-01   -8,042260259e-02    0,000000000e+00    0,000000000e+00    0,000000000e+00    0,000000000e+00
     1010000000   -4,724824727e-01   -1,755189002e-01    2,209060192e-01   -2,528766096e-01    0,000000000e+00    0,000000000e+00    0,000000000e+00    0,000000000e+00
     1024000000   -4,598536789e-01    1,137886420e-01    2,116197720e-02   -3,299742639e-01    0,000000000e+00    0,000000000e+00    0,000000000e+00    0,000000000e+00
     1038000000   -2,628986835e-01    2,948225439e-01   -1,738188863e-01   -2,475450784e-01    0,000000000e+00    0,000000000e+00    0,000000000e+00    0,000000000e+00
     1052000000   -3,484699503e-02    3,087895215e-01   -2,573032379e-01   -7,773455232e-02    0,000000000e+00    0,000000000e+00    0,000000000e+00    0,000000000e+00
     1066000000    1,250179708e-01    2,060804069e-01   -2,236260027e-01    8,547441661e-02    0,000000000e+00    0,000000000e+00    0,000000000e+00    0,000000000e+00
     1080000000    2,072166651e-01    4,445005581e-02   -1,194513589e-01    1,933774650e-01    0,000000000e+00    0,000000000e+00    0,000000000e+00    0,000000000e+00
     1094000000    1,999090314e-01   -1,265605092e-01    1,588298939e-02    2,335674763e-01    0,000000000e+00    0,000000000e+00    0,000000000e+00    0,000000000e+00
     1108000000    9,802088141e-02   -2,859510481e-01    1,682215333e-01    2,053828239e-01    0,000000000e+00    0,000000000e+00    0,000000000e+00    0,000000000e+00
     1122000000   -9,888614714e-02   -3,716183007e-01    3,149145246e-01    8,922412246e-02    0,000000000e+00    0,000000000e+00    0,000000000e+00    0,000000000e+00
     1136000000   -3,434479535e-01   -2,722185254e-01    3,928656876e-01   -1,478703171e-01    0,000000000e+00    0,000000000e+00    0,000000000e+00    0,000000000e+00
     1150000000   -4,051090479e-01    3,692156821e-02    2,414450198e-01   -4,375563264e-01    0,000000000e+00    0,000000000e+00    0,000000000e+00    0,000000000e+00
     1164000000   -1,571038514e-01    2,203460783e-01   -9,755227715e-02   -5,130095482e-01    0,000000000e+00    0,000000000e+00    0,000000000e+00    0,000000000e+00
     1178000000    7,646203786e-02    8,211316913e-02   -3,558172882e-01   -3,482226133e-01    0,000000000e+00    0,000000000e+00    0,000000000e+00    0,000000000e+00
     1192000000    7,365612686e-02   -1,738143563e-01   -4,534473419e-01   -8,353781700e-02    0,000000000e+00    0,000000000e+00    0,000000000e+00    0,000000000e+00
     1206000000   -1,645139456e-01   -3,287264407e-01   -3,714602590e-01    1,882196516e-01    0,000000000e+00    0,000000000e+00    0,000000000e+00    0,000000000e+00
     1220000000   -4,549648464e-01   -1,808954179e-01   -1,029892415e-01    3,268810213e-01    0,000000000e+00    0,000000000e+00    0,000000000e+00    0,000000000e+00
     1234000000   -4,741933644e-01    1,700651199e-01    1,381858140e-01    2,285742313e-01    0,000000000e+00    0,000000000e+00    0,000000000e+00    0,000000000e+00
     1248000000   -2,318482846e-01    3,565267324e-01    1,965622157e-01    3,773121908e-02    0,000000000e+00    0,000000000e+00    0,000000000e+00    0,000000000e+00
     1262000000    4,988486879e-03    3,240293264e-01    1,272865087e-01   -7,520338893e-02    0,000000000e+00    0,000000000e+00    0,000000000e+00    0,000000000e+00
     1276000000    1,596043110e-01    1,980681866e-01    5,459979549e-02   -1,002284139e-01    0,000000000e+00    0,000000000e+00    0,000000000e+00    0,000000000e+00
     1290000000    2,178585380e-01    2,891656943e-02   -4,799086135e-03   -7,449120283e-02    0,000000000e+00    0,000000000e+00    0,000000000e+00    0,000000000e+00
     1304000000    2,061908543e-01   -1,489955932e-01   -2,003992908e-02   -3,239380568e-02    0,000000000e+00    0,000000000e+00    0,000000000e+00    0,000000000e+00
     1318000000    1,146498248e-01   -3,122384250e-01   -9,724163450e-03    1,960037090e-02    0,000000000e+00    0,000000000e+00    0,000000000e+00    0,000000000e+00
     1332000000   -6,465579569e-02   -4,336455762e-01    5,040805414e-02    5,328163132e-02    0,000000000e+00    0,000000000e+00    0,000000000e+00    0,000000000e+00
     1346000000   -3,318650723e-01   -4,344802499e-01    1,322846115e-01    5,316585675e-02    0,000000000e+00    0,000000000e+00    0,000000000e+00    0,000000000e+00
     1360000000   -5,547041297e-01   -2,385530621e-01    1,234336048e-01   -7,017080486e-02    0,000000000e+00    0,000000000e+00    0,000000000e+00    0,000000000e+00
     1374000000   -6,267213821e-01    3,738608211e-02    1,130944863e-01    6,765409559e-02    0,000000000e+00    0,000000000e+00    0,000000000e+00    0,000000000e+00
     1388000000   -5,157532096e-01    2,859468460e-01    2,265918404e-01   -1,053642295e-02    0,000000000e+00    0,000000000e+00    0,000000000e+00    0,000000000e+00
     1402000000   -3,012386560e-01    4,192548990e-01    2,249282748e-01   -8,129273355e-02    0,000000000e+00    0,000000000e+00    0,000000000e+00    0,000000000e+00
     1416000000   -9,132541716e-02    4,218700826e-01    1,970686913e-01   -1,181229204e-01    0,000000000e+00    0,000000000e+00    0,000000000e+00    0,000000000e+00
     1430000000    8,025360107e-02    3,418839574e-01    1,880321950e-01   -1,369845718e-01    0,000000000e+00    0,000000000e+00    0,000000000e+00    0,000000000e+00
     1444000000    1,761677116e-01    1,999797523e-01    1,636512429e-01   -9,881757200e-02    0,000000000e+00    0,000000000e+00    0,000000000e+00    0,000000000e+00
     1458000000    2,225497365e-01    3,462424874e-02    1,535623223e-01   -7,724930346e-02    0,000000000e+00    0,000000000e+00    0,000000000e+00    0,000000000e+00
     1472000000    2,070496678e-01   -1,422674209e-01    1,480774283e-01   -5,736931786e-02    0,000000000e+00    0,000000000e+00    0,000000000e+00    0,000000000e+00
     1486000000    1,061809435e-01   -3,220352530e-01    1,712600440e-01    5,785639398e-03    0,000000000e+00    0,000000000e+00    0,000000000e+00    0,000000000e+00
     1500000000   -9,474607557e-02   -4,594134390e-01    2,102580965e-01    6,596543640e-02    0,000000000e+00    0,000000000e+00    0,000000000e+00    0,000000000e+00
