! NanoVNA-App
! Date: 2025-09-25 14:27:19
! Start: 100MHz Stop: 1,5GHz Points: 101
! S-Parameter data: F S11 S21 S12 S22
# Hz S RI R 50
!     Frequency           S11_Real           S11_Imag           S21_Real           S21_Imag           S12_Real           S12_Imag           S22_Real           S22_Imag
      100000000   -2,909377404e-02   -4,122465383e-03    3,744897544e-01   -7,220368981e-01    0,000000000e+00    0,000000000e+00    0,000000000e+00    0,000000000e+00
      114000000   -1,660058089e-02    1,159920357e-02   -8,874511719e-02   -8,056978583e-01    0,000000000e+00    0,000000000e+00    0,000000000e+00    0,000000000e+00
      128000000    3,388360143e-03    1,051243115e-02   -5,145161152e-01   -6,209223866e-01    0,000000000e+00    0,000000000e+00    0,000000000e+00    0,000000000e+00
      142000000    1,442985609e-02   -3,080610884e-03   -7,674933672e-01   -2,370150685e-01    0,000000000e+00    0,000000000e+00    0,000000000e+00    0,000000000e+00
      156000000    1,534777880e-02   -1,482290588e-02   -7,694222331e-01    2,231465280e-01    0,000000000e+00    0,000000000e+00    0,000000000e+00    0,000000000e+00
      170000000    1,650046743e-02   -2,253961749e-02   -5,186563134e-01    6,050751209e-01    0,000000000e+00    0,000000000e+00    0,000000000e+00    0,000000000e+00
      184000000    2,099875920e-02   -3,699226305e-02   -1,018838435e-01    7,866364121e-01    0,000000000e+00    0,000000000e+00    0,000000000e+00    0,000000000e+00
      198000000    1,313192118e-02   -6,259156764e-02    3,430593610e-01    7,129856348e-01    0,000000000e+00    0,000000000e+00    0,000000000e+00    0,000000000e+00
      212000000   -1,870124415e-02   -8,167827129e-02    6,781614423e-01    4,104877412e-01    0,000000000e+00    0,000000000e+00    0,000000000e+00    0,000000000e+00
      226000000   -6,213634461e-02   -6,969419867e-02    7,961787581e-01   -2,965211682e-02    0,000000000e+00    0,000000000e+00    0,000000000e+00    0,000000000e+00
      240000000   -8,333668113e-02   -2,598657273e-02    6,472340226e-01   -4,666942656e-01    0,000000000e+00    0,000000000e+00    0,000000000e+00    0,000000000e+00
      254000000   -6,437098980e-02    1,748309098e-02    2,771841288e-01   -7,436950803e-01    0,000000000e+00    0,000000000e+00    0,000000000e+00    0,000000000e+00
      268000000   -2,399016730e-02    2,945709601e-02   -1,765626818e-01   -7,651122212e-01    0,000000000e+00    0,000000000e+00    0,000000000e+00    0,000000000e+00
      282000000    4,142574966e-03    1,205019280e-02   -5,625193715e-01   -5,371653438e-01    0,000000000e+00    0,000000000e+00    0,000000000e+00    0,000000000e+00
      296000000    9,594764560e-03   -7,710188627e-03   -7,606834173e-01   -1,394656748e-01    0,000000000e+00    0,000000000e+00    0,000000000e+00    0,000000000e+00
      310000000    1,084287930e-02   -1,622254029e-02   -7,140911222e-01    2,985548973e-01    0,000000000e+00    0,000000000e+00    0,000000000e+00    0,000000000e+00
      324000000    1,965349913e-02   -2,650909871e-02   -4,280503690e-01    6,372324228e-01    0,000000000e+00    0,000000000e+00    0,000000000e+00    0,000000000e+00
      338000000    2,560154907e-02   -5,215441436e-02   -9,610909969e-03    7,634726167e-01    0,000000000e+00    0,000000000e+00    0,000000000e+00    0,000000000e+00
      352000000    7,175553124e-03   -8,497321606e-02    4,046026170e-01    6,411883831e-01    0,000000000e+00    0,000000000e+00    0,000000000e+00    0,000000000e+00
      366000000   -3,493192047e-02   -9,608350694e-02    6,906603575e-01    3,130854964e-01    0,000000000e+00    0,000000000e+00    0,000000000e+00    0,000000000e+00
      380000000   -7,146384567e-02   -7,118792832e-02    7,485960722e-01   -1,246794835e-01    0,000000000e+00    0,000000000e+00    0,000000000e+00    0,000000000e+00
      394000000   -7,352115214e-02   -3,241720423e-02    5,477863550e-01   -5,219713449e-01    0,000000000e+00    0,000000000e+00    0,000000000e+00    0,000000000e+00
      408000000   -4,681171477e-02   -1,562049892e-02    1,631643176e-01   -7,309200764e-01    0,000000000e+00    0,000000000e+00    0,000000000e+00    0,000000000e+00
      422000000   -2,791829407e-02   -3,150964156e-02   -2,657251954e-01   -6,966264248e-01    0,000000000e+00    0,000000000e+00    0,000000000e+00    0,000000000e+00
      436000000   -4,005091265e-02   -5,199293792e-02   -6,025887132e-01   -4,341893494e-01    0,000000000e+00    0,000000000e+00    0,000000000e+00    0,000000000e+00
      450000000   -6,738658249e-02   -4,471726716e-02   -7,400512099e-01   -2,576098591e-02    0,000000000e+00    0,000000000e+00    0,000000000e+00    0,000000000e+00
      464000000   -7,426817715e-02   -1,249220315e-02   -6,211405396e-01    3,944291174e-01    0,000000000e+00    0,000000000e+00    0,000000000e+00    0,000000000e+00
      478000000   -4,947243631e-02    1,155303046e-02   -2,864413857e-01    6,674299836e-01    0,000000000e+00    0,000000000e+00    0,000000000e+00    0,000000000e+00
      492000000   -1,725518517e-02    6,719492842e-03    1,340222210e-01    7,036854029e-01    0,000000000e+00    0,000000000e+00    0,000000000e+00    0,000000000e+00
      506000000   -3,325906815e-03   -1,495998818e-02    4,976689517e-01    5,062634945e-01    0,000000000e+00    0,000000000e+00    0,000000000e+00    0,000000000e+00
      520000000   -6,029468030e-03   -2,953119203e-02    6,878007650e-01    1,442811638e-01    0,000000000e+00    0,000000000e+00    0,000000000e+00    0,000000000e+00
      534000000   -3,187242663e-03   -3,556032479e-02    6,450907588e-01   -2,593764663e-01    0,000000000e+00    0,000000000e+00    0,000000000e+00    0,000000000e+00
      548000000    8,087221533e-03   -5,236397311e-02    3,848394454e-01   -5,642258525e-01    0,000000000e+00    0,000000000e+00    0,000000000e+00    0,000000000e+00
      562000000    5,997171160e-03   -8,955847472e-02    8,469494991e-03   -6,718735695e-01    0,000000000e+00    0,000000000e+00    0,000000000e+00    0,000000000e+00
      576000000   -3,126985952e-02   -1,259280443e-01   -3,614386320e-01   -5,601729155e-01    0,000000000e+00    0,000000000e+00    0,000000000e+00    0,000000000e+00
      590000000   -9,466926754e-02   -1,278517246e-01   -6,154837012e-01   -2,735379040e-01    0,000000000e+00    0,000000000e+00    0,000000000e+00    0,000000000e+00
      604000000   -1,435015947e-01   -7,769152522e-02   -6,674508452e-01    1,263419986e-01    0,000000000e+00    0,000000000e+00    0,000000000e+00    0,000000000e+00
      618000000   -1,385749578e-01   -1,137471292e-02   -4,755873382e-01    4,856138527e-01    0,000000000e+00    0,000000000e+00    0,000000000e+00    0,000000000e+00
      632000000   -9,353403002e-02    2,157111093e-02   -1,141872704e-01    6,630010009e-01    0,000000000e+00    0,000000000e+00    0,000000000e+00    0,000000000e+00
      646000000   -5,521728471e-02    1,260413043e-02    2,734071314e-01    6,034436226e-01    0,000000000e+00    0,000000000e+00    0,000000000e+00    0,000000000e+00
      660000000   -4,829780385e-02   -8,438902907e-03    5,571365952e-01    3,403608501e-01    0,000000000e+00    0,000000000e+00    0,000000000e+00    0,000000000e+00
      674000000   -5,534644797e-02   -1,051987801e-02    6,444362998e-01   -3,956048191e-02    0,000000000e+00    0,000000000e+00    0,000000000e+00    0,000000000e+00
      688000000   -5,053052679e-02    2,417296637e-03    4,932971299e-01   -4,019770026e-01    0,000000000e+00    0,000000000e+00    0,000000000e+00    0,000000000e+00
      702000000   -2,612824924e-02    7,932121865e-03    1,615431756e-01   -6,072187424e-01    0,000000000e+00    0,000000000e+00    0,000000000e+00    0,000000000e+00
      716000000   -2,774536144e-03   -9,442451410e-03   -2,194477469e-01   -5,753074884e-01    0,000000000e+00    0,000000000e+00    0,000000000e+00    0,000000000e+00
      730000000    9,372778237e-03   -3,368580341e-02   -5,093930960e-01   -3,336582184e-01    0,000000000e+00    0,000000000e+00    0,000000000e+00    0,000000000e+00
      744000000    1,613596454e-02   -6,071137637e-02   -6,008202434e-01    3,286439553e-02    0,000000000e+00    0,000000000e+00    0,000000000e+00    0,000000000e+00
      758000000    2,152619511e-02   -1,036271602e-01   -4,544187784e-01    3,770049810e-01    0,000000000e+00    0,000000000e+00    0,000000000e+00    0,000000000e+00
      772000000   -4,665690009e-03   -1,740395725e-01   -1,395131350e-01    5,584897995e-01    0,000000000e+00    0,000000000e+00    0,000000000e+00    0,000000000e+00
      786000000   -1,048356220e-01   -2,328663915e-01    2,113863677e-01    5,200178623e-01    0,000000000e+00    0,000000000e+00    0,000000000e+00    0,000000000e+00
      800000000   -2,653045356e-01   -1,923013777e-01    4,717698693e-01    2,756734788e-01    0,000000000e+00    0,000000000e+00    0,000000000e+00    0,000000000e+00
      814000000   -3,644922376e-01    4,362837411e-03    5,078825951e-01   -8,829630911e-02    0,000000000e+00    0,000000000e+00    0,000000000e+00    0,000000000e+00
      828000000   -2,486910969e-01    2,333716452e-01    2,820385695e-01   -3,522451520e-01    0,000000000e+00    0,000000000e+00    0,000000000e+00    0,000000000e+00
      842000000    1,240594778e-02    2,778428495e-01   -1,608117856e-02   -3,626708090e-01    0,000000000e+00    0,000000000e+00    0,000000000e+00    0,000000000e+00
      856000000    2,124636620e-01    1,157539636e-01   -1,881584376e-01   -2,051444501e-01    0,000000000e+00    0,000000000e+00    0,000000000e+00    0,000000000e+00
      870000000    2,386437058e-01   -1,488108188e-01   -2,012551874e-01   -2,661744319e-02    0,000000000e+00    0,000000000e+00    0,000000000e+00    0,000000000e+00
      884000000    3,848611191e-02   -3,877453804e-01   -1,037003398e-01    7,039204240e-02    0,000000000e+00    0,000000000e+00    0,000000000e+00    0,000000000e+00
      898000000   -3,692591786e-01   -3,422296047e-01   -1,725480333e-02    2,685001865e-02    0,000000000e+00    0,000000000e+00    0,000000000e+00    0,000000000e+00
      912000000   -4,671068490e-01    1,370826513e-01   -1,092505082e-01    4,072050378e-02    0,000000000e+00    0,000000000e+00    0,000000000e+00    0,000000000e+00
      926000000   -9,376958758e-02    3,503839672e-01   -1,275387406e-01    1,337046921e-01    0,000000000e+00    0,000000000e+00    0,000000000e+00    0,000000000e+00
      940000000    1,840968728e-01    1,925179362e-01   -4,093290865e-02    2,144551873e-01    0,000000000e+00    0,000000000e+00    0,000000000e+00    0,000000000e+00
      954000000    2,557464838e-01   -4,637670144e-02    8,034260571e-02    2,278541774e-01    0,000000000e+00    0,000000000e+00    0,000000000e+00    0,000000000e+00
      968000000    1,761818826e-01   -2,640993297e-01    1,919282377e-01    1,806081235e-01    0,000000000e+00    0,000000000e+00    0,000000000e+00    0,000000000e+00
      982000000   -1,822675206e-02   -3,924268484e-01    2,792780995e-01    7,888340205e-02    0,000000000e+00    0,000000000e+00    0,000000000e+00    0,000000000e+00
      996000000   -2,698091567e-01   -3,759277761e-01    3,093488514e-01   -8,088764548e-02    0,000000000e+00    0,000000000e+00    0,000000000e+00    0,000000000e+00
     1010000000   -4,658531547e-01   -1,739874482e-01    2,210165858e-01   -2,511483729e-01    0,000000000e+00    0,000000000e+00    0,000000000e+00    0,000000000e+00
     1024000000   -4,634533525e-01    1,144589484e-01    2,137973160e-02   -3,306871653e-01    0,000000000e+00    0,000000000e+00    0,000000000e+00    0,000000000e+00
     1038000000   -2,606358528e-01    2,971256971e-01   -1,737669259e-01   -2,491315454e-01    0,000000000e+00    0,000000000e+00    0,000000000e+00    0,000000000e+00
     1052000000   -3,563520685e-02    3,109758794e-01   -2,569712996e-01   -7,699185610e-02    0,000000000e+00    0,000000000e+00    0,000000000e+00    0,000000000e+00
     1066000000    1,250996739e-01    2,089245170e-01   -2,258514166e-01    8,400042355e-02    0,000000000e+00    0,000000000e+00    0,000000000e+00    0,000000000e+00
     1080000000    2,041761577e-01    4,823197797e-02   -1,208360493e-01    1,919415593e-01    0,000000000e+00    0,000000000e+00    0,000000000e+00    0,000000000e+00
     1094000000    2,036283016e-01   -1,250290871e-01    1,804365963e-02    2,322465479e-01    0,000000000e+00    0,000000000e+00    0,000000000e+00    0,000000000e+00
     1108000000    1,023188233e-01   -2,889274359e-01    1,706553400e-01    2,095612437e-01    0,000000000e+00    0,000000000e+00    0,000000000e+00    0,000000000e+00
     1122000000   -9,924843162e-02   -3,689953089e-01    3,140996099e-01    9,018886834e-02    0,000000000e+00    0,000000000e+00    0,000000000e+00    0,000000000e+00
     1136000000   -3,460815549e-01   -2,647817433e-01    3,916956484e-01   -1,501647532e-01    0,000000000e+00    0,000000000e+00    0,000000000e+00    0,000000000e+00
     1150000000   -4,112378657e-01    3,781784326e-02    2,437868714e-01   -4,379712045e-01    0,000000000e+00    0,000000000e+00    0,000000000e+00    0,000000000e+00
     1164000000   -1,633687019e-01    2,191368937e-01   -9,528996795e-02   -5,141907930e-01    0,000000000e+00    0,000000000e+00    0,000000000e+00    0,000000000e+00
     1178000000    7,297153771e-02    8,295861632e-02   -3,580040932e-01   -3,484515846e-01    0,000000000e+00    0,000000000e+00    0,000000000e+00    0,000000000e+00
     1192000000    7,474537939e-02   -1,764014959e-01   -4,557650387e-01   -8,282753825e-02    0,000000000e+00    0,000000000e+00    0,000000000e+00    0,000000000e+00
     1206000000   -1,659060866e-01   -3,266167343e-01   -3,700341582e-01    1,869230568e-01    0,000000000e+00    0,000000000e+00    0,000000000e+00    0,000000000e+00
     1220000000   -4,556033313e-01   -1,802657545e-01   -1,051364467e-01    3,264239728e-01    0,000000000e+00    0,000000000e+00    0,000000000e+00    0,000000000e+00
     1234000000   -4,698083401e-01    1,657293290e-01    1,431377381e-01    2,225855738e-01    0,000000000e+00    0,000000000e+00    0,000000000e+00    0,000000000e+00
     1248000000   -2,405611128e-01    3,533585668e-01    1,898804158e-01    3,768539429e-02    0,000000000e+00    0,000000000e+00    0,000000000e+00    0,000000000e+00
     1262000000    6,195217371e-03    3,256679475e-01    1,305764914e-01   -7,475656271e-02    0,000000000e+00    0,000000000e+00    0,000000000e+00    0,000000000e+00
     1276000000    1,504649222e-01    1,984448731e-01    5,114507303e-02   -9,825448692e-02    0,000000000e+00    0,000000000e+00    0,000000000e+00    0,000000000e+00
     1290000000    2,156887352e-01    3,122100979e-02   -3,383097937e-03   -7,617197186e-02    0,000000000e+00    0,000000000e+00    0,000000000e+00    0,000000000e+00
     1304000000    2,069918364e-01   -1,452836543e-01   -1,751378924e-02   -3,142701462e-02    0,000000000e+00    0,000000000e+00    0,000000000e+00    0,000000000e+00
     1318000000    1,141698286e-01   -3,100833297e-01   -4,822754301e-03    2,442923002e-02    0,000000000e+00    0,000000000e+00    0,000000000e+00    0,000000000e+00
     1332000000   -6,500747055e-02   -4,327610433e-01    4,675239325e-02    6,508260220e-02    0,000000000e+00    0,000000000e+00    0,000000000e+00    0,000000000e+00
     1346000000   -3,277535737e-01   -4,320111275e-01    1,404991746e-01    5,259535834e-02    0,000000000e+00    0,000000000e+00    0,000000000e+00    0,000000000e+00
     1360000000   -5,562731028e-01   -2,435223758e-01    1,182195544e-01   -7,147625089e-02    0,000000000e+00    0,000000000e+00    0,000000000e+00    0,000000000e+00
     1374000000   -6,253581643e-01    2,384108678e-02    1,081319675e-01    5,328193679e-02    0,000000000e+00    0,000000000e+00    0,000000000e+00    0,000000000e+00
     1388000000   -5,121203065e-01    2,987144291e-01    2,262634039e-01    9,166200645e-03    0,000000000e+00    0,000000000e+00    0,000000000e+00    0,000000000e+00
     1402000000   -3,026849926e-01    4,197275639e-01    2,249312550e-01   -8,404774219e-02    0,000000000e+00    0,000000000e+00    0,000000000e+00    0,000000000e+00
     1416000000   -9,521833062e-02    4,253384173e-01    1,843652427e-01   -1,123720556e-01    0,000000000e+00    0,000000000e+00    0,000000000e+00    0,000000000e+00
     1430000000    6,260087341e-02    3,326549232e-01    1,544288397e-01   -1,139763966e-01    0,000000000e+00    0,000000000e+00    0,000000000e+00    0,000000000e+00
     1444000000    1,796214581e-01    1,983266026e-01    1,629443020e-01   -1,006479859e-01    0,000000000e+00    0,000000000e+00    0,000000000e+00    0,000000000e+00
     1458000000    2,259183675e-01    3,613404557e-02    1,445904076e-01   -8,178793639e-02    0,000000000e+00    0,000000000e+00    0,000000000e+00    0,000000000e+00
     1472000000    2,073321044e-01   -1,448553354e-01    1,511667520e-01   -4,282864556e-02    0,000000000e+00    0,000000000e+00    0,000000000e+00    0,000000000e+00
     1486000000    1,084241048e-01   -3,272380233e-01    1,538040936e-01   -3,386426484e-03    0,000000000e+00    0,000000000e+00    0,000000000e+00    0,000000000e+00
     1500000000   -8,785433322e-02   -4,543955922e-01    2,144825608e-01    6,772712618e-02    0,000000000e+00    0,000000000e+00    0,000000000e+00    0,000000000e+00
