! NanoVNA-App
! Date: 2025-09-25 14:25:28
! Start: 100MHz Stop: 1,5GHz Points: 101
! S-Parameter data: F S11 S21 S12 S22
# Hz S RI R 50
!     Frequency           S11_Real           S11_Imag           S21_Real           S21_Imag           S12_Real           S12_Imag           S22_Real           S22_Imag
      100000000   -2,910097130e-02   -4,129151348e-03    3,744611740e-01   -7,220399380e-01    0,000000000e+00    0,000000000e+00    0,000000000e+00    0,000000000e+00
      114000000   -1,661527716e-02    1,162399072e-02   -8,879759908e-02   -8,058637977e-01    0,000000000e+00    0,000000000e+00    0,000000000e+00    0,000000000e+00
      128000000    3,452973440e-03    1,058425382e-02   -5,146279335e-01   -6,210166216e-01    0,000000000e+00    0,000000000e+00    0,000000000e+00    0,000000000e+00
      142000000    1,445783768e-02   -3,080622060e-03   -7,675579786e-01   -2,368509769e-01    0,000000000e+00    0,000000000e+00    0,000000000e+00    0,000000000e+00
      156000000    1,437505987e-02   -1,495192572e-02   -7,647285461e-01    2,199663669e-01    0,000000000e+00    0,000000000e+00    0,000000000e+00    0,000000000e+00
      170000000    1,653724536e-02   -2,247101255e-02   -5,189138651e-01    6,049367189e-01    0,000000000e+00    0,000000000e+00    0,000000000e+00    0,000000000e+00
      184000000    2,098699659e-02   -3,698226437e-02   -1,018634290e-01    7,864747047e-01    0,000000000e+00    0,000000000e+00    0,000000000e+00    0,000000000e+00
      198000000    1,312251762e-02   -6,259045750e-02    3,430457413e-01    7,129660249e-01    0,000000000e+00    0,000000000e+00    0,000000000e+00    0,000000000e+00
      212000000   -1,871603727e-02   -8,172189444e-02    6,780954599e-01    4,103257656e-01    0,000000000e+00    0,000000000e+00    0,000000000e+00    0,000000000e+00
      226000000   -6,210137904e-02   -6,966823339e-02    7,961964607e-01   -2,976101078e-02    0,000000000e+00    0,000000000e+00    0,000000000e+00    0,000000000e+00
      240000000   -8,332182467e-02   -2,604947053e-02    6,472405791e-01   -4,666427076e-01    0,000000000e+00    0,000000000e+00    0,000000000e+00    0,000000000e+00
      254000000   -6,440063566e-02    1,746183261e-02    2,770895958e-01   -7,435348630e-01    0,000000000e+00    0,000000000e+00    0,000000000e+00    0,000000000e+00
      268000000   -2,405985445e-02    2,948948368e-02   -1,769981682e-01   -7,653188705e-01    0,000000000e+00    0,000000000e+00    0,000000000e+00    0,000000000e+00
      282000000    4,034708720e-03    1,212527696e-02   -5,628296733e-01   -5,374755859e-01    0,000000000e+00    0,000000000e+00    0,000000000e+00    0,000000000e+00
      296000000    9,525297210e-03   -7,663216908e-03   -7,609999776e-01   -1,395558119e-01    0,000000000e+00    0,000000000e+00    0,000000000e+00    0,000000000e+00
      310000000    1,097077783e-02   -1,601398923e-02   -7,137983441e-01    2,967319787e-01    0,000000000e+00    0,000000000e+00    0,000000000e+00    0,000000000e+00
      324000000    1,944910362e-02   -2,635306306e-02   -4,281875491e-01    6,371170878e-01    0,000000000e+00    0,000000000e+00    0,000000000e+00    0,000000000e+00
      338000000    2,549567632e-02   -5,175251141e-02   -1,091063768e-02    7,599898577e-01    0,000000000e+00    0,000000000e+00    0,000000000e+00    0,000000000e+00
      352000000    7,356850430e-03   -8,479990065e-02    4,057124555e-01    6,414009333e-01    0,000000000e+00    0,000000000e+00    0,000000000e+00    0,000000000e+00
      366000000   -3,473342583e-02   -9,600347281e-02    6,910364032e-01    3,128324747e-01    0,000000000e+00    0,000000000e+00    0,000000000e+00    0,000000000e+00
      380000000   -7,163873315e-02   -7,159683108e-02    7,481880784e-01   -1,246928349e-01    0,000000000e+00    0,000000000e+00    0,000000000e+00    0,000000000e+00
      394000000   -7,330211997e-02   -3,203085810e-02    5,481843352e-01   -5,201907158e-01    0,000000000e+00    0,000000000e+00    0,000000000e+00    0,000000000e+00
      408000000   -4,693240672e-02   -1,574441791e-02    1,626911163e-01   -7,324141264e-01    0,000000000e+00    0,000000000e+00    0,000000000e+00    0,000000000e+00
      422000000   -2,847771719e-02   -3,141720220e-02   -2,665632367e-01   -6,964067221e-01    0,000000000e+00    0,000000000e+00    0,000000000e+00    0,000000000e+00
      436000000   -4,022554681e-02   -5,205607787e-02   -6,029148102e-01   -4,340881407e-01    0,000000000e+00    0,000000000e+00    0,000000000e+00    0,000000000e+00
      450000000   -6,710953265e-02   -4,484807327e-02   -7,400419712e-01   -2,486368455e-02    0,000000000e+00    0,000000000e+00    0,000000000e+00    0,000000000e+00
      464000000   -7,408954203e-02   -1,216466445e-02   -6,214328408e-01    3,952250481e-01    0,000000000e+00    0,000000000e+00    0,000000000e+00    0,000000000e+00
      478000000   -4,949488118e-02    1,162254438e-02   -2,871053815e-01    6,681964397e-01    0,000000000e+00    0,000000000e+00    0,000000000e+00    0,000000000e+00
      492000000   -1,699826494e-02    6,249906961e-03    1,338852942e-01    7,037321925e-01    0,000000000e+00    0,000000000e+00    0,000000000e+00    0,000000000e+00
      506000000   -3,601578297e-03   -1,520961989e-02    4,972841740e-01    5,053901672e-01    0,000000000e+00    0,000000000e+00    0,000000000e+00    0,000000000e+00
      520000000   -5,739189684e-03   -2,969143540e-02    6,898269057e-01    1,444253325e-01    0,000000000e+00    0,000000000e+00    0,000000000e+00    0,000000000e+00
      534000000   -3,357699607e-03   -3,551281989e-02    6,443593502e-01   -2,596902251e-01    0,000000000e+00    0,000000000e+00    0,000000000e+00    0,000000000e+00
      548000000    8,077355102e-03   -5,282519385e-02    3,859620690e-01   -5,644222498e-01    0,000000000e+00    0,000000000e+00    0,000000000e+00    0,000000000e+00
      562000000    5,348357372e-03   -8,954787999e-02    8,595012128e-03   -6,714546084e-01    0,000000000e+00    0,000000000e+00    0,000000000e+00    0,000000000e+00
      576000000   -3,100410290e-02   -1,259155124e-01   -3,628643453e-01   -5,607798696e-01    0,000000000e+00    0,000000000e+00    0,000000000e+00    0,000000000e+00
      590000000   -9,508950263e-02   -1,279355139e-01   -6,184273362e-01   -2,716257572e-01    0,000000000e+00    0,000000000e+00    0,000000000e+00    0,000000000e+00
      604000000   -1,428308487e-01   -7,773427665e-02   -6,672090888e-01    1,264086068e-01    0,000000000e+00    0,000000000e+00    0,000000000e+00    0,000000000e+00
      618000000   -1,381591558e-01   -1,061116438e-02   -4,751690030e-01    4,854576886e-01    0,000000000e+00    0,000000000e+00    0,000000000e+00    0,000000000e+00
      632000000   -9,344167262e-02    2,234618925e-02   -1,134783924e-01    6,634960175e-01    0,000000000e+00    0,000000000e+00    0,000000000e+00    0,000000000e+00
      646000000   -5,557760969e-02    1,241068076e-02    2,741069496e-01    6,036370993e-01    0,000000000e+00    0,000000000e+00    0,000000000e+00    0,000000000e+00
      660000000   -4,750581086e-02   -8,456414565e-03    5,569393635e-01    3,407024741e-01    0,000000000e+00    0,000000000e+00    0,000000000e+00    0,000000000e+00
      674000000   -5,604343116e-02   -1,115977019e-02    6,441389918e-01   -3,979796171e-02    0,000000000e+00    0,000000000e+00    0,000000000e+00    0,000000000e+00
      688000000   -5,029181391e-02    2,317819512e-03    4,937014580e-01   -4,015957713e-01    0,000000000e+00    0,000000000e+00    0,000000000e+00    0,000000000e+00
      702000000   -2,644861490e-02    8,437784389e-03    1,586001366e-01   -6,021122336e-01    0,000000000e+00    0,000000000e+00    0,000000000e+00    0,000000000e+00
      716000000   -1,135138213e-03   -9,409108199e-03   -2,193465382e-01   -5,751491785e-01    0,000000000e+00    0,000000000e+00    0,000000000e+00    0,000000000e+00
      730000000    1,015823614e-02   -3,417489678e-02   -5,092997551e-01   -3,332354724e-01    0,000000000e+00    0,000000000e+00    0,000000000e+00    0,000000000e+00
      744000000    1,664555818e-02   -6,174228340e-02   -6,006314158e-01    3,298926353e-02    0,000000000e+00    0,000000000e+00    0,000000000e+00    0,000000000e+00
      758000000    2,264536917e-02   -1,035886481e-01   -4,540002346e-01    3,772342205e-01    0,000000000e+00    0,000000000e+00    0,000000000e+00    0,000000000e+00
      772000000   -5,144947674e-03   -1,738723218e-01   -1,399202496e-01    5,585414767e-01    0,000000000e+00    0,000000000e+00    0,000000000e+00    0,000000000e+00
      786000000   -1,051270887e-01   -2,318660319e-01    2,110238969e-01    5,194080472e-01    0,000000000e+00    0,000000000e+00    0,000000000e+00    0,000000000e+00
      800000000   -2,660284042e-01   -1,920175999e-01    4,720372856e-01    2,756620049e-01    0,000000000e+00    0,000000000e+00    0,000000000e+00    0,000000000e+00
      814000000   -3,639654517e-01    3,075173358e-03    5,079478621e-01   -8,827866614e-02    0,000000000e+00    0,000000000e+00    0,000000000e+00    0,000000000e+00
      828000000   -2,483909130e-01    2,331875414e-01    2,813708484e-01   -3,526465595e-01    0,000000000e+00    0,000000000e+00    0,000000000e+00    0,000000000e+00
      842000000    1,257755328e-02    2,777013481e-01   -1,590420306e-02   -3,626084030e-01    0,000000000e+00    0,000000000e+00    0,000000000e+00    0,000000000e+00
      856000000    2,127704769e-01    1,158388034e-01   -1,877415180e-01   -2,044209987e-01    0,000000000e+00    0,000000000e+00    0,000000000e+00    0,000000000e+00
      870000000    2,387263179e-01   -1,487576514e-01   -2,007809430e-01   -2,566204965e-02    0,000000000e+00    0,000000000e+00    0,000000000e+00    0,000000000e+00
      884000000    3,810310736e-02   -3,864253163e-01   -1,042401791e-01    7,062026858e-02    0,000000000e+00    0,000000000e+00    0,000000000e+00    0,000000000e+00
      898000000   -3,700356483e-01   -3,420662880e-01   -1,697213762e-02    2,820626460e-02    0,000000000e+00    0,000000000e+00    0,000000000e+00    0,000000000e+00
      912000000   -4,674084187e-01    1,377442628e-01   -1,038933620e-01    3,100523725e-02    0,000000000e+00    0,000000000e+00    0,000000000e+00    0,000000000e+00
      926000000   -9,407349676e-02    3,519634008e-01   -1,275818795e-01    1,352287084e-01    0,000000000e+00    0,000000000e+00    0,000000000e+00    0,000000000e+00
      940000000    1,836728007e-01    1,931650490e-01   -3,954140097e-02    2,158680707e-01    0,000000000e+00    0,000000000e+00    0,000000000e+00    0,000000000e+00
      954000000    2,564789057e-01   -4,935235530e-02    8,006063104e-02    2,272842228e-01    0,000000000e+00    0,000000000e+00    0,000000000e+00    0,000000000e+00
      968000000    1,757187843e-01   -2,638783753e-01    1,925478578e-01    1,804492325e-01    0,000000000e+00    0,000000000e+00    0,000000000e+00    0,000000000e+00
      982000000   -1,736683398e-02   -3,954609334e-01    2,787677944e-01    8,145236224e-02    0,000000000e+00    0,000000000e+00    0,000000000e+00    0,000000000e+00
      996000000   -2,724238932e-01   -3,790815473e-01    3,093674481e-01   -7,972031832e-02    0,000000000e+00    0,000000000e+00    0,000000000e+00    0,000000000e+00
     1010000000   -4,668230712e-01   -1,723629832e-01    2,208696455e-01   -2,514168918e-01    0,000000000e+00    0,000000000e+00    0,000000000e+00    0,000000000e+00
     1024000000   -4,586139619e-01    1,201711372e-01    2,167668007e-02   -3,308972716e-01    0,000000000e+00    0,000000000e+00    0,000000000e+00    0,000000000e+00
     1038000000   -2,656442225e-01    3,020204306e-01   -1,714883298e-01   -2,491086274e-01    0,000000000e+00    0,000000000e+00    0,000000000e+00    0,000000000e+00
     1052000000   -3,585618362e-02    3,057090938e-01   -2,572301328e-01   -7,849717885e-02    0,000000000e+00    0,000000000e+00    0,000000000e+00    0,000000000e+00
     1066000000    1,240744740e-01    2,065908760e-01   -2,223364711e-01    8,552986383e-02    0,000000000e+00    0,000000000e+00    0,000000000e+00    0,000000000e+00
     1080000000    2,047566026e-01    4,691870138e-02   -1,209813729e-01    1,917807460e-01    0,000000000e+00    0,000000000e+00    0,000000000e+00    0,000000000e+00
     1094000000    2,031040937e-01   -1,280792803e-01    1,708022133e-02    2,345803678e-01    0,000000000e+00    0,000000000e+00    0,000000000e+00    0,000000000e+00
     1108000000    1,016530693e-01   -2,847865820e-01    1,674989611e-01    2,085626572e-01    0,000000000e+00    0,000000000e+00    0,000000000e+00    0,000000000e+00
     1122000000   -9,915167093e-02   -3,719910383e-01    3,173978925e-01    8,780563623e-02    0,000000000e+00    0,000000000e+00    0,000000000e+00    0,000000000e+00
     1136000000   -3,440712690e-01   -2,663497627e-01    3,912268281e-01   -1,502485126e-01    0,000000000e+00    0,000000000e+00    0,000000000e+00    0,000000000e+00
     1150000000   -4,049805999e-01    3,270886466e-02    2,440647334e-01   -4,394800663e-01    0,000000000e+00    0,000000000e+00    0,000000000e+00    0,000000000e+00
     1164000000   -1,627777666e-01    2,214981318e-01   -9,627819806e-02   -5,145133734e-01    0,000000000e+00    0,000000000e+00    0,000000000e+00    0,000000000e+00
     1178000000    7,241229713e-02    8,541522175e-02   -3,579387665e-01   -3,465026617e-01    0,000000000e+00    0,000000000e+00    0,000000000e+00    0,000000000e+00
     1192000000    7,548705488e-02   -1,716675758e-01   -4,546118379e-01   -8,337435126e-02    0,000000000e+00    0,000000000e+00    0,000000000e+00    0,000000000e+00
     1206000000   -1,634229124e-01   -3,243410885e-01   -3,686801195e-01    1,883425713e-01    0,000000000e+00    0,000000000e+00    0,000000000e+00    0,000000000e+00
     1220000000   -4,583290815e-01   -1,746808738e-01   -1,088057682e-01    3,292448819e-01    0,000000000e+00    0,000000000e+00    0,000000000e+00    0,000000000e+00
     1234000000   -4,692692161e-01    1,693442911e-01    1,379067451e-01    2,275538146e-01    0,000000000e+00    0,000000000e+00    0,000000000e+00    0,000000000e+00
     1248000000   -2,354050726e-01    3,522455990e-01    1,922206879e-01    3,214046732e-02    0,000000000e+00    0,000000000e+00    0,000000000e+00    0,000000000e+00
     1262000000    9,448673809e-04    3,295079470e-01    1,297564358e-01   -7,130102068e-02    0,000000000e+00    0,000000000e+00    0,000000000e+00    0,000000000e+00
     1276000000    1,602840275e-01    2,023746073e-01    5,624145642e-02   -9,436201304e-02    0,000000000e+00    0,000000000e+00    0,000000000e+00    0,000000000e+00
     1290000000    2,153641284e-01    2,927677892e-02    7,837710291e-05   -7,746522874e-02    0,000000000e+00    0,000000000e+00    0,000000000e+00    0,000000000e+00
     1304000000    2,061827332e-01   -1,480182856e-01   -1,943859458e-02   -3,277272359e-02    0,000000000e+00    0,000000000e+00    0,000000000e+00    0,000000000e+00
     1318000000    1,151176393e-01   -3,112301528e-01   -3,792087780e-03    2,033873461e-02    0,000000000e+00    0,000000000e+00    0,000000000e+00    0,000000000e+00
     1332000000   -6,336931139e-02   -4,354103208e-01    5,023621395e-02    6,204279512e-02    0,000000000e+00    0,000000000e+00    0,000000000e+00    0,000000000e+00
     1346000000   -3,239427507e-01   -4,316150844e-01    1,488421559e-01    4,680857435e-02    0,000000000e+00    0,000000000e+00    0,000000000e+00    0,000000000e+00
     1360000000   -5,587951541e-01   -2,476257980e-01    1,062973812e-01   -8,941188455e-02    0,000000000e+00    0,000000000e+00    0,000000000e+00    0,000000000e+00
     1374000000   -6,245505810e-01    3,849190101e-02    1,085675806e-01    6,609758735e-02    0,000000000e+00    0,000000000e+00    0,000000000e+00    0,000000000e+00
     1388000000   -5,177173018e-01    2,914952040e-01    2,195684761e-01    6,593757775e-03    0,000000000e+00    0,000000000e+00    0,000000000e+00    0,000000000e+00
     1402000000   -3,021901250e-01    4,177854955e-01    2,271678150e-01   -7,945001870e-02    0,000000000e+00    0,000000000e+00    0,000000000e+00    0,000000000e+00
     1416000000   -9,096137434e-02    4,233839810e-01    1,907525063e-01   -1,040429547e-01    0,000000000e+00    0,000000000e+00    0,000000000e+00    0,000000000e+00
     1430000000    7,570198923e-02    3,355266154e-01    1,449114382e-01   -9,870783240e-02    0,000000000e+00    0,000000000e+00    0,000000000e+00    0,000000000e+00
     1444000000    1,727530956e-01    2,015630901e-01    1,504057050e-01   -9,619852155e-02    0,000000000e+00    0,000000000e+00    0,000000000e+00    0,000000000e+00
     1458000000    2,191151679e-01    3,390054032e-02    1,523968130e-01   -8,702921867e-02    0,000000000e+00    0,000000000e+00    0,000000000e+00    0,000000000e+00
     1472000000    2,066171169e-01   -1,484077871e-01    1,523192823e-01   -5,284705386e-02    0,000000000e+00    0,000000000e+00    0,000000000e+00    0,000000000e+00
     1486000000    1,097805277e-01   -3,200493753e-01    1,532434374e-01   -4,237006884e-03    0,000000000e+00    0,000000000e+00    0,000000000e+00    0,000000000e+00
     1500000000   -1,001344994e-01   -4,657630622e-01    2,047377378e-01    5,165932700e-02    0,000000000e+00    0,000000000e+00    0,000000000e+00    0,000000000e+00
