! NanoVNA-App
! Date: 2025-09-25 14:21:04
! Start: 100MHz Stop: 1,5GHz Points: 101
! S-Parameter data: F S11 S21 S12 S22
# Hz S RI R 50
!     Frequency           S11_Real           S11_Imag           S21_Real           S21_Imag           S12_Real           S12_Imag           S22_Real           S22_Imag
      100000000   -2,907272428e-02   -4,128924105e-03    3,744295835e-01   -7,220831513e-01    0,000000000e+00    0,000000000e+00    0,000000000e+00    0,000000000e+00
      114000000   -1,659023017e-02    1,161850803e-02   -8,895183355e-02   -8,057734370e-01    0,000000000e+00    0,000000000e+00    0,000000000e+00    0,000000000e+00
      128000000    3,452743869e-03    1,055142283e-02   -5,147195458e-01   -6,212078333e-01    0,000000000e+00    0,000000000e+00    0,000000000e+00    0,000000000e+00
      142000000    1,447312254e-02   -3,066485748e-03   -7,674921751e-01   -2,367770523e-01    0,000000000e+00    0,000000000e+00    0,000000000e+00    0,000000000e+00
      156000000    1,565153338e-02   -1,468089130e-02   -7,701719999e-01    2,238192111e-01    0,000000000e+00    0,000000000e+00    0,000000000e+00    0,000000000e+00
      170000000    1,658168994e-02   -2,250327542e-02   -5,187417269e-01    6,050689816e-01    0,000000000e+00    0,000000000e+00    0,000000000e+00    0,000000000e+00
      184000000    2,093734406e-02   -3,711999953e-02   -1,017506197e-01    7,869906425e-01    0,000000000e+00    0,000000000e+00    0,000000000e+00    0,000000000e+00
      198000000    1,303710602e-02   -6,257078052e-02    3,430911601e-01    7,129120231e-01    0,000000000e+00    0,000000000e+00    0,000000000e+00    0,000000000e+00
      212000000   -1,874236390e-02   -8,165056258e-02    6,783553958e-01    4,107356668e-01    0,000000000e+00    0,000000000e+00    0,000000000e+00    0,000000000e+00
      226000000   -6,212717667e-02   -6,964567304e-02    7,961806655e-01   -2,979286201e-02    0,000000000e+00    0,000000000e+00    0,000000000e+00    0,000000000e+00
      240000000   -8,315430582e-02   -2,601272985e-02    6,470591426e-01   -4,667313099e-01    0,000000000e+00    0,000000000e+00    0,000000000e+00    0,000000000e+00
      254000000   -6,434169412e-02    1,730378903e-02    2,774482369e-01   -7,433576584e-01    0,000000000e+00    0,000000000e+00    0,000000000e+00    0,000000000e+00
      268000000   -2,423527092e-02    2,958380058e-02   -1,771783084e-01   -7,648062110e-01    0,000000000e+00    0,000000000e+00    0,000000000e+00    0,000000000e+00
      282000000    4,106822889e-03    1,213742606e-02   -5,627298355e-01   -5,372216105e-01    0,000000000e+00    0,000000000e+00    0,000000000e+00    0,000000000e+00
      296000000    9,583890438e-03   -7,630058099e-03   -7,609513402e-01   -1,395515203e-01    0,000000000e+00    0,000000000e+00    0,000000000e+00    0,000000000e+00
      310000000    1,084461436e-02   -1,609430648e-02   -7,142946720e-01    2,981799543e-01    0,000000000e+00    0,000000000e+00    0,000000000e+00    0,000000000e+00
      324000000    1,950413734e-02   -2,653081156e-02   -4,282785356e-01    6,375045180e-01    0,000000000e+00    0,000000000e+00    0,000000000e+00    0,000000000e+00
      338000000    2,535626106e-02   -5,194808170e-02   -8,926905692e-03    7,613142133e-01    0,000000000e+00    0,000000000e+00    0,000000000e+00    0,000000000e+00
      352000000    7,396330591e-03   -8,496133238e-02    4,056217372e-01    6,398359537e-01    0,000000000e+00    0,000000000e+00    0,000000000e+00    0,000000000e+00
      366000000   -3,480331227e-02   -9,597545862e-02    6,905646324e-01    3,123114109e-01    0,000000000e+00    0,000000000e+00    0,000000000e+00    0,000000000e+00
      380000000   -7,133294642e-02   -7,128804177e-02    7,487504482e-01   -1,252365708e-01    0,000000000e+00    0,000000000e+00    0,000000000e+00    0,000000000e+00
      394000000   -7,342299819e-02   -3,233935684e-02    5,468236804e-01   -5,219882131e-01    0,000000000e+00    0,000000000e+00    0,000000000e+00    0,000000000e+00
      408000000   -4,681497440e-02   -1,554847136e-02    1,626273245e-01   -7,331368923e-01    0,000000000e+00    0,000000000e+00    0,000000000e+00    0,000000000e+00
      422000000   -2,849649079e-02   -3,141997755e-02   -2,658779621e-01   -6,959517598e-01    0,000000000e+00    0,000000000e+00    0,000000000e+00    0,000000000e+00
      436000000   -4,025400802e-02   -5,228960514e-02   -6,025210023e-01   -4,344742596e-01    0,000000000e+00    0,000000000e+00    0,000000000e+00    0,000000000e+00
      450000000   -6,740248948e-02   -4,486298934e-02   -7,400787473e-01   -2,482824400e-02    0,000000000e+00    0,000000000e+00    0,000000000e+00    0,000000000e+00
      464000000   -7,400897145e-02   -1,191566885e-02   -6,212195754e-01    3,948103487e-01    0,000000000e+00    0,000000000e+00    0,000000000e+00    0,000000000e+00
      478000000   -4,923457280e-02    1,217704639e-02   -2,868762612e-01    6,680691242e-01    0,000000000e+00    0,000000000e+00    0,000000000e+00    0,000000000e+00
      492000000   -1,672643982e-02    6,229119375e-03    1,342244595e-01    7,034376860e-01    0,000000000e+00    0,000000000e+00    0,000000000e+00    0,000000000e+00
      506000000   -3,854027251e-03   -1,525986847e-02    4,969432056e-01    5,060865283e-01    0,000000000e+00    0,000000000e+00    0,000000000e+00    0,000000000e+00
      520000000   -6,092605181e-03   -2,985906415e-02    6,883629560e-01    1,436559260e-01    0,000000000e+00    0,000000000e+00    0,000000000e+00    0,000000000e+00
      534000000   -3,542357357e-03   -3,560596704e-02    6,442227960e-01   -2,598855495e-01    0,000000000e+00    0,000000000e+00    0,000000000e+00    0,000000000e+00
      548000000    8,186772466e-03   -5,271299928e-02    3,856507540e-01   -5,649009943e-01    0,000000000e+00    0,000000000e+00    0,000000000e+00    0,000000000e+00
      562000000    5,467358511e-03   -8,975110948e-02    8,551011793e-03   -6,722730994e-01    0,000000000e+00    0,000000000e+00    0,000000000e+00    0,000000000e+00
      576000000   -3,154273704e-02   -1,260706484e-01   -3,626525402e-01   -5,607390404e-01    0,000000000e+00    0,000000000e+00    0,000000000e+00    0,000000000e+00
      590000000   -9,464173019e-02   -1,277169436e-01   -6,184241176e-01   -2,727061808e-01    0,000000000e+00    0,000000000e+00    0,000000000e+00    0,000000000e+00
      604000000   -1,432963908e-01   -7,753722370e-02   -6,676354408e-01    1,268156767e-01    0,000000000e+00    0,000000000e+00    0,000000000e+00    0,000000000e+00
      618000000   -1,386947781e-01   -1,135182753e-02   -4,754202664e-01    4,851766229e-01    0,000000000e+00    0,000000000e+00    0,000000000e+00    0,000000000e+00
      632000000   -9,294095635e-02    2,216883749e-02   -1,122073159e-01    6,622421145e-01    0,000000000e+00    0,000000000e+00    0,000000000e+00    0,000000000e+00
      646000000   -5,525189638e-02    1,262266189e-02    2,741226852e-01    6,038358212e-01    0,000000000e+00    0,000000000e+00    0,000000000e+00    0,000000000e+00
      660000000   -4,757800326e-02   -8,942242712e-03    5,572950244e-01    3,405144513e-01    0,000000000e+00    0,000000000e+00    0,000000000e+00    0,000000000e+00
      674000000   -5,515906587e-02   -1,031947229e-02    6,441090107e-01   -3,993686289e-02    0,000000000e+00    0,000000000e+00    0,000000000e+00    0,000000000e+00
      688000000   -4,971223697e-02    3,688653931e-03    4,930050373e-01   -4,014529288e-01    0,000000000e+00    0,000000000e+00    0,000000000e+00    0,000000000e+00
      702000000   -2,623290569e-02    6,602598820e-03    1,650470644e-01   -6,030260921e-01    0,000000000e+00    0,000000000e+00    0,000000000e+00    0,000000000e+00
      716000000   -1,586474944e-03   -9,652184322e-03   -2,186935991e-01   -5,750690103e-01    0,000000000e+00    0,000000000e+00    0,000000000e+00    0,000000000e+00
      730000000    1,032301877e-02   -3,428225964e-02   -5,094007254e-01   -3,333023787e-01    0,000000000e+00    0,000000000e+00    0,000000000e+00    0,000000000e+00
      744000000    1,703881100e-02   -6,030682102e-02   -6,010050774e-01    3,308414668e-02    0,000000000e+00    0,000000000e+00    0,000000000e+00    0,000000000e+00
      758000000    2,130847052e-02   -1,033309400e-01   -4,542829990e-01    3,778851926e-01    0,000000000e+00    0,000000000e+00    0,000000000e+00    0,000000000e+00
      772000000   -5,313434638e-03   -1,737518907e-01   -1,395326108e-01    5,584531426e-01    0,000000000e+00    0,000000000e+00    0,000000000e+00    0,000000000e+00
      786000000   -1,055112630e-01   -2,330222428e-01    2,114335597e-01    5,191793442e-01    0,000000000e+00    0,000000000e+00    0,000000000e+00    0,000000000e+00
      800000000   -2,651896179e-01   -1,931845397e-01    4,715119302e-01    2,750039101e-01    0,000000000e+00    0,000000000e+00    0,000000000e+00    0,000000000e+00
      814000000   -3,647555113e-01    2,912719734e-03    5,080677271e-01   -8,840943873e-02    0,000000000e+00    0,000000000e+00    0,000000000e+00    0,000000000e+00
      828000000   -2,476585209e-01    2,324706614e-01    2,818309069e-01   -3,527257144e-01    0,000000000e+00    0,000000000e+00    0,000000000e+00    0,000000000e+00
      842000000    1,282492932e-02    2,782163918e-01   -1,560834330e-02   -3,620152771e-01    0,000000000e+00    0,000000000e+00    0,000000000e+00    0,000000000e+00
      856000000    2,126790881e-01    1,157218367e-01   -1,878126711e-01   -2,044088393e-01    0,000000000e+00    0,000000000e+00    0,000000000e+00    0,000000000e+00
      870000000    2,383769453e-01   -1,489944160e-01   -2,008774430e-01   -2,616205625e-02    0,000000000e+00    0,000000000e+00    0,000000000e+00    0,000000000e+00
      884000000    3,701827303e-02   -3,857383132e-01   -1,036844626e-01    7,072436810e-02    0,000000000e+00    0,000000000e+00    0,000000000e+00    0,000000000e+00
      898000000   -3,697626591e-01   -3,410683274e-01   -1,702498831e-02    2,735113911e-02    0,000000000e+00    0,000000000e+00    0,000000000e+00    0,000000000e+00
      912000000   -4,663719237e-01    1,391149163e-01   -1,182522699e-01    2,492243238e-02    0,000000000e+00    0,000000000e+00    0,000000000e+00    0,000000000e+00
      926000000   -9,746054560e-02    3,517362773e-01   -1,307588369e-01    1,347369254e-01    0,000000000e+00    0,000000000e+00    0,000000000e+00    0,000000000e+00
      940000000    1,821445972e-01    1,923421472e-01   -3,878218681e-02    2,143774480e-01    0,000000000e+00    0,000000000e+00    0,000000000e+00    0,000000000e+00
      954000000    2,541240156e-01   -5,061317608e-02    7,945498824e-02    2,279602289e-01    0,000000000e+00    0,000000000e+00    0,000000000e+00    0,000000000e+00
      968000000    1,736667901e-01   -2,613161206e-01    1,922831982e-01    1,794074178e-01    0,000000000e+00    0,000000000e+00    0,000000000e+00    0,000000000e+00
      982000000   -1,930643059e-02   -3,959659636e-01    2,804637551e-01    7,961720973e-02    0,000000000e+00    0,000000000e+00    0,000000000e+00    0,000000000e+00
      996000000   -2,726490498e-01   -3,795284331e-01    3,092624545e-01   -7,872484624e-02    0,000000000e+00    0,000000000e+00    0,000000000e+00    0,000000000e+00
     1010000000   -4,661546648e-01   -1,709698737e-01    2,230784297e-01   -2,519045770e-01    0,000000000e+00    0,000000000e+00    0,000000000e+00    0,000000000e+00
     1024000000   -4,632853270e-01    1,208951846e-01    2,099172771e-02   -3,307517469e-01    0,000000000e+00    0,000000000e+00    0,000000000e+00    0,000000000e+00
     1038000000   -2,668040097e-01    2,963036001e-01   -1,723353267e-01   -2,481808960e-01    0,000000000e+00    0,000000000e+00    0,000000000e+00    0,000000000e+00
     1052000000   -3,985080495e-02    3,117570579e-01   -2,589397430e-01   -7,714186609e-02    0,000000000e+00    0,000000000e+00    0,000000000e+00    0,000000000e+00
     1066000000    1,273110509e-01    2,051524222e-01   -2,238929421e-01    8,178962022e-02    0,000000000e+00    0,000000000e+00    0,000000000e+00    0,000000000e+00
     1080000000    2,058713585e-01    4,610664025e-02   -1,214017496e-01    1,933294386e-01    0,000000000e+00    0,000000000e+00    0,000000000e+00    0,000000000e+00
     1094000000    2,028905004e-01   -1,295636743e-01    1,710015163e-02    2,351892442e-01    0,000000000e+00    0,000000000e+00    0,000000000e+00    0,000000000e+00
     1108000000    9,775844961e-02   -2,877725065e-01    1,683395654e-01    2,056878060e-01    0,000000000e+00    0,000000000e+00    0,000000000e+00    0,000000000e+00
     1122000000   -9,997485578e-02   -3,655462861e-01    3,134980798e-01    8,782008290e-02    0,000000000e+00    0,000000000e+00    0,000000000e+00    0,000000000e+00
     1136000000   -3,446653187e-01   -2,729690373e-01    3,901149333e-01   -1,499491930e-01    0,000000000e+00    0,000000000e+00    0,000000000e+00    0,000000000e+00
     1150000000   -4,029105008e-01    3,270858526e-02    2,433370650e-01   -4,375801086e-01    0,000000000e+00    0,000000000e+00    0,000000000e+00    0,000000000e+00
     1164000000   -1,647080034e-01    2,195163816e-01   -9,602214396e-02   -5,119519234e-01    0,000000000e+00    0,000000000e+00    0,000000000e+00    0,000000000e+00
     1178000000    7,275716215e-02    8,407291770e-02   -3,566835225e-01   -3,491147757e-01    0,000000000e+00    0,000000000e+00    0,000000000e+00    0,000000000e+00
     1192000000    7,518910617e-02   -1,766161025e-01   -4,520435035e-01   -8,925947547e-02    0,000000000e+00    0,000000000e+00    0,000000000e+00    0,000000000e+00
     1206000000   -1,642258018e-01   -3,264665902e-01   -3,704738021e-01    1,890738457e-01    0,000000000e+00    0,000000000e+00    0,000000000e+00    0,000000000e+00
     1220000000   -4,524251521e-01   -1,755689532e-01   -1,048984528e-01    3,286699057e-01    0,000000000e+00    0,000000000e+00    0,000000000e+00    0,000000000e+00
     1234000000   -4,702366292e-01    1,678582281e-01    1,403553784e-01    2,264755219e-01    0,000000000e+00    0,000000000e+00    0,000000000e+00    0,000000000e+00
     1248000000   -2,351206392e-01    3,610560298e-01    1,918940842e-01    3,490408137e-02    0,000000000e+00    0,000000000e+00    0,000000000e+00    0,000000000e+00
     1262000000    6,059188861e-03    3,239842951e-01    1,300472468e-01   -7,304855436e-02    0,000000000e+00    0,000000000e+00    0,000000000e+00    0,000000000e+00
     1276000000    1,584658027e-01    2,039822042e-01    5,443131179e-02   -9,265915304e-02    0,000000000e+00    0,000000000e+00    0,000000000e+00    0,000000000e+00
     1290000000    2,172815502e-01    3,494792432e-02    1,171863754e-03   -6,912956387e-02    0,000000000e+00    0,000000000e+00    0,000000000e+00    0,000000000e+00
     1304000000    2,037965506e-01   -1,445557177e-01   -2,208493091e-02   -2,805819735e-02    0,000000000e+00    0,000000000e+00    0,000000000e+00    0,000000000e+00
     1318000000    1,152289435e-01   -3,099449575e-01   -1,334872376e-02    2,026958019e-02    0,000000000e+00    0,000000000e+00    0,000000000e+00    0,000000000e+00
     1332000000   -6,739941239e-02   -4,332301617e-01    4,761620611e-02    6,085273623e-02    0,000000000e+00    0,000000000e+00    0,000000000e+00    0,000000000e+00
     1346000000   -3,314408660e-01   -4,277513921e-01    1,395821422e-01    5,927946791e-02    0,000000000e+00    0,000000000e+00    0,000000000e+00    0,000000000e+00
     1360000000   -5,472837687e-01   -2,421766520e-01    1,242586598e-01   -7,280784100e-02    0,000000000e+00    0,000000000e+00    0,000000000e+00    0,000000000e+00
     1374000000   -6,204176545e-01    3,506769240e-02    1,048004776e-01    6,340826303e-02    0,000000000e+00    0,000000000e+00    0,000000000e+00    0,000000000e+00
     1388000000   -5,163158774e-01    2,931865454e-01    2,224014252e-01    1,257699076e-02    0,000000000e+00    0,000000000e+00    0,000000000e+00    0,000000000e+00
     1402000000   -3,090565503e-01    4,203560948e-01    2,164879143e-01   -7,906941324e-02    0,000000000e+00    0,000000000e+00    0,000000000e+00    0,000000000e+00
     1416000000   -8,801013976e-02    4,227857292e-01    1,923451424e-01   -1,140443981e-01    0,000000000e+00    0,000000000e+00    0,000000000e+00    0,000000000e+00
     1430000000    8,566465974e-02    3,342526853e-01    1,622244418e-01   -1,553342640e-01    0,000000000e+00    0,000000000e+00    0,000000000e+00    0,000000000e+00
     1444000000    1,784744412e-01    1,981777847e-01    1,567974389e-01   -1,067304462e-01    0,000000000e+00    0,000000000e+00    0,000000000e+00    0,000000000e+00
     1458000000    2,279339880e-01    3,426380083e-02    1,633310914e-01   -8,508950472e-02    0,000000000e+00    0,000000000e+00    0,000000000e+00    0,000000000e+00
     1472000000    2,060101777e-01   -1,447599083e-01    1,487320960e-01   -5,918958411e-02    0,000000000e+00    0,000000000e+00    0,000000000e+00    0,000000000e+00
     1486000000    1,029624715e-01   -3,207483590e-01    1,558300853e-01   -6,260759197e-03    0,000000000e+00    0,000000000e+00    0,000000000e+00    0,000000000e+00
     1500000000   -9,759851545e-02   -4,598054290e-01    2,013643086e-01    5,324747041e-02    0,000000000e+00    0,000000000e+00    0,000000000e+00    0,000000000e+00
