! NanoVNA-App
! Date: 2025-09-25 14:27:23
! Start: 100MHz Stop: 1,5GHz Points: 101
! S-Parameter data: F S11 S21 S12 S22
# Hz S RI R 50
!     Frequency           S11_Real           S11_Imag           S21_Real           S21_Imag           S12_Real           S12_Imag           S22_Real           S22_Imag
      100000000   -2,910216898e-02   -4,123774823e-03    3,745616674e-01   -7,220035791e-01    0,000000000e+00    0,000000000e+00    0,000000000e+00    0,000000000e+00
      114000000   -1,664269716e-02    1,160700060e-02   -8,873340487e-02   -8,058738112e-01    0,000000000e+00    0,000000000e+00    0,000000000e+00    0,000000000e+00
      128000000    3,470562398e-03    1,050146110e-02   -5,143988729e-01   -6,209800243e-01    0,000000000e+00    0,000000000e+00    0,000000000e+00    0,000000000e+00
      142000000    1,443436742e-02   -3,077614354e-03   -7,674566507e-01   -2,369364351e-01    0,000000000e+00    0,000000000e+00    0,000000000e+00    0,000000000e+00
      156000000    1,500422042e-02   -1,498132851e-02   -7,679202557e-01    2,223214060e-01    0,000000000e+00    0,000000000e+00    0,000000000e+00    0,000000000e+00
      170000000    1,648052968e-02   -2,253688127e-02   -5,188125372e-01    6,047610044e-01    0,000000000e+00    0,000000000e+00    0,000000000e+00    0,000000000e+00
      184000000    2,099141106e-02   -3,698712215e-02   -1,018267348e-01    7,865132689e-01    0,000000000e+00    0,000000000e+00    0,000000000e+00    0,000000000e+00
      198000000    1,312130410e-02   -6,261070073e-02    3,432732224e-01    7,132895589e-01    0,000000000e+00    0,000000000e+00    0,000000000e+00    0,000000000e+00
      212000000   -1,869903319e-02   -8,172409981e-02    6,783391833e-01    4,107581079e-01    0,000000000e+00    0,000000000e+00    0,000000000e+00    0,000000000e+00
      226000000   -6,211945787e-02   -6,974319369e-02    7,960939407e-01   -2,966545895e-02    0,000000000e+00    0,000000000e+00    0,000000000e+00    0,000000000e+00
      240000000   -8,323122561e-02   -2,601808496e-02    6,471408010e-01   -4,667726755e-01    0,000000000e+00    0,000000000e+00    0,000000000e+00    0,000000000e+00
      254000000   -6,435556710e-02    1,749562472e-02    2,771088183e-01   -7,428108454e-01    0,000000000e+00    0,000000000e+00    0,000000000e+00    0,000000000e+00
      268000000   -2,402881533e-02    2,945275232e-02   -1,769175380e-01   -7,649536729e-01    0,000000000e+00    0,000000000e+00    0,000000000e+00    0,000000000e+00
      282000000    4,045273177e-03    1,212679315e-02   -5,624055862e-01   -5,375524163e-01    0,000000000e+00    0,000000000e+00    0,000000000e+00    0,000000000e+00
      296000000    9,536579251e-03   -7,720422931e-03   -7,606788874e-01   -1,394812912e-01    0,000000000e+00    0,000000000e+00    0,000000000e+00    0,000000000e+00
      310000000    1,086271647e-02   -1,612231880e-02   -7,121574879e-01    2,980805933e-01    0,000000000e+00    0,000000000e+00    0,000000000e+00    0,000000000e+00
      324000000    1,955432445e-02   -2,634313703e-02   -4,288046062e-01    6,384696960e-01    0,000000000e+00    0,000000000e+00    0,000000000e+00    0,000000000e+00
      338000000    2,551829815e-02   -5,218676850e-02   -1,081668213e-02    7,604107261e-01    0,000000000e+00    0,000000000e+00    0,000000000e+00    0,000000000e+00
      352000000    7,309806067e-03   -8,473992348e-02    4,050631523e-01    6,404453516e-01    0,000000000e+00    0,000000000e+00    0,000000000e+00    0,000000000e+00
      366000000   -3,492157534e-02   -9,628256410e-02    6,904827952e-01    3,121580780e-01    0,000000000e+00    0,000000000e+00    0,000000000e+00    0,000000000e+00
      380000000   -7,150580734e-02   -7,108642161e-02    7,478308082e-01   -1,244370416e-01    0,000000000e+00    0,000000000e+00    0,000000000e+00    0,000000000e+00
      394000000   -7,349938154e-02   -3,236176446e-02    5,474625230e-01   -5,221362114e-01    0,000000000e+00    0,000000000e+00    0,000000000e+00    0,000000000e+00
      408000000   -4,676398635e-02   -1,580555923e-02    1,632799804e-01   -7,324447036e-01    0,000000000e+00    0,000000000e+00    0,000000000e+00    0,000000000e+00
      422000000   -2,829812840e-02   -3,157314658e-02   -2,659012079e-01   -6,963737607e-01    0,000000000e+00    0,000000000e+00    0,000000000e+00    0,000000000e+00
      436000000   -4,018590599e-02   -5,194944888e-02   -6,025929451e-01   -4,341252148e-01    0,000000000e+00    0,000000000e+00    0,000000000e+00    0,000000000e+00
      450000000   -6,748473644e-02   -4,477503523e-02   -7,400249839e-01   -2,558758110e-02    0,000000000e+00    0,000000000e+00    0,000000000e+00    0,000000000e+00
      464000000   -7,425618917e-02   -1,245244499e-02   -6,210517287e-01    3,942533731e-01    0,000000000e+00    0,000000000e+00    0,000000000e+00    0,000000000e+00
      478000000   -4,906520247e-02    1,151052117e-02   -2,864532471e-01    6,676473022e-01    0,000000000e+00    0,000000000e+00    0,000000000e+00    0,000000000e+00
      492000000   -1,722127385e-02    6,362036802e-03    1,338270754e-01    7,041203380e-01    0,000000000e+00    0,000000000e+00    0,000000000e+00    0,000000000e+00
      506000000   -3,690758720e-03   -1,518749073e-02    4,978714585e-01    5,059103966e-01    0,000000000e+00    0,000000000e+00    0,000000000e+00    0,000000000e+00
      520000000   -5,452700891e-03   -2,997031808e-02    6,907634735e-01    1,452181935e-01    0,000000000e+00    0,000000000e+00    0,000000000e+00    0,000000000e+00
      534000000   -3,544671461e-03   -3,598117083e-02    6,447468400e-01   -2,599044740e-01    0,000000000e+00    0,000000000e+00    0,000000000e+00    0,000000000e+00
      548000000    7,821181789e-03   -5,260781199e-02    3,851478398e-01   -5,636273026e-01    0,000000000e+00    0,000000000e+00    0,000000000e+00    0,000000000e+00
      562000000    5,307191052e-03   -8,943317831e-02    8,610019460e-03   -6,714476347e-01    0,000000000e+00    0,000000000e+00    0,000000000e+00    0,000000000e+00
      576000000   -3,117366135e-02   -1,257822216e-01   -3,619136810e-01   -5,604322553e-01    0,000000000e+00    0,000000000e+00    0,000000000e+00    0,000000000e+00
      590000000   -9,515117109e-02   -1,277724952e-01   -6,182039976e-01   -2,720930874e-01    0,000000000e+00    0,000000000e+00    0,000000000e+00    0,000000000e+00
      604000000   -1,431959718e-01   -7,775536925e-02   -6,675581336e-01    1,264686286e-01    0,000000000e+00    0,000000000e+00    0,000000000e+00    0,000000000e+00
      618000000   -1,384277344e-01   -1,095890347e-02   -4,754230976e-01    4,852457047e-01    0,000000000e+00    0,000000000e+00    0,000000000e+00    0,000000000e+00
      632000000   -9,320505708e-02    2,228194475e-02   -1,133603901e-01    6,639999151e-01    0,000000000e+00    0,000000000e+00    0,000000000e+00    0,000000000e+00
      646000000   -5,465114117e-02    1,141501497e-02    2,746035755e-01    6,028546691e-01    0,000000000e+00    0,000000000e+00    0,000000000e+00    0,000000000e+00
      660000000   -4,881668836e-02   -8,952328935e-03    5,574802160e-01    3,397943377e-01    0,000000000e+00    0,000000000e+00    0,000000000e+00    0,000000000e+00
      674000000   -5,568121001e-02   -9,987032972e-03    6,444483995e-01   -3,944002092e-02    0,000000000e+00    0,000000000e+00    0,000000000e+00    0,000000000e+00
      688000000   -4,990399629e-02    2,713234862e-03    4,937115014e-01   -4,024419487e-01    0,000000000e+00    0,000000000e+00    0,000000000e+00    0,000000000e+00
      702000000   -2,549174614e-02    7,943508215e-03    1,614069194e-01   -6,047669649e-01    0,000000000e+00    0,000000000e+00    0,000000000e+00    0,000000000e+00
      716000000   -2,215470653e-03   -9,533575736e-03   -2,187723964e-01   -5,749956369e-01    0,000000000e+00    0,000000000e+00    0,000000000e+00    0,000000000e+00
      730000000    1,018760167e-02   -3,483251482e-02   -5,096565485e-01   -3,332312107e-01    0,000000000e+00    0,000000000e+00    0,000000000e+00    0,000000000e+00
      744000000    1,703150012e-02   -6,038664654e-02   -6,008794904e-01    3,280445561e-02    0,000000000e+00    0,000000000e+00    0,000000000e+00    0,000000000e+00
      758000000    2,178897336e-02   -1,027191430e-01   -4,540831149e-01    3,775971532e-01    0,000000000e+00    0,000000000e+00    0,000000000e+00    0,000000000e+00
      772000000   -5,521004554e-03   -1,735644490e-01   -1,388346255e-01    5,576431751e-01    0,000000000e+00    0,000000000e+00    0,000000000e+00    0,000000000e+00
      786000000   -1,054161265e-01   -2,316741347e-01    2,108542621e-01    5,198076367e-01    0,000000000e+00    0,000000000e+00    0,000000000e+00    0,000000000e+00
      800000000   -2,658398151e-01   -1,926901191e-01    4,718832374e-01    2,753991485e-01    0,000000000e+00    0,000000000e+00    0,000000000e+00    0,000000000e+00
      814000000   -3,650331795e-01    3,382845549e-03    5,079656243e-01   -8,837280422e-02    0,000000000e+00    0,000000000e+00    0,000000000e+00    0,000000000e+00
      828000000   -2,467223406e-01    2,335607857e-01    2,809724510e-01   -3,515429199e-01    0,000000000e+00    0,000000000e+00    0,000000000e+00    0,000000000e+00
      842000000    1,264097355e-02    2,784057856e-01   -1,528376527e-02   -3,633871675e-01    0,000000000e+00    0,000000000e+00    0,000000000e+00    0,000000000e+00
      856000000    2,128281742e-01    1,156620458e-01   -1,875985563e-01   -2,043277323e-01    0,000000000e+00    0,000000000e+00    0,000000000e+00    0,000000000e+00
      870000000    2,390921861e-01   -1,484051347e-01   -2,002868503e-01   -2,639222704e-02    0,000000000e+00    0,000000000e+00    0,000000000e+00    0,000000000e+00
      884000000    3,814081475e-02   -3,868774772e-01   -1,037614271e-01    7,099651545e-02    0,000000000e+00    0,000000000e+00    0,000000000e+00    0,000000000e+00
      898000000   -3,700887263e-01   -3,407334983e-01   -1,760476641e-02    2,803062461e-02    0,000000000e+00    0,000000000e+00    0,000000000e+00    0,000000000e+00
      912000000   -4,676509798e-01    1,380750388e-01   -1,239257976e-01    3,163186833e-02    0,000000000e+00    0,000000000e+00    0,000000000e+00    0,000000000e+00
      926000000   -9,480599314e-02    3,506222069e-01   -1,278417856e-01    1,329219192e-01    0,000000000e+00    0,000000000e+00    0,000000000e+00    0,000000000e+00
      940000000    1,822991073e-01    1,961210072e-01   -3,936840966e-02    2,160421163e-01    0,000000000e+00    0,000000000e+00    0,000000000e+00    0,000000000e+00
      954000000    2,557855546e-01   -4,784721881e-02    7,922126353e-02    2,278147489e-01    0,000000000e+00    0,000000000e+00    0,000000000e+00    0,000000000e+00
      968000000    1,756305695e-01   -2,597076595e-01    1,918331087e-01    1,811430156e-01    0,000000000e+00    0,000000000e+00    0,000000000e+00    0,000000000e+00
      982000000   -1,994321868e-02   -3,940605223e-01    2,793725729e-01    7,931636274e-02    0,000000000e+00    0,000000000e+00    0,000000000e+00    0,000000000e+00
      996000000   -2,737817168e-01   -3,740358949e-01    3,079271317e-01   -8,078953624e-02    0,000000000e+00    0,000000000e+00    0,000000000e+00    0,000000000e+00
     1010000000   -4,654564857e-01   -1,709184945e-01    2,216378897e-01   -2,516467571e-01    0,000000000e+00    0,000000000e+00    0,000000000e+00    0,000000000e+00
     1024000000   -4,578556418e-01    1,190960854e-01    2,265519649e-02   -3,294019997e-01    0,000000000e+00    0,000000000e+00    0,000000000e+00    0,000000000e+00
     1038000000   -2,631793618e-01    2,945930362e-01   -1,723483056e-01   -2,481383830e-01    0,000000000e+00    0,000000000e+00    0,000000000e+00    0,000000000e+00
     1052000000   -3,524620831e-02    3,095111251e-01   -2,578552961e-01   -7,921703160e-02    0,000000000e+00    0,000000000e+00    0,000000000e+00    0,000000000e+00
     1066000000    1,256439686e-01    2,057679594e-01   -2,260110080e-01    8,520474285e-02    0,000000000e+00    0,000000000e+00    0,000000000e+00    0,000000000e+00
     1080000000    2,085807472e-01    4,643948004e-02   -1,212783158e-01    1,920349747e-01    0,000000000e+00    0,000000000e+00    0,000000000e+00    0,000000000e+00
     1094000000    2,001136839e-01   -1,248145700e-01    1,783296838e-02    2,339689285e-01    0,000000000e+00    0,000000000e+00    0,000000000e+00    0,000000000e+00
     1108000000    1,031889543e-01   -2,849384844e-01    1,679999083e-01    2,078033090e-01    0,000000000e+00    0,000000000e+00    0,000000000e+00    0,000000000e+00
     1122000000   -1,020572856e-01   -3,667302430e-01    3,170903027e-01    8,886986971e-02    0,000000000e+00    0,000000000e+00    0,000000000e+00    0,000000000e+00
     1136000000   -3,494153917e-01   -2,729343474e-01    3,906702697e-01   -1,503214389e-01    0,000000000e+00    0,000000000e+00    0,000000000e+00    0,000000000e+00
     1150000000   -4,050735533e-01    4,123796523e-02    2,409037948e-01   -4,351913631e-01    0,000000000e+00    0,000000000e+00    0,000000000e+00    0,000000000e+00
     1164000000   -1,610363424e-01    2,188870162e-01   -9,704498202e-02   -5,147642493e-01    0,000000000e+00    0,000000000e+00    0,000000000e+00    0,000000000e+00
     1178000000    7,471294701e-02    8,339292556e-02   -3,569675982e-01   -3,486089408e-01    0,000000000e+00    0,000000000e+00    0,000000000e+00    0,000000000e+00
     1192000000    7,861521840e-02   -1,755288094e-01   -4,517085254e-01   -8,255145699e-02    0,000000000e+00    0,000000000e+00    0,000000000e+00    0,000000000e+00
     1206000000   -1,615973413e-01   -3,279158175e-01   -3,666010201e-01    1,872716844e-01    0,000000000e+00    0,000000000e+00    0,000000000e+00    0,000000000e+00
     1220000000   -4,547933638e-01   -1,744731963e-01   -1,064176038e-01    3,281016648e-01    0,000000000e+00    0,000000000e+00    0,000000000e+00    0,000000000e+00
     1234000000   -4,753227830e-01    1,702466905e-01    1,385559589e-01    2,248525023e-01    0,000000000e+00    0,000000000e+00    0,000000000e+00    0,000000000e+00
     1248000000   -2,389736176e-01    3,540493846e-01    1,943821609e-01    4,108344391e-02    0,000000000e+00    0,000000000e+00    0,000000000e+00    0,000000000e+00
     1262000000    5,371403880e-03    3,282707334e-01    1,281590015e-01   -7,557081431e-02    0,000000000e+00    0,000000000e+00    0,000000000e+00    0,000000000e+00
     1276000000    1,499272585e-01    2,025671750e-01    5,260405317e-02   -9,892747551e-02    0,000000000e+00    0,000000000e+00    0,000000000e+00    0,000000000e+00
     1290000000    2,172064185e-01    2,882462554e-02   -2,431498608e-03   -7,471826673e-02    0,000000000e+00    0,000000000e+00    0,000000000e+00    0,000000000e+00
     1304000000    2,072189152e-01   -1,434864849e-01   -1,741411164e-02   -2,647762746e-02    0,000000000e+00    0,000000000e+00    0,000000000e+00    0,000000000e+00
     1318000000    1,180718094e-01   -3,124204874e-01   -3,068547463e-03    2,302724496e-02    0,000000000e+00    0,000000000e+00    0,000000000e+00    0,000000000e+00
     1332000000   -6,490665674e-02   -4,343298972e-01    4,729506001e-02    6,178543344e-02    0,000000000e+00    0,000000000e+00    0,000000000e+00    0,000000000e+00
     1346000000   -3,315596581e-01   -4,331839681e-01    1,461002082e-01    5,206989869e-02    0,000000000e+00    0,000000000e+00    0,000000000e+00    0,000000000e+00
     1360000000   -5,608947277e-01   -2,438683510e-01    1,127196848e-01   -8,100328594e-02    0,000000000e+00    0,000000000e+00    0,000000000e+00    0,000000000e+00
     1374000000   -6,261194348e-01    2,796090767e-02    1,052732021e-01    5,526892468e-02    0,000000000e+00    0,000000000e+00    0,000000000e+00    0,000000000e+00
     1388000000   -5,120289326e-01    2,871867716e-01    2,279942483e-01   -6,910630036e-03    0,000000000e+00    0,000000000e+00    0,000000000e+00    0,000000000e+00
     1402000000   -3,051326871e-01    4,146935940e-01    2,186609060e-01   -8,827681839e-02    0,000000000e+00    0,000000000e+00    0,000000000e+00    0,000000000e+00
     1416000000   -9,363720566e-02    4,148682058e-01    1,903711259e-01   -1,232313216e-01    0,000000000e+00    0,000000000e+00    0,000000000e+00    0,000000000e+00
     1430000000    7,319899648e-02    3,344089389e-01    1,769535244e-01   -1,354730427e-01    0,000000000e+00    0,000000000e+00    0,000000000e+00    0,000000000e+00
     1444000000    1,765695214e-01    1,993730962e-01    1,585593373e-01   -1,056368127e-01    0,000000000e+00    0,000000000e+00    0,000000000e+00    0,000000000e+00
     1458000000    2,223986685e-01    3,188731894e-02    1,476396024e-01   -8,216289431e-02    0,000000000e+00    0,000000000e+00    0,000000000e+00    0,000000000e+00
     1472000000    2,078839093e-01   -1,476152986e-01    1,539203078e-01   -5,909100547e-02    0,000000000e+00    0,000000000e+00    0,000000000e+00    0,000000000e+00
     1486000000    1,049357429e-01   -3,261505663e-01    1,557507515e-01   -3,661669092e-03    0,000000000e+00    0,000000000e+00    0,000000000e+00    0,000000000e+00
     1500000000   -9,693447500e-02   -4,580169320e-01    2,133310437e-01    6,709534675e-02    0,000000000e+00    0,000000000e+00    0,000000000e+00    0,000000000e+00
