! NanoVNA-App
! Date: 2025-09-25 14:22:30
! Start: 100MHz Stop: 1,5GHz Points: 101
! S-Parameter data: F S11 S21 S12 S22
# Hz S RI R 50
!     Frequency           S11_Real           S11_Imag           S21_Real           S21_Imag           S12_Real           S12_Imag           S22_Real           S22_Imag
      100000000   -2,909157425e-02   -4,137150478e-03    3,744280636e-01   -7,220362425e-01    0,000000000e+00    0,000000000e+00    0,000000000e+00    0,000000000e+00
      114000000   -1,662185602e-02    1,157755591e-02   -8,904427290e-02   -8,058686852e-01    0,000000000e+00    0,000000000e+00    0,000000000e+00    0,000000000e+00
      128000000    3,356459085e-03    1,058124006e-02   -5,145711303e-01   -6,210364103e-01    0,000000000e+00    0,000000000e+00    0,000000000e+00    0,000000000e+00
      142000000    1,447760966e-02   -3,051435109e-03   -7,675750852e-01   -2,369236052e-01    0,000000000e+00    0,000000000e+00    0,000000000e+00    0,000000000e+00
      156000000    1,551082078e-02   -1,466575451e-02   -7,730523944e-01    2,232482135e-01    0,000000000e+00    0,000000000e+00    0,000000000e+00    0,000000000e+00
      170000000    1,657260954e-02   -2,245698869e-02   -5,186607242e-01    6,047953367e-01    0,000000000e+00    0,000000000e+00    0,000000000e+00    0,000000000e+00
      184000000    2,094821818e-02   -3,707684577e-02   -1,016245037e-01    7,868457437e-01    0,000000000e+00    0,000000000e+00    0,000000000e+00    0,000000000e+00
      198000000    1,304042153e-02   -6,258329749e-02    3,430522382e-01    7,131617069e-01    0,000000000e+00    0,000000000e+00    0,000000000e+00    0,000000000e+00
      212000000   -1,877180859e-02   -8,164849877e-02    6,782171726e-01    4,106071293e-01    0,000000000e+00    0,000000000e+00    0,000000000e+00    0,000000000e+00
      226000000   -6,204343587e-02   -6,959757954e-02    7,961171269e-01   -2,979806997e-02    0,000000000e+00    0,000000000e+00    0,000000000e+00    0,000000000e+00
      240000000   -8,313497156e-02   -2,607251331e-02    6,471444964e-01   -4,668108225e-01    0,000000000e+00    0,000000000e+00    0,000000000e+00    0,000000000e+00
      254000000   -6,435476989e-02    1,723840088e-02    2,771065533e-01   -7,432016134e-01    0,000000000e+00    0,000000000e+00    0,000000000e+00    0,000000000e+00
      268000000   -2,431933209e-02    2,948596515e-02   -1,773913503e-01   -7,652307153e-01    0,000000000e+00    0,000000000e+00    0,000000000e+00    0,000000000e+00
      282000000    4,202758893e-03    1,202671044e-02   -5,626736283e-01   -5,369243622e-01    0,000000000e+00    0,000000000e+00    0,000000000e+00    0,000000000e+00
      296000000    9,451452643e-03   -7,653198205e-03   -7,605502605e-01   -1,394635141e-01    0,000000000e+00    0,000000000e+00    0,000000000e+00    0,000000000e+00
      310000000    1,091319695e-02   -1,619913056e-02   -7,124775648e-01    2,986328304e-01    0,000000000e+00    0,000000000e+00    0,000000000e+00    0,000000000e+00
      324000000    1,960485242e-02   -2,634510770e-02   -4,286771119e-01    6,378125548e-01    0,000000000e+00    0,000000000e+00    0,000000000e+00    0,000000000e+00
      338000000    2,540577576e-02   -5,217041820e-02   -1,153595466e-02    7,639510036e-01    0,000000000e+00    0,000000000e+00    0,000000000e+00    0,000000000e+00
      352000000    7,380878087e-03   -8,489272743e-02    4,069107175e-01    6,404182911e-01    0,000000000e+00    0,000000000e+00    0,000000000e+00    0,000000000e+00
      366000000   -3,525422141e-02   -9,592133760e-02    6,908856630e-01    3,126860559e-01    0,000000000e+00    0,000000000e+00    0,000000000e+00    0,000000000e+00
      380000000   -7,118980587e-02   -7,117860019e-02    7,486106753e-01   -1,243681535e-01    0,000000000e+00    0,000000000e+00    0,000000000e+00    0,000000000e+00
      394000000   -7,297257334e-02   -3,246148303e-02    5,492796302e-01   -5,207476616e-01    0,000000000e+00    0,000000000e+00    0,000000000e+00    0,000000000e+00
      408000000   -4,699260369e-02   -1,552583463e-02    1,628710777e-01   -7,309667468e-01    0,000000000e+00    0,000000000e+00    0,000000000e+00    0,000000000e+00
      422000000   -2,842631005e-02   -3,135736287e-02   -2,667558491e-01   -6,961436868e-01    0,000000000e+00    0,000000000e+00    0,000000000e+00    0,000000000e+00
      436000000   -4,005413130e-02   -5,196350813e-02   -6,023823023e-01   -4,339453280e-01    0,000000000e+00    0,000000000e+00    0,000000000e+00    0,000000000e+00
      450000000   -6,755229086e-02   -4,500773549e-02   -7,405764461e-01   -2,517888509e-02    0,000000000e+00    0,000000000e+00    0,000000000e+00    0,000000000e+00
      464000000   -7,452228665e-02   -1,202145498e-02   -6,212002039e-01    3,951685727e-01    0,000000000e+00    0,000000000e+00    0,000000000e+00    0,000000000e+00
      478000000   -4,895405844e-02    1,163690072e-02   -2,864530981e-01    6,664968729e-01    0,000000000e+00    0,000000000e+00    0,000000000e+00    0,000000000e+00
      492000000   -1,726592332e-02    6,596857216e-03    1,343354434e-01    7,034415007e-01    0,000000000e+00    0,000000000e+00    0,000000000e+00    0,000000000e+00
      506000000   -3,994678613e-03   -1,513546426e-02    4,975892901e-01    5,059289932e-01    0,000000000e+00    0,000000000e+00    0,000000000e+00    0,000000000e+00
      520000000   -5,673274398e-03   -2,950776927e-02    6,900988221e-01    1,426783502e-01    0,000000000e+00    0,000000000e+00    0,000000000e+00    0,000000000e+00
      534000000   -3,127203556e-03   -3,581425548e-02    6,449674964e-01   -2,597308457e-01    0,000000000e+00    0,000000000e+00    0,000000000e+00    0,000000000e+00
      548000000    8,111950941e-03   -5,292051658e-02    3,848164976e-01   -5,646698475e-01    0,000000000e+00    0,000000000e+00    0,000000000e+00    0,000000000e+00
      562000000    5,555744283e-03   -8,937522769e-02    9,094791487e-03   -6,715059876e-01    0,000000000e+00    0,000000000e+00    0,000000000e+00    0,000000000e+00
      576000000   -3,136754036e-02   -1,259589344e-01   -3,622719944e-01   -5,608648062e-01    0,000000000e+00    0,000000000e+00    0,000000000e+00    0,000000000e+00
      590000000   -9,517191350e-02   -1,278031766e-01   -6,156556606e-01   -2,736257017e-01    0,000000000e+00    0,000000000e+00    0,000000000e+00    0,000000000e+00
      604000000   -1,427537501e-01   -7,811719179e-02   -6,670612693e-01    1,263336092e-01    0,000000000e+00    0,000000000e+00    0,000000000e+00    0,000000000e+00
      618000000   -1,379579455e-01   -1,132890210e-02   -4,750480652e-01    4,853475988e-01    0,000000000e+00    0,000000000e+00    0,000000000e+00    0,000000000e+00
      632000000   -9,344083071e-02    2,136849612e-02   -1,145804152e-01    6,635734439e-01    0,000000000e+00    0,000000000e+00    0,000000000e+00    0,000000000e+00
      646000000   -5,536970496e-02    1,122821029e-02    2,734589875e-01    6,032194495e-01    0,000000000e+00    0,000000000e+00    0,000000000e+00    0,000000000e+00
      660000000   -4,869291186e-02   -8,216091432e-03    5,569159389e-01    3,392598331e-01    0,000000000e+00    0,000000000e+00    0,000000000e+00    0,000000000e+00
      674000000   -5,636472628e-02   -1,091768127e-02    6,446931362e-01   -3,981218487e-02    0,000000000e+00    0,000000000e+00    0,000000000e+00    0,000000000e+00
      688000000   -5,014578998e-02    3,693760373e-03    4,933076203e-01   -4,015111625e-01    0,000000000e+00    0,000000000e+00    0,000000000e+00    0,000000000e+00
      702000000   -2,637226507e-02    8,157473058e-03    1,674299389e-01   -6,040013433e-01    0,000000000e+00    0,000000000e+00    0,000000000e+00    0,000000000e+00
      716000000   -2,446058206e-03   -8,502196521e-03   -2,187653631e-01   -5,753205419e-01    0,000000000e+00    0,000000000e+00    0,000000000e+00    0,000000000e+00
      730000000    1,000947971e-02   -3,449772298e-02   -5,097918510e-01   -3,331774473e-01    0,000000000e+00    0,000000000e+00    0,000000000e+00    0,000000000e+00
      744000000    1,694633253e-02   -6,024554372e-02   -6,011738777e-01    3,283811361e-02    0,000000000e+00    0,000000000e+00    0,000000000e+00    0,000000000e+00
      758000000    2,259903401e-02   -1,038276479e-01   -4,540092647e-01    3,774716258e-01    0,000000000e+00    0,000000000e+00    0,000000000e+00    0,000000000e+00
      772000000   -5,667279474e-03   -1,739199907e-01   -1,393780112e-01    5,576819181e-01    0,000000000e+00    0,000000000e+00    0,000000000e+00    0,000000000e+00
      786000000   -1,050651148e-01   -2,332992554e-01    2,116812766e-01    5,197235346e-01    0,000000000e+00    0,000000000e+00    0,000000000e+00    0,000000000e+00
      800000000   -2,660360336e-01   -1,918376535e-01    4,715320766e-01    2,756666243e-01    0,000000000e+00    0,000000000e+00    0,000000000e+00    0,000000000e+00
      814000000   -3,649316728e-01    3,944375087e-03    5,080444813e-01   -8,830467612e-02    0,000000000e+00    0,000000000e+00    0,000000000e+00    0,000000000e+00
      828000000   -2,479611337e-01    2,326576710e-01    2,811918855e-01   -3,525971770e-01    0,000000000e+00    0,000000000e+00    0,000000000e+00    0,000000000e+00
      842000000    1,293485146e-02    2,777909040e-01   -1,584363915e-02   -3,629581034e-01    0,000000000e+00    0,000000000e+00    0,000000000e+00    0,000000000e+00
      856000000    2,120875716e-01    1,156029850e-01   -1,884029359e-01   -2,044381946e-01    0,000000000e+00    0,000000000e+00    0,000000000e+00    0,000000000e+00
      870000000    2,393230647e-01   -1,488643885e-01   -2,003778368e-01   -2,556452528e-02    0,000000000e+00    0,000000000e+00    0,000000000e+00    0,000000000e+00
      884000000    3,745060042e-02   -3,865031600e-01   -1,032881066e-01    7,095144689e-02    0,000000000e+00    0,000000000e+00    0,000000000e+00    0,000000000e+00
      898000000   -3,696006238e-01   -3,416680098e-01   -1,648489013e-02    2,777390741e-02    0,000000000e+00    0,000000000e+00    0,000000000e+00    0,000000000e+00
      912000000   -4,677618444e-01    1,383902431e-01   -1,053414941e-01    3,098796122e-02    0,000000000e+00    0,000000000e+00    0,000000000e+00    0,000000000e+00
      926000000   -9,382894635e-02    3,510133326e-01   -1,282301396e-01    1,356356293e-01    0,000000000e+00    0,000000000e+00    0,000000000e+00    0,000000000e+00
      940000000    1,838197410e-01    1,917346418e-01   -3,899619356e-02    2,150570154e-01    0,000000000e+00    0,000000000e+00    0,000000000e+00    0,000000000e+00
      954000000    2,540233433e-01   -4,585269094e-02    7,975879312e-02    2,274737507e-01    0,000000000e+00    0,000000000e+00    0,000000000e+00    0,000000000e+00
      968000000    1,766578406e-01   -2,631457150e-01    1,912982315e-01    1,791284233e-01    0,000000000e+00    0,000000000e+00    0,000000000e+00    0,000000000e+00
      982000000   -1,649032347e-02   -3,942843378e-01    2,801817656e-01    7,944466919e-02    0,000000000e+00    0,000000000e+00    0,000000000e+00    0,000000000e+00
      996000000   -2,765455842e-01   -3,770968318e-01    3,097983599e-01   -7,902069390e-02    0,000000000e+00    0,000000000e+00    0,000000000e+00    0,000000000e+00
     1010000000   -4,667795002e-01   -1,714903414e-01    2,220030427e-01   -2,532114685e-01    0,000000000e+00    0,000000000e+00    0,000000000e+00    0,000000000e+00
     1024000000   -4,590577185e-01    1,134863570e-01    2,139582857e-02   -3,298307359e-01    0,000000000e+00    0,000000000e+00    0,000000000e+00    0,000000000e+00
     1038000000   -2,668235302e-01    3,016338050e-01   -1,728628278e-01   -2,489742041e-01    0,000000000e+00    0,000000000e+00    0,000000000e+00    0,000000000e+00
     1052000000   -3,524854407e-02    3,078817427e-01   -2,577264607e-01   -7,755499333e-02    0,000000000e+00    0,000000000e+00    0,000000000e+00    0,000000000e+00
     1066000000    1,286615282e-01    2,065035701e-01   -2,264813036e-01    8,359534293e-02    0,000000000e+00    0,000000000e+00    0,000000000e+00    0,000000000e+00
     1080000000    2,061885595e-01    4,511066154e-02   -1,204797477e-01    1,919052005e-01    0,000000000e+00    0,000000000e+00    0,000000000e+00    0,000000000e+00
     1094000000    2,032852173e-01   -1,311476380e-01    1,813068613e-02    2,350824028e-01    0,000000000e+00    0,000000000e+00    0,000000000e+00    0,000000000e+00
     1108000000    1,038119122e-01   -2,860695422e-01    1,700506359e-01    2,055158615e-01    0,000000000e+00    0,000000000e+00    0,000000000e+00    0,000000000e+00
     1122000000   -1,021259353e-01   -3,718520999e-01    3,145131767e-01    9,199915826e-02    0,000000000e+00    0,000000000e+00    0,000000000e+00    0,000000000e+00
     1136000000   -3,477358520e-01   -2,642967403e-01    3,912531137e-01   -1,491175145e-01    0,000000000e+00    0,000000000e+00    0,000000000e+00    0,000000000e+00
     1150000000   -4,124018848e-01    3,765170649e-02    2,449581623e-01   -4,400570989e-01    0,000000000e+00    0,000000000e+00    0,000000000e+00    0,000000000e+00
     1164000000   -1,585976034e-01    2,212229073e-01   -9,566815943e-02   -5,123802423e-01    0,000000000e+00    0,000000000e+00    0,000000000e+00    0,000000000e+00
     1178000000    7,347042114e-02    8,563593775e-02   -3,595818579e-01   -3,463652134e-01    0,000000000e+00    0,000000000e+00    0,000000000e+00    0,000000000e+00
     1192000000    7,594822347e-02   -1,735099554e-01   -4,540384710e-01   -8,262979239e-02    0,000000000e+00    0,000000000e+00    0,000000000e+00    0,000000000e+00
     1206000000   -1,660260558e-01   -3,248356581e-01   -3,685658872e-01    1,888895929e-01    0,000000000e+00    0,000000000e+00    0,000000000e+00    0,000000000e+00
     1220000000   -4,572060704e-01   -1,786566675e-01   -1,076923460e-01    3,270037770e-01    0,000000000e+00    0,000000000e+00    0,000000000e+00    0,000000000e+00
     1234000000   -4,776225090e-01    1,634465009e-01    1,376821548e-01    2,227810025e-01    0,000000000e+00    0,000000000e+00    0,000000000e+00    0,000000000e+00
     1248000000   -2,353173792e-01    3,581153154e-01    1,928972453e-01    3,784599900e-02    0,000000000e+00    0,000000000e+00    0,000000000e+00    0,000000000e+00
     1262000000    5,584904458e-03    3,322900236e-01    1,265752912e-01   -7,100988925e-02    0,000000000e+00    0,000000000e+00    0,000000000e+00    0,000000000e+00
     1276000000    1,593664289e-01    1,991647333e-01    5,377242342e-02   -9,453163296e-02    0,000000000e+00    0,000000000e+00    0,000000000e+00    0,000000000e+00
     1290000000    2,183172852e-01    2,854964696e-02    1,593240188e-03   -7,608924061e-02    0,000000000e+00    0,000000000e+00    0,000000000e+00    0,000000000e+00
     1304000000    2,079140097e-01   -1,465967447e-01   -1,252883580e-02   -3,106449731e-02    0,000000000e+00    0,000000000e+00    0,000000000e+00    0,000000000e+00
     1318000000    1,122799963e-01   -3,161882460e-01   -6,196844857e-03    1,945129409e-02    0,000000000e+00    0,000000000e+00    0,000000000e+00    0,000000000e+00
     1332000000   -6,727844477e-02   -4,292894006e-01    4,372110590e-02    6,931119412e-02    0,000000000e+00    0,000000000e+00    0,000000000e+00    0,000000000e+00
     1346000000   -3,317793012e-01   -4,358122349e-01    1,430319846e-01    4,148162529e-02    0,000000000e+00    0,000000000e+00    0,000000000e+00    0,000000000e+00
     1360000000   -5,476964712e-01   -2,443658412e-01    1,166214794e-01   -8,577089012e-02    0,000000000e+00    0,000000000e+00    0,000000000e+00    0,000000000e+00
     1374000000   -6,223116517e-01    3,617694974e-02    9,626754373e-02    5,892174691e-02    0,000000000e+00    0,000000000e+00    0,000000000e+00    0,000000000e+00
     1388000000   -5,193617344e-01    2,906613946e-01    2,177551389e-01    1,571683097e-03    0,000000000e+00    0,000000000e+00    0,000000000e+00    0,000000000e+00
     1402000000   -3,029384613e-01    4,216601253e-01    2,276128531e-01   -7,414233685e-02    0,000000000e+00    0,000000000e+00    0,000000000e+00    0,000000000e+00
     1416000000   -9,598332644e-02    4,163056612e-01    1,872756034e-01   -1,197012216e-01    0,000000000e+00    0,000000000e+00    0,000000000e+00    0,000000000e+00
     1430000000    6,501875073e-02    3,256284893e-01    1,345349997e-01   -1,137352511e-01    0,000000000e+00    0,000000000e+00    0,000000000e+00    0,000000000e+00
     1444000000    1,716965437e-01    1,968172044e-01    1,501867324e-01   -1,096844003e-01    0,000000000e+00    0,000000000e+00    0,000000000e+00    0,000000000e+00
     1458000000    2,263965011e-01    3,426600620e-02    1,579074413e-01   -9,290564060e-02    0,000000000e+00    0,000000000e+00    0,000000000e+00    0,000000000e+00
     1472000000    2,044126689e-01   -1,513294876e-01    1,507822871e-01   -5,560288578e-02    0,000000000e+00    0,000000000e+00    0,000000000e+00    0,000000000e+00
     1486000000    1,083736047e-01   -3,155447245e-01    1,619791090e-01   -2,388122724e-03    0,000000000e+00    0,000000000e+00    0,000000000e+00    0,000000000e+00
     1500000000   -9,728338569e-02   -4,592680335e-01    1,967429668e-01    6,198882684e-02    0,000000000e+00    0,000000000e+00    0,000000000e+00    0,000000000e+00
