! NanoVNA-App
! Date: 2025-09-25 14:27:45
! Start: 100MHz Stop: 1,5GHz Points: 101
! S-Parameter data: F S11 S21 S12 S22
# Hz S RI R 50
!     Frequency           S11_Real           S11_Imag           S21_Real           S21_Imag           S12_Real           S12_Imag           S22_Real           S22_Imag
      100000000   -2,909546532e-02   -4,133444279e-03    3,745114207e-01   -7,220214605e-01    0,000000000e+00    0,000000000e+00    0,000000000e+00    0,000000000e+00
      114000000   -1,661969349e-02    1,161111519e-02   -8,886227757e-02   -8,058479428e-01    0,000000000e+00    0,000000000e+00    0,000000000e+00    0,000000000e+00
      128000000    3,439893480e-03    1,057511009e-02   -5,145702958e-01   -6,210055351e-01    0,000000000e+00    0,000000000e+00    0,000000000e+00    0,000000000e+00
      142000000    1,443283074e-02   -3,076639725e-03   -7,675177455e-01   -2,370222211e-01    0,000000000e+00    0,000000000e+00    0,000000000e+00    0,000000000e+00
      156000000    1,551955100e-02   -1,462137885e-02   -7,730274796e-01    2,231590450e-01    0,000000000e+00    0,000000000e+00    0,000000000e+00    0,000000000e+00
      170000000    1,646553539e-02   -2,246761695e-02   -5,188198090e-01    6,050125957e-01    0,000000000e+00    0,000000000e+00    0,000000000e+00    0,000000000e+00
      184000000    2,098187990e-02   -3,700209782e-02   -1,019445211e-01    7,866507173e-01    0,000000000e+00    0,000000000e+00    0,000000000e+00    0,000000000e+00
      198000000    1,315243915e-02   -6,256869435e-02    3,428829014e-01    7,130902410e-01    0,000000000e+00    0,000000000e+00    0,000000000e+00    0,000000000e+00
      212000000   -1,870476454e-02   -8,171357214e-02    6,783867478e-01    4,106836319e-01    0,000000000e+00    0,000000000e+00    0,000000000e+00    0,000000000e+00
      226000000   -6,203879043e-02   -6,977272779e-02    7,960857153e-01   -2,964062430e-02    0,000000000e+00    0,000000000e+00    0,000000000e+00    0,000000000e+00
      240000000   -8,325402439e-02   -2,605132386e-02    6,470813155e-01   -4,665333927e-01    0,000000000e+00    0,000000000e+00    0,000000000e+00    0,000000000e+00
      254000000   -6,434868276e-02    1,748104393e-02    2,770410180e-01   -7,434355021e-01    0,000000000e+00    0,000000000e+00    0,000000000e+00    0,000000000e+00
      268000000   -2,406020649e-02    2,944993600e-02   -1,767967790e-01   -7,653324008e-01    0,000000000e+00    0,000000000e+00    0,000000000e+00    0,000000000e+00
      282000000    4,176651128e-03    1,215187367e-02   -5,626390576e-01   -5,372962356e-01    0,000000000e+00    0,000000000e+00    0,000000000e+00    0,000000000e+00
      296000000    9,514110163e-03   -7,718308363e-03   -7,608358860e-01   -1,397297382e-01    0,000000000e+00    0,000000000e+00    0,000000000e+00    0,000000000e+00
      310000000    1,076610480e-02   -1,618796960e-02   -7,145851851e-01    2,975400686e-01    0,000000000e+00    0,000000000e+00    0,000000000e+00    0,000000000e+00
      324000000    1,953126304e-02   -2,653790824e-02   -4,285209477e-01    6,385304332e-01    0,000000000e+00    0,000000000e+00    0,000000000e+00    0,000000000e+00
      338000000    2,532675862e-02   -5,201905966e-02   -1,190957800e-02    7,601250410e-01    0,000000000e+00    0,000000000e+00    0,000000000e+00    0,000000000e+00
      352000000    7,415721193e-03   -8,496739715e-02    4,056109488e-01    6,406638026e-01    0,000000000e+00    0,000000000e+00    0,000000000e+00    0,000000000e+00
      366000000   -3,514489532e-02   -9,616678953e-02    6,902998686e-01    3,120833337e-01    0,000000000e+00    0,000000000e+00    0,000000000e+00    0,000000000e+00
      380000000   -7,167638093e-02   -7,123009861e-02    7,480229139e-01   -1,249401197e-01    0,000000000e+00    0,000000000e+00    0,000000000e+00    0,000000000e+00
      394000000   -7,348034531e-02   -3,251000866e-02    5,472258329e-01   -5,213526487e-01    0,000000000e+00    0,000000000e+00    0,000000000e+00    0,000000000e+00
      408000000   -4,695027322e-02   -1,539169252e-02    1,627076268e-01   -7,318934798e-01    0,000000000e+00    0,000000000e+00    0,000000000e+00    0,000000000e+00
      422000000   -2,838273905e-02   -3,142716363e-02   -2,658822536e-01   -6,962923408e-01    0,000000000e+00    0,000000000e+00    0,000000000e+00    0,000000000e+00
      436000000   -4,011760280e-02   -5,191960931e-02   -6,026737690e-01   -4,337953925e-01    0,000000000e+00    0,000000000e+00    0,000000000e+00    0,000000000e+00
      450000000   -6,721755862e-02   -4,504223168e-02   -7,402746081e-01   -2,496795543e-02    0,000000000e+00    0,000000000e+00    0,000000000e+00    0,000000000e+00
      464000000   -7,417518646e-02   -1,235985290e-02   -6,213638783e-01    3,946074545e-01    0,000000000e+00    0,000000000e+00    0,000000000e+00    0,000000000e+00
      478000000   -4,923024774e-02    1,139114331e-02   -2,869846523e-01    6,675451398e-01    0,000000000e+00    0,000000000e+00    0,000000000e+00    0,000000000e+00
      492000000   -1,707839221e-02    6,289706565e-03    1,344379336e-01    7,042799592e-01    0,000000000e+00    0,000000000e+00    0,000000000e+00    0,000000000e+00
      506000000   -3,495226847e-03   -1,504890062e-02    4,978221953e-01    5,061967373e-01    0,000000000e+00    0,000000000e+00    0,000000000e+00    0,000000000e+00
      520000000   -5,772791803e-03   -2,951690741e-02    6,892252564e-01    1,443455666e-01    0,000000000e+00    0,000000000e+00    0,000000000e+00    0,000000000e+00
      534000000   -3,343919059e-03   -3,569525108e-02    6,444783807e-01   -2,590797544e-01    0,000000000e+00    0,000000000e+00    0,000000000e+00    0,000000000e+00
      548000000    8,283976465e-03   -5,266203731e-02    3,849032223e-01   -5,640063882e-01    0,000000000e+00    0,000000000e+00    0,000000000e+00    0,000000000e+00
      562000000    5,741006229e-03   -8,945650607e-02    8,723859675e-03   -6,726046205e-01    0,000000000e+00    0,000000000e+00    0,000000000e+00    0,000000000e+00
      576000000   -3,121789917e-02   -1,266146749e-01   -3,617749810e-01   -5,614556074e-01    0,000000000e+00    0,000000000e+00    0,000000000e+00    0,000000000e+00
      590000000   -9,526450932e-02   -1,275545359e-01   -6,182845235e-01   -2,718179524e-01    0,000000000e+00    0,000000000e+00    0,000000000e+00    0,000000000e+00
      604000000   -1,430663019e-01   -7,756488025e-02   -6,673728228e-01    1,264858693e-01    0,000000000e+00    0,000000000e+00    0,000000000e+00    0,000000000e+00
      618000000   -1,381049454e-01   -1,092489716e-02   -4,752947390e-01    4,858425260e-01    0,000000000e+00    0,000000000e+00    0,000000000e+00    0,000000000e+00
      632000000   -9,294999391e-02    2,140303701e-02   -1,146128252e-01    6,633715034e-01    0,000000000e+00    0,000000000e+00    0,000000000e+00    0,000000000e+00
      646000000   -5,567496270e-02    1,225808635e-02    2,739695013e-01    6,030573249e-01    0,000000000e+00    0,000000000e+00    0,000000000e+00    0,000000000e+00
      660000000   -4,851873219e-02   -8,788433857e-03    5,583847761e-01    3,401257396e-01    0,000000000e+00    0,000000000e+00    0,000000000e+00    0,000000000e+00
      674000000   -5,540737137e-02   -1,005738787e-02    6,447637677e-01   -3,957267851e-02    0,000000000e+00    0,000000000e+00    0,000000000e+00    0,000000000e+00
      688000000   -5,049715191e-02    2,533532912e-03    4,931936860e-01   -4,015335143e-01    0,000000000e+00    0,000000000e+00    0,000000000e+00    0,000000000e+00
      702000000   -2,587604895e-02    6,605626550e-03    1,654053479e-01   -6,033639312e-01    0,000000000e+00    0,000000000e+00    0,000000000e+00    0,000000000e+00
      716000000   -2,794599859e-03   -9,090382606e-03   -2,178260684e-01   -5,751012564e-01    0,000000000e+00    0,000000000e+00    0,000000000e+00    0,000000000e+00
      730000000    8,954542689e-03   -3,490274027e-02   -5,089662671e-01   -3,334008157e-01    0,000000000e+00    0,000000000e+00    0,000000000e+00    0,000000000e+00
      744000000    1,701047830e-02   -6,020356342e-02   -6,014189720e-01    3,283248097e-02    0,000000000e+00    0,000000000e+00    0,000000000e+00    0,000000000e+00
      758000000    2,228332125e-02   -1,026508510e-01   -4,553970695e-01    3,768999279e-01    0,000000000e+00    0,000000000e+00    0,000000000e+00    0,000000000e+00
      772000000   -5,180194508e-03   -1,734988391e-01   -1,400004178e-01    5,577098131e-01    0,000000000e+00    0,000000000e+00    0,000000000e+00    0,000000000e+00
      786000000   -1,046117172e-01   -2,319526523e-01    2,116449475e-01    5,199004412e-01    0,000000000e+00    0,000000000e+00    0,000000000e+00    0,000000000e+00
      800000000   -2,663400471e-01   -1,923919320e-01    4,714096785e-01    2,754391432e-01    0,000000000e+00    0,000000000e+00    0,000000000e+00    0,000000000e+00
      814000000   -3,647784889e-01    3,771392396e-03    5,077139139e-01   -8,866630495e-02    0,000000000e+00    0,000000000e+00    0,000000000e+00    0,000000000e+00
      828000000   -2,466443926e-01    2,333636582e-01    2,815863192e-01   -3,523042798e-01    0,000000000e+00    0,000000000e+00    0,000000000e+00    0,000000000e+00
      842000000    1,242552977e-02    2,780688405e-01   -1,568143442e-02   -3,625147939e-01    0,000000000e+00    0,000000000e+00    0,000000000e+00    0,000000000e+00
      856000000    2,127189636e-01    1,154378653e-01   -1,873437464e-01   -2,050680518e-01    0,000000000e+00    0,000000000e+00    0,000000000e+00    0,000000000e+00
      870000000    2,388315946e-01   -1,480046660e-01   -2,005270272e-01   -2,579403855e-02    0,000000000e+00    0,000000000e+00    0,000000000e+00    0,000000000e+00
      884000000    3,759726509e-02   -3,864731491e-01   -1,044412851e-01    7,040114701e-02    0,000000000e+00    0,000000000e+00    0,000000000e+00    0,000000000e+00
      898000000   -3,704690933e-01   -3,411809802e-01   -1,735416800e-02    2,830634266e-02    0,000000000e+00    0,000000000e+00    0,000000000e+00    0,000000000e+00
      912000000   -4,678114057e-01    1,373517960e-01   -1,117397249e-01    2,206948772e-02    0,000000000e+00    0,000000000e+00    0,000000000e+00    0,000000000e+00
      926000000   -9,383220971e-02    3,504898548e-01   -1,271286309e-01    1,341920644e-01    0,000000000e+00    0,000000000e+00    0,000000000e+00    0,000000000e+00
      940000000    1,820917428e-01    1,956488192e-01   -3,962393105e-02    2,164750695e-01    0,000000000e+00    0,000000000e+00    0,000000000e+00    0,000000000e+00
      954000000    2,534093857e-01   -4,835129529e-02    7,910531014e-02    2,261852771e-01    0,000000000e+00    0,000000000e+00    0,000000000e+00    0,000000000e+00
      968000000    1,738847196e-01   -2,647931874e-01    1,920404583e-01    1,807076782e-01    0,000000000e+00    0,000000000e+00    0,000000000e+00    0,000000000e+00
      982000000   -1,580124348e-02   -3,946756124e-01    2,792062163e-01    7,849448174e-02    0,000000000e+00    0,000000000e+00    0,000000000e+00    0,000000000e+00
      996000000   -2,726269364e-01   -3,746289909e-01    3,097287714e-01   -7,890155911e-02    0,000000000e+00    0,000000000e+00    0,000000000e+00    0,000000000e+00
     1010000000   -4,700920880e-01   -1,707862020e-01    2,218870968e-01   -2,526699603e-01    0,000000000e+00    0,000000000e+00    0,000000000e+00    0,000000000e+00
     1024000000   -4,556478560e-01    1,167583168e-01    1,780834608e-02   -3,287841976e-01    0,000000000e+00    0,000000000e+00    0,000000000e+00    0,000000000e+00
     1038000000   -2,679838836e-01    2,975736260e-01   -1,742382497e-01   -2,491253912e-01    0,000000000e+00    0,000000000e+00    0,000000000e+00    0,000000000e+00
     1052000000   -4,094545916e-02    3,060434461e-01   -2,558686435e-01   -7,796572149e-02    0,000000000e+00    0,000000000e+00    0,000000000e+00    0,000000000e+00
     1066000000    1,265726984e-01    2,066159546e-01   -2,247885764e-01    8,772575855e-02    0,000000000e+00    0,000000000e+00    0,000000000e+00    0,000000000e+00
     1080000000    2,053222656e-01    4,780269042e-02   -1,198664233e-01    1,938080937e-01    0,000000000e+00    0,000000000e+00    0,000000000e+00    0,000000000e+00
     1094000000    2,000639141e-01   -1,282150596e-01    1,669461839e-02    2,377731204e-01    0,000000000e+00    0,000000000e+00    0,000000000e+00    0,000000000e+00
     1108000000    9,870941192e-02   -2,866107225e-01    1,708867997e-01    2,066156715e-01    0,000000000e+00    0,000000000e+00    0,000000000e+00    0,000000000e+00
     1122000000   -1,029590368e-01   -3,726230264e-01    3,163025975e-01    8,890903741e-02    0,000000000e+00    0,000000000e+00    0,000000000e+00    0,000000000e+00
     1136000000   -3,494552076e-01   -2,658672333e-01    3,903684020e-01   -1,489756405e-01    0,000000000e+00    0,000000000e+00    0,000000000e+00    0,000000000e+00
     1150000000   -4,116593301e-01    3,942899778e-02    2,444292009e-01   -4,391930103e-01    0,000000000e+00    0,000000000e+00    0,000000000e+00    0,000000000e+00
     1164000000   -1,559938937e-01    2,210671157e-01   -9,295277297e-02   -5,138787031e-01    0,000000000e+00    0,000000000e+00    0,000000000e+00    0,000000000e+00
     1178000000    7,823352516e-02    8,495036513e-02   -3,546736240e-01   -3,470205963e-01    0,000000000e+00    0,000000000e+00    0,000000000e+00    0,000000000e+00
     1192000000    7,460297644e-02   -1,724846214e-01   -4,521130025e-01   -8,231953532e-02    0,000000000e+00    0,000000000e+00    0,000000000e+00    0,000000000e+00
     1206000000   -1,660659015e-01   -3,264459074e-01   -3,695922196e-01    1,892185062e-01    0,000000000e+00    0,000000000e+00    0,000000000e+00    0,000000000e+00
     1220000000   -4,567458034e-01   -1,745996326e-01   -1,105606481e-01    3,289785087e-01    0,000000000e+00    0,000000000e+00    0,000000000e+00    0,000000000e+00
     1234000000   -4,732844234e-01    1,711787581e-01    1,398386210e-01    2,239735425e-01    0,000000000e+00    0,000000000e+00    0,000000000e+00    0,000000000e+00
     1248000000   -2,360131443e-01    3,577326834e-01    1,863536835e-01    4,012855142e-02    0,000000000e+00    0,000000000e+00    0,000000000e+00    0,000000000e+00
     1262000000    1,210670918e-03    3,287700713e-01    1,258153468e-01   -7,031501830e-02    0,000000000e+00    0,000000000e+00    0,000000000e+00    0,000000000e+00
     1276000000    1,551213413e-01    1,967168599e-01    5,042918399e-02   -1,000850424e-01    0,000000000e+00    0,000000000e+00    0,000000000e+00    0,000000000e+00
     1290000000    2,181958109e-01    3,172566369e-02   -1,447851304e-03   -7,364463806e-02    0,000000000e+00    0,000000000e+00    0,000000000e+00    0,000000000e+00
     1304000000    2,037560791e-01   -1,435995251e-01   -1,928296871e-02   -3,414170817e-02    0,000000000e+00    0,000000000e+00    0,000000000e+00    0,000000000e+00
     1318000000    1,172685474e-01   -3,107613325e-01   -7,270249538e-03    2,470434085e-02    0,000000000e+00    0,000000000e+00    0,000000000e+00    0,000000000e+00
     1332000000   -6,593603641e-02   -4,370360970e-01    5,262542143e-02    6,102612987e-02    0,000000000e+00    0,000000000e+00    0,000000000e+00    0,000000000e+00
     1346000000   -3,295908570e-01   -4,327974319e-01    1,544232517e-01    4,992495850e-02    0,000000000e+00    0,000000000e+00    0,000000000e+00    0,000000000e+00
     1360000000   -5,573472977e-01   -2,417030036e-01    1,210781485e-01   -6,657554954e-02    0,000000000e+00    0,000000000e+00    0,000000000e+00    0,000000000e+00
     1374000000   -6,240704656e-01    3,908633068e-02    1,141889989e-01    6,075080112e-02    0,000000000e+00    0,000000000e+00    0,000000000e+00    0,000000000e+00
     1388000000   -5,219959617e-01    2,886006832e-01    2,194331139e-01   -3,311229404e-03    0,000000000e+00    0,000000000e+00    0,000000000e+00    0,000000000e+00
     1402000000   -3,005599380e-01    4,246728122e-01    2,293693125e-01   -9,028447419e-02    0,000000000e+00    0,000000000e+00    0,000000000e+00    0,000000000e+00
     1416000000   -9,612909704e-02    4,182553887e-01    1,848622561e-01   -1,237649545e-01    0,000000000e+00    0,000000000e+00    0,000000000e+00    0,000000000e+00
     1430000000    6,645768881e-02    3,325598240e-01    1,735791713e-01   -9,713478386e-02    0,000000000e+00    0,000000000e+00    0,000000000e+00    0,000000000e+00
     1444000000    1,732422411e-01    1,984959692e-01    1,472766399e-01   -1,014241129e-01    0,000000000e+00    0,000000000e+00    0,000000000e+00    0,000000000e+00
     1458000000    2,273465395e-01    4,243038595e-02    1,516213268e-01   -7,695765048e-02    0,000000000e+00    0,000000000e+00    0,000000000e+00    0,000000000e+00
     1472000000    2,069599777e-01   -1,415374577e-01    1,471401602e-01   -4,192821309e-02    0,000000000e+00    0,000000000e+00    0,000000000e+00    0,000000000e+00
     1486000000    1,032774076e-01   -3,220757544e-01    1,515673101e-01   -3,225429449e-03    0,000000000e+00    0,000000000e+00    0,000000000e+00    0,000000000e+00
     1500000000   -8,842296898e-02   -4,583645463e-01    2,187264115e-01    4,774918780e-02    0,000000000e+00    0,000000000e+00    0,000000000e+00    0,000000000e+00
