! NanoVNA-App
! Date: 2025-09-25 14:22:09
! Start: 100MHz Stop: 1,5GHz Points: 101
! S-Parameter data: F S11 S21 S12 S22
# Hz S RI R 50
!     Frequency           S11_Real           S11_Imag           S21_Real           S21_Imag           S12_Real           S12_Imag           S22_Real           S22_Imag
      100000000   -2,908553928e-02   -4,121327307e-03    3,744851053e-01   -7,220360041e-01    0,000000000e+00    0,000000000e+00    0,000000000e+00    0,000000000e+00
      114000000   -1,660705917e-02    1,162494626e-02   -8,902365714e-02   -8,058637381e-01    0,000000000e+00    0,000000000e+00    0,000000000e+00    0,000000000e+00
      128000000    3,380166367e-03    1,056502108e-02   -5,144289136e-01   -6,209161878e-01    0,000000000e+00    0,000000000e+00    0,000000000e+00    0,000000000e+00
      142000000    1,445531007e-02   -3,065916011e-03   -7,675054073e-01   -2,368989289e-01    0,000000000e+00    0,000000000e+00    0,000000000e+00    0,000000000e+00
      156000000    1,500570402e-02   -1,510051172e-02   -7,679136992e-01    2,224629819e-01    0,000000000e+00    0,000000000e+00    0,000000000e+00    0,000000000e+00
      170000000    1,658328064e-02   -2,253927477e-02   -5,187491179e-01    6,050363183e-01    0,000000000e+00    0,000000000e+00    0,000000000e+00    0,000000000e+00
      184000000    2,100546099e-02   -3,710564598e-02   -1,018700600e-01    7,862038016e-01    0,000000000e+00    0,000000000e+00    0,000000000e+00    0,000000000e+00
      198000000    1,305341162e-02   -6,262064725e-02    3,431447148e-01    7,127903104e-01    0,000000000e+00    0,000000000e+00    0,000000000e+00    0,000000000e+00
      212000000   -1,873345673e-02   -8,165667951e-02    6,786729097e-01    4,105660617e-01    0,000000000e+00    0,000000000e+00    0,000000000e+00    0,000000000e+00
      226000000   -6,209804490e-02   -6,962484121e-02    7,961907387e-01   -2,977685630e-02    0,000000000e+00    0,000000000e+00    0,000000000e+00    0,000000000e+00
      240000000   -8,319571614e-02   -2,603515610e-02    6,471771002e-01   -4,667091072e-01    0,000000000e+00    0,000000000e+00    0,000000000e+00    0,000000000e+00
      254000000   -6,435467303e-02    1,726569422e-02    2,772579491e-01   -7,437530756e-01    0,000000000e+00    0,000000000e+00    0,000000000e+00    0,000000000e+00
      268000000   -2,428609133e-02    2,954985015e-02   -1,773320884e-01   -7,649185061e-01    0,000000000e+00    0,000000000e+00    0,000000000e+00    0,000000000e+00
      282000000    4,208358005e-03    1,211847924e-02   -5,623708367e-01   -5,372343659e-01    0,000000000e+00    0,000000000e+00    0,000000000e+00    0,000000000e+00
      296000000    9,607539512e-03   -7,775329519e-03   -7,609456778e-01   -1,396088898e-01    0,000000000e+00    0,000000000e+00    0,000000000e+00    0,000000000e+00
      310000000    1,096387487e-02   -1,607522927e-02   -7,127299309e-01    2,971638143e-01    0,000000000e+00    0,000000000e+00    0,000000000e+00    0,000000000e+00
      324000000    1,955692284e-02   -2,666388825e-02   -4,287678301e-01    6,383279562e-01    0,000000000e+00    0,000000000e+00    0,000000000e+00    0,000000000e+00
      338000000    2,542563155e-02   -5,198139697e-02   -1,072316244e-02    7,619738579e-01    0,000000000e+00    0,000000000e+00    0,000000000e+00    0,000000000e+00
      352000000    7,640876342e-03   -8,471816778e-02    4,062252343e-01    6,411786675e-01    0,000000000e+00    0,000000000e+00    0,000000000e+00    0,000000000e+00
      366000000   -3,487600386e-02   -9,599897265e-02    6,911388636e-01    3,128530085e-01    0,000000000e+00    0,000000000e+00    0,000000000e+00    0,000000000e+00
      380000000   -7,126305997e-02   -7,104740292e-02    7,483291030e-01   -1,242965758e-01    0,000000000e+00    0,000000000e+00    0,000000000e+00    0,000000000e+00
      394000000   -7,313224673e-02   -3,227424249e-02    5,482276082e-01   -5,219402909e-01    0,000000000e+00    0,000000000e+00    0,000000000e+00    0,000000000e+00
      408000000   -4,692420736e-02   -1,580461301e-02    1,630261093e-01   -7,324565649e-01    0,000000000e+00    0,000000000e+00    0,000000000e+00    0,000000000e+00
      422000000   -2,823552676e-02   -3,147165850e-02   -2,659150362e-01   -6,965990663e-01    0,000000000e+00    0,000000000e+00    0,000000000e+00    0,000000000e+00
      436000000   -4,051534832e-02   -5,214378610e-02   -6,029199958e-01   -4,344357848e-01    0,000000000e+00    0,000000000e+00    0,000000000e+00    0,000000000e+00
      450000000   -6,744564325e-02   -4,450561851e-02   -7,401415110e-01   -2,488097548e-02    0,000000000e+00    0,000000000e+00    0,000000000e+00    0,000000000e+00
      464000000   -7,441444695e-02   -1,215786859e-02   -6,214126945e-01    3,953042924e-01    0,000000000e+00    0,000000000e+00    0,000000000e+00    0,000000000e+00
      478000000   -4,913331568e-02    1,137219276e-02   -2,862696052e-01    6,683616638e-01    0,000000000e+00    0,000000000e+00    0,000000000e+00    0,000000000e+00
      492000000   -1,671495475e-02    6,401604041e-03    1,343536824e-01    7,036651969e-01    0,000000000e+00    0,000000000e+00    0,000000000e+00    0,000000000e+00
      506000000   -3,521252424e-03   -1,519387122e-02    4,979991019e-01    5,061734319e-01    0,000000000e+00    0,000000000e+00    0,000000000e+00    0,000000000e+00
      520000000   -5,674881861e-03   -2,965908684e-02    6,883912086e-01    1,448596567e-01    0,000000000e+00    0,000000000e+00    0,000000000e+00    0,000000000e+00
      534000000   -3,459037282e-03   -3,576415777e-02    6,447596550e-01   -2,593540549e-01    0,000000000e+00    0,000000000e+00    0,000000000e+00    0,000000000e+00
      548000000    8,121212944e-03   -5,319548398e-02    3,852033019e-01   -5,646428466e-01    0,000000000e+00    0,000000000e+00    0,000000000e+00    0,000000000e+00
      562000000    5,301074125e-03   -8,951403201e-02    7,744635921e-03   -6,715785265e-01    0,000000000e+00    0,000000000e+00    0,000000000e+00    0,000000000e+00
      576000000   -3,163779899e-02   -1,263927370e-01   -3,627245724e-01   -5,614495277e-01    0,000000000e+00    0,000000000e+00    0,000000000e+00    0,000000000e+00
      590000000   -9,487918019e-02   -1,281800419e-01   -6,175421476e-01   -2,734386027e-01    0,000000000e+00    0,000000000e+00    0,000000000e+00    0,000000000e+00
      604000000   -1,430741996e-01   -7,835251093e-02   -6,672539115e-01    1,258092225e-01    0,000000000e+00    0,000000000e+00    0,000000000e+00    0,000000000e+00
      618000000   -1,378167123e-01   -1,195405051e-02   -4,751749635e-01    4,854372442e-01    0,000000000e+00    0,000000000e+00    0,000000000e+00    0,000000000e+00
      632000000   -9,273631126e-02    2,152339183e-02   -1,141391397e-01    6,617625952e-01    0,000000000e+00    0,000000000e+00    0,000000000e+00    0,000000000e+00
      646000000   -5,567208305e-02    1,162928995e-02    2,723362148e-01    6,038522720e-01    0,000000000e+00    0,000000000e+00    0,000000000e+00    0,000000000e+00
      660000000   -4,838753119e-02   -9,096950293e-03    5,582014918e-01    3,414136767e-01    0,000000000e+00    0,000000000e+00    0,000000000e+00    0,000000000e+00
      674000000   -5,608509108e-02   -9,896930307e-03    6,445062757e-01   -3,974451497e-02    0,000000000e+00    0,000000000e+00    0,000000000e+00    0,000000000e+00
      688000000   -5,080750212e-02    2,997271484e-03    4,929270744e-01   -4,014266729e-01    0,000000000e+00    0,000000000e+00    0,000000000e+00    0,000000000e+00
      702000000   -2,623054758e-02    6,772439927e-03    1,656409651e-01   -5,980547071e-01    0,000000000e+00    0,000000000e+00    0,000000000e+00    0,000000000e+00
      716000000   -1,567347907e-03   -9,337178431e-03   -2,186293900e-01   -5,766043663e-01    0,000000000e+00    0,000000000e+00    0,000000000e+00    0,000000000e+00
      730000000    1,023521647e-02   -3,470813483e-02   -5,093520284e-01   -3,333944380e-01    0,000000000e+00    0,000000000e+00    0,000000000e+00    0,000000000e+00
      744000000    1,627741382e-02   -6,152432412e-02   -6,008396745e-01    3,307621926e-02    0,000000000e+00    0,000000000e+00    0,000000000e+00    0,000000000e+00
      758000000    2,169128135e-02   -1,041244790e-01   -4,543670416e-01    3,778084517e-01    0,000000000e+00    0,000000000e+00    0,000000000e+00    0,000000000e+00
      772000000   -4,945850000e-03   -1,741329432e-01   -1,400108039e-01    5,587335229e-01    0,000000000e+00    0,000000000e+00    0,000000000e+00    0,000000000e+00
      786000000   -1,055145338e-01   -2,324284017e-01    2,111916840e-01    5,202010274e-01    0,000000000e+00    0,000000000e+00    0,000000000e+00    0,000000000e+00
      800000000   -2,664238513e-01   -1,923540235e-01    4,716869891e-01    2,748196721e-01    0,000000000e+00    0,000000000e+00    0,000000000e+00    0,000000000e+00
      814000000   -3,650987148e-01    3,045776160e-03    5,077812672e-01   -8,867685497e-02    0,000000000e+00    0,000000000e+00    0,000000000e+00    0,000000000e+00
      828000000   -2,474645078e-01    2,323486954e-01    2,817896307e-01   -3,519214094e-01    0,000000000e+00    0,000000000e+00    0,000000000e+00    0,000000000e+00
      842000000    1,341914386e-02    2,779835761e-01   -1,565500349e-02   -3,624574542e-01    0,000000000e+00    0,000000000e+00    0,000000000e+00    0,000000000e+00
      856000000    2,119798064e-01    1,152725741e-01   -1,885602921e-01   -2,051302493e-01    0,000000000e+00    0,000000000e+00    0,000000000e+00    0,000000000e+00
      870000000    2,386516482e-01   -1,487599313e-01   -2,003572732e-01   -2,547694929e-02    0,000000000e+00    0,000000000e+00    0,000000000e+00    0,000000000e+00
      884000000    3,862211853e-02   -3,868519962e-01   -1,037327573e-01    7,008746266e-02    0,000000000e+00    0,000000000e+00    0,000000000e+00    0,000000000e+00
      898000000   -3,692580462e-01   -3,423984349e-01   -1,640979387e-02    2,713571116e-02    0,000000000e+00    0,000000000e+00    0,000000000e+00    0,000000000e+00
      912000000   -4,666693509e-01    1,393964887e-01   -1,153458431e-01    2,004222758e-02    0,000000000e+00    0,000000000e+00    0,000000000e+00    0,000000000e+00
      926000000   -9,557885677e-02    3,491301537e-01   -1,281573772e-01    1,323921680e-01    0,000000000e+00    0,000000000e+00    0,000000000e+00    0,000000000e+00
      940000000    1,856008768e-01    1,923868507e-01   -3,918667510e-02    2,162733972e-01    0,000000000e+00    0,000000000e+00    0,000000000e+00    0,000000000e+00
      954000000    2,566660047e-01   -4,802503437e-02    7,950421423e-02    2,277355194e-01    0,000000000e+00    0,000000000e+00    0,000000000e+00    0,000000000e+00
      968000000    1,763179600e-01   -2,601843476e-01    1,915775537e-01    1,806918234e-01    0,000000000e+00    0,000000000e+00    0,000000000e+00    0,000000000e+00
      982000000   -1,722984388e-02   -3,911022246e-01    2,790594101e-01    7,988487929e-02    0,000000000e+00    0,000000000e+00    0,000000000e+00    0,000000000e+00
      996000000   -2,730413079e-01   -3,799039721e-01    3,070254028e-01   -7,859945297e-02    0,000000000e+00    0,000000000e+00    0,000000000e+00    0,000000000e+00
     1010000000   -4,726295173e-01   -1,710492671e-01    2,220498025e-01   -2,533335984e-01    0,000000000e+00    0,000000000e+00    0,000000000e+00    0,000000000e+00
     1024000000   -4,636887908e-01    1,179492846e-01    2,015934326e-02   -3,295479715e-01    0,000000000e+00    0,000000000e+00    0,000000000e+00    0,000000000e+00
     1038000000   -2,613364756e-01    3,007051349e-01   -1,780591309e-01   -2,452740669e-01    0,000000000e+00    0,000000000e+00    0,000000000e+00    0,000000000e+00
     1052000000   -3,366542980e-02    3,100298643e-01   -2,579550743e-01   -7,860936970e-02    0,000000000e+00    0,000000000e+00    0,000000000e+00    0,000000000e+00
     1066000000    1,271026134e-01    2,064922601e-01   -2,212767750e-01    8,428675681e-02    0,000000000e+00    0,000000000e+00    0,000000000e+00    0,000000000e+00
     1080000000    2,081009150e-01    4,560983926e-02   -1,216587573e-01    1,925871670e-01    0,000000000e+00    0,000000000e+00    0,000000000e+00    0,000000000e+00
     1094000000    2,003286630e-01   -1,262027621e-01    1,631306857e-02    2,329814881e-01    0,000000000e+00    0,000000000e+00    0,000000000e+00    0,000000000e+00
     1108000000    1,035082117e-01   -2,868826091e-01    1,697180569e-01    2,053188831e-01    0,000000000e+00    0,000000000e+00    0,000000000e+00    0,000000000e+00
     1122000000   -1,028644219e-01   -3,715181351e-01    3,167448044e-01    8,947832137e-02    0,000000000e+00    0,000000000e+00    0,000000000e+00    0,000000000e+00
     1136000000   -3,480438888e-01   -2,741988003e-01    3,960606754e-01   -1,487383544e-01    0,000000000e+00    0,000000000e+00    0,000000000e+00    0,000000000e+00
     1150000000   -4,050607681e-01    3,376291692e-02    2,408276200e-01   -4,396368265e-01    0,000000000e+00    0,000000000e+00    0,000000000e+00    0,000000000e+00
     1164000000   -1,626542211e-01    2,210573256e-01   -9,536051005e-02   -5,162281990e-01    0,000000000e+00    0,000000000e+00    0,000000000e+00    0,000000000e+00
     1178000000    7,904519141e-02    8,173258603e-02   -3,564529121e-01   -3,495348096e-01    0,000000000e+00    0,000000000e+00    0,000000000e+00    0,000000000e+00
     1192000000    7,547949255e-02   -1,705958247e-01   -4,531601965e-01   -8,282927424e-02    0,000000000e+00    0,000000000e+00    0,000000000e+00    0,000000000e+00
     1206000000   -1,631333828e-01   -3,234142661e-01   -3,687362373e-01    1,898172200e-01    0,000000000e+00    0,000000000e+00    0,000000000e+00    0,000000000e+00
     1220000000   -4,573482573e-01   -1,750928015e-01   -1,045254916e-01    3,281398118e-01    0,000000000e+00    0,000000000e+00    0,000000000e+00    0,000000000e+00
     1234000000   -4,751247168e-01    1,645775735e-01    1,322522759e-01    2,238623053e-01    0,000000000e+00    0,000000000e+00    0,000000000e+00    0,000000000e+00
     1248000000   -2,373886406e-01    3,592756093e-01    1,934469193e-01    3,878260776e-02    0,000000000e+00    0,000000000e+00    0,000000000e+00    0,000000000e+00
     1262000000    8,272990584e-03    3,264151216e-01    1,271728575e-01   -7,603080571e-02    0,000000000e+00    0,000000000e+00    0,000000000e+00    0,000000000e+00
     1276000000    1,502933502e-01    2,012855709e-01    4,971505702e-02   -9,593419731e-02    0,000000000e+00    0,000000000e+00    0,000000000e+00    0,000000000e+00
     1290000000    2,208064497e-01    3,068744577e-02    4,088656045e-03   -7,028972358e-02    0,000000000e+00    0,000000000e+00    0,000000000e+00    0,000000000e+00
     1304000000    2,057131082e-01   -1,437465698e-01   -2,270489000e-02   -2,702491358e-02    0,000000000e+00    0,000000000e+00    0,000000000e+00    0,000000000e+00
     1318000000    1,167445108e-01   -3,133822978e-01   -2,148942556e-03    2,239858359e-02    0,000000000e+00    0,000000000e+00    0,000000000e+00    0,000000000e+00
     1332000000   -6,642425060e-02   -4,321490526e-01    5,085396394e-02    6,760331988e-02    0,000000000e+00    0,000000000e+00    0,000000000e+00    0,000000000e+00
     1346000000   -3,250454068e-01   -4,311192334e-01    1,437931955e-01    5,132331699e-02    0,000000000e+00    0,000000000e+00    0,000000000e+00    0,000000000e+00
     1360000000   -5,574057698e-01   -2,493262291e-01    1,146304831e-01   -9,025286883e-02    0,000000000e+00    0,000000000e+00    0,000000000e+00    0,000000000e+00
     1374000000   -6,242277026e-01    3,690251708e-02    1,021028385e-01    5,932663009e-02    0,000000000e+00    0,000000000e+00    0,000000000e+00    0,000000000e+00
     1388000000   -5,197012424e-01    2,951294184e-01    2,220750302e-01    7,203847636e-03    0,000000000e+00    0,000000000e+00    0,000000000e+00    0,000000000e+00
     1402000000   -2,979908288e-01    4,162620008e-01    2,215644121e-01   -8,459060639e-02    0,000000000e+00    0,000000000e+00    0,000000000e+00    0,000000000e+00
     1416000000   -9,266275913e-02    4,234610200e-01    1,803916395e-01   -1,133163050e-01    0,000000000e+00    0,000000000e+00    0,000000000e+00    0,000000000e+00
     1430000000    7,412247360e-02    3,407280743e-01    1,769395620e-01   -1,292733699e-01    0,000000000e+00    0,000000000e+00    0,000000000e+00    0,000000000e+00
     1444000000    1,723424345e-01    1,999806315e-01    1,558141410e-01   -1,099504083e-01    0,000000000e+00    0,000000000e+00    0,000000000e+00    0,000000000e+00
     1458000000    2,273580134e-01    3,542498127e-02    1,615787446e-01   -8,033462614e-02    0,000000000e+00    0,000000000e+00    0,000000000e+00    0,000000000e+00
     1472000000    2,119262815e-01   -1,459679008e-01    1,555158049e-01   -4,628108069e-02    0,000000000e+00    0,000000000e+00    0,000000000e+00    0,000000000e+00
     1486000000    1,066456288e-01   -3,218522370e-01    1,676157117e-01   -1,183061954e-02    0,000000000e+00    0,000000000e+00    0,000000000e+00    0,000000000e+00
     1500000000   -9,044539928e-02   -4,549457431e-01    2,289805710e-01    4,629433528e-02    0,000000000e+00    0,000000000e+00    0,000000000e+00    0,000000000e+00
