! NanoVNA-App
! Date: 2025-09-25 14:25:09
! Start: 100MHz Stop: 1,5GHz Points: 101
! S-Parameter data: F S11 S21 S12 S22
# Hz S RI R 50
!     Frequency           S11_Real           S11_Imag           S21_Real           S21_Imag           S12_Real           S12_Imag           S22_Real           S22_Imag
      100000000   -2,909828164e-02   -4,122913815e-03    3,745230734e-01   -7,221331000e-01    0,000000000e+00    0,000000000e+00    0,000000000e+00    0,000000000e+00
      114000000   -1,660949551e-02    1,158642862e-02   -8,899128437e-02   -8,058407307e-01    0,000000000e+00    0,000000000e+00    0,000000000e+00    0,000000000e+00
      128000000    3,457576968e-03    1,052260399e-02   -5,146074295e-01   -6,210280657e-01    0,000000000e+00    0,000000000e+00    0,000000000e+00    0,000000000e+00
      142000000    1,446827408e-02   -3,095730674e-03   -7,673729658e-01   -2,369509935e-01    0,000000000e+00    0,000000000e+00    0,000000000e+00    0,000000000e+00
      156000000    1,445483603e-02   -1,495533064e-02   -7,651633620e-01    2,181883454e-01    0,000000000e+00    0,000000000e+00    0,000000000e+00    0,000000000e+00
      170000000    1,657454669e-02   -2,248190902e-02   -5,184838772e-01    6,048141718e-01    0,000000000e+00    0,000000000e+00    0,000000000e+00    0,000000000e+00
      184000000    2,098684013e-02   -3,701736033e-02   -1,017367020e-01    7,863156796e-01    0,000000000e+00    0,000000000e+00    0,000000000e+00    0,000000000e+00
      198000000    1,313233282e-02   -6,260758638e-02    3,429691195e-01    7,129171491e-01    0,000000000e+00    0,000000000e+00    0,000000000e+00    0,000000000e+00
      212000000   -1,872730628e-02   -8,171374351e-02    6,782881618e-01    4,106911123e-01    0,000000000e+00    0,000000000e+00    0,000000000e+00    0,000000000e+00
      226000000   -6,209899858e-02   -6,964866817e-02    7,961671352e-01   -2,972760983e-02    0,000000000e+00    0,000000000e+00    0,000000000e+00    0,000000000e+00
      240000000   -8,331095427e-02   -2,612255886e-02    6,468943954e-01   -4,664316177e-01    0,000000000e+00    0,000000000e+00    0,000000000e+00    0,000000000e+00
      254000000   -6,440842897e-02    1,743813045e-02    2,772362530e-01   -7,435072064e-01    0,000000000e+00    0,000000000e+00    0,000000000e+00    0,000000000e+00
      268000000   -2,405118383e-02    2,951115742e-02   -1,769420803e-01   -7,649790049e-01    0,000000000e+00    0,000000000e+00    0,000000000e+00    0,000000000e+00
      282000000    4,055500031e-03    1,202253904e-02   -5,625430346e-01   -5,371994376e-01    0,000000000e+00    0,000000000e+00    0,000000000e+00    0,000000000e+00
      296000000    9,455127642e-03   -7,769294083e-03   -7,608916163e-01   -1,397393495e-01    0,000000000e+00    0,000000000e+00    0,000000000e+00    0,000000000e+00
      310000000    1,096955780e-02   -1,616209932e-02   -7,125762701e-01    2,975706160e-01    0,000000000e+00    0,000000000e+00    0,000000000e+00    0,000000000e+00
      324000000    1,952418499e-02   -2,648627944e-02   -4,288040400e-01    6,373158097e-01    0,000000000e+00    0,000000000e+00    0,000000000e+00    0,000000000e+00
      338000000    2,536402084e-02   -5,212873220e-02   -8,186869323e-03    7,645149827e-01    0,000000000e+00    0,000000000e+00    0,000000000e+00    0,000000000e+00
      352000000    7,390029728e-03   -8,503682911e-02    4,058960378e-01    6,399093270e-01    0,000000000e+00    0,000000000e+00    0,000000000e+00    0,000000000e+00
      366000000   -3,471930698e-02   -9,604102373e-02    6,915315986e-01    3,125181794e-01    0,000000000e+00    0,000000000e+00    0,000000000e+00    0,000000000e+00
      380000000   -7,123780996e-02   -7,121516764e-02    7,489130497e-01   -1,249270365e-01    0,000000000e+00    0,000000000e+00    0,000000000e+00    0,000000000e+00
      394000000   -7,327598333e-02   -3,243250772e-02    5,478662252e-01   -5,214996934e-01    0,000000000e+00    0,000000000e+00    0,000000000e+00    0,000000000e+00
      408000000   -4,706524312e-02   -1,575174183e-02    1,626711637e-01   -7,322564721e-01    0,000000000e+00    0,000000000e+00    0,000000000e+00    0,000000000e+00
      422000000   -2,830249630e-02   -3,150519729e-02   -2,652761936e-01   -6,956995726e-01    0,000000000e+00    0,000000000e+00    0,000000000e+00    0,000000000e+00
      436000000   -4,029937834e-02   -5,181861669e-02   -6,025198698e-01   -4,339414537e-01    0,000000000e+00    0,000000000e+00    0,000000000e+00    0,000000000e+00
      450000000   -6,771921366e-02   -4,473818466e-02   -7,406772375e-01   -2,525976487e-02    0,000000000e+00    0,000000000e+00    0,000000000e+00    0,000000000e+00
      464000000   -7,433889806e-02   -1,212046295e-02   -6,213064194e-01    3,945101500e-01    0,000000000e+00    0,000000000e+00    0,000000000e+00    0,000000000e+00
      478000000   -4,909642413e-02    1,151270326e-02   -2,862911522e-01    6,677280664e-01    0,000000000e+00    0,000000000e+00    0,000000000e+00    0,000000000e+00
      492000000   -1,687702537e-02    6,480584387e-03    1,343977302e-01    7,039440274e-01    0,000000000e+00    0,000000000e+00    0,000000000e+00    0,000000000e+00
      506000000   -3,818708938e-03   -1,490318216e-02    4,975427985e-01    5,064586401e-01    0,000000000e+00    0,000000000e+00    0,000000000e+00    0,000000000e+00
      520000000   -5,753268953e-03   -2,945547551e-02    6,888030767e-01    1,436196268e-01    0,000000000e+00    0,000000000e+00    0,000000000e+00    0,000000000e+00
      534000000   -3,733253106e-03   -3,592684865e-02    6,444175839e-01   -2,598597705e-01    0,000000000e+00    0,000000000e+00    0,000000000e+00    0,000000000e+00
      548000000    8,034531027e-03   -5,257736892e-02    3,847461939e-01   -5,638486147e-01    0,000000000e+00    0,000000000e+00    0,000000000e+00    0,000000000e+00
      562000000    5,658860318e-03   -8,921958506e-02    8,722511120e-03   -6,722148061e-01    0,000000000e+00    0,000000000e+00    0,000000000e+00    0,000000000e+00
      576000000   -3,085583262e-02   -1,260957569e-01   -3,627544940e-01   -5,604553223e-01    0,000000000e+00    0,000000000e+00    0,000000000e+00    0,000000000e+00
      590000000   -9,519619495e-02   -1,277853847e-01   -6,151328683e-01   -2,730110884e-01    0,000000000e+00    0,000000000e+00    0,000000000e+00    0,000000000e+00
      604000000   -1,432686150e-01   -7,807867229e-02   -6,673994660e-01    1,258660406e-01    0,000000000e+00    0,000000000e+00    0,000000000e+00    0,000000000e+00
      618000000   -1,381608546e-01   -1,168389712e-02   -4,755965471e-01    4,850481749e-01    0,000000000e+00    0,000000000e+00    0,000000000e+00    0,000000000e+00
      632000000   -9,305945784e-02    2,135936543e-02   -1,143028289e-01    6,632795930e-01    0,000000000e+00    0,000000000e+00    0,000000000e+00    0,000000000e+00
      646000000   -5,459203944e-02    1,171754673e-02    2,736749649e-01    6,027644873e-01    0,000000000e+00    0,000000000e+00    0,000000000e+00    0,000000000e+00
      660000000   -4,838421941e-02   -9,125931188e-03    5,576960444e-01    3,403043747e-01    0,000000000e+00    0,000000000e+00    0,000000000e+00    0,000000000e+00
      674000000   -5,530659109e-02   -1,079192571e-02    6,444385648e-01   -3,962226585e-02    0,000000000e+00    0,000000000e+00    0,000000000e+00    0,000000000e+00
      688000000   -4,965236410e-02    3,206345486e-03    4,935359955e-01   -4,015300870e-01    0,000000000e+00    0,000000000e+00    0,000000000e+00    0,000000000e+00
      702000000   -2,610730007e-02    7,313095499e-03    1,577355117e-01   -6,052930951e-01    0,000000000e+00    0,000000000e+00    0,000000000e+00    0,000000000e+00
      716000000   -2,568196040e-03   -8,589912206e-03   -2,184544355e-01   -5,753901005e-01    0,000000000e+00    0,000000000e+00    0,000000000e+00    0,000000000e+00
      730000000    1,037943922e-02   -3,450393304e-02   -5,085403323e-01   -3,333393931e-01    0,000000000e+00    0,000000000e+00    0,000000000e+00    0,000000000e+00
      744000000    1,738901436e-02   -6,080661342e-02   -6,009861231e-01    3,280295432e-02    0,000000000e+00    0,000000000e+00    0,000000000e+00    0,000000000e+00
      758000000    2,166516706e-02   -1,039816588e-01   -4,547491074e-01    3,776117861e-01    0,000000000e+00    0,000000000e+00    0,000000000e+00    0,000000000e+00
      772000000   -5,077234004e-03   -1,732693017e-01   -1,396951824e-01    5,589551330e-01    0,000000000e+00    0,000000000e+00    0,000000000e+00    0,000000000e+00
      786000000   -1,057181656e-01   -2,322985232e-01    2,108306438e-01    5,195629001e-01    0,000000000e+00    0,000000000e+00    0,000000000e+00    0,000000000e+00
      800000000   -2,653551400e-01   -1,922456473e-01    4,717007279e-01    2,757287621e-01    0,000000000e+00    0,000000000e+00    0,000000000e+00    0,000000000e+00
      814000000   -3,642812371e-01    2,751110587e-03    5,081406832e-01   -8,863484114e-02    0,000000000e+00    0,000000000e+00    0,000000000e+00    0,000000000e+00
      828000000   -2,481099963e-01    2,341996431e-01    2,804027200e-01   -3,528759778e-01    0,000000000e+00    0,000000000e+00    0,000000000e+00    0,000000000e+00
      842000000    1,171884406e-02    2,790220678e-01   -1,572137885e-02   -3,623487055e-01    0,000000000e+00    0,000000000e+00    0,000000000e+00    0,000000000e+00
      856000000    2,122923881e-01    1,154581308e-01   -1,878306717e-01   -2,049127668e-01    0,000000000e+00    0,000000000e+00    0,000000000e+00    0,000000000e+00
      870000000    2,391609102e-01   -1,487097442e-01   -2,005161196e-01   -2,621767297e-02    0,000000000e+00    0,000000000e+00    0,000000000e+00    0,000000000e+00
      884000000    3,680399805e-02   -3,864480555e-01   -1,041101590e-01    7,112234086e-02    0,000000000e+00    0,000000000e+00    0,000000000e+00    0,000000000e+00
      898000000   -3,701049387e-01   -3,426144421e-01   -1,777089015e-02    2,743513137e-02    0,000000000e+00    0,000000000e+00    0,000000000e+00    0,000000000e+00
      912000000   -4,672665000e-01    1,388105303e-01   -1,252978146e-01    3,292186931e-02    0,000000000e+00    0,000000000e+00    0,000000000e+00    0,000000000e+00
      926000000   -9,579786658e-02    3,503294885e-01   -1,274931580e-01    1,323844939e-01    0,000000000e+00    0,000000000e+00    0,000000000e+00    0,000000000e+00
      940000000    1,819275320e-01    1,953185946e-01   -4,139399156e-02    2,168267518e-01    0,000000000e+00    0,000000000e+00    0,000000000e+00    0,000000000e+00
      954000000    2,534337640e-01   -4,849124700e-02    7,963495702e-02    2,277835757e-01    0,000000000e+00    0,000000000e+00    0,000000000e+00    0,000000000e+00
      968000000    1,767986119e-01   -2,595374584e-01    1,914879382e-01    1,800031513e-01    0,000000000e+00    0,000000000e+00    0,000000000e+00    0,000000000e+00
      982000000   -1,536481082e-02   -3,956324458e-01    2,798904181e-01    7,993339747e-02    0,000000000e+00    0,000000000e+00    0,000000000e+00    0,000000000e+00
      996000000   -2,770596147e-01   -3,764560819e-01    3,091804981e-01   -7,870345563e-02    0,000000000e+00    0,000000000e+00    0,000000000e+00    0,000000000e+00
     1010000000   -4,669811130e-01   -1,700750440e-01    2,208081782e-01   -2,554496229e-01    0,000000000e+00    0,000000000e+00    0,000000000e+00    0,000000000e+00
     1024000000   -4,583925009e-01    1,135273129e-01    2,092748880e-02   -3,298221827e-01    0,000000000e+00    0,000000000e+00    0,000000000e+00    0,000000000e+00
     1038000000   -2,622747123e-01    2,974192798e-01   -1,743668467e-01   -2,475007176e-01    0,000000000e+00    0,000000000e+00    0,000000000e+00    0,000000000e+00
     1052000000   -4,097092897e-02    3,065724671e-01   -2,559863031e-01   -7,797694206e-02    0,000000000e+00    0,000000000e+00    0,000000000e+00    0,000000000e+00
     1066000000    1,262911856e-01    2,004638165e-01   -2,217667103e-01    8,661136031e-02    0,000000000e+00    0,000000000e+00    0,000000000e+00    0,000000000e+00
     1080000000    2,046464682e-01    4,734596983e-02   -1,195731983e-01    1,918972731e-01    0,000000000e+00    0,000000000e+00    0,000000000e+00    0,000000000e+00
     1094000000    2,022763342e-01   -1,256944686e-01    1,569110528e-02    2,342295498e-01    0,000000000e+00    0,000000000e+00    0,000000000e+00    0,000000000e+00
     1108000000    1,029446945e-01   -2,901577950e-01    1,709001660e-01    2,061980665e-01    0,000000000e+00    0,000000000e+00    0,000000000e+00    0,000000000e+00
     1122000000   -1,030749306e-01   -3,675855696e-01    3,153087199e-01    9,008245915e-02    0,000000000e+00    0,000000000e+00    0,000000000e+00    0,000000000e+00
     1136000000   -3,447150886e-01   -2,667680383e-01    3,923377693e-01   -1,508239061e-01    0,000000000e+00    0,000000000e+00    0,000000000e+00    0,000000000e+00
     1150000000   -4,041672945e-01    3,368397057e-02    2,457674146e-01   -4,370586574e-01    0,000000000e+00    0,000000000e+00    0,000000000e+00    0,000000000e+00
     1164000000   -1,544544101e-01    2,183867842e-01   -9,267547727e-02   -5,152924657e-01    0,000000000e+00    0,000000000e+00    0,000000000e+00    0,000000000e+00
     1178000000    7,694899291e-02    8,547883481e-02   -3,578837514e-01   -3,465134799e-01    0,000000000e+00    0,000000000e+00    0,000000000e+00    0,000000000e+00
     1192000000    7,279082388e-02   -1,722396165e-01   -4,563634992e-01   -8,313585818e-02    0,000000000e+00    0,000000000e+00    0,000000000e+00    0,000000000e+00
     1206000000   -1,604501307e-01   -3,244300485e-01   -3,654199243e-01    1,903395802e-01    0,000000000e+00    0,000000000e+00    0,000000000e+00    0,000000000e+00
     1220000000   -4,536584616e-01   -1,754121035e-01   -1,080208644e-01    3,258754015e-01    0,000000000e+00    0,000000000e+00    0,000000000e+00    0,000000000e+00
     1234000000   -4,699341953e-01    1,622301936e-01    1,399375647e-01    2,194873989e-01    0,000000000e+00    0,000000000e+00    0,000000000e+00    0,000000000e+00
     1248000000   -2,396233380e-01    3,538961112e-01    1,914368570e-01    3,113168851e-02    0,000000000e+00    0,000000000e+00    0,000000000e+00    0,000000000e+00
     1262000000    3,184060566e-03    3,261958659e-01    1,286902130e-01   -7,694955170e-02    0,000000000e+00    0,000000000e+00    0,000000000e+00    0,000000000e+00
     1276000000    1,561342180e-01    1,973591596e-01    5,548936501e-02   -9,769679606e-02    0,000000000e+00    0,000000000e+00    0,000000000e+00    0,000000000e+00
     1290000000    2,209665030e-01    3,019616380e-02    5,588524975e-03   -7,586243004e-02    0,000000000e+00    0,000000000e+00    0,000000000e+00    0,000000000e+00
     1304000000    2,061948627e-01   -1,467136145e-01   -1,568999887e-02   -2,846296318e-02    0,000000000e+00    0,000000000e+00    0,000000000e+00    0,000000000e+00
     1318000000    1,122793183e-01   -3,123455644e-01   -1,020050328e-02    2,559076622e-02    0,000000000e+00    0,000000000e+00    0,000000000e+00    0,000000000e+00
     1332000000   -6,876114756e-02   -4,350399077e-01    4,382472858e-02    6,117054820e-02    0,000000000e+00    0,000000000e+00    0,000000000e+00    0,000000000e+00
     1346000000   -3,281268477e-01   -4,410683215e-01    1,454853863e-01    4,496204108e-02    0,000000000e+00    0,000000000e+00    0,000000000e+00    0,000000000e+00
     1360000000   -5,589954257e-01   -2,405382097e-01    1,179405078e-01   -7,521125674e-02    0,000000000e+00    0,000000000e+00    0,000000000e+00    0,000000000e+00
     1374000000   -6,263810396e-01    3,260393441e-02    9,929577261e-02    6,168428436e-02    0,000000000e+00    0,000000000e+00    0,000000000e+00    0,000000000e+00
     1388000000   -5,156496763e-01    2,892459929e-01    2,196230441e-01   -3,989276011e-03    0,000000000e+00    0,000000000e+00    0,000000000e+00    0,000000000e+00
     1402000000   -3,107242584e-01    4,171601832e-01    2,230021507e-01   -9,565977007e-02    0,000000000e+00    0,000000000e+00    0,000000000e+00    0,000000000e+00
     1416000000   -1,021498740e-01    4,203419685e-01    1,865209639e-01   -1,169534624e-01    0,000000000e+00    0,000000000e+00    0,000000000e+00    0,000000000e+00
     1430000000    6,843122095e-02    3,301300406e-01    1,804824620e-01   -1,010935158e-01    0,000000000e+00    0,000000000e+00    0,000000000e+00    0,000000000e+00
     1444000000    1,716426909e-01    2,024778128e-01    1,463690549e-01   -9,883572906e-02    0,000000000e+00    0,000000000e+00    0,000000000e+00    0,000000000e+00
     1458000000    2,232327014e-01    3,162040934e-02    1,484036893e-01   -9,097464383e-02    0,000000000e+00    0,000000000e+00    0,000000000e+00    0,000000000e+00
     1472000000    2,047144473e-01   -1,465417892e-01    1,561671644e-01   -5,698131770e-02    0,000000000e+00    0,000000000e+00    0,000000000e+00    0,000000000e+00
     1486000000    1,048492268e-01   -3,220517933e-01    1,593297571e-01   -1,614097506e-02    0,000000000e+00    0,000000000e+00    0,000000000e+00    0,000000000e+00
     1500000000   -9,088227898e-02   -4,657653570e-01    2,217085510e-01    5,083693564e-02    0,000000000e+00    0,000000000e+00    0,000000000e+00    0,000000000e+00
