! NanoVNA-App
! Date: 2025-09-25 14:21:42
! Start: 100MHz Stop: 1,5GHz Points: 101
! S-Parameter data: F S11 S21 S12 S22
# Hz S RI R 50
!     Frequency           S11_Real           S11_Imag           S21_Real           S21_Imag           S12_Real           S12_Imag           S22_Real           S22_Imag
      100000000   -2,909239568e-02   -4,130546469e-03    3,744999766e-01   -7,220996022e-01    0,000000000e+00    0,000000000e+00    0,000000000e+00    0,000000000e+00
      114000000   -1,660401188e-02    1,161227655e-02   -8,901885152e-02   -8,056926131e-01    0,000000000e+00    0,000000000e+00    0,000000000e+00    0,000000000e+00
      128000000    3,435699968e-03    1,056242269e-02   -5,146521926e-01   -6,208536029e-01    0,000000000e+00    0,000000000e+00    0,000000000e+00    0,000000000e+00
      142000000    1,447441336e-02   -3,049033927e-03   -7,675946355e-01   -2,368335873e-01    0,000000000e+00    0,000000000e+00    0,000000000e+00    0,000000000e+00
      156000000    1,575700939e-02   -1,466220804e-02   -7,705001831e-01    2,239124775e-01    0,000000000e+00    0,000000000e+00    0,000000000e+00    0,000000000e+00
      170000000    1,648525707e-02   -2,248740941e-02   -5,185813904e-01    6,049197316e-01    0,000000000e+00    0,000000000e+00    0,000000000e+00    0,000000000e+00
      184000000    2,098942548e-02   -3,705531359e-02   -1,020176262e-01    7,865804434e-01    0,000000000e+00    0,000000000e+00    0,000000000e+00    0,000000000e+00
      198000000    1,306334231e-02   -6,261855364e-02    3,429914713e-01    7,130465508e-01    0,000000000e+00    0,000000000e+00    0,000000000e+00    0,000000000e+00
      212000000   -1,873023808e-02   -8,168917894e-02    6,784041524e-01    4,104858935e-01    0,000000000e+00    0,000000000e+00    0,000000000e+00    0,000000000e+00
      226000000   -6,211773306e-02   -6,964246184e-02    7,961627245e-01   -2,977307700e-02    0,000000000e+00    0,000000000e+00    0,000000000e+00    0,000000000e+00
      240000000   -8,316683024e-02   -2,610163204e-02    6,472005844e-01   -4,666467309e-01    0,000000000e+00    0,000000000e+00    0,000000000e+00    0,000000000e+00
      254000000   -6,433854252e-02    1,730490103e-02    2,770461440e-01   -7,436118722e-01    0,000000000e+00    0,000000000e+00    0,000000000e+00    0,000000000e+00
      268000000   -2,431113087e-02    2,950946800e-02   -1,772401482e-01   -7,651289701e-01    0,000000000e+00    0,000000000e+00    0,000000000e+00    0,000000000e+00
      282000000    4,171265289e-03    1,223730203e-02   -5,623401403e-01   -5,372185707e-01    0,000000000e+00    0,000000000e+00    0,000000000e+00    0,000000000e+00
      296000000    9,638170712e-03   -7,648059167e-03   -7,608423829e-01   -1,397215128e-01    0,000000000e+00    0,000000000e+00    0,000000000e+00    0,000000000e+00
      310000000    1,092406642e-02   -1,590853557e-02   -7,125493884e-01    2,970103920e-01    0,000000000e+00    0,000000000e+00    0,000000000e+00    0,000000000e+00
      324000000    1,955000311e-02   -2,633560263e-02   -4,292036891e-01    6,384604573e-01    0,000000000e+00    0,000000000e+00    0,000000000e+00    0,000000000e+00
      338000000    2,539464459e-02   -5,192003027e-02   -1,039389241e-02    7,603664398e-01    0,000000000e+00    0,000000000e+00    0,000000000e+00    0,000000000e+00
      352000000    7,425908465e-03   -8,474601805e-02    4,054538310e-01    6,408051252e-01    0,000000000e+00    0,000000000e+00    0,000000000e+00    0,000000000e+00
      366000000   -3,496545553e-02   -9,597773850e-02    6,904149652e-01    3,124517798e-01    0,000000000e+00    0,000000000e+00    0,000000000e+00    0,000000000e+00
      380000000   -7,142544538e-02   -7,110537589e-02    7,478703856e-01   -1,249046400e-01    0,000000000e+00    0,000000000e+00    0,000000000e+00    0,000000000e+00
      394000000   -7,302799821e-02   -3,238175809e-02    5,492343307e-01   -5,222315788e-01    0,000000000e+00    0,000000000e+00    0,000000000e+00    0,000000000e+00
      408000000   -4,696382955e-02   -1,560654212e-02    1,624972969e-01   -7,336089611e-01    0,000000000e+00    0,000000000e+00    0,000000000e+00    0,000000000e+00
      422000000   -2,835816704e-02   -3,160895780e-02   -2,658909857e-01   -6,963636875e-01    0,000000000e+00    0,000000000e+00    0,000000000e+00    0,000000000e+00
      436000000   -4,027653858e-02   -5,217484012e-02   -6,028798819e-01   -4,342843890e-01    0,000000000e+00    0,000000000e+00    0,000000000e+00    0,000000000e+00
      450000000   -6,750306487e-02   -4,500072449e-02   -7,405548692e-01   -2,501271293e-02    0,000000000e+00    0,000000000e+00    0,000000000e+00    0,000000000e+00
      464000000   -7,425403595e-02   -1,223952603e-02   -6,212927699e-01    3,947458267e-01    0,000000000e+00    0,000000000e+00    0,000000000e+00    0,000000000e+00
      478000000   -4,933286086e-02    1,184527855e-02   -2,867253423e-01    6,675000787e-01    0,000000000e+00    0,000000000e+00    0,000000000e+00    0,000000000e+00
      492000000   -1,744103618e-02    6,772766355e-03    1,334746182e-01    7,042651772e-01    0,000000000e+00    0,000000000e+00    0,000000000e+00    0,000000000e+00
      506000000   -3,671092680e-03   -1,537740417e-02    4,977721274e-01    5,059849620e-01    0,000000000e+00    0,000000000e+00    0,000000000e+00    0,000000000e+00
      520000000   -5,765681621e-03   -2,953911945e-02    6,883266568e-01    1,439710855e-01    0,000000000e+00    0,000000000e+00    0,000000000e+00    0,000000000e+00
      534000000   -2,982433187e-03   -3,585177660e-02    6,448852420e-01   -2,600710988e-01    0,000000000e+00    0,000000000e+00    0,000000000e+00    0,000000000e+00
      548000000    7,892378606e-03   -5,295094103e-02    3,851063251e-01   -5,643602610e-01    0,000000000e+00    0,000000000e+00    0,000000000e+00    0,000000000e+00
      562000000    5,947479978e-03   -8,995823562e-02    7,349410560e-03   -6,727793813e-01    0,000000000e+00    0,000000000e+00    0,000000000e+00    0,000000000e+00
      576000000   -3,092708439e-02   -1,261445433e-01   -3,627908528e-01   -5,611412525e-01    0,000000000e+00    0,000000000e+00    0,000000000e+00    0,000000000e+00
      590000000   -9,480385482e-02   -1,276316941e-01   -6,187420487e-01   -2,718255222e-01    0,000000000e+00    0,000000000e+00    0,000000000e+00    0,000000000e+00
      604000000   -1,432541162e-01   -7,811933011e-02   -6,676962972e-01    1,260956228e-01    0,000000000e+00    0,000000000e+00    0,000000000e+00    0,000000000e+00
      618000000   -1,382857710e-01   -1,106470823e-02   -4,750172198e-01    4,861879051e-01    0,000000000e+00    0,000000000e+00    0,000000000e+00    0,000000000e+00
      632000000   -9,351752698e-02    2,157072537e-02   -1,136552021e-01    6,625623107e-01    0,000000000e+00    0,000000000e+00    0,000000000e+00    0,000000000e+00
      646000000   -5,558679625e-02    1,141275000e-02    2,740282416e-01    6,042780876e-01    0,000000000e+00    0,000000000e+00    0,000000000e+00    0,000000000e+00
      660000000   -4,765634984e-02   -8,964498527e-03    5,575264096e-01    3,397688568e-01    0,000000000e+00    0,000000000e+00    0,000000000e+00    0,000000000e+00
      674000000   -5,527161434e-02   -1,098291110e-02    6,442444324e-01   -4,009229690e-02    0,000000000e+00    0,000000000e+00    0,000000000e+00    0,000000000e+00
      688000000   -4,966588691e-02    3,107951488e-03    4,932346940e-01   -4,020406306e-01    0,000000000e+00    0,000000000e+00    0,000000000e+00    0,000000000e+00
      702000000   -2,585723251e-02    7,743579801e-03    1,650742292e-01   -6,034849882e-01    0,000000000e+00    0,000000000e+00    0,000000000e+00    0,000000000e+00
      716000000   -2,655847929e-03   -9,533335455e-03   -2,190177739e-01   -5,760658979e-01    0,000000000e+00    0,000000000e+00    0,000000000e+00    0,000000000e+00
      730000000    9,219704196e-03   -3,412887082e-02   -5,096980929e-01   -3,326508999e-01    0,000000000e+00    0,000000000e+00    0,000000000e+00    0,000000000e+00
      744000000    1,602311246e-02   -6,114606559e-02   -6,008990407e-01    3,348544985e-02    0,000000000e+00    0,000000000e+00    0,000000000e+00    0,000000000e+00
      758000000    2,183662169e-02   -1,040965989e-01   -4,541299045e-01    3,768178523e-01    0,000000000e+00    0,000000000e+00    0,000000000e+00    0,000000000e+00
      772000000   -5,729889497e-03   -1,736467034e-01   -1,396357417e-01    5,594623685e-01    0,000000000e+00    0,000000000e+00    0,000000000e+00    0,000000000e+00
      786000000   -1,053977683e-01   -2,330386043e-01    2,115965784e-01    5,196494460e-01    0,000000000e+00    0,000000000e+00    0,000000000e+00    0,000000000e+00
      800000000   -2,659330368e-01   -1,922172755e-01    4,720517993e-01    2,751323283e-01    0,000000000e+00    0,000000000e+00    0,000000000e+00    0,000000000e+00
      814000000   -3,649300933e-01    3,601360600e-03    5,080435276e-01   -8,886016905e-02    0,000000000e+00    0,000000000e+00    0,000000000e+00    0,000000000e+00
      828000000   -2,470278889e-01    2,336852849e-01    2,806983292e-01   -3,523469567e-01    0,000000000e+00    0,000000000e+00    0,000000000e+00    0,000000000e+00
      842000000    1,268101856e-02    2,790311575e-01   -1,626159623e-02   -3,621115685e-01    0,000000000e+00    0,000000000e+00    0,000000000e+00    0,000000000e+00
      856000000    2,122092247e-01    1,152415052e-01   -1,880117059e-01   -2,044251561e-01    0,000000000e+00    0,000000000e+00    0,000000000e+00    0,000000000e+00
      870000000    2,386794239e-01   -1,489649564e-01   -2,006352395e-01   -2,572508343e-02    0,000000000e+00    0,000000000e+00    0,000000000e+00    0,000000000e+00
      884000000    3,705388680e-02   -3,864976168e-01   -1,049279347e-01    7,095959038e-02    0,000000000e+00    0,000000000e+00    0,000000000e+00    0,000000000e+00
      898000000   -3,695673048e-01   -3,416897357e-01   -1,663471945e-02    2,784341760e-02    0,000000000e+00    0,000000000e+00    0,000000000e+00    0,000000000e+00
      912000000   -4,668041170e-01    1,386361718e-01   -1,240295619e-01    3,315326571e-02    0,000000000e+00    0,000000000e+00    0,000000000e+00    0,000000000e+00
      926000000   -9,311502427e-02    3,518392444e-01   -1,273522079e-01    1,331977248e-01    0,000000000e+00    0,000000000e+00    0,000000000e+00    0,000000000e+00
      940000000    1,843860745e-01    1,922871172e-01   -3,871835023e-02    2,148708999e-01    0,000000000e+00    0,000000000e+00    0,000000000e+00    0,000000000e+00
      954000000    2,551502883e-01   -5,123414472e-02    7,871105522e-02    2,263066024e-01    0,000000000e+00    0,000000000e+00    0,000000000e+00    0,000000000e+00
      968000000    1,743795425e-01   -2,622822821e-01    1,910808235e-01    1,807902902e-01    0,000000000e+00    0,000000000e+00    0,000000000e+00    0,000000000e+00
      982000000   -1,661782898e-02   -3,936314583e-01    2,805805504e-01    8,002696186e-02    0,000000000e+00    0,000000000e+00    0,000000000e+00    0,000000000e+00
      996000000   -2,748772800e-01   -3,800979555e-01    3,093758523e-01   -8,132597804e-02    0,000000000e+00    0,000000000e+00    0,000000000e+00    0,000000000e+00
     1010000000   -4,704791605e-01   -1,686256677e-01    2,197291702e-01   -2,530498207e-01    0,000000000e+00    0,000000000e+00    0,000000000e+00    0,000000000e+00
     1024000000   -4,569167197e-01    1,151664332e-01    2,034498379e-02   -3,299293816e-01    0,000000000e+00    0,000000000e+00    0,000000000e+00    0,000000000e+00
     1038000000   -2,625055909e-01    3,005085886e-01   -1,739252061e-01   -2,468823045e-01    0,000000000e+00    0,000000000e+00    0,000000000e+00    0,000000000e+00
     1052000000   -3,747081012e-02    3,116509318e-01   -2,565900385e-01   -7,868148386e-02    0,000000000e+00    0,000000000e+00    0,000000000e+00    0,000000000e+00
     1066000000    1,248913705e-01    2,060120851e-01   -2,215883434e-01    8,768495917e-02    0,000000000e+00    0,000000000e+00    0,000000000e+00    0,000000000e+00
     1080000000    2,108410299e-01    4,704380035e-02   -1,227014959e-01    1,913492531e-01    0,000000000e+00    0,000000000e+00    0,000000000e+00    0,000000000e+00
     1094000000    2,042960078e-01   -1,269790679e-01    1,814734377e-02    2,326860726e-01    0,000000000e+00    0,000000000e+00    0,000000000e+00    0,000000000e+00
     1108000000    9,956817329e-02   -2,847933769e-01    1,690312922e-01    2,071837485e-01    0,000000000e+00    0,000000000e+00    0,000000000e+00    0,000000000e+00
     1122000000   -1,043292955e-01   -3,679339588e-01    3,165129423e-01    8,857689798e-02    0,000000000e+00    0,000000000e+00    0,000000000e+00    0,000000000e+00
     1136000000   -3,451236188e-01   -2,656686008e-01    3,905005157e-01   -1,488870829e-01    0,000000000e+00    0,000000000e+00    0,000000000e+00    0,000000000e+00
     1150000000   -4,105880857e-01    3,829879686e-02    2,444454879e-01   -4,368683994e-01    0,000000000e+00    0,000000000e+00    0,000000000e+00    0,000000000e+00
     1164000000   -1,557778418e-01    2,187761962e-01   -9,110387415e-02   -5,154021382e-01    0,000000000e+00    0,000000000e+00    0,000000000e+00    0,000000000e+00
     1178000000    7,833576202e-02    8,535841852e-02   -3,548554182e-01   -3,458040059e-01    0,000000000e+00    0,000000000e+00    0,000000000e+00    0,000000000e+00
     1192000000    7,382449508e-02   -1,719585508e-01   -4,528415799e-01   -8,376237005e-02    0,000000000e+00    0,000000000e+00    0,000000000e+00    0,000000000e+00
     1206000000   -1,650740504e-01   -3,268148303e-01   -3,709595799e-01    1,868685484e-01    0,000000000e+00    0,000000000e+00    0,000000000e+00    0,000000000e+00
     1220000000   -4,551105201e-01   -1,806334704e-01   -1,084988937e-01    3,314207494e-01    0,000000000e+00    0,000000000e+00    0,000000000e+00    0,000000000e+00
     1234000000   -4,752022624e-01    1,606959552e-01    1,378615797e-01    2,220507860e-01    0,000000000e+00    0,000000000e+00    0,000000000e+00    0,000000000e+00
     1248000000   -2,341061831e-01    3,485752344e-01    1,907058507e-01    3,395356983e-02    0,000000000e+00    0,000000000e+00    0,000000000e+00    0,000000000e+00
     1262000000   -4,753925896e-04    3,287145197e-01    1,285423934e-01   -7,387250662e-02    0,000000000e+00    0,000000000e+00    0,000000000e+00    0,000000000e+00
     1276000000    1,574798971e-01    2,013359815e-01    5,524203181e-02   -9,512601793e-02    0,000000000e+00    0,000000000e+00    0,000000000e+00    0,000000000e+00
     1290000000    2,184090912e-01    2,724560723e-02    1,173200901e-03   -7,623241842e-02    0,000000000e+00    0,000000000e+00    0,000000000e+00    0,000000000e+00
     1304000000    2,050449848e-01   -1,456353068e-01   -1,636055112e-02   -2,918556333e-02    0,000000000e+00    0,000000000e+00    0,000000000e+00    0,000000000e+00
     1318000000    1,175104380e-01   -3,162209690e-01   -3,943263087e-03    1,791763306e-02    0,000000000e+00    0,000000000e+00    0,000000000e+00    0,000000000e+00
     1332000000   -6,285490096e-02   -4,366221428e-01    5,915278196e-02    6,549232453e-02    0,000000000e+00    0,000000000e+00    0,000000000e+00    0,000000000e+00
     1346000000   -3,285504878e-01   -4,346267283e-01    1,452103257e-01    3,920309246e-02    0,000000000e+00    0,000000000e+00    0,000000000e+00    0,000000000e+00
     1360000000   -5,562128425e-01   -2,499706447e-01    1,127935648e-01   -8,412922174e-02    0,000000000e+00    0,000000000e+00    0,000000000e+00    0,000000000e+00
     1374000000   -6,176197529e-01    3,386227414e-02    1,174748540e-01    6,278500706e-02    0,000000000e+00    0,000000000e+00    0,000000000e+00    0,000000000e+00
     1388000000   -5,124412775e-01    2,944197357e-01    2,228858173e-01    1,020989381e-02    0,000000000e+00    0,000000000e+00    0,000000000e+00    0,000000000e+00
     1402000000   -3,077546060e-01    4,164094925e-01    2,257176489e-01   -7,855256647e-02    0,000000000e+00    0,000000000e+00    0,000000000e+00    0,000000000e+00
     1416000000   -8,913201839e-02    4,195965528e-01    1,968353838e-01   -1,153715774e-01    0,000000000e+00    0,000000000e+00    0,000000000e+00    0,000000000e+00
     1430000000    7,163933665e-02    3,361625671e-01    1,558877677e-01   -1,232268587e-01    0,000000000e+00    0,000000000e+00    0,000000000e+00    0,000000000e+00
     1444000000    1,742240041e-01    2,019197196e-01    1,482808292e-01   -9,862598777e-02    0,000000000e+00    0,000000000e+00    0,000000000e+00    0,000000000e+00
     1458000000    2,267639339e-01    3,475997970e-02    1,615864784e-01   -7,736087590e-02    0,000000000e+00    0,000000000e+00    0,000000000e+00    0,000000000e+00
     1472000000    2,051605582e-01   -1,420947313e-01    1,522316188e-01   -6,404626369e-02    0,000000000e+00    0,000000000e+00    0,000000000e+00    0,000000000e+00
     1486000000    1,052411050e-01   -3,189493716e-01    1,591377109e-01   -1,310418127e-03    0,000000000e+00    0,000000000e+00    0,000000000e+00    0,000000000e+00
     1500000000   -8,855226636e-02   -4,593341947e-01    2,107030153e-01    5,038654059e-02    0,000000000e+00    0,000000000e+00    0,000000000e+00    0,000000000e+00
