! NanoVNA-App
! Date: 2025-09-25 14:25:05
! Start: 100MHz Stop: 1,5GHz Points: 101
! S-Parameter data: F S11 S21 S12 S22
# Hz S RI R 50
!     Frequency           S11_Real           S11_Imag           S21_Real           S21_Imag           S12_Real           S12_Imag           S22_Real           S22_Imag
      100000000   -2,907807939e-02   -4,111176357e-03    3,745284379e-01   -7,220445275e-01    0,000000000e+00    0,000000000e+00    0,000000000e+00    0,000000000e+00
      114000000   -1,661126502e-02    1,161922514e-02   -8,871016651e-02   -8,057345748e-01    0,000000000e+00    0,000000000e+00    0,000000000e+00    0,000000000e+00
      128000000    3,448078874e-03    1,054726355e-02   -5,144377947e-01   -6,211478114e-01    0,000000000e+00    0,000000000e+00    0,000000000e+00    0,000000000e+00
      142000000    1,446053665e-02   -3,083019750e-03   -7,673984170e-01   -2,368448824e-01    0,000000000e+00    0,000000000e+00    0,000000000e+00    0,000000000e+00
      156000000    1,566790789e-02   -1,474662870e-02   -7,705495954e-01    2,238581479e-01    0,000000000e+00    0,000000000e+00    0,000000000e+00    0,000000000e+00
      170000000    1,653422043e-02   -2,254479751e-02   -5,186407566e-01    6,049895287e-01    0,000000000e+00    0,000000000e+00    0,000000000e+00    0,000000000e+00
      184000000    2,097993158e-02   -3,707783669e-02   -1,017815098e-01    7,868034840e-01    0,000000000e+00    0,000000000e+00    0,000000000e+00    0,000000000e+00
      198000000    1,309472974e-02   -6,262417883e-02    3,429473937e-01    7,128928900e-01    0,000000000e+00    0,000000000e+00    0,000000000e+00    0,000000000e+00
      212000000   -1,868271083e-02   -8,172160387e-02    6,783804893e-01    4,104686677e-01    0,000000000e+00    0,000000000e+00    0,000000000e+00    0,000000000e+00
      226000000   -6,201783568e-02   -6,969355047e-02    7,960520387e-01   -2,971884795e-02    0,000000000e+00    0,000000000e+00    0,000000000e+00    0,000000000e+00
      240000000   -8,319717646e-02   -2,607623115e-02    6,468281150e-01   -4,665234685e-01    0,000000000e+00    0,000000000e+00    0,000000000e+00    0,000000000e+00
      254000000   -6,434345245e-02    1,738132164e-02    2,771597505e-01   -7,433627844e-01    0,000000000e+00    0,000000000e+00    0,000000000e+00    0,000000000e+00
      268000000   -2,407690324e-02    2,946730331e-02   -1,767103523e-01   -7,648735046e-01    0,000000000e+00    0,000000000e+00    0,000000000e+00    0,000000000e+00
      282000000    3,993626684e-03    1,200922392e-02   -5,627806187e-01   -5,373945236e-01    0,000000000e+00    0,000000000e+00    0,000000000e+00    0,000000000e+00
      296000000    9,556060657e-03   -7,668875158e-03   -7,610184550e-01   -1,397074908e-01    0,000000000e+00    0,000000000e+00    0,000000000e+00    0,000000000e+00
      310000000    1,077217050e-02   -1,620009728e-02   -7,119719982e-01    2,977278233e-01    0,000000000e+00    0,000000000e+00    0,000000000e+00    0,000000000e+00
      324000000    1,949271560e-02   -2,654527128e-02   -4,288733602e-01    6,372849941e-01    0,000000000e+00    0,000000000e+00    0,000000000e+00    0,000000000e+00
      338000000    2,530820668e-02   -5,207093805e-02   -1,211465523e-02    7,603551149e-01    0,000000000e+00    0,000000000e+00    0,000000000e+00    0,000000000e+00
      352000000    7,346946280e-03   -8,481992781e-02    4,056181908e-01    6,399878263e-01    0,000000000e+00    0,000000000e+00    0,000000000e+00    0,000000000e+00
      366000000   -3,475813568e-02   -9,588962793e-02    6,914017200e-01    3,129720688e-01    0,000000000e+00    0,000000000e+00    0,000000000e+00    0,000000000e+00
      380000000   -7,152895629e-02   -7,127364725e-02    7,482598424e-01   -1,248527318e-01    0,000000000e+00    0,000000000e+00    0,000000000e+00    0,000000000e+00
      394000000   -7,332570106e-02   -3,236863762e-02    5,471531153e-01   -5,203993320e-01    0,000000000e+00    0,000000000e+00    0,000000000e+00    0,000000000e+00
      408000000   -4,701635614e-02   -1,567615755e-02    1,631677747e-01   -7,315846682e-01    0,000000000e+00    0,000000000e+00    0,000000000e+00    0,000000000e+00
      422000000   -2,867241949e-02   -3,154815733e-02   -2,659476101e-01   -6,953992248e-01    0,000000000e+00    0,000000000e+00    0,000000000e+00    0,000000000e+00
      436000000   -3,984315321e-02   -5,194867030e-02   -6,024782062e-01   -4,337217510e-01    0,000000000e+00    0,000000000e+00    0,000000000e+00    0,000000000e+00
      450000000   -6,759673357e-02   -4,481235147e-02   -7,403947115e-01   -2,483958006e-02    0,000000000e+00    0,000000000e+00    0,000000000e+00    0,000000000e+00
      464000000   -7,442306727e-02   -1,240957715e-02   -6,212996840e-01    3,948495984e-01    0,000000000e+00    0,000000000e+00    0,000000000e+00    0,000000000e+00
      478000000   -4,935253784e-02    1,171160396e-02   -2,863945365e-01    6,681157947e-01    0,000000000e+00    0,000000000e+00    0,000000000e+00    0,000000000e+00
      492000000   -1,683556102e-02    6,478792056e-03    1,342346519e-01    7,043413520e-01    0,000000000e+00    0,000000000e+00    0,000000000e+00    0,000000000e+00
      506000000   -3,376013832e-03   -1,511926763e-02    4,976772666e-01    5,055849552e-01    0,000000000e+00    0,000000000e+00    0,000000000e+00    0,000000000e+00
      520000000   -5,939758383e-03   -2,970306017e-02    6,900529861e-01    1,432302594e-01    0,000000000e+00    0,000000000e+00    0,000000000e+00    0,000000000e+00
      534000000   -3,510713810e-03   -3,608002514e-02    6,443453431e-01   -2,599254251e-01    0,000000000e+00    0,000000000e+00    0,000000000e+00    0,000000000e+00
      548000000    8,302359842e-03   -5,261046439e-02    3,852878511e-01   -5,633445382e-01    0,000000000e+00    0,000000000e+00    0,000000000e+00    0,000000000e+00
      562000000    5,676483735e-03   -8,930309117e-02    7,122640964e-03   -6,715511680e-01    0,000000000e+00    0,000000000e+00    0,000000000e+00    0,000000000e+00
      576000000   -3,092752211e-02   -1,259701550e-01   -3,629522026e-01   -5,601153970e-01    0,000000000e+00    0,000000000e+00    0,000000000e+00    0,000000000e+00
      590000000   -9,478248656e-02   -1,278383583e-01   -6,151810884e-01   -2,704510987e-01    0,000000000e+00    0,000000000e+00    0,000000000e+00    0,000000000e+00
      604000000   -1,430580169e-01   -7,788658142e-02   -6,675063968e-01    1,268119663e-01    0,000000000e+00    0,000000000e+00    0,000000000e+00    0,000000000e+00
      618000000   -1,379373670e-01   -1,158557925e-02   -4,752291143e-01    4,852065444e-01    0,000000000e+00    0,000000000e+00    0,000000000e+00    0,000000000e+00
      632000000   -9,350009263e-02    2,176042646e-02   -1,142511293e-01    6,627565622e-01    0,000000000e+00    0,000000000e+00    0,000000000e+00    0,000000000e+00
      646000000   -5,567060411e-02    1,148814708e-02    2,726628184e-01    6,040281057e-01    0,000000000e+00    0,000000000e+00    0,000000000e+00    0,000000000e+00
      660000000   -4,818340018e-02   -8,225149475e-03    5,579236746e-01    3,403005600e-01    0,000000000e+00    0,000000000e+00    0,000000000e+00    0,000000000e+00
      674000000   -5,617415905e-02   -1,012149267e-02    6,442597508e-01   -3,991491348e-02    0,000000000e+00    0,000000000e+00    0,000000000e+00    0,000000000e+00
      688000000   -4,985431209e-02    2,983739832e-03    4,934588969e-01   -4,015974700e-01    0,000000000e+00    0,000000000e+00    0,000000000e+00    0,000000000e+00
      702000000   -2,541743964e-02    8,021001704e-03    1,601035893e-01   -6,055915952e-01    0,000000000e+00    0,000000000e+00    0,000000000e+00    0,000000000e+00
      716000000   -1,571860746e-03   -8,296334185e-03   -2,187109888e-01   -5,753868222e-01    0,000000000e+00    0,000000000e+00    0,000000000e+00    0,000000000e+00
      730000000    9,263697080e-03   -3,526232019e-02   -5,089184046e-01   -3,332574368e-01    0,000000000e+00    0,000000000e+00    0,000000000e+00    0,000000000e+00
      744000000    1,596348919e-02   -6,039221957e-02   -6,007977724e-01    3,298868611e-02    0,000000000e+00    0,000000000e+00    0,000000000e+00    0,000000000e+00
      758000000    2,266856097e-02   -1,033551097e-01   -4,545908570e-01    3,768337667e-01    0,000000000e+00    0,000000000e+00    0,000000000e+00    0,000000000e+00
      772000000   -4,923043773e-03   -1,740857959e-01   -1,401875913e-01    5,576469898e-01    0,000000000e+00    0,000000000e+00    0,000000000e+00    0,000000000e+00
      786000000   -1,060115546e-01   -2,323623747e-01    2,113502622e-01    5,197212100e-01    0,000000000e+00    0,000000000e+00    0,000000000e+00    0,000000000e+00
      800000000   -2,665050626e-01   -1,928454041e-01    4,718105495e-01    2,756353617e-01    0,000000000e+00    0,000000000e+00    0,000000000e+00    0,000000000e+00
      814000000   -3,644455671e-01    4,260103218e-03    5,083453059e-01   -8,846627921e-02    0,000000000e+00    0,000000000e+00    0,000000000e+00    0,000000000e+00
      828000000   -2,484012097e-01    2,334137410e-01    2,812966108e-01   -3,529096544e-01    0,000000000e+00    0,000000000e+00    0,000000000e+00    0,000000000e+00
      842000000    1,268601697e-02    2,778748274e-01   -1,603100449e-02   -3,628173769e-01    0,000000000e+00    0,000000000e+00    0,000000000e+00    0,000000000e+00
      856000000    2,126193047e-01    1,152142808e-01   -1,881221384e-01   -2,052486837e-01    0,000000000e+00    0,000000000e+00    0,000000000e+00    0,000000000e+00
      870000000    2,386488020e-01   -1,484106332e-01   -2,014426291e-01   -2,574764937e-02    0,000000000e+00    0,000000000e+00    0,000000000e+00    0,000000000e+00
      884000000    3,660905734e-02   -3,863389790e-01   -1,040273011e-01    7,080587745e-02    0,000000000e+00    0,000000000e+00    0,000000000e+00    0,000000000e+00
      898000000   -3,690614402e-01   -3,415367603e-01   -1,670227759e-02    2,754797973e-02    0,000000000e+00    0,000000000e+00    0,000000000e+00    0,000000000e+00
      912000000   -4,673952460e-01    1,376881599e-01   -1,222165152e-01    3,865827993e-02    0,000000000e+00    0,000000000e+00    0,000000000e+00    0,000000000e+00
      926000000   -9,657498449e-02    3,514741659e-01   -1,296550632e-01    1,345617026e-01    0,000000000e+00    0,000000000e+00    0,000000000e+00    0,000000000e+00
      940000000    1,863828599e-01    1,947192997e-01   -3,689392656e-02    2,164856642e-01    0,000000000e+00    0,000000000e+00    0,000000000e+00    0,000000000e+00
      954000000    2,569649518e-01   -4,690609127e-02    7,995633036e-02    2,278965265e-01    0,000000000e+00    0,000000000e+00    0,000000000e+00    0,000000000e+00
      968000000    1,753185093e-01   -2,636342049e-01    1,918769926e-01    1,809804738e-01    0,000000000e+00    0,000000000e+00    0,000000000e+00    0,000000000e+00
      982000000   -1,901928708e-02   -3,924560845e-01    2,792295218e-01    8,010362089e-02    0,000000000e+00    0,000000000e+00    0,000000000e+00    0,000000000e+00
      996000000   -2,702042460e-01   -3,786070347e-01    3,087109327e-01   -7,896585017e-02    0,000000000e+00    0,000000000e+00    0,000000000e+00    0,000000000e+00
     1010000000   -4,720377326e-01   -1,740129739e-01    2,220073342e-01   -2,549360394e-01    0,000000000e+00    0,000000000e+00    0,000000000e+00    0,000000000e+00
     1024000000   -4,565805197e-01    1,194684356e-01    2,073428594e-02   -3,316960633e-01    0,000000000e+00    0,000000000e+00    0,000000000e+00    0,000000000e+00
     1038000000   -2,617956400e-01    3,013804853e-01   -1,744790226e-01   -2,499435842e-01    0,000000000e+00    0,000000000e+00    0,000000000e+00    0,000000000e+00
     1052000000   -3,754114732e-02    3,051780164e-01   -2,581218481e-01   -7,639411092e-02    0,000000000e+00    0,000000000e+00    0,000000000e+00    0,000000000e+00
     1066000000    1,256771088e-01    2,078949660e-01   -2,241202444e-01    8,644527197e-02    0,000000000e+00    0,000000000e+00    0,000000000e+00    0,000000000e+00
     1080000000    2,106645852e-01    4,924461618e-02   -1,211387441e-01    1,918698847e-01    0,000000000e+00    0,000000000e+00    0,000000000e+00    0,000000000e+00
     1094000000    2,029835582e-01   -1,305899471e-01    1,942976192e-02    2,356710732e-01    0,000000000e+00    0,000000000e+00    0,000000000e+00    0,000000000e+00
     1108000000    9,775703400e-02   -2,851580083e-01    1,695794761e-01    2,087158561e-01    0,000000000e+00    0,000000000e+00    0,000000000e+00    0,000000000e+00
     1122000000   -1,043035239e-01   -3,697516322e-01    3,146161437e-01    8,922961354e-02    0,000000000e+00    0,000000000e+00    0,000000000e+00    0,000000000e+00
     1136000000   -3,475856185e-01   -2,653985620e-01    3,924493790e-01   -1,474905461e-01    0,000000000e+00    0,000000000e+00    0,000000000e+00    0,000000000e+00
     1150000000   -4,036106467e-01    3,487851471e-02    2,443071455e-01   -4,411621094e-01    0,000000000e+00    0,000000000e+00    0,000000000e+00    0,000000000e+00
     1164000000   -1,646581590e-01    2,165125161e-01   -9,478764981e-02   -5,144018531e-01    0,000000000e+00    0,000000000e+00    0,000000000e+00    0,000000000e+00
     1178000000    7,461524755e-02    7,993174344e-02   -3,573044837e-01   -3,468162119e-01    0,000000000e+00    0,000000000e+00    0,000000000e+00    0,000000000e+00
     1192000000    7,588168234e-02   -1,783476621e-01   -4,492684007e-01   -8,447005600e-02    0,000000000e+00    0,000000000e+00    0,000000000e+00    0,000000000e+00
     1206000000   -1,648528129e-01   -3,248475790e-01   -3,706110418e-01    1,884945184e-01    0,000000000e+00    0,000000000e+00    0,000000000e+00    0,000000000e+00
     1220000000   -4,556398690e-01   -1,789553314e-01   -1,052563936e-01    3,269855976e-01    0,000000000e+00    0,000000000e+00    0,000000000e+00    0,000000000e+00
     1234000000   -4,730160236e-01    1,620404273e-01    1,399938613e-01    2,207035720e-01    0,000000000e+00    0,000000000e+00    0,000000000e+00    0,000000000e+00
     1248000000   -2,347563952e-01    3,520550728e-01    1,959039420e-01    3,128549084e-02    0,000000000e+00    0,000000000e+00    0,000000000e+00    0,000000000e+00
     1262000000    5,161012523e-04    3,320971131e-01    1,270915121e-01   -7,169612497e-02    0,000000000e+00    0,000000000e+00    0,000000000e+00    0,000000000e+00
     1276000000    1,473633647e-01    1,960596442e-01    5,129703879e-02   -9,658490866e-02    0,000000000e+00    0,000000000e+00    0,000000000e+00    0,000000000e+00
     1290000000    2,194738388e-01    3,475232422e-02    2,805793192e-03   -7,207525522e-02    0,000000000e+00    0,000000000e+00    0,000000000e+00    0,000000000e+00
     1304000000    2,060276419e-01   -1,480303407e-01   -2,022802271e-02   -3,105500713e-02    0,000000000e+00    0,000000000e+00    0,000000000e+00    0,000000000e+00
     1318000000    1,133803576e-01   -3,137464523e-01   -9,945687838e-03    1,536012813e-02    0,000000000e+00    0,000000000e+00    0,000000000e+00    0,000000000e+00
     1332000000   -6,210725009e-02   -4,355862737e-01    5,137732998e-02    6,060415506e-02    0,000000000e+00    0,000000000e+00    0,000000000e+00    0,000000000e+00
     1346000000   -3,295185566e-01   -4,296319187e-01    1,517367810e-01    4,870240018e-02    0,000000000e+00    0,000000000e+00    0,000000000e+00    0,000000000e+00
     1360000000   -5,553866029e-01   -2,378552109e-01    1,279017776e-01   -7,196994126e-02    0,000000000e+00    0,000000000e+00    0,000000000e+00    0,000000000e+00
     1374000000   -6,191821694e-01    2,258978225e-02    1,169445887e-01    5,700908229e-02    0,000000000e+00    0,000000000e+00    0,000000000e+00    0,000000000e+00
     1388000000   -5,203412771e-01    2,933669388e-01    2,142514139e-01    1,006272039e-03    0,000000000e+00    0,000000000e+00    0,000000000e+00    0,000000000e+00
     1402000000   -3,045741618e-01    4,239581227e-01    2,172686458e-01   -8,618801087e-02    0,000000000e+00    0,000000000e+00    0,000000000e+00    0,000000000e+00
     1416000000   -9,578420967e-02    4,168445468e-01    1,929993629e-01   -1,236336604e-01    0,000000000e+00    0,000000000e+00    0,000000000e+00    0,000000000e+00
     1430000000    6,842755526e-02    3,485565186e-01    1,543911844e-01   -1,136737838e-01    0,000000000e+00    0,000000000e+00    0,000000000e+00    0,000000000e+00
     1444000000    1,780326515e-01    2,020022273e-01    1,649276018e-01   -1,004774123e-01    0,000000000e+00    0,000000000e+00    0,000000000e+00    0,000000000e+00
     1458000000    2,238918096e-01    3,853370249e-02    1,565911025e-01   -8,405973017e-02    0,000000000e+00    0,000000000e+00    0,000000000e+00    0,000000000e+00
     1472000000    2,022165507e-01   -1,439161003e-01    1,601450145e-01   -6,053069234e-02    0,000000000e+00    0,000000000e+00    0,000000000e+00    0,000000000e+00
     1486000000    1,075292677e-01   -3,197280765e-01    1,738423705e-01    8,817369118e-03    0,000000000e+00    0,000000000e+00    0,000000000e+00    0,000000000e+00
     1500000000   -8,718831837e-02   -4,558878541e-01    2,203191668e-01    4,658442363e-02    0,000000000e+00    0,000000000e+00    0,000000000e+00    0,000000000e+00
