! NanoVNA-App
! Date: 2025-09-25 14:22:42
! Start: 100MHz Stop: 1,5GHz Points: 101
! S-Parameter data: F S11 S21 S12 S22
# Hz S RI R 50
!     Frequency           S11_Real           S11_Imag           S21_Real           S21_Imag           S12_Real           S12_Imag           S22_Real           S22_Imag
      100000000   -2,909465693e-02   -4,131542984e-03    3,744618595e-01   -7,220772505e-01    0,000000000e+00    0,000000000e+00    0,000000000e+00    0,000000000e+00
      114000000   -1,664055884e-02    1,162212715e-02   -8,905493468e-02   -8,058295250e-01    0,000000000e+00    0,000000000e+00    0,000000000e+00    0,000000000e+00
      128000000    3,348275786e-03    1,056265738e-02   -5,145701170e-01   -6,209092140e-01    0,000000000e+00    0,000000000e+00    0,000000000e+00    0,000000000e+00
      142000000    1,444736682e-02   -3,034984460e-03   -7,677297592e-01   -2,369657904e-01    0,000000000e+00    0,000000000e+00    0,000000000e+00    0,000000000e+00
      156000000    1,439518481e-02   -1,493676845e-02   -7,643220425e-01    2,187902927e-01    0,000000000e+00    0,000000000e+00    0,000000000e+00    0,000000000e+00
      170000000    1,658175886e-02   -2,243859693e-02   -5,186181068e-01    6,051478386e-01    0,000000000e+00    0,000000000e+00    0,000000000e+00    0,000000000e+00
      184000000    2,100954577e-02   -3,704435006e-02   -1,017770842e-01    7,865772843e-01    0,000000000e+00    0,000000000e+00    0,000000000e+00    0,000000000e+00
      198000000    1,303235441e-02   -6,258125603e-02    3,430010378e-01    7,130981684e-01    0,000000000e+00    0,000000000e+00    0,000000000e+00    0,000000000e+00
      212000000   -1,868095808e-02   -8,164180815e-02    6,784343123e-01    4,105848968e-01    0,000000000e+00    0,000000000e+00    0,000000000e+00    0,000000000e+00
      226000000   -6,197301298e-02   -6,966227293e-02    7,960595489e-01   -2,978185751e-02    0,000000000e+00    0,000000000e+00    0,000000000e+00    0,000000000e+00
      240000000   -8,314658701e-02   -2,610629611e-02    6,472379565e-01   -4,666478634e-01    0,000000000e+00    0,000000000e+00    0,000000000e+00    0,000000000e+00
      254000000   -6,432833523e-02    1,727415808e-02    2,771802843e-01   -7,438241839e-01    0,000000000e+00    0,000000000e+00    0,000000000e+00    0,000000000e+00
      268000000   -2,433196455e-02    2,954737283e-02   -1,774127483e-01   -7,646988034e-01    0,000000000e+00    0,000000000e+00    0,000000000e+00    0,000000000e+00
      282000000    4,193165805e-03    1,222672872e-02   -5,624927282e-01   -5,370115042e-01    0,000000000e+00    0,000000000e+00    0,000000000e+00    0,000000000e+00
      296000000    9,686678648e-03   -7,715745829e-03   -7,606906295e-01   -1,396221519e-01    0,000000000e+00    0,000000000e+00    0,000000000e+00    0,000000000e+00
      310000000    1,093280315e-02   -1,609217562e-02   -7,127895951e-01    2,967072725e-01    0,000000000e+00    0,000000000e+00    0,000000000e+00    0,000000000e+00
      324000000    1,942057163e-02   -2,664931491e-02   -4,287147224e-01    6,374446154e-01    0,000000000e+00    0,000000000e+00    0,000000000e+00    0,000000000e+00
      338000000    2,531986125e-02   -5,201560631e-02   -1,195153408e-02    7,608115077e-01    0,000000000e+00    0,000000000e+00    0,000000000e+00    0,000000000e+00
      352000000    7,434235886e-03   -8,494544029e-02    4,060607553e-01    6,403499246e-01    0,000000000e+00    0,000000000e+00    0,000000000e+00    0,000000000e+00
      366000000   -3,480443358e-02   -9,634178877e-02    6,907126307e-01    3,122803271e-01    0,000000000e+00    0,000000000e+00    0,000000000e+00    0,000000000e+00
      380000000   -7,137536258e-02   -7,111558318e-02    7,488136292e-01   -1,246651933e-01    0,000000000e+00    0,000000000e+00    0,000000000e+00    0,000000000e+00
      394000000   -7,305224985e-02   -3,239997476e-02    5,487293005e-01   -5,209512115e-01    0,000000000e+00    0,000000000e+00    0,000000000e+00    0,000000000e+00
      408000000   -4,682870209e-02   -1,570805721e-02    1,620102078e-01   -7,344034910e-01    0,000000000e+00    0,000000000e+00    0,000000000e+00    0,000000000e+00
      422000000   -2,816124819e-02   -3,145737574e-02   -2,659436762e-01   -6,971391439e-01    0,000000000e+00    0,000000000e+00    0,000000000e+00    0,000000000e+00
      436000000   -4,041436687e-02   -5,206016079e-02   -6,030216813e-01   -4,336692989e-01    0,000000000e+00    0,000000000e+00    0,000000000e+00    0,000000000e+00
      450000000   -6,752941757e-02   -4,456553981e-02   -7,403358221e-01   -2,499137074e-02    0,000000000e+00    0,000000000e+00    0,000000000e+00    0,000000000e+00
      464000000   -7,434207946e-02   -1,260905620e-02   -6,214205027e-01    3,945623934e-01    0,000000000e+00    0,000000000e+00    0,000000000e+00    0,000000000e+00
      478000000   -4,945663735e-02    1,186145283e-02   -2,864530981e-01    6,675615311e-01    0,000000000e+00    0,000000000e+00    0,000000000e+00    0,000000000e+00
      492000000   -1,683673635e-02    6,583204493e-03    1,349616647e-01    7,047315836e-01    0,000000000e+00    0,000000000e+00    0,000000000e+00    0,000000000e+00
      506000000   -3,559768666e-03   -1,487703249e-02    4,978625178e-01    5,062425137e-01    0,000000000e+00    0,000000000e+00    0,000000000e+00    0,000000000e+00
      520000000   -5,859186873e-03   -2,924995311e-02    6,895087957e-01    1,443184912e-01    0,000000000e+00    0,000000000e+00    0,000000000e+00    0,000000000e+00
      534000000   -3,272686154e-03   -3,567115217e-02    6,444060802e-01   -2,594406605e-01    0,000000000e+00    0,000000000e+00    0,000000000e+00    0,000000000e+00
      548000000    8,415441029e-03   -5,292549729e-02    3,850554526e-01   -5,646598935e-01    0,000000000e+00    0,000000000e+00    0,000000000e+00    0,000000000e+00
      562000000    5,468687974e-03   -8,969438821e-02    8,643518202e-03   -6,716521382e-01    0,000000000e+00    0,000000000e+00    0,000000000e+00    0,000000000e+00
      576000000   -3,107436560e-02   -1,264398396e-01   -3,628182411e-01   -5,611158609e-01    0,000000000e+00    0,000000000e+00    0,000000000e+00    0,000000000e+00
      590000000   -9,493952990e-02   -1,278586388e-01   -6,167739034e-01   -2,737995386e-01    0,000000000e+00    0,000000000e+00    0,000000000e+00    0,000000000e+00
      604000000   -1,430106610e-01   -7,791722566e-02   -6,672696471e-01    1,266132146e-01    0,000000000e+00    0,000000000e+00    0,000000000e+00    0,000000000e+00
      618000000   -1,378910840e-01   -1,145571843e-02   -4,755635858e-01    4,860363007e-01    0,000000000e+00    0,000000000e+00    0,000000000e+00    0,000000000e+00
      632000000   -9,283053875e-02    2,209734358e-02   -1,137935221e-01    6,628166437e-01    0,000000000e+00    0,000000000e+00    0,000000000e+00    0,000000000e+00
      646000000   -5,545087531e-02    1,243312843e-02    2,739596665e-01    6,044625640e-01    0,000000000e+00    0,000000000e+00    0,000000000e+00    0,000000000e+00
      660000000   -4,863922670e-02   -8,448882028e-03    5,583540201e-01    3,398828208e-01    0,000000000e+00    0,000000000e+00    0,000000000e+00    0,000000000e+00
      674000000   -5,551727116e-02   -1,009381097e-02    6,443904638e-01   -3,978564590e-02    0,000000000e+00    0,000000000e+00    0,000000000e+00    0,000000000e+00
      688000000   -5,031886324e-02    2,413749462e-03    4,935668707e-01   -4,015436471e-01    0,000000000e+00    0,000000000e+00    0,000000000e+00    0,000000000e+00
      702000000   -2,700336464e-02    7,587231696e-03    1,624960154e-01   -6,008398533e-01    0,000000000e+00    0,000000000e+00    0,000000000e+00    0,000000000e+00
      716000000   -2,618265571e-03   -9,156364016e-03   -2,192752808e-01   -5,758309364e-01    0,000000000e+00    0,000000000e+00    0,000000000e+00    0,000000000e+00
      730000000    9,245139547e-03   -3,405482695e-02   -5,088729858e-01   -3,325130939e-01    0,000000000e+00    0,000000000e+00    0,000000000e+00    0,000000000e+00
      744000000    1,629890688e-02   -6,069946662e-02   -6,004086137e-01    3,321465477e-02    0,000000000e+00    0,000000000e+00    0,000000000e+00    0,000000000e+00
      758000000    2,198759466e-02   -1,041197106e-01   -4,537911117e-01    3,768458664e-01    0,000000000e+00    0,000000000e+00    0,000000000e+00    0,000000000e+00
      772000000   -4,470116924e-03   -1,741694063e-01   -1,390692890e-01    5,575090051e-01    0,000000000e+00    0,000000000e+00    0,000000000e+00    0,000000000e+00
      786000000   -1,056004837e-01   -2,324197739e-01    2,113386542e-01    5,183957219e-01    0,000000000e+00    0,000000000e+00    0,000000000e+00    0,000000000e+00
      800000000   -2,658237219e-01   -1,922857612e-01    4,719547629e-01    2,747749090e-01    0,000000000e+00    0,000000000e+00    0,000000000e+00    0,000000000e+00
      814000000   -3,650685549e-01    3,315440146e-03    5,077276230e-01   -8,864219487e-02    0,000000000e+00    0,000000000e+00    0,000000000e+00    0,000000000e+00
      828000000   -2,484588772e-01    2,333355695e-01    2,813340127e-01   -3,525080681e-01    0,000000000e+00    0,000000000e+00    0,000000000e+00    0,000000000e+00
      842000000    1,307286974e-02    2,787620425e-01   -1,579254121e-02   -3,629832268e-01    0,000000000e+00    0,000000000e+00    0,000000000e+00    0,000000000e+00
      856000000    2,125792801e-01    1,151432917e-01   -1,883975863e-01   -2,045198381e-01    0,000000000e+00    0,000000000e+00    0,000000000e+00    0,000000000e+00
      870000000    2,389202714e-01   -1,484205872e-01   -2,005152255e-01   -2,601679973e-02    0,000000000e+00    0,000000000e+00    0,000000000e+00    0,000000000e+00
      884000000    3,781539202e-02   -3,860244453e-01   -1,039275751e-01    7,126664370e-02    0,000000000e+00    0,000000000e+00    0,000000000e+00    0,000000000e+00
      898000000   -3,702433407e-01   -3,418170214e-01   -1,760176383e-02    2,777948789e-02    0,000000000e+00    0,000000000e+00    0,000000000e+00    0,000000000e+00
      912000000   -4,677439034e-01    1,385405213e-01   -1,201163381e-01    3,708965704e-02    0,000000000e+00    0,000000000e+00    0,000000000e+00    0,000000000e+00
      926000000   -9,744212031e-02    3,519119024e-01   -1,306072921e-01    1,333469898e-01    0,000000000e+00    0,000000000e+00    0,000000000e+00    0,000000000e+00
      940000000    1,839176714e-01    1,944361329e-01   -3,729680181e-02    2,166063935e-01    0,000000000e+00    0,000000000e+00    0,000000000e+00    0,000000000e+00
      954000000    2,547180653e-01   -4,626537487e-02    8,035463840e-02    2,263506502e-01    0,000000000e+00    0,000000000e+00    0,000000000e+00    0,000000000e+00
      968000000    1,768279970e-01   -2,631155252e-01    1,917453259e-01    1,802264899e-01    0,000000000e+00    0,000000000e+00    0,000000000e+00    0,000000000e+00
      982000000   -1,920093037e-02   -3,935421109e-01    2,782385051e-01    7,875821739e-02    0,000000000e+00    0,000000000e+00    0,000000000e+00    0,000000000e+00
      996000000   -2,751846910e-01   -3,797212839e-01    3,077214062e-01   -7,931445539e-02    0,000000000e+00    0,000000000e+00    0,000000000e+00    0,000000000e+00
     1010000000   -4,679149389e-01   -1,762834042e-01    2,210400552e-01   -2,536996305e-01    0,000000000e+00    0,000000000e+00    0,000000000e+00    0,000000000e+00
     1024000000   -4,564221799e-01    1,144935861e-01    2,134732343e-02   -3,276245594e-01    0,000000000e+00    0,000000000e+00    0,000000000e+00    0,000000000e+00
     1038000000   -2,662678659e-01    2,983011007e-01   -1,725860387e-01   -2,462721169e-01    0,000000000e+00    0,000000000e+00    0,000000000e+00    0,000000000e+00
     1052000000   -3,874543309e-02    3,062771857e-01   -2,569061816e-01   -7,707875222e-02    0,000000000e+00    0,000000000e+00    0,000000000e+00    0,000000000e+00
     1066000000    1,278278977e-01    2,027223408e-01   -2,260617465e-01    8,684919029e-02    0,000000000e+00    0,000000000e+00    0,000000000e+00    0,000000000e+00
     1080000000    2,101200223e-01    4,679684341e-02   -1,214861348e-01    1,935336739e-01    0,000000000e+00    0,000000000e+00    0,000000000e+00    0,000000000e+00
     1094000000    2,022760212e-01   -1,259536445e-01    1,650469564e-02    2,338593155e-01    0,000000000e+00    0,000000000e+00    0,000000000e+00    0,000000000e+00
     1108000000    1,006667465e-01   -2,819128335e-01    1,699253470e-01    2,063616812e-01    0,000000000e+00    0,000000000e+00    0,000000000e+00    0,000000000e+00
     1122000000   -1,022025123e-01   -3,673728108e-01    3,151025772e-01    8,852051198e-02    0,000000000e+00    0,000000000e+00    0,000000000e+00    0,000000000e+00
     1136000000   -3,500997424e-01   -2,715009749e-01    3,931138813e-01   -1,498235762e-01    0,000000000e+00    0,000000000e+00    0,000000000e+00    0,000000000e+00
     1150000000   -4,101497233e-01    3,043386899e-02    2,415405661e-01   -4,350433350e-01    0,000000000e+00    0,000000000e+00    0,000000000e+00    0,000000000e+00
     1164000000   -1,606787890e-01    2,151179016e-01   -9,292511642e-02   -5,127611160e-01    0,000000000e+00    0,000000000e+00    0,000000000e+00    0,000000000e+00
     1178000000    7,805060595e-02    8,456852287e-02   -3,563244045e-01   -3,480537236e-01    0,000000000e+00    0,000000000e+00    0,000000000e+00    0,000000000e+00
     1192000000    7,767206430e-02   -1,711141765e-01   -4,527065456e-01   -8,260911703e-02    0,000000000e+00    0,000000000e+00    0,000000000e+00    0,000000000e+00
     1206000000   -1,638446003e-01   -3,233259022e-01   -3,706564605e-01    1,878661513e-01    0,000000000e+00    0,000000000e+00    0,000000000e+00    0,000000000e+00
     1220000000   -4,538065493e-01   -1,801222712e-01   -1,042179018e-01    3,272371888e-01    0,000000000e+00    0,000000000e+00    0,000000000e+00    0,000000000e+00
     1234000000   -4,734196067e-01    1,623076051e-01    1,371966898e-01    2,205653042e-01    0,000000000e+00    0,000000000e+00    0,000000000e+00    0,000000000e+00
     1248000000   -2,325593680e-01    3,504698575e-01    1,900814027e-01    3,293975443e-02    0,000000000e+00    0,000000000e+00    0,000000000e+00    0,000000000e+00
     1262000000    8,149296045e-03    3,293868005e-01    1,288832277e-01   -6,956159323e-02    0,000000000e+00    0,000000000e+00    0,000000000e+00    0,000000000e+00
     1276000000    1,552766263e-01    1,935276538e-01    5,568391457e-02   -9,621454775e-02    0,000000000e+00    0,000000000e+00    0,000000000e+00    0,000000000e+00
     1290000000    2,166058123e-01    3,337834775e-02    2,664089203e-03   -7,374438643e-02    0,000000000e+00    0,000000000e+00    0,000000000e+00    0,000000000e+00
     1304000000    2,070164382e-01   -1,456045657e-01   -1,706603169e-02   -3,163625672e-02    0,000000000e+00    0,000000000e+00    0,000000000e+00    0,000000000e+00
     1318000000    1,144936681e-01   -3,109346330e-01   -6,877568550e-03    2,547707222e-02    0,000000000e+00    0,000000000e+00    0,000000000e+00    0,000000000e+00
     1332000000   -6,423112005e-02   -4,360907376e-01    5,316163599e-02    6,382031739e-02    0,000000000e+00    0,000000000e+00    0,000000000e+00    0,000000000e+00
     1346000000   -3,243308961e-01   -4,351904690e-01    1,548126787e-01    4,893542454e-02    0,000000000e+00    0,000000000e+00    0,000000000e+00    0,000000000e+00
     1360000000   -5,576340556e-01   -2,376202792e-01    1,180631220e-01   -6,186733022e-02    0,000000000e+00    0,000000000e+00    0,000000000e+00    0,000000000e+00
     1374000000   -6,138450503e-01    3,310036659e-02    1,159023196e-01    5,765304342e-02    0,000000000e+00    0,000000000e+00    0,000000000e+00    0,000000000e+00
     1388000000   -5,109969378e-01    2,921904027e-01    2,286545038e-01    3,767671064e-03    0,000000000e+00    0,000000000e+00    0,000000000e+00    0,000000000e+00
     1402000000   -3,048895895e-01    4,172610044e-01    2,243091315e-01   -8,826480806e-02    0,000000000e+00    0,000000000e+00    0,000000000e+00    0,000000000e+00
     1416000000   -1,019702628e-01    4,186318219e-01    1,872911304e-01   -1,239396632e-01    0,000000000e+00    0,000000000e+00    0,000000000e+00    0,000000000e+00
     1430000000    7,191741467e-02    3,402321041e-01    1,547514051e-01   -1,087481380e-01    0,000000000e+00    0,000000000e+00    0,000000000e+00    0,000000000e+00
     1444000000    1,824424714e-01    1,998755485e-01    1,617564708e-01   -1,017436609e-01    0,000000000e+00    0,000000000e+00    0,000000000e+00    0,000000000e+00
     1458000000    2,277856916e-01    3,443138674e-02    1,542675793e-01   -7,733791322e-02    0,000000000e+00    0,000000000e+00    0,000000000e+00    0,000000000e+00
     1472000000    2,030304521e-01   -1,436025947e-01    1,462487131e-01   -5,414084345e-02    0,000000000e+00    0,000000000e+00    0,000000000e+00    0,000000000e+00
     1486000000    1,065988094e-01   -3,208419681e-01    1,739179343e-01    2,286165720e-03    0,000000000e+00    0,000000000e+00    0,000000000e+00    0,000000000e+00
     1500000000   -9,489088506e-02   -4,656969011e-01    2,200402021e-01    5,000438169e-02    0,000000000e+00    0,000000000e+00    0,000000000e+00    0,000000000e+00
