! NanoVNA-App
! Date: 2025-09-25 14:27:48
! Start: 100MHz Stop: 1,5GHz Points: 101
! S-Parameter data: F S11 S21 S12 S22
# Hz S RI R 50
!     Frequency           S11_Real           S11_Imag           S21_Real           S21_Imag           S12_Real           S12_Imag           S22_Real           S22_Imag
      100000000   -2,908604592e-02   -4,134780727e-03    3,746012747e-01   -7,220350504e-01    0,000000000e+00    0,000000000e+00    0,000000000e+00    0,000000000e+00
      114000000   -1,660423726e-02    1,159696560e-02   -8,885650337e-02   -8,058583140e-01    0,000000000e+00    0,000000000e+00    0,000000000e+00    0,000000000e+00
      128000000    3,363366937e-03    1,054396387e-02   -5,144585967e-01   -6,210426688e-01    0,000000000e+00    0,000000000e+00    0,000000000e+00    0,000000000e+00
      142000000    1,443498116e-02   -3,082227195e-03   -7,676153779e-01   -2,371359915e-01    0,000000000e+00    0,000000000e+00    0,000000000e+00    0,000000000e+00
      156000000    1,567386650e-02   -1,467390917e-02   -7,705462575e-01    2,238796949e-01    0,000000000e+00    0,000000000e+00    0,000000000e+00    0,000000000e+00
      170000000    1,650870219e-02   -2,241776697e-02   -5,187565684e-01    6,048888564e-01    0,000000000e+00    0,000000000e+00    0,000000000e+00    0,000000000e+00
      184000000    2,099649608e-02   -3,702461347e-02   -1,016577482e-01    7,866398096e-01    0,000000000e+00    0,000000000e+00    0,000000000e+00    0,000000000e+00
      198000000    1,311694272e-02   -6,255197525e-02    3,430677056e-01    7,133858800e-01    0,000000000e+00    0,000000000e+00    0,000000000e+00    0,000000000e+00
      212000000   -1,868877001e-02   -8,171357960e-02    6,785520315e-01    4,106798172e-01    0,000000000e+00    0,000000000e+00    0,000000000e+00    0,000000000e+00
      226000000   -6,204595789e-02   -6,974103302e-02    7,960021496e-01   -2,966315113e-02    0,000000000e+00    0,000000000e+00    0,000000000e+00    0,000000000e+00
      240000000   -8,330494165e-02   -2,603697963e-02    6,474335790e-01   -4,667352438e-01    0,000000000e+00    0,000000000e+00    0,000000000e+00    0,000000000e+00
      254000000   -6,433849037e-02    1,751314662e-02    2,771615088e-01   -7,433172464e-01    0,000000000e+00    0,000000000e+00    0,000000000e+00    0,000000000e+00
      268000000   -2,402097359e-02    2,942705154e-02   -1,765245944e-01   -7,649600506e-01    0,000000000e+00    0,000000000e+00    0,000000000e+00    0,000000000e+00
      282000000    4,161434714e-03    1,202864666e-02   -5,623807907e-01   -5,373519659e-01    0,000000000e+00    0,000000000e+00    0,000000000e+00    0,000000000e+00
      296000000    9,584084153e-03   -7,772932760e-03   -7,608934641e-01   -1,396823823e-01    0,000000000e+00    0,000000000e+00    0,000000000e+00    0,000000000e+00
      310000000    1,100452151e-02   -1,608428359e-02   -7,124831676e-01    2,983729243e-01    0,000000000e+00    0,000000000e+00    0,000000000e+00    0,000000000e+00
      324000000    1,950851828e-02   -2,626875788e-02   -4,289511740e-01    6,377942562e-01    0,000000000e+00    0,000000000e+00    0,000000000e+00    0,000000000e+00
      338000000    2,572537027e-02   -5,218183994e-02   -1,009550039e-02    7,618104219e-01    0,000000000e+00    0,000000000e+00    0,000000000e+00    0,000000000e+00
      352000000    7,475606631e-03   -8,471639454e-02    4,054548740e-01    6,400019526e-01    0,000000000e+00    0,000000000e+00    0,000000000e+00    0,000000000e+00
      366000000   -3,484504670e-02   -9,579049796e-02    6,904595494e-01    3,127802908e-01    0,000000000e+00    0,000000000e+00    0,000000000e+00    0,000000000e+00
      380000000   -7,164657116e-02   -7,121457905e-02    7,478781939e-01   -1,244914010e-01    0,000000000e+00    0,000000000e+00    0,000000000e+00    0,000000000e+00
      394000000   -7,316529751e-02   -3,240232542e-02    5,482181311e-01   -5,208366513e-01    0,000000000e+00    0,000000000e+00    0,000000000e+00    0,000000000e+00
      408000000   -4,712336883e-02   -1,556148659e-02    1,622294784e-01   -7,311483026e-01    0,000000000e+00    0,000000000e+00    0,000000000e+00    0,000000000e+00
      422000000   -2,843736671e-02   -3,146055341e-02   -2,661692798e-01   -6,957234144e-01    0,000000000e+00    0,000000000e+00    0,000000000e+00    0,000000000e+00
      436000000   -4,015059024e-02   -5,176637694e-02   -6,025108695e-01   -4,339092076e-01    0,000000000e+00    0,000000000e+00    0,000000000e+00    0,000000000e+00
      450000000   -6,733155251e-02   -4,507084563e-02   -7,401605248e-01   -2,558116429e-02    0,000000000e+00    0,000000000e+00    0,000000000e+00    0,000000000e+00
      464000000   -7,435102016e-02   -1,237863023e-02   -6,215602756e-01    3,948052824e-01    0,000000000e+00    0,000000000e+00    0,000000000e+00    0,000000000e+00
      478000000   -4,959181696e-02    1,168541890e-02   -2,869845033e-01    6,673664451e-01    0,000000000e+00    0,000000000e+00    0,000000000e+00    0,000000000e+00
      492000000   -1,717265695e-02    6,618839689e-03    1,344408840e-01    7,042945623e-01    0,000000000e+00    0,000000000e+00    0,000000000e+00    0,000000000e+00
      506000000   -3,800065024e-03   -1,474157255e-02    4,971969128e-01    5,059781671e-01    0,000000000e+00    0,000000000e+00    0,000000000e+00    0,000000000e+00
      520000000   -5,882639904e-03   -2,945441939e-02    6,895380616e-01    1,450207978e-01    0,000000000e+00    0,000000000e+00    0,000000000e+00    0,000000000e+00
      534000000   -2,993707079e-03   -3,573063016e-02    6,447644234e-01   -2,593216896e-01    0,000000000e+00    0,000000000e+00    0,000000000e+00    0,000000000e+00
      548000000    8,032100275e-03   -5,288346112e-02    3,850984275e-01   -5,645834804e-01    0,000000000e+00    0,000000000e+00    0,000000000e+00    0,000000000e+00
      562000000    5,514041055e-03   -8,935111761e-02    8,501066826e-03   -6,712255478e-01    0,000000000e+00    0,000000000e+00    0,000000000e+00    0,000000000e+00
      576000000   -3,104889393e-02   -1,261652112e-01   -3,614934683e-01   -5,608695745e-01    0,000000000e+00    0,000000000e+00    0,000000000e+00    0,000000000e+00
      590000000   -9,487891942e-02   -1,276099086e-01   -6,158903837e-01   -2,735792994e-01    0,000000000e+00    0,000000000e+00    0,000000000e+00    0,000000000e+00
      604000000   -1,435948908e-01   -7,799404860e-02   -6,674179435e-01    1,256338209e-01    0,000000000e+00    0,000000000e+00    0,000000000e+00    0,000000000e+00
      618000000   -1,381233335e-01   -1,081627794e-02   -4,749322832e-01    4,851525724e-01    0,000000000e+00    0,000000000e+00    0,000000000e+00    0,000000000e+00
      632000000   -9,281618148e-02    2,142965421e-02   -1,138412282e-01    6,629486680e-01    0,000000000e+00    0,000000000e+00    0,000000000e+00    0,000000000e+00
      646000000   -5,448994040e-02    1,186258253e-02    2,740305066e-01    6,039780378e-01    0,000000000e+00    0,000000000e+00    0,000000000e+00    0,000000000e+00
      660000000   -4,794976488e-02   -9,364707395e-03    5,581218600e-01    3,401171565e-01    0,000000000e+00    0,000000000e+00    0,000000000e+00    0,000000000e+00
      674000000   -5,635223165e-02   -1,047686767e-02    6,445254683e-01   -3,970617056e-02    0,000000000e+00    0,000000000e+00    0,000000000e+00    0,000000000e+00
      688000000   -4,995945469e-02    3,518157871e-03    4,933254421e-01   -4,016652405e-01    0,000000000e+00    0,000000000e+00    0,000000000e+00    0,000000000e+00
      702000000   -2,597023547e-02    6,667144131e-03    1,656752676e-01   -6,000472903e-01    0,000000000e+00    0,000000000e+00    0,000000000e+00    0,000000000e+00
      716000000   -2,821126953e-03   -8,815214969e-03   -2,186798900e-01   -5,748569965e-01    0,000000000e+00    0,000000000e+00    0,000000000e+00    0,000000000e+00
      730000000    1,000806596e-02   -3,379421681e-02   -5,091688037e-01   -3,331786394e-01    0,000000000e+00    0,000000000e+00    0,000000000e+00    0,000000000e+00
      744000000    1,685568132e-02   -6,157595292e-02   -6,009544730e-01    3,336216137e-02    0,000000000e+00    0,000000000e+00    0,000000000e+00    0,000000000e+00
      758000000    2,170382813e-02   -1,029864848e-01   -4,537039399e-01    3,768775463e-01    0,000000000e+00    0,000000000e+00    0,000000000e+00    0,000000000e+00
      772000000   -4,970587790e-03   -1,739950031e-01   -1,392282844e-01    5,584139824e-01    0,000000000e+00    0,000000000e+00    0,000000000e+00    0,000000000e+00
      786000000   -1,054900438e-01   -2,320307642e-01    2,117884308e-01    5,197818279e-01    0,000000000e+00    0,000000000e+00    0,000000000e+00    0,000000000e+00
      800000000   -2,663139403e-01   -1,923480928e-01    4,716263413e-01    2,756524086e-01    0,000000000e+00    0,000000000e+00    0,000000000e+00    0,000000000e+00
      814000000   -3,636289537e-01    3,339204937e-03    5,079962611e-01   -8,843499422e-02    0,000000000e+00    0,000000000e+00    0,000000000e+00    0,000000000e+00
      828000000   -2,482625544e-01    2,330377549e-01    2,818927467e-01   -3,533262312e-01    0,000000000e+00    0,000000000e+00    0,000000000e+00    0,000000000e+00
      842000000    1,272473112e-02    2,782571614e-01   -1,572879218e-02   -3,628468215e-01    0,000000000e+00    0,000000000e+00    0,000000000e+00    0,000000000e+00
      856000000    2,125054300e-01    1,155195683e-01   -1,876577735e-01   -2,044275105e-01    0,000000000e+00    0,000000000e+00    0,000000000e+00    0,000000000e+00
      870000000    2,386988997e-01   -1,487954855e-01   -2,006114870e-01   -2,598149143e-02    0,000000000e+00    0,000000000e+00    0,000000000e+00    0,000000000e+00
      884000000    3,840805590e-02   -3,858144879e-01   -1,040360853e-01    7,117734104e-02    0,000000000e+00    0,000000000e+00    0,000000000e+00    0,000000000e+00
      898000000   -3,697058856e-01   -3,417747319e-01   -1,704284549e-02    2,765840851e-02    0,000000000e+00    0,000000000e+00    0,000000000e+00    0,000000000e+00
      912000000   -4,683561027e-01    1,383952200e-01   -1,183819398e-01    4,241466895e-02    0,000000000e+00    0,000000000e+00    0,000000000e+00    0,000000000e+00
      926000000   -9,637330472e-02    3,534032404e-01   -1,303468794e-01    1,349729002e-01    0,000000000e+00    0,000000000e+00    0,000000000e+00    0,000000000e+00
      940000000    1,832589209e-01    1,946208030e-01   -3,883196041e-02    2,153545767e-01    0,000000000e+00    0,000000000e+00    0,000000000e+00    0,000000000e+00
      954000000    2,525344491e-01   -4,912230000e-02    7,894218713e-02    2,278387398e-01    0,000000000e+00    0,000000000e+00    0,000000000e+00    0,000000000e+00
      968000000    1,752507836e-01   -2,603046000e-01    1,923315823e-01    1,802748442e-01    0,000000000e+00    0,000000000e+00    0,000000000e+00    0,000000000e+00
      982000000   -1,378452126e-02   -3,931901455e-01    2,793744802e-01    7,843849808e-02    0,000000000e+00    0,000000000e+00    0,000000000e+00    0,000000000e+00
      996000000   -2,742735744e-01   -3,743332028e-01    3,084739447e-01   -7,951317728e-02    0,000000000e+00    0,000000000e+00    0,000000000e+00    0,000000000e+00
     1010000000   -4,724111557e-01   -1,702870280e-01    2,221344709e-01   -2,540834844e-01    0,000000000e+00    0,000000000e+00    0,000000000e+00    0,000000000e+00
     1024000000   -4,563010931e-01    1,168932691e-01    2,270564437e-02   -3,292324543e-01    0,000000000e+00    0,000000000e+00    0,000000000e+00    0,000000000e+00
     1038000000   -2,634398043e-01    3,022856712e-01   -1,732250750e-01   -2,478293628e-01    0,000000000e+00    0,000000000e+00    0,000000000e+00    0,000000000e+00
     1052000000   -3,541400284e-02    3,070170879e-01   -2,570980787e-01   -7,736188173e-02    0,000000000e+00    0,000000000e+00    0,000000000e+00    0,000000000e+00
     1066000000    1,292855591e-01    2,067698538e-01   -2,284476161e-01    8,580530435e-02    0,000000000e+00    0,000000000e+00    0,000000000e+00    0,000000000e+00
     1080000000    2,058388740e-01    4,511430860e-02   -1,192510128e-01    1,927209496e-01    0,000000000e+00    0,000000000e+00    0,000000000e+00    0,000000000e+00
     1094000000    2,008544654e-01   -1,256834716e-01    1,757585816e-02    2,330942452e-01    0,000000000e+00    0,000000000e+00    0,000000000e+00    0,000000000e+00
     1108000000    1,039645672e-01   -2,870255411e-01    1,681861281e-01    2,045863569e-01    0,000000000e+00    0,000000000e+00    0,000000000e+00    0,000000000e+00
     1122000000   -1,022304520e-01   -3,697844744e-01    3,181461692e-01    8,892142028e-02    0,000000000e+00    0,000000000e+00    0,000000000e+00    0,000000000e+00
     1136000000   -3,469294012e-01   -2,724629641e-01    3,918583393e-01   -1,467639208e-01    0,000000000e+00    0,000000000e+00    0,000000000e+00    0,000000000e+00
     1150000000   -4,066458941e-01    3,171399608e-02    2,415189147e-01   -4,376588166e-01    0,000000000e+00    0,000000000e+00    0,000000000e+00    0,000000000e+00
     1164000000   -1,638268232e-01    2,174340039e-01   -9,657213092e-02   -5,141510367e-01    0,000000000e+00    0,000000000e+00    0,000000000e+00    0,000000000e+00
     1178000000    7,798607647e-02    8,681451529e-02   -3,543878794e-01   -3,464643955e-01    0,000000000e+00    0,000000000e+00    0,000000000e+00    0,000000000e+00
     1192000000    7,586334646e-02   -1,769363731e-01   -4,553795755e-01   -8,505362272e-02    0,000000000e+00    0,000000000e+00    0,000000000e+00    0,000000000e+00
     1206000000   -1,606084704e-01   -3,272112310e-01   -3,671357036e-01    1,880163848e-01    0,000000000e+00    0,000000000e+00    0,000000000e+00    0,000000000e+00
     1220000000   -4,561887681e-01   -1,792122424e-01   -1,089877337e-01    3,286663890e-01    0,000000000e+00    0,000000000e+00    0,000000000e+00    0,000000000e+00
     1234000000   -4,742592573e-01    1,659305394e-01    1,379248947e-01    2,222177535e-01    0,000000000e+00    0,000000000e+00    0,000000000e+00    0,000000000e+00
     1248000000   -2,336213887e-01    3,602499068e-01    1,865530312e-01    4,043366760e-02    0,000000000e+00    0,000000000e+00    0,000000000e+00    0,000000000e+00
     1262000000    7,472314406e-03    3,276832700e-01    1,310937852e-01   -7,673099637e-02    0,000000000e+00    0,000000000e+00    0,000000000e+00    0,000000000e+00
     1276000000    1,487448215e-01    1,990123987e-01    5,283230171e-02   -9,403259307e-02    0,000000000e+00    0,000000000e+00    0,000000000e+00    0,000000000e+00
     1290000000    2,180683464e-01    3,427233920e-02    3,586905077e-03   -7,218423486e-02    0,000000000e+00    0,000000000e+00    0,000000000e+00    0,000000000e+00
     1304000000    2,030328214e-01   -1,429208815e-01   -2,125176229e-02   -3,135280311e-02    0,000000000e+00    0,000000000e+00    0,000000000e+00    0,000000000e+00
     1318000000    1,163834184e-01   -3,133617640e-01   -1,606163010e-02    2,173969708e-02    0,000000000e+00    0,000000000e+00    0,000000000e+00    0,000000000e+00
     1332000000   -6,706838310e-02   -4,292331040e-01    5,016643927e-02    6,540650129e-02    0,000000000e+00    0,000000000e+00    0,000000000e+00    0,000000000e+00
     1346000000   -3,243132532e-01   -4,315868914e-01    1,524833143e-01    3,968714923e-02    0,000000000e+00    0,000000000e+00    0,000000000e+00    0,000000000e+00
     1360000000   -5,652337670e-01   -2,426220924e-01    1,039745212e-01   -7,882334292e-02    0,000000000e+00    0,000000000e+00    0,000000000e+00    0,000000000e+00
     1374000000   -6,199520826e-01    2,545686625e-02    1,052949056e-01    6,318280846e-02    0,000000000e+00    0,000000000e+00    0,000000000e+00    0,000000000e+00
     1388000000   -5,137532353e-01    2,974470258e-01    2,165381908e-01    3,297517309e-03    0,000000000e+00    0,000000000e+00    0,000000000e+00    0,000000000e+00
     1402000000   -2,997415662e-01    4,233173430e-01    2,321055382e-01   -8,329151571e-02    0,000000000e+00    0,000000000e+00    0,000000000e+00    0,000000000e+00
     1416000000   -9,484454989e-02    4,235136807e-01    1,923075169e-01   -1,091759279e-01    0,000000000e+00    0,000000000e+00    0,000000000e+00    0,000000000e+00
     1430000000    7,591458410e-02    3,392445147e-01    1,758333296e-01   -1,302224547e-01    0,000000000e+00    0,000000000e+00    0,000000000e+00    0,000000000e+00
     1444000000    1,789867133e-01    2,008868307e-01    1,540030092e-01   -1,124423295e-01    0,000000000e+00    0,000000000e+00    0,000000000e+00    0,000000000e+00
     1458000000    2,296292931e-01    3,387791663e-02    1,562345177e-01   -8,553038538e-02    0,000000000e+00    0,000000000e+00    0,000000000e+00    0,000000000e+00
     1472000000    2,028905600e-01   -1,508347690e-01    1,445302963e-01   -5,283307657e-02    0,000000000e+00    0,000000000e+00    0,000000000e+00    0,000000000e+00
     1486000000    1,070377380e-01   -3,309378624e-01    1,654310524e-01   -1,818906702e-02    0,000000000e+00    0,000000000e+00    0,000000000e+00    0,000000000e+00
     1500000000   -9,598159045e-02   -4,543882310e-01    2,006459236e-01    5,386166275e-02    0,000000000e+00    0,000000000e+00    0,000000000e+00    0,000000000e+00
