! NanoVNA-App
! Date: 2025-09-25 14:24:59
! Start: 100MHz Stop: 1,5GHz Points: 101
! S-Parameter data: F S11 S21 S12 S22
# Hz S RI R 50
!     Frequency           S11_Real           S11_Imag           S21_Real           S21_Imag           S12_Real           S12_Imag           S22_Real           S22_Imag
      100000000   -2,908967994e-02   -4,124134779e-03    3,744824529e-01   -7,220800519e-01    0,000000000e+00    0,000000000e+00    0,000000000e+00    0,000000000e+00
      114000000   -1,662737317e-02    1,163140219e-02   -8,879496902e-02   -8,058416247e-01    0,000000000e+00    0,000000000e+00    0,000000000e+00    0,000000000e+00
      128000000    3,420521505e-03    1,046813745e-02   -5,147212744e-01   -6,210962534e-01    0,000000000e+00    0,000000000e+00    0,000000000e+00    0,000000000e+00
      142000000    1,445689052e-02   -3,079726594e-03   -7,675019503e-01   -2,370163947e-01    0,000000000e+00    0,000000000e+00    0,000000000e+00    0,000000000e+00
      156000000    1,440706942e-02   -1,505694073e-02   -7,647447586e-01    2,200318128e-01    0,000000000e+00    0,000000000e+00    0,000000000e+00    0,000000000e+00
      170000000    1,653098874e-02   -2,251493745e-02   -5,187624693e-01    6,051708460e-01    0,000000000e+00    0,000000000e+00    0,000000000e+00    0,000000000e+00
      184000000    2,098457515e-02   -3,706174716e-02   -1,017999724e-01    7,869133949e-01    0,000000000e+00    0,000000000e+00    0,000000000e+00    0,000000000e+00
      198000000    1,311428659e-02   -6,256774068e-02    3,429810107e-01    7,132299542e-01    0,000000000e+00    0,000000000e+00    0,000000000e+00    0,000000000e+00
      212000000   -1,877062768e-02   -8,170708269e-02    6,782566905e-01    4,103726745e-01    0,000000000e+00    0,000000000e+00    0,000000000e+00    0,000000000e+00
      226000000   -6,204690784e-02   -6,970003992e-02    7,960380912e-01   -2,977612428e-02    0,000000000e+00    0,000000000e+00    0,000000000e+00    0,000000000e+00
      240000000   -8,324393630e-02   -2,603688464e-02    6,467767358e-01   -4,666421711e-01    0,000000000e+00    0,000000000e+00    0,000000000e+00    0,000000000e+00
      254000000   -6,429626048e-02    1,740740985e-02    2,773908377e-01   -7,429387569e-01    0,000000000e+00    0,000000000e+00    0,000000000e+00    0,000000000e+00
      268000000   -2,405787818e-02    2,943897061e-02   -1,766670048e-01   -7,650629282e-01    0,000000000e+00    0,000000000e+00    0,000000000e+00    0,000000000e+00
      282000000    4,079227801e-03    1,213127095e-02   -5,624631643e-01   -5,372954607e-01    0,000000000e+00    0,000000000e+00    0,000000000e+00    0,000000000e+00
      296000000    9,536413476e-03   -7,638371550e-03   -7,608757615e-01   -1,395380795e-01    0,000000000e+00    0,000000000e+00    0,000000000e+00    0,000000000e+00
      310000000    1,083717961e-02   -1,620426215e-02   -7,141537666e-01    2,977934480e-01    0,000000000e+00    0,000000000e+00    0,000000000e+00    0,000000000e+00
      324000000    1,952546835e-02   -2,640696801e-02   -4,281012416e-01    6,376305223e-01    0,000000000e+00    0,000000000e+00    0,000000000e+00    0,000000000e+00
      338000000    2,541499026e-02   -5,215954036e-02   -1,200527977e-02    7,634866238e-01    0,000000000e+00    0,000000000e+00    0,000000000e+00    0,000000000e+00
      352000000    7,553069852e-03   -8,494529128e-02    4,053442180e-01    6,408872008e-01    0,000000000e+00    0,000000000e+00    0,000000000e+00    0,000000000e+00
      366000000   -3,470355645e-02   -9,625611454e-02    6,912796497e-01    3,118504286e-01    0,000000000e+00    0,000000000e+00    0,000000000e+00    0,000000000e+00
      380000000   -7,140026242e-02   -7,116174698e-02    7,482857108e-01   -1,247697473e-01    0,000000000e+00    0,000000000e+00    0,000000000e+00    0,000000000e+00
      394000000   -7,317206264e-02   -3,234417364e-02    5,487319231e-01   -5,206808448e-01    0,000000000e+00    0,000000000e+00    0,000000000e+00    0,000000000e+00
      408000000   -4,671594873e-02   -1,551217493e-02    1,637127399e-01   -7,323662043e-01    0,000000000e+00    0,000000000e+00    0,000000000e+00    0,000000000e+00
      422000000   -2,837739885e-02   -3,161570802e-02   -2,662557960e-01   -6,963697672e-01    0,000000000e+00    0,000000000e+00    0,000000000e+00    0,000000000e+00
      436000000   -4,009126127e-02   -5,186732113e-02   -6,026375294e-01   -4,340681434e-01    0,000000000e+00    0,000000000e+00    0,000000000e+00    0,000000000e+00
      450000000   -6,736674905e-02   -4,452509433e-02   -7,399120927e-01   -2,454473823e-02    0,000000000e+00    0,000000000e+00    0,000000000e+00    0,000000000e+00
      464000000   -7,419443876e-02   -1,205089223e-02   -6,209843755e-01    3,947129250e-01    0,000000000e+00    0,000000000e+00    0,000000000e+00    0,000000000e+00
      478000000   -4,911173880e-02    1,187639032e-02   -2,865897119e-01    6,675243974e-01    0,000000000e+00    0,000000000e+00    0,000000000e+00    0,000000000e+00
      492000000   -1,670918986e-02    6,305059418e-03    1,341763437e-01    7,038625479e-01    0,000000000e+00    0,000000000e+00    0,000000000e+00    0,000000000e+00
      506000000   -3,880799515e-03   -1,504591759e-02    4,973972440e-01    5,060243607e-01    0,000000000e+00    0,000000000e+00    0,000000000e+00    0,000000000e+00
      520000000   -6,009313744e-03   -2,972330153e-02    6,889948249e-01    1,433629543e-01    0,000000000e+00    0,000000000e+00    0,000000000e+00    0,000000000e+00
      534000000   -3,621403826e-03   -3,596337885e-02    6,445335746e-01   -2,604332268e-01    0,000000000e+00    0,000000000e+00    0,000000000e+00    0,000000000e+00
      548000000    7,813350298e-03   -5,261887982e-02    3,846667409e-01   -5,639351010e-01    0,000000000e+00    0,000000000e+00    0,000000000e+00    0,000000000e+00
      562000000    5,806183908e-03   -8,929246664e-02    7,783824578e-03   -6,713672876e-01    0,000000000e+00    0,000000000e+00    0,000000000e+00    0,000000000e+00
      576000000   -3,138962388e-02   -1,257580370e-01   -3,619535565e-01   -5,603012443e-01    0,000000000e+00    0,000000000e+00    0,000000000e+00    0,000000000e+00
      590000000   -9,470028430e-02   -1,276995838e-01   -6,161437035e-01   -2,735272646e-01    0,000000000e+00    0,000000000e+00    0,000000000e+00    0,000000000e+00
      604000000   -1,433835626e-01   -7,804987580e-02   -6,676496267e-01    1,262294948e-01    0,000000000e+00    0,000000000e+00    0,000000000e+00    0,000000000e+00
      618000000   -1,383357495e-01   -1,143367589e-02   -4,757683277e-01    4,862768054e-01    0,000000000e+00    0,000000000e+00    0,000000000e+00    0,000000000e+00
      632000000   -9,327157587e-02    2,125185914e-02   -1,138100475e-01    6,634541750e-01    0,000000000e+00    0,000000000e+00    0,000000000e+00    0,000000000e+00
      646000000   -5,473936349e-02    1,147077046e-02    2,742119730e-01    6,031983495e-01    0,000000000e+00    0,000000000e+00    0,000000000e+00    0,000000000e+00
      660000000   -4,876139015e-02   -8,590667509e-03    5,570690036e-01    3,400986195e-01    0,000000000e+00    0,000000000e+00    0,000000000e+00    0,000000000e+00
      674000000   -5,529657006e-02   -1,041729748e-02    6,441535354e-01   -3,988160565e-02    0,000000000e+00    0,000000000e+00    0,000000000e+00    0,000000000e+00
      688000000   -5,042433739e-02    3,598152427e-03    4,934285879e-01   -4,020301104e-01    0,000000000e+00    0,000000000e+00    0,000000000e+00    0,000000000e+00
      702000000   -2,503271215e-02    7,324878126e-03    1,613300890e-01   -6,036373377e-01    0,000000000e+00    0,000000000e+00    0,000000000e+00    0,000000000e+00
      716000000   -2,493328182e-03   -9,506101720e-03   -2,186554819e-01   -5,749288201e-01    0,000000000e+00    0,000000000e+00    0,000000000e+00    0,000000000e+00
      730000000    9,276146069e-03   -3,511080891e-02   -5,091091394e-01   -3,333554864e-01    0,000000000e+00    0,000000000e+00    0,000000000e+00    0,000000000e+00
      744000000    1,657662913e-02   -6,023493782e-02   -6,007268429e-01    3,302845359e-02    0,000000000e+00    0,000000000e+00    0,000000000e+00    0,000000000e+00
      758000000    2,239079215e-02   -1,040089726e-01   -4,544537365e-01    3,770453334e-01    0,000000000e+00    0,000000000e+00    0,000000000e+00    0,000000000e+00
      772000000   -4,517450929e-03   -1,733750254e-01   -1,404161602e-01    5,573270917e-01    0,000000000e+00    0,000000000e+00    0,000000000e+00    0,000000000e+00
      786000000   -1,052464098e-01   -2,320585102e-01    2,114030123e-01    5,192519426e-01    0,000000000e+00    0,000000000e+00    0,000000000e+00    0,000000000e+00
      800000000   -2,656008601e-01   -1,932431906e-01    4,711340070e-01    2,762919366e-01    0,000000000e+00    0,000000000e+00    0,000000000e+00    0,000000000e+00
      814000000   -3,650967777e-01    3,360080998e-03    5,082336664e-01   -8,866217732e-02    0,000000000e+00    0,000000000e+00    0,000000000e+00    0,000000000e+00
      828000000   -2,473532110e-01    2,331044972e-01    2,812615037e-01   -3,520618379e-01    0,000000000e+00    0,000000000e+00    0,000000000e+00    0,000000000e+00
      842000000    1,299148891e-02    2,776929140e-01   -1,655237935e-02   -3,635975122e-01    0,000000000e+00    0,000000000e+00    0,000000000e+00    0,000000000e+00
      856000000    2,123404890e-01    1,156959608e-01   -1,879740357e-01   -2,048628181e-01    0,000000000e+00    0,000000000e+00    0,000000000e+00    0,000000000e+00
      870000000    2,390020639e-01   -1,489504278e-01   -1,999861300e-01   -2,619213425e-02    0,000000000e+00    0,000000000e+00    0,000000000e+00    0,000000000e+00
      884000000    3,690716624e-02   -3,857985735e-01   -1,046728343e-01    7,093953341e-02    0,000000000e+00    0,000000000e+00    0,000000000e+00    0,000000000e+00
      898000000   -3,690448999e-01   -3,409860432e-01   -1,760776527e-02    2,770849876e-02    0,000000000e+00    0,000000000e+00    0,000000000e+00    0,000000000e+00
      912000000   -4,676399529e-01    1,381738484e-01   -1,194118485e-01    2,271779068e-02    0,000000000e+00    0,000000000e+00    0,000000000e+00    0,000000000e+00
      926000000   -9,659878165e-02    3,521625102e-01   -1,300258785e-01    1,362898946e-01    0,000000000e+00    0,000000000e+00    0,000000000e+00    0,000000000e+00
      940000000    1,846683621e-01    1,942525804e-01   -3,912288323e-02    2,146523148e-01    0,000000000e+00    0,000000000e+00    0,000000000e+00    0,000000000e+00
      954000000    2,553820014e-01   -5,040457100e-02    7,916010171e-02    2,285268158e-01    0,000000000e+00    0,000000000e+00    0,000000000e+00    0,000000000e+00
      968000000    1,775294393e-01   -2,622795999e-01    1,917864233e-01    1,812907457e-01    0,000000000e+00    0,000000000e+00    0,000000000e+00    0,000000000e+00
      982000000   -1,825935952e-02   -3,968687952e-01    2,813476324e-01    8,008745313e-02    0,000000000e+00    0,000000000e+00    0,000000000e+00    0,000000000e+00
      996000000   -2,759079933e-01   -3,740811944e-01    3,082298040e-01   -8,155906200e-02    0,000000000e+00    0,000000000e+00    0,000000000e+00    0,000000000e+00
     1010000000   -4,661155641e-01   -1,712282747e-01    2,213972211e-01   -2,537865639e-01    0,000000000e+00    0,000000000e+00    0,000000000e+00    0,000000000e+00
     1024000000   -4,578337073e-01    1,202784628e-01    2,091382071e-02   -3,300489783e-01    0,000000000e+00    0,000000000e+00    0,000000000e+00    0,000000000e+00
     1038000000   -2,651026249e-01    3,019405901e-01   -1,721116453e-01   -2,491698414e-01    0,000000000e+00    0,000000000e+00    0,000000000e+00    0,000000000e+00
     1052000000   -4,023918882e-02    3,114605546e-01   -2,565458715e-01   -7,786216587e-02    0,000000000e+00    0,000000000e+00    0,000000000e+00    0,000000000e+00
     1066000000    1,293039918e-01    2,063391358e-01   -2,267747968e-01    8,353932947e-02    0,000000000e+00    0,000000000e+00    0,000000000e+00    0,000000000e+00
     1080000000    2,078723907e-01    4,351831228e-02   -1,211004630e-01    1,960242838e-01    0,000000000e+00    0,000000000e+00    0,000000000e+00    0,000000000e+00
     1094000000    2,035416812e-01   -1,294951737e-01    1,758912578e-02    2,361616790e-01    0,000000000e+00    0,000000000e+00    0,000000000e+00    0,000000000e+00
     1108000000    1,031524539e-01   -2,853786647e-01    1,679299176e-01    2,047792524e-01    0,000000000e+00    0,000000000e+00    0,000000000e+00    0,000000000e+00
     1122000000   -9,791765362e-02   -3,680009842e-01    3,168457150e-01    9,041047096e-02    0,000000000e+00    0,000000000e+00    0,000000000e+00    0,000000000e+00
     1136000000   -3,465920985e-01   -2,637863755e-01    3,900509179e-01   -1,482486427e-01    0,000000000e+00    0,000000000e+00    0,000000000e+00    0,000000000e+00
     1150000000   -4,030772746e-01    3,647960350e-02    2,428058684e-01   -4,367654920e-01    0,000000000e+00    0,000000000e+00    0,000000000e+00    0,000000000e+00
     1164000000   -1,550468057e-01    2,196973413e-01   -9,397016466e-02   -5,145102143e-01    0,000000000e+00    0,000000000e+00    0,000000000e+00    0,000000000e+00
     1178000000    7,568608969e-02    8,080577850e-02   -3,549711108e-01   -3,480288386e-01    0,000000000e+00    0,000000000e+00    0,000000000e+00    0,000000000e+00
     1192000000    7,351770252e-02   -1,721171588e-01   -4,569583833e-01   -8,247432858e-02    0,000000000e+00    0,000000000e+00    0,000000000e+00    0,000000000e+00
     1206000000   -1,666715443e-01   -3,259899914e-01   -3,694267571e-01    1,864941567e-01    0,000000000e+00    0,000000000e+00    0,000000000e+00    0,000000000e+00
     1220000000   -4,563440084e-01   -1,710335612e-01   -1,043262854e-01    3,347910345e-01    0,000000000e+00    0,000000000e+00    0,000000000e+00    0,000000000e+00
     1234000000   -4,749759138e-01    1,623358727e-01    1,407912672e-01    2,201999277e-01    0,000000000e+00    0,000000000e+00    0,000000000e+00    0,000000000e+00
     1248000000   -2,340221405e-01    3,519257307e-01    1,907727420e-01    3,713707626e-02    0,000000000e+00    0,000000000e+00    0,000000000e+00    0,000000000e+00
     1262000000    9,056954645e-03    3,295974135e-01    1,283365041e-01   -7,568489760e-02    0,000000000e+00    0,000000000e+00    0,000000000e+00    0,000000000e+00
     1276000000    1,582412571e-01    2,020026594e-01    5,491200089e-02   -9,433404356e-02    0,000000000e+00    0,000000000e+00    0,000000000e+00    0,000000000e+00
     1290000000    2,174221724e-01    3,297201917e-02   -2,488278085e-03   -7,527519763e-02    0,000000000e+00    0,000000000e+00    0,000000000e+00    0,000000000e+00
     1304000000    2,086092234e-01   -1,436800361e-01   -1,757938042e-02   -2,956820093e-02    0,000000000e+00    0,000000000e+00    0,000000000e+00    0,000000000e+00
     1318000000    1,149599031e-01   -3,107371926e-01   -7,218525279e-03    2,250891365e-02    0,000000000e+00    0,000000000e+00    0,000000000e+00    0,000000000e+00
     1332000000   -6,986379623e-02   -4,319610894e-01    4,695015773e-02    6,924407184e-02    0,000000000e+00    0,000000000e+00    0,000000000e+00    0,000000000e+00
     1346000000   -3,268505633e-01   -4,375604689e-01    1,414674670e-01    4,276806861e-02    0,000000000e+00    0,000000000e+00    0,000000000e+00    0,000000000e+00
     1360000000   -5,538538694e-01   -2,454365045e-01    1,051684394e-01   -7,727008313e-02    0,000000000e+00    0,000000000e+00    0,000000000e+00    0,000000000e+00
     1374000000   -6,270661354e-01    3,445128724e-02    1,018454209e-01    6,384631246e-02    0,000000000e+00    0,000000000e+00    0,000000000e+00    0,000000000e+00
     1388000000   -5,183772445e-01    2,922950983e-01    2,159706503e-01   -2,943925792e-03    0,000000000e+00    0,000000000e+00    0,000000000e+00    0,000000000e+00
     1402000000   -3,027758896e-01    4,233843684e-01    2,259403169e-01   -7,590881735e-02    0,000000000e+00    0,000000000e+00    0,000000000e+00    0,000000000e+00
     1416000000   -9,696556628e-02    4,175114334e-01    1,923070401e-01   -1,275591105e-01    0,000000000e+00    0,000000000e+00    0,000000000e+00    0,000000000e+00
     1430000000    8,069241047e-02    3,291621208e-01    1,412099898e-01   -1,247167811e-01    0,000000000e+00    0,000000000e+00    0,000000000e+00    0,000000000e+00
     1444000000    1,737880260e-01    2,003816664e-01    1,440420747e-01   -1,097449064e-01    0,000000000e+00    0,000000000e+00    0,000000000e+00    0,000000000e+00
     1458000000    2,240462005e-01    3,237001970e-02    1,498717368e-01   -9,253006428e-02    0,000000000e+00    0,000000000e+00    0,000000000e+00    0,000000000e+00
     1472000000    2,083047032e-01   -1,439195275e-01    1,492266804e-01   -4,825103655e-02    0,000000000e+00    0,000000000e+00    0,000000000e+00    0,000000000e+00
     1486000000    1,074861363e-01   -3,243326545e-01    1,581018865e-01   -1,388460957e-02    0,000000000e+00    0,000000000e+00    0,000000000e+00    0,000000000e+00
     1500000000   -8,901891857e-02   -4,550712705e-01    2,218159884e-01    5,267729610e-02    0,000000000e+00    0,000000000e+00    0,000000000e+00    0,000000000e+00
