! NanoVNA-App
! Date: 2025-09-25 14:28:25
! Start: 100MHz Stop: 1,5GHz Points: 101
! S-Parameter data: F S11 S21 S12 S22
# Hz S RI R 50
!     Frequency           S11_Real           S11_Imag           S21_Real           S21_Imag           S12_Real           S12_Imag           S22_Real           S22_Imag
      100000000   -2,909414470e-02   -4,132865928e-03    3,745091259e-01   -7,220034599e-01    0,000000000e+00    0,000000000e+00    0,000000000e+00    0,000000000e+00
      114000000   -1,665287651e-02    1,157533564e-02   -8,877166361e-02   -8,058221340e-01    0,000000000e+00    0,000000000e+00    0,000000000e+00    0,000000000e+00
      128000000    3,459506901e-03    1,049287338e-02   -5,145156384e-01   -6,210678220e-01    0,000000000e+00    0,000000000e+00    0,000000000e+00    0,000000000e+00
      142000000    1,441937592e-02   -3,076779656e-03   -7,675895691e-01   -2,370273620e-01    0,000000000e+00    0,000000000e+00    0,000000000e+00    0,000000000e+00
      156000000    1,548533887e-02   -1,464891713e-02   -7,731265426e-01    2,231417000e-01    0,000000000e+00    0,000000000e+00    0,000000000e+00    0,000000000e+00
      170000000    1,655080356e-02   -2,250627242e-02   -5,185582042e-01    6,049821377e-01    0,000000000e+00    0,000000000e+00    0,000000000e+00    0,000000000e+00
      184000000    2,094643377e-02   -3,697160259e-02   -1,017771289e-01    7,866429090e-01    0,000000000e+00    0,000000000e+00    0,000000000e+00    0,000000000e+00
      198000000    1,309257094e-02   -6,257992238e-02    3,428519964e-01    7,130175829e-01    0,000000000e+00    0,000000000e+00    0,000000000e+00    0,000000000e+00
      212000000   -1,870611124e-02   -8,168571442e-02    6,782630086e-01    4,106440842e-01    0,000000000e+00    0,000000000e+00    0,000000000e+00    0,000000000e+00
      226000000   -6,212304533e-02   -6,975001097e-02    7,961195111e-01   -2,968905866e-02    0,000000000e+00    0,000000000e+00    0,000000000e+00    0,000000000e+00
      240000000   -8,326455206e-02   -2,603092603e-02    6,473402977e-01   -4,666937292e-01    0,000000000e+00    0,000000000e+00    0,000000000e+00    0,000000000e+00
      254000000   -6,436664611e-02    1,747280732e-02    2,772186100e-01   -7,436878681e-01    0,000000000e+00    0,000000000e+00    0,000000000e+00    0,000000000e+00
      268000000   -2,403805405e-02    2,943695523e-02   -1,770467907e-01   -7,648212314e-01    0,000000000e+00    0,000000000e+00    0,000000000e+00    0,000000000e+00
      282000000    4,135694355e-03    1,212949399e-02   -5,624153614e-01   -5,375021696e-01    0,000000000e+00    0,000000000e+00    0,000000000e+00    0,000000000e+00
      296000000    9,560282342e-03   -7,799021434e-03   -7,604985237e-01   -1,395218521e-01    0,000000000e+00    0,000000000e+00    0,000000000e+00    0,000000000e+00
      310000000    1,072185487e-02   -1,621003076e-02   -7,124010324e-01    2,983486652e-01    0,000000000e+00    0,000000000e+00    0,000000000e+00    0,000000000e+00
      324000000    1,938818768e-02   -2,650472522e-02   -4,278626442e-01    6,366105080e-01    0,000000000e+00    0,000000000e+00    0,000000000e+00    0,000000000e+00
      338000000    2,536427416e-02   -5,192403123e-02   -1,121960767e-02    7,637739182e-01    0,000000000e+00    0,000000000e+00    0,000000000e+00    0,000000000e+00
      352000000    7,225440349e-03   -8,486378938e-02    4,055227637e-01    6,408064365e-01    0,000000000e+00    0,000000000e+00    0,000000000e+00    0,000000000e+00
      366000000   -3,481839225e-02   -9,598278254e-02    6,909813881e-01    3,126743734e-01    0,000000000e+00    0,000000000e+00    0,000000000e+00    0,000000000e+00
      380000000   -7,168480009e-02   -7,095257938e-02    7,483291626e-01   -1,243696362e-01    0,000000000e+00    0,000000000e+00    0,000000000e+00    0,000000000e+00
      394000000   -7,325972617e-02   -3,236057609e-02    5,482810736e-01   -5,208267570e-01    0,000000000e+00    0,000000000e+00    0,000000000e+00    0,000000000e+00
      408000000   -4,702826962e-02   -1,561126858e-02    1,634277105e-01   -7,318111658e-01    0,000000000e+00    0,000000000e+00    0,000000000e+00    0,000000000e+00
      422000000   -2,825949714e-02   -3,160063922e-02   -2,667094171e-01   -6,955683231e-01    0,000000000e+00    0,000000000e+00    0,000000000e+00    0,000000000e+00
      436000000   -4,014453292e-02   -5,221981555e-02   -6,023415923e-01   -4,335457981e-01    0,000000000e+00    0,000000000e+00    0,000000000e+00    0,000000000e+00
      450000000   -6,738442183e-02   -4,459978640e-02   -7,403573990e-01   -2,488150261e-02    0,000000000e+00    0,000000000e+00    0,000000000e+00    0,000000000e+00
      464000000   -7,446254045e-02   -1,224112976e-02   -6,216577888e-01    3,946562409e-01    0,000000000e+00    0,000000000e+00    0,000000000e+00    0,000000000e+00
      478000000   -4,921097308e-02    1,149093825e-02   -2,864459753e-01    6,671184301e-01    0,000000000e+00    0,000000000e+00    0,000000000e+00    0,000000000e+00
      492000000   -1,698473841e-02    6,431892514e-03    1,338755786e-01    7,032749057e-01    0,000000000e+00    0,000000000e+00    0,000000000e+00    0,000000000e+00
      506000000   -3,889059881e-03   -1,496946253e-02    4,972964227e-01    5,061494708e-01    0,000000000e+00    0,000000000e+00    0,000000000e+00    0,000000000e+00
      520000000   -5,992760882e-03   -2,961391024e-02    6,881159544e-01    1,448944658e-01    0,000000000e+00    0,000000000e+00    0,000000000e+00    0,000000000e+00
      534000000   -3,111689119e-03   -3,583505377e-02    6,448774934e-01   -2,594760656e-01    0,000000000e+00    0,000000000e+00    0,000000000e+00    0,000000000e+00
      548000000    8,054112084e-03   -5,320817977e-02    3,849864304e-01   -5,650947094e-01    0,000000000e+00    0,000000000e+00    0,000000000e+00    0,000000000e+00
      562000000    5,967511330e-03   -8,974602073e-02    8,424563333e-03   -6,715952158e-01    0,000000000e+00    0,000000000e+00    0,000000000e+00    0,000000000e+00
      576000000   -3,155989945e-02   -1,264723986e-01   -3,628292084e-01   -5,612344146e-01    0,000000000e+00    0,000000000e+00    0,000000000e+00    0,000000000e+00
      590000000   -9,493930638e-02   -1,277369261e-01   -6,155061126e-01   -2,735546827e-01    0,000000000e+00    0,000000000e+00    0,000000000e+00    0,000000000e+00
      604000000   -1,434345394e-01   -7,787219435e-02   -6,678661108e-01    1,260486841e-01    0,000000000e+00    0,000000000e+00    0,000000000e+00    0,000000000e+00
      618000000   -1,387285292e-01   -1,159456372e-02   -4,751358330e-01    4,851508439e-01    0,000000000e+00    0,000000000e+00    0,000000000e+00    0,000000000e+00
      632000000   -9,361004829e-02    2,141892351e-02   -1,138157248e-01    6,635675430e-01    0,000000000e+00    0,000000000e+00    0,000000000e+00    0,000000000e+00
      646000000   -5,497120693e-02    1,234620344e-02    2,731771469e-01    6,032034755e-01    0,000000000e+00    0,000000000e+00    0,000000000e+00    0,000000000e+00
      660000000   -4,770805314e-02   -9,140318260e-03    5,571334958e-01    3,403802216e-01    0,000000000e+00    0,000000000e+00    0,000000000e+00    0,000000000e+00
      674000000   -5,517662689e-02   -1,103527658e-02    6,442360282e-01   -3,943489119e-02    0,000000000e+00    0,000000000e+00    0,000000000e+00    0,000000000e+00
      688000000   -5,081778020e-02    2,384552034e-03    4,930149615e-01   -4,012754560e-01    0,000000000e+00    0,000000000e+00    0,000000000e+00    0,000000000e+00
      702000000   -2,556192316e-02    8,101155050e-03    1,595193595e-01   -6,023229361e-01    0,000000000e+00    0,000000000e+00    0,000000000e+00    0,000000000e+00
      716000000   -2,510116203e-03   -8,274963126e-03   -2,192650288e-01   -5,753793716e-01    0,000000000e+00    0,000000000e+00    0,000000000e+00    0,000000000e+00
      730000000    1,016127877e-02   -3,428811952e-02   -5,087579489e-01   -3,331458271e-01    0,000000000e+00    0,000000000e+00    0,000000000e+00    0,000000000e+00
      744000000    1,651772857e-02   -6,016428024e-02   -6,011608839e-01    3,303708881e-02    0,000000000e+00    0,000000000e+00    0,000000000e+00    0,000000000e+00
      758000000    2,250830084e-02   -1,036975756e-01   -4,544734061e-01    3,766073883e-01    0,000000000e+00    0,000000000e+00    0,000000000e+00    0,000000000e+00
      772000000   -4,439306445e-03   -1,731868833e-01   -1,407387704e-01    5,580895543e-01    0,000000000e+00    0,000000000e+00    0,000000000e+00    0,000000000e+00
      786000000   -1,050862819e-01   -2,318476439e-01    2,112319022e-01    5,190312862e-01    0,000000000e+00    0,000000000e+00    0,000000000e+00    0,000000000e+00
      800000000   -2,652263045e-01   -1,930672079e-01    4,710962176e-01    2,760536969e-01    0,000000000e+00    0,000000000e+00    0,000000000e+00    0,000000000e+00
      814000000   -3,647008538e-01    3,182776971e-03    5,078718662e-01   -8,795700967e-02    0,000000000e+00    0,000000000e+00    0,000000000e+00    0,000000000e+00
      828000000   -2,477757633e-01    2,332012504e-01    2,810878456e-01   -3,523359597e-01    0,000000000e+00    0,000000000e+00    0,000000000e+00    0,000000000e+00
      842000000    1,249715313e-02    2,786747813e-01   -1,564146020e-02   -3,623529375e-01    0,000000000e+00    0,000000000e+00    0,000000000e+00    0,000000000e+00
      856000000    2,125374377e-01    1,155229285e-01   -1,880646348e-01   -2,050893307e-01    0,000000000e+00    0,000000000e+00    0,000000000e+00    0,000000000e+00
      870000000    2,388157994e-01   -1,490881890e-01   -2,010376602e-01   -2,641111054e-02    0,000000000e+00    0,000000000e+00    0,000000000e+00    0,000000000e+00
      884000000    3,867541254e-02   -3,870258331e-01   -1,045713872e-01    7,145595551e-02    0,000000000e+00    0,000000000e+00    0,000000000e+00    0,000000000e+00
      898000000   -3,693783283e-01   -3,427445590e-01   -1,769378223e-02    2,785741352e-02    0,000000000e+00    0,000000000e+00    0,000000000e+00    0,000000000e+00
      912000000   -4,667460322e-01    1,393037289e-01   -1,244816333e-01    2,938531339e-02    0,000000000e+00    0,000000000e+00    0,000000000e+00    0,000000000e+00
      926000000   -9,430065751e-02    3,531524241e-01   -1,266796142e-01    1,348535866e-01    0,000000000e+00    0,000000000e+00    0,000000000e+00    0,000000000e+00
      940000000    1,840072870e-01    1,958963275e-01   -3,951207921e-02    2,166608274e-01    0,000000000e+00    0,000000000e+00    0,000000000e+00    0,000000000e+00
      954000000    2,544790208e-01   -4,971454293e-02    8,070208132e-02    2,284466922e-01    0,000000000e+00    0,000000000e+00    0,000000000e+00    0,000000000e+00
      968000000    1,772008687e-01   -2,627202570e-01    1,919602901e-01    1,810397655e-01    0,000000000e+00    0,000000000e+00    0,000000000e+00    0,000000000e+00
      982000000   -1,560493838e-02   -3,922997415e-01    2,806679010e-01    7,960787416e-02    0,000000000e+00    0,000000000e+00    0,000000000e+00    0,000000000e+00
      996000000   -2,733895183e-01   -3,748586476e-01    3,097266853e-01   -7,988478988e-02    0,000000000e+00    0,000000000e+00    0,000000000e+00    0,000000000e+00
     1010000000   -4,661853015e-01   -1,738329530e-01    2,207544893e-01   -2,529974878e-01    0,000000000e+00    0,000000000e+00    0,000000000e+00    0,000000000e+00
     1024000000   -4,630815089e-01    1,157216653e-01    2,156274393e-02   -3,298062682e-01    0,000000000e+00    0,000000000e+00    0,000000000e+00    0,000000000e+00
     1038000000   -2,667993605e-01    2,962341309e-01   -1,726864576e-01   -2,460979670e-01    0,000000000e+00    0,000000000e+00    0,000000000e+00    0,000000000e+00
     1052000000   -3,980142996e-02    3,101447225e-01   -2,580428720e-01   -7,703311741e-02    0,000000000e+00    0,000000000e+00    0,000000000e+00    0,000000000e+00
     1066000000    1,296395361e-01    2,057480365e-01   -2,253821641e-01    8,414956182e-02    0,000000000e+00    0,000000000e+00    0,000000000e+00    0,000000000e+00
     1080000000    2,076897472e-01    4,900646582e-02   -1,210311130e-01    1,931050420e-01    0,000000000e+00    0,000000000e+00    0,000000000e+00    0,000000000e+00
     1094000000    2,025634795e-01   -1,256344467e-01    1,579949632e-02    2,324486673e-01    0,000000000e+00    0,000000000e+00    0,000000000e+00    0,000000000e+00
     1108000000    1,019996628e-01   -2,876098752e-01    1,695575416e-01    2,078639120e-01    0,000000000e+00    0,000000000e+00    0,000000000e+00    0,000000000e+00
     1122000000   -9,720150381e-02   -3,698688447e-01    3,156847656e-01    8,986741304e-02    0,000000000e+00    0,000000000e+00    0,000000000e+00    0,000000000e+00
     1136000000   -3,432444632e-01   -2,699044943e-01    3,920285404e-01   -1,512431204e-01    0,000000000e+00    0,000000000e+00    0,000000000e+00    0,000000000e+00
     1150000000   -4,086416960e-01    3,294762596e-02    2,434542328e-01   -4,373115897e-01    0,000000000e+00    0,000000000e+00    0,000000000e+00    0,000000000e+00
     1164000000   -1,612800956e-01    2,216330916e-01   -9,350261837e-02   -5,142468214e-01    0,000000000e+00    0,000000000e+00    0,000000000e+00    0,000000000e+00
     1178000000    7,848731428e-02    8,203206956e-02   -3,573382795e-01   -3,472692072e-01    0,000000000e+00    0,000000000e+00    0,000000000e+00    0,000000000e+00
     1192000000    7,434033602e-02   -1,749101281e-01   -4,543933868e-01   -8,722412586e-02    0,000000000e+00    0,000000000e+00    0,000000000e+00    0,000000000e+00
     1206000000   -1,629703790e-01   -3,281912506e-01   -3,671885729e-01    1,878325045e-01    0,000000000e+00    0,000000000e+00    0,000000000e+00    0,000000000e+00
     1220000000   -4,540273547e-01   -1,809485704e-01   -1,014270410e-01    3,299811482e-01    0,000000000e+00    0,000000000e+00    0,000000000e+00    0,000000000e+00
     1234000000   -4,712985754e-01    1,678491682e-01    1,390370429e-01    2,262909263e-01    0,000000000e+00    0,000000000e+00    0,000000000e+00    0,000000000e+00
     1248000000   -2,363867164e-01    3,586615622e-01    1,935402155e-01    3,815343231e-02    0,000000000e+00    0,000000000e+00    0,000000000e+00    0,000000000e+00
     1262000000    9,445325471e-03    3,308123648e-01    1,335774362e-01   -7,191061229e-02    0,000000000e+00    0,000000000e+00    0,000000000e+00    0,000000000e+00
     1276000000    1,580685228e-01    2,016608715e-01    5,973337591e-02   -9,853626788e-02    0,000000000e+00    0,000000000e+00    0,000000000e+00    0,000000000e+00
     1290000000    2,180118412e-01    3,315290436e-02   -3,267397871e-03   -7,508245111e-02    0,000000000e+00    0,000000000e+00    0,000000000e+00    0,000000000e+00
     1304000000    2,065746486e-01   -1,483248919e-01   -1,942403615e-02   -3,311054409e-02    0,000000000e+00    0,000000000e+00    0,000000000e+00    0,000000000e+00
     1318000000    1,142299771e-01   -3,136600554e-01   -1,008794364e-02    2,088341862e-02    0,000000000e+00    0,000000000e+00    0,000000000e+00    0,000000000e+00
     1332000000   -6,593228877e-02   -4,315253794e-01    4,895466194e-02    6,517629325e-02    0,000000000e+00    0,000000000e+00    0,000000000e+00    0,000000000e+00
     1346000000   -3,304744661e-01   -4,283647239e-01    1,411965787e-01    5,446058512e-02    0,000000000e+00    0,000000000e+00    0,000000000e+00    0,000000000e+00
     1360000000   -5,529155135e-01   -2,438667864e-01    1,205285043e-01   -7,800195366e-02    0,000000000e+00    0,000000000e+00    0,000000000e+00    0,000000000e+00
     1374000000   -6,268711090e-01    2,837844938e-02    1,083256230e-01    4,953036085e-02    0,000000000e+00    0,000000000e+00    0,000000000e+00    0,000000000e+00
     1388000000   -5,124644637e-01    2,882505059e-01    2,333688736e-01   -3,846566658e-03    0,000000000e+00    0,000000000e+00    0,000000000e+00    0,000000000e+00
     1402000000   -3,090689182e-01    4,191395342e-01    2,144817710e-01   -8,147834986e-02    0,000000000e+00    0,000000000e+00    0,000000000e+00    0,000000000e+00
     1416000000   -9,663022310e-02    4,171053469e-01    1,875725538e-01   -1,230980977e-01    0,000000000e+00    0,000000000e+00    0,000000000e+00    0,000000000e+00
     1430000000    7,143791765e-02    3,396481872e-01    1,733978987e-01   -1,092638746e-01    0,000000000e+00    0,000000000e+00    0,000000000e+00    0,000000000e+00
     1444000000    1,805817187e-01    2,008607388e-01    1,583271474e-01   -1,016643792e-01    0,000000000e+00    0,000000000e+00    0,000000000e+00    0,000000000e+00
     1458000000    2,239869982e-01    3,690267727e-02    1,536808610e-01   -7,104744762e-02    0,000000000e+00    0,000000000e+00    0,000000000e+00    0,000000000e+00
     1472000000    2,074353993e-01   -1,515721530e-01    1,595229506e-01   -5,715705082e-02    0,000000000e+00    0,000000000e+00    0,000000000e+00    0,000000000e+00
     1486000000    1,059389338e-01   -3,301681876e-01    1,635049134e-01   -1,733089425e-02    0,000000000e+00    0,000000000e+00    0,000000000e+00    0,000000000e+00
     1500000000   -8,528365940e-02   -4,687352180e-01    2,151292562e-01    4,435581714e-02    0,000000000e+00    0,000000000e+00    0,000000000e+00    0,000000000e+00
