! NanoVNA-App
! Date: 2025-09-25 14:26:23
! Start: 100MHz Stop: 1,5GHz Points: 101
! S-Parameter data: F S11 S21 S12 S22
# Hz S RI R 50
!     Frequency           S11_Real           S11_Imag           S21_Real           S21_Imag           S12_Real           S12_Imag           S22_Real           S22_Imag
      100000000   -2,908819914e-02   -4,126545507e-03    3,745091558e-01   -7,220919132e-01    0,000000000e+00    0,000000000e+00    0,000000000e+00    0,000000000e+00
      114000000   -1,660267077e-02    1,163527928e-02   -8,898223937e-02   -8,057815433e-01    0,000000000e+00    0,000000000e+00    0,000000000e+00    0,000000000e+00
      128000000    3,393469378e-03    1,055620983e-02   -5,147245526e-01   -6,211263537e-01    0,000000000e+00    0,000000000e+00    0,000000000e+00    0,000000000e+00
      142000000    1,442664210e-02   -3,073240165e-03   -7,675671577e-01   -2,369253486e-01    0,000000000e+00    0,000000000e+00    0,000000000e+00    0,000000000e+00
      156000000    1,537432894e-02   -1,466057729e-02   -7,728763819e-01    2,230371982e-01    0,000000000e+00    0,000000000e+00    0,000000000e+00    0,000000000e+00
      170000000    1,646575704e-02   -2,252377383e-02   -5,189819336e-01    6,051600575e-01    0,000000000e+00    0,000000000e+00    0,000000000e+00    0,000000000e+00
      184000000    2,095874958e-02   -3,704151511e-02   -1,018715575e-01    7,863672972e-01    0,000000000e+00    0,000000000e+00    0,000000000e+00    0,000000000e+00
      198000000    1,312188804e-02   -6,260209531e-02    3,431460857e-01    7,131466866e-01    0,000000000e+00    0,000000000e+00    0,000000000e+00    0,000000000e+00
      212000000   -1,869460940e-02   -8,168035746e-02    6,782692075e-01    4,105740488e-01    0,000000000e+00    0,000000000e+00    0,000000000e+00    0,000000000e+00
      226000000   -6,209800765e-02   -6,973924488e-02    7,961217761e-01   -2,958535217e-02    0,000000000e+00    0,000000000e+00    0,000000000e+00    0,000000000e+00
      240000000   -8,334397525e-02   -2,601806819e-02    6,471649408e-01   -4,667469263e-01    0,000000000e+00    0,000000000e+00    0,000000000e+00    0,000000000e+00
      254000000   -6,432679296e-02    1,746334694e-02    2,770317793e-01   -7,428677678e-01    0,000000000e+00    0,000000000e+00    0,000000000e+00    0,000000000e+00
      268000000   -2,406684496e-02    2,946335264e-02   -1,768740416e-01   -7,649350762e-01    0,000000000e+00    0,000000000e+00    0,000000000e+00    0,000000000e+00
      282000000    4,134613089e-03    1,214696281e-02   -5,627280474e-01   -5,373240709e-01    0,000000000e+00    0,000000000e+00    0,000000000e+00    0,000000000e+00
      296000000    9,531347081e-03   -7,648805622e-03   -7,607370019e-01   -1,395868361e-01    0,000000000e+00    0,000000000e+00    0,000000000e+00    0,000000000e+00
      310000000    1,084182039e-02   -1,619226485e-02   -7,125956416e-01    2,984459698e-01    0,000000000e+00    0,000000000e+00    0,000000000e+00    0,000000000e+00
      324000000    1,935179718e-02   -2,624145709e-02   -4,288963974e-01    6,387789845e-01    0,000000000e+00    0,000000000e+00    0,000000000e+00    0,000000000e+00
      338000000    2,553312108e-02   -5,200850964e-02   -1,186241023e-02    7,598120570e-01    0,000000000e+00    0,000000000e+00    0,000000000e+00    0,000000000e+00
      352000000    7,605267223e-03   -8,484201133e-02    4,060000479e-01    6,406571865e-01    0,000000000e+00    0,000000000e+00    0,000000000e+00    0,000000000e+00
      366000000   -3,485685587e-02   -9,638769180e-02    6,907649040e-01    3,120166659e-01    0,000000000e+00    0,000000000e+00    0,000000000e+00    0,000000000e+00
      380000000   -7,146503031e-02   -7,108826190e-02    7,479423881e-01   -1,243326962e-01    0,000000000e+00    0,000000000e+00    0,000000000e+00    0,000000000e+00
      394000000   -7,308209687e-02   -3,227887675e-02    5,494483709e-01   -5,214372873e-01    0,000000000e+00    0,000000000e+00    0,000000000e+00    0,000000000e+00
      408000000   -4,678568617e-02   -1,560555492e-02    1,625531316e-01   -7,323849797e-01    0,000000000e+00    0,000000000e+00    0,000000000e+00    0,000000000e+00
      422000000   -2,825510688e-02   -3,141009435e-02   -2,654756606e-01   -6,949682236e-01    0,000000000e+00    0,000000000e+00    0,000000000e+00    0,000000000e+00
      436000000   -4,029254988e-02   -5,204476416e-02   -6,030492187e-01   -4,333621860e-01    0,000000000e+00    0,000000000e+00    0,000000000e+00    0,000000000e+00
      450000000   -6,785291433e-02   -4,489301145e-02   -7,406326532e-01   -2,516223118e-02    0,000000000e+00    0,000000000e+00    0,000000000e+00    0,000000000e+00
      464000000   -7,442160696e-02   -1,227350999e-02   -6,210390925e-01    3,950240612e-01    0,000000000e+00    0,000000000e+00    0,000000000e+00    0,000000000e+00
      478000000   -4,937072098e-02    1,163395680e-02   -2,870348394e-01    6,675426364e-01    0,000000000e+00    0,000000000e+00    0,000000000e+00    0,000000000e+00
      492000000   -1,715837047e-02    6,408552639e-03    1,342220306e-01    7,038170695e-01    0,000000000e+00    0,000000000e+00    0,000000000e+00    0,000000000e+00
      506000000   -3,966276534e-03   -1,512305718e-02    4,977537990e-01    5,060150623e-01    0,000000000e+00    0,000000000e+00    0,000000000e+00    0,000000000e+00
      520000000   -5,730913952e-03   -2,967560105e-02    6,900400519e-01    1,448903084e-01    0,000000000e+00    0,000000000e+00    0,000000000e+00    0,000000000e+00
      534000000   -3,209862625e-03   -3,566003963e-02    6,451589465e-01   -2,595584393e-01    0,000000000e+00    0,000000000e+00    0,000000000e+00    0,000000000e+00
      548000000    8,256472647e-03   -5,255437270e-02    3,854221404e-01   -5,643096566e-01    0,000000000e+00    0,000000000e+00    0,000000000e+00    0,000000000e+00
      562000000    5,823399406e-03   -8,979825675e-02    8,309085853e-03   -6,727948785e-01    0,000000000e+00    0,000000000e+00    0,000000000e+00    0,000000000e+00
      576000000   -3,181277215e-02   -1,262476295e-01   -3,621335924e-01   -5,606004000e-01    0,000000000e+00    0,000000000e+00    0,000000000e+00    0,000000000e+00
      590000000   -9,500598907e-02   -1,275486052e-01   -6,179423928e-01   -2,714895606e-01    0,000000000e+00    0,000000000e+00    0,000000000e+00    0,000000000e+00
      604000000   -1,431093216e-01   -7,753317803e-02   -6,669351459e-01    1,261045188e-01    0,000000000e+00    0,000000000e+00    0,000000000e+00    0,000000000e+00
      618000000   -1,383476108e-01   -1,155033987e-02   -4,752064049e-01    4,849294126e-01    0,000000000e+00    0,000000000e+00    0,000000000e+00    0,000000000e+00
      632000000   -9,315364063e-02    2,125131525e-02   -1,144168004e-01    6,631589532e-01    0,000000000e+00    0,000000000e+00    0,000000000e+00    0,000000000e+00
      646000000   -5,562996119e-02    1,234668680e-02    2,732999027e-01    6,036685109e-01    0,000000000e+00    0,000000000e+00    0,000000000e+00    0,000000000e+00
      660000000   -4,748843983e-02   -9,055346251e-03    5,573549271e-01    3,398517966e-01    0,000000000e+00    0,000000000e+00    0,000000000e+00    0,000000000e+00
      674000000   -5,545189604e-02   -1,066605654e-02    6,444700360e-01   -4,000203684e-02    0,000000000e+00    0,000000000e+00    0,000000000e+00    0,000000000e+00
      688000000   -4,995945096e-02    3,426347394e-03    4,936679304e-01   -4,016506970e-01    0,000000000e+00    0,000000000e+00    0,000000000e+00    0,000000000e+00
      702000000   -2,580066957e-02    8,353711106e-03    1,588793397e-01   -6,036089063e-01    0,000000000e+00    0,000000000e+00    0,000000000e+00    0,000000000e+00
      716000000   -2,065512119e-03   -8,188183419e-03   -2,186616212e-01   -5,752919316e-01    0,000000000e+00    0,000000000e+00    0,000000000e+00    0,000000000e+00
      730000000    9,229471907e-03   -3,396744654e-02   -5,091927648e-01   -3,334073424e-01    0,000000000e+00    0,000000000e+00    0,000000000e+00    0,000000000e+00
      744000000    1,624106430e-02   -6,104763225e-02   -6,007930636e-01    3,344231471e-02    0,000000000e+00    0,000000000e+00    0,000000000e+00    0,000000000e+00
      758000000    2,163751982e-02   -1,040483192e-01   -4,544737041e-01    3,774068654e-01    0,000000000e+00    0,000000000e+00    0,000000000e+00    0,000000000e+00
      772000000   -4,564390518e-03   -1,743036807e-01   -1,393171996e-01    5,582633615e-01    0,000000000e+00    0,000000000e+00    0,000000000e+00    0,000000000e+00
      786000000   -1,056183055e-01   -2,326932698e-01    2,110009640e-01    5,196068287e-01    0,000000000e+00    0,000000000e+00    0,000000000e+00    0,000000000e+00
      800000000   -2,665836215e-01   -1,932265311e-01    4,724069536e-01    2,751623392e-01    0,000000000e+00    0,000000000e+00    0,000000000e+00    0,000000000e+00
      814000000   -3,640692830e-01    2,585067879e-03    5,081209540e-01   -8,795956522e-02    0,000000000e+00    0,000000000e+00    0,000000000e+00    0,000000000e+00
      828000000   -2,488779873e-01    2,338706255e-01    2,812359035e-01   -3,524239957e-01    0,000000000e+00    0,000000000e+00    0,000000000e+00    0,000000000e+00
      842000000    1,334646344e-02    2,786312401e-01   -1,510606520e-02   -3,625212908e-01    0,000000000e+00    0,000000000e+00    0,000000000e+00    0,000000000e+00
      856000000    2,125540674e-01    1,154888421e-01   -1,879093945e-01   -2,048552334e-01    0,000000000e+00    0,000000000e+00    0,000000000e+00    0,000000000e+00
      870000000    2,392337322e-01   -1,486651897e-01   -2,015053779e-01   -2,562576719e-02    0,000000000e+00    0,000000000e+00    0,000000000e+00    0,000000000e+00
      884000000    3,778193519e-02   -3,866907358e-01   -1,036894619e-01    7,089146972e-02    0,000000000e+00    0,000000000e+00    0,000000000e+00    0,000000000e+00
      898000000   -3,689704239e-01   -3,423393071e-01   -1,614941098e-02    2,734241448e-02    0,000000000e+00    0,000000000e+00    0,000000000e+00    0,000000000e+00
      912000000   -4,678093493e-01    1,387451291e-01   -1,179610565e-01    4,026706144e-02    0,000000000e+00    0,000000000e+00    0,000000000e+00    0,000000000e+00
      926000000   -9,373295307e-02    3,523035645e-01   -1,258806586e-01    1,344110370e-01    0,000000000e+00    0,000000000e+00    0,000000000e+00    0,000000000e+00
      940000000    1,828968972e-01    1,926434934e-01   -3,930174559e-02    2,151004374e-01    0,000000000e+00    0,000000000e+00    0,000000000e+00    0,000000000e+00
      954000000    2,556258738e-01   -4,990621656e-02    8,039352298e-02    2,265188694e-01    0,000000000e+00    0,000000000e+00    0,000000000e+00    0,000000000e+00
      968000000    1,750544310e-01   -2,604499161e-01    1,924015135e-01    1,799541712e-01    0,000000000e+00    0,000000000e+00    0,000000000e+00    0,000000000e+00
      982000000   -1,418654714e-02   -3,949755728e-01    2,796826065e-01    7,965736836e-02    0,000000000e+00    0,000000000e+00    0,000000000e+00    0,000000000e+00
      996000000   -2,757218182e-01   -3,803969324e-01    3,087098897e-01   -7,902596146e-02    0,000000000e+00    0,000000000e+00    0,000000000e+00    0,000000000e+00
     1010000000   -4,716062248e-01   -1,706627458e-01    2,206492424e-01   -2,549040020e-01    0,000000000e+00    0,000000000e+00    0,000000000e+00    0,000000000e+00
     1024000000   -4,561308920e-01    1,189372987e-01    2,059838362e-02   -3,285173476e-01    0,000000000e+00    0,000000000e+00    0,000000000e+00    0,000000000e+00
     1038000000   -2,650822401e-01    3,014331460e-01   -1,738963872e-01   -2,479863018e-01    0,000000000e+00    0,000000000e+00    0,000000000e+00    0,000000000e+00
     1052000000   -3,520102799e-02    3,078731000e-01   -2,563608289e-01   -7,644422352e-02    0,000000000e+00    0,000000000e+00    0,000000000e+00    0,000000000e+00
     1066000000    1,288285255e-01    2,072709799e-01   -2,239412516e-01    8,624409139e-02    0,000000000e+00    0,000000000e+00    0,000000000e+00    0,000000000e+00
     1080000000    2,078622580e-01    4,456473142e-02   -1,214650124e-01    1,937454492e-01    0,000000000e+00    0,000000000e+00    0,000000000e+00    0,000000000e+00
     1094000000    2,037510574e-01   -1,295494884e-01    1,386328600e-02    2,332396060e-01    0,000000000e+00    0,000000000e+00    0,000000000e+00    0,000000000e+00
     1108000000    1,030437127e-01   -2,863827646e-01    1,688546389e-01    2,058759779e-01    0,000000000e+00    0,000000000e+00    0,000000000e+00    0,000000000e+00
     1122000000   -9,685640037e-02   -3,670229316e-01    3,161636591e-01    8,916459978e-02    0,000000000e+00    0,000000000e+00    0,000000000e+00    0,000000000e+00
     1136000000   -3,465462327e-01   -2,648930848e-01    3,904556036e-01   -1,513459533e-01    0,000000000e+00    0,000000000e+00    0,000000000e+00    0,000000000e+00
     1150000000   -4,044264555e-01    3,192850202e-02    2,423988432e-01   -4,355659783e-01    0,000000000e+00    0,000000000e+00    0,000000000e+00    0,000000000e+00
     1164000000   -1,618667543e-01    2,220358998e-01   -9,514394403e-02   -5,120140314e-01    0,000000000e+00    0,000000000e+00    0,000000000e+00    0,000000000e+00
     1178000000    7,722304016e-02    8,543651551e-02   -3,568247259e-01   -3,454729319e-01    0,000000000e+00    0,000000000e+00    0,000000000e+00    0,000000000e+00
     1192000000    7,409005612e-02   -1,763544381e-01   -4,553035796e-01   -8,673085272e-02    0,000000000e+00    0,000000000e+00    0,000000000e+00    0,000000000e+00
     1206000000   -1,635029167e-01   -3,281725049e-01   -3,676582873e-01    1,897663325e-01    0,000000000e+00    0,000000000e+00    0,000000000e+00    0,000000000e+00
     1220000000   -4,611569941e-01   -1,783025414e-01   -1,082187369e-01    3,292177022e-01    0,000000000e+00    0,000000000e+00    0,000000000e+00    0,000000000e+00
     1234000000   -4,794198871e-01    1,667961627e-01    1,314926744e-01    2,234672457e-01    0,000000000e+00    0,000000000e+00    0,000000000e+00    0,000000000e+00
     1248000000   -2,394733429e-01    3,506152928e-01    1,908160448e-01    3,095146082e-02    0,000000000e+00    0,000000000e+00    0,000000000e+00    0,000000000e+00
     1262000000    4,089114256e-03    3,256299496e-01    1,298012137e-01   -7,549389452e-02    0,000000000e+00    0,000000000e+00    0,000000000e+00    0,000000000e+00
     1276000000    1,501436085e-01    2,000639141e-01    5,176355690e-02   -9,639248997e-02    0,000000000e+00    0,000000000e+00    0,000000000e+00    0,000000000e+00
     1290000000    2,168042511e-01    3,159181774e-02    2,769998508e-03   -7,599896193e-02    0,000000000e+00    0,000000000e+00    0,000000000e+00    0,000000000e+00
     1304000000    2,062842101e-01   -1,477785707e-01   -1,944888756e-02   -3,471096233e-02    0,000000000e+00    0,000000000e+00    0,000000000e+00    0,000000000e+00
     1318000000    1,124207675e-01   -3,077617586e-01   -4,251155537e-03    1,850827597e-02    0,000000000e+00    0,000000000e+00    0,000000000e+00    0,000000000e+00
     1332000000   -6,871924549e-02   -4,356997311e-01    4,523339868e-02    5,581596121e-02    0,000000000e+00    0,000000000e+00    0,000000000e+00    0,000000000e+00
     1346000000   -3,322654963e-01   -4,395762682e-01    1,506599933e-01    4,039640352e-02    0,000000000e+00    0,000000000e+00    0,000000000e+00    0,000000000e+00
     1360000000   -5,550810099e-01   -2,418015897e-01    1,257520020e-01   -7,943705469e-02    0,000000000e+00    0,000000000e+00    0,000000000e+00    0,000000000e+00
     1374000000   -6,238405108e-01    2,918471210e-02    1,024713069e-01    5,595717207e-02    0,000000000e+00    0,000000000e+00    0,000000000e+00    0,000000000e+00
     1388000000   -5,153152347e-01    2,903489172e-01    2,162803262e-01    7,386735175e-03    0,000000000e+00    0,000000000e+00    0,000000000e+00    0,000000000e+00
     1402000000   -2,989108264e-01    4,215549231e-01    2,244958580e-01   -8,186250180e-02    0,000000000e+00    0,000000000e+00    0,000000000e+00    0,000000000e+00
     1416000000   -9,219484776e-02    4,196875095e-01    1,896426678e-01   -1,235312745e-01    0,000000000e+00    0,000000000e+00    0,000000000e+00    0,000000000e+00
     1430000000    8,281963319e-02    3,303262293e-01    1,475994885e-01   -1,379122138e-01    0,000000000e+00    0,000000000e+00    0,000000000e+00    0,000000000e+00
     1444000000    1,774342656e-01    1,928310096e-01    1,469273716e-01   -1,117246151e-01    0,000000000e+00    0,000000000e+00    0,000000000e+00    0,000000000e+00
     1458000000    2,219793350e-01    3,900970891e-02    1,426813006e-01   -7,962390780e-02    0,000000000e+00    0,000000000e+00    0,000000000e+00    0,000000000e+00
     1472000000    1,986524612e-01   -1,504185796e-01    1,406624615e-01   -5,470233411e-02    0,000000000e+00    0,000000000e+00    0,000000000e+00    0,000000000e+00
     1486000000    1,057244018e-01   -3,268864751e-01    1,653802395e-01   -1,395018026e-02    0,000000000e+00    0,000000000e+00    0,000000000e+00    0,000000000e+00
     1500000000   -9,149940312e-02   -4,603698552e-01    2,238489687e-01    5,223031342e-02    0,000000000e+00    0,000000000e+00    0,000000000e+00    0,000000000e+00
