! NanoVNA-App
! Date: 2025-09-25 14:27:13
! Start: 100MHz Stop: 1,5GHz Points: 101
! S-Parameter data: F S11 S21 S12 S22
# Hz S RI R 50
!     Frequency           S11_Real           S11_Imag           S21_Real           S21_Imag           S12_Real           S12_Imag           S22_Real           S22_Imag
      100000000   -2,909653448e-02   -4,115154967e-03    3,745335639e-01   -7,220056057e-01    0,000000000e+00    0,000000000e+00    0,000000000e+00    0,000000000e+00
      114000000   -1,662692800e-02    1,159621123e-02   -8,888464421e-02   -8,058350682e-01    0,000000000e+00    0,000000000e+00    0,000000000e+00    0,000000000e+00
      128000000    3,353705863e-03    1,052830555e-02   -5,145368576e-01   -6,211127639e-01    0,000000000e+00    0,000000000e+00    0,000000000e+00    0,000000000e+00
      142000000    1,443710644e-02   -3,076108871e-03   -7,674925327e-01   -2,370572239e-01    0,000000000e+00    0,000000000e+00    0,000000000e+00    0,000000000e+00
      156000000    1,482519601e-02   -1,500850823e-02   -7,698128819e-01    2,196214199e-01    0,000000000e+00    0,000000000e+00    0,000000000e+00    0,000000000e+00
      170000000    1,647222973e-02   -2,252313308e-02   -5,188099146e-01    6,050313711e-01    0,000000000e+00    0,000000000e+00    0,000000000e+00    0,000000000e+00
      184000000    2,099146694e-02   -3,697932884e-02   -1,018458754e-01    7,867304087e-01    0,000000000e+00    0,000000000e+00    0,000000000e+00    0,000000000e+00
      198000000    1,309491042e-02   -6,259684265e-02    3,429311216e-01    7,128033638e-01    0,000000000e+00    0,000000000e+00    0,000000000e+00    0,000000000e+00
      212000000   -1,870939694e-02   -8,175022155e-02    6,781522036e-01    4,106441736e-01    0,000000000e+00    0,000000000e+00    0,000000000e+00    0,000000000e+00
      226000000   -6,212760881e-02   -6,970459223e-02    7,960799336e-01   -2,967951261e-02    0,000000000e+00    0,000000000e+00    0,000000000e+00    0,000000000e+00
      240000000   -8,325462043e-02   -2,604040876e-02    6,471053362e-01   -4,666920006e-01    0,000000000e+00    0,000000000e+00    0,000000000e+00    0,000000000e+00
      254000000   -6,437034160e-02    1,746663637e-02    2,769249976e-01   -7,433039546e-01    0,000000000e+00    0,000000000e+00    0,000000000e+00    0,000000000e+00
      268000000   -2,401905321e-02    2,953300811e-02   -1,765736938e-01   -7,652343512e-01    0,000000000e+00    0,000000000e+00    0,000000000e+00    0,000000000e+00
      282000000    4,143731203e-03    1,206673030e-02   -5,621594787e-01   -5,372480154e-01    0,000000000e+00    0,000000000e+00    0,000000000e+00    0,000000000e+00
      296000000    9,525568224e-03   -7,671421394e-03   -7,606435418e-01   -1,395820379e-01    0,000000000e+00    0,000000000e+00    0,000000000e+00    0,000000000e+00
      310000000    1,095557213e-02   -1,606381312e-02   -7,131239176e-01    2,969256938e-01    0,000000000e+00    0,000000000e+00    0,000000000e+00    0,000000000e+00
      324000000    1,954555139e-02   -2,632137202e-02   -4,282423854e-01    6,373106241e-01    0,000000000e+00    0,000000000e+00    0,000000000e+00    0,000000000e+00
      338000000    2,516228706e-02   -5,183782056e-02   -8,106181398e-03    7,623158693e-01    0,000000000e+00    0,000000000e+00    0,000000000e+00    0,000000000e+00
      352000000    7,676657755e-03   -8,507199585e-02    4,058578610e-01    6,403704882e-01    0,000000000e+00    0,000000000e+00    0,000000000e+00    0,000000000e+00
      366000000   -3,467870504e-02   -9,598290920e-02    6,912564635e-01    3,126548827e-01    0,000000000e+00    0,000000000e+00    0,000000000e+00    0,000000000e+00
      380000000   -7,131958753e-02   -7,127436996e-02    7,482607961e-01   -1,249632984e-01    0,000000000e+00    0,000000000e+00    0,000000000e+00    0,000000000e+00
      394000000   -7,340267301e-02   -3,230603412e-02    5,490896106e-01   -5,206873417e-01    0,000000000e+00    0,000000000e+00    0,000000000e+00    0,000000000e+00
      408000000   -4,716260731e-02   -1,585781761e-02    1,623491198e-01   -7,340297103e-01    0,000000000e+00    0,000000000e+00    0,000000000e+00    0,000000000e+00
      422000000   -2,810303494e-02   -3,162050992e-02   -2,656578720e-01   -6,962996125e-01    0,000000000e+00    0,000000000e+00    0,000000000e+00    0,000000000e+00
      436000000   -4,024149105e-02   -5,215608329e-02   -6,031634808e-01   -4,344272316e-01    0,000000000e+00    0,000000000e+00    0,000000000e+00    0,000000000e+00
      450000000   -6,781408191e-02   -4,454745352e-02   -7,406225801e-01   -2,519777231e-02    0,000000000e+00    0,000000000e+00    0,000000000e+00    0,000000000e+00
      464000000   -7,448077202e-02   -1,239647623e-02   -6,218365431e-01    3,945249021e-01    0,000000000e+00    0,000000000e+00    0,000000000e+00    0,000000000e+00
      478000000   -4,925354198e-02    1,159408223e-02   -2,861759961e-01    6,668637991e-01    0,000000000e+00    0,000000000e+00    0,000000000e+00    0,000000000e+00
      492000000   -1,704011858e-02    6,653444376e-03    1,337544024e-01    7,041804790e-01    0,000000000e+00    0,000000000e+00    0,000000000e+00    0,000000000e+00
      506000000   -3,380699083e-03   -1,507901773e-02    4,980750382e-01    5,068852305e-01    0,000000000e+00    0,000000000e+00    0,000000000e+00    0,000000000e+00
      520000000   -5,873980001e-03   -2,942557074e-02    6,894512177e-01    1,439553350e-01    0,000000000e+00    0,000000000e+00    0,000000000e+00    0,000000000e+00
      534000000   -3,189889016e-03   -3,606851771e-02    6,443560719e-01   -2,601778209e-01    0,000000000e+00    0,000000000e+00    0,000000000e+00    0,000000000e+00
      548000000    8,263468742e-03   -5,282893032e-02    3,853965700e-01   -5,638261437e-01    0,000000000e+00    0,000000000e+00    0,000000000e+00    0,000000000e+00
      562000000    5,448571872e-03   -8,971325308e-02    7,599852514e-03   -6,724694967e-01    0,000000000e+00    0,000000000e+00    0,000000000e+00    0,000000000e+00
      576000000   -3,112185374e-02   -1,259149313e-01   -3,619655371e-01   -5,609634519e-01    0,000000000e+00    0,000000000e+00    0,000000000e+00    0,000000000e+00
      590000000   -9,506212175e-02   -1,277953833e-01   -6,150246859e-01   -2,722238600e-01    0,000000000e+00    0,000000000e+00    0,000000000e+00    0,000000000e+00
      604000000   -1,432345808e-01   -7,817949355e-02   -6,677544117e-01    1,255511642e-01    0,000000000e+00    0,000000000e+00    0,000000000e+00    0,000000000e+00
      618000000   -1,378362179e-01   -1,085040066e-02   -4,750554562e-01    4,855791032e-01    0,000000000e+00    0,000000000e+00    0,000000000e+00    0,000000000e+00
      632000000   -9,309973568e-02    2,118258923e-02   -1,139316484e-01    6,624726057e-01    0,000000000e+00    0,000000000e+00    0,000000000e+00    0,000000000e+00
      646000000   -5,567446724e-02    1,210387889e-02    2,736238539e-01    6,033356786e-01    0,000000000e+00    0,000000000e+00    0,000000000e+00    0,000000000e+00
      660000000   -4,743886366e-02   -8,333091624e-03    5,577641726e-01    3,408250809e-01    0,000000000e+00    0,000000000e+00    0,000000000e+00    0,000000000e+00
      674000000   -5,553546548e-02   -1,139923930e-02    6,447696090e-01   -3,948315233e-02    0,000000000e+00    0,000000000e+00    0,000000000e+00    0,000000000e+00
      688000000   -5,098131299e-02    3,159452230e-03    4,933374822e-01   -4,022461772e-01    0,000000000e+00    0,000000000e+00    0,000000000e+00    0,000000000e+00
      702000000   -2,630836703e-02    6,930295844e-03    1,607916951e-01   -6,029819846e-01    0,000000000e+00    0,000000000e+00    0,000000000e+00    0,000000000e+00
      716000000   -2,102950821e-03   -9,761863388e-03   -2,184432596e-01   -5,759984255e-01    0,000000000e+00    0,000000000e+00    0,000000000e+00    0,000000000e+00
      730000000    1,024652831e-02   -3,520505130e-02   -5,090447068e-01   -3,327912390e-01    0,000000000e+00    0,000000000e+00    0,000000000e+00    0,000000000e+00
      744000000    1,715042070e-02   -6,128044054e-02   -6,008064747e-01    3,321835399e-02    0,000000000e+00    0,000000000e+00    0,000000000e+00    0,000000000e+00
      758000000    2,267306484e-02   -1,036399677e-01   -4,547420144e-01    3,773779869e-01    0,000000000e+00    0,000000000e+00    0,000000000e+00    0,000000000e+00
      772000000   -5,339045543e-03   -1,742353439e-01   -1,405264735e-01    5,577871799e-01    0,000000000e+00    0,000000000e+00    0,000000000e+00    0,000000000e+00
      786000000   -1,052429676e-01   -2,330174744e-01    2,109749764e-01    5,196613073e-01    0,000000000e+00    0,000000000e+00    0,000000000e+00    0,000000000e+00
      800000000   -2,664512396e-01   -1,929368973e-01    4,719889462e-01    2,754293680e-01    0,000000000e+00    0,000000000e+00    0,000000000e+00    0,000000000e+00
      814000000   -3,638378084e-01    4,448438529e-03    5,082907081e-01   -8,820052445e-02    0,000000000e+00    0,000000000e+00    0,000000000e+00    0,000000000e+00
      828000000   -2,472862750e-01    2,327055782e-01    2,813163400e-01   -3,531618714e-01    0,000000000e+00    0,000000000e+00    0,000000000e+00    0,000000000e+00
      842000000    1,241303049e-02    2,779763341e-01   -1,592349634e-02   -3,622000515e-01    0,000000000e+00    0,000000000e+00    0,000000000e+00    0,000000000e+00
      856000000    2,127168179e-01    1,151149645e-01   -1,880755723e-01   -2,053527087e-01    0,000000000e+00    0,000000000e+00    0,000000000e+00    0,000000000e+00
      870000000    2,387780696e-01   -1,486739516e-01   -2,003269941e-01   -2,587644011e-02    0,000000000e+00    0,000000000e+00    0,000000000e+00    0,000000000e+00
      884000000    3,652976453e-02   -3,870190084e-01   -1,045710444e-01    7,059665769e-02    0,000000000e+00    0,000000000e+00    0,000000000e+00    0,000000000e+00
      898000000   -3,693194389e-01   -3,421173990e-01   -1,691233926e-02    2,667898126e-02    0,000000000e+00    0,000000000e+00    0,000000000e+00    0,000000000e+00
      912000000   -4,666903913e-01    1,384547651e-01   -1,199825928e-01    2,311132662e-02    0,000000000e+00    0,000000000e+00    0,000000000e+00    0,000000000e+00
      926000000   -9,580936283e-02    3,526089489e-01   -1,287950575e-01    1,358668804e-01    0,000000000e+00    0,000000000e+00    0,000000000e+00    0,000000000e+00
      940000000    1,816828698e-01    1,930141002e-01   -3,948068619e-02    2,138003856e-01    0,000000000e+00    0,000000000e+00    0,000000000e+00    0,000000000e+00
      954000000    2,537838221e-01   -4,958852753e-02    7,860174030e-02    2,276190519e-01    0,000000000e+00    0,000000000e+00    0,000000000e+00    0,000000000e+00
      968000000    1,740657389e-01   -2,605433762e-01    1,914741099e-01    1,808284223e-01    0,000000000e+00    0,000000000e+00    0,000000000e+00    0,000000000e+00
      982000000   -1,414070278e-02   -3,933269083e-01    2,815043628e-01    8,082564175e-02    0,000000000e+00    0,000000000e+00    0,000000000e+00    0,000000000e+00
      996000000   -2,744755447e-01   -3,789134920e-01    3,082526028e-01   -7,884391397e-02    0,000000000e+00    0,000000000e+00    0,000000000e+00    0,000000000e+00
     1010000000   -4,692235291e-01   -1,703075469e-01    2,205938697e-01   -2,531935573e-01    0,000000000e+00    0,000000000e+00    0,000000000e+00    0,000000000e+00
     1024000000   -4,566342235e-01    1,148876771e-01    2,042786404e-02   -3,291686177e-01    0,000000000e+00    0,000000000e+00    0,000000000e+00    0,000000000e+00
     1038000000   -2,618559897e-01    2,992382348e-01   -1,745016277e-01   -2,490074188e-01    0,000000000e+00    0,000000000e+00    0,000000000e+00    0,000000000e+00
     1052000000   -3,622613102e-02    3,111425936e-01   -2,592217922e-01   -7,816428691e-02    0,000000000e+00    0,000000000e+00    0,000000000e+00    0,000000000e+00
     1066000000    1,235792637e-01    2,078952640e-01   -2,254967242e-01    8,637677133e-02    0,000000000e+00    0,000000000e+00    0,000000000e+00    0,000000000e+00
     1080000000    2,043484449e-01    4,602810368e-02   -1,204486117e-01    1,930308342e-01    0,000000000e+00    0,000000000e+00    0,000000000e+00    0,000000000e+00
     1094000000    2,005333751e-01   -1,299185008e-01    1,793563925e-02    2,355891317e-01    0,000000000e+00    0,000000000e+00    0,000000000e+00    0,000000000e+00
     1108000000    9,928125888e-02   -2,842155695e-01    1,702342182e-01    2,041308433e-01    0,000000000e+00    0,000000000e+00    0,000000000e+00    0,000000000e+00
     1122000000   -9,602663666e-02   -3,689449131e-01    3,151902854e-01    8,942364901e-02    0,000000000e+00    0,000000000e+00    0,000000000e+00    0,000000000e+00
     1136000000   -3,455305099e-01   -2,668285370e-01    3,906197250e-01   -1,517228186e-01    0,000000000e+00    0,000000000e+00    0,000000000e+00    0,000000000e+00
     1150000000   -4,066873789e-01    3,233518079e-02    2,445866913e-01   -4,378041625e-01    0,000000000e+00    0,000000000e+00    0,000000000e+00    0,000000000e+00
     1164000000   -1,568911523e-01    2,153263837e-01   -9,474926442e-02   -5,148915648e-01    0,000000000e+00    0,000000000e+00    0,000000000e+00    0,000000000e+00
     1178000000    7,891665399e-02    8,560584486e-02   -3,572867513e-01   -3,474060893e-01    0,000000000e+00    0,000000000e+00    0,000000000e+00    0,000000000e+00
     1192000000    7,456973195e-02   -1,720632911e-01   -4,531761706e-01   -8,279256523e-02    0,000000000e+00    0,000000000e+00    0,000000000e+00    0,000000000e+00
     1206000000   -1,635233611e-01   -3,249189556e-01   -3,742493093e-01    1,868537664e-01    0,000000000e+00    0,000000000e+00    0,000000000e+00    0,000000000e+00
     1220000000   -4,555939436e-01   -1,793563962e-01   -1,122678369e-01    3,287970424e-01    0,000000000e+00    0,000000000e+00    0,000000000e+00    0,000000000e+00
     1234000000   -4,716096818e-01    1,701963246e-01    1,361399740e-01    2,258863002e-01    0,000000000e+00    0,000000000e+00    0,000000000e+00    0,000000000e+00
     1248000000   -2,397955209e-01    3,558394611e-01    1,894437373e-01    3,601617366e-02    0,000000000e+00    0,000000000e+00    0,000000000e+00    0,000000000e+00
     1262000000    7,301886566e-03    3,308461010e-01    1,267390698e-01   -7,160174102e-02    0,000000000e+00    0,000000000e+00    0,000000000e+00    0,000000000e+00
     1276000000    1,570321321e-01    1,979443878e-01    5,360492691e-02   -9,892790020e-02    0,000000000e+00    0,000000000e+00    0,000000000e+00    0,000000000e+00
     1290000000    2,221379131e-01    3,344748914e-02    4,670104012e-03   -7,255896926e-02    0,000000000e+00    0,000000000e+00    0,000000000e+00    0,000000000e+00
     1304000000    2,049650103e-01   -1,472500116e-01   -2,250267193e-02   -2,772029489e-02    0,000000000e+00    0,000000000e+00    0,000000000e+00    0,000000000e+00
     1318000000    1,114874333e-01   -3,096170127e-01   -1,226685662e-02    2,207231149e-02    0,000000000e+00    0,000000000e+00    0,000000000e+00    0,000000000e+00
     1332000000   -6,550016999e-02   -4,350371957e-01    4,385933653e-02    6,440927088e-02    0,000000000e+00    0,000000000e+00    0,000000000e+00    0,000000000e+00
     1346000000   -3,306531310e-01   -4,357080460e-01    1,505193859e-01    4,230638593e-02    0,000000000e+00    0,000000000e+00    0,000000000e+00    0,000000000e+00
     1360000000   -5,568247437e-01   -2,432330102e-01    1,131518707e-01   -7,729909569e-02    0,000000000e+00    0,000000000e+00    0,000000000e+00    0,000000000e+00
     1374000000   -6,269773841e-01    3,732554615e-02    1,067051664e-01    6,557212025e-02    0,000000000e+00    0,000000000e+00    0,000000000e+00    0,000000000e+00
     1388000000   -5,109235644e-01    2,924523354e-01    2,286818922e-01    5,987646524e-03    0,000000000e+00    0,000000000e+00    0,000000000e+00    0,000000000e+00
     1402000000   -3,042893410e-01    4,169790745e-01    2,256392539e-01   -9,626969695e-02    0,000000000e+00    0,000000000e+00    0,000000000e+00    0,000000000e+00
     1416000000   -9,506265074e-02    4,229898453e-01    1,850605458e-01   -1,164240763e-01    0,000000000e+00    0,000000000e+00    0,000000000e+00    0,000000000e+00
     1430000000    7,540713996e-02    3,236421347e-01    1,410721093e-01   -1,307844818e-01    0,000000000e+00    0,000000000e+00    0,000000000e+00    0,000000000e+00
     1444000000    1,769655347e-01    2,009956539e-01    1,480757147e-01   -1,048206389e-01    0,000000000e+00    0,000000000e+00    0,000000000e+00    0,000000000e+00
     1458000000    2,243908793e-01    3,441248834e-02    1,488753855e-01   -7,492209226e-02    0,000000000e+00    0,000000000e+00    0,000000000e+00    0,000000000e+00
     1472000000    2,077798992e-01   -1,498447955e-01    1,463814825e-01   -5,773649737e-02    0,000000000e+00    0,000000000e+00    0,000000000e+00    0,000000000e+00
     1486000000    1,077956110e-01   -3,255989254e-01    1,680274606e-01   -8,384635672e-03    0,000000000e+00    0,000000000e+00    0,000000000e+00    0,000000000e+00
     1500000000   -8,763033897e-02   -4,581936300e-01    2,185005397e-01    5,539813265e-02    0,000000000e+00    0,000000000e+00    0,000000000e+00    0,000000000e+00
