! NanoVNA-App
! Date: 2025-09-25 14:24:38
! Start: 100MHz Stop: 1,5GHz Points: 101
! S-Parameter data: F S11 S21 S12 S22
# Hz S RI R 50
!     Frequency           S11_Real           S11_Imag           S21_Real           S21_Imag           S12_Real           S12_Imag           S22_Real           S22_Imag
      100000000   -2,909528837e-02   -4,117173608e-03    3,744672835e-01   -7,220482826e-01    0,000000000e+00    0,000000000e+00    0,000000000e+00    0,000000000e+00
      114000000   -1,658575051e-02    1,161497273e-02   -8,904089034e-02   -8,056721687e-01    0,000000000e+00    0,000000000e+00    0,000000000e+00    0,000000000e+00
      128000000    3,405218013e-03    1,055001281e-02   -5,147810578e-01   -6,211321950e-01    0,000000000e+00    0,000000000e+00    0,000000000e+00    0,000000000e+00
      142000000    1,446193270e-02   -3,078948939e-03   -7,675216198e-01   -2,369094044e-01    0,000000000e+00    0,000000000e+00    0,000000000e+00    0,000000000e+00
      156000000    1,574851573e-02   -1,437454764e-02   -7,728652954e-01    2,241420150e-01    0,000000000e+00    0,000000000e+00    0,000000000e+00    0,000000000e+00
      170000000    1,657500677e-02   -2,246941440e-02   -5,187286139e-01    6,050786376e-01    0,000000000e+00    0,000000000e+00    0,000000000e+00    0,000000000e+00
      184000000    2,097444423e-02   -3,704944998e-02   -1,018959135e-01    7,866509557e-01    0,000000000e+00    0,000000000e+00    0,000000000e+00    0,000000000e+00
      198000000    1,312467922e-02   -6,257753074e-02    3,429297209e-01    7,130336761e-01    0,000000000e+00    0,000000000e+00    0,000000000e+00    0,000000000e+00
      212000000   -1,870325953e-02   -8,165612072e-02    6,783297658e-01    4,104333520e-01    0,000000000e+00    0,000000000e+00    0,000000000e+00    0,000000000e+00
      226000000   -6,206182763e-02   -6,968750060e-02    7,961641550e-01   -2,980231307e-02    0,000000000e+00    0,000000000e+00    0,000000000e+00    0,000000000e+00
      240000000   -8,328710496e-02   -2,612951398e-02    6,468740106e-01   -4,666587114e-01    0,000000000e+00    0,000000000e+00    0,000000000e+00    0,000000000e+00
      254000000   -6,439429522e-02    1,740123704e-02    2,771118581e-01   -7,434331775e-01    0,000000000e+00    0,000000000e+00    0,000000000e+00    0,000000000e+00
      268000000   -2,409202419e-02    2,952380106e-02   -1,766589582e-01   -7,649686933e-01    0,000000000e+00    0,000000000e+00    0,000000000e+00    0,000000000e+00
      282000000    4,231386818e-03    1,211951952e-02   -5,622143745e-01   -5,372354984e-01    0,000000000e+00    0,000000000e+00    0,000000000e+00    0,000000000e+00
      296000000    9,616686963e-03   -7,717135362e-03   -7,607371211e-01   -1,396097839e-01    0,000000000e+00    0,000000000e+00    0,000000000e+00    0,000000000e+00
      310000000    1,084422693e-02   -1,626509614e-02   -7,143507004e-01    2,974919379e-01    0,000000000e+00    0,000000000e+00    0,000000000e+00    0,000000000e+00
      324000000    1,958622597e-02   -2,661545202e-02   -4,285945892e-01    6,382095814e-01    0,000000000e+00    0,000000000e+00    0,000000000e+00    0,000000000e+00
      338000000    2,535394765e-02   -5,208786950e-02   -1,208842546e-02    7,632118464e-01    0,000000000e+00    0,000000000e+00    0,000000000e+00    0,000000000e+00
      352000000    7,380579133e-03   -8,504739404e-02    4,059535861e-01    6,406155825e-01    0,000000000e+00    0,000000000e+00    0,000000000e+00    0,000000000e+00
      366000000   -3,492061421e-02   -9,591242671e-02    6,906234026e-01    3,126731813e-01    0,000000000e+00    0,000000000e+00    0,000000000e+00    0,000000000e+00
      380000000   -7,130042464e-02   -7,113341242e-02    7,485167384e-01   -1,246973872e-01    0,000000000e+00    0,000000000e+00    0,000000000e+00    0,000000000e+00
      394000000   -7,295612991e-02   -3,237299621e-02    5,485613942e-01   -5,226300955e-01    0,000000000e+00    0,000000000e+00    0,000000000e+00    0,000000000e+00
      408000000   -4,692123830e-02   -1,558485627e-02    1,621219665e-01   -7,322446704e-01    0,000000000e+00    0,000000000e+00    0,000000000e+00    0,000000000e+00
      422000000   -2,849498391e-02   -3,151528165e-02   -2,666285634e-01   -6,962565780e-01    0,000000000e+00    0,000000000e+00    0,000000000e+00    0,000000000e+00
      436000000   -4,015034810e-02   -5,211521685e-02   -6,024966836e-01   -4,337260723e-01    0,000000000e+00    0,000000000e+00    0,000000000e+00    0,000000000e+00
      450000000   -6,755857170e-02   -4,483796656e-02   -7,404451370e-01   -2,502565645e-02    0,000000000e+00    0,000000000e+00    0,000000000e+00    0,000000000e+00
      464000000   -7,401704043e-02   -1,253162418e-02   -6,213655472e-01    3,945926428e-01    0,000000000e+00    0,000000000e+00    0,000000000e+00    0,000000000e+00
      478000000   -4,927641526e-02    1,167582255e-02   -2,867693007e-01    6,672678590e-01    0,000000000e+00    0,000000000e+00    0,000000000e+00    0,000000000e+00
      492000000   -1,715538278e-02    6,158251781e-03    1,338831186e-01    7,028663754e-01    0,000000000e+00    0,000000000e+00    0,000000000e+00    0,000000000e+00
      506000000   -3,758135252e-03   -1,530688815e-02    4,973901808e-01    5,057445168e-01    0,000000000e+00    0,000000000e+00    0,000000000e+00    0,000000000e+00
      520000000   -5,825924687e-03   -2,986666746e-02    6,887563467e-01    1,427201182e-01    0,000000000e+00    0,000000000e+00    0,000000000e+00    0,000000000e+00
      534000000   -3,492230549e-03   -3,574625775e-02    6,446595192e-01   -2,598777711e-01    0,000000000e+00    0,000000000e+00    0,000000000e+00    0,000000000e+00
      548000000    8,167674765e-03   -5,275340751e-02    3,849867284e-01   -5,648068190e-01    0,000000000e+00    0,000000000e+00    0,000000000e+00    0,000000000e+00
      562000000    5,407166202e-03   -8,909130096e-02    8,046410047e-03   -6,714079380e-01    0,000000000e+00    0,000000000e+00    0,000000000e+00    0,000000000e+00
      576000000   -3,182781115e-02   -1,263885796e-01   -3,627071381e-01   -5,606936216e-01    0,000000000e+00    0,000000000e+00    0,000000000e+00    0,000000000e+00
      590000000   -9,487577528e-02   -1,278652400e-01   -6,175583601e-01   -2,704501450e-01    0,000000000e+00    0,000000000e+00    0,000000000e+00    0,000000000e+00
      604000000   -1,434413940e-01   -7,808909565e-02   -6,677112579e-01    1,259968877e-01    0,000000000e+00    0,000000000e+00    0,000000000e+00    0,000000000e+00
      618000000   -1,377524436e-01   -1,124445442e-02   -4,747437537e-01    4,861748517e-01    0,000000000e+00    0,000000000e+00    0,000000000e+00    0,000000000e+00
      632000000   -9,341628104e-02    2,128631808e-02   -1,137249470e-01    6,631625891e-01    0,000000000e+00    0,000000000e+00    0,000000000e+00    0,000000000e+00
      646000000   -5,571663380e-02    1,223161165e-02    2,739107609e-01    6,030831337e-01    0,000000000e+00    0,000000000e+00    0,000000000e+00    0,000000000e+00
      660000000   -4,870552942e-02   -8,747004904e-03    5,573493242e-01    3,399847746e-01    0,000000000e+00    0,000000000e+00    0,000000000e+00    0,000000000e+00
      674000000   -5,564562604e-02   -9,788810275e-03    6,443889737e-01   -3,922031447e-02    0,000000000e+00    0,000000000e+00    0,000000000e+00    0,000000000e+00
      688000000   -4,995464906e-02    2,367813373e-03    4,933684766e-01   -4,023744166e-01    0,000000000e+00    0,000000000e+00    0,000000000e+00    0,000000000e+00
      702000000   -2,518615499e-02    7,148642093e-03    1,601276994e-01   -6,046898365e-01    0,000000000e+00    0,000000000e+00    0,000000000e+00    0,000000000e+00
      716000000   -1,488605165e-03   -8,836131543e-03   -2,185932696e-01   -5,763615370e-01    0,000000000e+00    0,000000000e+00    0,000000000e+00    0,000000000e+00
      730000000    9,330164641e-03   -3,513983265e-02   -5,095310211e-01   -3,339075744e-01    0,000000000e+00    0,000000000e+00    0,000000000e+00    0,000000000e+00
      744000000    1,632454433e-02   -6,009942293e-02   -6,008501649e-01    3,280235082e-02    0,000000000e+00    0,000000000e+00    0,000000000e+00    0,000000000e+00
      758000000    2,225771360e-02   -1,040377170e-01   -4,546514452e-01    3,768988848e-01    0,000000000e+00    0,000000000e+00    0,000000000e+00    0,000000000e+00
      772000000   -4,308908246e-03   -1,737114936e-01   -1,397475302e-01    5,581559539e-01    0,000000000e+00    0,000000000e+00    0,000000000e+00    0,000000000e+00
      786000000   -1,046613008e-01   -2,321250588e-01    2,118461579e-01    5,200155377e-01    0,000000000e+00    0,000000000e+00    0,000000000e+00    0,000000000e+00
      800000000   -2,652113438e-01   -1,923135221e-01    4,707469344e-01    2,753130794e-01    0,000000000e+00    0,000000000e+00    0,000000000e+00    0,000000000e+00
      814000000   -3,641488850e-01    4,356694408e-03    5,083146691e-01   -8,829226345e-02    0,000000000e+00    0,000000000e+00    0,000000000e+00    0,000000000e+00
      828000000   -2,472410202e-01    2,328854799e-01    2,809405327e-01   -3,523968458e-01    0,000000000e+00    0,000000000e+00    0,000000000e+00    0,000000000e+00
      842000000    1,257340517e-02    2,782412469e-01   -1,617955416e-02   -3,627887070e-01    0,000000000e+00    0,000000000e+00    0,000000000e+00    0,000000000e+00
      856000000    2,129670382e-01    1,156276539e-01   -1,874653250e-01   -2,046771646e-01    0,000000000e+00    0,000000000e+00    0,000000000e+00    0,000000000e+00
      870000000    2,391426712e-01   -1,479246169e-01   -2,001956254e-01   -2,544275485e-02    0,000000000e+00    0,000000000e+00    0,000000000e+00    0,000000000e+00
      884000000    3,808337450e-02   -3,879497051e-01   -1,033408940e-01    7,048446685e-02    0,000000000e+00    0,000000000e+00    0,000000000e+00    0,000000000e+00
      898000000   -3,688023686e-01   -3,422047496e-01   -1,663422398e-02    2,807025239e-02    0,000000000e+00    0,000000000e+00    0,000000000e+00    0,000000000e+00
      912000000   -4,669042826e-01    1,386091113e-01   -1,055228934e-01    3,126116097e-02    0,000000000e+00    0,000000000e+00    0,000000000e+00    0,000000000e+00
      926000000   -9,621978551e-02    3,503426015e-01   -1,286974996e-01    1,331775934e-01    0,000000000e+00    0,000000000e+00    0,000000000e+00    0,000000000e+00
      940000000    1,826188713e-01    1,954069138e-01   -3,874038905e-02    2,169726044e-01    0,000000000e+00    0,000000000e+00    0,000000000e+00    0,000000000e+00
      954000000    2,525695860e-01   -4,815226421e-02    7,949718833e-02    2,286306471e-01    0,000000000e+00    0,000000000e+00    0,000000000e+00    0,000000000e+00
      968000000    1,743092239e-01   -2,641746104e-01    1,919718981e-01    1,823527217e-01    0,000000000e+00    0,000000000e+00    0,000000000e+00    0,000000000e+00
      982000000   -1,473338623e-02   -3,929517269e-01    2,814426720e-01    8,047954738e-02    0,000000000e+00    0,000000000e+00    0,000000000e+00    0,000000000e+00
      996000000   -2,740833461e-01   -3,800711036e-01    3,078628480e-01   -7,966143638e-02    0,000000000e+00    0,000000000e+00    0,000000000e+00    0,000000000e+00
     1010000000   -4,738558829e-01   -1,706126779e-01    2,213675231e-01   -2,523085773e-01    0,000000000e+00    0,000000000e+00    0,000000000e+00    0,000000000e+00
     1024000000   -4,629594386e-01    1,150203645e-01    2,171103284e-02   -3,304054439e-01    0,000000000e+00    0,000000000e+00    0,000000000e+00    0,000000000e+00
     1038000000   -2,643045485e-01    2,948583663e-01   -1,744291335e-01   -2,475263625e-01    0,000000000e+00    0,000000000e+00    0,000000000e+00    0,000000000e+00
     1052000000   -3,454260528e-02    3,069484532e-01   -2,568340302e-01   -7,762827724e-02    0,000000000e+00    0,000000000e+00    0,000000000e+00    0,000000000e+00
     1066000000    1,294336021e-01    2,063887268e-01   -2,244841307e-01    8,520878106e-02    0,000000000e+00    0,000000000e+00    0,000000000e+00    0,000000000e+00
     1080000000    2,086666822e-01    4,590594769e-02   -1,200968400e-01    1,943438798e-01    0,000000000e+00    0,000000000e+00    0,000000000e+00    0,000000000e+00
     1094000000    2,036259174e-01   -1,281282008e-01    1,596803963e-02    2,355380505e-01    0,000000000e+00    0,000000000e+00    0,000000000e+00    0,000000000e+00
     1108000000    9,801284969e-02   -2,872549593e-01    1,700670272e-01    2,080603391e-01    0,000000000e+00    0,000000000e+00    0,000000000e+00    0,000000000e+00
     1122000000   -9,881540388e-02   -3,672083616e-01    3,154388666e-01    8,746383339e-02    0,000000000e+00    0,000000000e+00    0,000000000e+00    0,000000000e+00
     1136000000   -3,474307656e-01   -2,749295831e-01    3,932835758e-01   -1,513580978e-01    0,000000000e+00    0,000000000e+00    0,000000000e+00    0,000000000e+00
     1150000000   -4,099940360e-01    3,843361139e-02    2,408639491e-01   -4,349164367e-01    0,000000000e+00    0,000000000e+00    0,000000000e+00    0,000000000e+00
     1164000000   -1,632635891e-01    2,194085717e-01   -9,842702746e-02   -5,148459673e-01    0,000000000e+00    0,000000000e+00    0,000000000e+00    0,000000000e+00
     1178000000    7,254028320e-02    8,261887729e-02   -3,578838408e-01   -3,465768099e-01    0,000000000e+00    0,000000000e+00    0,000000000e+00    0,000000000e+00
     1192000000    7,557961345e-02   -1,772832870e-01   -4,533835351e-01   -8,637851477e-02    0,000000000e+00    0,000000000e+00    0,000000000e+00    0,000000000e+00
     1206000000   -1,626563221e-01   -3,264536262e-01   -3,678500950e-01    1,864724159e-01    0,000000000e+00    0,000000000e+00    0,000000000e+00    0,000000000e+00
     1220000000   -4,526036382e-01   -1,744883507e-01   -1,038591638e-01    3,297897577e-01    0,000000000e+00    0,000000000e+00    0,000000000e+00    0,000000000e+00
     1234000000   -4,712597728e-01    1,699167341e-01    1,374002099e-01    2,222358435e-01    0,000000000e+00    0,000000000e+00    0,000000000e+00    0,000000000e+00
     1248000000   -2,372184694e-01    3,502880633e-01    1,957967728e-01    3,210869431e-02    0,000000000e+00    0,000000000e+00    0,000000000e+00    0,000000000e+00
     1262000000    7,028991822e-03    3,266209662e-01    1,318918020e-01   -7,268732786e-02    0,000000000e+00    0,000000000e+00    0,000000000e+00    0,000000000e+00
     1276000000    1,500749588e-01    2,000587732e-01    4,873169959e-02   -9,810665250e-02    0,000000000e+00    0,000000000e+00    0,000000000e+00    0,000000000e+00
     1290000000    2,149321139e-01    3,025737405e-02    2,229505451e-03   -7,570629567e-02    0,000000000e+00    0,000000000e+00    0,000000000e+00    0,000000000e+00
     1304000000    2,062161714e-01   -1,431890726e-01   -2,421483770e-02   -2,904553153e-02    0,000000000e+00    0,000000000e+00    0,000000000e+00    0,000000000e+00
     1318000000    1,125318930e-01   -3,139582276e-01   -1,331724692e-02    1,946713589e-02    0,000000000e+00    0,000000000e+00    0,000000000e+00    0,000000000e+00
     1332000000   -6,995490938e-02   -4,318717420e-01    4,981363937e-02    6,942724437e-02    0,000000000e+00    0,000000000e+00    0,000000000e+00    0,000000000e+00
     1346000000   -3,283275366e-01   -4,383424520e-01    1,523453146e-01    3,948102146e-02    0,000000000e+00    0,000000000e+00    0,000000000e+00    0,000000000e+00
     1360000000   -5,506846309e-01   -2,417694628e-01    1,151906922e-01   -8,298758417e-02    0,000000000e+00    0,000000000e+00    0,000000000e+00    0,000000000e+00
     1374000000   -6,307048798e-01    2,709392831e-02    1,013470441e-01    5,533932522e-02    0,000000000e+00    0,000000000e+00    0,000000000e+00    0,000000000e+00
     1388000000   -5,189555287e-01    2,873035371e-01    2,225133479e-01   -8,688223548e-03    0,000000000e+00    0,000000000e+00    0,000000000e+00    0,000000000e+00
     1402000000   -2,982940376e-01    4,159728289e-01    2,207555920e-01   -8,905546367e-02    0,000000000e+00    0,000000000e+00    0,000000000e+00    0,000000000e+00
     1416000000   -9,405124933e-02    4,195107520e-01    1,942100972e-01   -1,248925999e-01    0,000000000e+00    0,000000000e+00    0,000000000e+00    0,000000000e+00
     1430000000    7,226912677e-02    3,358023763e-01    1,666533947e-01   -9,214720875e-02    0,000000000e+00    0,000000000e+00    0,000000000e+00    0,000000000e+00
     1444000000    1,742537171e-01    1,978214979e-01    1,456928700e-01   -1,063661203e-01    0,000000000e+00    0,000000000e+00    0,000000000e+00    0,000000000e+00
     1458000000    2,244819701e-01    3,619959950e-02    1,435216665e-01   -7,013665140e-02    0,000000000e+00    0,000000000e+00    0,000000000e+00    0,000000000e+00
     1472000000    2,047006190e-01   -1,450834870e-01    1,508246064e-01   -4,746336862e-02    0,000000000e+00    0,000000000e+00    0,000000000e+00    0,000000000e+00
     1486000000    1,080876440e-01   -3,199689984e-01    1,713251919e-01   -7,445193827e-03    0,000000000e+00    0,000000000e+00    0,000000000e+00    0,000000000e+00
     1500000000   -8,863870800e-02   -4,659386873e-01    2,203942984e-01    4,362851754e-02    0,000000000e+00    0,000000000e+00    0,000000000e+00    0,000000000e+00
