! NanoVNA-App
! Date: 2025-09-25 14:27:01
! Start: 100MHz Stop: 1,5GHz Points: 101
! S-Parameter data: F S11 S21 S12 S22
# Hz S RI R 50
!     Frequency           S11_Real           S11_Imag           S21_Real           S21_Imag           S12_Real           S12_Imag           S22_Real           S22_Imag
      100000000   -2,909654006e-02   -4,120339174e-03    3,745573461e-01   -7,220327258e-01    0,000000000e+00    0,000000000e+00    0,000000000e+00    0,000000000e+00
      114000000   -1,660283655e-02    1,159744710e-02   -8,900773525e-02   -8,058210015e-01    0,000000000e+00    0,000000000e+00    0,000000000e+00    0,000000000e+00
      128000000    3,400455927e-03    1,056269929e-02   -5,146182179e-01   -6,213108897e-01    0,000000000e+00    0,000000000e+00    0,000000000e+00    0,000000000e+00
      142000000    1,444287226e-02   -3,083466319e-03   -7,675271034e-01   -2,370327264e-01    0,000000000e+00    0,000000000e+00    0,000000000e+00    0,000000000e+00
      156000000    1,559139602e-02   -1,467483118e-02   -7,701805830e-01    2,236742973e-01    0,000000000e+00    0,000000000e+00    0,000000000e+00    0,000000000e+00
      170000000    1,650716737e-02   -2,253611200e-02   -5,188934207e-01    6,050869823e-01    0,000000000e+00    0,000000000e+00    0,000000000e+00    0,000000000e+00
      184000000    2,096258476e-02   -3,700316325e-02   -1,018535569e-01    7,868940234e-01    0,000000000e+00    0,000000000e+00    0,000000000e+00    0,000000000e+00
      198000000    1,311418787e-02   -6,259655952e-02    3,429011405e-01    7,132079601e-01    0,000000000e+00    0,000000000e+00    0,000000000e+00    0,000000000e+00
      212000000   -1,870051958e-02   -8,175811917e-02    6,783325076e-01    4,106760025e-01    0,000000000e+00    0,000000000e+00    0,000000000e+00    0,000000000e+00
      226000000   -6,212410703e-02   -6,972169131e-02    7,961946130e-01   -2,968718857e-02    0,000000000e+00    0,000000000e+00    0,000000000e+00    0,000000000e+00
      240000000   -8,333569020e-02   -2,604912035e-02    6,472030878e-01   -4,665923715e-01    0,000000000e+00    0,000000000e+00    0,000000000e+00    0,000000000e+00
      254000000   -6,440698355e-02    1,747171022e-02    2,774015069e-01   -7,431246042e-01    0,000000000e+00    0,000000000e+00    0,000000000e+00    0,000000000e+00
      268000000   -2,400772832e-02    2,950162627e-02   -1,770284623e-01   -7,648144364e-01    0,000000000e+00    0,000000000e+00    0,000000000e+00    0,000000000e+00
      282000000    4,147096537e-03    1,205314603e-02   -5,625201464e-01   -5,373579264e-01    0,000000000e+00    0,000000000e+00    0,000000000e+00    0,000000000e+00
      296000000    9,524627589e-03   -7,712083403e-03   -7,608507872e-01   -1,397692561e-01    0,000000000e+00    0,000000000e+00    0,000000000e+00    0,000000000e+00
      310000000    1,077132951e-02   -1,591547206e-02   -7,123986483e-01    2,972270846e-01    0,000000000e+00    0,000000000e+00    0,000000000e+00    0,000000000e+00
      324000000    1,945864968e-02   -2,650295384e-02   -4,290353358e-01    6,377734542e-01    0,000000000e+00    0,000000000e+00    0,000000000e+00    0,000000000e+00
      338000000    2,534968778e-02   -5,197383091e-02   -1,076894440e-02    7,606899738e-01    0,000000000e+00    0,000000000e+00    0,000000000e+00    0,000000000e+00
      352000000    7,342081517e-03   -8,524072915e-02    4,052358866e-01    6,411864758e-01    0,000000000e+00    0,000000000e+00    0,000000000e+00    0,000000000e+00
      366000000   -3,495005518e-02   -9,586518258e-02    6,907409430e-01    3,129396439e-01    0,000000000e+00    0,000000000e+00    0,000000000e+00    0,000000000e+00
      380000000   -7,162894309e-02   -7,122437656e-02    7,486103773e-01   -1,250542104e-01    0,000000000e+00    0,000000000e+00    0,000000000e+00    0,000000000e+00
      394000000   -7,340317219e-02   -3,245730326e-02    5,471724868e-01   -5,209031105e-01    0,000000000e+00    0,000000000e+00    0,000000000e+00    0,000000000e+00
      408000000   -4,689541087e-02   -1,546853688e-02    1,621146798e-01   -7,328642011e-01    0,000000000e+00    0,000000000e+00    0,000000000e+00    0,000000000e+00
      422000000   -2,823008411e-02   -3,145766258e-02   -2,658274174e-01   -6,966306567e-01    0,000000000e+00    0,000000000e+00    0,000000000e+00    0,000000000e+00
      436000000   -4,005796090e-02   -5,175763369e-02   -6,024793983e-01   -4,338398278e-01    0,000000000e+00    0,000000000e+00    0,000000000e+00    0,000000000e+00
      450000000   -6,745699048e-02   -4,492534697e-02   -7,403990626e-01   -2,505170740e-02    0,000000000e+00    0,000000000e+00    0,000000000e+00    0,000000000e+00
      464000000   -7,408457249e-02   -1,214370038e-02   -6,207153201e-01    3,946899772e-01    0,000000000e+00    0,000000000e+00    0,000000000e+00    0,000000000e+00
      478000000   -4,904664680e-02    1,188833825e-02   -2,869153917e-01    6,675499082e-01    0,000000000e+00    0,000000000e+00    0,000000000e+00    0,000000000e+00
      492000000   -1,687269844e-02    6,314459257e-03    1,336714923e-01    7,040005922e-01    0,000000000e+00    0,000000000e+00    0,000000000e+00    0,000000000e+00
      506000000   -3,306156723e-03   -1,485458482e-02    4,979524314e-01    5,065378547e-01    0,000000000e+00    0,000000000e+00    0,000000000e+00    0,000000000e+00
      520000000   -5,942252465e-03   -3,018353134e-02    6,905789375e-01    1,440951824e-01    0,000000000e+00    0,000000000e+00    0,000000000e+00    0,000000000e+00
      534000000   -3,338917857e-03   -3,604482859e-02    6,449870467e-01   -2,598181963e-01    0,000000000e+00    0,000000000e+00    0,000000000e+00    0,000000000e+00
      548000000    7,796647027e-03   -5,295045301e-02    3,845333159e-01   -5,637692809e-01    0,000000000e+00    0,000000000e+00    0,000000000e+00    0,000000000e+00
      562000000    5,512938369e-03   -8,991520107e-02    8,706821129e-03   -6,731457114e-01    0,000000000e+00    0,000000000e+00    0,000000000e+00    0,000000000e+00
      576000000   -3,101094812e-02   -1,265272647e-01   -3,619459569e-01   -5,612354279e-01    0,000000000e+00    0,000000000e+00    0,000000000e+00    0,000000000e+00
      590000000   -9,472606331e-02   -1,277057976e-01   -6,178620458e-01   -2,729394436e-01    0,000000000e+00    0,000000000e+00    0,000000000e+00    0,000000000e+00
      604000000   -1,430263966e-01   -7,816327363e-02   -6,674370766e-01    1,256690770e-01    0,000000000e+00    0,000000000e+00    0,000000000e+00    0,000000000e+00
      618000000   -1,385414749e-01   -1,140199043e-02   -4,749552310e-01    4,864845276e-01    0,000000000e+00    0,000000000e+00    0,000000000e+00    0,000000000e+00
      632000000   -9,295965731e-02    2,213328518e-02   -1,139165461e-01    6,636642218e-01    0,000000000e+00    0,000000000e+00    0,000000000e+00    0,000000000e+00
      646000000   -5,513463542e-02    1,143614762e-02    2,738852501e-01    6,033956409e-01    0,000000000e+00    0,000000000e+00    0,000000000e+00    0,000000000e+00
      660000000   -4,824241251e-02   -7,884797640e-03    5,580706000e-01    3,401698172e-01    0,000000000e+00    0,000000000e+00    0,000000000e+00    0,000000000e+00
      674000000   -5,616909266e-02   -1,030028425e-02    6,443172693e-01   -3,960754350e-02    0,000000000e+00    0,000000000e+00    0,000000000e+00    0,000000000e+00
      688000000   -5,086670071e-02    2,800667426e-03    4,932037294e-01   -4,015396535e-01    0,000000000e+00    0,000000000e+00    0,000000000e+00    0,000000000e+00
      702000000   -2,625313401e-02    7,143507712e-03    1,624315828e-01   -6,068281531e-01    0,000000000e+00    0,000000000e+00    0,000000000e+00    0,000000000e+00
      716000000   -2,565027447e-03   -8,569171652e-03   -2,184024751e-01   -5,753763318e-01    0,000000000e+00    0,000000000e+00    0,000000000e+00    0,000000000e+00
      730000000    1,013240591e-02   -3,435109183e-02   -5,094350576e-01   -3,334752321e-01    0,000000000e+00    0,000000000e+00    0,000000000e+00    0,000000000e+00
      744000000    1,709448360e-02   -6,024078280e-02   -6,005050540e-01    3,312025592e-02    0,000000000e+00    0,000000000e+00    0,000000000e+00    0,000000000e+00
      758000000    2,166294493e-02   -1,030262113e-01   -4,548842907e-01    3,767822087e-01    0,000000000e+00    0,000000000e+00    0,000000000e+00    0,000000000e+00
      772000000   -4,921144806e-03   -1,737252027e-01   -1,392020434e-01    5,578120947e-01    0,000000000e+00    0,000000000e+00    0,000000000e+00    0,000000000e+00
      786000000   -1,051658541e-01   -2,315772474e-01    2,108765393e-01    5,201663375e-01    0,000000000e+00    0,000000000e+00    0,000000000e+00    0,000000000e+00
      800000000   -2,655509710e-01   -1,930703968e-01    4,716948867e-01    2,760439813e-01    0,000000000e+00    0,000000000e+00    0,000000000e+00    0,000000000e+00
      814000000   -3,652047813e-01    3,553672228e-03    5,081586838e-01   -8,870865405e-02    0,000000000e+00    0,000000000e+00    0,000000000e+00    0,000000000e+00
      828000000   -2,478049994e-01    2,322124690e-01    2,813763916e-01   -3,517801464e-01    0,000000000e+00    0,000000000e+00    0,000000000e+00    0,000000000e+00
      842000000    1,251904480e-02    2,784528732e-01   -1,587210223e-02   -3,626164496e-01    0,000000000e+00    0,000000000e+00    0,000000000e+00    0,000000000e+00
      856000000    2,129880637e-01    1,150475889e-01   -1,881108731e-01   -2,046636343e-01    0,000000000e+00    0,000000000e+00    0,000000000e+00    0,000000000e+00
      870000000    2,388213426e-01   -1,487739086e-01   -2,006532103e-01   -2,557324432e-02    0,000000000e+00    0,000000000e+00    0,000000000e+00    0,000000000e+00
      884000000    3,670107946e-02   -3,868441284e-01   -1,034954786e-01    7,069266587e-02    0,000000000e+00    0,000000000e+00    0,000000000e+00    0,000000000e+00
      898000000   -3,690255582e-01   -3,420584202e-01   -1,613415778e-02    2,781062573e-02    0,000000000e+00    0,000000000e+00    0,000000000e+00    0,000000000e+00
      912000000   -4,675929844e-01    1,380889118e-01   -1,218508184e-01    3,762767836e-02    0,000000000e+00    0,000000000e+00    0,000000000e+00    0,000000000e+00
      926000000   -9,609122574e-02    3,498694897e-01   -1,308379769e-01    1,324398220e-01    0,000000000e+00    0,000000000e+00    0,000000000e+00    0,000000000e+00
      940000000    1,843099296e-01    1,924860328e-01   -3,650001436e-02    2,139382362e-01    0,000000000e+00    0,000000000e+00    0,000000000e+00    0,000000000e+00
      954000000    2,540036440e-01   -4,604803398e-02    7,913157344e-02    2,264267802e-01    0,000000000e+00    0,000000000e+00    0,000000000e+00    0,000000000e+00
      968000000    1,780687422e-01   -2,626638412e-01    1,910282522e-01    1,803856045e-01    0,000000000e+00    0,000000000e+00    0,000000000e+00    0,000000000e+00
      982000000   -1,623009518e-02   -3,914975226e-01    2,786976397e-01    7,879028469e-02    0,000000000e+00    0,000000000e+00    0,000000000e+00    0,000000000e+00
      996000000   -2,726934552e-01   -3,788249493e-01    3,092500269e-01   -7,802935690e-02    0,000000000e+00    0,000000000e+00    0,000000000e+00    0,000000000e+00
     1010000000   -4,724540114e-01   -1,735956073e-01    2,219536006e-01   -2,528752685e-01    0,000000000e+00    0,000000000e+00    0,000000000e+00    0,000000000e+00
     1024000000   -4,604847729e-01    1,140208468e-01    2,203020081e-02   -3,311541378e-01    0,000000000e+00    0,000000000e+00    0,000000000e+00    0,000000000e+00
     1038000000   -2,623010874e-01    2,942547202e-01   -1,713525206e-01   -2,479142696e-01    0,000000000e+00    0,000000000e+00    0,000000000e+00    0,000000000e+00
     1052000000   -3,450829536e-02    3,088088632e-01   -2,576017976e-01   -7,769922912e-02    0,000000000e+00    0,000000000e+00    0,000000000e+00    0,000000000e+00
     1066000000    1,260870844e-01    2,078620791e-01   -2,211953402e-01    8,170487732e-02    0,000000000e+00    0,000000000e+00    0,000000000e+00    0,000000000e+00
     1080000000    2,066011727e-01    4,826299101e-02   -1,198370829e-01    1,923812479e-01    0,000000000e+00    0,000000000e+00    0,000000000e+00    0,000000000e+00
     1094000000    1,985833645e-01   -1,278483868e-01    1,978920959e-02    2,338060588e-01    0,000000000e+00    0,000000000e+00    0,000000000e+00    0,000000000e+00
     1108000000    1,027158275e-01   -2,842938900e-01    1,681364030e-01    2,059437335e-01    0,000000000e+00    0,000000000e+00    0,000000000e+00    0,000000000e+00
     1122000000   -1,022426635e-01   -3,670171499e-01    3,171055317e-01    8,687327057e-02    0,000000000e+00    0,000000000e+00    0,000000000e+00    0,000000000e+00
     1136000000   -3,506052792e-01   -2,687733471e-01    3,916309476e-01   -1,507292241e-01    0,000000000e+00    0,000000000e+00    0,000000000e+00    0,000000000e+00
     1150000000   -4,089229107e-01    3,184024245e-02    2,398996800e-01   -4,377228022e-01    0,000000000e+00    0,000000000e+00    0,000000000e+00    0,000000000e+00
     1164000000   -1,618609130e-01    2,195945978e-01   -9,572946280e-02   -5,157268047e-01    0,000000000e+00    0,000000000e+00    0,000000000e+00    0,000000000e+00
     1178000000    7,521465421e-02    8,586640656e-02   -3,558847606e-01   -3,463959694e-01    0,000000000e+00    0,000000000e+00    0,000000000e+00    0,000000000e+00
     1192000000    7,405474782e-02   -1,771089435e-01   -4,528023005e-01   -8,568560332e-02    0,000000000e+00    0,000000000e+00    0,000000000e+00    0,000000000e+00
     1206000000   -1,608364582e-01   -3,276964426e-01   -3,658374548e-01    1,893442869e-01    0,000000000e+00    0,000000000e+00    0,000000000e+00    0,000000000e+00
     1220000000   -4,532254040e-01   -1,736233830e-01   -1,052545831e-01    3,296300173e-01    0,000000000e+00    0,000000000e+00    0,000000000e+00    0,000000000e+00
     1234000000   -4,750297666e-01    1,686950475e-01    1,354175061e-01    2,233169079e-01    0,000000000e+00    0,000000000e+00    0,000000000e+00    0,000000000e+00
     1248000000   -2,347645015e-01    3,577215672e-01    1,897908896e-01    3,939443827e-02    0,000000000e+00    0,000000000e+00    0,000000000e+00    0,000000000e+00
     1262000000    3,464074805e-03    3,307757974e-01    1,261048913e-01   -6,907770038e-02    0,000000000e+00    0,000000000e+00    0,000000000e+00    0,000000000e+00
     1276000000    1,491120160e-01    1,978948861e-01    5,315493420e-02   -9,522929788e-02    0,000000000e+00    0,000000000e+00    0,000000000e+00    0,000000000e+00
     1290000000    2,191462070e-01    3,297111019e-02    2,063225256e-03   -7,150666416e-02    0,000000000e+00    0,000000000e+00    0,000000000e+00    0,000000000e+00
     1304000000    2,062621564e-01   -1,475774497e-01   -1,491819229e-02   -3,033534624e-02    0,000000000e+00    0,000000000e+00    0,000000000e+00    0,000000000e+00
     1318000000    1,132683083e-01   -3,101370633e-01   -8,753604256e-03    1,609586738e-02    0,000000000e+00    0,000000000e+00    0,000000000e+00    0,000000000e+00
     1332000000   -6,585012376e-02   -4,340429306e-01    4,170485213e-02    6,973569840e-02    0,000000000e+00    0,000000000e+00    0,000000000e+00    0,000000000e+00
     1346000000   -3,380490839e-01   -4,341130555e-01    1,353785247e-01    4,769580066e-02    0,000000000e+00    0,000000000e+00    0,000000000e+00    0,000000000e+00
     1360000000   -5,554094315e-01   -2,483251691e-01    1,060256958e-01   -8,646156639e-02    0,000000000e+00    0,000000000e+00    0,000000000e+00    0,000000000e+00
     1374000000   -6,189675927e-01    3,273318708e-02    1,200890020e-01    5,318395421e-02    0,000000000e+00    0,000000000e+00    0,000000000e+00    0,000000000e+00
     1388000000   -5,108408928e-01    2,972597182e-01    2,331086546e-01    9,675438516e-03    0,000000000e+00    0,000000000e+00    0,000000000e+00    0,000000000e+00
     1402000000   -2,990600169e-01    4,229688346e-01    2,237129211e-01   -6,602676213e-02    0,000000000e+00    0,000000000e+00    0,000000000e+00    0,000000000e+00
     1416000000   -8,946903795e-02    4,115805328e-01    1,858463436e-01   -1,178737506e-01    0,000000000e+00    0,000000000e+00    0,000000000e+00    0,000000000e+00
     1430000000    8,077841252e-02    3,300476074e-01    1,738262773e-01   -1,444910914e-01    0,000000000e+00    0,000000000e+00    0,000000000e+00    0,000000000e+00
     1444000000    1,738648117e-01    1,994487792e-01    1,507347822e-01   -1,070586368e-01    0,000000000e+00    0,000000000e+00    0,000000000e+00    0,000000000e+00
     1458000000    2,244894654e-01    3,428046033e-02    1,507187784e-01   -7,445660233e-02    0,000000000e+00    0,000000000e+00    0,000000000e+00    0,000000000e+00
     1472000000    2,101063579e-01   -1,468663812e-01    1,538771391e-01   -5,890000239e-02    0,000000000e+00    0,000000000e+00    0,000000000e+00    0,000000000e+00
     1486000000    1,047934368e-01   -3,230373561e-01    1,692554504e-01    5,595763214e-03    0,000000000e+00    0,000000000e+00    0,000000000e+00    0,000000000e+00
     1500000000   -9,163714200e-02   -4,645667672e-01    1,980722249e-01    4,765182734e-02    0,000000000e+00    0,000000000e+00    0,000000000e+00    0,000000000e+00
