! NanoVNA-App
! Date: 2025-09-25 14:21:55
! Start: 100MHz Stop: 1,5GHz Points: 101
! S-Parameter data: F S11 S21 S12 S22
# Hz S RI R 50
!     Frequency           S11_Real           S11_Imag           S21_Real           S21_Imag           S12_Real           S12_Imag           S22_Real           S22_Imag
      100000000   -2,908571064e-02   -4,128552508e-03    3,744707406e-01   -7,220627069e-01    0,000000000e+00    0,000000000e+00    0,000000000e+00    0,000000000e+00
      114000000   -1,659966819e-02    1,162992045e-02   -8,881802112e-02   -8,059407473e-01    0,000000000e+00    0,000000000e+00    0,000000000e+00    0,000000000e+00
      128000000    3,410883714e-03    1,052319817e-02   -5,146555901e-01   -6,208952665e-01    0,000000000e+00    0,000000000e+00    0,000000000e+00    0,000000000e+00
      142000000    1,446590852e-02   -3,059347626e-03   -7,674253583e-01   -2,368390858e-01    0,000000000e+00    0,000000000e+00    0,000000000e+00    0,000000000e+00
      156000000    1,460510958e-02   -1,512349863e-02   -7,662314773e-01    2,214274704e-01    0,000000000e+00    0,000000000e+00    0,000000000e+00    0,000000000e+00
      170000000    1,654839888e-02   -2,255793475e-02   -5,188970566e-01    6,050686240e-01    0,000000000e+00    0,000000000e+00    0,000000000e+00    0,000000000e+00
      184000000    2,096250467e-02   -3,710724786e-02   -1,017834991e-01    7,866184115e-01    0,000000000e+00    0,000000000e+00    0,000000000e+00    0,000000000e+00
      198000000    1,304598805e-02   -6,256153435e-02    3,429733217e-01    7,129957080e-01    0,000000000e+00    0,000000000e+00    0,000000000e+00    0,000000000e+00
      212000000   -1,872834750e-02   -8,169523627e-02    6,783151627e-01    4,103749394e-01    0,000000000e+00    0,000000000e+00    0,000000000e+00    0,000000000e+00
      226000000   -6,201757863e-02   -6,965862960e-02    7,961273193e-01   -2,981255203e-02    0,000000000e+00    0,000000000e+00    0,000000000e+00    0,000000000e+00
      240000000   -8,318153024e-02   -2,607657574e-02    6,473807096e-01   -4,666140676e-01    0,000000000e+00    0,000000000e+00    0,000000000e+00    0,000000000e+00
      254000000   -6,434526294e-02    1,730298810e-02    2,772560418e-01   -7,441068292e-01    0,000000000e+00    0,000000000e+00    0,000000000e+00    0,000000000e+00
      268000000   -2,428306825e-02    2,951767296e-02   -1,773954481e-01   -7,648774385e-01    0,000000000e+00    0,000000000e+00    0,000000000e+00    0,000000000e+00
      282000000    4,162591416e-03    1,222291682e-02   -5,622906089e-01   -5,371616483e-01    0,000000000e+00    0,000000000e+00    0,000000000e+00    0,000000000e+00
      296000000    9,627494961e-03   -7,700746413e-03   -7,604991198e-01   -1,394713521e-01    0,000000000e+00    0,000000000e+00    0,000000000e+00    0,000000000e+00
      310000000    1,092457306e-02   -1,605027914e-02   -7,138236165e-01    2,969768345e-01    0,000000000e+00    0,000000000e+00    0,000000000e+00    0,000000000e+00
      324000000    1,937898435e-02   -2,636750974e-02   -4,282954335e-01    6,382505298e-01    0,000000000e+00    0,000000000e+00    0,000000000e+00    0,000000000e+00
      338000000    2,555465885e-02   -5,224209279e-02   -1,063884422e-02    7,633664012e-01    0,000000000e+00    0,000000000e+00    0,000000000e+00    0,000000000e+00
      352000000    7,236885838e-03   -8,479033411e-02    4,058479965e-01    6,415116191e-01    0,000000000e+00    0,000000000e+00    0,000000000e+00    0,000000000e+00
      366000000   -3,479392827e-02   -9,599962831e-02    6,906855702e-01    3,123240173e-01    0,000000000e+00    0,000000000e+00    0,000000000e+00    0,000000000e+00
      380000000   -7,123531401e-02   -7,097749412e-02    7,485418320e-01   -1,248322502e-01    0,000000000e+00    0,000000000e+00    0,000000000e+00    0,000000000e+00
      394000000   -7,340407372e-02   -3,223839402e-02    5,461898446e-01   -5,209369659e-01    0,000000000e+00    0,000000000e+00    0,000000000e+00    0,000000000e+00
      408000000   -4,696890339e-02   -1,569963805e-02    1,631739438e-01   -7,318130732e-01    0,000000000e+00    0,000000000e+00    0,000000000e+00    0,000000000e+00
      422000000   -2,844281122e-02   -3,152293339e-02   -2,655914724e-01   -6,956281662e-01    0,000000000e+00    0,000000000e+00    0,000000000e+00    0,000000000e+00
      436000000   -4,011122882e-02   -5,209989473e-02   -6,023058295e-01   -4,336719215e-01    0,000000000e+00    0,000000000e+00    0,000000000e+00    0,000000000e+00
      450000000   -6,767060608e-02   -4,452249035e-02   -7,406842709e-01   -2,477682754e-02    0,000000000e+00    0,000000000e+00    0,000000000e+00    0,000000000e+00
      464000000   -7,432490587e-02   -1,220600307e-02   -6,219379902e-01    3,947222233e-01    0,000000000e+00    0,000000000e+00    0,000000000e+00    0,000000000e+00
      478000000   -4,928701371e-02    1,170528121e-02   -2,865187526e-01    6,672764421e-01    0,000000000e+00    0,000000000e+00    0,000000000e+00    0,000000000e+00
      492000000   -1,672737859e-02    6,682060659e-03    1,353729367e-01    7,043085694e-01    0,000000000e+00    0,000000000e+00    0,000000000e+00    0,000000000e+00
      506000000   -3,851798363e-03   -1,522219740e-02    4,977520406e-01    5,060455203e-01    0,000000000e+00    0,000000000e+00    0,000000000e+00    0,000000000e+00
      520000000   -5,977810360e-03   -2,942482568e-02    6,897132397e-01    1,443687528e-01    0,000000000e+00    0,000000000e+00    0,000000000e+00    0,000000000e+00
      534000000   -3,455331316e-03   -3,580844775e-02    6,446577907e-01   -2,599026859e-01    0,000000000e+00    0,000000000e+00    0,000000000e+00    0,000000000e+00
      548000000    8,190151304e-03   -5,280657858e-02    3,849816322e-01   -5,648120046e-01    0,000000000e+00    0,000000000e+00    0,000000000e+00    0,000000000e+00
      562000000    5,530765280e-03   -8,980404586e-02    7,716556080e-03   -6,723034978e-01    0,000000000e+00    0,000000000e+00    0,000000000e+00    0,000000000e+00
      576000000   -3,141706437e-02   -1,259064227e-01   -3,620573580e-01   -5,609726906e-01    0,000000000e+00    0,000000000e+00    0,000000000e+00    0,000000000e+00
      590000000   -9,486721456e-02   -1,277489364e-01   -6,182010770e-01   -2,723681927e-01    0,000000000e+00    0,000000000e+00    0,000000000e+00    0,000000000e+00
      604000000   -1,427776664e-01   -7,805005461e-02   -6,671636105e-01    1,262163073e-01    0,000000000e+00    0,000000000e+00    0,000000000e+00    0,000000000e+00
      618000000   -1,385139227e-01   -1,160319708e-02   -4,756641984e-01    4,851699471e-01    0,000000000e+00    0,000000000e+00    0,000000000e+00    0,000000000e+00
      632000000   -9,302045405e-02    2,118718065e-02   -1,143697277e-01    6,630938053e-01    0,000000000e+00    0,000000000e+00    0,000000000e+00    0,000000000e+00
      646000000   -5,488555878e-02    1,125411876e-02    2,731449902e-01    6,036376357e-01    0,000000000e+00    0,000000000e+00    0,000000000e+00    0,000000000e+00
      660000000   -4,863413051e-02   -8,785028942e-03    5,570324063e-01    3,392782509e-01    0,000000000e+00    0,000000000e+00    0,000000000e+00    0,000000000e+00
      674000000   -5,620632321e-02   -1,051861700e-02    6,444292068e-01   -3,966314346e-02    0,000000000e+00    0,000000000e+00    0,000000000e+00    0,000000000e+00
      688000000   -5,091521144e-02    2,601546003e-03    4,937577844e-01   -4,016977549e-01    0,000000000e+00    0,000000000e+00    0,000000000e+00    0,000000000e+00
      702000000   -2,600931376e-02    6,556514185e-03    1,623991728e-01   -6,012881398e-01    0,000000000e+00    0,000000000e+00    0,000000000e+00    0,000000000e+00
      716000000   -2,168911509e-03   -8,384167217e-03   -2,187055796e-01   -5,750944018e-01    0,000000000e+00    0,000000000e+00    0,000000000e+00    0,000000000e+00
      730000000    1,010726020e-02   -3,512540832e-02   -5,089015365e-01   -3,330997527e-01    0,000000000e+00    0,000000000e+00    0,000000000e+00    0,000000000e+00
      744000000    1,743114367e-02   -6,085855886e-02   -6,006878614e-01    3,311510757e-02    0,000000000e+00    0,000000000e+00    0,000000000e+00    0,000000000e+00
      758000000    2,149879001e-02   -1,038914844e-01   -4,547674656e-01    3,779873550e-01    0,000000000e+00    0,000000000e+00    0,000000000e+00    0,000000000e+00
      772000000   -4,598997068e-03   -1,731151193e-01   -1,400251687e-01    5,577123761e-01    0,000000000e+00    0,000000000e+00    0,000000000e+00    0,000000000e+00
      786000000   -1,056656912e-01   -2,320144475e-01    2,121469527e-01    5,196909904e-01    0,000000000e+00    0,000000000e+00    0,000000000e+00    0,000000000e+00
      800000000   -2,654116452e-01   -1,929954439e-01    4,712287486e-01    2,756219506e-01    0,000000000e+00    0,000000000e+00    0,000000000e+00    0,000000000e+00
      814000000   -3,647119403e-01    3,191181226e-03    5,076324940e-01   -8,893827349e-02    0,000000000e+00    0,000000000e+00    0,000000000e+00    0,000000000e+00
      828000000   -2,472252846e-01    2,342988402e-01    2,812039852e-01   -3,522695601e-01    0,000000000e+00    0,000000000e+00    0,000000000e+00    0,000000000e+00
      842000000    1,343971770e-02    2,783871889e-01   -1,578887738e-02   -3,632907271e-01    0,000000000e+00    0,000000000e+00    0,000000000e+00    0,000000000e+00
      856000000    2,125529051e-01    1,152675599e-01   -1,883131266e-01   -2,043995261e-01    0,000000000e+00    0,000000000e+00    0,000000000e+00    0,000000000e+00
      870000000    2,385655344e-01   -1,483803391e-01   -2,007215172e-01   -2,526004799e-02    0,000000000e+00    0,000000000e+00    0,000000000e+00    0,000000000e+00
      884000000    3,783788905e-02   -3,859738111e-01   -1,036215946e-01    7,072751224e-02    0,000000000e+00    0,000000000e+00    0,000000000e+00    0,000000000e+00
      898000000   -3,696047664e-01   -3,418530524e-01   -1,662536524e-02    2,711632475e-02    0,000000000e+00    0,000000000e+00    0,000000000e+00    0,000000000e+00
      912000000   -4,662027359e-01    1,382973492e-01   -1,238772646e-01    3,324550763e-02    0,000000000e+00    0,000000000e+00    0,000000000e+00    0,000000000e+00
      926000000   -9,608274698e-02    3,494456708e-01   -1,299945414e-01    1,342007220e-01    0,000000000e+00    0,000000000e+00    0,000000000e+00    0,000000000e+00
      940000000    1,827648729e-01    1,917807013e-01   -3,850038350e-02    2,163955420e-01    0,000000000e+00    0,000000000e+00    0,000000000e+00    0,000000000e+00
      954000000    2,528324425e-01   -4,655994475e-02    7,822618634e-02    2,293812931e-01    0,000000000e+00    0,000000000e+00    0,000000000e+00    0,000000000e+00
      968000000    1,744900942e-01   -2,639617324e-01    1,908155233e-01    1,806051731e-01    0,000000000e+00    0,000000000e+00    0,000000000e+00    0,000000000e+00
      982000000   -1,570492610e-02   -3,923747241e-01    2,799084783e-01    8,030152321e-02    0,000000000e+00    0,000000000e+00    0,000000000e+00    0,000000000e+00
      996000000   -2,741439939e-01   -3,747445941e-01    3,100275397e-01   -7,966630906e-02    0,000000000e+00    0,000000000e+00    0,000000000e+00    0,000000000e+00
     1010000000   -4,727479517e-01   -1,711651683e-01    2,214234918e-01   -2,526790202e-01    0,000000000e+00    0,000000000e+00    0,000000000e+00    0,000000000e+00
     1024000000   -4,554307163e-01    1,174990460e-01    2,066249028e-02   -3,294176161e-01    0,000000000e+00    0,000000000e+00    0,000000000e+00    0,000000000e+00
     1038000000   -2,630250156e-01    3,006327450e-01   -1,743923277e-01   -2,496887892e-01    0,000000000e+00    0,000000000e+00    0,000000000e+00    0,000000000e+00
     1052000000   -3,546702489e-02    3,113301992e-01   -2,564517558e-01   -7,798486203e-02    0,000000000e+00    0,000000000e+00    0,000000000e+00    0,000000000e+00
     1066000000    1,243653446e-01    2,064691782e-01   -2,246508449e-01    8,504371345e-02    0,000000000e+00    0,000000000e+00    0,000000000e+00    0,000000000e+00
     1080000000    2,061538845e-01    4,548526183e-02   -1,226988286e-01    1,924047321e-01    0,000000000e+00    0,000000000e+00    0,000000000e+00    0,000000000e+00
     1094000000    2,026689053e-01   -1,308379024e-01    1,691282913e-02    2,356593609e-01    0,000000000e+00    0,000000000e+00    0,000000000e+00    0,000000000e+00
     1108000000    1,030671746e-01   -2,883685231e-01    1,674562544e-01    2,061309665e-01    0,000000000e+00    0,000000000e+00    0,000000000e+00    0,000000000e+00
     1122000000   -1,032797918e-01   -3,696122169e-01    3,187147081e-01    8,996105939e-02    0,000000000e+00    0,000000000e+00    0,000000000e+00    0,000000000e+00
     1136000000   -3,424381614e-01   -2,664813697e-01    3,929543495e-01   -1,516652554e-01    0,000000000e+00    0,000000000e+00    0,000000000e+00    0,000000000e+00
     1150000000   -4,060357213e-01    3,150498867e-02    2,417336106e-01   -4,364601970e-01    0,000000000e+00    0,000000000e+00    0,000000000e+00    0,000000000e+00
     1164000000   -1,557415277e-01    2,149161994e-01   -9,578377753e-02   -5,183761120e-01    0,000000000e+00    0,000000000e+00    0,000000000e+00    0,000000000e+00
     1178000000    7,825598121e-02    8,642776310e-02   -3,568595946e-01   -3,455543220e-01    0,000000000e+00    0,000000000e+00    0,000000000e+00    0,000000000e+00
     1192000000    7,239980251e-02   -1,766064614e-01   -4,526240528e-01   -8,456617594e-02    0,000000000e+00    0,000000000e+00    0,000000000e+00    0,000000000e+00
     1206000000   -1,626372486e-01   -3,277517855e-01   -3,700532019e-01    1,886908114e-01    0,000000000e+00    0,000000000e+00    0,000000000e+00    0,000000000e+00
     1220000000   -4,568891823e-01   -1,756554395e-01   -1,060839593e-01    3,273687661e-01    0,000000000e+00    0,000000000e+00    0,000000000e+00    0,000000000e+00
     1234000000   -4,722249508e-01    1,613742709e-01    1,378023773e-01    2,210841477e-01    0,000000000e+00    0,000000000e+00    0,000000000e+00    0,000000000e+00
     1248000000   -2,324230820e-01    3,498136401e-01    1,912529767e-01    3,380181268e-02    0,000000000e+00    0,000000000e+00    0,000000000e+00    0,000000000e+00
     1262000000    9,264572524e-03    3,241945803e-01    1,307628751e-01   -7,061214745e-02    0,000000000e+00    0,000000000e+00    0,000000000e+00    0,000000000e+00
     1276000000    1,583011001e-01    2,016050369e-01    5,435511842e-02   -9,356641769e-02    0,000000000e+00    0,000000000e+00    0,000000000e+00    0,000000000e+00
     1290000000    2,186079770e-01    3,480562195e-02    1,514732488e-03   -7,009401172e-02    0,000000000e+00    0,000000000e+00    0,000000000e+00    0,000000000e+00
     1304000000    2,055342197e-01   -1,440157592e-01   -1,933186129e-02   -2,712904662e-02    0,000000000e+00    0,000000000e+00    0,000000000e+00    0,000000000e+00
     1318000000    1,151001900e-01   -3,130833209e-01   -3,336932044e-03    1,631892286e-02    0,000000000e+00    0,000000000e+00    0,000000000e+00    0,000000000e+00
     1332000000   -6,722334772e-02   -4,327925742e-01    4,696216434e-02    5,926235020e-02    0,000000000e+00    0,000000000e+00    0,000000000e+00    0,000000000e+00
     1346000000   -3,294876218e-01   -4,349367917e-01    1,496915072e-01    4,259255156e-02    0,000000000e+00    0,000000000e+00    0,000000000e+00    0,000000000e+00
     1360000000   -5,635127425e-01   -2,400830686e-01    1,070319116e-01   -6,889941543e-02    0,000000000e+00    0,000000000e+00    0,000000000e+00    0,000000000e+00
     1374000000   -6,365333200e-01    2,969127335e-02    1,051563397e-01    5,403723940e-02    0,000000000e+00    0,000000000e+00    0,000000000e+00    0,000000000e+00
     1388000000   -5,122110844e-01    2,933093011e-01    2,263676524e-01    5,896599032e-03    0,000000000e+00    0,000000000e+00    0,000000000e+00    0,000000000e+00
     1402000000   -3,105785847e-01    4,208100736e-01    2,144947350e-01   -8,233821392e-02    0,000000000e+00    0,000000000e+00    0,000000000e+00    0,000000000e+00
     1416000000   -8,988499641e-02    4,171671867e-01    1,976024657e-01   -1,195217818e-01    0,000000000e+00    0,000000000e+00    0,000000000e+00    0,000000000e+00
     1430000000    7,327915728e-02    3,365951180e-01    1,616335064e-01   -1,251276135e-01    0,000000000e+00    0,000000000e+00    0,000000000e+00    0,000000000e+00
     1444000000    1,799527556e-01    2,033467889e-01    1,583706290e-01   -9,642669559e-02    0,000000000e+00    0,000000000e+00    0,000000000e+00    0,000000000e+00
     1458000000    2,231790870e-01    3,335130215e-02    1,526350528e-01   -7,533885539e-02    0,000000000e+00    0,000000000e+00    0,000000000e+00    0,000000000e+00
     1472000000    2,039011419e-01   -1,469119787e-01    1,590988338e-01   -5,731330067e-02    0,000000000e+00    0,000000000e+00    0,000000000e+00    0,000000000e+00
     1486000000    1,010013744e-01   -3,241617084e-01    1,586585492e-01    1,884514000e-03    0,000000000e+00    0,000000000e+00    0,000000000e+00    0,000000000e+00
     1500000000   -9,194292873e-02   -4,537042379e-01    2,162851393e-01    3,520155326e-02    0,000000000e+00    0,000000000e+00    0,000000000e+00    0,000000000e+00
