! NanoVNA-App
! Date: 2025-09-25 14:22:00
! Start: 100MHz Stop: 1,5GHz Points: 101
! S-Parameter data: F S11 S21 S12 S22
# Hz S RI R 50
!     Frequency           S11_Real           S11_Imag           S21_Real           S21_Imag           S12_Real           S12_Imag           S22_Real           S22_Imag
      100000000   -2,908294648e-02   -4,128049128e-03    3,744182289e-01   -7,221106291e-01    0,000000000e+00    0,000000000e+00    0,000000000e+00    0,000000000e+00
      114000000   -1,660482958e-02    1,162426174e-02   -8,893590420e-02   -8,058216572e-01    0,000000000e+00    0,000000000e+00    0,000000000e+00    0,000000000e+00
      128000000    3,416546155e-03    1,051281020e-02   -5,146490335e-01   -6,209138036e-01    0,000000000e+00    0,000000000e+00    0,000000000e+00    0,000000000e+00
      142000000    1,446958818e-02   -3,060359042e-03   -7,674933672e-01   -2,368275523e-01    0,000000000e+00    0,000000000e+00    0,000000000e+00    0,000000000e+00
      156000000    1,448806934e-02   -1,493434142e-02   -7,651752830e-01    2,182319909e-01    0,000000000e+00    0,000000000e+00    0,000000000e+00    0,000000000e+00
      170000000    1,658340916e-02   -2,248385735e-02   -5,190030336e-01    6,053540707e-01    0,000000000e+00    0,000000000e+00    0,000000000e+00    0,000000000e+00
      184000000    2,098044567e-02   -3,707110137e-02   -1,016987339e-01    7,868826389e-01    0,000000000e+00    0,000000000e+00    0,000000000e+00    0,000000000e+00
      198000000    1,305415947e-02   -6,260505319e-02    3,429766893e-01    7,130144835e-01    0,000000000e+00    0,000000000e+00    0,000000000e+00    0,000000000e+00
      212000000   -1,874583215e-02   -8,163522184e-02    6,783182025e-01    4,106051028e-01    0,000000000e+00    0,000000000e+00    0,000000000e+00    0,000000000e+00
      226000000   -6,206724420e-02   -6,962911040e-02    7,961523533e-01   -2,983402088e-02    0,000000000e+00    0,000000000e+00    0,000000000e+00    0,000000000e+00
      240000000   -8,320587128e-02   -2,604824677e-02    6,473200917e-01   -4,668611884e-01    0,000000000e+00    0,000000000e+00    0,000000000e+00    0,000000000e+00
      254000000   -6,436980516e-02    1,721833646e-02    2,769545913e-01   -7,437338829e-01    0,000000000e+00    0,000000000e+00    0,000000000e+00    0,000000000e+00
      268000000   -2,430895343e-02    2,956321277e-02   -1,772205830e-01   -7,650406361e-01    0,000000000e+00    0,000000000e+00    0,000000000e+00    0,000000000e+00
      282000000    4,183382727e-03    1,213317551e-02   -5,624722242e-01   -5,368792415e-01    0,000000000e+00    0,000000000e+00    0,000000000e+00    0,000000000e+00
      296000000    9,582462721e-03   -7,752212230e-03   -7,608498335e-01   -1,394367665e-01    0,000000000e+00    0,000000000e+00    0,000000000e+00    0,000000000e+00
      310000000    1,080600545e-02   -1,615909673e-02   -7,136454582e-01    2,970288396e-01    0,000000000e+00    0,000000000e+00    0,000000000e+00    0,000000000e+00
      324000000    1,951991767e-02   -2,643674798e-02   -4,284316599e-01    6,381242275e-01    0,000000000e+00    0,000000000e+00    0,000000000e+00    0,000000000e+00
      338000000    2,535178885e-02   -5,206308514e-02   -1,116054039e-02    7,604068518e-01    0,000000000e+00    0,000000000e+00    0,000000000e+00    0,000000000e+00
      352000000    7,472541649e-03   -8,484672010e-02    4,061816335e-01    6,408605576e-01    0,000000000e+00    0,000000000e+00    0,000000000e+00    0,000000000e+00
      366000000   -3,480656072e-02   -9,605077654e-02    6,908268929e-01    3,120960891e-01    0,000000000e+00    0,000000000e+00    0,000000000e+00    0,000000000e+00
      380000000   -7,120481879e-02   -7,104877383e-02    7,490999699e-01   -1,245753914e-01    0,000000000e+00    0,000000000e+00    0,000000000e+00    0,000000000e+00
      394000000   -7,321278006e-02   -3,225306422e-02    5,487062335e-01   -5,213941932e-01    0,000000000e+00    0,000000000e+00    0,000000000e+00    0,000000000e+00
      408000000   -4,696714506e-02   -1,585414074e-02    1,623524278e-01   -7,322889566e-01    0,000000000e+00    0,000000000e+00    0,000000000e+00    0,000000000e+00
      422000000   -2,860822342e-02   -3,132024780e-02   -2,655934095e-01   -6,961152554e-01    0,000000000e+00    0,000000000e+00    0,000000000e+00    0,000000000e+00
      436000000   -4,034299031e-02   -5,208206177e-02   -6,030560136e-01   -4,342078865e-01    0,000000000e+00    0,000000000e+00    0,000000000e+00    0,000000000e+00
      450000000   -6,761490554e-02   -4,470320046e-02   -7,409390211e-01   -2,514959313e-02    0,000000000e+00    0,000000000e+00    0,000000000e+00    0,000000000e+00
      464000000   -7,419653237e-02   -1,230589859e-02   -6,215530634e-01    3,952462971e-01    0,000000000e+00    0,000000000e+00    0,000000000e+00    0,000000000e+00
      478000000   -4,933555052e-02    1,183542982e-02   -2,869077027e-01    6,676446199e-01    0,000000000e+00    0,000000000e+00    0,000000000e+00    0,000000000e+00
      492000000   -1,665250584e-02    6,700047292e-03    1,341104656e-01    7,039777040e-01    0,000000000e+00    0,000000000e+00    0,000000000e+00    0,000000000e+00
      506000000   -3,651273437e-03   -1,538560912e-02    4,979571700e-01    5,062881112e-01    0,000000000e+00    0,000000000e+00    0,000000000e+00    0,000000000e+00
      520000000   -5,566339474e-03   -3,002453223e-02    6,916091442e-01    1,438794881e-01    0,000000000e+00    0,000000000e+00    0,000000000e+00    0,000000000e+00
      534000000   -3,153301077e-03   -3,605644405e-02    6,449331045e-01   -2,600587606e-01    0,000000000e+00    0,000000000e+00    0,000000000e+00    0,000000000e+00
      548000000    7,954144850e-03   -5,274866521e-02    3,848405480e-01   -5,644595027e-01    0,000000000e+00    0,000000000e+00    0,000000000e+00    0,000000000e+00
      562000000    6,078027654e-03   -8,911502361e-02    7,956629619e-03   -6,720995903e-01    0,000000000e+00    0,000000000e+00    0,000000000e+00    0,000000000e+00
      576000000   -3,117271326e-02   -1,262274384e-01   -3,622492254e-01   -5,608926415e-01    0,000000000e+00    0,000000000e+00    0,000000000e+00    0,000000000e+00
      590000000   -9,485486895e-02   -1,277747899e-01   -6,166587472e-01   -2,741521299e-01    0,000000000e+00    0,000000000e+00    0,000000000e+00    0,000000000e+00
      604000000   -1,430918574e-01   -7,796689123e-02   -6,672270894e-01    1,267255694e-01    0,000000000e+00    0,000000000e+00    0,000000000e+00    0,000000000e+00
      618000000   -1,385980099e-01   -1,100172196e-02   -4,752788842e-01    4,859030545e-01    0,000000000e+00    0,000000000e+00    0,000000000e+00    0,000000000e+00
      632000000   -9,359617531e-02    2,142531797e-02   -1,136810556e-01    6,627752185e-01    0,000000000e+00    0,000000000e+00    0,000000000e+00    0,000000000e+00
      646000000   -5,503749102e-02    1,239361428e-02    2,739968896e-01    6,029518843e-01    0,000000000e+00    0,000000000e+00    0,000000000e+00    0,000000000e+00
      660000000   -4,829947278e-02   -8,208436891e-03    5,571699739e-01    3,401431143e-01    0,000000000e+00    0,000000000e+00    0,000000000e+00    0,000000000e+00
      674000000   -5,557172373e-02   -1,102941670e-02    6,441081762e-01   -3,964285925e-02    0,000000000e+00    0,000000000e+00    0,000000000e+00    0,000000000e+00
      688000000   -4,970592633e-02    2,920521423e-03    4,929316640e-01   -4,018558264e-01    0,000000000e+00    0,000000000e+00    0,000000000e+00    0,000000000e+00
      702000000   -2,550221607e-02    8,420917206e-03    1,595256478e-01   -6,070153713e-01    0,000000000e+00    0,000000000e+00    0,000000000e+00    0,000000000e+00
      716000000   -1,861940487e-03   -8,401731960e-03   -2,193034589e-01   -5,751816034e-01    0,000000000e+00    0,000000000e+00    0,000000000e+00    0,000000000e+00
      730000000    9,086878039e-03   -3,419253975e-02   -5,094460249e-01   -3,337267339e-01    0,000000000e+00    0,000000000e+00    0,000000000e+00    0,000000000e+00
      744000000    1,624096744e-02   -6,125736982e-02   -6,008393764e-01    3,318854049e-02    0,000000000e+00    0,000000000e+00    0,000000000e+00    0,000000000e+00
      758000000    2,200572006e-02   -1,028802618e-01   -4,542097747e-01    3,771772087e-01    0,000000000e+00    0,000000000e+00    0,000000000e+00    0,000000000e+00
      772000000   -4,790864419e-03   -1,741596162e-01   -1,394465119e-01    5,583185554e-01    0,000000000e+00    0,000000000e+00    0,000000000e+00    0,000000000e+00
      786000000   -1,056701466e-01   -2,321427166e-01    2,124748230e-01    5,191141963e-01    0,000000000e+00    0,000000000e+00    0,000000000e+00    0,000000000e+00
      800000000   -2,651008666e-01   -1,924318224e-01    4,717619121e-01    2,748927474e-01    0,000000000e+00    0,000000000e+00    0,000000000e+00    0,000000000e+00
      814000000   -3,638331890e-01    4,154394846e-03    5,078003407e-01   -8,864113688e-02    0,000000000e+00    0,000000000e+00    0,000000000e+00    0,000000000e+00
      828000000   -2,469184399e-01    2,324445397e-01    2,811708450e-01   -3,520551324e-01    0,000000000e+00    0,000000000e+00    0,000000000e+00    0,000000000e+00
      842000000    1,380158029e-02    2,785385251e-01   -1,577435434e-02   -3,625978529e-01    0,000000000e+00    0,000000000e+00    0,000000000e+00    0,000000000e+00
      856000000    2,127745748e-01    1,153972670e-01   -1,879572272e-01   -2,042451352e-01    0,000000000e+00    0,000000000e+00    0,000000000e+00    0,000000000e+00
      870000000    2,386570275e-01   -1,486284733e-01   -2,004289329e-01   -2,503149770e-02    0,000000000e+00    0,000000000e+00    0,000000000e+00    0,000000000e+00
      884000000    3,756076097e-02   -3,868761063e-01   -1,041072384e-01    7,084361464e-02    0,000000000e+00    0,000000000e+00    0,000000000e+00    0,000000000e+00
      898000000   -3,701511621e-01   -3,410034478e-01   -1,660040393e-02    2,793187834e-02    0,000000000e+00    0,000000000e+00    0,000000000e+00    0,000000000e+00
      912000000   -4,658997655e-01    1,384572089e-01   -1,136078611e-01    2,329697460e-02    0,000000000e+00    0,000000000e+00    0,000000000e+00    0,000000000e+00
      926000000   -9,586530924e-02    3,519134223e-01   -1,280510873e-01    1,340649277e-01    0,000000000e+00    0,000000000e+00    0,000000000e+00    0,000000000e+00
      940000000    1,825646311e-01    1,948278695e-01   -3,864571825e-02    2,171966583e-01    0,000000000e+00    0,000000000e+00    0,000000000e+00    0,000000000e+00
      954000000    2,548408806e-01   -4,905610532e-02    7,845999300e-02    2,279425412e-01    0,000000000e+00    0,000000000e+00    0,000000000e+00    0,000000000e+00
      968000000    1,740019321e-01   -2,606033981e-01    1,915117651e-01    1,809262633e-01    0,000000000e+00    0,000000000e+00    0,000000000e+00    0,000000000e+00
      982000000   -1,898629591e-02   -3,943490982e-01    2,791669965e-01    7,915659249e-02    0,000000000e+00    0,000000000e+00    0,000000000e+00    0,000000000e+00
      996000000   -2,707418501e-01   -3,758510351e-01    3,098359406e-01   -8,075738698e-02    0,000000000e+00    0,000000000e+00    0,000000000e+00    0,000000000e+00
     1010000000   -4,684133828e-01   -1,687673479e-01    2,200978100e-01   -2,520749271e-01    0,000000000e+00    0,000000000e+00    0,000000000e+00    0,000000000e+00
     1024000000   -4,604804516e-01    1,185716838e-01    1,961088181e-02   -3,294367790e-01    0,000000000e+00    0,000000000e+00    0,000000000e+00    0,000000000e+00
     1038000000   -2,684344351e-01    2,981880307e-01   -1,721368283e-01   -2,487085164e-01    0,000000000e+00    0,000000000e+00    0,000000000e+00    0,000000000e+00
     1052000000   -3,706189990e-02    3,057035208e-01   -2,567957342e-01   -7,769975811e-02    0,000000000e+00    0,000000000e+00    0,000000000e+00    0,000000000e+00
     1066000000    1,254441738e-01    2,079774439e-01   -2,232955098e-01    8,717285842e-02    0,000000000e+00    0,000000000e+00    0,000000000e+00    0,000000000e+00
     1080000000    2,050176114e-01    4,671508074e-02   -1,199306175e-01    1,924383342e-01    0,000000000e+00    0,000000000e+00    0,000000000e+00    0,000000000e+00
     1094000000    2,019726485e-01   -1,253408492e-01    1,633323729e-02    2,328986973e-01    0,000000000e+00    0,000000000e+00    0,000000000e+00    0,000000000e+00
     1108000000    1,034102291e-01   -2,884559035e-01    1,674771905e-01    2,081963569e-01    0,000000000e+00    0,000000000e+00    0,000000000e+00    0,000000000e+00
     1122000000   -9,711346775e-02   -3,667552769e-01    3,156497478e-01    9,014645219e-02    0,000000000e+00    0,000000000e+00    0,000000000e+00    0,000000000e+00
     1136000000   -3,475774229e-01   -2,632558346e-01    3,935704827e-01   -1,507631838e-01    0,000000000e+00    0,000000000e+00    0,000000000e+00    0,000000000e+00
     1150000000   -4,113841653e-01    3,792413697e-02    2,455029935e-01   -4,366355538e-01    0,000000000e+00    0,000000000e+00    0,000000000e+00    0,000000000e+00
     1164000000   -1,637151092e-01    2,173312455e-01   -9,653270245e-02   -5,121270418e-01    0,000000000e+00    0,000000000e+00    0,000000000e+00    0,000000000e+00
     1178000000    7,327263057e-02    8,191449940e-02   -3,578220010e-01   -3,473199904e-01    0,000000000e+00    0,000000000e+00    0,000000000e+00    0,000000000e+00
     1192000000    7,341893017e-02   -1,720622629e-01   -4,550281167e-01   -8,394456655e-02    0,000000000e+00    0,000000000e+00    0,000000000e+00    0,000000000e+00
     1206000000   -1,610468477e-01   -3,257815838e-01   -3,667272627e-01    1,872855127e-01    0,000000000e+00    0,000000000e+00    0,000000000e+00    0,000000000e+00
     1220000000   -4,576961100e-01   -1,776855886e-01   -1,106832922e-01    3,312868178e-01    0,000000000e+00    0,000000000e+00    0,000000000e+00    0,000000000e+00
     1234000000   -4,679484367e-01    1,723341346e-01    1,411332339e-01    2,211679518e-01    0,000000000e+00    0,000000000e+00    0,000000000e+00    0,000000000e+00
     1248000000   -2,382172048e-01    3,599881232e-01    1,943761259e-01    3,348745406e-02    0,000000000e+00    0,000000000e+00    0,000000000e+00    0,000000000e+00
     1262000000    1,127338401e-04    3,291908503e-01    1,265072525e-01   -7,193159312e-02    0,000000000e+00    0,000000000e+00    0,000000000e+00    0,000000000e+00
     1276000000    1,524499804e-01    1,959267259e-01    4,936018959e-02   -9,471832216e-02    0,000000000e+00    0,000000000e+00    0,000000000e+00    0,000000000e+00
     1290000000    2,220803499e-01    3,049298003e-02    5,074434914e-03   -7,747319341e-02    0,000000000e+00    0,000000000e+00    0,000000000e+00    0,000000000e+00
     1304000000    2,075243294e-01   -1,443796307e-01   -1,938229613e-02   -3,036816418e-02    0,000000000e+00    0,000000000e+00    0,000000000e+00    0,000000000e+00
     1318000000    1,155735701e-01   -3,156082332e-01   -7,627325598e-03    1,796734519e-02    0,000000000e+00    0,000000000e+00    0,000000000e+00    0,000000000e+00
     1332000000   -6,572188437e-02   -4,317474961e-01    5,597691983e-02    6,159394607e-02    0,000000000e+00    0,000000000e+00    0,000000000e+00    0,000000000e+00
     1346000000   -3,277510703e-01   -4,334127307e-01    1,422843486e-01    4,207007959e-02    0,000000000e+00    0,000000000e+00    0,000000000e+00    0,000000000e+00
     1360000000   -5,526031852e-01   -2,416479886e-01    1,133969873e-01   -7,632075995e-02    0,000000000e+00    0,000000000e+00    0,000000000e+00    0,000000000e+00
     1374000000   -6,184053421e-01    2,830044180e-02    1,139889210e-01    5,360386148e-02    0,000000000e+00    0,000000000e+00    0,000000000e+00    0,000000000e+00
     1388000000   -5,173512697e-01    2,924555540e-01    2,197401673e-01    2,715899842e-03    0,000000000e+00    0,000000000e+00    0,000000000e+00    0,000000000e+00
     1402000000   -3,038412631e-01    4,173719883e-01    2,183631510e-01   -8,832813054e-02    0,000000000e+00    0,000000000e+00    0,000000000e+00    0,000000000e+00
     1416000000   -9,674955159e-02    4,210397303e-01    1,837594509e-01   -1,112440079e-01    0,000000000e+00    0,000000000e+00    0,000000000e+00    0,000000000e+00
     1430000000    7,261814177e-02    3,387552798e-01    1,717916131e-01   -1,473615021e-01    0,000000000e+00    0,000000000e+00    0,000000000e+00    0,000000000e+00
     1444000000    1,768452078e-01    1,999813467e-01    1,595993042e-01   -9,311593324e-02    0,000000000e+00    0,000000000e+00    0,000000000e+00    0,000000000e+00
     1458000000    2,222198993e-01    3,616191074e-02    1,415233016e-01   -8,549601585e-02    0,000000000e+00    0,000000000e+00    0,000000000e+00    0,000000000e+00
     1472000000    2,016689330e-01   -1,461852789e-01    1,420729607e-01   -5,712408945e-02    0,000000000e+00    0,000000000e+00    0,000000000e+00    0,000000000e+00
     1486000000    1,064348370e-01   -3,256908357e-01    1,723199785e-01    3,035432659e-03    0,000000000e+00    0,000000000e+00    0,000000000e+00    0,000000000e+00
     1500000000   -9,088204056e-02   -4,572822750e-01    2,329688370e-01    4,524126649e-02    0,000000000e+00    0,000000000e+00    0,000000000e+00    0,000000000e+00
