! NanoVNA-App
! Date: 2025-09-25 14:26:28
! Start: 100MHz Stop: 1,5GHz Points: 101
! S-Parameter data: F S11 S21 S12 S22
# Hz S RI R 50
!     Frequency           S11_Real           S11_Imag           S21_Real           S21_Imag           S12_Real           S12_Imag           S22_Real           S22_Imag
      100000000   -2,909193933e-02   -4,126764834e-03    3,744951487e-01   -7,220776081e-01    0,000000000e+00    0,000000000e+00    0,000000000e+00    0,000000000e+00
      114000000   -1,660440117e-02    1,163631491e-02   -8,896606416e-02   -8,058377504e-01    0,000000000e+00    0,000000000e+00    0,000000000e+00    0,000000000e+00
      128000000    3,444116330e-03    1,051023602e-02   -5,144469738e-01   -6,211744547e-01    0,000000000e+00    0,000000000e+00    0,000000000e+00    0,000000000e+00
      142000000    1,443935651e-02   -3,090903396e-03   -7,674891353e-01   -2,369920760e-01    0,000000000e+00    0,000000000e+00    0,000000000e+00    0,000000000e+00
      156000000    1,557822246e-02   -1,477910578e-02   -7,701315284e-01    2,236694545e-01    0,000000000e+00    0,000000000e+00    0,000000000e+00    0,000000000e+00
      170000000    1,652348228e-02   -2,252616361e-02   -5,188166499e-01    6,050726771e-01    0,000000000e+00    0,000000000e+00    0,000000000e+00    0,000000000e+00
      184000000    2,098331414e-02   -3,697114065e-02   -1,018297002e-01    7,866865993e-01    0,000000000e+00    0,000000000e+00    0,000000000e+00    0,000000000e+00
      198000000    1,314036082e-02   -6,262674183e-02    3,429885805e-01    7,132450342e-01    0,000000000e+00    0,000000000e+00    0,000000000e+00    0,000000000e+00
      212000000   -1,870839484e-02   -8,170562983e-02    6,783394814e-01    4,105884135e-01    0,000000000e+00    0,000000000e+00    0,000000000e+00    0,000000000e+00
      226000000   -6,216530129e-02   -6,969456375e-02    7,960951924e-01   -2,973265387e-02    0,000000000e+00    0,000000000e+00    0,000000000e+00    0,000000000e+00
      240000000   -8,328535408e-02   -2,600971237e-02    6,469582915e-01   -4,666486084e-01    0,000000000e+00    0,000000000e+00    0,000000000e+00    0,000000000e+00
      254000000   -6,436205655e-02    1,747854240e-02    2,770117521e-01   -7,434234619e-01    0,000000000e+00    0,000000000e+00    0,000000000e+00    0,000000000e+00
      268000000   -2,400745824e-02    2,948720567e-02   -1,766786873e-01   -7,648981810e-01    0,000000000e+00    0,000000000e+00    0,000000000e+00    0,000000000e+00
      282000000    4,168953747e-03    1,204463001e-02   -5,628836751e-01   -5,372821093e-01    0,000000000e+00    0,000000000e+00    0,000000000e+00    0,000000000e+00
      296000000    9,607373737e-03   -7,813512348e-03   -7,607160807e-01   -1,396056116e-01    0,000000000e+00    0,000000000e+00    0,000000000e+00    0,000000000e+00
      310000000    1,088625751e-02   -1,603229903e-02   -7,132709622e-01    2,962684333e-01    0,000000000e+00    0,000000000e+00    0,000000000e+00    0,000000000e+00
      324000000    1,951658726e-02   -2,627428994e-02   -4,287496805e-01    6,376002431e-01    0,000000000e+00    0,000000000e+00    0,000000000e+00    0,000000000e+00
      338000000    2,535201982e-02   -5,199355632e-02   -9,408181533e-03    7,641755342e-01    0,000000000e+00    0,000000000e+00    0,000000000e+00    0,000000000e+00
      352000000    7,587979548e-03   -8,468007296e-02    4,067915678e-01    6,419857144e-01    0,000000000e+00    0,000000000e+00    0,000000000e+00    0,000000000e+00
      366000000   -3,489544988e-02   -9,607698768e-02    6,905350685e-01    3,120154738e-01    0,000000000e+00    0,000000000e+00    0,000000000e+00    0,000000000e+00
      380000000   -7,146733999e-02   -7,138028741e-02    7,484303713e-01   -1,249472350e-01    0,000000000e+00    0,000000000e+00    0,000000000e+00    0,000000000e+00
      394000000   -7,341282815e-02   -3,219638392e-02    5,476996899e-01   -5,202097297e-01    0,000000000e+00    0,000000000e+00    0,000000000e+00    0,000000000e+00
      408000000   -4,677706957e-02   -1,570109650e-02    1,635024399e-01   -7,322053909e-01    0,000000000e+00    0,000000000e+00    0,000000000e+00    0,000000000e+00
      422000000   -2,843788266e-02   -3,142654523e-02   -2,665968835e-01   -6,961659193e-01    0,000000000e+00    0,000000000e+00    0,000000000e+00    0,000000000e+00
      436000000   -4,037310183e-02   -5,216180161e-02   -6,022211909e-01   -4,340120256e-01    0,000000000e+00    0,000000000e+00    0,000000000e+00    0,000000000e+00
      450000000   -6,765953451e-02   -4,470281675e-02   -7,405094504e-01   -2,491970919e-02    0,000000000e+00    0,000000000e+00    0,000000000e+00    0,000000000e+00
      464000000   -7,442992181e-02   -1,242745947e-02   -6,216595173e-01    3,946332037e-01    0,000000000e+00    0,000000000e+00    0,000000000e+00    0,000000000e+00
      478000000   -4,878863320e-02    1,166245434e-02   -2,863670588e-01    6,675152183e-01    0,000000000e+00    0,000000000e+00    0,000000000e+00    0,000000000e+00
      492000000   -1,695721410e-02    6,476959214e-03    1,341985017e-01    7,040230036e-01    0,000000000e+00    0,000000000e+00    0,000000000e+00    0,000000000e+00
      506000000   -3,788221162e-03   -1,507503260e-02    4,973164797e-01    5,065895319e-01    0,000000000e+00    0,000000000e+00    0,000000000e+00    0,000000000e+00
      520000000   -5,675366614e-03   -2,926140651e-02    6,893485188e-01    1,446216553e-01    0,000000000e+00    0,000000000e+00    0,000000000e+00    0,000000000e+00
      534000000   -3,291840665e-03   -3,584381193e-02    6,449382901e-01   -2,604028285e-01    0,000000000e+00    0,000000000e+00    0,000000000e+00    0,000000000e+00
      548000000    8,078753017e-03   -5,252595246e-02    3,852235079e-01   -5,641466379e-01    0,000000000e+00    0,000000000e+00    0,000000000e+00    0,000000000e+00
      562000000    5,954205524e-03   -8,945837617e-02    8,360492997e-03   -6,716074944e-01    0,000000000e+00    0,000000000e+00    0,000000000e+00    0,000000000e+00
      576000000   -3,128813207e-02   -1,263524443e-01   -3,623343110e-01   -5,609286427e-01    0,000000000e+00    0,000000000e+00    0,000000000e+00    0,000000000e+00
      590000000   -9,484573454e-02   -1,278188676e-01   -6,153125167e-01   -2,717423141e-01    0,000000000e+00    0,000000000e+00    0,000000000e+00    0,000000000e+00
      604000000   -1,430257410e-01   -7,774372399e-02   -6,671034098e-01    1,262113601e-01    0,000000000e+00    0,000000000e+00    0,000000000e+00    0,000000000e+00
      618000000   -1,379818320e-01   -1,078641135e-02   -4,751342237e-01    4,859242439e-01    0,000000000e+00    0,000000000e+00    0,000000000e+00    0,000000000e+00
      632000000   -9,285329282e-02    2,138219588e-02   -1,139864773e-01    6,630640626e-01    0,000000000e+00    0,000000000e+00    0,000000000e+00    0,000000000e+00
      646000000   -5,466985330e-02    1,157825440e-02    2,736329436e-01    6,029824615e-01    0,000000000e+00    0,000000000e+00    0,000000000e+00    0,000000000e+00
      660000000   -4,876983538e-02   -8,592521772e-03    5,572017431e-01    3,409539461e-01    0,000000000e+00    0,000000000e+00    0,000000000e+00    0,000000000e+00
      674000000   -5,626780167e-02   -1,100942306e-02    6,438334584e-01   -3,977982700e-02    0,000000000e+00    0,000000000e+00    0,000000000e+00    0,000000000e+00
      688000000   -5,052362382e-02    2,471941290e-03    4,934379458e-01   -4,020656943e-01    0,000000000e+00    0,000000000e+00    0,000000000e+00    0,000000000e+00
      702000000   -2,657020837e-02    8,219405077e-03    1,684912294e-01   -6,046408415e-01    0,000000000e+00    0,000000000e+00    0,000000000e+00    0,000000000e+00
      716000000   -1,500318642e-03   -9,443580173e-03   -2,191438377e-01   -5,754680037e-01    0,000000000e+00    0,000000000e+00    0,000000000e+00    0,000000000e+00
      730000000    1,017467584e-02   -3,432828560e-02   -5,092254877e-01   -3,338078260e-01    0,000000000e+00    0,000000000e+00    0,000000000e+00    0,000000000e+00
      744000000    1,696495898e-02   -6,028120965e-02   -6,009242535e-01    3,298454732e-02    0,000000000e+00    0,000000000e+00    0,000000000e+00    0,000000000e+00
      758000000    2,172981389e-02   -1,029679552e-01   -4,545894861e-01    3,770459592e-01    0,000000000e+00    0,000000000e+00    0,000000000e+00    0,000000000e+00
      772000000   -5,167615600e-03   -1,734347939e-01   -1,395557523e-01    5,576905012e-01    0,000000000e+00    0,000000000e+00    0,000000000e+00    0,000000000e+00
      786000000   -1,050884426e-01   -2,329834998e-01    2,109841704e-01    5,200309753e-01    0,000000000e+00    0,000000000e+00    0,000000000e+00    0,000000000e+00
      800000000   -2,651619315e-01   -1,928458214e-01    4,711134434e-01    2,763476670e-01    0,000000000e+00    0,000000000e+00    0,000000000e+00    0,000000000e+00
      814000000   -3,647371233e-01    2,897919388e-03    5,079560876e-01   -8,862012625e-02    0,000000000e+00    0,000000000e+00    0,000000000e+00    0,000000000e+00
      828000000   -2,470906824e-01    2,341978848e-01    2,821383178e-01   -3,519641757e-01    0,000000000e+00    0,000000000e+00    0,000000000e+00    0,000000000e+00
      842000000    1,293682121e-02    2,782977521e-01   -1,566957124e-02   -3,638471067e-01    0,000000000e+00    0,000000000e+00    0,000000000e+00    0,000000000e+00
      856000000    2,127515227e-01    1,152926013e-01   -1,875724196e-01   -2,050274909e-01    0,000000000e+00    0,000000000e+00    0,000000000e+00    0,000000000e+00
      870000000    2,388270795e-01   -1,488343626e-01   -2,000251859e-01   -2,582686581e-02    0,000000000e+00    0,000000000e+00    0,000000000e+00    0,000000000e+00
      884000000    3,746958822e-02   -3,870268166e-01   -1,045153290e-01    7,109858841e-02    0,000000000e+00    0,000000000e+00    0,000000000e+00    0,000000000e+00
      898000000   -3,692821264e-01   -3,424640000e-01   -1,742873713e-02    2,795070596e-02    0,000000000e+00    0,000000000e+00    0,000000000e+00    0,000000000e+00
      912000000   -4,678152800e-01    1,386356950e-01   -1,065415144e-01    3,677313402e-02    0,000000000e+00    0,000000000e+00    0,000000000e+00    0,000000000e+00
      926000000   -9,454043955e-02    3,490771353e-01   -1,275367886e-01    1,320346147e-01    0,000000000e+00    0,000000000e+00    0,000000000e+00    0,000000000e+00
      940000000    1,827363372e-01    1,942673773e-01   -3,808877617e-02    2,162271887e-01    0,000000000e+00    0,000000000e+00    0,000000000e+00    0,000000000e+00
      954000000    2,569768429e-01   -4,704213515e-02    7,938902080e-02    2,268220484e-01    0,000000000e+00    0,000000000e+00    0,000000000e+00    0,000000000e+00
      968000000    1,762407720e-01   -2,596907020e-01    1,920470297e-01    1,805307269e-01    0,000000000e+00    0,000000000e+00    0,000000000e+00    0,000000000e+00
      982000000   -1,651563682e-02   -3,966701031e-01    2,808505297e-01    8,125567436e-02    0,000000000e+00    0,000000000e+00    0,000000000e+00    0,000000000e+00
      996000000   -2,750466168e-01   -3,743429780e-01    3,096982241e-01   -8,043964207e-02    0,000000000e+00    0,000000000e+00    0,000000000e+00    0,000000000e+00
     1010000000   -4,655022919e-01   -1,734249294e-01    2,221990228e-01   -2,520040274e-01    0,000000000e+00    0,000000000e+00    0,000000000e+00    0,000000000e+00
     1024000000   -4,642841220e-01    1,156919301e-01    2,138427459e-02   -3,289397657e-01    0,000000000e+00    0,000000000e+00    0,000000000e+00    0,000000000e+00
     1038000000   -2,619520724e-01    3,000736833e-01   -1,748204529e-01   -2,487715930e-01    0,000000000e+00    0,000000000e+00    0,000000000e+00    0,000000000e+00
     1052000000   -3,639167547e-02    3,113496602e-01   -2,570649981e-01   -7,690292597e-02    0,000000000e+00    0,000000000e+00    0,000000000e+00    0,000000000e+00
     1066000000    1,283757538e-01    2,032623887e-01   -2,296983153e-01    8,586873114e-02    0,000000000e+00    0,000000000e+00    0,000000000e+00    0,000000000e+00
     1080000000    2,099328190e-01    4,567889869e-02   -1,216039509e-01    1,948962659e-01    0,000000000e+00    0,000000000e+00    0,000000000e+00    0,000000000e+00
     1094000000    2,045993060e-01   -1,267188340e-01    1,706627011e-02    2,351803780e-01    0,000000000e+00    0,000000000e+00    0,000000000e+00    0,000000000e+00
     1108000000    1,006277278e-01   -2,900155485e-01    1,673359871e-01    2,072954029e-01    0,000000000e+00    0,000000000e+00    0,000000000e+00    0,000000000e+00
     1122000000   -1,032568514e-01   -3,676964343e-01    3,173112571e-01    9,065459669e-02    0,000000000e+00    0,000000000e+00    0,000000000e+00    0,000000000e+00
     1136000000   -3,440215886e-01   -2,691895068e-01    3,906989694e-01   -1,487538517e-01    0,000000000e+00    0,000000000e+00    0,000000000e+00    0,000000000e+00
     1150000000   -4,063410759e-01    3,902623057e-02    2,426508665e-01   -4,381920099e-01    0,000000000e+00    0,000000000e+00    0,000000000e+00    0,000000000e+00
     1164000000   -1,604423076e-01    2,210559845e-01   -9,419544041e-02   -5,132392645e-01    0,000000000e+00    0,000000000e+00    0,000000000e+00    0,000000000e+00
     1178000000    7,756350935e-02    8,424077928e-02   -3,580339253e-01   -3,505779803e-01    0,000000000e+00    0,000000000e+00    0,000000000e+00    0,000000000e+00
     1192000000    7,464914769e-02   -1,740964055e-01   -4,510927200e-01   -8,503007889e-02    0,000000000e+00    0,000000000e+00    0,000000000e+00    0,000000000e+00
     1206000000   -1,600050479e-01   -3,290006518e-01   -3,669992685e-01    1,881232560e-01    0,000000000e+00    0,000000000e+00    0,000000000e+00    0,000000000e+00
     1220000000   -4,554975331e-01   -1,765265316e-01   -1,051047370e-01    3,315691948e-01    0,000000000e+00    0,000000000e+00    0,000000000e+00    0,000000000e+00
     1234000000   -4,736760557e-01    1,584695578e-01    1,381960660e-01    2,183554024e-01    0,000000000e+00    0,000000000e+00    0,000000000e+00    0,000000000e+00
     1248000000   -2,336291522e-01    3,534755111e-01    1,945602596e-01    3,119763546e-02    0,000000000e+00    0,000000000e+00    0,000000000e+00    0,000000000e+00
     1262000000    7,743936731e-04    3,301828504e-01    1,238545924e-01   -7,442654669e-02    0,000000000e+00    0,000000000e+00    0,000000000e+00    0,000000000e+00
     1276000000    1,509332657e-01    1,977004707e-01    5,042273551e-02   -9,906308353e-02    0,000000000e+00    0,000000000e+00    0,000000000e+00    0,000000000e+00
     1290000000    2,166914493e-01    3,378282860e-02    5,636492861e-04   -7,132398337e-02    0,000000000e+00    0,000000000e+00    0,000000000e+00    0,000000000e+00
     1304000000    2,054352909e-01   -1,436722875e-01   -2,400090732e-02   -2,988588996e-02    0,000000000e+00    0,000000000e+00    0,000000000e+00    0,000000000e+00
     1318000000    1,153879389e-01   -3,129203022e-01   -2,068886301e-03    2,247383073e-02    0,000000000e+00    0,000000000e+00    0,000000000e+00    0,000000000e+00
     1332000000   -6,486115605e-02   -4,323823750e-01    5,404080451e-02    6,669356674e-02    0,000000000e+00    0,000000000e+00    0,000000000e+00    0,000000000e+00
     1346000000   -3,295292854e-01   -4,303500652e-01    1,448694021e-01    4,905852675e-02    0,000000000e+00    0,000000000e+00    0,000000000e+00    0,000000000e+00
     1360000000   -5,530081987e-01   -2,349718362e-01    1,148237139e-01   -6,487616897e-02    0,000000000e+00    0,000000000e+00    0,000000000e+00    0,000000000e+00
     1374000000   -6,198323965e-01    2,941273153e-02    1,122942045e-01    5,885978788e-02    0,000000000e+00    0,000000000e+00    0,000000000e+00    0,000000000e+00
     1388000000   -5,079093575e-01    2,936186492e-01    2,231013477e-01    3,690063488e-03    0,000000000e+00    0,000000000e+00    0,000000000e+00    0,000000000e+00
     1402000000   -3,029023707e-01    4,201981723e-01    2,144819498e-01   -7,249549776e-02    0,000000000e+00    0,000000000e+00    0,000000000e+00    0,000000000e+00
     1416000000   -8,970326185e-02    4,186288118e-01    2,010758072e-01   -1,271616369e-01    0,000000000e+00    0,000000000e+00    0,000000000e+00    0,000000000e+00
     1430000000    7,508068532e-02    3,453198075e-01    1,483423561e-01   -1,175795570e-01    0,000000000e+00    0,000000000e+00    0,000000000e+00    0,000000000e+00
     1444000000    1,800250560e-01    2,040132284e-01    1,598504037e-01   -9,496561438e-02    0,000000000e+00    0,000000000e+00    0,000000000e+00    0,000000000e+00
     1458000000    2,233252078e-01    3,330813348e-02    1,430844367e-01   -7,576075941e-02    0,000000000e+00    0,000000000e+00    0,000000000e+00    0,000000000e+00
     1472000000    2,071139514e-01   -1,469193250e-01    1,485107392e-01   -5,865428597e-02    0,000000000e+00    0,000000000e+00    0,000000000e+00    0,000000000e+00
     1486000000    1,072572246e-01   -3,262045681e-01    1,739629060e-01   -6,121881306e-03    0,000000000e+00    0,000000000e+00    0,000000000e+00    0,000000000e+00
     1500000000   -8,867506683e-02   -4,525339007e-01    2,119349092e-01    7,222848386e-02    0,000000000e+00    0,000000000e+00    0,000000000e+00    0,000000000e+00
