! NanoVNA-App
! Date: 2025-09-25 14:24:23
! Start: 100MHz Stop: 1,5GHz Points: 101
! S-Parameter data: F S11 S21 S12 S22
# Hz S RI R 50
!     Frequency           S11_Real           S11_Imag           S21_Real           S21_Imag           S12_Real           S12_Imag           S22_Real           S22_Imag
      100000000   -2,910219878e-02   -4,130188376e-03    3,744747937e-01   -7,220472693e-01    0,000000000e+00    0,000000000e+00    0,000000000e+00    0,000000000e+00
      114000000   -1,660721004e-02    1,161780488e-02   -8,896274865e-02   -8,059577942e-01    0,000000000e+00    0,000000000e+00    0,000000000e+00    0,000000000e+00
      128000000    3,444616450e-03    1,052940916e-02   -5,146212578e-01   -6,209941506e-01    0,000000000e+00    0,000000000e+00    0,000000000e+00    0,000000000e+00
      142000000    1,445950102e-02   -3,073518397e-03   -7,675036192e-01   -2,368953526e-01    0,000000000e+00    0,000000000e+00    0,000000000e+00    0,000000000e+00
      156000000    1,493350975e-02   -1,501564588e-02   -7,699563503e-01    2,196632177e-01    0,000000000e+00    0,000000000e+00    0,000000000e+00    0,000000000e+00
      170000000    1,651154645e-02   -2,256439067e-02   -5,187070966e-01    6,050847173e-01    0,000000000e+00    0,000000000e+00    0,000000000e+00    0,000000000e+00
      184000000    2,098332159e-02   -3,700332344e-02   -1,018317118e-01    7,861969471e-01    0,000000000e+00    0,000000000e+00    0,000000000e+00    0,000000000e+00
      198000000    1,310948469e-02   -6,260235608e-02    3,431445956e-01    7,132833600e-01    0,000000000e+00    0,000000000e+00    0,000000000e+00    0,000000000e+00
      212000000   -1,867260970e-02   -8,167070150e-02    6,782877445e-01    4,104930162e-01    0,000000000e+00    0,000000000e+00    0,000000000e+00    0,000000000e+00
      226000000   -6,209197268e-02   -6,973411143e-02    7,961407304e-01   -2,972994000e-02    0,000000000e+00    0,000000000e+00    0,000000000e+00    0,000000000e+00
      240000000   -8,325664699e-02   -2,598298155e-02    6,470402479e-01   -4,667797387e-01    0,000000000e+00    0,000000000e+00    0,000000000e+00    0,000000000e+00
      254000000   -6,430573761e-02    1,739507727e-02    2,772580981e-01   -7,431326509e-01    0,000000000e+00    0,000000000e+00    0,000000000e+00    0,000000000e+00
      268000000   -2,419331111e-02    2,950928919e-02   -1,770026535e-01   -7,652277946e-01    0,000000000e+00    0,000000000e+00    0,000000000e+00    0,000000000e+00
      282000000    4,165914375e-03    1,207078062e-02   -5,625258684e-01   -5,372183323e-01    0,000000000e+00    0,000000000e+00    0,000000000e+00    0,000000000e+00
      296000000    9,546843357e-03   -7,711135782e-03   -7,606977820e-01   -1,395693868e-01    0,000000000e+00    0,000000000e+00    0,000000000e+00    0,000000000e+00
      310000000    1,088923868e-02   -1,619631983e-02   -7,132061124e-01    2,970372438e-01    0,000000000e+00    0,000000000e+00    0,000000000e+00    0,000000000e+00
      324000000    1,957275905e-02   -2,634375542e-02   -4,288834929e-01    6,376740932e-01    0,000000000e+00    0,000000000e+00    0,000000000e+00    0,000000000e+00
      338000000    2,544146962e-02   -5,207692832e-02   -1,139117870e-02    7,607467771e-01    0,000000000e+00    0,000000000e+00    0,000000000e+00    0,000000000e+00
      352000000    7,721001748e-03   -8,491745591e-02    4,061116278e-01    6,407682896e-01    0,000000000e+00    0,000000000e+00    0,000000000e+00    0,000000000e+00
      366000000   -3,490986675e-02   -9,578967094e-02    6,907543540e-01    3,127045333e-01    0,000000000e+00    0,000000000e+00    0,000000000e+00    0,000000000e+00
      380000000   -7,161448896e-02   -7,097481191e-02    7,480210662e-01   -1,244514808e-01    0,000000000e+00    0,000000000e+00    0,000000000e+00    0,000000000e+00
      394000000   -7,303839922e-02   -3,219950944e-02    5,483976007e-01   -5,204196572e-01    0,000000000e+00    0,000000000e+00    0,000000000e+00    0,000000000e+00
      408000000   -4,705462232e-02   -1,586372592e-02    1,634109616e-01   -7,338369489e-01    0,000000000e+00    0,000000000e+00    0,000000000e+00    0,000000000e+00
      422000000   -2,846879698e-02   -3,151059523e-02   -2,657250464e-01   -6,952617168e-01    0,000000000e+00    0,000000000e+00    0,000000000e+00    0,000000000e+00
      436000000   -4,028755054e-02   -5,172053725e-02   -6,028562784e-01   -4,341255724e-01    0,000000000e+00    0,000000000e+00    0,000000000e+00    0,000000000e+00
      450000000   -6,777565181e-02   -4,478982463e-02   -7,404945493e-01   -2,478754334e-02    0,000000000e+00    0,000000000e+00    0,000000000e+00    0,000000000e+00
      464000000   -7,422416657e-02   -1,203521714e-02   -6,214908361e-01    3,941931129e-01    0,000000000e+00    0,000000000e+00    0,000000000e+00    0,000000000e+00
      478000000   -4,933771864e-02    1,181894448e-02   -2,868146300e-01    6,671759486e-01    0,000000000e+00    0,000000000e+00    0,000000000e+00    0,000000000e+00
      492000000   -1,715301350e-02    6,391167641e-03    1,344109327e-01    7,042251825e-01    0,000000000e+00    0,000000000e+00    0,000000000e+00    0,000000000e+00
      506000000   -3,415595274e-03   -1,480285916e-02    4,975820482e-01    5,069826245e-01    0,000000000e+00    0,000000000e+00    0,000000000e+00    0,000000000e+00
      520000000   -5,928604398e-03   -2,954755165e-02    6,876167059e-01    1,448804736e-01    0,000000000e+00    0,000000000e+00    0,000000000e+00    0,000000000e+00
      534000000   -3,392498475e-03   -3,584085405e-02    6,452612877e-01   -2,594882548e-01    0,000000000e+00    0,000000000e+00    0,000000000e+00    0,000000000e+00
      548000000    8,033551276e-03   -5,246262625e-02    3,851087093e-01   -5,643514395e-01    0,000000000e+00    0,000000000e+00    0,000000000e+00    0,000000000e+00
      562000000    5,609288812e-03   -8,927256614e-02    8,655753918e-03   -6,713656187e-01    0,000000000e+00    0,000000000e+00    0,000000000e+00    0,000000000e+00
      576000000   -3,123403341e-02   -1,259070635e-01   -3,623926342e-01   -5,608575344e-01    0,000000000e+00    0,000000000e+00    0,000000000e+00    0,000000000e+00
      590000000   -9,475963563e-02   -1,276402771e-01   -6,177886724e-01   -2,712794542e-01    0,000000000e+00    0,000000000e+00    0,000000000e+00    0,000000000e+00
      604000000   -1,431049258e-01   -7,806668431e-02   -6,673294902e-01    1,262482107e-01    0,000000000e+00    0,000000000e+00    0,000000000e+00    0,000000000e+00
      618000000   -1,384808123e-01   -1,179322973e-02   -4,748348892e-01    4,852661192e-01    0,000000000e+00    0,000000000e+00    0,000000000e+00    0,000000000e+00
      632000000   -9,335041046e-02    2,193917148e-02   -1,134644300e-01    6,636928916e-01    0,000000000e+00    0,000000000e+00    0,000000000e+00    0,000000000e+00
      646000000   -5,473692715e-02    1,163323782e-02    2,747189105e-01    6,040683389e-01    0,000000000e+00    0,000000000e+00    0,000000000e+00    0,000000000e+00
      660000000   -4,867016897e-02   -8,852261119e-03    5,576853156e-01    3,411316276e-01    0,000000000e+00    0,000000000e+00    0,000000000e+00    0,000000000e+00
      674000000   -5,574729294e-02   -9,987731464e-03    6,442362666e-01   -3,987771273e-02    0,000000000e+00    0,000000000e+00    0,000000000e+00    0,000000000e+00
      688000000   -5,077087879e-02    3,536201781e-03    4,935805500e-01   -4,027149677e-01    0,000000000e+00    0,000000000e+00    0,000000000e+00    0,000000000e+00
      702000000   -2,522623725e-02    7,129824720e-03    1,630952507e-01   -6,027590632e-01    0,000000000e+00    0,000000000e+00    0,000000000e+00    0,000000000e+00
      716000000   -1,252285670e-03   -8,594954386e-03   -2,194976956e-01   -5,752735138e-01    0,000000000e+00    0,000000000e+00    0,000000000e+00    0,000000000e+00
      730000000    9,766004980e-03   -3,407887369e-02   -5,092775822e-01   -3,329085410e-01    0,000000000e+00    0,000000000e+00    0,000000000e+00    0,000000000e+00
      744000000    1,697637513e-02   -6,148313731e-02   -6,011990309e-01    3,241662309e-02    0,000000000e+00    0,000000000e+00    0,000000000e+00    0,000000000e+00
      758000000    2,163097449e-02   -1,037671119e-01   -4,541263282e-01    3,771019280e-01    0,000000000e+00    0,000000000e+00    0,000000000e+00    0,000000000e+00
      772000000   -4,972448107e-03   -1,741299331e-01   -1,392635107e-01    5,576694012e-01    0,000000000e+00    0,000000000e+00    0,000000000e+00    0,000000000e+00
      786000000   -1,050531194e-01   -2,324131280e-01    2,104523480e-01    5,191762447e-01    0,000000000e+00    0,000000000e+00    0,000000000e+00    0,000000000e+00
      800000000   -2,656655312e-01   -1,926092803e-01    4,712904394e-01    2,753067911e-01    0,000000000e+00    0,000000000e+00    0,000000000e+00    0,000000000e+00
      814000000   -3,641932607e-01    4,303835798e-03    5,079094768e-01   -8,855294436e-02    0,000000000e+00    0,000000000e+00    0,000000000e+00    0,000000000e+00
      828000000   -2,481891960e-01    2,331768572e-01    2,817250788e-01   -3,517845273e-01    0,000000000e+00    0,000000000e+00    0,000000000e+00    0,000000000e+00
      842000000    1,330871973e-02    2,781089544e-01   -1,604603045e-02   -3,631625473e-01    0,000000000e+00    0,000000000e+00    0,000000000e+00    0,000000000e+00
      856000000    2,130113393e-01    1,156306788e-01   -1,880046725e-01   -2,048954517e-01    0,000000000e+00    0,000000000e+00    0,000000000e+00    0,000000000e+00
      870000000    2,386656106e-01   -1,485285461e-01   -2,006144226e-01   -2,675049938e-02    0,000000000e+00    0,000000000e+00    0,000000000e+00    0,000000000e+00
      884000000    3,769969568e-02   -3,859334588e-01   -1,047525704e-01    7,123600692e-02    0,000000000e+00    0,000000000e+00    0,000000000e+00    0,000000000e+00
      898000000   -3,692200482e-01   -3,413816392e-01   -1,677276380e-02    2,805816196e-02    0,000000000e+00    0,000000000e+00    0,000000000e+00    0,000000000e+00
      912000000   -4,663926661e-01    1,374749988e-01   -1,086447835e-01    3,896397352e-02    0,000000000e+00    0,000000000e+00    0,000000000e+00    0,000000000e+00
      926000000   -9,471721202e-02    3,535148501e-01   -1,283206940e-01    1,358186752e-01    0,000000000e+00    0,000000000e+00    0,000000000e+00    0,000000000e+00
      940000000    1,822824031e-01    1,942774802e-01   -3,976802155e-02    2,155817002e-01    0,000000000e+00    0,000000000e+00    0,000000000e+00    0,000000000e+00
      954000000    2,562039495e-01   -4,783026874e-02    7,901242375e-02    2,273648679e-01    0,000000000e+00    0,000000000e+00    0,000000000e+00    0,000000000e+00
      968000000    1,749294698e-01   -2,592560053e-01    1,917348951e-01    1,814787984e-01    0,000000000e+00    0,000000000e+00    0,000000000e+00    0,000000000e+00
      982000000   -1,960790716e-02   -3,931274116e-01    2,808323503e-01    7,928682864e-02    0,000000000e+00    0,000000000e+00    0,000000000e+00    0,000000000e+00
      996000000   -2,728003263e-01   -3,750973642e-01    3,082534969e-01   -8,040908724e-02    0,000000000e+00    0,000000000e+00    0,000000000e+00    0,000000000e+00
     1010000000   -4,714814723e-01   -1,679019779e-01    2,219750434e-01   -2,535974383e-01    0,000000000e+00    0,000000000e+00    0,000000000e+00    0,000000000e+00
     1024000000   -4,626217186e-01    1,183845177e-01    2,083420567e-02   -3,308891356e-01    0,000000000e+00    0,000000000e+00    0,000000000e+00    0,000000000e+00
     1038000000   -2,664403319e-01    2,955003083e-01   -1,751569808e-01   -2,489145547e-01    0,000000000e+00    0,000000000e+00    0,000000000e+00    0,000000000e+00
     1052000000   -3,645402566e-02    3,105796874e-01   -2,592653036e-01   -7,845108956e-02    0,000000000e+00    0,000000000e+00    0,000000000e+00    0,000000000e+00
     1066000000    1,259199381e-01    2,069877237e-01   -2,225021422e-01    8,610225469e-02    0,000000000e+00    0,000000000e+00    0,000000000e+00    0,000000000e+00
     1080000000    2,056427449e-01    4,647960141e-02   -1,193130687e-01    1,949056089e-01    0,000000000e+00    0,000000000e+00    0,000000000e+00    0,000000000e+00
     1094000000    2,033052891e-01   -1,249326617e-01    1,721424982e-02    2,320696115e-01    0,000000000e+00    0,000000000e+00    0,000000000e+00    0,000000000e+00
     1108000000    9,956631809e-02   -2,862637639e-01    1,688560247e-01    2,062790245e-01    0,000000000e+00    0,000000000e+00    0,000000000e+00    0,000000000e+00
     1122000000   -9,871958941e-02   -3,680291474e-01    3,147551715e-01    8,911408484e-02    0,000000000e+00    0,000000000e+00    0,000000000e+00    0,000000000e+00
     1136000000   -3,446315229e-01   -2,664608955e-01    3,947221935e-01   -1,505678743e-01    0,000000000e+00    0,000000000e+00    0,000000000e+00    0,000000000e+00
     1150000000   -4,076423943e-01    3,211770207e-02    2,437852174e-01   -4,370907545e-01    0,000000000e+00    0,000000000e+00    0,000000000e+00    0,000000000e+00
     1164000000   -1,545328945e-01    2,189017981e-01   -9,643121809e-02   -5,152643919e-01    0,000000000e+00    0,000000000e+00    0,000000000e+00    0,000000000e+00
     1178000000    7,460911572e-02    8,157716691e-02   -3,566643596e-01   -3,443021476e-01    0,000000000e+00    0,000000000e+00    0,000000000e+00    0,000000000e+00
     1192000000    7,622642070e-02   -1,773350537e-01   -4,536517859e-01   -8,513969928e-02    0,000000000e+00    0,000000000e+00    0,000000000e+00    0,000000000e+00
     1206000000   -1,655684561e-01   -3,239219487e-01   -3,698965609e-01    1,871667951e-01    0,000000000e+00    0,000000000e+00    0,000000000e+00    0,000000000e+00
     1220000000   -4,533560574e-01   -1,762322634e-01   -1,025125906e-01    3,313184679e-01    0,000000000e+00    0,000000000e+00    0,000000000e+00    0,000000000e+00
     1234000000   -4,743820131e-01    1,646257937e-01    1,352859139e-01    2,199119329e-01    0,000000000e+00    0,000000000e+00    0,000000000e+00    0,000000000e+00
     1248000000   -2,348037064e-01    3,504782319e-01    1,924095154e-01    3,824368492e-02    0,000000000e+00    0,000000000e+00    0,000000000e+00    0,000000000e+00
     1262000000   -2,840523666e-04    3,300886452e-01    1,290839911e-01   -7,124682516e-02    0,000000000e+00    0,000000000e+00    0,000000000e+00    0,000000000e+00
     1276000000    1,547471136e-01    1,951961219e-01    5,077764019e-02   -9,828948230e-02    0,000000000e+00    0,000000000e+00    0,000000000e+00    0,000000000e+00
     1290000000    2,139654011e-01    2,905882709e-02    1,067831647e-03   -8,030952513e-02    0,000000000e+00    0,000000000e+00    0,000000000e+00    0,000000000e+00
     1304000000    2,071376294e-01   -1,462182850e-01   -1,520961057e-02   -3,510832787e-02    0,000000000e+00    0,000000000e+00    0,000000000e+00    0,000000000e+00
     1318000000    1,173730940e-01   -3,101571202e-01   -6,989872083e-03    1,753694192e-02    0,000000000e+00    0,000000000e+00    0,000000000e+00    0,000000000e+00
     1332000000   -6,578652561e-02   -4,327872992e-01    4,260557145e-02    6,692762673e-02    0,000000000e+00    0,000000000e+00    0,000000000e+00    0,000000000e+00
     1346000000   -3,285032213e-01   -4,318308830e-01    1,442350894e-01    5,171075091e-02    0,000000000e+00    0,000000000e+00    0,000000000e+00    0,000000000e+00
     1360000000   -5,519285798e-01   -2,430950850e-01    1,144313663e-01   -7,653121650e-02    0,000000000e+00    0,000000000e+00    0,000000000e+00    0,000000000e+00
     1374000000   -6,234620214e-01    3,249776363e-02    1,001548618e-01    6,275109202e-02    0,000000000e+00    0,000000000e+00    0,000000000e+00    0,000000000e+00
     1388000000   -5,189473033e-01    2,920049429e-01    2,196278125e-01    5,200261716e-03    0,000000000e+00    0,000000000e+00    0,000000000e+00    0,000000000e+00
     1402000000   -2,980792522e-01    4,209212959e-01    2,374653667e-01   -8,810786903e-02    0,000000000e+00    0,000000000e+00    0,000000000e+00    0,000000000e+00
     1416000000   -1,000601575e-01    4,211741388e-01    1,831395775e-01   -1,154052243e-01    0,000000000e+00    0,000000000e+00    0,000000000e+00    0,000000000e+00
     1430000000    7,696380466e-02    3,256746233e-01    1,395445466e-01   -1,445474178e-01    0,000000000e+00    0,000000000e+00    0,000000000e+00    0,000000000e+00
     1444000000    1,737944335e-01    2,021980584e-01    1,518235356e-01   -9,719918668e-02    0,000000000e+00    0,000000000e+00    0,000000000e+00    0,000000000e+00
     1458000000    2,252391428e-01    3,171746060e-02    1,632050872e-01   -8,576500416e-02    0,000000000e+00    0,000000000e+00    0,000000000e+00    0,000000000e+00
     1472000000    2,063561380e-01   -1,435508132e-01    1,502042562e-01   -3,733497113e-02    0,000000000e+00    0,000000000e+00    0,000000000e+00    0,000000000e+00
     1486000000    1,118546054e-01   -3,200771213e-01    1,798471808e-01   -2,579227556e-03    0,000000000e+00    0,000000000e+00    0,000000000e+00    0,000000000e+00
     1500000000   -9,119006991e-02   -4,581479430e-01    2,131208479e-01    7,022862136e-02    0,000000000e+00    0,000000000e+00    0,000000000e+00    0,000000000e+00
