! NanoVNA-App
! Date: 2025-09-25 14:24:17
! Start: 100MHz Stop: 1,5GHz Points: 101
! S-Parameter data: F S11 S21 S12 S22
# Hz S RI R 50
!     Frequency           S11_Real           S11_Imag           S21_Real           S21_Imag           S12_Real           S12_Imag           S22_Real           S22_Imag
      100000000   -2,910044231e-02   -4,114513285e-03    3,744473755e-01   -7,220431566e-01    0,000000000e+00    0,000000000e+00    0,000000000e+00    0,000000000e+00
      114000000   -1,660815254e-02    1,161896251e-02   -8,906455338e-02   -8,058443069e-01    0,000000000e+00    0,000000000e+00    0,000000000e+00    0,000000000e+00
      128000000    3,421197645e-03    1,048563141e-02   -5,147615075e-01   -6,211593747e-01    0,000000000e+00    0,000000000e+00    0,000000000e+00    0,000000000e+00
      142000000    1,445236243e-02   -3,078106791e-03   -7,676221132e-01   -2,371165752e-01    0,000000000e+00    0,000000000e+00    0,000000000e+00    0,000000000e+00
      156000000    1,499170624e-02   -1,499040425e-02   -7,678857446e-01    2,223165780e-01    0,000000000e+00    0,000000000e+00    0,000000000e+00    0,000000000e+00
      170000000    1,653704979e-02   -2,254705690e-02   -5,184800625e-01    6,051520705e-01    0,000000000e+00    0,000000000e+00    0,000000000e+00    0,000000000e+00
      184000000    2,100625075e-02   -3,701678663e-02   -1,018119305e-01    7,867907286e-01    0,000000000e+00    0,000000000e+00    0,000000000e+00    0,000000000e+00
      198000000    1,310166158e-02   -6,257076561e-02    3,432463706e-01    7,134303451e-01    0,000000000e+00    0,000000000e+00    0,000000000e+00    0,000000000e+00
      212000000   -1,868692786e-02   -8,167867362e-02    6,781958938e-01    4,104933739e-01    0,000000000e+00    0,000000000e+00    0,000000000e+00    0,000000000e+00
      226000000   -6,202793494e-02   -6,972385943e-02    7,960419059e-01   -2,974779159e-02    0,000000000e+00    0,000000000e+00    0,000000000e+00    0,000000000e+00
      240000000   -8,320107311e-02   -2,604317665e-02    6,471419334e-01   -4,667798877e-01    0,000000000e+00    0,000000000e+00    0,000000000e+00    0,000000000e+00
      254000000   -6,436011940e-02    1,734133810e-02    2,770827413e-01   -7,430738211e-01    0,000000000e+00    0,000000000e+00    0,000000000e+00    0,000000000e+00
      268000000   -2,411683463e-02    2,959488146e-02   -1,770422459e-01   -7,649656534e-01    0,000000000e+00    0,000000000e+00    0,000000000e+00    0,000000000e+00
      282000000    4,179738462e-03    1,215693820e-02   -5,623208284e-01   -5,370973945e-01    0,000000000e+00    0,000000000e+00    0,000000000e+00    0,000000000e+00
      296000000    9,565457702e-03   -7,775321137e-03   -7,609211802e-01   -1,396227628e-01    0,000000000e+00    0,000000000e+00    0,000000000e+00    0,000000000e+00
      310000000    1,079567336e-02   -1,597698219e-02   -7,120381594e-01    2,981916368e-01    0,000000000e+00    0,000000000e+00    0,000000000e+00    0,000000000e+00
      324000000    1,926719211e-02   -2,647594362e-02   -4,290442765e-01    6,369101405e-01    0,000000000e+00    0,000000000e+00    0,000000000e+00    0,000000000e+00
      338000000    2,535916120e-02   -5,223914608e-02   -8,616443723e-03    7,636535764e-01    0,000000000e+00    0,000000000e+00    0,000000000e+00    0,000000000e+00
      352000000    7,493029349e-03   -8,496823907e-02    4,065397680e-01    6,411953568e-01    0,000000000e+00    0,000000000e+00    0,000000000e+00    0,000000000e+00
      366000000   -3,473311663e-02   -9,624954313e-02    6,907082200e-01    3,123303652e-01    0,000000000e+00    0,000000000e+00    0,000000000e+00    0,000000000e+00
      380000000   -7,147962600e-02   -7,135300338e-02    7,487502098e-01   -1,247382611e-01    0,000000000e+00    0,000000000e+00    0,000000000e+00    0,000000000e+00
      394000000   -7,339115441e-02   -3,214291856e-02    5,484665036e-01   -5,209668875e-01    0,000000000e+00    0,000000000e+00    0,000000000e+00    0,000000000e+00
      408000000   -4,688832909e-02   -1,552817784e-02    1,644498706e-01   -7,320961952e-01    0,000000000e+00    0,000000000e+00    0,000000000e+00    0,000000000e+00
      422000000   -2,843554132e-02   -3,137868643e-02   -2,660073638e-01   -6,962237358e-01    0,000000000e+00    0,000000000e+00    0,000000000e+00    0,000000000e+00
      436000000   -4,035149887e-02   -5,183328688e-02   -6,026774645e-01   -4,335960150e-01    0,000000000e+00    0,000000000e+00    0,000000000e+00    0,000000000e+00
      450000000   -6,755474955e-02   -4,488096386e-02   -7,404173017e-01   -2,530477941e-02    0,000000000e+00    0,000000000e+00    0,000000000e+00    0,000000000e+00
      464000000   -7,453007251e-02   -1,209462155e-02   -6,214783788e-01    3,944669068e-01    0,000000000e+00    0,000000000e+00    0,000000000e+00    0,000000000e+00
      478000000   -4,949526861e-02    1,154701132e-02   -2,862198949e-01    6,676040888e-01    0,000000000e+00    0,000000000e+00    0,000000000e+00    0,000000000e+00
      492000000   -1,709978655e-02    6,403951440e-03    1,346024871e-01    7,034764290e-01    0,000000000e+00    0,000000000e+00    0,000000000e+00    0,000000000e+00
      506000000   -3,466482274e-03   -1,489694417e-02    4,978341162e-01    5,063000917e-01    0,000000000e+00    0,000000000e+00    0,000000000e+00    0,000000000e+00
      520000000   -5,915212911e-03   -2,973796800e-02    6,894991994e-01    1,442710012e-01    0,000000000e+00    0,000000000e+00    0,000000000e+00    0,000000000e+00
      534000000   -3,340465482e-03   -3,599292412e-02    6,447784901e-01   -2,598382235e-01    0,000000000e+00    0,000000000e+00    0,000000000e+00    0,000000000e+00
      548000000    7,731478661e-03   -5,285646394e-02    3,847439289e-01   -5,635895729e-01    0,000000000e+00    0,000000000e+00    0,000000000e+00    0,000000000e+00
      562000000    5,498853512e-03   -8,964379132e-02    8,416265249e-03   -6,722080112e-01    0,000000000e+00    0,000000000e+00    0,000000000e+00    0,000000000e+00
      576000000   -3,131631762e-02   -1,263306439e-01   -3,625236750e-01   -5,611025691e-01    0,000000000e+00    0,000000000e+00    0,000000000e+00    0,000000000e+00
      590000000   -9,513095021e-02   -1,278534234e-01   -6,179734468e-01   -2,709876597e-01    0,000000000e+00    0,000000000e+00    0,000000000e+00    0,000000000e+00
      604000000   -1,429104358e-01   -7,842242718e-02   -6,672116518e-01    1,262291074e-01    0,000000000e+00    0,000000000e+00    0,000000000e+00    0,000000000e+00
      618000000   -1,379155666e-01   -1,091852318e-02   -4,751831293e-01    4,852370620e-01    0,000000000e+00    0,000000000e+00    0,000000000e+00    0,000000000e+00
      632000000   -9,349173307e-02    2,139394917e-02   -1,139900163e-01    6,637228131e-01    0,000000000e+00    0,000000000e+00    0,000000000e+00    0,000000000e+00
      646000000   -5,502995849e-02    1,255717129e-02    2,737385035e-01    6,040593982e-01    0,000000000e+00    0,000000000e+00    0,000000000e+00    0,000000000e+00
      660000000   -4,752976075e-02   -9,372049943e-03    5,568655133e-01    3,395893574e-01    0,000000000e+00    0,000000000e+00    0,000000000e+00    0,000000000e+00
      674000000   -5,517844856e-02   -1,037913747e-02    6,445579529e-01   -3,958986327e-02    0,000000000e+00    0,000000000e+00    0,000000000e+00    0,000000000e+00
      688000000   -5,053886026e-02    2,382129431e-03    4,933325350e-01   -4,010038078e-01    0,000000000e+00    0,000000000e+00    0,000000000e+00    0,000000000e+00
      702000000   -2,514850907e-02    7,717160508e-03    1,572978646e-01   -6,053459048e-01    0,000000000e+00    0,000000000e+00    0,000000000e+00    0,000000000e+00
      716000000   -1,623749500e-03   -8,282423951e-03   -2,190941721e-01   -5,752555132e-01    0,000000000e+00    0,000000000e+00    0,000000000e+00    0,000000000e+00
      730000000    9,501238354e-03   -3,401831910e-02   -5,088015795e-01   -3,329453468e-01    0,000000000e+00    0,000000000e+00    0,000000000e+00    0,000000000e+00
      744000000    1,734394580e-02   -6,140554324e-02   -6,009770036e-01    3,323582187e-02    0,000000000e+00    0,000000000e+00    0,000000000e+00    0,000000000e+00
      758000000    2,136302181e-02   -1,036601067e-01   -4,541719854e-01    3,777437210e-01    0,000000000e+00    0,000000000e+00    0,000000000e+00    0,000000000e+00
      772000000   -5,009125918e-03   -1,740271151e-01   -1,392221153e-01    5,583899617e-01    0,000000000e+00    0,000000000e+00    0,000000000e+00    0,000000000e+00
      786000000   -1,061487123e-01   -2,323222011e-01    2,109298408e-01    5,199256539e-01    0,000000000e+00    0,000000000e+00    0,000000000e+00    0,000000000e+00
      800000000   -2,650969625e-01   -1,931238770e-01    4,715146124e-01    2,751060426e-01    0,000000000e+00    0,000000000e+00    0,000000000e+00    0,000000000e+00
      814000000   -3,633732796e-01    3,530922113e-03    5,079457760e-01   -8,849522471e-02    0,000000000e+00    0,000000000e+00    0,000000000e+00    0,000000000e+00
      828000000   -2,471205443e-01    2,339979857e-01    2,811288238e-01   -3,513579667e-01    0,000000000e+00    0,000000000e+00    0,000000000e+00    0,000000000e+00
      842000000    1,311750431e-02    2,778097093e-01   -1,567816362e-02   -3,629382253e-01    0,000000000e+00    0,000000000e+00    0,000000000e+00    0,000000000e+00
      856000000    2,125519216e-01    1,152523011e-01   -1,883342713e-01   -2,046066076e-01    0,000000000e+00    0,000000000e+00    0,000000000e+00    0,000000000e+00
      870000000    2,387190014e-01   -1,489199400e-01   -2,004057914e-01   -2,590522543e-02    0,000000000e+00    0,000000000e+00    0,000000000e+00    0,000000000e+00
      884000000    3,775404021e-02   -3,869705200e-01   -1,033317745e-01    7,050635666e-02    0,000000000e+00    0,000000000e+00    0,000000000e+00    0,000000000e+00
      898000000   -3,697411418e-01   -3,413184881e-01   -1,696052589e-02    2,737022005e-02    0,000000000e+00    0,000000000e+00    0,000000000e+00    0,000000000e+00
      912000000   -4,665125012e-01    1,383690387e-01   -1,099788100e-01    2,454068139e-02    0,000000000e+00    0,000000000e+00    0,000000000e+00    0,000000000e+00
      926000000   -9,439501911e-02    3,512772322e-01   -1,273614913e-01    1,341970116e-01    0,000000000e+00    0,000000000e+00    0,000000000e+00    0,000000000e+00
      940000000    1,830086112e-01    1,927644610e-01   -3,910670429e-02    2,144412100e-01    0,000000000e+00    0,000000000e+00    0,000000000e+00    0,000000000e+00
      954000000    2,534559369e-01   -4,632205516e-02    7,849375159e-02    2,278946042e-01    0,000000000e+00    0,000000000e+00    0,000000000e+00    0,000000000e+00
      968000000    1,764046401e-01   -2,609659433e-01    1,917968243e-01    1,799376607e-01    0,000000000e+00    0,000000000e+00    0,000000000e+00    0,000000000e+00
      982000000   -1,972708665e-02   -3,943136930e-01    2,799011469e-01    7,894888520e-02    0,000000000e+00    0,000000000e+00    0,000000000e+00    0,000000000e+00
      996000000   -2,734103799e-01   -3,796215951e-01    3,090342581e-01   -7,997196913e-02    0,000000000e+00    0,000000000e+00    0,000000000e+00    0,000000000e+00
     1010000000   -4,724169075e-01   -1,734187156e-01    2,227722257e-01   -2,543547750e-01    0,000000000e+00    0,000000000e+00    0,000000000e+00    0,000000000e+00
     1024000000   -4,621658027e-01    1,153932661e-01    1,893884130e-02   -3,296665251e-01    0,000000000e+00    0,000000000e+00    0,000000000e+00    0,000000000e+00
     1038000000   -2,622725070e-01    2,969868481e-01   -1,741498113e-01   -2,479809374e-01    0,000000000e+00    0,000000000e+00    0,000000000e+00    0,000000000e+00
     1052000000   -3,670249879e-02    3,102010489e-01   -2,576602697e-01   -7,714287937e-02    0,000000000e+00    0,000000000e+00    0,000000000e+00    0,000000000e+00
     1066000000    1,264286786e-01    2,025569677e-01   -2,269504368e-01    8,563792706e-02    0,000000000e+00    0,000000000e+00    0,000000000e+00    0,000000000e+00
     1080000000    2,066329867e-01    5,019644648e-02   -1,220729500e-01    1,914057136e-01    0,000000000e+00    0,000000000e+00    0,000000000e+00    0,000000000e+00
     1094000000    1,987873912e-01   -1,271443516e-01    1,624978706e-02    2,348369062e-01    0,000000000e+00    0,000000000e+00    0,000000000e+00    0,000000000e+00
     1108000000    1,034980193e-01   -2,868201435e-01    1,687693596e-01    2,061029822e-01    0,000000000e+00    0,000000000e+00    0,000000000e+00    0,000000000e+00
     1122000000   -1,022045910e-01   -3,718107343e-01    3,183360398e-01    8,937604725e-02    0,000000000e+00    0,000000000e+00    0,000000000e+00    0,000000000e+00
     1136000000   -3,454643488e-01   -2,640690804e-01    3,915585876e-01   -1,475260109e-01    0,000000000e+00    0,000000000e+00    0,000000000e+00    0,000000000e+00
     1150000000   -4,095456004e-01    3,994921595e-02    2,434283942e-01   -4,350686371e-01    0,000000000e+00    0,000000000e+00    0,000000000e+00    0,000000000e+00
     1164000000   -1,546984315e-01    2,184864432e-01   -9,394206852e-02   -5,142983794e-01    0,000000000e+00    0,000000000e+00    0,000000000e+00    0,000000000e+00
     1178000000    7,423717529e-02    8,162693679e-02   -3,582149148e-01   -3,474024236e-01    0,000000000e+00    0,000000000e+00    0,000000000e+00    0,000000000e+00
     1192000000    7,399764657e-02   -1,761123985e-01   -4,551800191e-01   -8,566341549e-02    0,000000000e+00    0,000000000e+00    0,000000000e+00    0,000000000e+00
     1206000000   -1,637339443e-01   -3,240709603e-01   -3,685596585e-01    1,875033826e-01    0,000000000e+00    0,000000000e+00    0,000000000e+00    0,000000000e+00
     1220000000   -4,516989291e-01   -1,757078916e-01   -1,060574055e-01    3,311172724e-01    0,000000000e+00    0,000000000e+00    0,000000000e+00    0,000000000e+00
     1234000000   -4,726887047e-01    1,697430760e-01    1,347384453e-01    2,254878879e-01    0,000000000e+00    0,000000000e+00    0,000000000e+00    0,000000000e+00
     1248000000   -2,319134474e-01    3,531669676e-01    1,879689395e-01    3,414843231e-02    0,000000000e+00    0,000000000e+00    0,000000000e+00    0,000000000e+00
     1262000000    9,172268212e-03    3,302948177e-01    1,298171431e-01   -7,278854400e-02    0,000000000e+00    0,000000000e+00    0,000000000e+00    0,000000000e+00
     1276000000    1,520192325e-01    1,985032856e-01    5,383887514e-02   -9,809539467e-02    0,000000000e+00    0,000000000e+00    0,000000000e+00    0,000000000e+00
     1290000000    2,170756906e-01    3,260591626e-02    3,274396586e-04   -7,042226195e-02    0,000000000e+00    0,000000000e+00    0,000000000e+00    0,000000000e+00
     1304000000    2,079754621e-01   -1,475430578e-01   -1,163632143e-02   -3,069047816e-02    0,000000000e+00    0,000000000e+00    0,000000000e+00    0,000000000e+00
     1318000000    1,149760261e-01   -3,105329573e-01   -8,791523054e-03    2,525696903e-02    0,000000000e+00    0,000000000e+00    0,000000000e+00    0,000000000e+00
     1332000000   -6,895266473e-02   -4,334402382e-01    5,033781379e-02    6,854156405e-02    0,000000000e+00    0,000000000e+00    0,000000000e+00    0,000000000e+00
     1346000000   -3,282171786e-01   -4,321388900e-01    1,407774091e-01    4,889580980e-02    0,000000000e+00    0,000000000e+00    0,000000000e+00    0,000000000e+00
     1360000000   -5,570940971e-01   -2,488693893e-01    1,153291464e-01   -8,651512861e-02    0,000000000e+00    0,000000000e+00    0,000000000e+00    0,000000000e+00
     1374000000   -6,266007423e-01    3,756418452e-02    1,010709777e-01    6,665031612e-02    0,000000000e+00    0,000000000e+00    0,000000000e+00    0,000000000e+00
     1388000000   -5,108165145e-01    2,958360910e-01    2,315691561e-01    4,562392365e-03    0,000000000e+00    0,000000000e+00    0,000000000e+00    0,000000000e+00
     1402000000   -3,093713522e-01    4,218533635e-01    2,228212059e-01   -7,348723710e-02    0,000000000e+00    0,000000000e+00    0,000000000e+00    0,000000000e+00
     1416000000   -8,925408870e-02    4,198516607e-01    1,945593357e-01   -1,142351627e-01    0,000000000e+00    0,000000000e+00    0,000000000e+00    0,000000000e+00
     1430000000    7,153285295e-02    3,463383019e-01    1,613610685e-01   -9,731308371e-02    0,000000000e+00    0,000000000e+00    0,000000000e+00    0,000000000e+00
     1444000000    1,738891602e-01    2,018649578e-01    1,495651454e-01   -1,114427000e-01    0,000000000e+00    0,000000000e+00    0,000000000e+00    0,000000000e+00
     1458000000    2,278907299e-01    3,559661284e-02    1,497988105e-01   -8,343725652e-02    0,000000000e+00    0,000000000e+00    0,000000000e+00    0,000000000e+00
     1472000000    2,086216807e-01   -1,472617388e-01    1,404451579e-01   -6,632714719e-02    0,000000000e+00    0,000000000e+00    0,000000000e+00    0,000000000e+00
     1486000000    9,917795658e-02   -3,218748569e-01    1,740256995e-01   -1,856526174e-02    0,000000000e+00    0,000000000e+00    0,000000000e+00    0,000000000e+00
     1500000000   -8,862680942e-02   -4,558710158e-01    2,235347033e-01    5,882475525e-02    0,000000000e+00    0,000000000e+00    0,000000000e+00    0,000000000e+00
