! NanoVNA-App
! Date: 2025-09-25 14:23:27
! Start: 100MHz Stop: 1,5GHz Points: 101
! S-Parameter data: F S11 S21 S12 S22
# Hz S RI R 50
!     Frequency           S11_Real           S11_Imag           S21_Real           S21_Imag           S12_Real           S12_Imag           S22_Real           S22_Imag
      100000000   -2,908756025e-02   -4,134456627e-03    3,744634688e-01   -7,220624089e-01    0,000000000e+00    0,000000000e+00    0,000000000e+00    0,000000000e+00
      114000000   -1,662601344e-02    1,163120568e-02   -8,872412890e-02   -8,058656454e-01    0,000000000e+00    0,000000000e+00    0,000000000e+00    0,000000000e+00
      128000000    3,418605542e-03    1,057279203e-02   -5,147022605e-01   -6,211217046e-01    0,000000000e+00    0,000000000e+00    0,000000000e+00    0,000000000e+00
      142000000    1,447322406e-02   -3,060340416e-03   -7,678669095e-01   -2,371106297e-01    0,000000000e+00    0,000000000e+00    0,000000000e+00    0,000000000e+00
      156000000    1,443753298e-02   -1,492249593e-02   -7,652767301e-01    2,181201428e-01    0,000000000e+00    0,000000000e+00    0,000000000e+00    0,000000000e+00
      170000000    1,657218300e-02   -2,254471183e-02   -5,186520815e-01    6,050823331e-01    0,000000000e+00    0,000000000e+00    0,000000000e+00    0,000000000e+00
      184000000    2,098764293e-02   -3,701230511e-02   -1,016972214e-01    7,869948149e-01    0,000000000e+00    0,000000000e+00    0,000000000e+00    0,000000000e+00
      198000000    1,310210954e-02   -6,260431558e-02    3,432069719e-01    7,132345438e-01    0,000000000e+00    0,000000000e+00    0,000000000e+00    0,000000000e+00
      212000000   -1,869169250e-02   -8,167631924e-02    6,783186197e-01    4,106049240e-01    0,000000000e+00    0,000000000e+00    0,000000000e+00    0,000000000e+00
      226000000   -6,202971190e-02   -6,972088665e-02    7,960448265e-01   -2,983535081e-02    0,000000000e+00    0,000000000e+00    0,000000000e+00    0,000000000e+00
      240000000   -8,327482641e-02   -2,609404549e-02    6,471107006e-01   -4,668084383e-01    0,000000000e+00    0,000000000e+00    0,000000000e+00    0,000000000e+00
      254000000   -6,447543204e-02    1,738617383e-02    2,768639922e-01   -7,435365915e-01    0,000000000e+00    0,000000000e+00    0,000000000e+00    0,000000000e+00
      268000000   -2,400762588e-02    2,957917191e-02   -1,768430918e-01   -7,645205259e-01    0,000000000e+00    0,000000000e+00    0,000000000e+00    0,000000000e+00
      282000000    4,070403054e-03    1,206765976e-02   -5,625771284e-01   -5,370159149e-01    0,000000000e+00    0,000000000e+00    0,000000000e+00    0,000000000e+00
      296000000    9,534485638e-03   -7,720055059e-03   -7,609009743e-01   -1,395325810e-01    0,000000000e+00    0,000000000e+00    0,000000000e+00    0,000000000e+00
      310000000    1,093314309e-02   -1,602576114e-02   -7,121266723e-01    2,967999279e-01    0,000000000e+00    0,000000000e+00    0,000000000e+00    0,000000000e+00
      324000000    1,935841329e-02   -2,657070383e-02   -4,287971258e-01    6,373488307e-01    0,000000000e+00    0,000000000e+00    0,000000000e+00    0,000000000e+00
      338000000    2,553528734e-02   -5,209743977e-02   -1,244995557e-02    7,625735998e-01    0,000000000e+00    0,000000000e+00    0,000000000e+00    0,000000000e+00
      352000000    7,405266166e-03   -8,493953943e-02    4,057918787e-01    6,391278505e-01    0,000000000e+00    0,000000000e+00    0,000000000e+00    0,000000000e+00
      366000000   -3,494181484e-02   -9,599470347e-02    6,904952526e-01    3,129017651e-01    0,000000000e+00    0,000000000e+00    0,000000000e+00    0,000000000e+00
      380000000   -7,150544971e-02   -7,100772858e-02    7,482121587e-01   -1,241700575e-01    0,000000000e+00    0,000000000e+00    0,000000000e+00    0,000000000e+00
      394000000   -7,330916822e-02   -3,240441531e-02    5,473974347e-01   -5,201345086e-01    0,000000000e+00    0,000000000e+00    0,000000000e+00    0,000000000e+00
      408000000   -4,693803564e-02   -1,592047885e-02    1,641418189e-01   -7,329017520e-01    0,000000000e+00    0,000000000e+00    0,000000000e+00    0,000000000e+00
      422000000   -2,868068404e-02   -3,138581663e-02   -2,666361928e-01   -6,956984401e-01    0,000000000e+00    0,000000000e+00    0,000000000e+00    0,000000000e+00
      436000000   -4,006084427e-02   -5,204906687e-02   -6,026849747e-01   -4,334359169e-01    0,000000000e+00    0,000000000e+00    0,000000000e+00    0,000000000e+00
      450000000   -6,760372221e-02   -4,465670884e-02   -7,404767275e-01   -2,486522123e-02    0,000000000e+00    0,000000000e+00    0,000000000e+00    0,000000000e+00
      464000000   -7,454919815e-02   -1,230180636e-02   -6,218028069e-01    3,946333230e-01    0,000000000e+00    0,000000000e+00    0,000000000e+00    0,000000000e+00
      478000000   -4,947721586e-02    1,150265895e-02   -2,865876853e-01    6,684412360e-01    0,000000000e+00    0,000000000e+00    0,000000000e+00    0,000000000e+00
      492000000   -1,699761860e-02    6,491669454e-03    1,337386817e-01    7,034510970e-01    0,000000000e+00    0,000000000e+00    0,000000000e+00    0,000000000e+00
      506000000   -3,788886825e-03   -1,517674979e-02    4,975544214e-01    5,054754615e-01    0,000000000e+00    0,000000000e+00    0,000000000e+00    0,000000000e+00
      520000000   -5,793488584e-03   -3,015628643e-02    6,907291412e-01    1,442168802e-01    0,000000000e+00    0,000000000e+00    0,000000000e+00    0,000000000e+00
      534000000   -3,428190015e-03   -3,612134233e-02    6,444076300e-01   -2,597710490e-01    0,000000000e+00    0,000000000e+00    0,000000000e+00    0,000000000e+00
      548000000    8,120265789e-03   -5,263141543e-02    3,851718307e-01   -5,641738772e-01    0,000000000e+00    0,000000000e+00    0,000000000e+00    0,000000000e+00
      562000000    5,707840435e-03   -8,905825019e-02    7,625235245e-03   -6,705173850e-01    0,000000000e+00    0,000000000e+00    0,000000000e+00    0,000000000e+00
      576000000   -3,146016970e-02   -1,257640570e-01   -3,626332283e-01   -5,604413152e-01    0,000000000e+00    0,000000000e+00    0,000000000e+00    0,000000000e+00
      590000000   -9,507841617e-02   -1,276124269e-01   -6,161095500e-01   -2,734236419e-01    0,000000000e+00    0,000000000e+00    0,000000000e+00    0,000000000e+00
      604000000   -1,432406753e-01   -7,776606828e-02   -6,678152084e-01    1,267260015e-01    0,000000000e+00    0,000000000e+00    0,000000000e+00    0,000000000e+00
      618000000   -1,376544088e-01   -1,154345367e-02   -4,749874473e-01    4,850117862e-01    0,000000000e+00    0,000000000e+00    0,000000000e+00    0,000000000e+00
      632000000   -9,275101125e-02    2,181596868e-02   -1,141328141e-01    6,628991365e-01    0,000000000e+00    0,000000000e+00    0,000000000e+00    0,000000000e+00
      646000000   -5,535706133e-02    1,254237257e-02    2,740357518e-01    6,033868194e-01    0,000000000e+00    0,000000000e+00    0,000000000e+00    0,000000000e+00
      660000000   -4,739397764e-02   -8,818466216e-03    5,568865538e-01    3,405451775e-01    0,000000000e+00    0,000000000e+00    0,000000000e+00    0,000000000e+00
      674000000   -5,634325743e-02   -1,079701912e-02    6,442341208e-01   -3,969172761e-02    0,000000000e+00    0,000000000e+00    0,000000000e+00    0,000000000e+00
      688000000   -5,004014075e-02    3,511474468e-03    4,938578308e-01   -4,017184079e-01    0,000000000e+00    0,000000000e+00    0,000000000e+00    0,000000000e+00
      702000000   -2,663406357e-02    6,845008582e-03    1,663157642e-01   -6,048587561e-01    0,000000000e+00    0,000000000e+00    0,000000000e+00    0,000000000e+00
      716000000   -2,303319518e-03   -8,373371325e-03   -2,191704065e-01   -5,752790570e-01    0,000000000e+00    0,000000000e+00    0,000000000e+00    0,000000000e+00
      730000000    8,946851827e-03   -3,409225121e-02   -5,089004636e-01   -3,333904445e-01    0,000000000e+00    0,000000000e+00    0,000000000e+00    0,000000000e+00
      744000000    1,729850098e-02   -6,058843061e-02   -6,003564596e-01    3,344374150e-02    0,000000000e+00    0,000000000e+00    0,000000000e+00    0,000000000e+00
      758000000    2,270737290e-02   -1,033018306e-01   -4,541721642e-01    3,771317303e-01    0,000000000e+00    0,000000000e+00    0,000000000e+00    0,000000000e+00
      772000000   -4,663312808e-03   -1,741371006e-01   -1,393785775e-01    5,580561757e-01    0,000000000e+00    0,000000000e+00    0,000000000e+00    0,000000000e+00
      786000000   -1,045543179e-01   -2,325948775e-01    2,109661847e-01    5,199205875e-01    0,000000000e+00    0,000000000e+00    0,000000000e+00    0,000000000e+00
      800000000   -2,658059597e-01   -1,919695735e-01    4,709177017e-01    2,747589052e-01    0,000000000e+00    0,000000000e+00    0,000000000e+00    0,000000000e+00
      814000000   -3,645458221e-01    2,891161013e-03    5,076419711e-01   -8,825236559e-02    0,000000000e+00    0,000000000e+00    0,000000000e+00    0,000000000e+00
      828000000   -2,478970438e-01    2,336091548e-01    2,812604010e-01   -3,528540730e-01    0,000000000e+00    0,000000000e+00    0,000000000e+00    0,000000000e+00
      842000000    1,333779003e-02    2,788087130e-01   -1,588085108e-02   -3,621780574e-01    0,000000000e+00    0,000000000e+00    0,000000000e+00    0,000000000e+00
      856000000    2,126927078e-01    1,156353056e-01   -1,876191795e-01   -2,044654042e-01    0,000000000e+00    0,000000000e+00    0,000000000e+00    0,000000000e+00
      870000000    2,387505770e-01   -1,486262530e-01   -2,007743269e-01   -2,551056817e-02    0,000000000e+00    0,000000000e+00    0,000000000e+00    0,000000000e+00
      884000000    3,675618023e-02   -3,862151504e-01   -1,035235673e-01    7,105048001e-02    0,000000000e+00    0,000000000e+00    0,000000000e+00    0,000000000e+00
      898000000   -3,697037995e-01   -3,422140181e-01   -1,708850078e-02    2,772625163e-02    0,000000000e+00    0,000000000e+00    0,000000000e+00    0,000000000e+00
      912000000   -4,679323435e-01    1,391175389e-01   -1,070271432e-01    3,224869445e-02    0,000000000e+00    0,000000000e+00    0,000000000e+00    0,000000000e+00
      926000000   -9,425271302e-02    3,523312807e-01   -1,282675266e-01    1,364412308e-01    0,000000000e+00    0,000000000e+00    0,000000000e+00    0,000000000e+00
      940000000    1,850855649e-01    1,955325007e-01   -3,752190992e-02    2,165434659e-01    0,000000000e+00    0,000000000e+00    0,000000000e+00    0,000000000e+00
      954000000    2,550621629e-01   -4,688789323e-02    8,173199743e-02    2,278124243e-01    0,000000000e+00    0,000000000e+00    0,000000000e+00    0,000000000e+00
      968000000    1,778611243e-01   -2,631614804e-01    1,919255257e-01    1,795971245e-01    0,000000000e+00    0,000000000e+00    0,000000000e+00    0,000000000e+00
      982000000   -1,571812294e-02   -3,933899999e-01    2,810040414e-01    7,861191034e-02    0,000000000e+00    0,000000000e+00    0,000000000e+00    0,000000000e+00
      996000000   -2,733847499e-01   -3,796521425e-01    3,097352982e-01   -7,896587998e-02    0,000000000e+00    0,000000000e+00    0,000000000e+00    0,000000000e+00
     1010000000   -4,720903039e-01   -1,721934229e-01    2,212329656e-01   -2,517237663e-01    0,000000000e+00    0,000000000e+00    0,000000000e+00    0,000000000e+00
     1024000000   -4,561734498e-01    1,177800149e-01    2,052027360e-02   -3,269959390e-01    0,000000000e+00    0,000000000e+00    0,000000000e+00    0,000000000e+00
     1038000000   -2,620094717e-01    3,028212190e-01   -1,736797392e-01   -2,492237091e-01    0,000000000e+00    0,000000000e+00    0,000000000e+00    0,000000000e+00
     1052000000   -3,771847859e-02    3,118834496e-01   -2,561672330e-01   -7,772071660e-02    0,000000000e+00    0,000000000e+00    0,000000000e+00    0,000000000e+00
     1066000000    1,286952645e-01    2,038121223e-01   -2,238781750e-01    8,446355909e-02    0,000000000e+00    0,000000000e+00    0,000000000e+00    0,000000000e+00
     1080000000    2,046452016e-01    4,672272503e-02   -1,205766425e-01    1,927262694e-01    0,000000000e+00    0,000000000e+00    0,000000000e+00    0,000000000e+00
     1094000000    2,029816210e-01   -1,263472289e-01    1,616791077e-02    2,341870964e-01    0,000000000e+00    0,000000000e+00    0,000000000e+00    0,000000000e+00
     1108000000    1,009899825e-01   -2,896054089e-01    1,703953892e-01    2,071069628e-01    0,000000000e+00    0,000000000e+00    0,000000000e+00    0,000000000e+00
     1122000000   -1,029235795e-01   -3,699447215e-01    3,167557716e-01    9,059750289e-02    0,000000000e+00    0,000000000e+00    0,000000000e+00    0,000000000e+00
     1136000000   -3,497708142e-01   -2,720773220e-01    3,918666840e-01   -1,525532156e-01    0,000000000e+00    0,000000000e+00    0,000000000e+00    0,000000000e+00
     1150000000   -4,104408026e-01    3,164736554e-02    2,434990406e-01   -4,344971776e-01    0,000000000e+00    0,000000000e+00    0,000000000e+00    0,000000000e+00
     1164000000   -1,599550545e-01    2,125033587e-01   -9,690733254e-02   -5,132781267e-01    0,000000000e+00    0,000000000e+00    0,000000000e+00    0,000000000e+00
     1178000000    7,737475634e-02    8,145527542e-02   -3,585556448e-01   -3,480100632e-01    0,000000000e+00    0,000000000e+00    0,000000000e+00    0,000000000e+00
     1192000000    7,127644867e-02   -1,730543077e-01   -4,563184977e-01   -8,142668009e-02    0,000000000e+00    0,000000000e+00    0,000000000e+00    0,000000000e+00
     1206000000   -1,659289151e-01   -3,270742297e-01   -3,697778285e-01    1,843503565e-01    0,000000000e+00    0,000000000e+00    0,000000000e+00    0,000000000e+00
     1220000000   -4,537696242e-01   -1,793377548e-01   -1,067534462e-01    3,268487453e-01    0,000000000e+00    0,000000000e+00    0,000000000e+00    0,000000000e+00
     1234000000   -4,769176543e-01    1,719292551e-01    1,414145380e-01    2,193108946e-01    0,000000000e+00    0,000000000e+00    0,000000000e+00    0,000000000e+00
     1248000000   -2,330764085e-01    3,531748354e-01    1,970140785e-01    3,721189126e-02    0,000000000e+00    0,000000000e+00    0,000000000e+00    0,000000000e+00
     1262000000   -1,247064560e-03    3,282232285e-01    1,276803762e-01   -7,713563740e-02    0,000000000e+00    0,000000000e+00    0,000000000e+00    0,000000000e+00
     1276000000    1,577533334e-01    2,029087692e-01    5,321836844e-02   -9,394120425e-02    0,000000000e+00    0,000000000e+00    0,000000000e+00    0,000000000e+00
     1290000000    2,197904140e-01    2,983544022e-02    1,519300742e-03   -7,654113322e-02    0,000000000e+00    0,000000000e+00    0,000000000e+00    0,000000000e+00
     1304000000    2,056439370e-01   -1,460770071e-01   -2,498183958e-02   -2,912241779e-02    0,000000000e+00    0,000000000e+00    0,000000000e+00    0,000000000e+00
     1318000000    1,145859808e-01   -3,140242100e-01   -1,894549001e-03    2,180727385e-02    0,000000000e+00    0,000000000e+00    0,000000000e+00    0,000000000e+00
     1332000000   -6,816607714e-02   -4,330298305e-01    4,838849232e-02    6,153415516e-02    0,000000000e+00    0,000000000e+00    0,000000000e+00    0,000000000e+00
     1346000000   -3,260004520e-01   -4,324420094e-01    1,468870938e-01    3,857045248e-02    0,000000000e+00    0,000000000e+00    0,000000000e+00    0,000000000e+00
     1360000000   -5,475512147e-01   -2,479329407e-01    1,241222098e-01   -8,221042901e-02    0,000000000e+00    0,000000000e+00    0,000000000e+00    0,000000000e+00
     1374000000   -6,221076250e-01    3,292424977e-02    9,931173921e-02    7,248005271e-02    0,000000000e+00    0,000000000e+00    0,000000000e+00    0,000000000e+00
     1388000000   -5,059736967e-01    2,887328267e-01    2,293596715e-01    2,432325855e-04    0,000000000e+00    0,000000000e+00    0,000000000e+00    0,000000000e+00
     1402000000   -3,054003716e-01    4,311603308e-01    2,287519425e-01   -7,286720723e-02    0,000000000e+00    0,000000000e+00    0,000000000e+00    0,000000000e+00
     1416000000   -9,489331394e-02    4,291771352e-01    1,839053035e-01   -1,131188646e-01    0,000000000e+00    0,000000000e+00    0,000000000e+00    0,000000000e+00
     1430000000    6,528586894e-02    3,410223126e-01    1,545979083e-01   -9,814116359e-02    0,000000000e+00    0,000000000e+00    0,000000000e+00    0,000000000e+00
     1444000000    1,836454570e-01    2,025576383e-01    1,549517512e-01   -9,578061104e-02    0,000000000e+00    0,000000000e+00    0,000000000e+00    0,000000000e+00
     1458000000    2,221162319e-01    3,507137671e-02    1,495021582e-01   -7,935841382e-02    0,000000000e+00    0,000000000e+00    0,000000000e+00    0,000000000e+00
     1472000000    2,035427988e-01   -1,454084218e-01    1,434969604e-01   -4,850991443e-02    0,000000000e+00    0,000000000e+00    0,000000000e+00    0,000000000e+00
     1486000000    1,036246344e-01   -3,208736777e-01    1,546512544e-01   -9,945604019e-03    0,000000000e+00    0,000000000e+00    0,000000000e+00    0,000000000e+00
     1500000000   -9,037760645e-02   -4,569508135e-01    2,065218687e-01    5,503429100e-02    0,000000000e+00    0,000000000e+00    0,000000000e+00    0,000000000e+00
