! NanoVNA-App
! Date: 2025-09-25 14:25:42
! Start: 100MHz Stop: 1,5GHz Points: 101
! S-Parameter data: F S11 S21 S12 S22
# Hz S RI R 50
!     Frequency           S11_Real           S11_Imag           S21_Real           S21_Imag           S12_Real           S12_Imag           S22_Real           S22_Imag
      100000000   -2,909936197e-02   -4,130319227e-03    3,744716644e-01   -7,220365405e-01    0,000000000e+00    0,000000000e+00    0,000000000e+00    0,000000000e+00
      114000000   -1,663738675e-02    1,163308322e-02   -8,894642442e-02   -8,059179783e-01    0,000000000e+00    0,000000000e+00    0,000000000e+00    0,000000000e+00
      128000000    3,427502932e-03    1,046303660e-02   -5,145352483e-01   -6,209279895e-01    0,000000000e+00    0,000000000e+00    0,000000000e+00    0,000000000e+00
      142000000    1,444254443e-02   -3,074300941e-03   -7,674832940e-01   -2,368917018e-01    0,000000000e+00    0,000000000e+00    0,000000000e+00    0,000000000e+00
      156000000    1,497280877e-02   -1,499613468e-02   -7,699905634e-01    2,197268158e-01    0,000000000e+00    0,000000000e+00    0,000000000e+00    0,000000000e+00
      170000000    1,646175608e-02   -2,252608351e-02   -5,189905167e-01    6,051912308e-01    0,000000000e+00    0,000000000e+00    0,000000000e+00    0,000000000e+00
      184000000    2,097851411e-02   -3,701790422e-02   -1,018296480e-01    7,866510153e-01    0,000000000e+00    0,000000000e+00    0,000000000e+00    0,000000000e+00
      198000000    1,312214509e-02   -6,260849535e-02    3,428437412e-01    7,130398154e-01    0,000000000e+00    0,000000000e+00    0,000000000e+00    0,000000000e+00
      212000000   -1,869955845e-02   -8,169865608e-02    6,782507300e-01    4,105300307e-01    0,000000000e+00    0,000000000e+00    0,000000000e+00    0,000000000e+00
      226000000   -6,209657714e-02   -6,968186796e-02    7,961661816e-01   -2,970234491e-02    0,000000000e+00    0,000000000e+00    0,000000000e+00    0,000000000e+00
      240000000   -8,329882473e-02   -2,607067116e-02    6,468823552e-01   -4,666353762e-01    0,000000000e+00    0,000000000e+00    0,000000000e+00    0,000000000e+00
      254000000   -6,439302117e-02    1,746881194e-02    2,767705619e-01   -7,432070374e-01    0,000000000e+00    0,000000000e+00    0,000000000e+00    0,000000000e+00
      268000000   -2,405371889e-02    2,950422838e-02   -1,765488386e-01   -7,652264833e-01    0,000000000e+00    0,000000000e+00    0,000000000e+00    0,000000000e+00
      282000000    4,160282202e-03    1,206536964e-02   -5,625428557e-01   -5,375041962e-01    0,000000000e+00    0,000000000e+00    0,000000000e+00    0,000000000e+00
      296000000    9,535617195e-03   -7,670127321e-03   -7,609088421e-01   -1,395709068e-01    0,000000000e+00    0,000000000e+00    0,000000000e+00    0,000000000e+00
      310000000    1,097869873e-02   -1,619296707e-02   -7,124507427e-01    2,983462512e-01    0,000000000e+00    0,000000000e+00    0,000000000e+00    0,000000000e+00
      324000000    1,949273795e-02   -2,618870512e-02   -4,283499718e-01    6,374197006e-01    0,000000000e+00    0,000000000e+00    0,000000000e+00    0,000000000e+00
      338000000    2,550716698e-02   -5,199863762e-02   -1,086008456e-02    7,636616230e-01    0,000000000e+00    0,000000000e+00    0,000000000e+00    0,000000000e+00
      352000000    7,382395212e-03   -8,476731181e-02    4,059593678e-01    6,400796175e-01    0,000000000e+00    0,000000000e+00    0,000000000e+00    0,000000000e+00
      366000000   -3,502260521e-02   -9,598019719e-02    6,901632547e-01    3,129053712e-01    0,000000000e+00    0,000000000e+00    0,000000000e+00    0,000000000e+00
      380000000   -7,132684439e-02   -7,126521319e-02    7,486016154e-01   -1,247205585e-01    0,000000000e+00    0,000000000e+00    0,000000000e+00    0,000000000e+00
      394000000   -7,334548980e-02   -3,233895078e-02    5,491744876e-01   -5,207963586e-01    0,000000000e+00    0,000000000e+00    0,000000000e+00    0,000000000e+00
      408000000   -4,694713280e-02   -1,565575041e-02    1,632619649e-01   -7,313771248e-01    0,000000000e+00    0,000000000e+00    0,000000000e+00    0,000000000e+00
      422000000   -2,854449116e-02   -3,145715594e-02   -2,664540708e-01   -6,956834197e-01    0,000000000e+00    0,000000000e+00    0,000000000e+00    0,000000000e+00
      436000000   -3,994789720e-02   -5,154827610e-02   -6,020962596e-01   -4,336438775e-01    0,000000000e+00    0,000000000e+00    0,000000000e+00    0,000000000e+00
      450000000   -6,770817190e-02   -4,490067810e-02   -7,402557731e-01   -2,495736070e-02    0,000000000e+00    0,000000000e+00    0,000000000e+00    0,000000000e+00
      464000000   -7,466816902e-02   -1,217291877e-02   -6,212611198e-01    3,946547508e-01    0,000000000e+00    0,000000000e+00    0,000000000e+00    0,000000000e+00
      478000000   -4,920722917e-02    1,161361672e-02   -2,864400446e-01    6,677074432e-01    0,000000000e+00    0,000000000e+00    0,000000000e+00    0,000000000e+00
      492000000   -1,694654673e-02    6,771576591e-03    1,348045468e-01    7,038946152e-01    0,000000000e+00    0,000000000e+00    0,000000000e+00    0,000000000e+00
      506000000   -3,585895756e-03   -1,495573018e-02    4,973438978e-01    5,066118836e-01    0,000000000e+00    0,000000000e+00    0,000000000e+00    0,000000000e+00
      520000000   -5,541999824e-03   -2,964759059e-02    6,909378767e-01    1,450681090e-01    0,000000000e+00    0,000000000e+00    0,000000000e+00    0,000000000e+00
      534000000   -3,624225501e-03   -3,598750383e-02    6,447578669e-01   -2,602031231e-01    0,000000000e+00    0,000000000e+00    0,000000000e+00    0,000000000e+00
      548000000    8,232437074e-03   -5,301999301e-02    3,850064278e-01   -5,639779568e-01    0,000000000e+00    0,000000000e+00    0,000000000e+00    0,000000000e+00
      562000000    5,900109187e-03   -8,978465199e-02    7,967585698e-03   -6,713419557e-01    0,000000000e+00    0,000000000e+00    0,000000000e+00    0,000000000e+00
      576000000   -3,171756491e-02   -1,258946508e-01   -3,630776405e-01   -5,608372092e-01    0,000000000e+00    0,000000000e+00    0,000000000e+00    0,000000000e+00
      590000000   -9,507822245e-02   -1,278932840e-01   -6,163200140e-01   -2,710925639e-01    0,000000000e+00    0,000000000e+00    0,000000000e+00    0,000000000e+00
      604000000   -1,432296485e-01   -7,785797119e-02   -6,675086021e-01    1,266485751e-01    0,000000000e+00    0,000000000e+00    0,000000000e+00    0,000000000e+00
      618000000   -1,381574273e-01   -1,111787371e-02   -4,752327204e-01    4,859697819e-01    0,000000000e+00    0,000000000e+00    0,000000000e+00    0,000000000e+00
      632000000   -9,366951138e-02    2,185091190e-02   -1,145511121e-01    6,629136801e-01    0,000000000e+00    0,000000000e+00    0,000000000e+00    0,000000000e+00
      646000000   -5,475949496e-02    1,200131234e-02    2,733717561e-01    6,029933095e-01    0,000000000e+00    0,000000000e+00    0,000000000e+00    0,000000000e+00
      660000000   -4,813722149e-02   -8,146977983e-03    5,572245121e-01    3,398763537e-01    0,000000000e+00    0,000000000e+00    0,000000000e+00    0,000000000e+00
      674000000   -5,582494289e-02   -1,097030565e-02    6,444023252e-01   -3,981887549e-02    0,000000000e+00    0,000000000e+00    0,000000000e+00    0,000000000e+00
      688000000   -5,008896068e-02    2,508737380e-03    4,928804934e-01   -4,015897512e-01    0,000000000e+00    0,000000000e+00    0,000000000e+00    0,000000000e+00
      702000000   -2,525841445e-02    7,237954997e-03    1,588903517e-01   -6,046435237e-01    0,000000000e+00    0,000000000e+00    0,000000000e+00    0,000000000e+00
      716000000   -1,246756874e-03   -9,049330838e-03   -2,184285820e-01   -5,758554339e-01    0,000000000e+00    0,000000000e+00    0,000000000e+00    0,000000000e+00
      730000000    9,095366113e-03   -3,493684530e-02   -5,095698237e-01   -3,333021998e-01    0,000000000e+00    0,000000000e+00    0,000000000e+00    0,000000000e+00
      744000000    1,708565094e-02   -6,032490730e-02   -6,008259654e-01    3,256512433e-02    0,000000000e+00    0,000000000e+00    0,000000000e+00    0,000000000e+00
      758000000    2,230958641e-02   -1,028442383e-01   -4,544686377e-01    3,768568933e-01    0,000000000e+00    0,000000000e+00    0,000000000e+00    0,000000000e+00
      772000000   -4,437845666e-03   -1,737146974e-01   -1,393991113e-01    5,579133630e-01    0,000000000e+00    0,000000000e+00    0,000000000e+00    0,000000000e+00
      786000000   -1,046203300e-01   -2,317410707e-01    2,110625654e-01    5,188651681e-01    0,000000000e+00    0,000000000e+00    0,000000000e+00    0,000000000e+00
      800000000   -2,662143707e-01   -1,933939904e-01    4,716655314e-01    2,759188712e-01    0,000000000e+00    0,000000000e+00    0,000000000e+00    0,000000000e+00
      814000000   -3,648617268e-01    4,268664401e-03    5,081849098e-01   -8,860003948e-02    0,000000000e+00    0,000000000e+00    0,000000000e+00    0,000000000e+00
      828000000   -2,467307150e-01    2,335602492e-01    2,815037668e-01   -3,520810306e-01    0,000000000e+00    0,000000000e+00    0,000000000e+00    0,000000000e+00
      842000000    1,268255897e-02    2,775832415e-01   -1,622937620e-02   -3,628189564e-01    0,000000000e+00    0,000000000e+00    0,000000000e+00    0,000000000e+00
      856000000    2,126125544e-01    1,158086732e-01   -1,875973642e-01   -2,047576606e-01    0,000000000e+00    0,000000000e+00    0,000000000e+00    0,000000000e+00
      870000000    2,391439527e-01   -1,482994705e-01   -2,001536041e-01   -2,582857572e-02    0,000000000e+00    0,000000000e+00    0,000000000e+00    0,000000000e+00
      884000000    3,763717413e-02   -3,874056339e-01   -1,040239856e-01    7,038166374e-02    0,000000000e+00    0,000000000e+00    0,000000000e+00    0,000000000e+00
      898000000   -3,686820269e-01   -3,416160643e-01   -1,675637066e-02    2,733547054e-02    0,000000000e+00    0,000000000e+00    0,000000000e+00    0,000000000e+00
      912000000   -4,674051404e-01    1,390533149e-01   -1,231077388e-01    3,233326972e-02    0,000000000e+00    0,000000000e+00    0,000000000e+00    0,000000000e+00
      926000000   -9,373559058e-02    3,520805836e-01   -1,274838746e-01    1,341137141e-01    0,000000000e+00    0,000000000e+00    0,000000000e+00    0,000000000e+00
      940000000    1,836978197e-01    1,956799179e-01   -3,917199001e-02    2,188601196e-01    0,000000000e+00    0,000000000e+00    0,000000000e+00    0,000000000e+00
      954000000    2,515497208e-01   -4,704771936e-02    7,983186096e-02    2,266563475e-01    0,000000000e+00    0,000000000e+00    0,000000000e+00    0,000000000e+00
      968000000    1,737961620e-01   -2,623949945e-01    1,923296005e-01    1,805690080e-01    0,000000000e+00    0,000000000e+00    0,000000000e+00    0,000000000e+00
      982000000   -1,581019163e-02   -3,912602663e-01    2,810617089e-01    7,939889282e-02    0,000000000e+00    0,000000000e+00    0,000000000e+00    0,000000000e+00
      996000000   -2,729298174e-01   -3,794480264e-01    3,110318780e-01   -8,160521090e-02    0,000000000e+00    0,000000000e+00    0,000000000e+00    0,000000000e+00
     1010000000   -4,680740237e-01   -1,759476066e-01    2,206286490e-01   -2,534718513e-01    0,000000000e+00    0,000000000e+00    0,000000000e+00    0,000000000e+00
     1024000000   -4,569978714e-01    1,149361283e-01    2,032216638e-02   -3,296846449e-01    0,000000000e+00    0,000000000e+00    0,000000000e+00    0,000000000e+00
     1038000000   -2,673850656e-01    2,971525490e-01   -1,721990705e-01   -2,492189705e-01    0,000000000e+00    0,000000000e+00    0,000000000e+00    0,000000000e+00
     1052000000   -3,856489435e-02    3,116800785e-01   -2,571334243e-01   -7,736022770e-02    0,000000000e+00    0,000000000e+00    0,000000000e+00    0,000000000e+00
     1066000000    1,237716526e-01    2,063421160e-01   -2,217258364e-01    8,812889457e-02    0,000000000e+00    0,000000000e+00    0,000000000e+00    0,000000000e+00
     1080000000    2,070143968e-01    4,603712261e-02   -1,197539195e-01    1,942630112e-01    0,000000000e+00    0,000000000e+00    0,000000000e+00    0,000000000e+00
     1094000000    2,027918249e-01   -1,307779998e-01    1,753399335e-02    2,350237668e-01    0,000000000e+00    0,000000000e+00    0,000000000e+00    0,000000000e+00
     1108000000    9,733312577e-02   -2,877973616e-01    1,680190861e-01    2,078617066e-01    0,000000000e+00    0,000000000e+00    0,000000000e+00    0,000000000e+00
     1122000000   -1,037391797e-01   -3,721827269e-01    3,160086572e-01    8,809139580e-02    0,000000000e+00    0,000000000e+00    0,000000000e+00    0,000000000e+00
     1136000000   -3,456321657e-01   -2,749357820e-01    3,898827136e-01   -1,494167447e-01    0,000000000e+00    0,000000000e+00    0,000000000e+00    0,000000000e+00
     1150000000   -4,126506746e-01    3,659049049e-02    2,427812964e-01   -4,364698529e-01    0,000000000e+00    0,000000000e+00    0,000000000e+00    0,000000000e+00
     1164000000   -1,635016799e-01    2,172178179e-01   -9,441965818e-02   -5,118527412e-01    0,000000000e+00    0,000000000e+00    0,000000000e+00    0,000000000e+00
     1178000000    7,669352740e-02    8,055271953e-02   -3,589046299e-01   -3,470581770e-01    0,000000000e+00    0,000000000e+00    0,000000000e+00    0,000000000e+00
     1192000000    7,324338704e-02   -1,759725064e-01   -4,546500146e-01   -8,507511020e-02    0,000000000e+00    0,000000000e+00    0,000000000e+00    0,000000000e+00
     1206000000   -1,631605327e-01   -3,262341619e-01   -3,686349094e-01    1,862644553e-01    0,000000000e+00    0,000000000e+00    0,000000000e+00    0,000000000e+00
     1220000000   -4,507830739e-01   -1,772675961e-01   -1,046268791e-01    3,267922401e-01    0,000000000e+00    0,000000000e+00    0,000000000e+00    0,000000000e+00
     1234000000   -4,746916592e-01    1,659290344e-01    1,298381686e-01    2,271343768e-01    0,000000000e+00    0,000000000e+00    0,000000000e+00    0,000000000e+00
     1248000000   -2,322755456e-01    3,587069213e-01    1,931522191e-01    3,920318931e-02    0,000000000e+00    0,000000000e+00    0,000000000e+00    0,000000000e+00
     1262000000    6,023094989e-03    3,339039683e-01    1,288550496e-01   -7,202661783e-02    0,000000000e+00    0,000000000e+00    0,000000000e+00    0,000000000e+00
     1276000000    1,585458964e-01    1,977859586e-01    5,301620811e-02   -9,883676469e-02    0,000000000e+00    0,000000000e+00    0,000000000e+00    0,000000000e+00
     1290000000    2,149566561e-01    3,059492446e-02    2,098615514e-03   -7,229679078e-02    0,000000000e+00    0,000000000e+00    0,000000000e+00    0,000000000e+00
     1304000000    2,029150426e-01   -1,480361372e-01   -1,776969060e-02   -2,751793340e-02    0,000000000e+00    0,000000000e+00    0,000000000e+00    0,000000000e+00
     1318000000    1,159968227e-01   -3,151600361e-01   -7,618885487e-03    1,964970119e-02    0,000000000e+00    0,000000000e+00    0,000000000e+00    0,000000000e+00
     1332000000   -6,482797116e-02   -4,349648654e-01    5,231598392e-02    5,899443477e-02    0,000000000e+00    0,000000000e+00    0,000000000e+00    0,000000000e+00
     1346000000   -3,278605640e-01   -4,349246323e-01    1,382714659e-01    4,375584796e-02    0,000000000e+00    0,000000000e+00    0,000000000e+00    0,000000000e+00
     1360000000   -5,473630428e-01   -2,409498692e-01    1,211711466e-01   -7,571186870e-02    0,000000000e+00    0,000000000e+00    0,000000000e+00    0,000000000e+00
     1374000000   -6,167129278e-01    2,564259060e-02    1,213418916e-01    5,119498819e-02    0,000000000e+00    0,000000000e+00    0,000000000e+00    0,000000000e+00
     1388000000   -5,064706206e-01    2,907983065e-01    2,344760895e-01    1,179989893e-02    0,000000000e+00    0,000000000e+00    0,000000000e+00    0,000000000e+00
     1402000000   -3,011625707e-01    4,116543233e-01    2,290573269e-01   -9,053830802e-02    0,000000000e+00    0,000000000e+00    0,000000000e+00    0,000000000e+00
     1416000000   -9,373302013e-02    4,208755791e-01    1,820871383e-01   -1,120278984e-01    0,000000000e+00    0,000000000e+00    0,000000000e+00    0,000000000e+00
     1430000000    6,927880645e-02    3,402661681e-01    1,505242139e-01   -1,283243001e-01    0,000000000e+00    0,000000000e+00    0,000000000e+00    0,000000000e+00
     1444000000    1,772471815e-01    1,965682507e-01    1,545918435e-01   -1,068966016e-01    0,000000000e+00    0,000000000e+00    0,000000000e+00    0,000000000e+00
     1458000000    2,213133276e-01    3,833328187e-02    1,466879100e-01   -8,195298910e-02    0,000000000e+00    0,000000000e+00    0,000000000e+00    0,000000000e+00
     1472000000    2,024809420e-01   -1,444167197e-01    1,599704772e-01   -5,188805982e-02    0,000000000e+00    0,000000000e+00    0,000000000e+00    0,000000000e+00
     1486000000    1,108689830e-01   -3,278965056e-01    1,574183702e-01   -5,131856073e-03    0,000000000e+00    0,000000000e+00    0,000000000e+00    0,000000000e+00
     1500000000   -8,829075843e-02   -4,586546719e-01    2,085533440e-01    6,372231990e-02    0,000000000e+00    0,000000000e+00    0,000000000e+00    0,000000000e+00
