! NanoVNA-App
! Date: 2025-09-25 14:26:19
! Start: 100MHz Stop: 1,5GHz Points: 101
! S-Parameter data: F S11 S21 S12 S22
# Hz S RI R 50
!     Frequency           S11_Real           S11_Imag           S21_Real           S21_Imag           S12_Real           S12_Imag           S22_Real           S22_Imag
      100000000   -2,909374610e-02   -4,127971828e-03    3,744991422e-01   -7,220315337e-01    0,000000000e+00    0,000000000e+00    0,000000000e+00    0,000000000e+00
      114000000   -1,659838296e-02    1,160375122e-02   -8,894570917e-02   -8,056299090e-01    0,000000000e+00    0,000000000e+00    0,000000000e+00    0,000000000e+00
      128000000    3,442850895e-03    1,051135920e-02   -5,145501494e-01   -6,212232709e-01    0,000000000e+00    0,000000000e+00    0,000000000e+00    0,000000000e+00
      142000000    1,445255429e-02   -3,079729155e-03   -7,675133348e-01   -2,370732576e-01    0,000000000e+00    0,000000000e+00    0,000000000e+00    0,000000000e+00
      156000000    1,516240463e-02   -1,486872323e-02   -7,720695138e-01    2,214051187e-01    0,000000000e+00    0,000000000e+00    0,000000000e+00    0,000000000e+00
      170000000    1,653957367e-02   -2,252864279e-02   -5,187237263e-01    6,051300168e-01    0,000000000e+00    0,000000000e+00    0,000000000e+00    0,000000000e+00
      184000000    2,098221704e-02   -3,701564670e-02   -1,016381755e-01    7,867725492e-01    0,000000000e+00    0,000000000e+00    0,000000000e+00    0,000000000e+00
      198000000    1,312759984e-02   -6,258080900e-02    3,429898322e-01    7,132329941e-01    0,000000000e+00    0,000000000e+00    0,000000000e+00    0,000000000e+00
      212000000   -1,870525628e-02   -8,171153814e-02    6,781626940e-01    4,105875492e-01    0,000000000e+00    0,000000000e+00    0,000000000e+00    0,000000000e+00
      226000000   -6,214963645e-02   -6,970728934e-02    7,962292433e-01   -2,967136353e-02    0,000000000e+00    0,000000000e+00    0,000000000e+00    0,000000000e+00
      240000000   -8,329931647e-02   -2,606851235e-02    6,473208666e-01   -4,664856791e-01    0,000000000e+00    0,000000000e+00    0,000000000e+00    0,000000000e+00
      254000000   -6,438840181e-02    1,746704616e-02    2,772287428e-01   -7,429722548e-01    0,000000000e+00    0,000000000e+00    0,000000000e+00    0,000000000e+00
      268000000   -2,403628267e-02    2,946012095e-02   -1,766869128e-01   -7,647336125e-01    0,000000000e+00    0,000000000e+00    0,000000000e+00    0,000000000e+00
      282000000    4,175518639e-03    1,206739806e-02   -5,625427365e-01   -5,374731421e-01    0,000000000e+00    0,000000000e+00    0,000000000e+00    0,000000000e+00
      296000000    9,504842572e-03   -7,673627697e-03   -7,607468367e-01   -1,395231932e-01    0,000000000e+00    0,000000000e+00    0,000000000e+00    0,000000000e+00
      310000000    1,091700699e-02   -1,637164503e-02   -7,124842405e-01    2,986764312e-01    0,000000000e+00    0,000000000e+00    0,000000000e+00    0,000000000e+00
      324000000    1,935782284e-02   -2,636943571e-02   -4,292898774e-01    6,375219226e-01    0,000000000e+00    0,000000000e+00    0,000000000e+00    0,000000000e+00
      338000000    2,520736866e-02   -5,205690116e-02   -8,424464613e-03    7,607223392e-01    0,000000000e+00    0,000000000e+00    0,000000000e+00    0,000000000e+00
      352000000    7,531266659e-03   -8,494399488e-02    4,061675072e-01    6,414903402e-01    0,000000000e+00    0,000000000e+00    0,000000000e+00    0,000000000e+00
      366000000   -3,515464813e-02   -9,610689431e-02    6,902073026e-01    3,128940463e-01    0,000000000e+00    0,000000000e+00    0,000000000e+00    0,000000000e+00
      380000000   -7,144942880e-02   -7,126087695e-02    7,486113310e-01   -1,245136783e-01    0,000000000e+00    0,000000000e+00    0,000000000e+00    0,000000000e+00
      394000000   -7,316451520e-02   -3,257379681e-02    5,476933718e-01   -5,208448172e-01    0,000000000e+00    0,000000000e+00    0,000000000e+00    0,000000000e+00
      408000000   -4,672321677e-02   -1,589144953e-02    1,637687087e-01   -7,315719724e-01    0,000000000e+00    0,000000000e+00    0,000000000e+00    0,000000000e+00
      422000000   -2,834836952e-02   -3,150507435e-02   -2,669199109e-01   -6,957762837e-01    0,000000000e+00    0,000000000e+00    0,000000000e+00    0,000000000e+00
      436000000   -4,037060961e-02   -5,214478076e-02   -6,029950380e-01   -4,335446656e-01    0,000000000e+00    0,000000000e+00    0,000000000e+00    0,000000000e+00
      450000000   -6,750121713e-02   -4,445075616e-02   -7,399367690e-01   -2,491666935e-02    0,000000000e+00    0,000000000e+00    0,000000000e+00    0,000000000e+00
      464000000   -7,436162233e-02   -1,193799730e-02   -6,210576892e-01    3,943860829e-01    0,000000000e+00    0,000000000e+00    0,000000000e+00    0,000000000e+00
      478000000   -4,926392809e-02    1,199381892e-02   -2,863615751e-01    6,673644781e-01    0,000000000e+00    0,000000000e+00    0,000000000e+00    0,000000000e+00
      492000000   -1,720208302e-02    6,412868388e-03    1,340992004e-01    7,038732171e-01    0,000000000e+00    0,000000000e+00    0,000000000e+00    0,000000000e+00
      506000000   -3,819233505e-03   -1,527079567e-02    4,971964061e-01    5,053921342e-01    0,000000000e+00    0,000000000e+00    0,000000000e+00    0,000000000e+00
      520000000   -5,936319008e-03   -2,933213301e-02    6,892378926e-01    1,432424188e-01    0,000000000e+00    0,000000000e+00    0,000000000e+00    0,000000000e+00
      534000000   -3,439887660e-03   -3,584533185e-02    6,450598836e-01   -2,600253820e-01    0,000000000e+00    0,000000000e+00    0,000000000e+00    0,000000000e+00
      548000000    7,886041887e-03   -5,282272398e-02    3,851895928e-01   -5,640815496e-01    0,000000000e+00    0,000000000e+00    0,000000000e+00    0,000000000e+00
      562000000    5,449655931e-03   -8,951268345e-02    8,548906073e-03   -6,718655825e-01    0,000000000e+00    0,000000000e+00    0,000000000e+00    0,000000000e+00
      576000000   -3,158845752e-02   -1,259083748e-01   -3,625484109e-01   -5,606933236e-01    0,000000000e+00    0,000000000e+00    0,000000000e+00    0,000000000e+00
      590000000   -9,503011405e-02   -1,278249770e-01   -6,151615977e-01   -2,717687190e-01    0,000000000e+00    0,000000000e+00    0,000000000e+00    0,000000000e+00
      604000000   -1,433581114e-01   -7,796180993e-02   -6,677051783e-01    1,261400729e-01    0,000000000e+00    0,000000000e+00    0,000000000e+00    0,000000000e+00
      618000000   -1,382477582e-01   -1,173331775e-02   -4,753591120e-01    4,853077531e-01    0,000000000e+00    0,000000000e+00    0,000000000e+00    0,000000000e+00
      632000000   -9,301785380e-02    2,128932811e-02   -1,138135716e-01    6,631841063e-01    0,000000000e+00    0,000000000e+00    0,000000000e+00    0,000000000e+00
      646000000   -5,572406948e-02    1,202665828e-02    2,731697559e-01    6,043118834e-01    0,000000000e+00    0,000000000e+00    0,000000000e+00    0,000000000e+00
      660000000   -4,859748483e-02   -8,711677976e-03    5,571843982e-01    3,402478397e-01    0,000000000e+00    0,000000000e+00    0,000000000e+00    0,000000000e+00
      674000000   -5,518539250e-02   -1,029044110e-02    6,441618800e-01   -3,974842653e-02    0,000000000e+00    0,000000000e+00    0,000000000e+00    0,000000000e+00
      688000000   -5,015241727e-02    3,641933436e-03    4,942738116e-01   -4,014150202e-01    0,000000000e+00    0,000000000e+00    0,000000000e+00    0,000000000e+00
      702000000   -2,497185208e-02    6,896762643e-03    1,593525708e-01   -6,037514210e-01    0,000000000e+00    0,000000000e+00    0,000000000e+00    0,000000000e+00
      716000000   -1,367631252e-03   -8,667639457e-03   -2,189843506e-01   -5,747929215e-01    0,000000000e+00    0,000000000e+00    0,000000000e+00    0,000000000e+00
      730000000    9,774510749e-03   -3,417093679e-02   -5,088822246e-01   -3,331163824e-01    0,000000000e+00    0,000000000e+00    0,000000000e+00    0,000000000e+00
      744000000    1,667944714e-02   -6,030224264e-02   -6,011834741e-01    3,284850344e-02    0,000000000e+00    0,000000000e+00    0,000000000e+00    0,000000000e+00
      758000000    2,270460501e-02   -1,036791429e-01   -4,547450542e-01    3,772144914e-01    0,000000000e+00    0,000000000e+00    0,000000000e+00    0,000000000e+00
      772000000   -5,195905920e-03   -1,738075167e-01   -1,405908912e-01    5,585407019e-01    0,000000000e+00    0,000000000e+00    0,000000000e+00    0,000000000e+00
      786000000   -1,049711332e-01   -2,330289185e-01    2,119149715e-01    5,190816522e-01    0,000000000e+00    0,000000000e+00    0,000000000e+00    0,000000000e+00
      800000000   -2,654223740e-01   -1,929207891e-01    4,721658528e-01    2,762655616e-01    0,000000000e+00    0,000000000e+00    0,000000000e+00    0,000000000e+00
      814000000   -3,649257720e-01    3,107157070e-03    5,081608295e-01   -8,830558509e-02    0,000000000e+00    0,000000000e+00    0,000000000e+00    0,000000000e+00
      828000000   -2,471007407e-01    2,323972285e-01    2,815760970e-01   -3,516542017e-01    0,000000000e+00    0,000000000e+00    0,000000000e+00    0,000000000e+00
      842000000    1,370200794e-02    2,784603536e-01   -1,542840712e-02   -3,629737198e-01    0,000000000e+00    0,000000000e+00    0,000000000e+00    0,000000000e+00
      856000000    2,126669586e-01    1,157648563e-01   -1,872214228e-01   -2,044577748e-01    0,000000000e+00    0,000000000e+00    0,000000000e+00    0,000000000e+00
      870000000    2,385748625e-01   -1,485187113e-01   -2,006549984e-01   -2,547565661e-02    0,000000000e+00    0,000000000e+00    0,000000000e+00    0,000000000e+00
      884000000    3,859179094e-02   -3,859888613e-01   -1,038912237e-01    7,065261155e-02    0,000000000e+00    0,000000000e+00    0,000000000e+00    0,000000000e+00
      898000000   -3,696215749e-01   -3,424246013e-01   -1,697196066e-02    2,696796507e-02    0,000000000e+00    0,000000000e+00    0,000000000e+00    0,000000000e+00
      912000000   -4,663632810e-01    1,384867579e-01   -1,164050177e-01    2,119313367e-02    0,000000000e+00    0,000000000e+00    0,000000000e+00    0,000000000e+00
      926000000   -9,707188606e-02    3,528710604e-01   -1,293133497e-01    1,350281835e-01    0,000000000e+00    0,000000000e+00    0,000000000e+00    0,000000000e+00
      940000000    1,847856492e-01    1,959584057e-01   -4,019635171e-02    2,169456035e-01    0,000000000e+00    0,000000000e+00    0,000000000e+00    0,000000000e+00
      954000000    2,557488382e-01   -5,053834990e-02    7,958398759e-02    2,255061716e-01    0,000000000e+00    0,000000000e+00    0,000000000e+00    0,000000000e+00
      968000000    1,780017614e-01   -2,622133791e-01    1,909275353e-01    1,817364544e-01    0,000000000e+00    0,000000000e+00    0,000000000e+00    0,000000000e+00
      982000000   -1,904070564e-02   -3,958561420e-01    2,787615061e-01    8,006006479e-02    0,000000000e+00    0,000000000e+00    0,000000000e+00    0,000000000e+00
      996000000   -2,749938071e-01   -3,734676242e-01    3,098914325e-01   -7,918897271e-02    0,000000000e+00    0,000000000e+00    0,000000000e+00    0,000000000e+00
     1010000000   -4,658962488e-01   -1,734853685e-01    2,202396095e-01   -2,530276179e-01    0,000000000e+00    0,000000000e+00    0,000000000e+00    0,000000000e+00
     1024000000   -4,562809169e-01    1,191814542e-01    2,199222893e-02   -3,294723630e-01    0,000000000e+00    0,000000000e+00    0,000000000e+00    0,000000000e+00
     1038000000   -2,655238807e-01    3,013321757e-01   -1,735408902e-01   -2,477996647e-01    0,000000000e+00    0,000000000e+00    0,000000000e+00    0,000000000e+00
     1052000000   -4,079049453e-02    3,100124598e-01   -2,572658658e-01   -7,681268454e-02    0,000000000e+00    0,000000000e+00    0,000000000e+00    0,000000000e+00
     1066000000    1,289937496e-01    2,081873417e-01   -2,272582501e-01    8,546677977e-02    0,000000000e+00    0,000000000e+00    0,000000000e+00    0,000000000e+00
     1080000000    2,095601112e-01    4,630850628e-02   -1,233028099e-01    1,941708624e-01    0,000000000e+00    0,000000000e+00    0,000000000e+00    0,000000000e+00
     1094000000    2,033089101e-01   -1,254882962e-01    1,661683060e-02    2,327342629e-01    0,000000000e+00    0,000000000e+00    0,000000000e+00    0,000000000e+00
     1108000000    9,964527935e-02   -2,892573476e-01    1,694837064e-01    2,069385797e-01    0,000000000e+00    0,000000000e+00    0,000000000e+00    0,000000000e+00
     1122000000   -9,831172973e-02   -3,719842434e-01    3,153373599e-01    9,079817683e-02    0,000000000e+00    0,000000000e+00    0,000000000e+00    0,000000000e+00
     1136000000   -3,433436453e-01   -2,688619494e-01    3,931326568e-01   -1,511830688e-01    0,000000000e+00    0,000000000e+00    0,000000000e+00    0,000000000e+00
     1150000000   -4,109256864e-01    3,339313343e-02    2,453069687e-01   -4,369938374e-01    0,000000000e+00    0,000000000e+00    0,000000000e+00    0,000000000e+00
     1164000000   -1,586537063e-01    2,234727740e-01   -9,498218447e-02   -5,097078085e-01    0,000000000e+00    0,000000000e+00    0,000000000e+00    0,000000000e+00
     1178000000    7,409827411e-02    8,613771945e-02   -3,564236760e-01   -3,442918360e-01    0,000000000e+00    0,000000000e+00    0,000000000e+00    0,000000000e+00
     1192000000    7,325078547e-02   -1,749975085e-01   -4,552381635e-01   -8,318317682e-02    0,000000000e+00    0,000000000e+00    0,000000000e+00    0,000000000e+00
     1206000000   -1,635996848e-01   -3,243593276e-01   -3,711286783e-01    1,909736097e-01    0,000000000e+00    0,000000000e+00    0,000000000e+00    0,000000000e+00
     1220000000   -4,600552320e-01   -1,761194170e-01   -1,084119081e-01    3,295936882e-01    0,000000000e+00    0,000000000e+00    0,000000000e+00    0,000000000e+00
     1234000000   -4,725204408e-01    1,709450483e-01    1,391955614e-01    2,237830460e-01    0,000000000e+00    0,000000000e+00    0,000000000e+00    0,000000000e+00
     1248000000   -2,362322807e-01    3,599870205e-01    1,992298812e-01    3,847718984e-02    0,000000000e+00    0,000000000e+00    0,000000000e+00    0,000000000e+00
     1262000000    1,437483705e-03    3,317037225e-01    1,261496842e-01   -7,094443589e-02    0,000000000e+00    0,000000000e+00    0,000000000e+00    0,000000000e+00
     1276000000    1,593342274e-01    2,003901601e-01    5,106162652e-02   -9,628824890e-02    0,000000000e+00    0,000000000e+00    0,000000000e+00    0,000000000e+00
     1290000000    2,141484767e-01    2,772184461e-02   -7,148997975e-04   -7,817134261e-02    0,000000000e+00    0,000000000e+00    0,000000000e+00    0,000000000e+00
     1304000000    2,075426579e-01   -1,499158740e-01   -1,828586496e-02   -3,372393921e-02    0,000000000e+00    0,000000000e+00    0,000000000e+00    0,000000000e+00
     1318000000    1,155601293e-01   -3,116621673e-01   -3,266093554e-03    1,675490290e-02    0,000000000e+00    0,000000000e+00    0,000000000e+00    0,000000000e+00
     1332000000   -6,772211194e-02   -4,322653115e-01    4,592330754e-02    7,112351060e-02    0,000000000e+00    0,000000000e+00    0,000000000e+00    0,000000000e+00
     1346000000   -3,284902275e-01   -4,363965988e-01    1,478077471e-01    3,992058709e-02    0,000000000e+00    0,000000000e+00    0,000000000e+00    0,000000000e+00
     1360000000   -5,567132831e-01   -2,410771847e-01    1,220250651e-01   -6,994465739e-02    0,000000000e+00    0,000000000e+00    0,000000000e+00    0,000000000e+00
     1374000000   -6,229913235e-01    2,617696673e-02    9,976772964e-02    6,277816743e-02    0,000000000e+00    0,000000000e+00    0,000000000e+00    0,000000000e+00
     1388000000   -5,159850717e-01    2,978760600e-01    2,282243818e-01    2,354586031e-03    0,000000000e+00    0,000000000e+00    0,000000000e+00    0,000000000e+00
     1402000000   -2,955971956e-01    4,184891582e-01    2,394606024e-01   -8,446998149e-02    0,000000000e+00    0,000000000e+00    0,000000000e+00    0,000000000e+00
     1416000000   -1,010688320e-01    4,150569737e-01    1,854035258e-01   -1,203073412e-01    0,000000000e+00    0,000000000e+00    0,000000000e+00    0,000000000e+00
     1430000000    7,316216826e-02    3,392129242e-01    1,876105517e-01   -1,448863149e-01    0,000000000e+00    0,000000000e+00    0,000000000e+00    0,000000000e+00
     1444000000    1,787095666e-01    2,007747293e-01    1,625331789e-01   -1,018876210e-01    0,000000000e+00    0,000000000e+00    0,000000000e+00    0,000000000e+00
     1458000000    2,287182808e-01    3,618174419e-02    1,487396061e-01   -7,292300463e-02    0,000000000e+00    0,000000000e+00    0,000000000e+00    0,000000000e+00
     1472000000    2,104467154e-01   -1,431164294e-01    1,563233584e-01   -5,305142701e-02    0,000000000e+00    0,000000000e+00    0,000000000e+00    0,000000000e+00
     1486000000    1,054290906e-01   -3,308866322e-01    1,681798697e-01   -1,594571583e-02    0,000000000e+00    0,000000000e+00    0,000000000e+00    0,000000000e+00
     1500000000   -9,405238926e-02   -4,623570442e-01    1,965096593e-01    4,716316611e-02    0,000000000e+00    0,000000000e+00    0,000000000e+00    0,000000000e+00
