! NanoVNA-App
! Date: 2025-09-25 14:27:57
! Start: 100MHz Stop: 1,5GHz Points: 101
! S-Parameter data: F S11 S21 S12 S22
# Hz S RI R 50
!     Frequency           S11_Real           S11_Imag           S21_Real           S21_Imag           S12_Real           S12_Imag           S22_Real           S22_Imag
      100000000   -2,910041250e-02   -4,136845935e-03    3,745679259e-01   -7,220560312e-01    0,000000000e+00    0,000000000e+00    0,000000000e+00    0,000000000e+00
      114000000   -1,661073416e-02    1,160585228e-02   -8,876740932e-02   -8,058938384e-01    0,000000000e+00    0,000000000e+00    0,000000000e+00    0,000000000e+00
      128000000    3,421634901e-03    1,051626168e-02   -5,146574974e-01   -6,210879087e-01    0,000000000e+00    0,000000000e+00    0,000000000e+00    0,000000000e+00
      142000000    1,445221342e-02   -3,079470713e-03   -7,674504519e-01   -2,369650155e-01    0,000000000e+00    0,000000000e+00    0,000000000e+00    0,000000000e+00
      156000000    1,441080682e-02   -1,489944104e-02   -7,653535604e-01    2,180350572e-01    0,000000000e+00    0,000000000e+00    0,000000000e+00    0,000000000e+00
      170000000    1,651100256e-02   -2,240125649e-02   -5,188495517e-01    6,050310731e-01    0,000000000e+00    0,000000000e+00    0,000000000e+00    0,000000000e+00
      184000000    2,097537369e-02   -3,706215695e-02   -1,020257995e-01    7,868301272e-01    0,000000000e+00    0,000000000e+00    0,000000000e+00    0,000000000e+00
      198000000    1,317271311e-02   -6,261880696e-02    3,428694010e-01    7,132031918e-01    0,000000000e+00    0,000000000e+00    0,000000000e+00    0,000000000e+00
      212000000   -1,872694306e-02   -8,169411868e-02    6,782066822e-01    4,105897546e-01    0,000000000e+00    0,000000000e+00    0,000000000e+00    0,000000000e+00
      226000000   -6,205232441e-02   -6,972179562e-02    7,961091995e-01   -2,964679711e-02    0,000000000e+00    0,000000000e+00    0,000000000e+00    0,000000000e+00
      240000000   -8,333821595e-02   -2,603299171e-02    6,472274661e-01   -4,666697383e-01    0,000000000e+00    0,000000000e+00    0,000000000e+00    0,000000000e+00
      254000000   -6,437973678e-02    1,747601479e-02    2,769996822e-01   -7,433086634e-01    0,000000000e+00    0,000000000e+00    0,000000000e+00    0,000000000e+00
      268000000   -2,400468290e-02    2,949405834e-02   -1,766885072e-01   -7,648329735e-01    0,000000000e+00    0,000000000e+00    0,000000000e+00    0,000000000e+00
      282000000    4,196998198e-03    1,209222060e-02   -5,625301003e-01   -5,373664498e-01    0,000000000e+00    0,000000000e+00    0,000000000e+00    0,000000000e+00
      296000000    9,557009675e-03   -7,865312509e-03   -7,607785463e-01   -1,394132078e-01    0,000000000e+00    0,000000000e+00    0,000000000e+00    0,000000000e+00
      310000000    1,092184708e-02   -1,616957225e-02   -7,142962217e-01    2,971803844e-01    0,000000000e+00    0,000000000e+00    0,000000000e+00    0,000000000e+00
      324000000    1,942383312e-02   -2,658788487e-02   -4,281850457e-01    6,372187138e-01    0,000000000e+00    0,000000000e+00    0,000000000e+00    0,000000000e+00
      338000000    2,541195042e-02   -5,213820562e-02   -1,280135848e-02    7,612341046e-01    0,000000000e+00    0,000000000e+00    0,000000000e+00    0,000000000e+00
      352000000    7,551748306e-03   -8,481329679e-02    4,065688252e-01    6,408345699e-01    0,000000000e+00    0,000000000e+00    0,000000000e+00    0,000000000e+00
      366000000   -3,491049260e-02   -9,621697664e-02    6,906732917e-01    3,124619722e-01    0,000000000e+00    0,000000000e+00    0,000000000e+00    0,000000000e+00
      380000000   -7,152087241e-02   -7,124930620e-02    7,483283281e-01   -1,248470396e-01    0,000000000e+00    0,000000000e+00    0,000000000e+00    0,000000000e+00
      394000000   -7,310653478e-02   -3,224492073e-02    5,491989851e-01   -5,212750435e-01    0,000000000e+00    0,000000000e+00    0,000000000e+00    0,000000000e+00
      408000000   -4,718915001e-02   -1,570435986e-02    1,627776921e-01   -7,326853871e-01    0,000000000e+00    0,000000000e+00    0,000000000e+00    0,000000000e+00
      422000000   -2,802705951e-02   -3,134606406e-02   -2,650164366e-01   -6,967562437e-01    0,000000000e+00    0,000000000e+00    0,000000000e+00    0,000000000e+00
      436000000   -3,990359232e-02   -5,198437721e-02   -6,024198532e-01   -4,337329566e-01    0,000000000e+00    0,000000000e+00    0,000000000e+00    0,000000000e+00
      450000000   -6,746651232e-02   -4,506042972e-02   -7,403420210e-01   -2,549054846e-02    0,000000000e+00    0,000000000e+00    0,000000000e+00    0,000000000e+00
      464000000   -7,433607429e-02   -1,223086007e-02   -6,217173338e-01    3,943318725e-01    0,000000000e+00    0,000000000e+00    0,000000000e+00    0,000000000e+00
      478000000   -4,920182005e-02    1,178967301e-02   -2,871865928e-01    6,676125526e-01    0,000000000e+00    0,000000000e+00    0,000000000e+00    0,000000000e+00
      492000000   -1,701563969e-02    6,473644171e-03    1,341626793e-01    7,044865489e-01    0,000000000e+00    0,000000000e+00    0,000000000e+00    0,000000000e+00
      506000000   -3,685882082e-03   -1,485024206e-02    4,973472655e-01    5,063095093e-01    0,000000000e+00    0,000000000e+00    0,000000000e+00    0,000000000e+00
      520000000   -5,752408411e-03   -2,945167944e-02    6,888740063e-01    1,446565688e-01    0,000000000e+00    0,000000000e+00    0,000000000e+00    0,000000000e+00
      534000000   -3,572707297e-03   -3,573200852e-02    6,442950964e-01   -2,599774003e-01    0,000000000e+00    0,000000000e+00    0,000000000e+00    0,000000000e+00
      548000000    8,238077164e-03   -5,252156034e-02    3,853483200e-01   -5,637629032e-01    0,000000000e+00    0,000000000e+00    0,000000000e+00    0,000000000e+00
      562000000    5,560053978e-03   -8,982793242e-02    8,227891289e-03   -6,716507077e-01    0,000000000e+00    0,000000000e+00    0,000000000e+00    0,000000000e+00
      576000000   -3,083623759e-02   -1,260592192e-01   -3,614818454e-01   -5,614435673e-01    0,000000000e+00    0,000000000e+00    0,000000000e+00    0,000000000e+00
      590000000   -9,474802762e-02   -1,273647398e-01   -6,154332161e-01   -2,709617913e-01    0,000000000e+00    0,000000000e+00    0,000000000e+00    0,000000000e+00
      604000000   -1,430806220e-01   -7,774273306e-02   -6,670436859e-01    1,263873577e-01    0,000000000e+00    0,000000000e+00    0,000000000e+00    0,000000000e+00
      618000000   -1,383824795e-01   -1,090727001e-02   -4,754484892e-01    4,853999019e-01    0,000000000e+00    0,000000000e+00    0,000000000e+00    0,000000000e+00
      632000000   -9,258856624e-02    2,183971554e-02   -1,134848520e-01    6,649538279e-01    0,000000000e+00    0,000000000e+00    0,000000000e+00    0,000000000e+00
      646000000   -5,539471284e-02    1,130400505e-02    2,734508812e-01    6,040689349e-01    0,000000000e+00    0,000000000e+00    0,000000000e+00    0,000000000e+00
      660000000   -4,773477465e-02   -9,028336033e-03    5,582494736e-01    3,408156931e-01    0,000000000e+00    0,000000000e+00    0,000000000e+00    0,000000000e+00
      674000000   -5,643073097e-02   -1,107750274e-02    6,443822980e-01   -3,951450437e-02    0,000000000e+00    0,000000000e+00    0,000000000e+00    0,000000000e+00
      688000000   -5,016050115e-02    3,656666260e-03    4,925850630e-01   -4,012720585e-01    0,000000000e+00    0,000000000e+00    0,000000000e+00    0,000000000e+00
      702000000   -2,680948190e-02    7,748116739e-03    1,646904349e-01   -6,033705473e-01    0,000000000e+00    0,000000000e+00    0,000000000e+00    0,000000000e+00
      716000000   -2,743128687e-03   -8,723402396e-03   -2,193961293e-01   -5,751897097e-01    0,000000000e+00    0,000000000e+00    0,000000000e+00    0,000000000e+00
      730000000    8,993474767e-03   -3,452871740e-02   -5,083122253e-01   -3,333434165e-01    0,000000000e+00    0,000000000e+00    0,000000000e+00    0,000000000e+00
      744000000    1,632831432e-02   -6,128569320e-02   -6,009303331e-01    3,335972130e-02    0,000000000e+00    0,000000000e+00    0,000000000e+00    0,000000000e+00
      758000000    2,190539800e-02   -1,034390703e-01   -4,541271329e-01    3,767004013e-01    0,000000000e+00    0,000000000e+00    0,000000000e+00    0,000000000e+00
      772000000   -5,419387016e-03   -1,732356399e-01   -1,391632706e-01    5,578948259e-01    0,000000000e+00    0,000000000e+00    0,000000000e+00    0,000000000e+00
      786000000   -1,048266739e-01   -2,327308655e-01    2,114849836e-01    5,198953748e-01    0,000000000e+00    0,000000000e+00    0,000000000e+00    0,000000000e+00
      800000000   -2,656860054e-01   -1,923393160e-01    4,720188975e-01    2,752134502e-01    0,000000000e+00    0,000000000e+00    0,000000000e+00    0,000000000e+00
      814000000   -3,642252088e-01    4,135979339e-03    5,081248879e-01   -8,851642162e-02    0,000000000e+00    0,000000000e+00    0,000000000e+00    0,000000000e+00
      828000000   -2,479487956e-01    2,338898331e-01    2,811947763e-01   -3,521312177e-01    0,000000000e+00    0,000000000e+00    0,000000000e+00    0,000000000e+00
      842000000    1,264316775e-02    2,783267498e-01   -1,612598263e-02   -3,630402684e-01    0,000000000e+00    0,000000000e+00    0,000000000e+00    0,000000000e+00
      856000000    2,123646885e-01    1,154705063e-01   -1,879387349e-01   -2,044783533e-01    0,000000000e+00    0,000000000e+00    0,000000000e+00    0,000000000e+00
      870000000    2,388659418e-01   -1,487743407e-01   -1,999595314e-01   -2,582889050e-02    0,000000000e+00    0,000000000e+00    0,000000000e+00    0,000000000e+00
      884000000    3,798116744e-02   -3,858619034e-01   -1,040516421e-01    7,095896453e-02    0,000000000e+00    0,000000000e+00    0,000000000e+00    0,000000000e+00
      898000000   -3,703701794e-01   -3,416589499e-01   -1,702619903e-02    2,827327698e-02    0,000000000e+00    0,000000000e+00    0,000000000e+00    0,000000000e+00
      912000000   -4,659757018e-01    1,382017881e-01   -1,220053211e-01    2,771771885e-02    0,000000000e+00    0,000000000e+00    0,000000000e+00    0,000000000e+00
      926000000   -9,585173428e-02    3,501766026e-01   -1,300383061e-01    1,330454946e-01    0,000000000e+00    0,000000000e+00    0,000000000e+00    0,000000000e+00
      940000000    1,834970415e-01    1,923497915e-01   -3,925717995e-02    2,154699862e-01    0,000000000e+00    0,000000000e+00    0,000000000e+00    0,000000000e+00
      954000000    2,570891678e-01   -4,913363978e-02    7,980335504e-02    2,267484069e-01    0,000000000e+00    0,000000000e+00    0,000000000e+00    0,000000000e+00
      968000000    1,732195318e-01   -2,628445327e-01    1,916996688e-01    1,811685264e-01    0,000000000e+00    0,000000000e+00    0,000000000e+00    0,000000000e+00
      982000000   -1,495717932e-02   -3,959345520e-01    2,790944278e-01    7,885435224e-02    0,000000000e+00    0,000000000e+00    0,000000000e+00    0,000000000e+00
      996000000   -2,710630298e-01   -3,770296872e-01    3,101008236e-01   -7,875365764e-02    0,000000000e+00    0,000000000e+00    0,000000000e+00    0,000000000e+00
     1010000000   -4,726381302e-01   -1,739826053e-01    2,235570401e-01   -2,524996400e-01    0,000000000e+00    0,000000000e+00    0,000000000e+00    0,000000000e+00
     1024000000   -4,601157606e-01    1,131677255e-01    2,178556845e-02   -3,296180367e-01    0,000000000e+00    0,000000000e+00    0,000000000e+00    0,000000000e+00
     1038000000   -2,613697350e-01    2,963953614e-01   -1,715795249e-01   -2,485471666e-01    0,000000000e+00    0,000000000e+00    0,000000000e+00    0,000000000e+00
     1052000000   -3,489767760e-02    3,112277985e-01   -2,570040226e-01   -7,911524177e-02    0,000000000e+00    0,000000000e+00    0,000000000e+00    0,000000000e+00
     1066000000    1,272981614e-01    2,090283185e-01   -2,225797623e-01    8,459775895e-02    0,000000000e+00    0,000000000e+00    0,000000000e+00    0,000000000e+00
     1080000000    2,093544453e-01    4,652891308e-02   -1,206066310e-01    1,937881410e-01    0,000000000e+00    0,000000000e+00    0,000000000e+00    0,000000000e+00
     1094000000    2,035865039e-01   -1,280664057e-01    1,800728776e-02    2,314646989e-01    0,000000000e+00    0,000000000e+00    0,000000000e+00    0,000000000e+00
     1108000000    1,025279835e-01   -2,910569012e-01    1,695682853e-01    2,069764435e-01    0,000000000e+00    0,000000000e+00    0,000000000e+00    0,000000000e+00
     1122000000   -1,043132693e-01   -3,695333302e-01    3,160423934e-01    8,915135264e-02    0,000000000e+00    0,000000000e+00    0,000000000e+00    0,000000000e+00
     1136000000   -3,508500159e-01   -2,689735293e-01    3,930622935e-01   -1,518356204e-01    0,000000000e+00    0,000000000e+00    0,000000000e+00    0,000000000e+00
     1150000000   -4,107171297e-01    3,148603812e-02    2,433740944e-01   -4,364397824e-01    0,000000000e+00    0,000000000e+00    0,000000000e+00    0,000000000e+00
     1164000000   -1,618018597e-01    2,217415720e-01   -9,734185785e-02   -5,148276687e-01    0,000000000e+00    0,000000000e+00    0,000000000e+00    0,000000000e+00
     1178000000    7,219579816e-02    8,587522060e-02   -3,578443229e-01   -3,443451524e-01    0,000000000e+00    0,000000000e+00    0,000000000e+00    0,000000000e+00
     1192000000    7,531193644e-02   -1,750881970e-01   -4,549281895e-01   -8,413165063e-02    0,000000000e+00    0,000000000e+00    0,000000000e+00    0,000000000e+00
     1206000000   -1,626159251e-01   -3,294508457e-01   -3,676561713e-01    1,863113344e-01    0,000000000e+00    0,000000000e+00    0,000000000e+00    0,000000000e+00
     1220000000   -4,531624317e-01   -1,759509444e-01   -1,047141626e-01    3,314404190e-01    0,000000000e+00    0,000000000e+00    0,000000000e+00    0,000000000e+00
     1234000000   -4,675887227e-01    1,698709726e-01    1,396782994e-01    2,226331681e-01    0,000000000e+00    0,000000000e+00    0,000000000e+00    0,000000000e+00
     1248000000   -2,342737168e-01    3,517415524e-01    1,928257942e-01    3,011561371e-02    0,000000000e+00    0,000000000e+00    0,000000000e+00    0,000000000e+00
     1262000000    9,521578439e-03    3,257194161e-01    1,311617494e-01   -7,236549258e-02    0,000000000e+00    0,000000000e+00    0,000000000e+00    0,000000000e+00
     1276000000    1,584385484e-01    2,007597834e-01    5,246835575e-02   -9,375748783e-02    0,000000000e+00    0,000000000e+00    0,000000000e+00    0,000000000e+00
     1290000000    2,191879749e-01    3,503813222e-02   -7,686131867e-04   -7,201005518e-02    0,000000000e+00    0,000000000e+00    0,000000000e+00    0,000000000e+00
     1304000000    2,030293494e-01   -1,445676684e-01   -1,778188720e-02   -3,237219527e-02    0,000000000e+00    0,000000000e+00    0,000000000e+00    0,000000000e+00
     1318000000    1,162422448e-01   -3,142887354e-01    3,020715376e-04    2,616372146e-02    0,000000000e+00    0,000000000e+00    0,000000000e+00    0,000000000e+00
     1332000000   -6,497994810e-02   -4,334482253e-01    4,185213894e-02    7,066285610e-02    0,000000000e+00    0,000000000e+00    0,000000000e+00    0,000000000e+00
     1346000000   -3,313669264e-01   -4,358035922e-01    1,478054821e-01    4,837006703e-02    0,000000000e+00    0,000000000e+00    0,000000000e+00    0,000000000e+00
     1360000000   -5,495269895e-01   -2,417725921e-01    1,157216728e-01   -7,547349483e-02    0,000000000e+00    0,000000000e+00    0,000000000e+00    0,000000000e+00
     1374000000   -6,207713485e-01    2,619250864e-02    1,072993204e-01    5,369356275e-02    0,000000000e+00    0,000000000e+00    0,000000000e+00    0,000000000e+00
     1388000000   -5,056519508e-01    2,936932445e-01    2,322214246e-01    8,729793131e-03    0,000000000e+00    0,000000000e+00    0,000000000e+00    0,000000000e+00
     1402000000   -3,018172681e-01    4,246374369e-01    2,227332890e-01   -7,435741276e-02    0,000000000e+00    0,000000000e+00    0,000000000e+00    0,000000000e+00
     1416000000   -8,637561649e-02    4,207268655e-01    1,953243315e-01   -1,224986985e-01    0,000000000e+00    0,000000000e+00    0,000000000e+00    0,000000000e+00
     1430000000    6,233045086e-02    3,332788050e-01    1,568454504e-01   -1,114328951e-01    0,000000000e+00    0,000000000e+00    0,000000000e+00    0,000000000e+00
     1444000000    1,766202897e-01    2,035574317e-01    1,513168067e-01   -9,184402972e-02    0,000000000e+00    0,000000000e+00    0,000000000e+00    0,000000000e+00
     1458000000    2,252509147e-01    3,360540420e-02    1,422860175e-01   -7,692109793e-02    0,000000000e+00    0,000000000e+00    0,000000000e+00    0,000000000e+00
     1472000000    2,091782093e-01   -1,495429426e-01    1,618918926e-01   -5,321532860e-02    0,000000000e+00    0,000000000e+00    0,000000000e+00    0,000000000e+00
     1486000000    1,034912616e-01   -3,245901167e-01    1,549862474e-01    5,405290518e-03    0,000000000e+00    0,000000000e+00    0,000000000e+00    0,000000000e+00
     1500000000   -8,742381632e-02   -4,555942416e-01    2,226625383e-01    5,372894928e-02    0,000000000e+00    0,000000000e+00    0,000000000e+00    0,000000000e+00
