! NanoVNA-App
! Date: 2025-09-25 14:28:01
! Start: 100MHz Stop: 1,5GHz Points: 101
! S-Parameter data: F S11 S21 S12 S22
# Hz S RI R 50
!     Frequency           S11_Real           S11_Imag           S21_Real           S21_Imag           S12_Real           S12_Imag           S22_Real           S22_Imag
      100000000   -2,910844795e-02   -4,130631220e-03    3,745068014e-01   -7,219872475e-01    0,000000000e+00    0,000000000e+00    0,000000000e+00    0,000000000e+00
      114000000   -1,662782580e-02    1,158619206e-02   -8,890439570e-02   -8,058837652e-01    0,000000000e+00    0,000000000e+00    0,000000000e+00    0,000000000e+00
      128000000    3,387726843e-03    1,046254206e-02   -5,146503448e-01   -6,210762262e-01    0,000000000e+00    0,000000000e+00    0,000000000e+00    0,000000000e+00
      142000000    1,442423742e-02   -3,074302804e-03   -7,673724294e-01   -2,370454967e-01    0,000000000e+00    0,000000000e+00    0,000000000e+00    0,000000000e+00
      156000000    1,567122340e-02   -1,440109499e-02   -7,729234695e-01    2,240225524e-01    0,000000000e+00    0,000000000e+00    0,000000000e+00    0,000000000e+00
      170000000    1,653335616e-02   -2,244833484e-02   -5,190175176e-01    6,050426364e-01    0,000000000e+00    0,000000000e+00    0,000000000e+00    0,000000000e+00
      184000000    2,101765946e-02   -3,701310605e-02   -1,018052101e-01    7,867949605e-01    0,000000000e+00    0,000000000e+00    0,000000000e+00    0,000000000e+00
      198000000    1,315676235e-02   -6,261163205e-02    3,429504037e-01    7,129947543e-01    0,000000000e+00    0,000000000e+00    0,000000000e+00    0,000000000e+00
      212000000   -1,868467778e-02   -8,172782511e-02    6,783088446e-01    4,106541276e-01    0,000000000e+00    0,000000000e+00    0,000000000e+00    0,000000000e+00
      226000000   -6,209603325e-02   -6,966821849e-02    7,961643934e-01   -2,975333296e-02    0,000000000e+00    0,000000000e+00    0,000000000e+00    0,000000000e+00
      240000000   -8,330599964e-02   -2,602406032e-02    6,471878886e-01   -4,667451680e-01    0,000000000e+00    0,000000000e+00    0,000000000e+00    0,000000000e+00
      254000000   -6,438572705e-02    1,748365909e-02    2,771275640e-01   -7,432025671e-01    0,000000000e+00    0,000000000e+00    0,000000000e+00    0,000000000e+00
      268000000   -2,401042543e-02    2,951540239e-02   -1,768647432e-01   -7,647856474e-01    0,000000000e+00    0,000000000e+00    0,000000000e+00    0,000000000e+00
      282000000    4,025747068e-03    1,210651360e-02   -5,625926256e-01   -5,375542045e-01    0,000000000e+00    0,000000000e+00    0,000000000e+00    0,000000000e+00
      296000000    9,571501985e-03   -7,658360060e-03   -7,609036565e-01   -1,396036595e-01    0,000000000e+00    0,000000000e+00    0,000000000e+00    0,000000000e+00
      310000000    1,083259936e-02   -1,616411842e-02   -7,141230106e-01    2,972350717e-01    0,000000000e+00    0,000000000e+00    0,000000000e+00    0,000000000e+00
      324000000    1,952926442e-02   -2,643033676e-02   -4,283699095e-01    6,375234127e-01    0,000000000e+00    0,000000000e+00    0,000000000e+00    0,000000000e+00
      338000000    2,527868375e-02   -5,177966878e-02   -1,029375661e-02    7,612058520e-01    0,000000000e+00    0,000000000e+00    0,000000000e+00    0,000000000e+00
      352000000    7,174483966e-03   -8,458078653e-02    4,055081904e-01    6,417726874e-01    0,000000000e+00    0,000000000e+00    0,000000000e+00    0,000000000e+00
      366000000   -3,474534303e-02   -9,586966038e-02    6,909521222e-01    3,129211962e-01    0,000000000e+00    0,000000000e+00    0,000000000e+00    0,000000000e+00
      380000000   -7,139390707e-02   -7,107810676e-02    7,483145595e-01   -1,249620840e-01    0,000000000e+00    0,000000000e+00    0,000000000e+00    0,000000000e+00
      394000000   -7,308961451e-02   -3,255042806e-02    5,491181016e-01   -5,216957927e-01    0,000000000e+00    0,000000000e+00    0,000000000e+00    0,000000000e+00
      408000000   -4,714684188e-02   -1,551234629e-02    1,620519161e-01   -7,323414683e-01    0,000000000e+00    0,000000000e+00    0,000000000e+00    0,000000000e+00
      422000000   -2,843271941e-02   -3,167035803e-02   -2,656461000e-01   -6,962323189e-01    0,000000000e+00    0,000000000e+00    0,000000000e+00    0,000000000e+00
      436000000   -4,024405405e-02   -5,205449462e-02   -6,029855609e-01   -4,336517453e-01    0,000000000e+00    0,000000000e+00    0,000000000e+00    0,000000000e+00
      450000000   -6,736553460e-02   -4,467947036e-02   -7,402994633e-01   -2,517531440e-02    0,000000000e+00    0,000000000e+00    0,000000000e+00    0,000000000e+00
      464000000   -7,432211190e-02   -1,238163188e-02   -6,217088103e-01    3,949849308e-01    0,000000000e+00    0,000000000e+00    0,000000000e+00    0,000000000e+00
      478000000   -4,900396988e-02    1,140644122e-02   -2,865528166e-01    6,675495505e-01    0,000000000e+00    0,000000000e+00    0,000000000e+00    0,000000000e+00
      492000000   -1,738511585e-02    6,527177524e-03    1,336871833e-01    7,042213082e-01    0,000000000e+00    0,000000000e+00    0,000000000e+00    0,000000000e+00
      506000000   -3,476195270e-03   -1,478894334e-02    4,978405535e-01    5,065316558e-01    0,000000000e+00    0,000000000e+00    0,000000000e+00    0,000000000e+00
      520000000   -5,531267263e-03   -2,964116633e-02    6,904063225e-01    1,449783444e-01    0,000000000e+00    0,000000000e+00    0,000000000e+00    0,000000000e+00
      534000000   -3,253412666e-03   -3,605711460e-02    6,450412869e-01   -2,600472271e-01    0,000000000e+00    0,000000000e+00    0,000000000e+00    0,000000000e+00
      548000000    8,354051970e-03   -5,263545364e-02    3,860536814e-01   -5,633581281e-01    0,000000000e+00    0,000000000e+00    0,000000000e+00    0,000000000e+00
      562000000    5,732209422e-03   -8,947904408e-02    8,480627090e-03   -6,715821624e-01    0,000000000e+00    0,000000000e+00    0,000000000e+00    0,000000000e+00
      576000000   -3,112781793e-02   -1,262721866e-01   -3,625531197e-01   -5,611574054e-01    0,000000000e+00    0,000000000e+00    0,000000000e+00    0,000000000e+00
      590000000   -9,503763169e-02   -1,277560294e-01   -6,152129173e-01   -2,729876935e-01    0,000000000e+00    0,000000000e+00    0,000000000e+00    0,000000000e+00
      604000000   -1,430566460e-01   -7,780328393e-02   -6,671129465e-01    1,264180392e-01    0,000000000e+00    0,000000000e+00    0,000000000e+00    0,000000000e+00
      618000000   -1,382534355e-01   -1,160134468e-02   -4,753565490e-01    4,838983715e-01    0,000000000e+00    0,000000000e+00    0,000000000e+00    0,000000000e+00
      632000000   -9,317388386e-02    2,227154188e-02   -1,134512350e-01    6,644251943e-01    0,000000000e+00    0,000000000e+00    0,000000000e+00    0,000000000e+00
      646000000   -5,557625741e-02    1,202454045e-02    2,731715143e-01    6,041727662e-01    0,000000000e+00    0,000000000e+00    0,000000000e+00    0,000000000e+00
      660000000   -4,751725122e-02   -8,602913469e-03    5,581117868e-01    3,400950134e-01    0,000000000e+00    0,000000000e+00    0,000000000e+00    0,000000000e+00
      674000000   -5,578389019e-02   -1,135888323e-02    6,444437504e-01   -3,947374225e-02    0,000000000e+00    0,000000000e+00    0,000000000e+00    0,000000000e+00
      688000000   -5,104989186e-02    3,371520434e-03    4,938028455e-01   -4,019232690e-01    0,000000000e+00    0,000000000e+00    0,000000000e+00    0,000000000e+00
      702000000   -2,655473910e-02    7,244303357e-03    1,634667814e-01   -6,052696109e-01    0,000000000e+00    0,000000000e+00    0,000000000e+00    0,000000000e+00
      716000000   -2,480991650e-03   -9,281073697e-03   -2,185252905e-01   -5,759492517e-01    0,000000000e+00    0,000000000e+00    0,000000000e+00    0,000000000e+00
      730000000    9,091150016e-03   -3,523607925e-02   -5,089000463e-01   -3,330000639e-01    0,000000000e+00    0,000000000e+00    0,000000000e+00    0,000000000e+00
      744000000    1,693386212e-02   -6,137979403e-02   -6,004931927e-01    3,309475631e-02    0,000000000e+00    0,000000000e+00    0,000000000e+00    0,000000000e+00
      758000000    2,152512968e-02   -1,033916250e-01   -4,538673759e-01    3,770398498e-01    0,000000000e+00    0,000000000e+00    0,000000000e+00    0,000000000e+00
      772000000   -4,378621466e-03   -1,737832874e-01   -1,405701041e-01    5,589123368e-01    0,000000000e+00    0,000000000e+00    0,000000000e+00    0,000000000e+00
      786000000   -1,049849391e-01   -2,321652621e-01    2,119197994e-01    5,195127726e-01    0,000000000e+00    0,000000000e+00    0,000000000e+00    0,000000000e+00
      800000000   -2,659924924e-01   -1,916634440e-01    4,712650180e-01    2,752919197e-01    0,000000000e+00    0,000000000e+00    0,000000000e+00    0,000000000e+00
      814000000   -3,645105660e-01    4,193494562e-03    5,078021288e-01   -8,860524744e-02    0,000000000e+00    0,000000000e+00    0,000000000e+00    0,000000000e+00
      828000000   -2,465872914e-01    2,331342846e-01    2,819823027e-01   -3,519062400e-01    0,000000000e+00    0,000000000e+00    0,000000000e+00    0,000000000e+00
      842000000    1,249544881e-02    2,782385945e-01   -1,687991619e-02   -3,628678322e-01    0,000000000e+00    0,000000000e+00    0,000000000e+00    0,000000000e+00
      856000000    2,124406397e-01    1,153840572e-01   -1,882975399e-01   -2,050137818e-01    0,000000000e+00    0,000000000e+00    0,000000000e+00    0,000000000e+00
      870000000    2,390485257e-01   -1,489851326e-01   -2,002541125e-01   -2,633570693e-02    0,000000000e+00    0,000000000e+00    0,000000000e+00    0,000000000e+00
      884000000    3,756202757e-02   -3,860982656e-01   -1,042059660e-01    7,090687007e-02    0,000000000e+00    0,000000000e+00    0,000000000e+00    0,000000000e+00
      898000000   -3,694475591e-01   -3,426446021e-01   -1,775092259e-02    2,731036581e-02    0,000000000e+00    0,000000000e+00    0,000000000e+00    0,000000000e+00
      912000000   -4,663631618e-01    1,374499947e-01   -1,191382930e-01    3,901216388e-02    0,000000000e+00    0,000000000e+00    0,000000000e+00    0,000000000e+00
      926000000   -9,407413006e-02    3,505932689e-01   -1,255748421e-01    1,353411674e-01    0,000000000e+00    0,000000000e+00    0,000000000e+00    0,000000000e+00
      940000000    1,859800071e-01    1,955356449e-01   -3,911279887e-02    2,161917388e-01    0,000000000e+00    0,000000000e+00    0,000000000e+00    0,000000000e+00
      954000000    2,547525167e-01   -5,065074936e-02    8,043657243e-02    2,273799330e-01    0,000000000e+00    0,000000000e+00    0,000000000e+00    0,000000000e+00
      968000000    1,771583110e-01   -2,628201246e-01    1,902954429e-01    1,794620156e-01    0,000000000e+00    0,000000000e+00    0,000000000e+00    0,000000000e+00
      982000000   -1,442824304e-02   -3,910826743e-01    2,809038162e-01    8,005949110e-02    0,000000000e+00    0,000000000e+00    0,000000000e+00    0,000000000e+00
      996000000   -2,748495936e-01   -3,745811880e-01    3,097589612e-01   -7,845053077e-02    0,000000000e+00    0,000000000e+00    0,000000000e+00    0,000000000e+00
     1010000000   -4,674306512e-01   -1,750513762e-01    2,211134583e-01   -2,529738247e-01    0,000000000e+00    0,000000000e+00    0,000000000e+00    0,000000000e+00
     1024000000   -4,568778872e-01    1,141124293e-01    2,252462693e-02   -3,285970092e-01    0,000000000e+00    0,000000000e+00    0,000000000e+00    0,000000000e+00
     1038000000   -2,657306492e-01    2,949706614e-01   -1,691936255e-01   -2,475986332e-01    0,000000000e+00    0,000000000e+00    0,000000000e+00    0,000000000e+00
     1052000000   -4,057033733e-02    3,080886304e-01   -2,572641969e-01   -7,851593941e-02    0,000000000e+00    0,000000000e+00    0,000000000e+00    0,000000000e+00
     1066000000    1,243245602e-01    2,058703154e-01   -2,252220213e-01    8,479786664e-02    0,000000000e+00    0,000000000e+00    0,000000000e+00    0,000000000e+00
     1080000000    2,079883367e-01    5,106416717e-02   -1,205590069e-01    1,911853850e-01    0,000000000e+00    0,000000000e+00    0,000000000e+00    0,000000000e+00
     1094000000    1,981788874e-01   -1,281696707e-01    1,831666008e-02    2,334072590e-01    0,000000000e+00    0,000000000e+00    0,000000000e+00    0,000000000e+00
     1108000000    9,840817750e-02   -2,887169421e-01    1,701059043e-01    2,071139514e-01    0,000000000e+00    0,000000000e+00    0,000000000e+00    0,000000000e+00
     1122000000   -1,013960168e-01   -3,720217347e-01    3,164974749e-01    8,946863562e-02    0,000000000e+00    0,000000000e+00    0,000000000e+00    0,000000000e+00
     1136000000   -3,473095596e-01   -2,657195628e-01    3,929302692e-01   -1,477928609e-01    0,000000000e+00    0,000000000e+00    0,000000000e+00    0,000000000e+00
     1150000000   -4,069327712e-01    3,142837435e-02    2,419539988e-01   -4,343256652e-01    0,000000000e+00    0,000000000e+00    0,000000000e+00    0,000000000e+00
     1164000000   -1,629765630e-01    2,198702991e-01   -9,607557952e-02   -5,162296295e-01    0,000000000e+00    0,000000000e+00    0,000000000e+00    0,000000000e+00
     1178000000    7,257571816e-02    8,106886595e-02   -3,578956723e-01   -3,487297893e-01    0,000000000e+00    0,000000000e+00    0,000000000e+00    0,000000000e+00
     1192000000    7,354898751e-02   -1,730577350e-01   -4,543477297e-01   -8,365281671e-02    0,000000000e+00    0,000000000e+00    0,000000000e+00    0,000000000e+00
     1206000000   -1,597168744e-01   -3,267512918e-01   -3,673144877e-01    1,893611997e-01    0,000000000e+00    0,000000000e+00    0,000000000e+00    0,000000000e+00
     1220000000   -4,551889002e-01   -1,744525731e-01   -1,069580391e-01    3,284768164e-01    0,000000000e+00    0,000000000e+00    0,000000000e+00    0,000000000e+00
     1234000000   -4,746935070e-01    1,659053117e-01    1,368816644e-01    2,206503898e-01    0,000000000e+00    0,000000000e+00    0,000000000e+00    0,000000000e+00
     1248000000   -2,328971177e-01    3,544556499e-01    1,915878654e-01    4,039799049e-02    0,000000000e+00    0,000000000e+00    0,000000000e+00    0,000000000e+00
     1262000000    6,157665513e-03    3,271972537e-01    1,312015206e-01   -7,276186347e-02    0,000000000e+00    0,000000000e+00    0,000000000e+00    0,000000000e+00
     1276000000    1,561138481e-01    1,961561292e-01    5,234386399e-02   -9,685462713e-02    0,000000000e+00    0,000000000e+00    0,000000000e+00    0,000000000e+00
     1290000000    2,198914140e-01    3,044547141e-02    1,833376242e-03   -7,314259559e-02    0,000000000e+00    0,000000000e+00    0,000000000e+00    0,000000000e+00
     1304000000    2,050073296e-01   -1,485372782e-01   -2,356562577e-02   -3,091795184e-02    0,000000000e+00    0,000000000e+00    0,000000000e+00    0,000000000e+00
     1318000000    1,137817055e-01   -3,117347062e-01   -7,754373364e-03    2,412441559e-02    0,000000000e+00    0,000000000e+00    0,000000000e+00    0,000000000e+00
     1332000000   -6,719846278e-02   -4,356784225e-01    4,326222837e-02    6,007344648e-02    0,000000000e+00    0,000000000e+00    0,000000000e+00    0,000000000e+00
     1346000000   -3,271249533e-01   -4,357178807e-01    1,509015411e-01    3,687180206e-02    0,000000000e+00    0,000000000e+00    0,000000000e+00    0,000000000e+00
     1360000000   -5,592957735e-01   -2,417028546e-01    1,063524857e-01   -8,201670647e-02    0,000000000e+00    0,000000000e+00    0,000000000e+00    0,000000000e+00
     1374000000   -6,186639071e-01    3,832526132e-02    1,114222705e-01    6,118879840e-02    0,000000000e+00    0,000000000e+00    0,000000000e+00    0,000000000e+00
     1388000000   -5,198562741e-01    2,887990475e-01    2,248282433e-01    9,914650582e-03    0,000000000e+00    0,000000000e+00    0,000000000e+00    0,000000000e+00
     1402000000   -3,103272319e-01    4,173688889e-01    2,159293592e-01   -8,485905081e-02    0,000000000e+00    0,000000000e+00    0,000000000e+00    0,000000000e+00
     1416000000   -9,313568473e-02    4,263978302e-01    1,889143437e-01   -1,132180914e-01    0,000000000e+00    0,000000000e+00    0,000000000e+00    0,000000000e+00
     1430000000    6,601573527e-02    3,430103064e-01    1,573302001e-01   -1,047214568e-01    0,000000000e+00    0,000000000e+00    0,000000000e+00    0,000000000e+00
     1444000000    1,748622656e-01    2,003115714e-01    1,511680633e-01   -1,035597026e-01    0,000000000e+00    0,000000000e+00    0,000000000e+00    0,000000000e+00
     1458000000    2,255671024e-01    3,640088066e-02    1,484506130e-01   -7,906827331e-02    0,000000000e+00    0,000000000e+00    0,000000000e+00    0,000000000e+00
     1472000000    2,077325433e-01   -1,450177580e-01    1,449997872e-01   -6,028065458e-02    0,000000000e+00    0,000000000e+00    0,000000000e+00    0,000000000e+00
     1486000000    1,088397354e-01   -3,237864673e-01    1,760598719e-01   -4,617860075e-03    0,000000000e+00    0,000000000e+00    0,000000000e+00    0,000000000e+00
     1500000000   -8,924190700e-02   -4,603234231e-01    2,217201442e-01    5,423317850e-02    0,000000000e+00    0,000000000e+00    0,000000000e+00    0,000000000e+00
