! NanoVNA-App
! Date: 2025-09-25 14:23:53
! Start: 100MHz Stop: 1,5GHz Points: 101
! S-Parameter data: F S11 S21 S12 S22
# Hz S RI R 50
!     Frequency           S11_Real           S11_Imag           S21_Real           S21_Imag           S12_Real           S12_Imag           S22_Real           S22_Imag
      100000000   -2,908225544e-02   -4,156450275e-03    3,744010031e-01   -7,220075727e-01    0,000000000e+00    0,000000000e+00    0,000000000e+00    0,000000000e+00
      114000000   -1,662363671e-02    1,155719534e-02   -8,903364837e-02   -8,058838248e-01    0,000000000e+00    0,000000000e+00    0,000000000e+00    0,000000000e+00
      128000000    3,438525600e-03    1,056140289e-02   -5,144682527e-01   -6,209123731e-01    0,000000000e+00    0,000000000e+00    0,000000000e+00    0,000000000e+00
      142000000    1,445356291e-02   -3,038602881e-03   -7,676160932e-01   -2,368764132e-01    0,000000000e+00    0,000000000e+00    0,000000000e+00    0,000000000e+00
      156000000    1,506652869e-02   -1,505076140e-02   -7,678560615e-01    2,224235833e-01    0,000000000e+00    0,000000000e+00    0,000000000e+00    0,000000000e+00
      170000000    1,652342081e-02   -2,249704488e-02   -5,187609196e-01    6,052811146e-01    0,000000000e+00    0,000000000e+00    0,000000000e+00    0,000000000e+00
      184000000    2,096837014e-02   -3,704326600e-02   -1,018894240e-01    7,866623402e-01    0,000000000e+00    0,000000000e+00    0,000000000e+00    0,000000000e+00
      198000000    1,304797083e-02   -6,259898841e-02    3,428204060e-01    7,128799558e-01    0,000000000e+00    0,000000000e+00    0,000000000e+00    0,000000000e+00
      212000000   -1,872822642e-02   -8,164846897e-02    6,781629324e-01    4,105001390e-01    0,000000000e+00    0,000000000e+00    0,000000000e+00    0,000000000e+00
      226000000   -6,206203252e-02   -6,967086345e-02    7,960653305e-01   -2,984382026e-02    0,000000000e+00    0,000000000e+00    0,000000000e+00    0,000000000e+00
      240000000   -8,320119232e-02   -2,606304921e-02    6,471621990e-01   -4,665415585e-01    0,000000000e+00    0,000000000e+00    0,000000000e+00    0,000000000e+00
      254000000   -6,427779794e-02    1,734424382e-02    2,770632803e-01   -7,437149882e-01    0,000000000e+00    0,000000000e+00    0,000000000e+00    0,000000000e+00
      268000000   -2,424849197e-02    2,945753932e-02   -1,772176623e-01   -7,648854852e-01    0,000000000e+00    0,000000000e+00    0,000000000e+00    0,000000000e+00
      282000000    4,064756911e-03    1,213855669e-02   -5,624490976e-01   -5,370991826e-01    0,000000000e+00    0,000000000e+00    0,000000000e+00    0,000000000e+00
      296000000    9,603988379e-03   -7,700834423e-03   -7,606199384e-01   -1,395131052e-01    0,000000000e+00    0,000000000e+00    0,000000000e+00    0,000000000e+00
      310000000    1,075762231e-02   -1,628090255e-02   -7,121171355e-01    2,985069156e-01    0,000000000e+00    0,000000000e+00    0,000000000e+00    0,000000000e+00
      324000000    1,947580092e-02   -2,645885572e-02   -4,286983311e-01    6,375378370e-01    0,000000000e+00    0,000000000e+00    0,000000000e+00    0,000000000e+00
      338000000    2,541533858e-02   -5,214319378e-02   -8,643066511e-03    7,611968517e-01    0,000000000e+00    0,000000000e+00    0,000000000e+00    0,000000000e+00
      352000000    7,583670784e-03   -8,496750891e-02    4,053586423e-01    6,398563385e-01    0,000000000e+00    0,000000000e+00    0,000000000e+00    0,000000000e+00
      366000000   -3,505089879e-02   -9,586788714e-02    6,904615164e-01    3,127662241e-01    0,000000000e+00    0,000000000e+00    0,000000000e+00    0,000000000e+00
      380000000   -7,145760953e-02   -7,108389586e-02    7,480434775e-01   -1,246199012e-01    0,000000000e+00    0,000000000e+00    0,000000000e+00    0,000000000e+00
      394000000   -7,308898121e-02   -3,255675733e-02    5,483458638e-01   -5,204524398e-01    0,000000000e+00    0,000000000e+00    0,000000000e+00    0,000000000e+00
      408000000   -4,677762464e-02   -1,561566908e-02    1,633215547e-01   -7,315180898e-01    0,000000000e+00    0,000000000e+00    0,000000000e+00    0,000000000e+00
      422000000   -2,837964147e-02   -3,144225851e-02   -2,656391263e-01   -6,954038739e-01    0,000000000e+00    0,000000000e+00    0,000000000e+00    0,000000000e+00
      436000000   -4,026366770e-02   -5,170204863e-02   -6,026783586e-01   -4,338182509e-01    0,000000000e+00    0,000000000e+00    0,000000000e+00    0,000000000e+00
      450000000   -6,770024449e-02   -4,474087059e-02   -7,401331067e-01   -2,520868555e-02    0,000000000e+00    0,000000000e+00    0,000000000e+00    0,000000000e+00
      464000000   -7,450951636e-02   -1,248190273e-02   -6,213416457e-01    3,952106535e-01    0,000000000e+00    0,000000000e+00    0,000000000e+00    0,000000000e+00
      478000000   -4,923787713e-02    1,130869240e-02   -2,864575684e-01    6,670585275e-01    0,000000000e+00    0,000000000e+00    0,000000000e+00    0,000000000e+00
      492000000   -1,709749177e-02    6,305672228e-03    1,346839815e-01    7,032327056e-01    0,000000000e+00    0,000000000e+00    0,000000000e+00    0,000000000e+00
      506000000   -3,948938102e-03   -1,498340257e-02    4,972281754e-01    5,061674118e-01    0,000000000e+00    0,000000000e+00    0,000000000e+00    0,000000000e+00
      520000000   -5,571254063e-03   -2,934004739e-02    6,889988780e-01    1,438547671e-01    0,000000000e+00    0,000000000e+00    0,000000000e+00    0,000000000e+00
      534000000   -3,159701824e-03   -3,580239415e-02    6,444917917e-01   -2,600090206e-01    0,000000000e+00    0,000000000e+00    0,000000000e+00    0,000000000e+00
      548000000    7,840889506e-03   -5,249530822e-02    3,847200274e-01   -5,641476512e-01    0,000000000e+00    0,000000000e+00    0,000000000e+00    0,000000000e+00
      562000000    5,975975655e-03   -8,956877142e-02    8,688699454e-03   -6,717910767e-01    0,000000000e+00    0,000000000e+00    0,000000000e+00    0,000000000e+00
      576000000   -3,162821382e-02   -1,262140274e-01   -3,620215654e-01   -5,611115694e-01    0,000000000e+00    0,000000000e+00    0,000000000e+00    0,000000000e+00
      590000000   -9,493283182e-02   -1,277510971e-01   -6,184105873e-01   -2,716419995e-01    0,000000000e+00    0,000000000e+00    0,000000000e+00    0,000000000e+00
      604000000   -1,434888840e-01   -7,809222490e-02   -6,674395800e-01    1,263038069e-01    0,000000000e+00    0,000000000e+00    0,000000000e+00    0,000000000e+00
      618000000   -1,382693797e-01   -1,174628362e-02   -4,755161405e-01    4,849559963e-01    0,000000000e+00    0,000000000e+00    0,000000000e+00    0,000000000e+00
      632000000   -9,296309948e-02    2,151079662e-02   -1,143925935e-01    6,623376012e-01    0,000000000e+00    0,000000000e+00    0,000000000e+00    0,000000000e+00
      646000000   -5,480572581e-02    1,163383573e-02    2,728614211e-01    6,033862233e-01    0,000000000e+00    0,000000000e+00    0,000000000e+00    0,000000000e+00
      660000000   -4,885981977e-02   -8,639829233e-03    5,578660369e-01    3,397904932e-01    0,000000000e+00    0,000000000e+00    0,000000000e+00    0,000000000e+00
      674000000   -5,608699471e-02   -1,113707107e-02    6,443250775e-01   -4,008707032e-02    0,000000000e+00    0,000000000e+00    0,000000000e+00    0,000000000e+00
      688000000   -5,026685074e-02    2,365471562e-03    4,928028286e-01   -4,014739096e-01    0,000000000e+00    0,000000000e+00    0,000000000e+00    0,000000000e+00
      702000000   -2,517114021e-02    7,168850396e-03    1,604970098e-01   -6,013517976e-01    0,000000000e+00    0,000000000e+00    0,000000000e+00    0,000000000e+00
      716000000   -2,610841766e-03   -9,334835224e-03   -2,188393027e-01   -5,756094456e-01    0,000000000e+00    0,000000000e+00    0,000000000e+00    0,000000000e+00
      730000000    9,533307515e-03   -3,400823474e-02   -5,094265342e-01   -3,333365023e-01    0,000000000e+00    0,000000000e+00    0,000000000e+00    0,000000000e+00
      744000000    1,638750918e-02   -6,025370210e-02   -6,007186174e-01    3,297339380e-02    0,000000000e+00    0,000000000e+00    0,000000000e+00    0,000000000e+00
      758000000    2,139948867e-02   -1,035695150e-01   -4,540027082e-01    3,772895634e-01    0,000000000e+00    0,000000000e+00    0,000000000e+00    0,000000000e+00
      772000000   -5,493531935e-03   -1,739198864e-01   -1,388503313e-01    5,569779873e-01    0,000000000e+00    0,000000000e+00    0,000000000e+00    0,000000000e+00
      786000000   -1,058904082e-01   -2,331954986e-01    2,110906839e-01    5,193137527e-01    0,000000000e+00    0,000000000e+00    0,000000000e+00    0,000000000e+00
      800000000   -2,661704719e-01   -1,919826418e-01    4,719166160e-01    2,751818597e-01    0,000000000e+00    0,000000000e+00    0,000000000e+00    0,000000000e+00
      814000000   -3,633922637e-01    3,059928771e-03    5,077862740e-01   -8,836535364e-02    0,000000000e+00    0,000000000e+00    0,000000000e+00    0,000000000e+00
      828000000   -2,471546978e-01    2,331476510e-01    2,819380760e-01   -3,524695039e-01    0,000000000e+00    0,000000000e+00    0,000000000e+00    0,000000000e+00
      842000000    1,289046928e-02    2,785947323e-01   -1,612580381e-02   -3,624970317e-01    0,000000000e+00    0,000000000e+00    0,000000000e+00    0,000000000e+00
      856000000    2,123826146e-01    1,154486537e-01   -1,878315359e-01   -2,044259757e-01    0,000000000e+00    0,000000000e+00    0,000000000e+00    0,000000000e+00
      870000000    2,384042442e-01   -1,489318758e-01   -2,008052319e-01   -2,596836723e-02    0,000000000e+00    0,000000000e+00    0,000000000e+00    0,000000000e+00
      884000000    3,721719235e-02   -3,874042034e-01   -1,034345329e-01    7,060654461e-02    0,000000000e+00    0,000000000e+00    0,000000000e+00    0,000000000e+00
      898000000   -3,700464070e-01   -3,414275646e-01   -1,684563234e-02    2,785042115e-02    0,000000000e+00    0,000000000e+00    0,000000000e+00    0,000000000e+00
      912000000   -4,663400054e-01    1,394184977e-01   -1,250386387e-01    3,168043867e-02    0,000000000e+00    0,000000000e+00    0,000000000e+00    0,000000000e+00
      926000000   -9,580655396e-02    3,519149721e-01   -1,287932992e-01    1,353057921e-01    0,000000000e+00    0,000000000e+00    0,000000000e+00    0,000000000e+00
      940000000    1,847274899e-01    1,959485412e-01   -3,750015423e-02    2,174625844e-01    0,000000000e+00    0,000000000e+00    0,000000000e+00    0,000000000e+00
      954000000    2,522359490e-01   -4,756700248e-02    7,919829339e-02    2,270371318e-01    0,000000000e+00    0,000000000e+00    0,000000000e+00    0,000000000e+00
      968000000    1,721059382e-01   -2,623574436e-01    1,923981011e-01    1,805184931e-01    0,000000000e+00    0,000000000e+00    0,000000000e+00    0,000000000e+00
      982000000   -1,536322106e-02   -3,931854069e-01    2,790249288e-01    7,903497666e-02    0,000000000e+00    0,000000000e+00    0,000000000e+00    0,000000000e+00
      996000000   -2,725200355e-01   -3,752015531e-01    3,095292449e-01   -8,002392203e-02    0,000000000e+00    0,000000000e+00    0,000000000e+00    0,000000000e+00
     1010000000   -4,661252797e-01   -1,760353297e-01    2,203964740e-01   -2,515824437e-01    0,000000000e+00    0,000000000e+00    0,000000000e+00    0,000000000e+00
     1024000000   -4,561918378e-01    1,140243337e-01    1,990272477e-02   -3,303727806e-01    0,000000000e+00    0,000000000e+00    0,000000000e+00    0,000000000e+00
     1038000000   -2,608636022e-01    2,978257835e-01   -1,728184819e-01   -2,475303262e-01    0,000000000e+00    0,000000000e+00    0,000000000e+00    0,000000000e+00
     1052000000   -4,047887027e-02    3,076160848e-01   -2,555584908e-01   -7,823991776e-02    0,000000000e+00    0,000000000e+00    0,000000000e+00    0,000000000e+00
     1066000000    1,267549694e-01    2,080806345e-01   -2,245514095e-01    8,487772942e-02    0,000000000e+00    0,000000000e+00    0,000000000e+00    0,000000000e+00
     1080000000    2,079763412e-01    4,424640536e-02   -1,204885691e-01    1,930725724e-01    0,000000000e+00    0,000000000e+00    0,000000000e+00    0,000000000e+00
     1094000000    2,033089697e-01   -1,307301223e-01    1,862092316e-02    2,361851037e-01    0,000000000e+00    0,000000000e+00    0,000000000e+00    0,000000000e+00
     1108000000    9,848126024e-02   -2,875428200e-01    1,697066575e-01    2,058434933e-01    0,000000000e+00    0,000000000e+00    0,000000000e+00    0,000000000e+00
     1122000000   -9,969401360e-02   -3,740915060e-01    3,156344891e-01    9,022337943e-02    0,000000000e+00    0,000000000e+00    0,000000000e+00    0,000000000e+00
     1136000000   -3,433182836e-01   -2,722817361e-01    3,915587962e-01   -1,524092555e-01    0,000000000e+00    0,000000000e+00    0,000000000e+00    0,000000000e+00
     1150000000   -4,042026997e-01    3,842543811e-02    2,431738228e-01   -4,349696934e-01    0,000000000e+00    0,000000000e+00    0,000000000e+00    0,000000000e+00
     1164000000   -1,609614640e-01    2,127564102e-01   -9,377759695e-02   -5,140706301e-01    0,000000000e+00    0,000000000e+00    0,000000000e+00    0,000000000e+00
     1178000000    7,371995598e-02    8,761684597e-02   -3,567868769e-01   -3,473932445e-01    0,000000000e+00    0,000000000e+00    0,000000000e+00    0,000000000e+00
     1192000000    7,372128963e-02   -1,720797271e-01   -4,552619457e-01   -8,212970942e-02    0,000000000e+00    0,000000000e+00    0,000000000e+00    0,000000000e+00
     1206000000   -1,647204012e-01   -3,282138407e-01   -3,745293915e-01    1,889886409e-01    0,000000000e+00    0,000000000e+00    0,000000000e+00    0,000000000e+00
     1220000000   -4,517471492e-01   -1,768086255e-01   -1,069806144e-01    3,294899762e-01    0,000000000e+00    0,000000000e+00    0,000000000e+00    0,000000000e+00
     1234000000   -4,707506597e-01    1,713475436e-01    1,420332640e-01    2,268857658e-01    0,000000000e+00    0,000000000e+00    0,000000000e+00    0,000000000e+00
     1248000000   -2,385937870e-01    3,591065109e-01    1,910036355e-01    3,697664663e-02    0,000000000e+00    0,000000000e+00    0,000000000e+00    0,000000000e+00
     1262000000    6,396159995e-03    3,271578550e-01    1,297990382e-01   -7,422423363e-02    0,000000000e+00    0,000000000e+00    0,000000000e+00    0,000000000e+00
     1276000000    1,557781696e-01    2,011099756e-01    5,444076657e-02   -9,571197629e-02    0,000000000e+00    0,000000000e+00    0,000000000e+00    0,000000000e+00
     1290000000    2,168453187e-01    2,954038046e-02    1,236641197e-03   -7,265736908e-02    0,000000000e+00    0,000000000e+00    0,000000000e+00    0,000000000e+00
     1304000000    2,036715001e-01   -1,452016830e-01   -2,438717149e-02   -2,830184065e-02    0,000000000e+00    0,000000000e+00    0,000000000e+00    0,000000000e+00
     1318000000    1,117470041e-01   -3,141225874e-01   -9,394553490e-03    2,474609017e-02    0,000000000e+00    0,000000000e+00    0,000000000e+00    0,000000000e+00
     1332000000   -6,569635123e-02   -4,328736961e-01    4,436317086e-02    6,195339188e-02    0,000000000e+00    0,000000000e+00    0,000000000e+00    0,000000000e+00
     1346000000   -3,283508122e-01   -4,357157648e-01    1,414788663e-01    4,777263477e-02    0,000000000e+00    0,000000000e+00    0,000000000e+00    0,000000000e+00
     1360000000   -5,532205105e-01   -2,465272695e-01    1,152005568e-01   -8,020215482e-02    0,000000000e+00    0,000000000e+00    0,000000000e+00    0,000000000e+00
     1374000000   -6,269484758e-01    3,254934028e-02    9,992864728e-02    7,278419286e-02    0,000000000e+00    0,000000000e+00    0,000000000e+00    0,000000000e+00
     1388000000   -5,104309916e-01    2,937660813e-01    2,199826986e-01    8,305043913e-03    0,000000000e+00    0,000000000e+00    0,000000000e+00    0,000000000e+00
     1402000000   -3,017889261e-01    4,117438197e-01    2,306474745e-01   -8,391557634e-02    0,000000000e+00    0,000000000e+00    0,000000000e+00    0,000000000e+00
     1416000000   -9,303999692e-02    4,219959378e-01    1,774963140e-01   -1,158974245e-01    0,000000000e+00    0,000000000e+00    0,000000000e+00    0,000000000e+00
     1430000000    6,222273409e-02    3,394149542e-01    1,594294608e-01   -1,097080782e-01    0,000000000e+00    0,000000000e+00    0,000000000e+00    0,000000000e+00
     1444000000    1,763635874e-01    2,038597316e-01    1,587156653e-01   -1,068270653e-01    0,000000000e+00    0,000000000e+00    0,000000000e+00    0,000000000e+00
     1458000000    2,214736193e-01    3,734995425e-02    1,588571370e-01   -7,352923602e-02    0,000000000e+00    0,000000000e+00    0,000000000e+00    0,000000000e+00
     1472000000    2,038192898e-01   -1,470593959e-01    1,423603892e-01   -5,274592340e-02    0,000000000e+00    0,000000000e+00    0,000000000e+00    0,000000000e+00
     1486000000    1,060233638e-01   -3,244769573e-01    1,567388475e-01   -3,145322902e-03    0,000000000e+00    0,000000000e+00    0,000000000e+00    0,000000000e+00
     1500000000   -8,292253315e-02   -4,594449699e-01    2,253229916e-01    5,514349788e-02    0,000000000e+00    0,000000000e+00    0,000000000e+00    0,000000000e+00
