! NanoVNA-App
! Date: 2025-09-25 14:25:29
! Start: 100MHz Stop: 1,5GHz Points: 101
! S-Parameter data: F S11 S21 S12 S22
# Hz S RI R 50
!     Frequency           S11_Real           S11_Imag           S21_Real           S21_Imag           S12_Real           S12_Imag           S22_Real           S22_Imag
      100000000   -2,910653874e-02   -4,121101461e-03    3,744899333e-01   -7,220016718e-01    0,000000000e+00    0,000000000e+00    0,000000000e+00    0,000000000e+00
      114000000   -1,659039967e-02    1,160990447e-02   -8,889382333e-02   -8,059678078e-01    0,000000000e+00    0,000000000e+00    0,000000000e+00    0,000000000e+00
      128000000    3,423635149e-03    1,050431281e-02   -5,147343278e-01   -6,210718751e-01    0,000000000e+00    0,000000000e+00    0,000000000e+00    0,000000000e+00
      142000000    1,445310190e-02   -3,070180304e-03   -7,675285339e-01   -2,370025069e-01    0,000000000e+00    0,000000000e+00    0,000000000e+00    0,000000000e+00
      156000000    1,569797471e-02   -1,439810265e-02   -7,729682922e-01    2,241102308e-01    0,000000000e+00    0,000000000e+00    0,000000000e+00    0,000000000e+00
      170000000    1,654288918e-02   -2,249756642e-02   -5,187783241e-01    6,053045392e-01    0,000000000e+00    0,000000000e+00    0,000000000e+00    0,000000000e+00
      184000000    2,092900872e-02   -3,700132295e-02   -1,018482745e-01    7,868679166e-01    0,000000000e+00    0,000000000e+00    0,000000000e+00    0,000000000e+00
      198000000    1,318524964e-02   -6,259237230e-02    3,430009186e-01    7,130819559e-01    0,000000000e+00    0,000000000e+00    0,000000000e+00    0,000000000e+00
      212000000   -1,866871491e-02   -8,170977980e-02    6,783386469e-01    4,103911519e-01    0,000000000e+00    0,000000000e+00    0,000000000e+00    0,000000000e+00
      226000000   -6,204960495e-02   -6,967395544e-02    7,961119413e-01   -2,982554026e-02    0,000000000e+00    0,000000000e+00    0,000000000e+00    0,000000000e+00
      240000000   -8,328399062e-02   -2,603706159e-02    6,470186114e-01   -4,666626155e-01    0,000000000e+00    0,000000000e+00    0,000000000e+00    0,000000000e+00
      254000000   -6,436678767e-02    1,749630831e-02    2,771075070e-01   -7,427707314e-01    0,000000000e+00    0,000000000e+00    0,000000000e+00    0,000000000e+00
      268000000   -2,398521826e-02    2,954088338e-02   -1,767245680e-01   -7,649431825e-01    0,000000000e+00    0,000000000e+00    0,000000000e+00    0,000000000e+00
      282000000    4,021006636e-03    1,214736514e-02   -5,624543428e-01   -5,373615026e-01    0,000000000e+00    0,000000000e+00    0,000000000e+00    0,000000000e+00
      296000000    9,557607584e-03   -7,658040151e-03   -7,608779073e-01   -1,395837814e-01    0,000000000e+00    0,000000000e+00    0,000000000e+00    0,000000000e+00
      310000000    1,104571391e-02   -1,601562276e-02   -7,137001753e-01    2,985764742e-01    0,000000000e+00    0,000000000e+00    0,000000000e+00    0,000000000e+00
      324000000    1,959612407e-02   -2,631051466e-02   -4,285599887e-01    6,376542449e-01    0,000000000e+00    0,000000000e+00    0,000000000e+00    0,000000000e+00
      338000000    2,525079809e-02   -5,194748193e-02   -7,916167378e-03    7,609084845e-01    0,000000000e+00    0,000000000e+00    0,000000000e+00    0,000000000e+00
      352000000    7,112620398e-03   -8,503323793e-02    4,055953622e-01    6,402103305e-01    0,000000000e+00    0,000000000e+00    0,000000000e+00    0,000000000e+00
      366000000   -3,490940854e-02   -9,617400914e-02    6,906080246e-01    3,123144209e-01    0,000000000e+00    0,000000000e+00    0,000000000e+00    0,000000000e+00
      380000000   -7,135819644e-02   -7,121963054e-02    7,481037378e-01   -1,251796186e-01    0,000000000e+00    0,000000000e+00    0,000000000e+00    0,000000000e+00
      394000000   -7,326907665e-02   -3,267330676e-02    5,476608872e-01   -5,219154358e-01    0,000000000e+00    0,000000000e+00    0,000000000e+00    0,000000000e+00
      408000000   -4,696124047e-02   -1,586116850e-02    1,626681238e-01   -7,333723903e-01    0,000000000e+00    0,000000000e+00    0,000000000e+00    0,000000000e+00
      422000000   -2,824893035e-02   -3,145251796e-02   -2,652903795e-01   -6,959760189e-01    0,000000000e+00    0,000000000e+00    0,000000000e+00    0,000000000e+00
      436000000   -4,014899209e-02   -5,208056048e-02   -6,026147008e-01   -4,344601631e-01    0,000000000e+00    0,000000000e+00    0,000000000e+00    0,000000000e+00
      450000000   -6,758205593e-02   -4,467572644e-02   -7,402755618e-01   -2,463715710e-02    0,000000000e+00    0,000000000e+00    0,000000000e+00    0,000000000e+00
      464000000   -7,432638109e-02   -1,257705037e-02   -6,211339831e-01    3,943668306e-01    0,000000000e+00    0,000000000e+00    0,000000000e+00    0,000000000e+00
      478000000   -4,937705025e-02    1,198469289e-02   -2,872157395e-01    6,676288247e-01    0,000000000e+00    0,000000000e+00    0,000000000e+00    0,000000000e+00
      492000000   -1,672074385e-02    6,639156025e-03    1,339356154e-01    7,034802437e-01    0,000000000e+00    0,000000000e+00    0,000000000e+00    0,000000000e+00
      506000000   -3,527853638e-03   -1,487367600e-02    4,978640079e-01    5,065416098e-01    0,000000000e+00    0,000000000e+00    0,000000000e+00    0,000000000e+00
      520000000   -5,742224399e-03   -2,966622449e-02    6,886961460e-01    1,431421638e-01    0,000000000e+00    0,000000000e+00    0,000000000e+00    0,000000000e+00
      534000000   -3,422043053e-03   -3,590057790e-02    6,442860961e-01   -2,600550354e-01    0,000000000e+00    0,000000000e+00    0,000000000e+00    0,000000000e+00
      548000000    8,082852699e-03   -5,245360732e-02    3,851393461e-01   -5,639894605e-01    0,000000000e+00    0,000000000e+00    0,000000000e+00    0,000000000e+00
      562000000    5,834104959e-03   -8,962831646e-02    7,939356379e-03   -6,718445420e-01    0,000000000e+00    0,000000000e+00    0,000000000e+00    0,000000000e+00
      576000000   -3,115935810e-02   -1,262874305e-01   -3,616864681e-01   -5,609545708e-01    0,000000000e+00    0,000000000e+00    0,000000000e+00    0,000000000e+00
      590000000   -9,523022920e-02   -1,276741922e-01   -6,178487539e-01   -2,737443745e-01    0,000000000e+00    0,000000000e+00    0,000000000e+00    0,000000000e+00
      604000000   -1,429751962e-01   -7,784366608e-02   -6,675283313e-01    1,264258325e-01    0,000000000e+00    0,000000000e+00    0,000000000e+00    0,000000000e+00
      618000000   -1,384171844e-01   -1,181813702e-02   -4,752204716e-01    4,860641360e-01    0,000000000e+00    0,000000000e+00    0,000000000e+00    0,000000000e+00
      632000000   -9,305653721e-02    2,197826095e-02   -1,140147150e-01    6,639345884e-01    0,000000000e+00    0,000000000e+00    0,000000000e+00    0,000000000e+00
      646000000   -5,504225940e-02    1,142396219e-02    2,738561630e-01    6,029962301e-01    0,000000000e+00    0,000000000e+00    0,000000000e+00    0,000000000e+00
      660000000   -4,857829213e-02   -8,166394196e-03    5,579617620e-01    3,406898379e-01    0,000000000e+00    0,000000000e+00    0,000000000e+00    0,000000000e+00
      674000000   -5,537918955e-02   -1,051189844e-02    6,447494626e-01   -3,977209330e-02    0,000000000e+00    0,000000000e+00    0,000000000e+00    0,000000000e+00
      688000000   -5,066502839e-02    2,808006248e-03    4,928881228e-01   -4,018854201e-01    0,000000000e+00    0,000000000e+00    0,000000000e+00    0,000000000e+00
      702000000   -2,676551975e-02    8,209419437e-03    1,661009938e-01   -6,038003564e-01    0,000000000e+00    0,000000000e+00    0,000000000e+00    0,000000000e+00
      716000000   -2,386772772e-03   -8,790652268e-03   -2,179916203e-01   -5,758220553e-01    0,000000000e+00    0,000000000e+00    0,000000000e+00    0,000000000e+00
      730000000    1,014787797e-02   -3,453943506e-02   -5,091522932e-01   -3,339491785e-01    0,000000000e+00    0,000000000e+00    0,000000000e+00    0,000000000e+00
      744000000    1,736178063e-02   -6,091381982e-02   -6,009879112e-01    3,267525509e-02    0,000000000e+00    0,000000000e+00    0,000000000e+00    0,000000000e+00
      758000000    2,254721336e-02   -1,033649072e-01   -4,544366002e-01    3,769191802e-01    0,000000000e+00    0,000000000e+00    0,000000000e+00    0,000000000e+00
      772000000   -5,010930821e-03   -1,741018146e-01   -1,398643553e-01    5,591859221e-01    0,000000000e+00    0,000000000e+00    0,000000000e+00    0,000000000e+00
      786000000   -1,046992242e-01   -2,326121777e-01    2,114287466e-01    5,194131732e-01    0,000000000e+00    0,000000000e+00    0,000000000e+00    0,000000000e+00
      800000000   -2,651750445e-01   -1,929172426e-01    4,714417458e-01    2,757029533e-01    0,000000000e+00    0,000000000e+00    0,000000000e+00    0,000000000e+00
      814000000   -3,648563921e-01    3,016266972e-03    5,084601045e-01   -8,842576295e-02    0,000000000e+00    0,000000000e+00    0,000000000e+00    0,000000000e+00
      828000000   -2,479978353e-01    2,325324565e-01    2,816707790e-01   -3,523400128e-01    0,000000000e+00    0,000000000e+00    0,000000000e+00    0,000000000e+00
      842000000    1,284559816e-02    2,786656916e-01   -1,563372649e-02   -3,628606796e-01    0,000000000e+00    0,000000000e+00    0,000000000e+00    0,000000000e+00
      856000000    2,128657103e-01    1,154688746e-01   -1,873031408e-01   -2,050811201e-01    0,000000000e+00    0,000000000e+00    0,000000000e+00    0,000000000e+00
      870000000    2,385451198e-01   -1,486955285e-01   -2,009884268e-01   -2,583268099e-02    0,000000000e+00    0,000000000e+00    0,000000000e+00    0,000000000e+00
      884000000    3,747479245e-02   -3,866315484e-01   -1,038455665e-01    7,072873414e-02    0,000000000e+00    0,000000000e+00    0,000000000e+00    0,000000000e+00
      898000000   -3,698294163e-01   -3,410867453e-01   -1,694991253e-02    2,845188789e-02    0,000000000e+00    0,000000000e+00    0,000000000e+00    0,000000000e+00
      912000000   -4,677050412e-01    1,385132074e-01   -1,127074808e-01    2,245714515e-02    0,000000000e+00    0,000000000e+00    0,000000000e+00    0,000000000e+00
      926000000   -9,378502518e-02    3,502002060e-01   -1,272807270e-01    1,337806731e-01    0,000000000e+00    0,000000000e+00    0,000000000e+00    0,000000000e+00
      940000000    1,861624420e-01    1,947079003e-01   -3,839622438e-02    2,160005420e-01    0,000000000e+00    0,000000000e+00    0,000000000e+00    0,000000000e+00
      954000000    2,563319504e-01   -4,659072310e-02    7,982515544e-02    2,274933308e-01    0,000000000e+00    0,000000000e+00    0,000000000e+00    0,000000000e+00
      968000000    1,748049557e-01   -2,598733306e-01    1,906286180e-01    1,805027425e-01    0,000000000e+00    0,000000000e+00    0,000000000e+00    0,000000000e+00
      982000000   -1,923599839e-02   -3,933149874e-01    2,798129022e-01    7,960481942e-02    0,000000000e+00    0,000000000e+00    0,000000000e+00    0,000000000e+00
      996000000   -2,757458687e-01   -3,786219656e-01    3,095759153e-01   -8,001979440e-02    0,000000000e+00    0,000000000e+00    0,000000000e+00    0,000000000e+00
     1010000000   -4,696286321e-01   -1,762432307e-01    2,199807912e-01   -2,529519498e-01    0,000000000e+00    0,000000000e+00    0,000000000e+00    0,000000000e+00
     1024000000   -4,632732570e-01    1,175139993e-01    1,953762583e-02   -3,288222849e-01    0,000000000e+00    0,000000000e+00    0,000000000e+00    0,000000000e+00
     1038000000   -2,617349625e-01    3,002982736e-01   -1,738746315e-01   -2,471502870e-01    0,000000000e+00    0,000000000e+00    0,000000000e+00    0,000000000e+00
     1052000000   -3,765356168e-02    3,120054603e-01   -2,584525645e-01   -7,757548243e-02    0,000000000e+00    0,000000000e+00    0,000000000e+00    0,000000000e+00
     1066000000    1,252763718e-01    2,067575157e-01   -2,272097617e-01    8,500745147e-02    0,000000000e+00    0,000000000e+00    0,000000000e+00    0,000000000e+00
     1080000000    2,057521641e-01    4,688292742e-02   -1,200225949e-01    1,929423809e-01    0,000000000e+00    0,000000000e+00    0,000000000e+00    0,000000000e+00
     1094000000    2,025649548e-01   -1,301628947e-01    1,690730825e-02    2,334304452e-01    0,000000000e+00    0,000000000e+00    0,000000000e+00    0,000000000e+00
     1108000000    1,031250060e-01   -2,856754959e-01    1,671340466e-01    2,077646405e-01    0,000000000e+00    0,000000000e+00    0,000000000e+00    0,000000000e+00
     1122000000   -1,029074267e-01   -3,699367344e-01    3,153536618e-01    8,943262696e-02    0,000000000e+00    0,000000000e+00    0,000000000e+00    0,000000000e+00
     1136000000   -3,497217894e-01   -2,656050920e-01    3,895446062e-01   -1,522980183e-01    0,000000000e+00    0,000000000e+00    0,000000000e+00    0,000000000e+00
     1150000000   -4,038504064e-01    3,432559222e-02    2,442634106e-01   -4,375239015e-01    0,000000000e+00    0,000000000e+00    0,000000000e+00    0,000000000e+00
     1164000000   -1,628809720e-01    2,195950747e-01   -9,758833796e-02   -5,153010488e-01    0,000000000e+00    0,000000000e+00    0,000000000e+00    0,000000000e+00
     1178000000    7,566457242e-02    8,071571589e-02   -3,553726673e-01   -3,498004973e-01    0,000000000e+00    0,000000000e+00    0,000000000e+00    0,000000000e+00
     1192000000    7,430844009e-02   -1,745959669e-01   -4,528968632e-01   -7,908616960e-02    0,000000000e+00    0,000000000e+00    0,000000000e+00    0,000000000e+00
     1206000000   -1,615356952e-01   -3,274752796e-01   -3,703418970e-01    1,908873320e-01    0,000000000e+00    0,000000000e+00    0,000000000e+00    0,000000000e+00
     1220000000   -4,573245943e-01   -1,781430393e-01   -1,087796390e-01    3,273851573e-01    0,000000000e+00    0,000000000e+00    0,000000000e+00    0,000000000e+00
     1234000000   -4,698540866e-01    1,705364287e-01    1,430458575e-01    2,253389657e-01    0,000000000e+00    0,000000000e+00    0,000000000e+00    0,000000000e+00
     1248000000   -2,340149581e-01    3,502582610e-01    1,936763823e-01    3,189560026e-02    0,000000000e+00    0,000000000e+00    0,000000000e+00    0,000000000e+00
     1262000000    7,400741335e-03    3,310103714e-01    1,292462051e-01   -7,115972042e-02    0,000000000e+00    0,000000000e+00    0,000000000e+00    0,000000000e+00
     1276000000    1,530038267e-01    1,986118108e-01    5,293371528e-02   -9,255754948e-02    0,000000000e+00    0,000000000e+00    0,000000000e+00    0,000000000e+00
     1290000000    2,146708369e-01    3,463343903e-02    3,925346537e-04   -7,160060853e-02    0,000000000e+00    0,000000000e+00    0,000000000e+00    0,000000000e+00
     1304000000    2,051898688e-01   -1,475264877e-01   -2,361223474e-02   -3,124822862e-02    0,000000000e+00    0,000000000e+00    0,000000000e+00    0,000000000e+00
     1318000000    1,132926866e-01   -3,134707808e-01   -3,462502034e-03    1,916369051e-02    0,000000000e+00    0,000000000e+00    0,000000000e+00    0,000000000e+00
     1332000000   -6,574080884e-02   -4,328688085e-01    4,016450793e-02    6,057487428e-02    0,000000000e+00    0,000000000e+00    0,000000000e+00    0,000000000e+00
     1346000000   -3,318955004e-01   -4,358215332e-01    1,405465603e-01    3,657354042e-02    0,000000000e+00    0,000000000e+00    0,000000000e+00    0,000000000e+00
     1360000000   -5,522386432e-01   -2,441161573e-01    1,200730354e-01   -8,156039566e-02    0,000000000e+00    0,000000000e+00    0,000000000e+00    0,000000000e+00
     1374000000   -6,278314590e-01    3,418970481e-02    1,022938639e-01    6,382365525e-02    0,000000000e+00    0,000000000e+00    0,000000000e+00    0,000000000e+00
     1388000000   -5,104007721e-01    2,955301702e-01    2,336804122e-01    5,250012502e-03    0,000000000e+00    0,000000000e+00    0,000000000e+00    0,000000000e+00
     1402000000   -3,083052933e-01    4,256364405e-01    2,294929028e-01   -7,853948325e-02    0,000000000e+00    0,000000000e+00    0,000000000e+00    0,000000000e+00
     1416000000   -9,597004950e-02    4,239425957e-01    1,844762266e-01   -1,083278805e-01    0,000000000e+00    0,000000000e+00    0,000000000e+00    0,000000000e+00
     1430000000    7,553996891e-02    3,444992900e-01    1,855310947e-01   -1,177259982e-01    0,000000000e+00    0,000000000e+00    0,000000000e+00    0,000000000e+00
     1444000000    1,766827255e-01    1,972369850e-01    1,589363068e-01   -1,021936312e-01    0,000000000e+00    0,000000000e+00    0,000000000e+00    0,000000000e+00
     1458000000    2,216722816e-01    4,150154069e-02    1,436602175e-01   -7,766168565e-02    0,000000000e+00    0,000000000e+00    0,000000000e+00    0,000000000e+00
     1472000000    2,082996815e-01   -1,424147636e-01    1,537269056e-01   -4,881245270e-02    0,000000000e+00    0,000000000e+00    0,000000000e+00    0,000000000e+00
     1486000000    1,068283767e-01   -3,231531084e-01    1,660019904e-01    1,562202466e-03    0,000000000e+00    0,000000000e+00    0,000000000e+00    0,000000000e+00
     1500000000   -1,016575843e-01   -4,498832226e-01    2,070976943e-01    6,105525419e-02    0,000000000e+00    0,000000000e+00    0,000000000e+00    0,000000000e+00
