! NanoVNA-App
! Date: 2025-09-25 14:25:46
! Start: 100MHz Stop: 1,5GHz Points: 101
! S-Parameter data: F S11 S21 S12 S22
# Hz S RI R 50
!     Frequency           S11_Real           S11_Imag           S21_Real           S21_Imag           S12_Real           S12_Imag           S22_Real           S22_Imag
      100000000   -2,911368757e-02   -4,133546259e-03    3,744853139e-01   -7,220360637e-01    0,000000000e+00    0,000000000e+00    0,000000000e+00    0,000000000e+00
      114000000   -1,658841968e-02    1,161326841e-02   -8,866157383e-02   -8,057997227e-01    0,000000000e+00    0,000000000e+00    0,000000000e+00    0,000000000e+00
      128000000    3,429546719e-03    1,054258272e-02   -5,144482851e-01   -6,210891008e-01    0,000000000e+00    0,000000000e+00    0,000000000e+00    0,000000000e+00
      142000000    1,445008069e-02   -3,093713429e-03   -7,675496936e-01   -2,370228022e-01    0,000000000e+00    0,000000000e+00    0,000000000e+00    0,000000000e+00
      156000000    1,573854312e-02   -1,438900270e-02   -7,729503512e-01    2,241191566e-01    0,000000000e+00    0,000000000e+00    0,000000000e+00    0,000000000e+00
      170000000    1,656043530e-02   -2,242191508e-02   -5,188730955e-01    6,049504876e-01    0,000000000e+00    0,000000000e+00    0,000000000e+00    0,000000000e+00
      184000000    2,098817192e-02   -3,697520494e-02   -1,018382981e-01    7,869101763e-01    0,000000000e+00    0,000000000e+00    0,000000000e+00    0,000000000e+00
      198000000    1,310966630e-02   -6,259073317e-02    3,430715799e-01    7,131779194e-01    0,000000000e+00    0,000000000e+00    0,000000000e+00    0,000000000e+00
      212000000   -1,869942434e-02   -8,170606196e-02    6,783660650e-01    4,105161130e-01    0,000000000e+00    0,000000000e+00    0,000000000e+00    0,000000000e+00
      226000000   -6,209114939e-02   -6,970886886e-02    7,961484194e-01   -2,961877547e-02    0,000000000e+00    0,000000000e+00    0,000000000e+00    0,000000000e+00
      240000000   -8,330450207e-02   -2,600630745e-02    6,468456388e-01   -4,666597545e-01    0,000000000e+00    0,000000000e+00    0,000000000e+00    0,000000000e+00
      254000000   -6,440936774e-02    1,747654565e-02    2,769060433e-01   -7,434569597e-01    0,000000000e+00    0,000000000e+00    0,000000000e+00    0,000000000e+00
      268000000   -2,400991693e-02    2,945740335e-02   -1,766885668e-01   -7,650170326e-01    0,000000000e+00    0,000000000e+00    0,000000000e+00    0,000000000e+00
      282000000    4,069268238e-03    1,213916950e-02   -5,624402165e-01   -5,371317267e-01    0,000000000e+00    0,000000000e+00    0,000000000e+00    0,000000000e+00
      296000000    9,555994533e-03   -7,683960255e-03   -7,609195709e-01   -1,396006942e-01    0,000000000e+00    0,000000000e+00    0,000000000e+00    0,000000000e+00
      310000000    1,071542688e-02   -1,606443524e-02   -7,141572833e-01    2,970374823e-01    0,000000000e+00    0,000000000e+00    0,000000000e+00    0,000000000e+00
      324000000    1,958064176e-02   -2,666294202e-02   -4,279018641e-01    6,375507712e-01    0,000000000e+00    0,000000000e+00    0,000000000e+00    0,000000000e+00
      338000000    2,570970543e-02   -5,228738487e-02   -1,033818722e-02    7,623549104e-01    0,000000000e+00    0,000000000e+00    0,000000000e+00    0,000000000e+00
      352000000    7,394468877e-03   -8,455614001e-02    4,052283764e-01    6,406817436e-01    0,000000000e+00    0,000000000e+00    0,000000000e+00    0,000000000e+00
      366000000   -3,486363217e-02   -9,605975449e-02    6,899330020e-01    3,124754131e-01    0,000000000e+00    0,000000000e+00    0,000000000e+00    0,000000000e+00
      380000000   -7,155665010e-02   -7,096006721e-02    7,479801178e-01   -1,247011274e-01    0,000000000e+00    0,000000000e+00    0,000000000e+00    0,000000000e+00
      394000000   -7,319458574e-02   -3,240055591e-02    5,483012199e-01   -5,221102834e-01    0,000000000e+00    0,000000000e+00    0,000000000e+00    0,000000000e+00
      408000000   -4,686609283e-02   -1,542175096e-02    1,636054665e-01   -7,323830724e-01    0,000000000e+00    0,000000000e+00    0,000000000e+00    0,000000000e+00
      422000000   -2,838156186e-02   -3,150788695e-02   -2,664384246e-01   -6,956099868e-01    0,000000000e+00    0,000000000e+00    0,000000000e+00    0,000000000e+00
      436000000   -4,004706442e-02   -5,205153674e-02   -6,030836105e-01   -4,335370362e-01    0,000000000e+00    0,000000000e+00    0,000000000e+00    0,000000000e+00
      450000000   -6,715909392e-02   -4,456590861e-02   -7,399966121e-01   -2,474776655e-02    0,000000000e+00    0,000000000e+00    0,000000000e+00    0,000000000e+00
      464000000   -7,437674701e-02   -1,256018505e-02   -6,218210459e-01    3,942250907e-01    0,000000000e+00    0,000000000e+00    0,000000000e+00    0,000000000e+00
      478000000   -4,904831946e-02    1,190284546e-02   -2,858231962e-01    6,679137945e-01    0,000000000e+00    0,000000000e+00    0,000000000e+00    0,000000000e+00
      492000000   -1,720436849e-02    6,726421416e-03    1,346701831e-01    7,049469948e-01    0,000000000e+00    0,000000000e+00    0,000000000e+00    0,000000000e+00
      506000000   -3,302179743e-03   -1,477105729e-02    4,977917075e-01    5,065503120e-01    0,000000000e+00    0,000000000e+00    0,000000000e+00    0,000000000e+00
      520000000   -5,896579940e-03   -2,962410823e-02    6,882192492e-01    1,448433250e-01    0,000000000e+00    0,000000000e+00    0,000000000e+00    0,000000000e+00
      534000000   -3,227631329e-03   -3,568153828e-02    6,440342069e-01   -2,591575384e-01    0,000000000e+00    0,000000000e+00    0,000000000e+00    0,000000000e+00
      548000000    7,834590040e-03   -5,247686803e-02    3,854419291e-01   -5,639160872e-01    0,000000000e+00    0,000000000e+00    0,000000000e+00    0,000000000e+00
      562000000    6,018845830e-03   -8,954851329e-02    9,212786332e-03   -6,716404557e-01    0,000000000e+00    0,000000000e+00    0,000000000e+00    0,000000000e+00
      576000000   -3,125917912e-02   -1,258412153e-01   -3,617367744e-01   -5,608709455e-01    0,000000000e+00    0,000000000e+00    0,000000000e+00    0,000000000e+00
      590000000   -9,489157796e-02   -1,277902424e-01   -6,146328449e-01   -2,718690932e-01    0,000000000e+00    0,000000000e+00    0,000000000e+00    0,000000000e+00
      604000000   -1,433202177e-01   -7,818201929e-02   -6,678553820e-01    1,261982322e-01    0,000000000e+00    0,000000000e+00    0,000000000e+00    0,000000000e+00
      618000000   -1,379776597e-01   -1,175299473e-02   -4,747511744e-01    4,855498374e-01    0,000000000e+00    0,000000000e+00    0,000000000e+00    0,000000000e+00
      632000000   -9,278762341e-02    2,158543654e-02   -1,144141331e-01    6,627277732e-01    0,000000000e+00    0,000000000e+00    0,000000000e+00    0,000000000e+00
      646000000   -5,460501462e-02    1,203615312e-02    2,739138007e-01    6,034830213e-01    0,000000000e+00    0,000000000e+00    0,000000000e+00    0,000000000e+00
      660000000   -4,824311286e-02   -7,865482941e-03    5,576145649e-01    3,406409919e-01    0,000000000e+00    0,000000000e+00    0,000000000e+00    0,000000000e+00
      674000000   -5,623591319e-02   -1,055455487e-02    6,441957355e-01   -3,984413669e-02    0,000000000e+00    0,000000000e+00    0,000000000e+00    0,000000000e+00
      688000000   -4,952675477e-02    3,527567256e-03    4,934437275e-01   -4,011403024e-01    0,000000000e+00    0,000000000e+00    0,000000000e+00    0,000000000e+00
      702000000   -2,605255134e-02    6,885649171e-03    1,667683572e-01   -6,088265181e-01    0,000000000e+00    0,000000000e+00    0,000000000e+00    0,000000000e+00
      716000000   -1,572416513e-03   -8,580619469e-03   -2,186962217e-01   -5,756202936e-01    0,000000000e+00    0,000000000e+00    0,000000000e+00    0,000000000e+00
      730000000    9,517272003e-03   -3,521648049e-02   -5,093152523e-01   -3,336189389e-01    0,000000000e+00    0,000000000e+00    0,000000000e+00    0,000000000e+00
      744000000    1,624290645e-02   -6,056436896e-02   -6,007112861e-01    3,279001638e-02    0,000000000e+00    0,000000000e+00    0,000000000e+00    0,000000000e+00
      758000000    2,267587185e-02   -1,028787121e-01   -4,542324245e-01    3,765508831e-01    0,000000000e+00    0,000000000e+00    0,000000000e+00    0,000000000e+00
      772000000   -4,369003233e-03   -1,737414300e-01   -1,407133341e-01    5,580134392e-01    0,000000000e+00    0,000000000e+00    0,000000000e+00    0,000000000e+00
      786000000   -1,058210656e-01   -2,323933244e-01    2,119392753e-01    5,194627643e-01    0,000000000e+00    0,000000000e+00    0,000000000e+00    0,000000000e+00
      800000000   -2,648466527e-01   -1,924952120e-01    4,718260169e-01    2,754552662e-01    0,000000000e+00    0,000000000e+00    0,000000000e+00    0,000000000e+00
      814000000   -3,636806607e-01    3,851820715e-03    5,077878237e-01   -8,832759410e-02    0,000000000e+00    0,000000000e+00    0,000000000e+00    0,000000000e+00
      828000000   -2,479428202e-01    2,324939966e-01    2,814890444e-01   -3,518732488e-01    0,000000000e+00    0,000000000e+00    0,000000000e+00    0,000000000e+00
      842000000    1,292731706e-02    2,786382735e-01   -1,554653607e-02   -3,625301719e-01    0,000000000e+00    0,000000000e+00    0,000000000e+00    0,000000000e+00
      856000000    2,122444361e-01    1,153459623e-01   -1,881041229e-01   -2,049744427e-01    0,000000000e+00    0,000000000e+00    0,000000000e+00    0,000000000e+00
      870000000    2,391123176e-01   -1,484807879e-01   -2,004235536e-01   -2,575074323e-02    0,000000000e+00    0,000000000e+00    0,000000000e+00    0,000000000e+00
      884000000    3,785246611e-02   -3,873886466e-01   -1,033244878e-01    7,076700032e-02    0,000000000e+00    0,000000000e+00    0,000000000e+00    0,000000000e+00
      898000000   -3,701746464e-01   -3,419164121e-01   -1,772259735e-02    2,751981094e-02    0,000000000e+00    0,000000000e+00    0,000000000e+00    0,000000000e+00
      912000000   -4,673869014e-01    1,391971558e-01   -1,064697057e-01    3,482489288e-02    0,000000000e+00    0,000000000e+00    0,000000000e+00    0,000000000e+00
      926000000   -9,523373097e-02    3,522639871e-01   -1,287590563e-01    1,359006315e-01    0,000000000e+00    0,000000000e+00    0,000000000e+00    0,000000000e+00
      940000000    1,836709678e-01    1,920221001e-01   -3,853350505e-02    2,155553252e-01    0,000000000e+00    0,000000000e+00    0,000000000e+00    0,000000000e+00
      954000000    2,530201674e-01   -4,695201293e-02    8,024687320e-02    2,266249508e-01    0,000000000e+00    0,000000000e+00    0,000000000e+00    0,000000000e+00
      968000000    1,743799895e-01   -2,638135254e-01    1,915097237e-01    1,788953841e-01    0,000000000e+00    0,000000000e+00    0,000000000e+00    0,000000000e+00
      982000000   -1,613612473e-02   -3,923577666e-01    2,806127667e-01    7,875981927e-02    0,000000000e+00    0,000000000e+00    0,000000000e+00    0,000000000e+00
      996000000   -2,740881145e-01   -3,800485730e-01    3,088203371e-01   -7,913652807e-02    0,000000000e+00    0,000000000e+00    0,000000000e+00    0,000000000e+00
     1010000000   -4,660566747e-01   -1,744213253e-01    2,225388438e-01   -2,512700558e-01    0,000000000e+00    0,000000000e+00    0,000000000e+00    0,000000000e+00
     1024000000   -4,560416937e-01    1,173332781e-01    2,287567779e-02   -3,307319283e-01    0,000000000e+00    0,000000000e+00    0,000000000e+00    0,000000000e+00
     1038000000   -2,667833865e-01    2,957600951e-01   -1,729785949e-01   -2,450794876e-01    0,000000000e+00    0,000000000e+00    0,000000000e+00    0,000000000e+00
     1052000000   -3,727221489e-02    3,116536140e-01   -2,567176223e-01   -7,865242660e-02    0,000000000e+00    0,000000000e+00    0,000000000e+00    0,000000000e+00
     1066000000    1,231017634e-01    2,051782161e-01   -2,249360830e-01    8,394753933e-02    0,000000000e+00    0,000000000e+00    0,000000000e+00    0,000000000e+00
     1080000000    2,103893608e-01    4,838054627e-02   -1,219344288e-01    1,926602423e-01    0,000000000e+00    0,000000000e+00    0,000000000e+00    0,000000000e+00
     1094000000    1,998941749e-01   -1,304025352e-01    2,076786384e-02    2,346292734e-01    0,000000000e+00    0,000000000e+00    0,000000000e+00    0,000000000e+00
     1108000000    9,859149903e-02   -2,854112387e-01    1,698430032e-01    2,056204081e-01    0,000000000e+00    0,000000000e+00    0,000000000e+00    0,000000000e+00
     1122000000   -1,029780954e-01   -3,699987233e-01    3,158057928e-01    9,095928818e-02    0,000000000e+00    0,000000000e+00    0,000000000e+00    0,000000000e+00
     1136000000   -3,435734212e-01   -2,659869194e-01    3,893494308e-01   -1,532250047e-01    0,000000000e+00    0,000000000e+00    0,000000000e+00    0,000000000e+00
     1150000000   -4,087061584e-01    3,521030396e-02    2,446475327e-01   -4,371624589e-01    0,000000000e+00    0,000000000e+00    0,000000000e+00    0,000000000e+00
     1164000000   -1,599883586e-01    2,227159888e-01   -9,434501827e-02   -5,143851638e-01    0,000000000e+00    0,000000000e+00    0,000000000e+00    0,000000000e+00
     1178000000    7,794217765e-02    8,233932406e-02   -3,570171297e-01   -3,463779986e-01    0,000000000e+00    0,000000000e+00    0,000000000e+00    0,000000000e+00
     1192000000    7,344287634e-02   -1,772808135e-01   -4,541538060e-01   -8,413240314e-02    0,000000000e+00    0,000000000e+00    0,000000000e+00    0,000000000e+00
     1206000000   -1,621744186e-01   -3,275911510e-01   -3,654080629e-01    1,879757345e-01    0,000000000e+00    0,000000000e+00    0,000000000e+00    0,000000000e+00
     1220000000   -4,586021900e-01   -1,782879680e-01   -1,060460582e-01    3,328163624e-01    0,000000000e+00    0,000000000e+00    0,000000000e+00    0,000000000e+00
     1234000000   -4,752925038e-01    1,628864259e-01    1,398830414e-01    2,185267657e-01    0,000000000e+00    0,000000000e+00    0,000000000e+00    0,000000000e+00
     1248000000   -2,337629944e-01    3,590676188e-01    1,914037466e-01    4,036885500e-02    0,000000000e+00    0,000000000e+00    0,000000000e+00    0,000000000e+00
     1262000000    5,224500317e-03    3,327672184e-01    1,276562512e-01   -7,445824146e-02    0,000000000e+00    0,000000000e+00    0,000000000e+00    0,000000000e+00
     1276000000    1,575707644e-01    1,965642571e-01    5,537043884e-02   -9,805676341e-02    0,000000000e+00    0,000000000e+00    0,000000000e+00    0,000000000e+00
     1290000000    2,164934874e-01    3,015238233e-02    6,414047675e-05   -7,590562105e-02    0,000000000e+00    0,000000000e+00    0,000000000e+00    0,000000000e+00
     1304000000    2,067154497e-01   -1,450577825e-01   -1,435262803e-02   -2,900334820e-02    0,000000000e+00    0,000000000e+00    0,000000000e+00    0,000000000e+00
     1318000000    1,145744324e-01   -3,124665320e-01   -4,201797303e-03    2,034830861e-02    0,000000000e+00    0,000000000e+00    0,000000000e+00    0,000000000e+00
     1332000000   -6,845587492e-02   -4,315454066e-01    5,220448971e-02    6,950626522e-02    0,000000000e+00    0,000000000e+00    0,000000000e+00    0,000000000e+00
     1346000000   -3,286342919e-01   -4,330071211e-01    1,445180476e-01    4,506244138e-02    0,000000000e+00    0,000000000e+00    0,000000000e+00    0,000000000e+00
     1360000000   -5,520542264e-01   -2,482927591e-01    1,227163672e-01   -7,709836960e-02    0,000000000e+00    0,000000000e+00    0,000000000e+00    0,000000000e+00
     1374000000   -6,277210712e-01    2,776055038e-02    1,084930077e-01    5,191681907e-02    0,000000000e+00    0,000000000e+00    0,000000000e+00    0,000000000e+00
     1388000000   -5,161519647e-01    2,833251953e-01    2,262223065e-01   -5,394560285e-03    0,000000000e+00    0,000000000e+00    0,000000000e+00    0,000000000e+00
     1402000000   -3,131162226e-01    4,152714014e-01    2,153830230e-01   -8,346962929e-02    0,000000000e+00    0,000000000e+00    0,000000000e+00    0,000000000e+00
     1416000000   -9,376896918e-02    4,157241881e-01    1,865493059e-01   -1,194407195e-01    0,000000000e+00    0,000000000e+00    0,000000000e+00    0,000000000e+00
     1430000000    6,518974900e-02    3,382686973e-01    1,649926901e-01   -1,065793633e-01    0,000000000e+00    0,000000000e+00    0,000000000e+00    0,000000000e+00
     1444000000    1,783043295e-01    1,997130513e-01    1,620335877e-01   -9,635958076e-02    0,000000000e+00    0,000000000e+00    0,000000000e+00    0,000000000e+00
     1458000000    2,233149111e-01    3,611359000e-02    1,439170092e-01   -7,712510228e-02    0,000000000e+00    0,000000000e+00    0,000000000e+00    0,000000000e+00
     1472000000    2,089526057e-01   -1,463586092e-01    1,560694277e-01   -4,632525519e-02    0,000000000e+00    0,000000000e+00    0,000000000e+00    0,000000000e+00
     1486000000    1,090136915e-01   -3,323667943e-01    1,604796946e-01   -9,211080149e-03    0,000000000e+00    0,000000000e+00    0,000000000e+00    0,000000000e+00
     1500000000   -9,376507998e-02   -4,564627707e-01    1,968788356e-01    7,035586983e-02    0,000000000e+00    0,000000000e+00    0,000000000e+00    0,000000000e+00
