! NanoVNA-App
! Date: 2025-09-25 14:20:54
! Start: 100MHz Stop: 1,5GHz Points: 101
! S-Parameter data: F S11 S21 S12 S22
# Hz S RI R 50
!     Frequency           S11_Real           S11_Imag           S21_Real           S21_Imag           S12_Real           S12_Imag           S22_Real           S22_Imag
      100000000   -2,908547595e-02   -4,124723841e-03    3,744999766e-01   -7,221370935e-01    0,000000000e+00    0,000000000e+00    0,000000000e+00    0,000000000e+00
      114000000   -1,659879647e-02    1,162229571e-02   -8,895619214e-02   -8,058541417e-01    0,000000000e+00    0,000000000e+00    0,000000000e+00    0,000000000e+00
      128000000    3,394384868e-03    1,049211901e-02   -5,147021413e-01   -6,210237145e-01    0,000000000e+00    0,000000000e+00    0,000000000e+00    0,000000000e+00
      142000000    1,447639801e-02   -3,068004269e-03   -7,675880790e-01   -2,370164841e-01    0,000000000e+00    0,000000000e+00    0,000000000e+00    0,000000000e+00
      156000000    1,540131029e-02   -1,485071424e-02   -7,693433166e-01    2,233035266e-01    0,000000000e+00    0,000000000e+00    0,000000000e+00    0,000000000e+00
      170000000    1,656941324e-02   -2,258921042e-02   -5,186842680e-01    6,051897407e-01    0,000000000e+00    0,000000000e+00    0,000000000e+00    0,000000000e+00
      184000000    2,095548064e-02   -3,709434718e-02   -1,019088626e-01    7,863628864e-01    0,000000000e+00    0,000000000e+00    0,000000000e+00    0,000000000e+00
      198000000    1,302539278e-02   -6,260573864e-02    3,431077003e-01    7,133064270e-01    0,000000000e+00    0,000000000e+00    0,000000000e+00    0,000000000e+00
      212000000   -1,874955371e-02   -8,164623380e-02    6,784240603e-01    4,104183316e-01    0,000000000e+00    0,000000000e+00    0,000000000e+00    0,000000000e+00
      226000000   -6,213523448e-02   -6,962674856e-02    7,961823940e-01   -2,978041209e-02    0,000000000e+00    0,000000000e+00    0,000000000e+00    0,000000000e+00
      240000000   -8,320110291e-02   -2,606603131e-02    6,471539140e-01   -4,665920138e-01    0,000000000e+00    0,000000000e+00    0,000000000e+00    0,000000000e+00
      254000000   -6,433980912e-02    1,729622297e-02    2,773356438e-01   -7,435933948e-01    0,000000000e+00    0,000000000e+00    0,000000000e+00    0,000000000e+00
      268000000   -2,428427339e-02    2,946779691e-02   -1,770644337e-01   -7,649836540e-01    0,000000000e+00    0,000000000e+00    0,000000000e+00    0,000000000e+00
      282000000    4,170488100e-03    1,211183984e-02   -5,626760721e-01   -5,369921923e-01    0,000000000e+00    0,000000000e+00    0,000000000e+00    0,000000000e+00
      296000000    9,638586082e-03   -7,585842628e-03   -7,610259652e-01   -1,395792067e-01    0,000000000e+00    0,000000000e+00    0,000000000e+00    0,000000000e+00
      310000000    1,116079744e-02   -1,618193090e-02   -7,132070661e-01    2,972396612e-01    0,000000000e+00    0,000000000e+00    0,000000000e+00    0,000000000e+00
      324000000    1,934142038e-02   -2,636662871e-02   -4,281844795e-01    6,381567717e-01    0,000000000e+00    0,000000000e+00    0,000000000e+00    0,000000000e+00
      338000000    2,540139109e-02   -5,203520879e-02   -1,138921268e-02    7,603547573e-01    0,000000000e+00    0,000000000e+00    0,000000000e+00    0,000000000e+00
      352000000    7,718252484e-03   -8,491090685e-02    4,061345756e-01    6,401899457e-01    0,000000000e+00    0,000000000e+00    0,000000000e+00    0,000000000e+00
      366000000   -3,506064415e-02   -9,625267237e-02    6,907054186e-01    3,118390143e-01    0,000000000e+00    0,000000000e+00    0,000000000e+00    0,000000000e+00
      380000000   -7,135239989e-02   -7,129053026e-02    7,484815717e-01   -1,245004088e-01    0,000000000e+00    0,000000000e+00    0,000000000e+00    0,000000000e+00
      394000000   -7,331268489e-02   -3,229706362e-02    5,476204753e-01   -5,201147199e-01    0,000000000e+00    0,000000000e+00    0,000000000e+00    0,000000000e+00
      408000000   -4,688702896e-02   -1,567193121e-02    1,630937606e-01   -7,320854664e-01    0,000000000e+00    0,000000000e+00    0,000000000e+00    0,000000000e+00
      422000000   -2,832683362e-02   -3,146693856e-02   -2,662035227e-01   -6,960613728e-01    0,000000000e+00    0,000000000e+00    0,000000000e+00    0,000000000e+00
      436000000   -4,017560557e-02   -5,174096674e-02   -6,026937962e-01   -4,334243536e-01    0,000000000e+00    0,000000000e+00    0,000000000e+00    0,000000000e+00
      450000000   -6,762192398e-02   -4,448280111e-02   -7,404159307e-01   -2,441778593e-02    0,000000000e+00    0,000000000e+00    0,000000000e+00    0,000000000e+00
      464000000   -7,440489531e-02   -1,231432986e-02   -6,214312315e-01    3,952586353e-01    0,000000000e+00    0,000000000e+00    0,000000000e+00    0,000000000e+00
      478000000   -4,910034314e-02    1,182176173e-02   -2,865706384e-01    6,676005721e-01    0,000000000e+00    0,000000000e+00    0,000000000e+00    0,000000000e+00
      492000000   -1,690264791e-02    6,734484807e-03    1,345600933e-01    7,034057975e-01    0,000000000e+00    0,000000000e+00    0,000000000e+00    0,000000000e+00
      506000000   -3,785291919e-03   -1,498504635e-02    4,986806810e-01    5,072824359e-01    0,000000000e+00    0,000000000e+00    0,000000000e+00    0,000000000e+00
      520000000   -5,888284650e-03   -2,974184789e-02    6,886269450e-01    1,440300792e-01    0,000000000e+00    0,000000000e+00    0,000000000e+00    0,000000000e+00
      534000000   -3,254454583e-03   -3,586862236e-02    6,448249221e-01   -2,595887780e-01    0,000000000e+00    0,000000000e+00    0,000000000e+00    0,000000000e+00
      548000000    8,162766695e-03   -5,245614052e-02    3,837692142e-01   -5,644277334e-01    0,000000000e+00    0,000000000e+00    0,000000000e+00    0,000000000e+00
      562000000    6,143726874e-03   -8,959791809e-02    8,586025797e-03   -6,723557115e-01    0,000000000e+00    0,000000000e+00    0,000000000e+00    0,000000000e+00
      576000000   -3,151611239e-02   -1,261318475e-01   -3,623055518e-01   -5,610313416e-01    0,000000000e+00    0,000000000e+00    0,000000000e+00    0,000000000e+00
      590000000   -9,480678290e-02   -1,279231608e-01   -6,149874330e-01   -2,712511718e-01    0,000000000e+00    0,000000000e+00    0,000000000e+00    0,000000000e+00
      604000000   -1,429485828e-01   -7,789801061e-02   -6,676541567e-01    1,267172843e-01    0,000000000e+00    0,000000000e+00    0,000000000e+00    0,000000000e+00
      618000000   -1,380890608e-01   -1,172696427e-02   -4,756036103e-01    4,855016768e-01    0,000000000e+00    0,000000000e+00    0,000000000e+00    0,000000000e+00
      632000000   -9,288167208e-02    2,195769176e-02   -1,133973971e-01    6,636213064e-01    0,000000000e+00    0,000000000e+00    0,000000000e+00    0,000000000e+00
      646000000   -5,525171012e-02    1,129340753e-02    2,733031511e-01    6,036937833e-01    0,000000000e+00    0,000000000e+00    0,000000000e+00    0,000000000e+00
      660000000   -4,771270975e-02   -9,083637036e-03    5,578411818e-01    3,406809270e-01    0,000000000e+00    0,000000000e+00    0,000000000e+00    0,000000000e+00
      674000000   -5,560221896e-02   -1,053693332e-02    6,440874934e-01   -4,027912393e-02    0,000000000e+00    0,000000000e+00    0,000000000e+00    0,000000000e+00
      688000000   -5,017060414e-02    3,744448768e-03    4,933130145e-01   -4,017975032e-01    0,000000000e+00    0,000000000e+00    0,000000000e+00    0,000000000e+00
      702000000   -2,622657269e-02    7,548891939e-03    1,603729427e-01   -6,021803021e-01    0,000000000e+00    0,000000000e+00    0,000000000e+00    0,000000000e+00
      716000000   -2,724519698e-03   -9,269704111e-03   -2,193558663e-01   -5,751015544e-01    0,000000000e+00    0,000000000e+00    0,000000000e+00    0,000000000e+00
      730000000    9,340454824e-03   -3,536482528e-02   -5,098387003e-01   -3,329070508e-01    0,000000000e+00    0,000000000e+00    0,000000000e+00    0,000000000e+00
      744000000    1,698985510e-02   -6,171414256e-02   -6,007103920e-01    3,332478926e-02    0,000000000e+00    0,000000000e+00    0,000000000e+00    0,000000000e+00
      758000000    2,264919877e-02   -1,038499773e-01   -4,547969103e-01    3,776766360e-01    0,000000000e+00    0,000000000e+00    0,000000000e+00    0,000000000e+00
      772000000   -4,500152078e-03   -1,733551770e-01   -1,400727034e-01    5,578394532e-01    0,000000000e+00    0,000000000e+00    0,000000000e+00    0,000000000e+00
      786000000   -1,056053713e-01   -2,330518663e-01    2,116854042e-01    5,204250216e-01    0,000000000e+00    0,000000000e+00    0,000000000e+00    0,000000000e+00
      800000000   -2,661394179e-01   -1,918183565e-01    4,714672267e-01    2,758165300e-01    0,000000000e+00    0,000000000e+00    0,000000000e+00    0,000000000e+00
      814000000   -3,649373055e-01    3,928481601e-03    5,076854229e-01   -8,886174858e-02    0,000000000e+00    0,000000000e+00    0,000000000e+00    0,000000000e+00
      828000000   -2,486601472e-01    2,327445447e-01    2,805669308e-01   -3,527863920e-01    0,000000000e+00    0,000000000e+00    0,000000000e+00    0,000000000e+00
      842000000    1,289896667e-02    2,790883780e-01   -1,576673798e-02   -3,629285395e-01    0,000000000e+00    0,000000000e+00    0,000000000e+00    0,000000000e+00
      856000000    2,127097249e-01    1,156205907e-01   -1,879365891e-01   -2,042123973e-01    0,000000000e+00    0,000000000e+00    0,000000000e+00    0,000000000e+00
      870000000    2,389448285e-01   -1,485917717e-01   -1,998539418e-01   -2,641505376e-02    0,000000000e+00    0,000000000e+00    0,000000000e+00    0,000000000e+00
      884000000    3,740080446e-02   -3,861865699e-01   -1,044146195e-01    7,005823404e-02    0,000000000e+00    0,000000000e+00    0,000000000e+00    0,000000000e+00
      898000000   -3,688886762e-01   -3,424384594e-01   -1,725148223e-02    2,723943628e-02    0,000000000e+00    0,000000000e+00    0,000000000e+00    0,000000000e+00
      912000000   -4,674648345e-01    1,371832937e-01   -1,204247624e-01    3,732471168e-02    0,000000000e+00    0,000000000e+00    0,000000000e+00    0,000000000e+00
      926000000   -9,674560279e-02    3,525162935e-01   -1,295016557e-01    1,346094757e-01    0,000000000e+00    0,000000000e+00    0,000000000e+00    0,000000000e+00
      940000000    1,844573319e-01    1,923588067e-01   -3,819622844e-02    2,149211764e-01    0,000000000e+00    0,000000000e+00    0,000000000e+00    0,000000000e+00
      954000000    2,552481294e-01   -4,619584978e-02    8,101876080e-02    2,287536263e-01    0,000000000e+00    0,000000000e+00    0,000000000e+00    0,000000000e+00
      968000000    1,730843484e-01   -2,601412535e-01    1,924487352e-01    1,794641167e-01    0,000000000e+00    0,000000000e+00    0,000000000e+00    0,000000000e+00
      982000000   -1,676320843e-02   -3,924295604e-01    2,802685797e-01    7,843664289e-02    0,000000000e+00    0,000000000e+00    0,000000000e+00    0,000000000e+00
      996000000   -2,712636292e-01   -3,756668568e-01    3,098903000e-01   -7,871764898e-02    0,000000000e+00    0,000000000e+00    0,000000000e+00    0,000000000e+00
     1010000000   -4,706832469e-01   -1,691697538e-01    2,220488787e-01   -2,535486519e-01    0,000000000e+00    0,000000000e+00    0,000000000e+00    0,000000000e+00
     1024000000   -4,609915912e-01    1,196925566e-01    2,087491192e-02   -3,304868340e-01    0,000000000e+00    0,000000000e+00    0,000000000e+00    0,000000000e+00
     1038000000   -2,681744099e-01    2,976205349e-01   -1,744753420e-01   -2,491539270e-01    0,000000000e+00    0,000000000e+00    0,000000000e+00    0,000000000e+00
     1052000000   -3,769074008e-02    3,139586151e-01   -2,546508014e-01   -7,905139774e-02    0,000000000e+00    0,000000000e+00    0,000000000e+00    0,000000000e+00
     1066000000    1,299795508e-01    2,029320449e-01   -2,237342149e-01    8,714644611e-02    0,000000000e+00    0,000000000e+00    0,000000000e+00    0,000000000e+00
     1080000000    2,092245072e-01    4,879117757e-02   -1,201798692e-01    1,912770718e-01    0,000000000e+00    0,000000000e+00    0,000000000e+00    0,000000000e+00
     1094000000    2,007353753e-01   -1,303799599e-01    1,770659909e-02    2,350512594e-01    0,000000000e+00    0,000000000e+00    0,000000000e+00    0,000000000e+00
     1108000000    9,939866513e-02   -2,857470512e-01    1,704011112e-01    2,081142068e-01    0,000000000e+00    0,000000000e+00    0,000000000e+00    0,000000000e+00
     1122000000   -9,801936895e-02   -3,669361770e-01    3,146576285e-01    8,913426101e-02    0,000000000e+00    0,000000000e+00    0,000000000e+00    0,000000000e+00
     1136000000   -3,464527428e-01   -2,721135318e-01    3,905623555e-01   -1,511934102e-01    0,000000000e+00    0,000000000e+00    0,000000000e+00    0,000000000e+00
     1150000000   -4,131531119e-01    3,753062710e-02    2,452432811e-01   -4,371119142e-01    0,000000000e+00    0,000000000e+00    0,000000000e+00    0,000000000e+00
     1164000000   -1,641060859e-01    2,181134969e-01   -9,361020476e-02   -5,135979056e-01    0,000000000e+00    0,000000000e+00    0,000000000e+00    0,000000000e+00
     1178000000    7,154332846e-02    8,227247000e-02   -3,554439247e-01   -3,483475149e-01    0,000000000e+00    0,000000000e+00    0,000000000e+00    0,000000000e+00
     1192000000    7,733579725e-02   -1,759838164e-01   -4,510336220e-01   -8,487606049e-02    0,000000000e+00    0,000000000e+00    0,000000000e+00    0,000000000e+00
     1206000000   -1,641456187e-01   -3,252429664e-01   -3,695164919e-01    1,900069565e-01    0,000000000e+00    0,000000000e+00    0,000000000e+00    0,000000000e+00
     1220000000   -4,528295100e-01   -1,747764945e-01   -1,029917672e-01    3,274776936e-01    0,000000000e+00    0,000000000e+00    0,000000000e+00    0,000000000e+00
     1234000000   -4,684816897e-01    1,698384136e-01    1,398451328e-01    2,266393900e-01    0,000000000e+00    0,000000000e+00    0,000000000e+00    0,000000000e+00
     1248000000   -2,331330031e-01    3,486503661e-01    1,899425983e-01    3,366734087e-02    0,000000000e+00    0,000000000e+00    0,000000000e+00    0,000000000e+00
     1262000000   -1,120775938e-03    3,342513144e-01    1,247720569e-01   -7,248157263e-02    0,000000000e+00    0,000000000e+00    0,000000000e+00    0,000000000e+00
     1276000000    1,579245478e-01    2,005227059e-01    5,712375790e-02   -9,404432774e-02    0,000000000e+00    0,000000000e+00    0,000000000e+00    0,000000000e+00
     1290000000    2,179618031e-01    3,495322540e-02    3,335149493e-03   -6,997556239e-02    0,000000000e+00    0,000000000e+00    0,000000000e+00    0,000000000e+00
     1304000000    2,064582109e-01   -1,454974860e-01   -1,604215428e-02   -2,882899158e-02    0,000000000e+00    0,000000000e+00    0,000000000e+00    0,000000000e+00
     1318000000    1,149414107e-01   -3,096784651e-01   -4,935529549e-03    2,253176272e-02    0,000000000e+00    0,000000000e+00    0,000000000e+00    0,000000000e+00
     1332000000   -6,687665731e-02   -4,361088872e-01    4,915796593e-02    6,305471808e-02    0,000000000e+00    0,000000000e+00    0,000000000e+00    0,000000000e+00
     1346000000   -3,251275718e-01   -4,364278316e-01    1,506097764e-01    4,984763265e-02    0,000000000e+00    0,000000000e+00    0,000000000e+00    0,000000000e+00
     1360000000   -5,587243438e-01   -2,445413172e-01    1,089188904e-01   -7,754410803e-02    0,000000000e+00    0,000000000e+00    0,000000000e+00    0,000000000e+00
     1374000000   -6,204621792e-01    2,895086817e-02    1,116629913e-01    4,388214648e-02    0,000000000e+00    0,000000000e+00    0,000000000e+00    0,000000000e+00
     1388000000   -5,137614608e-01    2,915795743e-01    2,202905864e-01   -2,373929136e-03    0,000000000e+00    0,000000000e+00    0,000000000e+00    0,000000000e+00
     1402000000   -3,051682711e-01    4,196577072e-01    2,224436849e-01   -8,921431750e-02    0,000000000e+00    0,000000000e+00    0,000000000e+00    0,000000000e+00
     1416000000   -9,831076860e-02    4,233092368e-01    1,844860315e-01   -1,170311570e-01    0,000000000e+00    0,000000000e+00    0,000000000e+00    0,000000000e+00
     1430000000    7,405541092e-02    3,361318111e-01    1,655184776e-01   -8,874811232e-02    0,000000000e+00    0,000000000e+00    0,000000000e+00    0,000000000e+00
     1444000000    1,811816394e-01    1,951149255e-01    1,574532390e-01   -1,072516516e-01    0,000000000e+00    0,000000000e+00    0,000000000e+00    0,000000000e+00
     1458000000    2,199779600e-01    3,603754565e-02    1,399679184e-01   -9,027429670e-02    0,000000000e+00    0,000000000e+00    0,000000000e+00    0,000000000e+00
     1472000000    2,076825500e-01   -1,482426971e-01    1,562751830e-01   -5,411487073e-02    0,000000000e+00    0,000000000e+00    0,000000000e+00    0,000000000e+00
     1486000000    1,023407578e-01   -3,257195354e-01    1,575566977e-01   -9,573721327e-03    0,000000000e+00    0,000000000e+00    0,000000000e+00    0,000000000e+00
     1500000000   -9,193678945e-02   -4,561816454e-01    2,131430060e-01    4,493537918e-02    0,000000000e+00    0,000000000e+00    0,000000000e+00    0,000000000e+00
