! NanoVNA-App
! Date: 2025-09-25 14:22:59
! Start: 100MHz Stop: 1,5GHz Points: 101
! S-Parameter data: F S11 S21 S12 S22
# Hz S RI R 50
!     Frequency           S11_Real           S11_Imag           S21_Real           S21_Imag           S12_Real           S12_Imag           S22_Real           S22_Imag
      100000000   -2,910357155e-02   -4,138743505e-03    3,744666874e-01   -7,221261263e-01    0,000000000e+00    0,000000000e+00    0,000000000e+00    0,000000000e+00
      114000000   -1,660919562e-02    1,158236526e-02   -8,903238922e-02   -8,057895899e-01    0,000000000e+00    0,000000000e+00    0,000000000e+00    0,000000000e+00
      128000000    3,419970395e-03    1,051995717e-02   -5,146367550e-01   -6,209455132e-01    0,000000000e+00    0,000000000e+00    0,000000000e+00    0,000000000e+00
      142000000    1,447760407e-02   -3,046110040e-03   -7,672526240e-01   -2,367605567e-01    0,000000000e+00    0,000000000e+00    0,000000000e+00    0,000000000e+00
      156000000    1,469659619e-02   -1,501840353e-02   -7,661271095e-01    2,214325070e-01    0,000000000e+00    0,000000000e+00    0,000000000e+00    0,000000000e+00
      170000000    1,653586701e-02   -2,257279865e-02   -5,187705159e-01    6,050603986e-01    0,000000000e+00    0,000000000e+00    0,000000000e+00    0,000000000e+00
      184000000    2,099387348e-02   -3,708249703e-02   -1,016616002e-01    7,865348458e-01    0,000000000e+00    0,000000000e+00    0,000000000e+00    0,000000000e+00
      198000000    1,302420162e-02   -6,258977205e-02    3,430516720e-01    7,131905556e-01    0,000000000e+00    0,000000000e+00    0,000000000e+00    0,000000000e+00
      212000000   -1,870671287e-02   -8,163644373e-02    6,784760952e-01    4,106635451e-01    0,000000000e+00    0,000000000e+00    0,000000000e+00    0,000000000e+00
      226000000   -6,201925874e-02   -6,968408078e-02    7,960944176e-01   -2,970774844e-02    0,000000000e+00    0,000000000e+00    0,000000000e+00    0,000000000e+00
      240000000   -8,317965269e-02   -2,604831383e-02    6,471426487e-01   -4,667469263e-01    0,000000000e+00    0,000000000e+00    0,000000000e+00    0,000000000e+00
      254000000   -6,434006989e-02    1,721275784e-02    2,772429585e-01   -7,437830567e-01    0,000000000e+00    0,000000000e+00    0,000000000e+00    0,000000000e+00
      268000000   -2,431910299e-02    2,952178195e-02   -1,768640876e-01   -7,646499276e-01    0,000000000e+00    0,000000000e+00    0,000000000e+00    0,000000000e+00
      282000000    4,252193496e-03    1,213737112e-02   -5,623638034e-01   -5,375342369e-01    0,000000000e+00    0,000000000e+00    0,000000000e+00    0,000000000e+00
      296000000    9,585233405e-03   -7,692538667e-03   -7,607442737e-01   -1,395600438e-01    0,000000000e+00    0,000000000e+00    0,000000000e+00    0,000000000e+00
      310000000    1,093580574e-02   -1,613046043e-02   -7,136867642e-01    2,981550097e-01    0,000000000e+00    0,000000000e+00    0,000000000e+00    0,000000000e+00
      324000000    1,951346546e-02   -2,653729916e-02   -4,289493859e-01    6,369611621e-01    0,000000000e+00    0,000000000e+00    0,000000000e+00    0,000000000e+00
      338000000    2,543104813e-02   -5,210586637e-02   -1,079892181e-02    7,636797428e-01    0,000000000e+00    0,000000000e+00    0,000000000e+00    0,000000000e+00
      352000000    7,575546391e-03   -8,444537222e-02    4,065420628e-01    6,410636902e-01    0,000000000e+00    0,000000000e+00    0,000000000e+00    0,000000000e+00
      366000000   -3,494083136e-02   -9,605620056e-02    6,911862493e-01    3,119325638e-01    0,000000000e+00    0,000000000e+00    0,000000000e+00    0,000000000e+00
      380000000   -7,136317343e-02   -7,107542455e-02    7,487131953e-01   -1,247064546e-01    0,000000000e+00    0,000000000e+00    0,000000000e+00    0,000000000e+00
      394000000   -7,300008833e-02   -3,262967989e-02    5,472326279e-01   -5,210059881e-01    0,000000000e+00    0,000000000e+00    0,000000000e+00    0,000000000e+00
      408000000   -4,696685821e-02   -1,580585167e-02    1,618190259e-01   -7,321380377e-01    0,000000000e+00    0,000000000e+00    0,000000000e+00    0,000000000e+00
      422000000   -2,827222832e-02   -3,170816973e-02   -2,661573887e-01   -6,966775656e-01    0,000000000e+00    0,000000000e+00    0,000000000e+00    0,000000000e+00
      436000000   -4,027009383e-02   -5,170838535e-02   -6,025876403e-01   -4,334026575e-01    0,000000000e+00    0,000000000e+00    0,000000000e+00    0,000000000e+00
      450000000   -6,716445833e-02   -4,484815150e-02   -7,399682403e-01   -2,503446676e-02    0,000000000e+00    0,000000000e+00    0,000000000e+00    0,000000000e+00
      464000000   -7,465500385e-02   -1,231518853e-02   -6,217159033e-01    3,944162428e-01    0,000000000e+00    0,000000000e+00    0,000000000e+00    0,000000000e+00
      478000000   -4,928854108e-02    1,136648003e-02   -2,862690687e-01    6,676561236e-01    0,000000000e+00    0,000000000e+00    0,000000000e+00    0,000000000e+00
      492000000   -1,663316600e-02    6,295633037e-03    1,343083382e-01    7,034602761e-01    0,000000000e+00    0,000000000e+00    0,000000000e+00    0,000000000e+00
      506000000   -3,586609149e-03   -1,491117105e-02    4,978724718e-01    5,059831142e-01    0,000000000e+00    0,000000000e+00    0,000000000e+00    0,000000000e+00
      520000000   -5,990333855e-03   -3,033833392e-02    6,902828217e-01    1,431900561e-01    0,000000000e+00    0,000000000e+00    0,000000000e+00    0,000000000e+00
      534000000   -3,080441616e-03   -3,585581854e-02    6,450201869e-01   -2,599971592e-01    0,000000000e+00    0,000000000e+00    0,000000000e+00    0,000000000e+00
      548000000    8,581520058e-03   -5,268659443e-02    3,851330280e-01   -5,636617541e-01    0,000000000e+00    0,000000000e+00    0,000000000e+00    0,000000000e+00
      562000000    5,786797963e-03   -8,923058212e-02    8,756612428e-03   -6,718605161e-01    0,000000000e+00    0,000000000e+00    0,000000000e+00    0,000000000e+00
      576000000   -3,138985112e-02   -1,267622262e-01   -3,616202474e-01   -5,610308051e-01    0,000000000e+00    0,000000000e+00    0,000000000e+00    0,000000000e+00
      590000000   -9,487253428e-02   -1,275753528e-01   -6,155372858e-01   -2,715716958e-01    0,000000000e+00    0,000000000e+00    0,000000000e+00    0,000000000e+00
      604000000   -1,432639509e-01   -7,795493305e-02   -6,679700017e-01    1,257657707e-01    0,000000000e+00    0,000000000e+00    0,000000000e+00    0,000000000e+00
      618000000   -1,380801499e-01   -1,168256253e-02   -4,749054611e-01    4,854315817e-01    0,000000000e+00    0,000000000e+00    0,000000000e+00    0,000000000e+00
      632000000   -9,309988469e-02    2,121570520e-02   -1,122943014e-01    6,622399688e-01    0,000000000e+00    0,000000000e+00    0,000000000e+00    0,000000000e+00
      646000000   -5,558159575e-02    1,233675331e-02    2,741119564e-01    6,042650938e-01    0,000000000e+00    0,000000000e+00    0,000000000e+00    0,000000000e+00
      660000000   -4,787128419e-02   -9,027648717e-03    5,578454137e-01    3,407768309e-01    0,000000000e+00    0,000000000e+00    0,000000000e+00    0,000000000e+00
      674000000   -5,541647971e-02   -1,092289202e-02    6,443883777e-01   -3,971645609e-02    0,000000000e+00    0,000000000e+00    0,000000000e+00    0,000000000e+00
      688000000   -5,070601404e-02    2,872365294e-03    4,935458899e-01   -4,015828073e-01    0,000000000e+00    0,000000000e+00    0,000000000e+00    0,000000000e+00
      702000000   -2,567006648e-02    8,151539601e-03    1,682701856e-01   -6,048271060e-01    0,000000000e+00    0,000000000e+00    0,000000000e+00    0,000000000e+00
      716000000   -1,379430876e-03   -9,503880516e-03   -2,185714096e-01   -5,748324394e-01    0,000000000e+00    0,000000000e+00    0,000000000e+00    0,000000000e+00
      730000000    9,077562019e-03   -3,495302796e-02   -5,091303587e-01   -3,327518106e-01    0,000000000e+00    0,000000000e+00    0,000000000e+00    0,000000000e+00
      744000000    1,679410599e-02   -6,145899743e-02   -6,008884311e-01    3,332788497e-02    0,000000000e+00    0,000000000e+00    0,000000000e+00    0,000000000e+00
      758000000    2,249381132e-02   -1,040827557e-01   -4,542630017e-01    3,772362769e-01    0,000000000e+00    0,000000000e+00    0,000000000e+00    0,000000000e+00
      772000000   -4,567713011e-03   -1,736592203e-01   -1,402619779e-01    5,576971173e-01    0,000000000e+00    0,000000000e+00    0,000000000e+00    0,000000000e+00
      786000000   -1,048938856e-01   -2,327187955e-01    2,111078054e-01    5,201802254e-01    0,000000000e+00    0,000000000e+00    0,000000000e+00    0,000000000e+00
      800000000   -2,654214203e-01   -1,934452057e-01    4,709467888e-01    2,755929828e-01    0,000000000e+00    0,000000000e+00    0,000000000e+00    0,000000000e+00
      814000000   -3,650518954e-01    3,834958421e-03    5,080475807e-01   -8,883297443e-02    0,000000000e+00    0,000000000e+00    0,000000000e+00    0,000000000e+00
      828000000   -2,474875748e-01    2,339111716e-01    2,811216414e-01   -3,529482782e-01    0,000000000e+00    0,000000000e+00    0,000000000e+00    0,000000000e+00
      842000000    1,272598282e-02    2,779400647e-01   -1,576878689e-02   -3,634743989e-01    0,000000000e+00    0,000000000e+00    0,000000000e+00    0,000000000e+00
      856000000    2,123292089e-01    1,154628098e-01   -1,880495250e-01   -2,044854462e-01    0,000000000e+00    0,000000000e+00    0,000000000e+00    0,000000000e+00
      870000000    2,389387041e-01   -1,489463300e-01   -2,003580630e-01   -2,621612884e-02    0,000000000e+00    0,000000000e+00    0,000000000e+00    0,000000000e+00
      884000000    3,714801371e-02   -3,872719109e-01   -1,036163643e-01    7,086445391e-02    0,000000000e+00    0,000000000e+00    0,000000000e+00    0,000000000e+00
      898000000   -3,704437315e-01   -3,416720629e-01   -1,720345207e-02    2,751905099e-02    0,000000000e+00    0,000000000e+00    0,000000000e+00    0,000000000e+00
      912000000   -4,680416584e-01    1,381651759e-01   -1,200416163e-01    2,641500346e-02    0,000000000e+00    0,000000000e+00    0,000000000e+00    0,000000000e+00
      926000000   -9,370725602e-02    3,498992026e-01   -1,271517277e-01    1,337164640e-01    0,000000000e+00    0,000000000e+00    0,000000000e+00    0,000000000e+00
      940000000    1,863131970e-01    1,932423115e-01   -3,862598911e-02    2,164757103e-01    0,000000000e+00    0,000000000e+00    0,000000000e+00    0,000000000e+00
      954000000    2,525940239e-01   -4,973210767e-02    7,939583808e-02    2,267296463e-01    0,000000000e+00    0,000000000e+00    0,000000000e+00    0,000000000e+00
      968000000    1,760234684e-01   -2,640835941e-01    1,922743917e-01    1,803770363e-01    0,000000000e+00    0,000000000e+00    0,000000000e+00    0,000000000e+00
      982000000   -1,497093216e-02   -3,945677578e-01    2,789914012e-01    8,022566885e-02    0,000000000e+00    0,000000000e+00    0,000000000e+00    0,000000000e+00
      996000000   -2,751874924e-01   -3,797964454e-01    3,084854782e-01   -7,953133434e-02    0,000000000e+00    0,000000000e+00    0,000000000e+00    0,000000000e+00
     1010000000   -4,689168632e-01   -1,758487672e-01    2,181412131e-01   -2,528394461e-01    0,000000000e+00    0,000000000e+00    0,000000000e+00    0,000000000e+00
     1024000000   -4,573892057e-01    1,145052090e-01    2,221672796e-02   -3,298278451e-01    0,000000000e+00    0,000000000e+00    0,000000000e+00    0,000000000e+00
     1038000000   -2,605777979e-01    2,972446978e-01   -1,743760854e-01   -2,457847595e-01    0,000000000e+00    0,000000000e+00    0,000000000e+00    0,000000000e+00
     1052000000   -3,597716615e-02    3,110087812e-01   -2,588639855e-01   -7,829109579e-02    0,000000000e+00    0,000000000e+00    0,000000000e+00    0,000000000e+00
     1066000000    1,274502575e-01    2,022591829e-01   -2,256874889e-01    8,875501901e-02    0,000000000e+00    0,000000000e+00    0,000000000e+00    0,000000000e+00
     1080000000    2,095730305e-01    4,584067687e-02   -1,225860119e-01    1,925413460e-01    0,000000000e+00    0,000000000e+00    0,000000000e+00    0,000000000e+00
     1094000000    2,048853189e-01   -1,290319562e-01    1,703512855e-02    2,335989624e-01    0,000000000e+00    0,000000000e+00    0,000000000e+00    0,000000000e+00
     1108000000    9,842463583e-02   -2,881768644e-01    1,703542918e-01    2,071520984e-01    0,000000000e+00    0,000000000e+00    0,000000000e+00    0,000000000e+00
     1122000000   -9,923484176e-02   -3,714756072e-01    3,174852133e-01    8,994582295e-02    0,000000000e+00    0,000000000e+00    0,000000000e+00    0,000000000e+00
     1136000000   -3,452599347e-01   -2,723073065e-01    3,914499879e-01   -1,495066434e-01    0,000000000e+00    0,000000000e+00    0,000000000e+00    0,000000000e+00
     1150000000   -4,121252596e-01    3,697931394e-02    2,425766289e-01   -4,402171075e-01    0,000000000e+00    0,000000000e+00    0,000000000e+00    0,000000000e+00
     1164000000   -1,562033892e-01    2,201390713e-01   -9,485975653e-02   -5,154285431e-01    0,000000000e+00    0,000000000e+00    0,000000000e+00    0,000000000e+00
     1178000000    7,682973891e-02    8,777366579e-02   -3,548289537e-01   -3,492896557e-01    0,000000000e+00    0,000000000e+00    0,000000000e+00    0,000000000e+00
     1192000000    7,381949574e-02   -1,714934856e-01   -4,570627213e-01   -8,338769525e-02    0,000000000e+00    0,000000000e+00    0,000000000e+00    0,000000000e+00
     1206000000   -1,654192954e-01   -3,271404207e-01   -3,687802255e-01    1,854090244e-01    0,000000000e+00    0,000000000e+00    0,000000000e+00    0,000000000e+00
     1220000000   -4,548682868e-01   -1,746239215e-01   -1,059179306e-01    3,302559257e-01    0,000000000e+00    0,000000000e+00    0,000000000e+00    0,000000000e+00
     1234000000   -4,699908197e-01    1,629774123e-01    1,408586949e-01    2,202774733e-01    0,000000000e+00    0,000000000e+00    0,000000000e+00    0,000000000e+00
     1248000000   -2,391229719e-01    3,515158892e-01    1,904478818e-01    3,456981853e-02    0,000000000e+00    0,000000000e+00    0,000000000e+00    0,000000000e+00
     1262000000    4,943348933e-03    3,322336972e-01    1,301263273e-01   -7,254104316e-02    0,000000000e+00    0,000000000e+00    0,000000000e+00    0,000000000e+00
     1276000000    1,506316513e-01    2,019781172e-01    5,197585002e-02   -9,227056056e-02    0,000000000e+00    0,000000000e+00    0,000000000e+00    0,000000000e+00
     1290000000    2,216356099e-01    3,207478672e-02    2,101551043e-03   -7,422995567e-02    0,000000000e+00    0,000000000e+00    0,000000000e+00    0,000000000e+00
     1304000000    2,033995539e-01   -1,451921165e-01   -1,635698415e-02   -2,893994190e-02    0,000000000e+00    0,000000000e+00    0,000000000e+00    0,000000000e+00
     1318000000    1,142538562e-01   -3,114706278e-01   -9,633732960e-03    2,393811755e-02    0,000000000e+00    0,000000000e+00    0,000000000e+00    0,000000000e+00
     1332000000   -6,628569216e-02   -4,318010807e-01    4,819158465e-02    7,022729516e-02    0,000000000e+00    0,000000000e+00    0,000000000e+00    0,000000000e+00
     1346000000   -3,305532634e-01   -4,345206022e-01    1,489775330e-01    5,278552696e-02    0,000000000e+00    0,000000000e+00    0,000000000e+00    0,000000000e+00
     1360000000   -5,525766015e-01   -2,441850752e-01    1,175666079e-01   -8,330757171e-02    0,000000000e+00    0,000000000e+00    0,000000000e+00    0,000000000e+00
     1374000000   -6,172878146e-01    2,861880697e-02    1,135281548e-01    6,127784401e-02    0,000000000e+00    0,000000000e+00    0,000000000e+00    0,000000000e+00
     1388000000   -5,188506842e-01    2,846114635e-01    2,178251445e-01   -6,700010039e-03    0,000000000e+00    0,000000000e+00    0,000000000e+00    0,000000000e+00
     1402000000   -3,037410378e-01    4,226148427e-01    2,232286781e-01   -7,578428835e-02    0,000000000e+00    0,000000000e+00    0,000000000e+00    0,000000000e+00
     1416000000   -9,417757392e-02    4,197640419e-01    1,851965189e-01   -1,186026558e-01    0,000000000e+00    0,000000000e+00    0,000000000e+00    0,000000000e+00
     1430000000    7,292655110e-02    3,327569962e-01    1,715691388e-01   -1,075983867e-01    0,000000000e+00    0,000000000e+00    0,000000000e+00    0,000000000e+00
     1444000000    1,753169745e-01    1,986109018e-01    1,642288268e-01   -1,089319363e-01    0,000000000e+00    0,000000000e+00    0,000000000e+00    0,000000000e+00
     1458000000    2,259361446e-01    3,041003086e-02    1,466855854e-01   -8,040069789e-02    0,000000000e+00    0,000000000e+00    0,000000000e+00    0,000000000e+00
     1472000000    2,033535242e-01   -1,435170472e-01    1,522235572e-01   -5,687554926e-02    0,000000000e+00    0,000000000e+00    0,000000000e+00    0,000000000e+00
     1486000000    1,089343801e-01   -3,217968345e-01    1,607745141e-01   -3,405507421e-03    0,000000000e+00    0,000000000e+00    0,000000000e+00    0,000000000e+00
     1500000000   -9,420155734e-02   -4,605469406e-01    2,056582123e-01    5,574883893e-02    0,000000000e+00    0,000000000e+00    0,000000000e+00    0,000000000e+00
