! NanoVNA-App
! Date: 2025-09-25 14:25:35
! Start: 100MHz Stop: 1,5GHz Points: 101
! S-Parameter data: F S11 S21 S12 S22
# Hz S RI R 50
!     Frequency           S11_Real           S11_Imag           S21_Real           S21_Imag           S12_Real           S12_Imag           S22_Real           S22_Imag
      100000000   -2,910127677e-02   -4,135960247e-03    3,745193481e-01   -7,220204473e-01    0,000000000e+00    0,000000000e+00    0,000000000e+00    0,000000000e+00
      114000000   -1,660356671e-02    1,160143223e-02   -8,888649940e-02   -8,056632280e-01    0,000000000e+00    0,000000000e+00    0,000000000e+00    0,000000000e+00
      128000000    3,418895183e-03    1,056252513e-02   -5,146073699e-01   -6,209823489e-01    0,000000000e+00    0,000000000e+00    0,000000000e+00    0,000000000e+00
      142000000    1,445815526e-02   -3,076964989e-03   -7,675198317e-01   -2,370827347e-01    0,000000000e+00    0,000000000e+00    0,000000000e+00    0,000000000e+00
      156000000    1,543446351e-02   -1,461330149e-02   -7,730091214e-01    2,230314761e-01    0,000000000e+00    0,000000000e+00    0,000000000e+00    0,000000000e+00
      170000000    1,649286970e-02   -2,241531946e-02   -5,186404586e-01    6,049612164e-01    0,000000000e+00    0,000000000e+00    0,000000000e+00    0,000000000e+00
      184000000    2,097953111e-02   -3,700900823e-02   -1,019235775e-01    7,869278193e-01    0,000000000e+00    0,000000000e+00    0,000000000e+00    0,000000000e+00
      198000000    1,311190333e-02   -6,263183057e-02    3,431838751e-01    7,132941484e-01    0,000000000e+00    0,000000000e+00    0,000000000e+00    0,000000000e+00
      212000000   -1,870424487e-02   -8,171209693e-02    6,782736182e-01    4,104332924e-01    0,000000000e+00    0,000000000e+00    0,000000000e+00    0,000000000e+00
      226000000   -6,203640997e-02   -6,964752823e-02    7,961820960e-01   -2,975136787e-02    0,000000000e+00    0,000000000e+00    0,000000000e+00    0,000000000e+00
      240000000   -8,330615610e-02   -2,603456378e-02    6,470934749e-01   -4,664262235e-01    0,000000000e+00    0,000000000e+00    0,000000000e+00    0,000000000e+00
      254000000   -6,441679597e-02    1,747178286e-02    2,770645916e-01   -7,430710793e-01    0,000000000e+00    0,000000000e+00    0,000000000e+00    0,000000000e+00
      268000000   -2,401729859e-02    2,952336147e-02   -1,765778661e-01   -7,651373744e-01    0,000000000e+00    0,000000000e+00    0,000000000e+00    0,000000000e+00
      282000000    4,106305074e-03    1,200927515e-02   -5,628002286e-01   -5,376316309e-01    0,000000000e+00    0,000000000e+00    0,000000000e+00    0,000000000e+00
      296000000    9,448083118e-03   -7,655013353e-03   -7,609211802e-01   -1,397615224e-01    0,000000000e+00    0,000000000e+00    0,000000000e+00    0,000000000e+00
      310000000    1,089469902e-02   -1,591066457e-02   -7,138750553e-01    2,984550893e-01    0,000000000e+00    0,000000000e+00    0,000000000e+00    0,000000000e+00
      324000000    1,936057769e-02   -2,654163353e-02   -4,287627041e-01    6,378205419e-01    0,000000000e+00    0,000000000e+00    0,000000000e+00    0,000000000e+00
      338000000    2,552889846e-02   -5,220603570e-02   -1,072645932e-02    7,642682195e-01    0,000000000e+00    0,000000000e+00    0,000000000e+00    0,000000000e+00
      352000000    7,601084653e-03   -8,479138464e-02    4,058081210e-01    6,406462193e-01    0,000000000e+00    0,000000000e+00    0,000000000e+00    0,000000000e+00
      366000000   -3,472605348e-02   -9,600266069e-02    6,899091601e-01    3,128752410e-01    0,000000000e+00    0,000000000e+00    0,000000000e+00    0,000000000e+00
      380000000   -7,151229680e-02   -7,122499496e-02    7,478730083e-01   -1,245152727e-01    0,000000000e+00    0,000000000e+00    0,000000000e+00    0,000000000e+00
      394000000   -7,314587384e-02   -3,213078156e-02    5,473893285e-01   -5,215764046e-01    0,000000000e+00    0,000000000e+00    0,000000000e+00    0,000000000e+00
      408000000   -4,704121128e-02   -1,587031595e-02    1,632861048e-01   -7,336985469e-01    0,000000000e+00    0,000000000e+00    0,000000000e+00    0,000000000e+00
      422000000   -2,820233069e-02   -3,166304156e-02   -2,661005557e-01   -6,968317032e-01    0,000000000e+00    0,000000000e+00    0,000000000e+00    0,000000000e+00
      436000000   -4,001145810e-02   -5,197371915e-02   -6,027139425e-01   -4,336938858e-01    0,000000000e+00    0,000000000e+00    0,000000000e+00    0,000000000e+00
      450000000   -6,742235273e-02   -4,498293251e-02   -7,400856614e-01   -2,515451983e-02    0,000000000e+00    0,000000000e+00    0,000000000e+00    0,000000000e+00
      464000000   -7,442754507e-02   -1,249661297e-02   -6,216994524e-01    3,946772218e-01    0,000000000e+00    0,000000000e+00    0,000000000e+00    0,000000000e+00
      478000000   -4,929786175e-02    1,198662631e-02   -2,868238986e-01    6,674774289e-01    0,000000000e+00    0,000000000e+00    0,000000000e+00    0,000000000e+00
      492000000   -1,689692028e-02    6,422721781e-03    1,339788437e-01    7,040604353e-01    0,000000000e+00    0,000000000e+00    0,000000000e+00    0,000000000e+00
      506000000   -3,869010368e-03   -1,481975056e-02    4,976522028e-01    5,065197945e-01    0,000000000e+00    0,000000000e+00    0,000000000e+00    0,000000000e+00
      520000000   -5,977287889e-03   -2,967861667e-02    6,885129213e-01    1,432953179e-01    0,000000000e+00    0,000000000e+00    0,000000000e+00    0,000000000e+00
      534000000   -3,486134112e-03   -3,632543236e-02    6,444418430e-01   -2,599774301e-01    0,000000000e+00    0,000000000e+00    0,000000000e+00    0,000000000e+00
      548000000    8,341285400e-03   -5,293692276e-02    3,851323128e-01   -5,637971163e-01    0,000000000e+00    0,000000000e+00    0,000000000e+00    0,000000000e+00
      562000000    5,624765530e-03   -8,962167054e-02    8,004584350e-03   -6,725208759e-01    0,000000000e+00    0,000000000e+00    0,000000000e+00    0,000000000e+00
      576000000   -3,116320632e-02   -1,260476857e-01   -3,619744778e-01   -5,603650212e-01    0,000000000e+00    0,000000000e+00    0,000000000e+00    0,000000000e+00
      590000000   -9,504906088e-02   -1,275629699e-01   -6,151698828e-01   -2,724218965e-01    0,000000000e+00    0,000000000e+00    0,000000000e+00    0,000000000e+00
      604000000   -1,428809762e-01   -7,773782313e-02   -6,670612097e-01    1,262665242e-01    0,000000000e+00    0,000000000e+00    0,000000000e+00    0,000000000e+00
      618000000   -1,377698630e-01   -1,101810019e-02   -4,752786458e-01    4,860247374e-01    0,000000000e+00    0,000000000e+00    0,000000000e+00    0,000000000e+00
      632000000   -9,344655275e-02    2,139589936e-02   -1,144248918e-01    6,636182070e-01    0,000000000e+00    0,000000000e+00    0,000000000e+00    0,000000000e+00
      646000000   -5,497610942e-02    1,151432376e-02    2,739177346e-01    6,034996510e-01    0,000000000e+00    0,000000000e+00    0,000000000e+00    0,000000000e+00
      660000000   -4,837534204e-02   -8,250311948e-03    5,570726395e-01    3,400235772e-01    0,000000000e+00    0,000000000e+00    0,000000000e+00    0,000000000e+00
      674000000   -5,625052005e-02   -1,086737029e-02    6,442167759e-01   -3,946773335e-02    0,000000000e+00    0,000000000e+00    0,000000000e+00    0,000000000e+00
      688000000   -5,036113039e-02    3,726459574e-03    4,934319258e-01   -4,015583992e-01    0,000000000e+00    0,000000000e+00    0,000000000e+00    0,000000000e+00
      702000000   -2,519827895e-02    7,339853793e-03    1,586477011e-01   -6,069589257e-01    0,000000000e+00    0,000000000e+00    0,000000000e+00    0,000000000e+00
      716000000   -2,735382877e-03   -8,916046470e-03   -2,186614573e-01   -5,749253631e-01    0,000000000e+00    0,000000000e+00    0,000000000e+00    0,000000000e+00
      730000000    1,023383159e-02   -3,411312774e-02   -5,091450214e-01   -3,335257173e-01    0,000000000e+00    0,000000000e+00    0,000000000e+00    0,000000000e+00
      744000000    1,634824835e-02   -6,147706509e-02   -6,006729007e-01    3,315186501e-02    0,000000000e+00    0,000000000e+00    0,000000000e+00    0,000000000e+00
      758000000    2,220236696e-02   -1,039778143e-01   -4,547296166e-01    3,772269785e-01    0,000000000e+00    0,000000000e+00    0,000000000e+00    0,000000000e+00
      772000000   -4,278978799e-03   -1,740446985e-01   -1,396453083e-01    5,581801534e-01    0,000000000e+00    0,000000000e+00    0,000000000e+00    0,000000000e+00
      786000000   -1,054308042e-01   -2,329140455e-01    2,119255960e-01    5,201656818e-01    0,000000000e+00    0,000000000e+00    0,000000000e+00    0,000000000e+00
      800000000   -2,663327456e-01   -1,923533380e-01    4,715151191e-01    2,749017477e-01    0,000000000e+00    0,000000000e+00    0,000000000e+00    0,000000000e+00
      814000000   -3,647819459e-01    3,258602694e-03    5,081796646e-01   -8,896785229e-02    0,000000000e+00    0,000000000e+00    0,000000000e+00    0,000000000e+00
      828000000   -2,466237247e-01    2,337128073e-01    2,817505598e-01   -3,521059752e-01    0,000000000e+00    0,000000000e+00    0,000000000e+00    0,000000000e+00
      842000000    1,314438041e-02    2,776599824e-01   -1,592941210e-02   -3,626512885e-01    0,000000000e+00    0,000000000e+00    0,000000000e+00    0,000000000e+00
      856000000    2,124338150e-01    1,157532781e-01   -1,885414273e-01   -2,050800622e-01    0,000000000e+00    0,000000000e+00    0,000000000e+00    0,000000000e+00
      870000000    2,387147695e-01   -1,487296224e-01   -2,004393041e-01   -2,660476975e-02    0,000000000e+00    0,000000000e+00    0,000000000e+00    0,000000000e+00
      884000000    3,746440262e-02   -3,867327273e-01   -1,036945358e-01    7,069471478e-02    0,000000000e+00    0,000000000e+00    0,000000000e+00    0,000000000e+00
      898000000   -3,695800602e-01   -3,420439661e-01   -1,678111404e-02    2,794141136e-02    0,000000000e+00    0,000000000e+00    0,000000000e+00    0,000000000e+00
      912000000   -4,677923024e-01    1,382166296e-01   -1,071733758e-01    3,547344357e-02    0,000000000e+00    0,000000000e+00    0,000000000e+00    0,000000000e+00
      926000000   -9,414535016e-02    3,520660102e-01   -1,275418401e-01    1,351213455e-01    0,000000000e+00    0,000000000e+00    0,000000000e+00    0,000000000e+00
      940000000    1,845354438e-01    1,957477629e-01   -3,857892007e-02    2,154293954e-01    0,000000000e+00    0,000000000e+00    0,000000000e+00    0,000000000e+00
      954000000    2,563283443e-01   -4,925049096e-02    7,937250286e-02    2,278679013e-01    0,000000000e+00    0,000000000e+00    0,000000000e+00    0,000000000e+00
      968000000    1,751587540e-01   -2,601853609e-01    1,911482364e-01    1,804535836e-01    0,000000000e+00    0,000000000e+00    0,000000000e+00    0,000000000e+00
      982000000   -1,865857281e-02   -3,925364316e-01    2,815234661e-01    7,829370350e-02    0,000000000e+00    0,000000000e+00    0,000000000e+00    0,000000000e+00
      996000000   -2,777141929e-01   -3,788411319e-01    3,088881969e-01   -7,943215221e-02    0,000000000e+00    0,000000000e+00    0,000000000e+00    0,000000000e+00
     1010000000   -4,693935513e-01   -1,686265171e-01    2,217348814e-01   -2,537487447e-01    0,000000000e+00    0,000000000e+00    0,000000000e+00    0,000000000e+00
     1024000000   -4,600161910e-01    1,128294095e-01    2,126259543e-02   -3,279032111e-01    0,000000000e+00    0,000000000e+00    0,000000000e+00    0,000000000e+00
     1038000000   -2,603679001e-01    2,987747192e-01   -1,737380773e-01   -2,483043075e-01    0,000000000e+00    0,000000000e+00    0,000000000e+00    0,000000000e+00
     1052000000   -3,488436714e-02    3,100289702e-01   -2,564928234e-01   -7,723596692e-02    0,000000000e+00    0,000000000e+00    0,000000000e+00    0,000000000e+00
     1066000000    1,265219301e-01    2,024526000e-01   -2,225285769e-01    8,465360850e-02    0,000000000e+00    0,000000000e+00    0,000000000e+00    0,000000000e+00
     1080000000    2,100957632e-01    4,443378374e-02   -1,192293093e-01    1,929117143e-01    0,000000000e+00    0,000000000e+00    0,000000000e+00    0,000000000e+00
     1094000000    1,993569881e-01   -1,289622188e-01    1,882120594e-02    2,350269109e-01    0,000000000e+00    0,000000000e+00    0,000000000e+00    0,000000000e+00
     1108000000    1,006839499e-01   -2,849090695e-01    1,683699191e-01    2,057110369e-01    0,000000000e+00    0,000000000e+00    0,000000000e+00    0,000000000e+00
     1122000000   -1,031677127e-01   -3,668888807e-01    3,173160553e-01    8,720391244e-02    0,000000000e+00    0,000000000e+00    0,000000000e+00    0,000000000e+00
     1136000000   -3,426789045e-01   -2,671236098e-01    3,886721730e-01   -1,489594877e-01    0,000000000e+00    0,000000000e+00    0,000000000e+00    0,000000000e+00
     1150000000   -4,112082720e-01    3,378474712e-02    2,433980107e-01   -4,384979010e-01    0,000000000e+00    0,000000000e+00    0,000000000e+00    0,000000000e+00
     1164000000   -1,630754620e-01    2,229164541e-01   -9,555733949e-02   -5,143533945e-01    0,000000000e+00    0,000000000e+00    0,000000000e+00    0,000000000e+00
     1178000000    7,977559417e-02    8,564669639e-02   -3,575259149e-01   -3,476037681e-01    0,000000000e+00    0,000000000e+00    0,000000000e+00    0,000000000e+00
     1192000000    7,320079952e-02   -1,723268926e-01   -4,534201324e-01   -8,122336864e-02    0,000000000e+00    0,000000000e+00    0,000000000e+00    0,000000000e+00
     1206000000   -1,600664854e-01   -3,269379437e-01   -3,683052361e-01    1,834851205e-01    0,000000000e+00    0,000000000e+00    0,000000000e+00    0,000000000e+00
     1220000000   -4,509308934e-01   -1,772375554e-01   -1,070381626e-01    3,321363330e-01    0,000000000e+00    0,000000000e+00    0,000000000e+00    0,000000000e+00
     1234000000   -4,715681970e-01    1,697459370e-01    1,407919973e-01    2,274017930e-01    0,000000000e+00    0,000000000e+00    0,000000000e+00    0,000000000e+00
     1248000000   -2,373932302e-01    3,484548926e-01    1,920946538e-01    3,384086117e-02    0,000000000e+00    0,000000000e+00    0,000000000e+00    0,000000000e+00
     1262000000    1,200709492e-02    3,305508494e-01    1,327544302e-01   -7,288412005e-02    0,000000000e+00    0,000000000e+00    0,000000000e+00    0,000000000e+00
     1276000000    1,583083421e-01    2,021344900e-01    4,940066487e-02   -9,592393041e-02    0,000000000e+00    0,000000000e+00    0,000000000e+00    0,000000000e+00
     1290000000    2,177819759e-01    3,690171242e-02   -1,381407841e-03   -7,286284119e-02    0,000000000e+00    0,000000000e+00    0,000000000e+00    0,000000000e+00
     1304000000    2,067291439e-01   -1,461432129e-01   -2,047734708e-02   -3,022626042e-02    0,000000000e+00    0,000000000e+00    0,000000000e+00    0,000000000e+00
     1318000000    1,168389842e-01   -3,130116165e-01   -4,198934883e-03    2,051017247e-02    0,000000000e+00    0,000000000e+00    0,000000000e+00    0,000000000e+00
     1332000000   -6,548105925e-02   -4,345901012e-01    4,352424294e-02    5,757271871e-02    0,000000000e+00    0,000000000e+00    0,000000000e+00    0,000000000e+00
     1346000000   -3,271407783e-01   -4,369596243e-01    1,520290226e-01    4,817156494e-02    0,000000000e+00    0,000000000e+00    0,000000000e+00    0,000000000e+00
     1360000000   -5,516306162e-01   -2,440113276e-01    1,231459603e-01   -6,957092881e-02    0,000000000e+00    0,000000000e+00    0,000000000e+00    0,000000000e+00
     1374000000   -6,207059026e-01    3,572201729e-02    1,098457426e-01    6,318923086e-02    0,000000000e+00    0,000000000e+00    0,000000000e+00    0,000000000e+00
     1388000000   -5,200192928e-01    2,917110622e-01    2,161841393e-01   -2,961042803e-03    0,000000000e+00    0,000000000e+00    0,000000000e+00    0,000000000e+00
     1402000000   -3,014476001e-01    4,143188000e-01    2,319732010e-01   -8,937726915e-02    0,000000000e+00    0,000000000e+00    0,000000000e+00    0,000000000e+00
     1416000000   -9,265059978e-02    4,156372547e-01    2,032960802e-01   -1,194923595e-01    0,000000000e+00    0,000000000e+00    0,000000000e+00    0,000000000e+00
     1430000000    6,875494123e-02    3,406992853e-01    1,750034094e-01   -9,539630264e-02    0,000000000e+00    0,000000000e+00    0,000000000e+00    0,000000000e+00
     1444000000    1,734525710e-01    2,051659077e-01    1,408857107e-01   -8,704269677e-02    0,000000000e+00    0,000000000e+00    0,000000000e+00    0,000000000e+00
     1458000000    2,252891958e-01    3,550116345e-02    1,513880193e-01   -7,653605193e-02    0,000000000e+00    0,000000000e+00    0,000000000e+00    0,000000000e+00
     1472000000    2,051549703e-01   -1,454473585e-01    1,524447650e-01   -4,597024620e-02    0,000000000e+00    0,000000000e+00    0,000000000e+00    0,000000000e+00
     1486000000    1,048517600e-01   -3,233037293e-01    1,809492707e-01   -7,029542699e-03    0,000000000e+00    0,000000000e+00    0,000000000e+00    0,000000000e+00
     1500000000   -9,780810028e-02   -4,475040138e-01    2,065828443e-01    6,682845950e-02    0,000000000e+00    0,000000000e+00    0,000000000e+00    0,000000000e+00
