! NanoVNA-App
! Date: 2025-09-25 14:26:16
! Start: 100MHz Stop: 1,5GHz Points: 101
! S-Parameter data: F S11 S21 S12 S22
# Hz S RI R 50
!     Frequency           S11_Real           S11_Imag           S21_Real           S21_Imag           S12_Real           S12_Imag           S22_Real           S22_Imag
      100000000   -2,909887210e-02   -4,124486819e-03    3,744865060e-01   -7,220872641e-01    0,000000000e+00    0,000000000e+00    0,000000000e+00    0,000000000e+00
      114000000   -1,664831303e-02    1,161752362e-02   -8,890435845e-02   -8,059131503e-01    0,000000000e+00    0,000000000e+00    0,000000000e+00    0,000000000e+00
      128000000    3,488785122e-03    1,053345762e-02   -5,145724416e-01   -6,211074591e-01    0,000000000e+00    0,000000000e+00    0,000000000e+00    0,000000000e+00
      142000000    1,443505101e-02   -3,084036056e-03   -7,673627138e-01   -2,370839715e-01    0,000000000e+00    0,000000000e+00    0,000000000e+00    0,000000000e+00
      156000000    1,544364821e-02   -1,468052622e-02   -7,730344534e-01    2,231418639e-01    0,000000000e+00    0,000000000e+00    0,000000000e+00    0,000000000e+00
      170000000    1,653654315e-02   -2,251304686e-02   -5,189241171e-01    6,051497459e-01    0,000000000e+00    0,000000000e+00    0,000000000e+00    0,000000000e+00
      184000000    2,096058801e-02   -3,699072078e-02   -1,021169201e-01    7,869537473e-01    0,000000000e+00    0,000000000e+00    0,000000000e+00    0,000000000e+00
      198000000    1,309510879e-02   -6,261400133e-02    3,429819047e-01    7,130068541e-01    0,000000000e+00    0,000000000e+00    0,000000000e+00    0,000000000e+00
      212000000   -1,874656044e-02   -8,169056475e-02    6,783648729e-01    4,105834067e-01    0,000000000e+00    0,000000000e+00    0,000000000e+00    0,000000000e+00
      226000000   -6,210442260e-02   -6,971029192e-02    7,961068153e-01   -2,975673042e-02    0,000000000e+00    0,000000000e+00    0,000000000e+00    0,000000000e+00
      240000000   -8,326043934e-02   -2,604577690e-02    6,468496919e-01   -4,664595425e-01    0,000000000e+00    0,000000000e+00    0,000000000e+00    0,000000000e+00
      254000000   -6,434851885e-02    1,747041568e-02    2,774640918e-01   -7,433648705e-01    0,000000000e+00    0,000000000e+00    0,000000000e+00    0,000000000e+00
      268000000   -2,399009094e-02    2,949082293e-02   -1,765713990e-01   -7,652781606e-01    0,000000000e+00    0,000000000e+00    0,000000000e+00    0,000000000e+00
      282000000    4,101476632e-03    1,215867884e-02   -5,625924468e-01   -5,374263525e-01    0,000000000e+00    0,000000000e+00    0,000000000e+00    0,000000000e+00
      296000000    9,555387311e-03   -7,779713254e-03   -7,606856823e-01   -1,394063234e-01    0,000000000e+00    0,000000000e+00    0,000000000e+00    0,000000000e+00
      310000000    1,078771427e-02   -1,616678201e-02   -7,136935592e-01    2,983146310e-01    0,000000000e+00    0,000000000e+00    0,000000000e+00    0,000000000e+00
      324000000    1,945010386e-02   -2,651880309e-02   -4,281731248e-01    6,379808187e-01    0,000000000e+00    0,000000000e+00    0,000000000e+00    0,000000000e+00
      338000000    2,569665387e-02   -5,183852836e-02   -1,045535784e-02    7,601514459e-01    0,000000000e+00    0,000000000e+00    0,000000000e+00    0,000000000e+00
      352000000    7,351615932e-03   -8,475152403e-02    4,056718647e-01    6,408341527e-01    0,000000000e+00    0,000000000e+00    0,000000000e+00    0,000000000e+00
      366000000   -3,463846073e-02   -9,600031376e-02    6,901994348e-01    3,124278784e-01    0,000000000e+00    0,000000000e+00    0,000000000e+00    0,000000000e+00
      380000000   -7,125058770e-02   -7,138738036e-02    7,488837242e-01   -1,253787726e-01    0,000000000e+00    0,000000000e+00    0,000000000e+00    0,000000000e+00
      394000000   -7,302217185e-02   -3,231288865e-02    5,489540696e-01   -5,207152367e-01    0,000000000e+00    0,000000000e+00    0,000000000e+00    0,000000000e+00
      408000000   -4,706274346e-02   -1,551924832e-02    1,637520939e-01   -7,333535552e-01    0,000000000e+00    0,000000000e+00    0,000000000e+00    0,000000000e+00
      422000000   -2,834190056e-02   -3,162810206e-02   -2,660860419e-01   -6,953518987e-01    0,000000000e+00    0,000000000e+00    0,000000000e+00    0,000000000e+00
      436000000   -4,007489979e-02   -5,160492659e-02   -6,024253368e-01   -4,332744777e-01    0,000000000e+00    0,000000000e+00    0,000000000e+00    0,000000000e+00
      450000000   -6,755435467e-02   -4,483558610e-02   -7,401257753e-01   -2,551128902e-02    0,000000000e+00    0,000000000e+00    0,000000000e+00    0,000000000e+00
      464000000   -7,430810481e-02   -1,255939901e-02   -6,215037704e-01    3,947305381e-01    0,000000000e+00    0,000000000e+00    0,000000000e+00    0,000000000e+00
      478000000   -4,892151430e-02    1,171763521e-02   -2,858445942e-01    6,678690910e-01    0,000000000e+00    0,000000000e+00    0,000000000e+00    0,000000000e+00
      492000000   -1,663845032e-02    6,547342055e-03    1,348185688e-01    7,042881250e-01    0,000000000e+00    0,000000000e+00    0,000000000e+00    0,000000000e+00
      506000000   -3,548114793e-03   -1,492247358e-02    4,974813759e-01    5,064968467e-01    0,000000000e+00    0,000000000e+00    0,000000000e+00    0,000000000e+00
      520000000   -5,664884578e-03   -3,018712625e-02    6,910172701e-01    1,443777233e-01    0,000000000e+00    0,000000000e+00    0,000000000e+00    0,000000000e+00
      534000000   -3,479334759e-03   -3,541966528e-02    6,449976563e-01   -2,592130005e-01    0,000000000e+00    0,000000000e+00    0,000000000e+00    0,000000000e+00
      548000000    8,164229803e-03   -5,267732218e-02    3,851604164e-01   -5,643587708e-01    0,000000000e+00    0,000000000e+00    0,000000000e+00    0,000000000e+00
      562000000    6,122688763e-03   -8,957623690e-02    8,203936741e-03   -6,718577147e-01    0,000000000e+00    0,000000000e+00    0,000000000e+00    0,000000000e+00
      576000000   -3,115822002e-02   -1,261348724e-01   -3,627595007e-01   -5,614548326e-01    0,000000000e+00    0,000000000e+00    0,000000000e+00    0,000000000e+00
      590000000   -9,486608207e-02   -1,276746392e-01   -6,169025302e-01   -2,746706009e-01    0,000000000e+00    0,000000000e+00    0,000000000e+00    0,000000000e+00
      604000000   -1,431367993e-01   -7,809225470e-02   -6,668770909e-01    1,258519441e-01    0,000000000e+00    0,000000000e+00    0,000000000e+00    0,000000000e+00
      618000000   -1,376738548e-01   -1,154860668e-02   -4,759816527e-01    4,854520857e-01    0,000000000e+00    0,000000000e+00    0,000000000e+00    0,000000000e+00
      632000000   -9,275014699e-02    2,207584679e-02   -1,134407967e-01    6,628454924e-01    0,000000000e+00    0,000000000e+00    0,000000000e+00    0,000000000e+00
      646000000   -5,532515049e-02    1,240456477e-02    2,747062147e-01    6,041445136e-01    0,000000000e+00    0,000000000e+00    0,000000000e+00    0,000000000e+00
      660000000   -4,869475961e-02   -8,999226615e-03    5,571679473e-01    3,403526545e-01    0,000000000e+00    0,000000000e+00    0,000000000e+00    0,000000000e+00
      674000000   -5,530132353e-02   -1,074028108e-02    6,445491314e-01   -3,974708170e-02    0,000000000e+00    0,000000000e+00    0,000000000e+00    0,000000000e+00
      688000000   -5,068690330e-02    2,916365163e-03    4,925893247e-01   -4,021114111e-01    0,000000000e+00    0,000000000e+00    0,000000000e+00    0,000000000e+00
      702000000   -2,566465735e-02    7,709704805e-03    1,607747525e-01   -6,044794917e-01    0,000000000e+00    0,000000000e+00    0,000000000e+00    0,000000000e+00
      716000000   -2,842277521e-03   -8,801129647e-03   -2,192029208e-01   -5,762923956e-01    0,000000000e+00    0,000000000e+00    0,000000000e+00    0,000000000e+00
      730000000    9,039784782e-03   -3,481465951e-02   -5,093939304e-01   -3,334836364e-01    0,000000000e+00    0,000000000e+00    0,000000000e+00    0,000000000e+00
      744000000    1,649631374e-02   -6,135692075e-02   -6,009364724e-01    3,295229375e-02    0,000000000e+00    0,000000000e+00    0,000000000e+00    0,000000000e+00
      758000000    2,241506614e-02   -1,039591432e-01   -4,544863999e-01    3,772392869e-01    0,000000000e+00    0,000000000e+00    0,000000000e+00    0,000000000e+00
      772000000   -5,278700963e-03   -1,738414317e-01   -1,397890598e-01    5,576825738e-01    0,000000000e+00    0,000000000e+00    0,000000000e+00    0,000000000e+00
      786000000   -1,055784300e-01   -2,326448709e-01    2,129726261e-01    5,193313956e-01    0,000000000e+00    0,000000000e+00    0,000000000e+00    0,000000000e+00
      800000000   -2,657608986e-01   -1,921134740e-01    4,716131985e-01    2,757323682e-01    0,000000000e+00    0,000000000e+00    0,000000000e+00    0,000000000e+00
      814000000   -3,649192750e-01    3,971966915e-03    5,080323219e-01   -8,827527612e-02    0,000000000e+00    0,000000000e+00    0,000000000e+00    0,000000000e+00
      828000000   -2,475667298e-01    2,329076678e-01    2,817684710e-01   -3,530131280e-01    0,000000000e+00    0,000000000e+00    0,000000000e+00    0,000000000e+00
      842000000    1,268995740e-02    2,778536081e-01   -1,610224135e-02   -3,635610342e-01    0,000000000e+00    0,000000000e+00    0,000000000e+00    0,000000000e+00
      856000000    2,130274177e-01    1,152273342e-01   -1,878178269e-01   -2,052005976e-01    0,000000000e+00    0,000000000e+00    0,000000000e+00    0,000000000e+00
      870000000    2,390360534e-01   -1,485910565e-01   -2,002521157e-01   -2,600135468e-02    0,000000000e+00    0,000000000e+00    0,000000000e+00    0,000000000e+00
      884000000    3,781816363e-02   -3,870590627e-01   -1,042780653e-01    7,121179998e-02    0,000000000e+00    0,000000000e+00    0,000000000e+00    0,000000000e+00
      898000000   -3,698011935e-01   -3,416083753e-01   -1,741005667e-02    2,763559669e-02    0,000000000e+00    0,000000000e+00    0,000000000e+00    0,000000000e+00
      912000000   -4,663116336e-01    1,387075782e-01   -1,253103018e-01    3,560293093e-02    0,000000000e+00    0,000000000e+00    0,000000000e+00    0,000000000e+00
      926000000   -9,681563824e-02    3,503356576e-01   -1,292603016e-01    1,340770572e-01    0,000000000e+00    0,000000000e+00    0,000000000e+00    0,000000000e+00
      940000000    1,835565269e-01    1,926867664e-01   -3,825693950e-02    2,162206322e-01    0,000000000e+00    0,000000000e+00    0,000000000e+00    0,000000000e+00
      954000000    2,528374791e-01   -4,598360881e-02    8,044105023e-02    2,286309600e-01    0,000000000e+00    0,000000000e+00    0,000000000e+00    0,000000000e+00
      968000000    1,732505113e-01   -2,632953823e-01    1,923593879e-01    1,799755096e-01    0,000000000e+00    0,000000000e+00    0,000000000e+00    0,000000000e+00
      982000000   -1,564264670e-02   -3,929288983e-01    2,799905241e-01    8,020208776e-02    0,000000000e+00    0,000000000e+00    0,000000000e+00    0,000000000e+00
      996000000   -2,740318179e-01   -3,800675571e-01    3,094416857e-01   -7,936280221e-02    0,000000000e+00    0,000000000e+00    0,000000000e+00    0,000000000e+00
     1010000000   -4,656309485e-01   -1,724430621e-01    2,229649574e-01   -2,517409623e-01    0,000000000e+00    0,000000000e+00    0,000000000e+00    0,000000000e+00
     1024000000   -4,559886456e-01    1,155830473e-01    2,304297499e-02   -3,293758035e-01    0,000000000e+00    0,000000000e+00    0,000000000e+00    0,000000000e+00
     1038000000   -2,630261779e-01    3,019232154e-01   -1,732384413e-01   -2,479792535e-01    0,000000000e+00    0,000000000e+00    0,000000000e+00    0,000000000e+00
     1052000000   -3,889529780e-02    3,064291477e-01   -2,580077946e-01   -7,572683692e-02    0,000000000e+00    0,000000000e+00    0,000000000e+00    0,000000000e+00
     1066000000    1,250554472e-01    2,070353478e-01   -2,259196788e-01    8,531156182e-02    0,000000000e+00    0,000000000e+00    0,000000000e+00    0,000000000e+00
     1080000000    2,069147825e-01    4,668547213e-02   -1,209433079e-01    1,945608705e-01    0,000000000e+00    0,000000000e+00    0,000000000e+00    0,000000000e+00
     1094000000    2,008655816e-01   -1,262185872e-01    1,719264872e-02    2,342791110e-01    0,000000000e+00    0,000000000e+00    0,000000000e+00    0,000000000e+00
     1108000000    1,048116386e-01   -2,876822054e-01    1,668535620e-01    2,064019889e-01    0,000000000e+00    0,000000000e+00    0,000000000e+00    0,000000000e+00
     1122000000   -1,023895368e-01   -3,710798323e-01    3,185007870e-01    8,948886395e-02    0,000000000e+00    0,000000000e+00    0,000000000e+00    0,000000000e+00
     1136000000   -3,480771184e-01   -2,636814713e-01    3,926552832e-01   -1,495935917e-01    0,000000000e+00    0,000000000e+00    0,000000000e+00    0,000000000e+00
     1150000000   -4,083256125e-01    4,279751703e-02    2,434553802e-01   -4,346986413e-01    0,000000000e+00    0,000000000e+00    0,000000000e+00    0,000000000e+00
     1164000000   -1,623725593e-01    2,182612717e-01   -9,656944871e-02   -5,123092532e-01    0,000000000e+00    0,000000000e+00    0,000000000e+00    0,000000000e+00
     1178000000    7,418125868e-02    8,491993695e-02   -3,585621119e-01   -3,483011127e-01    0,000000000e+00    0,000000000e+00    0,000000000e+00    0,000000000e+00
     1192000000    7,628550380e-02   -1,708537340e-01   -4,523564875e-01   -8,250961453e-02    0,000000000e+00    0,000000000e+00    0,000000000e+00    0,000000000e+00
     1206000000   -1,649220586e-01   -3,218536973e-01   -3,692654967e-01    1,931447834e-01    0,000000000e+00    0,000000000e+00    0,000000000e+00    0,000000000e+00
     1220000000   -4,587373137e-01   -1,763882488e-01   -1,103840172e-01    3,304104805e-01    0,000000000e+00    0,000000000e+00    0,000000000e+00    0,000000000e+00
     1234000000   -4,702816606e-01    1,705135852e-01    1,388692558e-01    2,237169296e-01    0,000000000e+00    0,000000000e+00    0,000000000e+00    0,000000000e+00
     1248000000   -2,337578088e-01    3,591016233e-01    1,993374676e-01    3,646058962e-02    0,000000000e+00    0,000000000e+00    0,000000000e+00    0,000000000e+00
     1262000000    3,132393816e-03    3,317105770e-01    1,261079162e-01   -7,194031775e-02    0,000000000e+00    0,000000000e+00    0,000000000e+00    0,000000000e+00
     1276000000    1,580411494e-01    1,976250112e-01    5,762243271e-02   -9,659004211e-02    0,000000000e+00    0,000000000e+00    0,000000000e+00    0,000000000e+00
     1290000000    2,189193070e-01    3,099800646e-02    9,620089550e-04   -7,199187577e-02    0,000000000e+00    0,000000000e+00    0,000000000e+00    0,000000000e+00
     1304000000    2,056386620e-01   -1,432121545e-01   -1,876459084e-02   -2,643316239e-02    0,000000000e+00    0,000000000e+00    0,000000000e+00    0,000000000e+00
     1318000000    1,158366650e-01   -3,120988607e-01   -6,499250419e-03    1,751113869e-02    0,000000000e+00    0,000000000e+00    0,000000000e+00    0,000000000e+00
     1332000000   -6,551823020e-02   -4,327002466e-01    5,048667267e-02    6,460840255e-02    0,000000000e+00    0,000000000e+00    0,000000000e+00    0,000000000e+00
     1346000000   -3,337510526e-01   -4,388486743e-01    1,462431848e-01    4,287992418e-02    0,000000000e+00    0,000000000e+00    0,000000000e+00    0,000000000e+00
     1360000000   -5,586348176e-01   -2,439267188e-01    1,039449349e-01   -7,482545078e-02    0,000000000e+00    0,000000000e+00    0,000000000e+00    0,000000000e+00
     1374000000   -6,249878407e-01    4,118328542e-02    1,174076721e-01    6,826069206e-02    0,000000000e+00    0,000000000e+00    0,000000000e+00    0,000000000e+00
     1388000000   -5,167515874e-01    2,983879149e-01    2,217317671e-01    1,115731336e-02    0,000000000e+00    0,000000000e+00    0,000000000e+00    0,000000000e+00
     1402000000   -3,112960458e-01    4,165198505e-01    2,238525301e-01   -8,244203031e-02    0,000000000e+00    0,000000000e+00    0,000000000e+00    0,000000000e+00
     1416000000   -9,458066523e-02    4,228593111e-01    1,961337626e-01   -1,119534969e-01    0,000000000e+00    0,000000000e+00    0,000000000e+00    0,000000000e+00
     1430000000    6,946074218e-02    3,383644521e-01    1,915532202e-01   -1,089340001e-01    0,000000000e+00    0,000000000e+00    0,000000000e+00    0,000000000e+00
     1444000000    1,761932820e-01    1,987908632e-01    1,529295295e-01   -1,107780784e-01    0,000000000e+00    0,000000000e+00    0,000000000e+00    0,000000000e+00
     1458000000    2,236221284e-01    3,551436216e-02    1,557180732e-01   -8,145410568e-02    0,000000000e+00    0,000000000e+00    0,000000000e+00    0,000000000e+00
     1472000000    2,062343657e-01   -1,453648210e-01    1,496493816e-01   -5,837152153e-02    0,000000000e+00    0,000000000e+00    0,000000000e+00    0,000000000e+00
     1486000000    1,038500890e-01   -3,200032413e-01    1,748845726e-01   -2,681106096e-03    0,000000000e+00    0,000000000e+00    0,000000000e+00    0,000000000e+00
     1500000000   -9,031384438e-02   -4,545498192e-01    2,264253944e-01    6,861881912e-02    0,000000000e+00    0,000000000e+00    0,000000000e+00    0,000000000e+00
