! NanoVNA-App
! Date: 2025-09-25 14:27:13
! Start: 100MHz Stop: 1,5GHz Points: 101
! S-Parameter data: F S11 S21 S12 S22
# Hz S RI R 50
!     Frequency           S11_Real           S11_Imag           S21_Real           S21_Imag           S12_Real           S12_Imag           S22_Real           S22_Imag
      100000000   -2,907846123e-02   -4,136081319e-03    3,745599687e-01   -7,219967842e-01    0,000000000e+00    0,000000000e+00    0,000000000e+00    0,000000000e+00
      114000000   -1,660024375e-02    1,160033885e-02   -8,896115422e-02   -8,058830500e-01    0,000000000e+00    0,000000000e+00    0,000000000e+00    0,000000000e+00
      128000000    3,437494161e-03    1,051751524e-02   -5,146833062e-01   -6,211606264e-01    0,000000000e+00    0,000000000e+00    0,000000000e+00    0,000000000e+00
      142000000    1,443866268e-02   -3,079567803e-03   -7,673865557e-01   -2,368465513e-01    0,000000000e+00    0,000000000e+00    0,000000000e+00    0,000000000e+00
      156000000    1,548376307e-02   -1,458630525e-02   -7,728687525e-01    2,231696099e-01    0,000000000e+00    0,000000000e+00    0,000000000e+00    0,000000000e+00
      170000000    1,654906198e-02   -2,245009318e-02   -5,189363360e-01    6,051750183e-01    0,000000000e+00    0,000000000e+00    0,000000000e+00    0,000000000e+00
      184000000    2,092356607e-02   -3,700232133e-02   -1,019222811e-01    7,864996791e-01    0,000000000e+00    0,000000000e+00    0,000000000e+00    0,000000000e+00
      198000000    1,313187741e-02   -6,256534904e-02    3,431956470e-01    7,131488919e-01    0,000000000e+00    0,000000000e+00    0,000000000e+00    0,000000000e+00
      212000000   -1,874013245e-02   -8,169140667e-02    6,783630252e-01    4,106149375e-01    0,000000000e+00    0,000000000e+00    0,000000000e+00    0,000000000e+00
      226000000   -6,210508198e-02   -6,973315030e-02    7,961005569e-01   -2,969226241e-02    0,000000000e+00    0,000000000e+00    0,000000000e+00    0,000000000e+00
      240000000   -8,332512528e-02   -2,603948675e-02    6,470059156e-01   -4,665632844e-01    0,000000000e+00    0,000000000e+00    0,000000000e+00    0,000000000e+00
      254000000   -6,435637176e-02    1,746336743e-02    2,771024108e-01   -7,432454824e-01    0,000000000e+00    0,000000000e+00    0,000000000e+00    0,000000000e+00
      268000000   -2,402473800e-02    2,944451757e-02   -1,768871546e-01   -7,648488283e-01    0,000000000e+00    0,000000000e+00    0,000000000e+00    0,000000000e+00
      282000000    4,134768620e-03    1,200138498e-02   -5,623456836e-01   -5,372458696e-01    0,000000000e+00    0,000000000e+00    0,000000000e+00    0,000000000e+00
      296000000    9,533320554e-03   -7,754684892e-03   -7,606801987e-01   -1,395772099e-01    0,000000000e+00    0,000000000e+00    0,000000000e+00    0,000000000e+00
      310000000    1,077253930e-02   -1,616259851e-02   -7,135591507e-01    2,964634001e-01    0,000000000e+00    0,000000000e+00    0,000000000e+00    0,000000000e+00
      324000000    1,945859194e-02   -2,649670467e-02   -4,283922315e-01    6,381952167e-01    0,000000000e+00    0,000000000e+00    0,000000000e+00    0,000000000e+00
      338000000    2,526670881e-02   -5,221465975e-02   -8,000861853e-03    7,620193958e-01    0,000000000e+00    0,000000000e+00    0,000000000e+00    0,000000000e+00
      352000000    7,332543842e-03   -8,489902318e-02    4,063422382e-01    6,413604021e-01    0,000000000e+00    0,000000000e+00    0,000000000e+00    0,000000000e+00
      366000000   -3,500430286e-02   -9,598845989e-02    6,906434894e-01    3,119767308e-01    0,000000000e+00    0,000000000e+00    0,000000000e+00    0,000000000e+00
      380000000   -7,178600132e-02   -7,101684809e-02    7,481172681e-01   -1,246536970e-01    0,000000000e+00    0,000000000e+00    0,000000000e+00    0,000000000e+00
      394000000   -7,318014652e-02   -3,255874291e-02    5,481026173e-01   -5,219700336e-01    0,000000000e+00    0,000000000e+00    0,000000000e+00    0,000000000e+00
      408000000   -4,701704532e-02   -1,551297959e-02    1,623958796e-01   -7,321531773e-01    0,000000000e+00    0,000000000e+00    0,000000000e+00    0,000000000e+00
      422000000   -2,822683379e-02   -3,156232461e-02   -2,656439841e-01   -6,969030499e-01    0,000000000e+00    0,000000000e+00    0,000000000e+00    0,000000000e+00
      436000000   -4,070224613e-02   -5,202855170e-02   -6,027494073e-01   -4,338216186e-01    0,000000000e+00    0,000000000e+00    0,000000000e+00    0,000000000e+00
      450000000   -6,721845269e-02   -4,475561902e-02   -7,401521802e-01   -2,521389909e-02    0,000000000e+00    0,000000000e+00    0,000000000e+00    0,000000000e+00
      464000000   -7,434382290e-02   -1,260734815e-02   -6,209025383e-01    3,945765793e-01    0,000000000e+00    0,000000000e+00    0,000000000e+00    0,000000000e+00
      478000000   -4,922774807e-02    1,183846407e-02   -2,867304981e-01    6,674852371e-01    0,000000000e+00    0,000000000e+00    0,000000000e+00    0,000000000e+00
      492000000   -1,705472171e-02    6,243874319e-03    1,340839416e-01    7,037299871e-01    0,000000000e+00    0,000000000e+00    0,000000000e+00    0,000000000e+00
      506000000   -3,615604946e-03   -1,468301564e-02    4,975620210e-01    5,062412024e-01    0,000000000e+00    0,000000000e+00    0,000000000e+00    0,000000000e+00
      520000000   -5,514499266e-03   -2,957888506e-02    6,900055408e-01    1,455446929e-01    0,000000000e+00    0,000000000e+00    0,000000000e+00    0,000000000e+00
      534000000   -3,302657977e-03   -3,610911220e-02    6,451615095e-01   -2,598427236e-01    0,000000000e+00    0,000000000e+00    0,000000000e+00    0,000000000e+00
      548000000    8,400263265e-03   -5,257005244e-02    3,855732083e-01   -5,635569692e-01    0,000000000e+00    0,000000000e+00    0,000000000e+00    0,000000000e+00
      562000000    5,884794053e-03   -8,943521231e-02    8,209973574e-03   -6,719879508e-01    0,000000000e+00    0,000000000e+00    0,000000000e+00    0,000000000e+00
      576000000   -3,133766726e-02   -1,263060421e-01   -3,614065051e-01   -5,609200597e-01    0,000000000e+00    0,000000000e+00    0,000000000e+00    0,000000000e+00
      590000000   -9,521989524e-02   -1,278071553e-01   -6,158348918e-01   -2,737220526e-01    0,000000000e+00    0,000000000e+00    0,000000000e+00    0,000000000e+00
      604000000   -1,434079707e-01   -7,770965993e-02   -6,673649549e-01    1,260502189e-01    0,000000000e+00    0,000000000e+00    0,000000000e+00    0,000000000e+00
      618000000   -1,374463588e-01   -1,116632205e-02   -4,752689898e-01    4,856226146e-01    0,000000000e+00    0,000000000e+00    0,000000000e+00    0,000000000e+00
      632000000   -9,338478744e-02    2,146550454e-02   -1,141693443e-01    6,626999974e-01    0,000000000e+00    0,000000000e+00    0,000000000e+00    0,000000000e+00
      646000000   -5,515407026e-02    1,135540474e-02    2,743538916e-01    6,026421785e-01    0,000000000e+00    0,000000000e+00    0,000000000e+00    0,000000000e+00
      660000000   -4,746771604e-02   -9,082912467e-03    5,573056340e-01    3,399413526e-01    0,000000000e+00    0,000000000e+00    0,000000000e+00    0,000000000e+00
      674000000   -5,633653328e-02   -1,091142464e-02    6,444928646e-01   -4,007399082e-02    0,000000000e+00    0,000000000e+00    0,000000000e+00    0,000000000e+00
      688000000   -5,033957586e-02    2,372249262e-03    4,929484129e-01   -4,020141065e-01    0,000000000e+00    0,000000000e+00    0,000000000e+00    0,000000000e+00
      702000000   -2,665933408e-02    7,818602957e-03    1,593576372e-01   -6,027668715e-01    0,000000000e+00    0,000000000e+00    0,000000000e+00    0,000000000e+00
      716000000   -2,724293154e-03   -9,068287909e-03   -2,188621610e-01   -5,758182406e-01    0,000000000e+00    0,000000000e+00    0,000000000e+00    0,000000000e+00
      730000000    9,844392538e-03   -3,386992216e-02   -5,098522305e-01   -3,328966200e-01    0,000000000e+00    0,000000000e+00    0,000000000e+00    0,000000000e+00
      744000000    1,600314863e-02   -6,061722338e-02   -6,009421349e-01    3,326484188e-02    0,000000000e+00    0,000000000e+00    0,000000000e+00    0,000000000e+00
      758000000    2,252393775e-02   -1,032062098e-01   -4,543748796e-01    3,769159019e-01    0,000000000e+00    0,000000000e+00    0,000000000e+00    0,000000000e+00
      772000000   -4,527269397e-03   -1,729975939e-01   -1,413465440e-01    5,581985116e-01    0,000000000e+00    0,000000000e+00    0,000000000e+00    0,000000000e+00
      786000000   -1,054843739e-01   -2,323430032e-01    2,118280530e-01    5,191871524e-01    0,000000000e+00    0,000000000e+00    0,000000000e+00    0,000000000e+00
      800000000   -2,668140233e-01   -1,925731003e-01    4,722482860e-01    2,759715915e-01    0,000000000e+00    0,000000000e+00    0,000000000e+00    0,000000000e+00
      814000000   -3,641307950e-01    4,084159620e-03    5,077922940e-01   -8,761743456e-02    0,000000000e+00    0,000000000e+00    0,000000000e+00    0,000000000e+00
      828000000   -2,485561818e-01    2,336337864e-01    2,813772559e-01   -3,524402082e-01    0,000000000e+00    0,000000000e+00    0,000000000e+00    0,000000000e+00
      842000000    1,244316250e-02    2,775086761e-01   -1,572574861e-02   -3,630343974e-01    0,000000000e+00    0,000000000e+00    0,000000000e+00    0,000000000e+00
      856000000    2,127137631e-01    1,153627485e-01   -1,870047152e-01   -2,053931803e-01    0,000000000e+00    0,000000000e+00    0,000000000e+00    0,000000000e+00
      870000000    2,389269918e-01   -1,485428065e-01   -2,004486769e-01   -2,597980388e-02    0,000000000e+00    0,000000000e+00    0,000000000e+00    0,000000000e+00
      884000000    3,818780556e-02   -3,865823150e-01   -1,039328501e-01    7,095751911e-02    0,000000000e+00    0,000000000e+00    0,000000000e+00    0,000000000e+00
      898000000   -3,698812425e-01   -3,410919607e-01   -1,786880009e-02    2,823144943e-02    0,000000000e+00    0,000000000e+00    0,000000000e+00    0,000000000e+00
      912000000   -4,677113593e-01    1,376244128e-01   -1,034181044e-01    3,136978671e-02    0,000000000e+00    0,000000000e+00    0,000000000e+00    0,000000000e+00
      926000000   -9,381581843e-02    3,519860804e-01   -1,261709332e-01    1,343883127e-01    0,000000000e+00    0,000000000e+00    0,000000000e+00    0,000000000e+00
      940000000    1,830812991e-01    1,924393177e-01   -3,986236826e-02    2,141884565e-01    0,000000000e+00    0,000000000e+00    0,000000000e+00    0,000000000e+00
      954000000    2,566883266e-01   -4,962458462e-02    8,029689640e-02    2,264027447e-01    0,000000000e+00    0,000000000e+00    0,000000000e+00    0,000000000e+00
      968000000    1,729150265e-01   -2,639930844e-01    1,905968636e-01    1,811034083e-01    0,000000000e+00    0,000000000e+00    0,000000000e+00    0,000000000e+00
      982000000   -1,668296754e-02   -3,930140138e-01    2,817954123e-01    7,956662029e-02    0,000000000e+00    0,000000000e+00    0,000000000e+00    0,000000000e+00
      996000000   -2,702016234e-01   -3,755643666e-01    3,104579151e-01   -7,970712334e-02    0,000000000e+00    0,000000000e+00    0,000000000e+00    0,000000000e+00
     1010000000   -4,669078290e-01   -1,717171520e-01    2,211911529e-01   -2,528355718e-01    0,000000000e+00    0,000000000e+00    0,000000000e+00    0,000000000e+00
     1024000000   -4,583054185e-01    1,208945140e-01    1,901327632e-02   -3,300290406e-01    0,000000000e+00    0,000000000e+00    0,000000000e+00    0,000000000e+00
     1038000000   -2,639450133e-01    2,956283689e-01   -1,741598547e-01   -2,498622686e-01    0,000000000e+00    0,000000000e+00    0,000000000e+00    0,000000000e+00
     1052000000   -4,075240716e-02    3,097579181e-01   -2,554771304e-01   -7,882606238e-02    0,000000000e+00    0,000000000e+00    0,000000000e+00    0,000000000e+00
     1066000000    1,296151578e-01    2,076299489e-01   -2,253725976e-01    8,814685047e-02    0,000000000e+00    0,000000000e+00    0,000000000e+00    0,000000000e+00
     1080000000    2,075594515e-01    5,063622817e-02   -1,216997355e-01    1,905658394e-01    0,000000000e+00    0,000000000e+00    0,000000000e+00    0,000000000e+00
     1094000000    2,041484565e-01   -1,276735216e-01    1,623269729e-02    2,347043604e-01    0,000000000e+00    0,000000000e+00    0,000000000e+00    0,000000000e+00
     1108000000    1,018098965e-01   -2,842117846e-01    1,678559184e-01    2,042637616e-01    0,000000000e+00    0,000000000e+00    0,000000000e+00    0,000000000e+00
     1122000000   -9,873759747e-02   -3,698965311e-01    3,154197037e-01    9,000886977e-02    0,000000000e+00    0,000000000e+00    0,000000000e+00    0,000000000e+00
     1136000000   -3,498337567e-01   -2,715072632e-01    3,906957507e-01   -1,491085142e-01    0,000000000e+00    0,000000000e+00    0,000000000e+00    0,000000000e+00
     1150000000   -4,068495631e-01    3,108951636e-02    2,426392585e-01   -4,386427701e-01    0,000000000e+00    0,000000000e+00    0,000000000e+00    0,000000000e+00
     1164000000   -1,636020392e-01    2,196892500e-01   -9,330252558e-02   -5,164659023e-01    0,000000000e+00    0,000000000e+00    0,000000000e+00    0,000000000e+00
     1178000000    7,731399685e-02    8,723624796e-02   -3,554454744e-01   -3,442260921e-01    0,000000000e+00    0,000000000e+00    0,000000000e+00    0,000000000e+00
     1192000000    7,190337032e-02   -1,745670885e-01   -4,569334388e-01   -8,253750205e-02    0,000000000e+00    0,000000000e+00    0,000000000e+00    0,000000000e+00
     1206000000   -1,643363684e-01   -3,278907239e-01   -3,722030222e-01    1,879713386e-01    0,000000000e+00    0,000000000e+00    0,000000000e+00    0,000000000e+00
     1220000000   -4,544067979e-01   -1,831070334e-01   -1,035222709e-01    3,241576552e-01    0,000000000e+00    0,000000000e+00    0,000000000e+00    0,000000000e+00
     1234000000   -4,705130756e-01    1,635047197e-01    1,370700747e-01    2,173136920e-01    0,000000000e+00    0,000000000e+00    0,000000000e+00    0,000000000e+00
     1248000000   -2,340188175e-01    3,545357287e-01    1,919703186e-01    3,454190120e-02    0,000000000e+00    0,000000000e+00    0,000000000e+00    0,000000000e+00
     1262000000    5,604673643e-03    3,242209256e-01    1,318805665e-01   -7,233010978e-02    0,000000000e+00    0,000000000e+00    0,000000000e+00    0,000000000e+00
     1276000000    1,526288986e-01    2,020428479e-01    4,941235110e-02   -9,502067417e-02    0,000000000e+00    0,000000000e+00    0,000000000e+00    0,000000000e+00
     1290000000    2,222362161e-01    3,211796656e-02    5,636581685e-03   -7,478561252e-02    0,000000000e+00    0,000000000e+00    0,000000000e+00    0,000000000e+00
     1304000000    2,081655711e-01   -1,431614012e-01   -2,135954611e-02   -2,888990194e-02    0,000000000e+00    0,000000000e+00    0,000000000e+00    0,000000000e+00
     1318000000    1,158278957e-01   -3,158335686e-01   -8,746526204e-03    2,108421549e-02    0,000000000e+00    0,000000000e+00    0,000000000e+00    0,000000000e+00
     1332000000   -6,367018074e-02   -4,292699695e-01    5,369963497e-02    7,188738137e-02    0,000000000e+00    0,000000000e+00    0,000000000e+00    0,000000000e+00
     1346000000   -3,273317516e-01   -4,291387796e-01    1,454076618e-01    4,540804774e-02    0,000000000e+00    0,000000000e+00    0,000000000e+00    0,000000000e+00
     1360000000   -5,503467321e-01   -2,504207194e-01    1,221111193e-01   -7,698069513e-02    0,000000000e+00    0,000000000e+00    0,000000000e+00    0,000000000e+00
     1374000000   -6,250984073e-01    2,868358046e-02    9,704688936e-02    5,022136867e-02    0,000000000e+00    0,000000000e+00    0,000000000e+00    0,000000000e+00
     1388000000   -5,137636065e-01    2,836071253e-01    2,272787243e-01   -3,239104059e-03    0,000000000e+00    0,000000000e+00    0,000000000e+00    0,000000000e+00
     1402000000   -3,021616936e-01    4,187849462e-01    2,315692753e-01   -8,263714612e-02    0,000000000e+00    0,000000000e+00    0,000000000e+00    0,000000000e+00
     1416000000   -8,582200855e-02    4,181130826e-01    1,975279152e-01   -1,147241220e-01    0,000000000e+00    0,000000000e+00    0,000000000e+00    0,000000000e+00
     1430000000    7,835324109e-02    3,382565379e-01    1,999678910e-01   -1,328924596e-01    0,000000000e+00    0,000000000e+00    0,000000000e+00    0,000000000e+00
     1444000000    1,736137718e-01    2,006780952e-01    1,450724900e-01   -1,008002311e-01    0,000000000e+00    0,000000000e+00    0,000000000e+00    0,000000000e+00
     1458000000    2,260987461e-01    3,544032574e-02    1,489640027e-01   -9,100034088e-02    0,000000000e+00    0,000000000e+00    0,000000000e+00    0,000000000e+00
     1472000000    2,070908695e-01   -1,422042102e-01    1,532001495e-01   -4,657258466e-02    0,000000000e+00    0,000000000e+00    0,000000000e+00    0,000000000e+00
     1486000000    1,091011837e-01   -3,268169761e-01    1,597923636e-01   -2,390870592e-03    0,000000000e+00    0,000000000e+00    0,000000000e+00    0,000000000e+00
     1500000000   -9,604191780e-02   -4,571319520e-01    2,022546828e-01    4,657187685e-02    0,000000000e+00    0,000000000e+00    0,000000000e+00    0,000000000e+00
