! NanoVNA-App
! Date: 2025-09-25 14:21:34
! Start: 100MHz Stop: 1,5GHz Points: 101
! S-Parameter data: F S11 S21 S12 S22
# Hz S RI R 50
!     Frequency           S11_Real           S11_Imag           S21_Real           S21_Imag           S12_Real           S12_Imag           S22_Real           S22_Imag
      100000000   -2,909671515e-02   -4,138719756e-03    3,744015992e-01   -7,220174074e-01    0,000000000e+00    0,000000000e+00    0,000000000e+00    0,000000000e+00
      114000000   -1,662508771e-02    1,159410644e-02   -8,902802318e-02   -8,058264852e-01    0,000000000e+00    0,000000000e+00    0,000000000e+00    0,000000000e+00
      128000000    3,452557372e-03    1,058827527e-02   -5,147987604e-01   -6,210131049e-01    0,000000000e+00    0,000000000e+00    0,000000000e+00    0,000000000e+00
      142000000    1,444872096e-02   -3,075808985e-03   -7,675119042e-01   -2,368829101e-01    0,000000000e+00    0,000000000e+00    0,000000000e+00    0,000000000e+00
      156000000    1,438238472e-02   -1,503071375e-02   -7,647889256e-01    2,203348726e-01    0,000000000e+00    0,000000000e+00    0,000000000e+00    0,000000000e+00
      170000000    1,658957638e-02   -2,252416685e-02   -5,190888047e-01    6,053122878e-01    0,000000000e+00    0,000000000e+00    0,000000000e+00    0,000000000e+00
      184000000    2,091037296e-02   -3,708159551e-02   -1,017906591e-01    7,866890430e-01    0,000000000e+00    0,000000000e+00    0,000000000e+00    0,000000000e+00
      198000000    1,304621436e-02   -6,260225922e-02    3,433201313e-01    7,132642269e-01    0,000000000e+00    0,000000000e+00    0,000000000e+00    0,000000000e+00
      212000000   -1,872759871e-02   -8,169540763e-02    6,783815026e-01    4,105423093e-01    0,000000000e+00    0,000000000e+00    0,000000000e+00    0,000000000e+00
      226000000   -6,203614175e-02   -6,959111243e-02    7,961290479e-01   -2,981691621e-02    0,000000000e+00    0,000000000e+00    0,000000000e+00    0,000000000e+00
      240000000   -8,315964043e-02   -2,604150586e-02    6,471315622e-01   -4,666362703e-01    0,000000000e+00    0,000000000e+00    0,000000000e+00    0,000000000e+00
      254000000   -6,429780275e-02    1,731568389e-02    2,770782709e-01   -7,434840798e-01    0,000000000e+00    0,000000000e+00    0,000000000e+00    0,000000000e+00
      268000000   -2,423480153e-02    2,945224382e-02   -1,772885621e-01   -7,652764916e-01    0,000000000e+00    0,000000000e+00    0,000000000e+00    0,000000000e+00
      282000000    4,157670308e-03    1,221947465e-02   -5,625258684e-01   -5,371471047e-01    0,000000000e+00    0,000000000e+00    0,000000000e+00    0,000000000e+00
      296000000    9,629342705e-03   -7,710602600e-03   -7,608928084e-01   -1,395445019e-01    0,000000000e+00    0,000000000e+00    0,000000000e+00    0,000000000e+00
      310000000    1,087667141e-02   -1,614415832e-02   -7,133096457e-01    2,965824604e-01    0,000000000e+00    0,000000000e+00    0,000000000e+00    0,000000000e+00
      324000000    1,961552352e-02   -2,647707611e-02   -4,289787114e-01    6,385452151e-01    0,000000000e+00    0,000000000e+00    0,000000000e+00    0,000000000e+00
      338000000    2,546863630e-02   -5,227622017e-02   -8,984005079e-03    7,634178400e-01    0,000000000e+00    0,000000000e+00    0,000000000e+00    0,000000000e+00
      352000000    7,469233591e-03   -8,493832499e-02    4,057303965e-01    6,410649419e-01    0,000000000e+00    0,000000000e+00    0,000000000e+00    0,000000000e+00
      366000000   -3,464658931e-02   -9,600511938e-02    6,916304827e-01    3,121750057e-01    0,000000000e+00    0,000000000e+00    0,000000000e+00    0,000000000e+00
      380000000   -7,122834772e-02   -7,118569314e-02    7,487103343e-01   -1,244266480e-01    0,000000000e+00    0,000000000e+00    0,000000000e+00    0,000000000e+00
      394000000   -7,302081585e-02   -3,219683841e-02    5,490974188e-01   -5,208335519e-01    0,000000000e+00    0,000000000e+00    0,000000000e+00    0,000000000e+00
      408000000   -4,725508392e-02   -1,571326517e-02    1,622770578e-01   -7,329598069e-01    0,000000000e+00    0,000000000e+00    0,000000000e+00    0,000000000e+00
      422000000   -2,820978500e-02   -3,165599704e-02   -2,663505375e-01   -6,964595914e-01    0,000000000e+00    0,000000000e+00    0,000000000e+00    0,000000000e+00
      436000000   -4,038155824e-02   -5,162729323e-02   -6,030638218e-01   -4,332098365e-01    0,000000000e+00    0,000000000e+00    0,000000000e+00    0,000000000e+00
      450000000   -6,791592389e-02   -4,496295750e-02   -7,407764196e-01   -2,502755448e-02    0,000000000e+00    0,000000000e+00    0,000000000e+00    0,000000000e+00
      464000000   -7,395616919e-02   -1,207232568e-02   -6,211413741e-01    3,950453699e-01    0,000000000e+00    0,000000000e+00    0,000000000e+00    0,000000000e+00
      478000000   -4,903887212e-02    1,139981858e-02   -2,869281769e-01    6,672283411e-01    0,000000000e+00    0,000000000e+00    0,000000000e+00    0,000000000e+00
      492000000   -1,672996394e-02    6,239384878e-03    1,339150965e-01    7,031603456e-01    0,000000000e+00    0,000000000e+00    0,000000000e+00    0,000000000e+00
      506000000   -4,055819008e-03   -1,489985641e-02    4,980059564e-01    5,062109828e-01    0,000000000e+00    0,000000000e+00    0,000000000e+00    0,000000000e+00
      520000000   -5,851898342e-03   -2,978980355e-02    6,898054481e-01    1,427370459e-01    0,000000000e+00    0,000000000e+00    0,000000000e+00    0,000000000e+00
      534000000   -3,287392668e-03   -3,616254032e-02    6,444255114e-01   -2,599329352e-01    0,000000000e+00    0,000000000e+00    0,000000000e+00    0,000000000e+00
      548000000    7,982160896e-03   -5,279413611e-02    3,847178519e-01   -5,641977191e-01    0,000000000e+00    0,000000000e+00    0,000000000e+00    0,000000000e+00
      562000000    5,359678529e-03   -8,975108713e-02    7,615766022e-03   -6,715989709e-01    0,000000000e+00    0,000000000e+00    0,000000000e+00    0,000000000e+00
      576000000   -3,152054548e-02   -1,264434755e-01   -3,628232181e-01   -5,613528490e-01    0,000000000e+00    0,000000000e+00    0,000000000e+00    0,000000000e+00
      590000000   -9,495482594e-02   -1,276723444e-01   -6,152423620e-01   -2,719087005e-01    0,000000000e+00    0,000000000e+00    0,000000000e+00    0,000000000e+00
      604000000   -1,427817792e-01   -7,800856233e-02   -6,668348312e-01    1,266791373e-01    0,000000000e+00    0,000000000e+00    0,000000000e+00    0,000000000e+00
      618000000   -1,380628496e-01   -1,091551408e-02   -4,754787385e-01    4,855800271e-01    0,000000000e+00    0,000000000e+00    0,000000000e+00    0,000000000e+00
      632000000   -9,273543954e-02    2,165015228e-02   -1,131843701e-01    6,632950902e-01    0,000000000e+00    0,000000000e+00    0,000000000e+00    0,000000000e+00
      646000000   -5,599561334e-02    1,167666633e-02    2,735675573e-01    6,022867560e-01    0,000000000e+00    0,000000000e+00    0,000000000e+00    0,000000000e+00
      660000000   -4,812989756e-02   -7,680953946e-03    5,583987236e-01    3,401022255e-01    0,000000000e+00    0,000000000e+00    0,000000000e+00    0,000000000e+00
      674000000   -5,611724406e-02   -1,033783797e-02    6,441100240e-01   -3,964718804e-02    0,000000000e+00    0,000000000e+00    0,000000000e+00    0,000000000e+00
      688000000   -5,075567216e-02    3,341206815e-03    4,929742515e-01   -4,020860493e-01    0,000000000e+00    0,000000000e+00    0,000000000e+00    0,000000000e+00
      702000000   -2,550582960e-02    8,210985921e-03    1,589290053e-01   -6,026933789e-01    0,000000000e+00    0,000000000e+00    0,000000000e+00    0,000000000e+00
      716000000   -1,873571309e-03   -1,002843119e-02   -2,196426690e-01   -5,756410360e-01    0,000000000e+00    0,000000000e+00    0,000000000e+00    0,000000000e+00
      730000000    9,209492244e-03   -3,402274847e-02   -5,089390278e-01   -3,340595365e-01    0,000000000e+00    0,000000000e+00    0,000000000e+00    0,000000000e+00
      744000000    1,601640880e-02   -6,056432053e-02   -6,009688973e-01    3,287255764e-02    0,000000000e+00    0,000000000e+00    0,000000000e+00    0,000000000e+00
      758000000    2,159196138e-02   -1,036181971e-01   -4,538202882e-01    3,766978383e-01    0,000000000e+00    0,000000000e+00    0,000000000e+00    0,000000000e+00
      772000000   -4,913131241e-03   -1,732990742e-01   -1,391484737e-01    5,578450561e-01    0,000000000e+00    0,000000000e+00    0,000000000e+00    0,000000000e+00
      786000000   -1,046565250e-01   -2,325263470e-01    2,111022621e-01    5,197304487e-01    0,000000000e+00    0,000000000e+00    0,000000000e+00    0,000000000e+00
      800000000   -2,654260695e-01   -1,924005151e-01    4,712889194e-01    2,756290138e-01    0,000000000e+00    0,000000000e+00    0,000000000e+00    0,000000000e+00
      814000000   -3,640993834e-01    3,920698073e-03    5,077793002e-01   -8,905460685e-02    0,000000000e+00    0,000000000e+00    0,000000000e+00    0,000000000e+00
      828000000   -2,473636866e-01    2,332347631e-01    2,813048661e-01   -3,527306616e-01    0,000000000e+00    0,000000000e+00    0,000000000e+00    0,000000000e+00
      842000000    1,304206066e-02    2,784483135e-01   -1,637375355e-02   -3,625318110e-01    0,000000000e+00    0,000000000e+00    0,000000000e+00    0,000000000e+00
      856000000    2,124281377e-01    1,156694368e-01   -1,875844449e-01   -2,042375952e-01    0,000000000e+00    0,000000000e+00    0,000000000e+00    0,000000000e+00
      870000000    2,389214933e-01   -1,487920731e-01   -2,004611343e-01   -2,588696405e-02    0,000000000e+00    0,000000000e+00    0,000000000e+00    0,000000000e+00
      884000000    3,720096499e-02   -3,864794672e-01   -1,042738706e-01    7,084283978e-02    0,000000000e+00    0,000000000e+00    0,000000000e+00    0,000000000e+00
      898000000   -3,690332770e-01   -3,417043388e-01   -1,653406397e-02    2,724539302e-02    0,000000000e+00    0,000000000e+00    0,000000000e+00    0,000000000e+00
      912000000   -4,684216380e-01    1,369874775e-01   -1,145361885e-01    4,142196104e-02    0,000000000e+00    0,000000000e+00    0,000000000e+00    0,000000000e+00
      926000000   -9,622756392e-02    3,529752791e-01   -1,298905760e-01    1,361099184e-01    0,000000000e+00    0,000000000e+00    0,000000000e+00    0,000000000e+00
      940000000    1,819423437e-01    1,940338165e-01   -3,867710754e-02    2,167544961e-01    0,000000000e+00    0,000000000e+00    0,000000000e+00    0,000000000e+00
      954000000    2,558711469e-01   -4,681041464e-02    8,115250617e-02    2,277158350e-01    0,000000000e+00    0,000000000e+00    0,000000000e+00    0,000000000e+00
      968000000    1,758629680e-01   -2,607560456e-01    1,901905984e-01    1,798854470e-01    0,000000000e+00    0,000000000e+00    0,000000000e+00    0,000000000e+00
      982000000   -1,495569944e-02   -3,970853090e-01    2,795952260e-01    7,849872857e-02    0,000000000e+00    0,000000000e+00    0,000000000e+00    0,000000000e+00
      996000000   -2,765675187e-01   -3,756164908e-01    3,091245890e-01   -8,094101399e-02    0,000000000e+00    0,000000000e+00    0,000000000e+00    0,000000000e+00
     1010000000   -4,729229808e-01   -1,733881086e-01    2,217603624e-01   -2,536177337e-01    0,000000000e+00    0,000000000e+00    0,000000000e+00    0,000000000e+00
     1024000000   -4,626742005e-01    1,151423380e-01    2,354558744e-02   -3,314491212e-01    0,000000000e+00    0,000000000e+00    0,000000000e+00    0,000000000e+00
     1038000000   -2,632026076e-01    3,019330204e-01   -1,740239859e-01   -2,493983656e-01    0,000000000e+00    0,000000000e+00    0,000000000e+00    0,000000000e+00
     1052000000   -3,875019029e-02    3,057028353e-01   -2,572541833e-01   -7,519002259e-02    0,000000000e+00    0,000000000e+00    0,000000000e+00    0,000000000e+00
     1066000000    1,278156787e-01    2,033331990e-01   -2,241119146e-01    8,708140999e-02    0,000000000e+00    0,000000000e+00    0,000000000e+00    0,000000000e+00
     1080000000    2,041177899e-01    4,551737383e-02   -1,189429760e-01    1,916179806e-01    0,000000000e+00    0,000000000e+00    0,000000000e+00    0,000000000e+00
     1094000000    1,972310096e-01   -1,286489218e-01    1,678445749e-02    2,345444411e-01    0,000000000e+00    0,000000000e+00    0,000000000e+00    0,000000000e+00
     1108000000    9,910998493e-02   -2,840392292e-01    1,700089574e-01    2,067501545e-01    0,000000000e+00    0,000000000e+00    0,000000000e+00    0,000000000e+00
     1122000000   -1,028017625e-01   -3,715152442e-01    3,171900809e-01    9,134361148e-02    0,000000000e+00    0,000000000e+00    0,000000000e+00    0,000000000e+00
     1136000000   -3,459676206e-01   -2,641022503e-01    3,918879628e-01   -1,494351625e-01    0,000000000e+00    0,000000000e+00    0,000000000e+00    0,000000000e+00
     1150000000   -4,058344066e-01    3,817095980e-02    2,443508953e-01   -4,372579157e-01    0,000000000e+00    0,000000000e+00    0,000000000e+00    0,000000000e+00
     1164000000   -1,587898433e-01    2,216693163e-01   -9,484425187e-02   -5,132902861e-01    0,000000000e+00    0,000000000e+00    0,000000000e+00    0,000000000e+00
     1178000000    7,633463293e-02    8,122423291e-02   -3,549553752e-01   -3,472549915e-01    0,000000000e+00    0,000000000e+00    0,000000000e+00    0,000000000e+00
     1192000000    7,865262032e-02   -1,723673940e-01   -4,507099092e-01   -8,420386910e-02    0,000000000e+00    0,000000000e+00    0,000000000e+00    0,000000000e+00
     1206000000   -1,642968208e-01   -3,303702772e-01   -3,710099161e-01    1,886225194e-01    0,000000000e+00    0,000000000e+00    0,000000000e+00    0,000000000e+00
     1220000000   -4,555125833e-01   -1,756842732e-01   -1,106594056e-01    3,310057223e-01    0,000000000e+00    0,000000000e+00    0,000000000e+00    0,000000000e+00
     1234000000   -4,697439373e-01    1,661277264e-01    1,402953565e-01    2,224564403e-01    0,000000000e+00    0,000000000e+00    0,000000000e+00    0,000000000e+00
     1248000000   -2,363858521e-01    3,586528301e-01    1,895546764e-01    4,024918005e-02    0,000000000e+00    0,000000000e+00    0,000000000e+00    0,000000000e+00
     1262000000    9,141570888e-03    3,277654946e-01    1,307043135e-01   -7,289307564e-02    0,000000000e+00    0,000000000e+00    0,000000000e+00    0,000000000e+00
     1276000000    1,579022557e-01    2,012521625e-01    5,634966493e-02   -9,456428885e-02    0,000000000e+00    0,000000000e+00    0,000000000e+00    0,000000000e+00
     1290000000    2,174095660e-01    2,892267518e-02   -1,121719397e-04   -7,394440472e-02    0,000000000e+00    0,000000000e+00    0,000000000e+00    0,000000000e+00
     1304000000    2,058468014e-01   -1,474681646e-01   -1,633083820e-02   -3,045767918e-02    0,000000000e+00    0,000000000e+00    0,000000000e+00    0,000000000e+00
     1318000000    1,175111756e-01   -3,101215661e-01    5,021459656e-04    2,437005192e-02    0,000000000e+00    0,000000000e+00    0,000000000e+00    0,000000000e+00
     1332000000   -6,999264657e-02   -4,305317700e-01    4,986599460e-02    7,232858986e-02    0,000000000e+00    0,000000000e+00    0,000000000e+00    0,000000000e+00
     1346000000   -3,269915283e-01   -4,334283471e-01    1,474126428e-01    5,367359146e-02    0,000000000e+00    0,000000000e+00    0,000000000e+00    0,000000000e+00
     1360000000   -5,460872650e-01   -2,465022057e-01    1,208111793e-01   -7,900451124e-02    0,000000000e+00    0,000000000e+00    0,000000000e+00    0,000000000e+00
     1374000000   -6,279177666e-01    2,791831642e-02    1,002359465e-01    5,543428287e-02    0,000000000e+00    0,000000000e+00    0,000000000e+00    0,000000000e+00
     1388000000   -5,152425170e-01    2,952145040e-01    2,224661708e-01    1,140961610e-02    0,000000000e+00    0,000000000e+00    0,000000000e+00    0,000000000e+00
     1402000000   -3,017533123e-01    4,125000238e-01    2,378699780e-01   -8,833717555e-02    0,000000000e+00    0,000000000e+00    0,000000000e+00    0,000000000e+00
     1416000000   -9,416802973e-02    4,220860600e-01    1,807918996e-01   -1,191400290e-01    0,000000000e+00    0,000000000e+00    0,000000000e+00    0,000000000e+00
     1430000000    6,386324763e-02    3,325720429e-01    1,446078718e-01   -1,121817008e-01    0,000000000e+00    0,000000000e+00    0,000000000e+00    0,000000000e+00
     1444000000    1,771869063e-01    2,033267170e-01    1,457766891e-01   -9,617389739e-02    0,000000000e+00    0,000000000e+00    0,000000000e+00    0,000000000e+00
     1458000000    2,301139385e-01    3,551680595e-02    1,551082134e-01   -8,215814829e-02    0,000000000e+00    0,000000000e+00    0,000000000e+00    0,000000000e+00
     1472000000    2,072304338e-01   -1,468221843e-01    1,480768621e-01   -6,874467432e-02    0,000000000e+00    0,000000000e+00    0,000000000e+00    0,000000000e+00
     1486000000    1,045856774e-01   -3,202239871e-01    1,532005519e-01    7,732150261e-04    0,000000000e+00    0,000000000e+00    0,000000000e+00    0,000000000e+00
     1500000000   -9,650973976e-02   -4,598445296e-01    2,093761861e-01    5,533472449e-02    0,000000000e+00    0,000000000e+00    0,000000000e+00    0,000000000e+00
