! NanoVNA-App
! Date: 2025-09-25 14:21:46
! Start: 100MHz Stop: 1,5GHz Points: 101
! S-Parameter data: F S11 S21 S12 S22
# Hz S RI R 50
!     Frequency           S11_Real           S11_Imag           S21_Real           S21_Imag           S12_Real           S12_Imag           S22_Real           S22_Imag
      100000000   -2,909054793e-02   -4,131524358e-03    3,744375408e-01   -7,220280170e-01    0,000000000e+00    0,000000000e+00    0,000000000e+00    0,000000000e+00
      114000000   -1,659118384e-02    1,159849484e-02   -8,899234980e-02   -8,059909344e-01    0,000000000e+00    0,000000000e+00    0,000000000e+00    0,000000000e+00
      128000000    3,381390125e-03    1,052105334e-02   -5,146472454e-01   -6,210053563e-01    0,000000000e+00    0,000000000e+00    0,000000000e+00    0,000000000e+00
      142000000    1,445540506e-02   -3,051109845e-03   -7,675688863e-01   -2,369267195e-01    0,000000000e+00    0,000000000e+00    0,000000000e+00    0,000000000e+00
      156000000    1,526103821e-02   -1,493700780e-02   -7,720810771e-01    2,215532660e-01    0,000000000e+00    0,000000000e+00    0,000000000e+00    0,000000000e+00
      170000000    1,658509858e-02   -2,257023193e-02   -5,186947584e-01    6,051420569e-01    0,000000000e+00    0,000000000e+00    0,000000000e+00    0,000000000e+00
      184000000    2,099159360e-02   -3,704743460e-02   -1,017862111e-01    7,866855264e-01    0,000000000e+00    0,000000000e+00    0,000000000e+00    0,000000000e+00
      198000000    1,300313324e-02   -6,257315725e-02    3,430558741e-01    7,127001286e-01    0,000000000e+00    0,000000000e+00    0,000000000e+00    0,000000000e+00
      212000000   -1,873725466e-02   -8,171614259e-02    6,783505678e-01    4,105602503e-01    0,000000000e+00    0,000000000e+00    0,000000000e+00    0,000000000e+00
      226000000   -6,210870296e-02   -6,970202178e-02    7,961449623e-01   -2,982352674e-02    0,000000000e+00    0,000000000e+00    0,000000000e+00    0,000000000e+00
      240000000   -8,321117610e-02   -2,605970390e-02    6,473342776e-01   -4,666121304e-01    0,000000000e+00    0,000000000e+00    0,000000000e+00    0,000000000e+00
      254000000   -6,435053051e-02    1,728366315e-02    2,770780325e-01   -7,434721589e-01    0,000000000e+00    0,000000000e+00    0,000000000e+00    0,000000000e+00
      268000000   -2,428702824e-02    2,951761894e-02   -1,775734127e-01   -7,647297978e-01    0,000000000e+00    0,000000000e+00    0,000000000e+00    0,000000000e+00
      282000000    4,199047573e-03    1,226561051e-02   -5,623962879e-01   -5,370296836e-01    0,000000000e+00    0,000000000e+00    0,000000000e+00    0,000000000e+00
      296000000    9,700438939e-03   -7,694945205e-03   -7,609528303e-01   -1,394980103e-01    0,000000000e+00    0,000000000e+00    0,000000000e+00    0,000000000e+00
      310000000    1,089274045e-02   -1,622201316e-02   -7,129950523e-01    2,971371710e-01    0,000000000e+00    0,000000000e+00    0,000000000e+00    0,000000000e+00
      324000000    1,940659061e-02   -2,653931826e-02   -4,280243516e-01    6,383754015e-01    0,000000000e+00    0,000000000e+00    0,000000000e+00    0,000000000e+00
      338000000    2,555924281e-02   -5,195410550e-02   -7,469625212e-03    7,609107494e-01    0,000000000e+00    0,000000000e+00    0,000000000e+00    0,000000000e+00
      352000000    7,247698959e-03   -8,502581716e-02    4,059357941e-01    6,399705410e-01    0,000000000e+00    0,000000000e+00    0,000000000e+00    0,000000000e+00
      366000000   -3,482953832e-02   -9,635657817e-02    6,908510923e-01    3,122098744e-01    0,000000000e+00    0,000000000e+00    0,000000000e+00    0,000000000e+00
      380000000   -7,125447690e-02   -7,114683092e-02    7,482528687e-01   -1,244388074e-01    0,000000000e+00    0,000000000e+00    0,000000000e+00    0,000000000e+00
      394000000   -7,287243009e-02   -3,252147883e-02    5,486399531e-01   -5,209820271e-01    0,000000000e+00    0,000000000e+00    0,000000000e+00    0,000000000e+00
      408000000   -4,692035913e-02   -1,578764617e-02    1,630973071e-01   -7,312124372e-01    0,000000000e+00    0,000000000e+00    0,000000000e+00    0,000000000e+00
      422000000   -2,848603576e-02   -3,166578338e-02   -2,664605379e-01   -6,966084242e-01    0,000000000e+00    0,000000000e+00    0,000000000e+00    0,000000000e+00
      436000000   -4,018154740e-02   -5,206302926e-02   -6,023865938e-01   -4,337532818e-01    0,000000000e+00    0,000000000e+00    0,000000000e+00    0,000000000e+00
      450000000   -6,726494431e-02   -4,475861788e-02   -7,402740121e-01   -2,517941967e-02    0,000000000e+00    0,000000000e+00    0,000000000e+00    0,000000000e+00
      464000000   -7,422788441e-02   -1,241445169e-02   -6,213861108e-01    3,953260183e-01    0,000000000e+00    0,000000000e+00    0,000000000e+00    0,000000000e+00
      478000000   -4,910453409e-02    1,178210415e-02   -2,864769995e-01    6,678053141e-01    0,000000000e+00    0,000000000e+00    0,000000000e+00    0,000000000e+00
      492000000   -1,708401367e-02    6,986760534e-03    1,343541890e-01    7,034403086e-01    0,000000000e+00    0,000000000e+00    0,000000000e+00    0,000000000e+00
      506000000   -3,790568793e-03   -1,475114468e-02    4,969602525e-01    5,064249635e-01    0,000000000e+00    0,000000000e+00    0,000000000e+00    0,000000000e+00
      520000000   -5,811861251e-03   -2,956875972e-02    6,885496378e-01    1,429667026e-01    0,000000000e+00    0,000000000e+00    0,000000000e+00    0,000000000e+00
      534000000   -3,502628068e-03   -3,596409783e-02    6,445231438e-01   -2,598395646e-01    0,000000000e+00    0,000000000e+00    0,000000000e+00    0,000000000e+00
      548000000    7,904293016e-03   -5,236827955e-02    3,849700987e-01   -5,641090274e-01    0,000000000e+00    0,000000000e+00    0,000000000e+00    0,000000000e+00
      562000000    5,508993287e-03   -8,916711807e-02    7,541327737e-03   -6,722126007e-01    0,000000000e+00    0,000000000e+00    0,000000000e+00    0,000000000e+00
      576000000   -3,149585798e-02   -1,262902766e-01   -3,631386757e-01   -5,613718033e-01    0,000000000e+00    0,000000000e+00    0,000000000e+00    0,000000000e+00
      590000000   -9,504529089e-02   -1,275848597e-01   -6,180552244e-01   -2,717282176e-01    0,000000000e+00    0,000000000e+00    0,000000000e+00    0,000000000e+00
      604000000   -1,431359947e-01   -7,773005962e-02   -6,671038866e-01    1,267003119e-01    0,000000000e+00    0,000000000e+00    0,000000000e+00    0,000000000e+00
      618000000   -1,381468028e-01   -1,161122695e-02   -4,750433266e-01    4,850856066e-01    0,000000000e+00    0,000000000e+00    0,000000000e+00    0,000000000e+00
      632000000   -9,302150458e-02    2,116522938e-02   -1,144755036e-01    6,620876193e-01    0,000000000e+00    0,000000000e+00    0,000000000e+00    0,000000000e+00
      646000000   -5,471164361e-02    1,155190915e-02    2,735823989e-01    6,025454402e-01    0,000000000e+00    0,000000000e+00    0,000000000e+00    0,000000000e+00
      660000000   -4,747699946e-02   -8,271166123e-03    5,577746630e-01    3,408619165e-01    0,000000000e+00    0,000000000e+00    0,000000000e+00    0,000000000e+00
      674000000   -5,551756546e-02   -9,939097799e-03    6,446809173e-01   -3,964125738e-02    0,000000000e+00    0,000000000e+00    0,000000000e+00    0,000000000e+00
      688000000   -5,047040433e-02    3,412894439e-03    4,933059514e-01   -4,014671445e-01    0,000000000e+00    0,000000000e+00    0,000000000e+00    0,000000000e+00
      702000000   -2,642526105e-02    7,825704291e-03    1,622606814e-01   -6,070711613e-01    0,000000000e+00    0,000000000e+00    0,000000000e+00    0,000000000e+00
      716000000   -2,768641571e-03   -9,253061377e-03   -2,188668549e-01   -5,751549006e-01    0,000000000e+00    0,000000000e+00    0,000000000e+00    0,000000000e+00
      730000000    1,017204486e-02   -3,403685987e-02   -5,092870593e-01   -3,337030411e-01    0,000000000e+00    0,000000000e+00    0,000000000e+00    0,000000000e+00
      744000000    1,640349068e-02   -6,145595014e-02   -6,008587480e-01    3,303061798e-02    0,000000000e+00    0,000000000e+00    0,000000000e+00    0,000000000e+00
      758000000    2,218444087e-02   -1,039474681e-01   -4,541444778e-01    3,773668408e-01    0,000000000e+00    0,000000000e+00    0,000000000e+00    0,000000000e+00
      772000000   -4,684520420e-03   -1,740923524e-01   -1,393656135e-01    5,580008626e-01    0,000000000e+00    0,000000000e+00    0,000000000e+00    0,000000000e+00
      786000000   -1,058500633e-01   -2,324133813e-01    2,116181850e-01    5,197064877e-01    0,000000000e+00    0,000000000e+00    0,000000000e+00    0,000000000e+00
      800000000   -2,657794952e-01   -1,920000166e-01    4,712127447e-01    2,751065493e-01    0,000000000e+00    0,000000000e+00    0,000000000e+00    0,000000000e+00
      814000000   -3,641974926e-01    2,802885836e-03    5,081025958e-01   -8,837538213e-02    0,000000000e+00    0,000000000e+00    0,000000000e+00    0,000000000e+00
      828000000   -2,481920421e-01    2,338181436e-01    2,810252905e-01   -3,526560664e-01    0,000000000e+00    0,000000000e+00    0,000000000e+00    0,000000000e+00
      842000000    1,217916422e-02    2,781515419e-01   -1,569281518e-02   -3,629784286e-01    0,000000000e+00    0,000000000e+00    0,000000000e+00    0,000000000e+00
      856000000    2,126131952e-01    1,151822507e-01   -1,884140819e-01   -2,046715915e-01    0,000000000e+00    0,000000000e+00    0,000000000e+00    0,000000000e+00
      870000000    2,384707630e-01   -1,487912238e-01   -2,005658299e-01   -2,518882416e-02    0,000000000e+00    0,000000000e+00    0,000000000e+00    0,000000000e+00
      884000000    3,776187450e-02   -3,868876398e-01   -1,038766652e-01    7,122161239e-02    0,000000000e+00    0,000000000e+00    0,000000000e+00    0,000000000e+00
      898000000   -3,691538572e-01   -3,424082994e-01   -1,646221802e-02    2,735964023e-02    0,000000000e+00    0,000000000e+00    0,000000000e+00    0,000000000e+00
      912000000   -4,662348926e-01    1,387938410e-01   -1,246182248e-01    3,446703777e-02    0,000000000e+00    0,000000000e+00    0,000000000e+00    0,000000000e+00
      926000000   -9,573636204e-02    3,493798077e-01   -1,299103200e-01    1,326903105e-01    0,000000000e+00    0,000000000e+00    0,000000000e+00    0,000000000e+00
      940000000    1,834518760e-01    1,921152771e-01   -3,931757808e-02    2,154299319e-01    0,000000000e+00    0,000000000e+00    0,000000000e+00    0,000000000e+00
      954000000    2,525508702e-01   -4,731836170e-02    7,908631116e-02    2,280116230e-01    0,000000000e+00    0,000000000e+00    0,000000000e+00    0,000000000e+00
      968000000    1,768301129e-01   -2,608442605e-01    1,915069669e-01    1,815304756e-01    0,000000000e+00    0,000000000e+00    0,000000000e+00    0,000000000e+00
      982000000   -2,001457661e-02   -3,909617066e-01    2,811757326e-01    8,067859709e-02    0,000000000e+00    0,000000000e+00    0,000000000e+00    0,000000000e+00
      996000000   -2,717342675e-01   -3,759003580e-01    3,079291880e-01   -8,037821949e-02    0,000000000e+00    0,000000000e+00    0,000000000e+00    0,000000000e+00
     1010000000   -4,712162912e-01   -1,739945263e-01    2,213265300e-01   -2,519073188e-01    0,000000000e+00    0,000000000e+00    0,000000000e+00    0,000000000e+00
     1024000000   -4,574719369e-01    1,135513708e-01    2,115719952e-02   -3,292548060e-01    0,000000000e+00    0,000000000e+00    0,000000000e+00    0,000000000e+00
     1038000000   -2,602366209e-01    2,967268527e-01   -1,718987972e-01   -2,470238209e-01    0,000000000e+00    0,000000000e+00    0,000000000e+00    0,000000000e+00
     1052000000   -3,498877585e-02    3,082364798e-01   -2,578940392e-01   -7,974600047e-02    0,000000000e+00    0,000000000e+00    0,000000000e+00    0,000000000e+00
     1066000000    1,283036023e-01    2,085470408e-01   -2,230777442e-01    8,519501239e-02    0,000000000e+00    0,000000000e+00    0,000000000e+00    0,000000000e+00
     1080000000    2,070077509e-01    4,557424411e-02   -1,202872619e-01    1,930484623e-01    0,000000000e+00    0,000000000e+00    0,000000000e+00    0,000000000e+00
     1094000000    1,989753246e-01   -1,267897189e-01    1,665453240e-02    2,358331829e-01    0,000000000e+00    0,000000000e+00    0,000000000e+00    0,000000000e+00
     1108000000    1,008990183e-01   -2,856677473e-01    1,708478034e-01    2,072210163e-01    0,000000000e+00    0,000000000e+00    0,000000000e+00    0,000000000e+00
     1122000000   -9,669441730e-02   -3,730909824e-01    3,162440956e-01    8,879736066e-02    0,000000000e+00    0,000000000e+00    0,000000000e+00    0,000000000e+00
     1136000000   -3,503047526e-01   -2,691467702e-01    3,906076550e-01   -1,518531293e-01    0,000000000e+00    0,000000000e+00    0,000000000e+00    0,000000000e+00
     1150000000   -4,046159089e-01    4,113990441e-02    2,408661097e-01   -4,378387034e-01    0,000000000e+00    0,000000000e+00    0,000000000e+00    0,000000000e+00
     1164000000   -1,624058932e-01    2,213875353e-01   -9,589353204e-02   -5,115820169e-01    0,000000000e+00    0,000000000e+00    0,000000000e+00    0,000000000e+00
     1178000000    7,253636420e-02    8,399572223e-02   -3,562212884e-01   -3,445342183e-01    0,000000000e+00    0,000000000e+00    0,000000000e+00    0,000000000e+00
     1192000000    7,695057243e-02   -1,716140211e-01   -4,533850253e-01   -8,192028850e-02    0,000000000e+00    0,000000000e+00    0,000000000e+00    0,000000000e+00
     1206000000   -1,615965664e-01   -3,290191591e-01   -3,704093993e-01    1,849085391e-01    0,000000000e+00    0,000000000e+00    0,000000000e+00    0,000000000e+00
     1220000000   -4,570324719e-01   -1,775488257e-01   -1,084175631e-01    3,296476901e-01    0,000000000e+00    0,000000000e+00    0,000000000e+00    0,000000000e+00
     1234000000   -4,716287851e-01    1,630689502e-01    1,385871172e-01    2,184665054e-01    0,000000000e+00    0,000000000e+00    0,000000000e+00    0,000000000e+00
     1248000000   -2,395377308e-01    3,550446630e-01    1,869513988e-01    2,958572283e-02    0,000000000e+00    0,000000000e+00    0,000000000e+00    0,000000000e+00
     1262000000    8,016288280e-03    3,308618367e-01    1,316945851e-01   -7,319284976e-02    0,000000000e+00    0,000000000e+00    0,000000000e+00    0,000000000e+00
     1276000000    1,508165002e-01    1,999242902e-01    5,165212974e-02   -9,393329173e-02    0,000000000e+00    0,000000000e+00    0,000000000e+00    0,000000000e+00
     1290000000    2,142573893e-01    2,992061526e-02   -3,215287870e-04   -7,576327771e-02    0,000000000e+00    0,000000000e+00    0,000000000e+00    0,000000000e+00
     1304000000    2,047159076e-01   -1,454902738e-01   -1,826315932e-02   -2,638076991e-02    0,000000000e+00    0,000000000e+00    0,000000000e+00    0,000000000e+00
     1318000000    1,151532307e-01   -3,117832839e-01    1,256795833e-03    2,159160376e-02    0,000000000e+00    0,000000000e+00    0,000000000e+00    0,000000000e+00
     1332000000   -6,626526266e-02   -4,308257103e-01    4,891794175e-02    6,647084653e-02    0,000000000e+00    0,000000000e+00    0,000000000e+00    0,000000000e+00
     1346000000   -3,271367252e-01   -4,317001998e-01    1,517013907e-01    4,465307295e-02    0,000000000e+00    0,000000000e+00    0,000000000e+00    0,000000000e+00
     1360000000   -5,532401800e-01   -2,520934045e-01    1,148613170e-01   -8,950467408e-02    0,000000000e+00    0,000000000e+00    0,000000000e+00    0,000000000e+00
     1374000000   -6,248759627e-01    2,995828539e-02    9,262576699e-02    6,528476626e-02    0,000000000e+00    0,000000000e+00    0,000000000e+00    0,000000000e+00
     1388000000   -5,255284905e-01    2,967053950e-01    2,224057913e-01    1,700774767e-03    0,000000000e+00    0,000000000e+00    0,000000000e+00    0,000000000e+00
     1402000000   -3,007212579e-01    4,259081483e-01    2,301914990e-01   -7,607092708e-02    0,000000000e+00    0,000000000e+00    0,000000000e+00    0,000000000e+00
     1416000000   -9,131780267e-02    4,259475768e-01    1,837238371e-01   -1,061601713e-01    0,000000000e+00    0,000000000e+00    0,000000000e+00    0,000000000e+00
     1430000000    7,286279649e-02    3,349304199e-01    1,676503122e-01   -1,305878162e-01    0,000000000e+00    0,000000000e+00    0,000000000e+00    0,000000000e+00
     1444000000    1,820486039e-01    1,991415620e-01    1,495051384e-01   -9,543373436e-02    0,000000000e+00    0,000000000e+00    0,000000000e+00    0,000000000e+00
     1458000000    2,244431674e-01    3,321886063e-02    1,393050700e-01   -7,785933465e-02    0,000000000e+00    0,000000000e+00    0,000000000e+00    0,000000000e+00
     1472000000    2,053180784e-01   -1,501190066e-01    1,592016369e-01   -5,936875939e-02    0,000000000e+00    0,000000000e+00    0,000000000e+00    0,000000000e+00
     1486000000    9,997338802e-02   -3,220903873e-01    1,583053768e-01   -3,788531991e-03    0,000000000e+00    0,000000000e+00    0,000000000e+00    0,000000000e+00
     1500000000   -9,365317971e-02   -4,652471542e-01    2,031816840e-01    4,956792295e-02    0,000000000e+00    0,000000000e+00    0,000000000e+00    0,000000000e+00
