! NanoVNA-App
! Date: 2025-09-25 14:22:45
! Start: 100MHz Stop: 1,5GHz Points: 101
! S-Parameter data: F S11 S21 S12 S22
# Hz S RI R 50
!     Frequency           S11_Real           S11_Imag           S21_Real           S21_Imag           S12_Real           S12_Imag           S22_Real           S22_Imag
      100000000   -2,908978425e-02   -4,145841580e-03    3,744312227e-01   -7,220664024e-01    0,000000000e+00    0,000000000e+00    0,000000000e+00    0,000000000e+00
      114000000   -1,664111577e-02    1,161986217e-02   -8,904757351e-02   -8,058769703e-01    0,000000000e+00    0,000000000e+00    0,000000000e+00    0,000000000e+00
      128000000    3,442382906e-03    1,054266281e-02   -5,146417022e-01   -6,211497784e-01    0,000000000e+00    0,000000000e+00    0,000000000e+00    0,000000000e+00
      142000000    1,447097957e-02   -3,029364860e-03   -7,673373222e-01   -2,369022518e-01    0,000000000e+00    0,000000000e+00    0,000000000e+00    0,000000000e+00
      156000000    1,439791452e-02   -1,495379116e-02   -7,641349435e-01    2,188488543e-01    0,000000000e+00    0,000000000e+00    0,000000000e+00    0,000000000e+00
      170000000    1,650729030e-02   -2,249775454e-02   -5,188921690e-01    6,052868366e-01    0,000000000e+00    0,000000000e+00    0,000000000e+00    0,000000000e+00
      184000000    2,096366510e-02   -3,711044788e-02   -1,017187908e-01    7,870482206e-01    0,000000000e+00    0,000000000e+00    0,000000000e+00    0,000000000e+00
      198000000    1,302962285e-02   -6,258570403e-02    3,428962827e-01    7,129390836e-01    0,000000000e+00    0,000000000e+00    0,000000000e+00    0,000000000e+00
      212000000   -1,869956776e-02   -8,165350556e-02    6,784874797e-01    4,103893042e-01    0,000000000e+00    0,000000000e+00    0,000000000e+00    0,000000000e+00
      226000000   -6,202337518e-02   -6,967182457e-02    7,960504293e-01   -2,967697941e-02    0,000000000e+00    0,000000000e+00    0,000000000e+00    0,000000000e+00
      240000000   -8,311633021e-02   -2,610577457e-02    6,467459202e-01   -4,666067362e-01    0,000000000e+00    0,000000000e+00    0,000000000e+00    0,000000000e+00
      254000000   -6,438201666e-02    1,721875742e-02    2,771678865e-01   -7,434198260e-01    0,000000000e+00    0,000000000e+00    0,000000000e+00    0,000000000e+00
      268000000   -2,436395735e-02    2,951659635e-02   -1,771271080e-01   -7,648115158e-01    0,000000000e+00    0,000000000e+00    0,000000000e+00    0,000000000e+00
      282000000    4,219954368e-03    1,206609141e-02   -5,621773005e-01   -5,369214416e-01    0,000000000e+00    0,000000000e+00    0,000000000e+00    0,000000000e+00
      296000000    9,579995647e-03   -7,642326411e-03   -7,608930469e-01   -1,396525353e-01    0,000000000e+00    0,000000000e+00    0,000000000e+00    0,000000000e+00
      310000000    1,097544655e-02   -1,621290669e-02   -7,121232152e-01    2,979374826e-01    0,000000000e+00    0,000000000e+00    0,000000000e+00    0,000000000e+00
      324000000    1,933510043e-02   -2,649569139e-02   -4,288791716e-01    6,378259063e-01    0,000000000e+00    0,000000000e+00    0,000000000e+00    0,000000000e+00
      338000000    2,527067438e-02   -5,209550634e-02   -8,373610675e-03    7,646918893e-01    0,000000000e+00    0,000000000e+00    0,000000000e+00    0,000000000e+00
      352000000    7,191254292e-03   -8,474262804e-02    4,058702290e-01    6,411783695e-01    0,000000000e+00    0,000000000e+00    0,000000000e+00    0,000000000e+00
      366000000   -3,486577794e-02   -9,576546401e-02    6,906867623e-01    3,125537634e-01    0,000000000e+00    0,000000000e+00    0,000000000e+00    0,000000000e+00
      380000000   -7,137478888e-02   -7,128556073e-02    7,482477427e-01   -1,246236786e-01    0,000000000e+00    0,000000000e+00    0,000000000e+00    0,000000000e+00
      394000000   -7,333216816e-02   -3,251603991e-02    5,479702353e-01   -5,203926563e-01    0,000000000e+00    0,000000000e+00    0,000000000e+00    0,000000000e+00
      408000000   -4,696299508e-02   -1,598295756e-02    1,627710760e-01   -7,327535152e-01    0,000000000e+00    0,000000000e+00    0,000000000e+00    0,000000000e+00
      422000000   -2,815717459e-02   -3,131869435e-02   -2,660117447e-01   -6,961777806e-01    0,000000000e+00    0,000000000e+00    0,000000000e+00    0,000000000e+00
      436000000   -4,036546499e-02   -5,188173056e-02   -6,027538776e-01   -4,333617091e-01    0,000000000e+00    0,000000000e+00    0,000000000e+00    0,000000000e+00
      450000000   -6,809335947e-02   -4,497659951e-02   -7,404971123e-01   -2,522824518e-02    0,000000000e+00    0,000000000e+00    0,000000000e+00    0,000000000e+00
      464000000   -7,426187396e-02   -1,231320482e-02   -6,208954453e-01    3,944577575e-01    0,000000000e+00    0,000000000e+00    0,000000000e+00    0,000000000e+00
      478000000   -4,931686446e-02    1,171725243e-02   -2,864578664e-01    6,676545143e-01    0,000000000e+00    0,000000000e+00    0,000000000e+00    0,000000000e+00
      492000000   -1,678224094e-02    6,301144604e-03    1,339566112e-01    7,038711905e-01    0,000000000e+00    0,000000000e+00    0,000000000e+00    0,000000000e+00
      506000000   -3,932526335e-03   -1,505369786e-02    4,970718324e-01    5,061120391e-01    0,000000000e+00    0,000000000e+00    0,000000000e+00    0,000000000e+00
      520000000   -5,509794690e-03   -2,969360910e-02    6,902903914e-01    1,457986981e-01    0,000000000e+00    0,000000000e+00    0,000000000e+00    0,000000000e+00
      534000000   -2,932699164e-03   -3,585754335e-02    6,447451711e-01   -2,601790726e-01    0,000000000e+00    0,000000000e+00    0,000000000e+00    0,000000000e+00
      548000000    8,276260458e-03   -5,286591873e-02    3,850609660e-01   -5,641453862e-01    0,000000000e+00    0,000000000e+00    0,000000000e+00    0,000000000e+00
      562000000    5,740154535e-03   -8,917017281e-02    7,531596348e-03   -6,711429358e-01    0,000000000e+00    0,000000000e+00    0,000000000e+00    0,000000000e+00
      576000000   -3,157962114e-02   -1,259919703e-01   -3,624542654e-01   -5,608763099e-01    0,000000000e+00    0,000000000e+00    0,000000000e+00    0,000000000e+00
      590000000   -9,504707158e-02   -1,278263777e-01   -6,183426380e-01   -2,717392147e-01    0,000000000e+00    0,000000000e+00    0,000000000e+00    0,000000000e+00
      604000000   -1,427357495e-01   -7,776369154e-02   -6,671019793e-01    1,266750991e-01    0,000000000e+00    0,000000000e+00    0,000000000e+00    0,000000000e+00
      618000000   -1,381085068e-01   -1,113863941e-02   -4,749829471e-01    4,862185419e-01    0,000000000e+00    0,000000000e+00    0,000000000e+00    0,000000000e+00
      632000000   -9,297461808e-02    2,132749930e-02   -1,134711727e-01    6,632736325e-01    0,000000000e+00    0,000000000e+00    0,000000000e+00    0,000000000e+00
      646000000   -5,474756286e-02    1,219660975e-02    2,736670971e-01    6,033090353e-01    0,000000000e+00    0,000000000e+00    0,000000000e+00    0,000000000e+00
      660000000   -4,798608273e-02   -9,168226272e-03    5,577180982e-01    3,409353495e-01    0,000000000e+00    0,000000000e+00    0,000000000e+00    0,000000000e+00
      674000000   -5,571078882e-02   -1,115805097e-02    6,442619562e-01   -3,978284448e-02    0,000000000e+00    0,000000000e+00    0,000000000e+00    0,000000000e+00
      688000000   -4,979097843e-02    2,881226130e-03    4,930448830e-01   -4,017457664e-01    0,000000000e+00    0,000000000e+00    0,000000000e+00    0,000000000e+00
      702000000   -2,595918812e-02    7,638788782e-03    1,595721692e-01   -6,040751934e-01    0,000000000e+00    0,000000000e+00    0,000000000e+00    0,000000000e+00
      716000000   -1,797062927e-03   -8,235283196e-03   -2,200901657e-01   -5,745041370e-01    0,000000000e+00    0,000000000e+00    0,000000000e+00    0,000000000e+00
      730000000    1,017063577e-02   -3,464300185e-02   -5,092118382e-01   -3,334635198e-01    0,000000000e+00    0,000000000e+00    0,000000000e+00    0,000000000e+00
      744000000    1,613608189e-02   -6,148950011e-02   -6,004441977e-01    3,328749165e-02    0,000000000e+00    0,000000000e+00    0,000000000e+00    0,000000000e+00
      758000000    2,173427679e-02   -1,030537114e-01   -4,540840685e-01    3,774780631e-01    0,000000000e+00    0,000000000e+00    0,000000000e+00    0,000000000e+00
      772000000   -4,488658626e-03   -1,734948754e-01   -1,405020356e-01    5,579413176e-01    0,000000000e+00    0,000000000e+00    0,000000000e+00    0,000000000e+00
      786000000   -1,053184643e-01   -2,316148877e-01    2,118357122e-01    5,192002058e-01    0,000000000e+00    0,000000000e+00    0,000000000e+00    0,000000000e+00
      800000000   -2,655792236e-01   -1,931108385e-01    4,710029662e-01    2,754141390e-01    0,000000000e+00    0,000000000e+00    0,000000000e+00    0,000000000e+00
      814000000   -3,635501862e-01    3,659161041e-03    5,074769855e-01   -8,880691230e-02    0,000000000e+00    0,000000000e+00    0,000000000e+00    0,000000000e+00
      828000000   -2,476945817e-01    2,321484387e-01    2,818715870e-01   -3,526657224e-01    0,000000000e+00    0,000000000e+00    0,000000000e+00    0,000000000e+00
      842000000    1,335135009e-02    2,783646882e-01   -1,581568830e-02   -3,628691733e-01    0,000000000e+00    0,000000000e+00    0,000000000e+00    0,000000000e+00
      856000000    2,128535360e-01    1,153788120e-01   -1,884665638e-01   -2,049761862e-01    0,000000000e+00    0,000000000e+00    0,000000000e+00    0,000000000e+00
      870000000    2,389284968e-01   -1,489282548e-01   -2,010247409e-01   -2,543431148e-02    0,000000000e+00    0,000000000e+00    0,000000000e+00    0,000000000e+00
      884000000    3,745479882e-02   -3,872490227e-01   -1,038852036e-01    7,065317035e-02    0,000000000e+00    0,000000000e+00    0,000000000e+00    0,000000000e+00
      898000000   -3,697221279e-01   -3,427675068e-01   -1,705422997e-02    2,691770531e-02    0,000000000e+00    0,000000000e+00    0,000000000e+00    0,000000000e+00
      912000000   -4,675671160e-01    1,375022382e-01   -1,240928546e-01    3,095388040e-02    0,000000000e+00    0,000000000e+00    0,000000000e+00    0,000000000e+00
      926000000   -9,686256945e-02    3,494329453e-01   -1,290218383e-01    1,322499812e-01    0,000000000e+00    0,000000000e+00    0,000000000e+00    0,000000000e+00
      940000000    1,866351962e-01    1,935410649e-01   -3,799466044e-02    2,156159580e-01    0,000000000e+00    0,000000000e+00    0,000000000e+00    0,000000000e+00
      954000000    2,530889511e-01   -4,992966354e-02    7,914538682e-02    2,287724018e-01    0,000000000e+00    0,000000000e+00    0,000000000e+00    0,000000000e+00
      968000000    1,753013879e-01   -2,607156038e-01    1,915126890e-01    1,794917583e-01    0,000000000e+00    0,000000000e+00    0,000000000e+00    0,000000000e+00
      982000000   -1,532711275e-02   -3,947624266e-01    2,786449194e-01    8,023555577e-02    0,000000000e+00    0,000000000e+00    0,000000000e+00    0,000000000e+00
      996000000   -2,745714784e-01   -3,787342012e-01    3,083678782e-01   -7,900457084e-02    0,000000000e+00    0,000000000e+00    0,000000000e+00    0,000000000e+00
     1010000000   -4,694142044e-01   -1,755530685e-01    2,222668827e-01   -2,521047890e-01    0,000000000e+00    0,000000000e+00    0,000000000e+00    0,000000000e+00
     1024000000   -4,629687965e-01    1,196252406e-01    2,205627412e-02   -3,293275237e-01    0,000000000e+00    0,000000000e+00    0,000000000e+00    0,000000000e+00
     1038000000   -2,684136033e-01    2,963026464e-01   -1,724190563e-01   -2,481485158e-01    0,000000000e+00    0,000000000e+00    0,000000000e+00    0,000000000e+00
     1052000000   -3,820002452e-02    3,060954213e-01   -2,565077543e-01   -7,772922516e-02    0,000000000e+00    0,000000000e+00    0,000000000e+00    0,000000000e+00
     1066000000    1,289389879e-01    2,032397687e-01   -2,275338471e-01    8,911173046e-02    0,000000000e+00    0,000000000e+00    0,000000000e+00    0,000000000e+00
     1080000000    2,051759064e-01    4,576482624e-02   -1,199425012e-01    1,924240738e-01    0,000000000e+00    0,000000000e+00    0,000000000e+00    0,000000000e+00
     1094000000    2,014035583e-01   -1,259753406e-01    1,690809987e-02    2,330235541e-01    0,000000000e+00    0,000000000e+00    0,000000000e+00    0,000000000e+00
     1108000000    9,878525883e-02   -2,878762186e-01    1,723523885e-01    2,062033564e-01    0,000000000e+00    0,000000000e+00    0,000000000e+00    0,000000000e+00
     1122000000   -9,942737967e-02   -3,678240478e-01    3,170333803e-01    9,040234983e-02    0,000000000e+00    0,000000000e+00    0,000000000e+00    0,000000000e+00
     1136000000   -3,472554386e-01   -2,672950327e-01    3,935474753e-01   -1,496575922e-01    0,000000000e+00    0,000000000e+00    0,000000000e+00    0,000000000e+00
     1150000000   -4,124780893e-01    3,568137437e-02    2,424326539e-01   -4,342295229e-01    0,000000000e+00    0,000000000e+00    0,000000000e+00    0,000000000e+00
     1164000000   -1,593697220e-01    2,137230784e-01   -9,338875860e-02   -5,158357024e-01    0,000000000e+00    0,000000000e+00    0,000000000e+00    0,000000000e+00
     1178000000    7,987305522e-02    8,288583905e-02   -3,561028242e-01   -3,473407030e-01    0,000000000e+00    0,000000000e+00    0,000000000e+00    0,000000000e+00
     1192000000    7,309523225e-02   -1,742969006e-01   -4,563976228e-01   -8,550991863e-02    0,000000000e+00    0,000000000e+00    0,000000000e+00    0,000000000e+00
     1206000000   -1,606049985e-01   -3,226113915e-01   -3,712138534e-01    1,892179996e-01    0,000000000e+00    0,000000000e+00    0,000000000e+00    0,000000000e+00
     1220000000   -4,591187239e-01   -1,744391620e-01   -1,124180108e-01    3,299959600e-01    0,000000000e+00    0,000000000e+00    0,000000000e+00    0,000000000e+00
     1234000000   -4,777173400e-01    1,630152464e-01    1,400141567e-01    2,203951776e-01    0,000000000e+00    0,000000000e+00    0,000000000e+00    0,000000000e+00
     1248000000   -2,351916879e-01    3,464497924e-01    1,948889196e-01    3,112590685e-02    0,000000000e+00    0,000000000e+00    0,000000000e+00    0,000000000e+00
     1262000000    7,239138708e-03    3,287352920e-01    1,317141056e-01   -7,420496643e-02    0,000000000e+00    0,000000000e+00    0,000000000e+00    0,000000000e+00
     1276000000    1,572954208e-01    2,026164085e-01    5,457821488e-02   -8,983296901e-02    0,000000000e+00    0,000000000e+00    0,000000000e+00    0,000000000e+00
     1290000000    2,195745111e-01    3,333520889e-02   -6,996688899e-04   -7,166267931e-02    0,000000000e+00    0,000000000e+00    0,000000000e+00    0,000000000e+00
     1304000000    2,062545270e-01   -1,473755240e-01   -1,821200177e-02   -3,136349097e-02    0,000000000e+00    0,000000000e+00    0,000000000e+00    0,000000000e+00
     1318000000    1,151116267e-01   -3,126493096e-01   -2,910862677e-03    2,149784006e-02    0,000000000e+00    0,000000000e+00    0,000000000e+00    0,000000000e+00
     1332000000   -6,597319990e-02   -4,332112074e-01    4,947835952e-02    5,982834473e-02    0,000000000e+00    0,000000000e+00    0,000000000e+00    0,000000000e+00
     1346000000   -3,271547854e-01   -4,328549206e-01    1,453637928e-01    5,159653351e-02    0,000000000e+00    0,000000000e+00    0,000000000e+00    0,000000000e+00
     1360000000   -5,555456877e-01   -2,403173149e-01    1,231447458e-01   -8,538528532e-02    0,000000000e+00    0,000000000e+00    0,000000000e+00    0,000000000e+00
     1374000000   -6,124656796e-01    3,709302843e-02    1,060277373e-01    6,485912204e-02    0,000000000e+00    0,000000000e+00    0,000000000e+00    0,000000000e+00
     1388000000   -5,077623725e-01    2,898239493e-01    2,202685475e-01   -3,362770192e-03    0,000000000e+00    0,000000000e+00    0,000000000e+00    0,000000000e+00
     1402000000   -2,997767329e-01    4,217681587e-01    2,260166109e-01   -8,948890120e-02    0,000000000e+00    0,000000000e+00    0,000000000e+00    0,000000000e+00
     1416000000   -9,145217389e-02    4,252694249e-01    1,911675781e-01   -1,164956093e-01    0,000000000e+00    0,000000000e+00    0,000000000e+00    0,000000000e+00
     1430000000    7,697769254e-02    3,478609622e-01    1,601527631e-01   -1,176625937e-01    0,000000000e+00    0,000000000e+00    0,000000000e+00    0,000000000e+00
     1444000000    1,760852337e-01    2,038373202e-01    1,499866843e-01   -1,095813364e-01    0,000000000e+00    0,000000000e+00    0,000000000e+00    0,000000000e+00
     1458000000    2,262571901e-01    3,565199673e-02    1,546958089e-01   -8,662437648e-02    0,000000000e+00    0,000000000e+00    0,000000000e+00    0,000000000e+00
     1472000000    2,053324133e-01   -1,462860554e-01    1,520326436e-01   -4,666205496e-02    0,000000000e+00    0,000000000e+00    0,000000000e+00    0,000000000e+00
     1486000000    1,027758941e-01   -3,204019964e-01    1,588832587e-01    7,690469269e-03    0,000000000e+00    0,000000000e+00    0,000000000e+00    0,000000000e+00
     1500000000   -8,797930181e-02   -4,592137635e-01    2,160186917e-01    5,844720826e-02    0,000000000e+00    0,000000000e+00    0,000000000e+00    0,000000000e+00
