! NanoVNA-App
! Date: 2025-09-25 14:25:41
! Start: 100MHz Stop: 1,5GHz Points: 101
! S-Parameter data: F S11 S21 S12 S22
# Hz S RI R 50
!     Frequency           S11_Real           S11_Imag           S21_Real           S21_Imag           S12_Real           S12_Imag           S22_Real           S22_Imag
      100000000   -2,909663133e-02   -4,120388068e-03    3,744830787e-01   -7,220314741e-01    0,000000000e+00    0,000000000e+00    0,000000000e+00    0,000000000e+00
      114000000   -1,662550680e-02    1,161647774e-02   -8,894848078e-02   -8,058375716e-01    0,000000000e+00    0,000000000e+00    0,000000000e+00    0,000000000e+00
      128000000    3,473437857e-03    1,051758323e-02   -5,146797299e-01   -6,211867929e-01    0,000000000e+00    0,000000000e+00    0,000000000e+00    0,000000000e+00
      142000000    1,445473731e-02   -3,081425792e-03   -7,676619291e-01   -2,369704396e-01    0,000000000e+00    0,000000000e+00    0,000000000e+00    0,000000000e+00
      156000000    1,531239506e-02   -1,496314630e-02   -7,693880200e-01    2,232001275e-01    0,000000000e+00    0,000000000e+00    0,000000000e+00    0,000000000e+00
      170000000    1,651960239e-02   -2,245661244e-02   -5,188130736e-01    6,049855947e-01    0,000000000e+00    0,000000000e+00    0,000000000e+00    0,000000000e+00
      184000000    2,099506557e-02   -3,704225644e-02   -1,020099670e-01    7,866445184e-01    0,000000000e+00    0,000000000e+00    0,000000000e+00    0,000000000e+00
      198000000    1,312789600e-02   -6,259689480e-02    3,428022563e-01    7,130533457e-01    0,000000000e+00    0,000000000e+00    0,000000000e+00    0,000000000e+00
      212000000   -1,868824847e-02   -8,171121031e-02    6,783007383e-01    4,105897844e-01    0,000000000e+00    0,000000000e+00    0,000000000e+00    0,000000000e+00
      226000000   -6,207411364e-02   -6,969819218e-02    7,961627245e-01   -2,974443883e-02    0,000000000e+00    0,000000000e+00    0,000000000e+00    0,000000000e+00
      240000000   -8,324662596e-02   -2,607768960e-02    6,468864083e-01   -4,666624069e-01    0,000000000e+00    0,000000000e+00    0,000000000e+00    0,000000000e+00
      254000000   -6,438969076e-02    1,749483123e-02    2,770335078e-01   -7,435926199e-01    0,000000000e+00    0,000000000e+00    0,000000000e+00    0,000000000e+00
      268000000   -2,400145866e-02    2,953399718e-02   -1,769125313e-01   -7,649903297e-01    0,000000000e+00    0,000000000e+00    0,000000000e+00    0,000000000e+00
      282000000    4,089980852e-03    1,201022323e-02   -5,626239777e-01   -5,375972986e-01    0,000000000e+00    0,000000000e+00    0,000000000e+00    0,000000000e+00
      296000000    9,614098817e-03   -7,694825064e-03   -7,607109547e-01   -1,395263970e-01    0,000000000e+00    0,000000000e+00    0,000000000e+00    0,000000000e+00
      310000000    1,086972747e-02   -1,603160426e-02   -7,126771212e-01    2,981252968e-01    0,000000000e+00    0,000000000e+00    0,000000000e+00    0,000000000e+00
      324000000    1,922187209e-02   -2,655159868e-02   -4,295598567e-01    6,370937824e-01    0,000000000e+00    0,000000000e+00    0,000000000e+00    0,000000000e+00
      338000000    2,549332194e-02   -5,199537054e-02   -8,088324219e-03    7,612057924e-01    0,000000000e+00    0,000000000e+00    0,000000000e+00    0,000000000e+00
      352000000    7,518900558e-03   -8,469039202e-02    4,059705138e-01    6,411774755e-01    0,000000000e+00    0,000000000e+00    0,000000000e+00    0,000000000e+00
      366000000   -3,479101136e-02   -9,611652046e-02    6,908450723e-01    3,120498359e-01    0,000000000e+00    0,000000000e+00    0,000000000e+00    0,000000000e+00
      380000000   -7,128922641e-02   -7,117024064e-02    7,483161092e-01   -1,250129640e-01    0,000000000e+00    0,000000000e+00    0,000000000e+00    0,000000000e+00
      394000000   -7,324513793e-02   -3,251483664e-02    5,482857823e-01   -5,208158493e-01    0,000000000e+00    0,000000000e+00    0,000000000e+00    0,000000000e+00
      408000000   -4,678281397e-02   -1,555449609e-02    1,639470011e-01   -7,332407832e-01    0,000000000e+00    0,000000000e+00    0,000000000e+00    0,000000000e+00
      422000000   -2,821717411e-02   -3,155930340e-02   -2,653765380e-01   -6,957919002e-01    0,000000000e+00    0,000000000e+00    0,000000000e+00    0,000000000e+00
      436000000   -4,015935957e-02   -5,205629393e-02   -6,026566029e-01   -4,345140755e-01    0,000000000e+00    0,000000000e+00    0,000000000e+00    0,000000000e+00
      450000000   -6,760216504e-02   -4,504803568e-02   -7,404567599e-01   -2,532782219e-02    0,000000000e+00    0,000000000e+00    0,000000000e+00    0,000000000e+00
      464000000   -7,405761629e-02   -1,257344428e-02   -6,212198734e-01    3,944072425e-01    0,000000000e+00    0,000000000e+00    0,000000000e+00    0,000000000e+00
      478000000   -4,932132736e-02    1,150071062e-02   -2,869784236e-01    6,670325994e-01    0,000000000e+00    0,000000000e+00    0,000000000e+00    0,000000000e+00
      492000000   -1,684722491e-02    6,753169000e-03    1,345229745e-01    7,035606503e-01    0,000000000e+00    0,000000000e+00    0,000000000e+00    0,000000000e+00
      506000000   -3,634106601e-03   -1,484945603e-02    4,974549115e-01    5,058311820e-01    0,000000000e+00    0,000000000e+00    0,000000000e+00    0,000000000e+00
      520000000   -5,843417719e-03   -2,987575717e-02    6,893429160e-01    1,427119374e-01    0,000000000e+00    0,000000000e+00    0,000000000e+00    0,000000000e+00
      534000000   -3,770367242e-03   -3,589015827e-02    6,443070769e-01   -2,603819966e-01    0,000000000e+00    0,000000000e+00    0,000000000e+00    0,000000000e+00
      548000000    7,816305384e-03   -5,309709162e-02    3,846341372e-01   -5,641413927e-01    0,000000000e+00    0,000000000e+00    0,000000000e+00    0,000000000e+00
      562000000    5,876011681e-03   -8,926927298e-02    7,732219063e-03   -6,717398167e-01    0,000000000e+00    0,000000000e+00    0,000000000e+00    0,000000000e+00
      576000000   -3,081103228e-02   -1,265007704e-01   -3,621310294e-01   -5,613762736e-01    0,000000000e+00    0,000000000e+00    0,000000000e+00    0,000000000e+00
      590000000   -9,514789283e-02   -1,276182830e-01   -6,164574027e-01   -2,707457542e-01    0,000000000e+00    0,000000000e+00    0,000000000e+00    0,000000000e+00
      604000000   -1,432654560e-01   -7,765710354e-02   -6,675599813e-01    1,267246306e-01    0,000000000e+00    0,000000000e+00    0,000000000e+00    0,000000000e+00
      618000000   -1,378868073e-01   -1,161819603e-02   -4,752178192e-01    4,860609472e-01    0,000000000e+00    0,000000000e+00    0,000000000e+00    0,000000000e+00
      632000000   -9,271699190e-02    2,192034759e-02   -1,140148416e-01    6,636157036e-01    0,000000000e+00    0,000000000e+00    0,000000000e+00    0,000000000e+00
      646000000   -5,522600189e-02    1,265034545e-02    2,733745873e-01    6,032618880e-01    0,000000000e+00    0,000000000e+00    0,000000000e+00    0,000000000e+00
      660000000   -4,751426354e-02   -8,482059464e-03    5,579557419e-01    3,400697410e-01    0,000000000e+00    0,000000000e+00    0,000000000e+00    0,000000000e+00
      674000000   -5,526012182e-02   -1,039014291e-02    6,443409324e-01   -3,938515112e-02    0,000000000e+00    0,000000000e+00    0,000000000e+00    0,000000000e+00
      688000000   -5,011222139e-02    3,556510434e-03    4,927643836e-01   -4,013633430e-01    0,000000000e+00    0,000000000e+00    0,000000000e+00    0,000000000e+00
      702000000   -2,526871301e-02    7,222874556e-03    1,596364975e-01   -6,033810973e-01    0,000000000e+00    0,000000000e+00    0,000000000e+00    0,000000000e+00
      716000000   -2,796556568e-03   -9,191371500e-03   -2,184981257e-01   -5,751401782e-01    0,000000000e+00    0,000000000e+00    0,000000000e+00    0,000000000e+00
      730000000    9,755592793e-03   -3,406957909e-02   -5,093265772e-01   -3,333472610e-01    0,000000000e+00    0,000000000e+00    0,000000000e+00    0,000000000e+00
      744000000    1,739395037e-02   -6,082459539e-02   -6,011250019e-01    3,326364234e-02    0,000000000e+00    0,000000000e+00    0,000000000e+00    0,000000000e+00
      758000000    2,178362012e-02   -1,039165407e-01   -4,543813467e-01    3,773235381e-01    0,000000000e+00    0,000000000e+00    0,000000000e+00    0,000000000e+00
      772000000   -4,725582898e-03   -1,741370261e-01   -1,391065717e-01    5,577897429e-01    0,000000000e+00    0,000000000e+00    0,000000000e+00    0,000000000e+00
      786000000   -1,049092039e-01   -2,332104445e-01    2,108574361e-01    5,197311044e-01    0,000000000e+00    0,000000000e+00    0,000000000e+00    0,000000000e+00
      800000000   -2,651687860e-01   -1,925159395e-01    4,715073705e-01    2,757047117e-01    0,000000000e+00    0,000000000e+00    0,000000000e+00    0,000000000e+00
      814000000   -3,642191589e-01    4,099295475e-03    5,082529783e-01   -8,798342943e-02    0,000000000e+00    0,000000000e+00    0,000000000e+00    0,000000000e+00
      828000000   -2,483732253e-01    2,331604064e-01    2,818384171e-01   -3,528133333e-01    0,000000000e+00    0,000000000e+00    0,000000000e+00    0,000000000e+00
      842000000    1,228578761e-02    2,781644464e-01   -1,643348671e-02   -3,627872169e-01    0,000000000e+00    0,000000000e+00    0,000000000e+00    0,000000000e+00
      856000000    2,123683393e-01    1,147127450e-01   -1,879932582e-01   -2,050779015e-01    0,000000000e+00    0,000000000e+00    0,000000000e+00    0,000000000e+00
      870000000    2,387105525e-01   -1,483257264e-01   -2,006054074e-01   -2,601911314e-02    0,000000000e+00    0,000000000e+00    0,000000000e+00    0,000000000e+00
      884000000    3,827016056e-02   -3,874806762e-01   -1,033179313e-01    7,068151236e-02    0,000000000e+00    0,000000000e+00    0,000000000e+00    0,000000000e+00
      898000000   -3,690855503e-01   -3,428568840e-01   -1,656274311e-02    2,735497989e-02    0,000000000e+00    0,000000000e+00    0,000000000e+00    0,000000000e+00
      912000000   -4,679037631e-01    1,381977499e-01   -1,046011224e-01    3,103919514e-02    0,000000000e+00    0,000000000e+00    0,000000000e+00    0,000000000e+00
      926000000   -9,392011911e-02    3,523802757e-01   -1,274865717e-01    1,351089031e-01    0,000000000e+00    0,000000000e+00    0,000000000e+00    0,000000000e+00
      940000000    1,860575527e-01    1,949960589e-01   -3,762271628e-02    2,173547298e-01    0,000000000e+00    0,000000000e+00    0,000000000e+00    0,000000000e+00
      954000000    2,559813261e-01   -4,996355623e-02    7,913672179e-02    2,277082801e-01    0,000000000e+00    0,000000000e+00    0,000000000e+00    0,000000000e+00
      968000000    1,733250320e-01   -2,631243467e-01    1,916249543e-01    1,816398203e-01    0,000000000e+00    0,000000000e+00    0,000000000e+00    0,000000000e+00
      982000000   -1,694050990e-02   -3,915752470e-01    2,811928391e-01    7,995931804e-02    0,000000000e+00    0,000000000e+00    0,000000000e+00    0,000000000e+00
      996000000   -2,766048312e-01   -3,750859499e-01    3,089130223e-01   -7,957093418e-02    0,000000000e+00    0,000000000e+00    0,000000000e+00    0,000000000e+00
     1010000000   -4,658657312e-01   -1,716372073e-01    2,203057408e-01   -2,543407381e-01    0,000000000e+00    0,000000000e+00    0,000000000e+00    0,000000000e+00
     1024000000   -4,595448077e-01    1,127564386e-01    2,075514197e-02   -3,296040595e-01    0,000000000e+00    0,000000000e+00    0,000000000e+00    0,000000000e+00
     1038000000   -2,628313303e-01    2,968467772e-01   -1,728800088e-01   -2,481653690e-01    0,000000000e+00    0,000000000e+00    0,000000000e+00    0,000000000e+00
     1052000000   -4,132905230e-02    3,064656854e-01   -2,565103769e-01   -7,525799423e-02    0,000000000e+00    0,000000000e+00    0,000000000e+00    0,000000000e+00
     1066000000    1,269648373e-01    2,024044096e-01   -2,242896259e-01    8,633791655e-02    0,000000000e+00    0,000000000e+00    0,000000000e+00    0,000000000e+00
     1080000000    2,062076628e-01    4,921398684e-02   -1,207569689e-01    1,916934401e-01    0,000000000e+00    0,000000000e+00    0,000000000e+00    0,000000000e+00
     1094000000    1,999876648e-01   -1,281133890e-01    1,782701164e-02    2,343283594e-01    0,000000000e+00    0,000000000e+00    0,000000000e+00    0,000000000e+00
     1108000000    9,971930832e-02   -2,899676263e-01    1,693863720e-01    2,068700045e-01    0,000000000e+00    0,000000000e+00    0,000000000e+00    0,000000000e+00
     1122000000   -1,027417034e-01   -3,677119017e-01    3,179810941e-01    8,943067491e-02    0,000000000e+00    0,000000000e+00    0,000000000e+00    0,000000000e+00
     1136000000   -3,492190540e-01   -2,680398822e-01    3,922921717e-01   -1,507342309e-01    0,000000000e+00    0,000000000e+00    0,000000000e+00    0,000000000e+00
     1150000000   -4,029771090e-01    3,966405988e-02    2,437196970e-01   -4,342148602e-01    0,000000000e+00    0,000000000e+00    0,000000000e+00    0,000000000e+00
     1164000000   -1,593223512e-01    2,141832411e-01   -9,500209242e-02   -5,137772560e-01    0,000000000e+00    0,000000000e+00    0,000000000e+00    0,000000000e+00
     1178000000    7,592524588e-02    8,217720687e-02   -3,593928814e-01   -3,474415541e-01    0,000000000e+00    0,000000000e+00    0,000000000e+00    0,000000000e+00
     1192000000    7,266340405e-02   -1,743023247e-01   -4,557589591e-01   -8,283466101e-02    0,000000000e+00    0,000000000e+00    0,000000000e+00    0,000000000e+00
     1206000000   -1,651999503e-01   -3,269889653e-01   -3,705451488e-01    1,889573634e-01    0,000000000e+00    0,000000000e+00    0,000000000e+00    0,000000000e+00
     1220000000   -4,535901248e-01   -1,789960563e-01   -1,049637347e-01    3,266746104e-01    0,000000000e+00    0,000000000e+00    0,000000000e+00    0,000000000e+00
     1234000000   -4,683091640e-01    1,663350463e-01    1,421685219e-01    2,256124467e-01    0,000000000e+00    0,000000000e+00    0,000000000e+00    0,000000000e+00
     1248000000   -2,401908189e-01    3,515042365e-01    1,876416057e-01    3,517462686e-02    0,000000000e+00    0,000000000e+00    0,000000000e+00    0,000000000e+00
     1262000000    2,440671902e-03    3,355187774e-01    1,287091970e-01   -7,152842730e-02    0,000000000e+00    0,000000000e+00    0,000000000e+00    0,000000000e+00
     1276000000    1,581332237e-01    1,979974508e-01    5,431900546e-02   -9,363369644e-02    0,000000000e+00    0,000000000e+00    0,000000000e+00    0,000000000e+00
     1290000000    2,173564583e-01    3,069694526e-02    2,931219758e-03   -7,586544007e-02    0,000000000e+00    0,000000000e+00    0,000000000e+00    0,000000000e+00
     1304000000    2,028728276e-01   -1,428391486e-01   -1,741536148e-02   -2,797698788e-02    0,000000000e+00    0,000000000e+00    0,000000000e+00    0,000000000e+00
     1318000000    1,154147312e-01   -3,157671690e-01   -3,468890442e-03    1,771798171e-02    0,000000000e+00    0,000000000e+00    0,000000000e+00    0,000000000e+00
     1332000000   -6,839869171e-02   -4,342828393e-01    4,521245137e-02    6,499155611e-02    0,000000000e+00    0,000000000e+00    0,000000000e+00    0,000000000e+00
     1346000000   -3,257925808e-01   -4,384825230e-01    1,434422284e-01    4,658991098e-02    0,000000000e+00    0,000000000e+00    0,000000000e+00    0,000000000e+00
     1360000000   -5,644900203e-01   -2,399958372e-01    1,129202247e-01   -7,381720096e-02    0,000000000e+00    0,000000000e+00    0,000000000e+00    0,000000000e+00
     1374000000   -6,304419637e-01    3,067334369e-02    1,008136719e-01    5,817581713e-02    0,000000000e+00    0,000000000e+00    0,000000000e+00    0,000000000e+00
     1388000000   -5,227093697e-01    2,972298563e-01    2,163279504e-01    5,367037375e-03    0,000000000e+00    0,000000000e+00    0,000000000e+00    0,000000000e+00
     1402000000   -3,008076847e-01    4,182765186e-01    2,331956625e-01   -7,968834788e-02    0,000000000e+00    0,000000000e+00    0,000000000e+00    0,000000000e+00
     1416000000   -9,757277369e-02    4,232171774e-01    1,903774291e-01   -1,091146395e-01    0,000000000e+00    0,000000000e+00    0,000000000e+00    0,000000000e+00
     1430000000    7,744980603e-02    3,336301148e-01    1,911079139e-01   -9,419088811e-02    0,000000000e+00    0,000000000e+00    0,000000000e+00    0,000000000e+00
     1444000000    1,737673283e-01    2,012676597e-01    1,524226218e-01   -9,561217576e-02    0,000000000e+00    0,000000000e+00    0,000000000e+00    0,000000000e+00
     1458000000    2,259284556e-01    3,362816572e-02    1,504955590e-01   -6,974984705e-02    0,000000000e+00    0,000000000e+00    0,000000000e+00    0,000000000e+00
     1472000000    2,050714195e-01   -1,420847178e-01    1,619416773e-01   -5,420335382e-02    0,000000000e+00    0,000000000e+00    0,000000000e+00    0,000000000e+00
     1486000000    1,073835269e-01   -3,216503263e-01    1,722456515e-01    9,216053411e-03    0,000000000e+00    0,000000000e+00    0,000000000e+00    0,000000000e+00
     1500000000   -9,548935294e-02   -4,566103816e-01    2,080442756e-01    6,528560817e-02    0,000000000e+00    0,000000000e+00    0,000000000e+00    0,000000000e+00
