! NanoVNA-App
! Date: 2025-09-25 14:21:12
! Start: 100MHz Stop: 1,5GHz Points: 101
! S-Parameter data: F S11 S21 S12 S22
# Hz S RI R 50
!     Frequency           S11_Real           S11_Imag           S21_Real           S21_Imag           S12_Real           S12_Imag           S22_Real           S22_Imag
      100000000   -2,909760363e-02   -4,158596508e-03    3,743954599e-01   -7,220454216e-01    0,000000000e+00    0,000000000e+00    0,000000000e+00    0,000000000e+00
      114000000   -1,661661640e-02    1,162119024e-02   -8,908607066e-02   -8,058724999e-01    0,000000000e+00    0,000000000e+00    0,000000000e+00    0,000000000e+00
      128000000    3,394870786e-03    1,059759129e-02   -5,146271586e-01   -6,209307909e-01    0,000000000e+00    0,000000000e+00    0,000000000e+00    0,000000000e+00
      142000000    1,445725374e-02   -3,030925756e-03   -7,672698498e-01   -2,366264015e-01    0,000000000e+00    0,000000000e+00    0,000000000e+00    0,000000000e+00
      156000000    1,468133554e-02   -1,499636192e-02   -7,660033107e-01    2,213250101e-01    0,000000000e+00    0,000000000e+00    0,000000000e+00    0,000000000e+00
      170000000    1,659576595e-02   -2,257557772e-02   -5,186209679e-01    6,051623225e-01    0,000000000e+00    0,000000000e+00    0,000000000e+00    0,000000000e+00
      184000000    2,098155394e-02   -3,707396239e-02   -1,016562060e-01    7,867900729e-01    0,000000000e+00    0,000000000e+00    0,000000000e+00    0,000000000e+00
      198000000    1,298634708e-02   -6,259183586e-02    3,430987298e-01    7,130715251e-01    0,000000000e+00    0,000000000e+00    0,000000000e+00    0,000000000e+00
      212000000   -1,877253316e-02   -8,165638894e-02    6,782402396e-01    4,105243683e-01    0,000000000e+00    0,000000000e+00    0,000000000e+00    0,000000000e+00
      226000000   -6,200559810e-02   -6,966765225e-02    7,960108519e-01   -2,980480716e-02    0,000000000e+00    0,000000000e+00    0,000000000e+00    0,000000000e+00
      240000000   -8,312276006e-02   -2,604088560e-02    6,468516588e-01   -4,665380120e-01    0,000000000e+00    0,000000000e+00    0,000000000e+00    0,000000000e+00
      254000000   -6,427428126e-02    1,733366400e-02    2,770926058e-01   -7,434992790e-01    0,000000000e+00    0,000000000e+00    0,000000000e+00    0,000000000e+00
      268000000   -2,427004464e-02    2,952305414e-02   -1,770877838e-01   -7,650707364e-01    0,000000000e+00    0,000000000e+00    0,000000000e+00    0,000000000e+00
      282000000    4,074718803e-03    1,217020489e-02   -5,620783567e-01   -5,368039012e-01    0,000000000e+00    0,000000000e+00    0,000000000e+00    0,000000000e+00
      296000000    9,556462988e-03   -7,581654936e-03   -7,608255148e-01   -1,395903677e-01    0,000000000e+00    0,000000000e+00    0,000000000e+00    0,000000000e+00
      310000000    1,110931672e-02   -1,605070941e-02   -7,127805948e-01    2,966831625e-01    0,000000000e+00    0,000000000e+00    0,000000000e+00    0,000000000e+00
      324000000    1,949079148e-02   -2,652992494e-02   -4,288182259e-01    6,377402544e-01    0,000000000e+00    0,000000000e+00    0,000000000e+00    0,000000000e+00
      338000000    2,557165362e-02   -5,216803774e-02   -1,011516061e-02    7,629449964e-01    0,000000000e+00    0,000000000e+00    0,000000000e+00    0,000000000e+00
      352000000    7,445923518e-03   -8,464208990e-02    4,050826728e-01    6,415436268e-01    0,000000000e+00    0,000000000e+00    0,000000000e+00    0,000000000e+00
      366000000   -3,487298265e-02   -9,599083662e-02    6,906943321e-01    3,128715456e-01    0,000000000e+00    0,000000000e+00    0,000000000e+00    0,000000000e+00
      380000000   -7,136803865e-02   -7,103373110e-02    7,481935620e-01   -1,240344048e-01    0,000000000e+00    0,000000000e+00    0,000000000e+00    0,000000000e+00
      394000000   -7,317921519e-02   -3,234959394e-02    5,478364825e-01   -5,202074051e-01    0,000000000e+00    0,000000000e+00    0,000000000e+00    0,000000000e+00
      408000000   -4,706911370e-02   -1,560871582e-02    1,626367569e-01   -7,316859365e-01    0,000000000e+00    0,000000000e+00    0,000000000e+00    0,000000000e+00
      422000000   -2,809368260e-02   -3,167520463e-02   -2,651089430e-01   -6,954485178e-01    0,000000000e+00    0,000000000e+00    0,000000000e+00    0,000000000e+00
      436000000   -4,002326354e-02   -5,176865309e-02   -6,027167439e-01   -4,340212941e-01    0,000000000e+00    0,000000000e+00    0,000000000e+00    0,000000000e+00
      450000000   -6,759294122e-02   -4,494529217e-02   -7,400031090e-01   -2,534608915e-02    0,000000000e+00    0,000000000e+00    0,000000000e+00    0,000000000e+00
      464000000   -7,463762164e-02   -1,230477449e-02   -6,215553880e-01    3,947058916e-01    0,000000000e+00    0,000000000e+00    0,000000000e+00    0,000000000e+00
      478000000   -4,936194420e-02    1,174287405e-02   -2,864835858e-01    6,676453948e-01    0,000000000e+00    0,000000000e+00    0,000000000e+00    0,000000000e+00
      492000000   -1,686711423e-02    6,465320475e-03    1,338166147e-01    7,039758563e-01    0,000000000e+00    0,000000000e+00    0,000000000e+00    0,000000000e+00
      506000000   -3,442347050e-03   -1,538211666e-02    4,974707365e-01    5,059412122e-01    0,000000000e+00    0,000000000e+00    0,000000000e+00    0,000000000e+00
      520000000   -5,909335800e-03   -2,943699062e-02    6,879686117e-01    1,456143409e-01    0,000000000e+00    0,000000000e+00    0,000000000e+00    0,000000000e+00
      534000000   -3,565047868e-03   -3,581911325e-02    6,444042921e-01   -2,600158453e-01    0,000000000e+00    0,000000000e+00    0,000000000e+00    0,000000000e+00
      548000000    8,154430427e-03   -5,289633200e-02    3,848133683e-01   -5,638386011e-01    0,000000000e+00    0,000000000e+00    0,000000000e+00    0,000000000e+00
      562000000    5,771302152e-03   -8,956936002e-02    9,000736289e-03   -6,713731289e-01    0,000000000e+00    0,000000000e+00    0,000000000e+00    0,000000000e+00
      576000000   -3,112024069e-02   -1,259165704e-01   -3,632722497e-01   -5,601636171e-01    0,000000000e+00    0,000000000e+00    0,000000000e+00    0,000000000e+00
      590000000   -9,497923404e-02   -1,278126240e-01   -6,181296110e-01   -2,714710534e-01    0,000000000e+00    0,000000000e+00    0,000000000e+00    0,000000000e+00
      604000000   -1,426520050e-01   -7,776964456e-02   -6,669068336e-01    1,265228093e-01    0,000000000e+00    0,000000000e+00    0,000000000e+00    0,000000000e+00
      618000000   -1,376833618e-01   -1,147762686e-02   -4,752423465e-01    4,861356914e-01    0,000000000e+00    0,000000000e+00    0,000000000e+00    0,000000000e+00
      632000000   -9,358660877e-02    2,139295638e-02   -1,146172285e-01    6,628937721e-01    0,000000000e+00    0,000000000e+00    0,000000000e+00    0,000000000e+00
      646000000   -5,528163537e-02    1,131916791e-02    2,743030190e-01    6,036508083e-01    0,000000000e+00    0,000000000e+00    0,000000000e+00    0,000000000e+00
      660000000   -4,857176542e-02   -8,410813287e-03    5,584183335e-01    3,402720690e-01    0,000000000e+00    0,000000000e+00    0,000000000e+00    0,000000000e+00
      674000000   -5,626529083e-02   -1,080848649e-02    6,445208788e-01   -3,968873993e-02    0,000000000e+00    0,000000000e+00    0,000000000e+00    0,000000000e+00
      688000000   -5,059548095e-02    2,657990437e-03    4,927354157e-01   -4,020720720e-01    0,000000000e+00    0,000000000e+00    0,000000000e+00    0,000000000e+00
      702000000   -2,586333454e-02    7,917198353e-03    1,651102155e-01   -6,001660824e-01    0,000000000e+00    0,000000000e+00    0,000000000e+00    0,000000000e+00
      716000000   -1,951521263e-03   -9,669061750e-03   -2,185057700e-01   -5,754997134e-01    0,000000000e+00    0,000000000e+00    0,000000000e+00    0,000000000e+00
      730000000    9,083169512e-03   -3,440028057e-02   -5,094665289e-01   -3,328412771e-01    0,000000000e+00    0,000000000e+00    0,000000000e+00    0,000000000e+00
      744000000    1,693280041e-02   -6,043466181e-02   -6,007978320e-01    3,314938024e-02    0,000000000e+00    0,000000000e+00    0,000000000e+00    0,000000000e+00
      758000000    2,214452066e-02   -1,030163169e-01   -4,542780221e-01    3,774826229e-01    0,000000000e+00    0,000000000e+00    0,000000000e+00    0,000000000e+00
      772000000   -4,298463464e-03   -1,737225801e-01   -1,391763836e-01    5,582006574e-01    0,000000000e+00    0,000000000e+00    0,000000000e+00    0,000000000e+00
      786000000   -1,053216681e-01   -2,326240391e-01    2,110561728e-01    5,199793577e-01    0,000000000e+00    0,000000000e+00    0,000000000e+00    0,000000000e+00
      800000000   -2,659710050e-01   -1,916816086e-01    4,716477990e-01    2,739802301e-01    0,000000000e+00    0,000000000e+00    0,000000000e+00    0,000000000e+00
      814000000   -3,648518324e-01    3,691001795e-03    5,078177452e-01   -8,868337423e-02    0,000000000e+00    0,000000000e+00    0,000000000e+00    0,000000000e+00
      828000000   -2,478472888e-01    2,329273522e-01    2,817915976e-01   -3,525067866e-01    0,000000000e+00    0,000000000e+00    0,000000000e+00    0,000000000e+00
      842000000    1,222399808e-02    2,774382234e-01   -1,602922380e-02   -3,627392054e-01    0,000000000e+00    0,000000000e+00    0,000000000e+00    0,000000000e+00
      856000000    2,123941779e-01    1,155456007e-01   -1,875150055e-01   -2,041450143e-01    0,000000000e+00    0,000000000e+00    0,000000000e+00    0,000000000e+00
      870000000    2,391193807e-01   -1,486738175e-01   -2,000520378e-01   -2,534729615e-02    0,000000000e+00    0,000000000e+00    0,000000000e+00    0,000000000e+00
      884000000    3,753590956e-02   -3,866434693e-01   -1,037077531e-01    7,069890946e-02    0,000000000e+00    0,000000000e+00    0,000000000e+00    0,000000000e+00
      898000000   -3,682915568e-01   -3,406302631e-01   -1,606025919e-02    2,700245567e-02    0,000000000e+00    0,000000000e+00    0,000000000e+00    0,000000000e+00
      912000000   -4,668865204e-01    1,379719228e-01   -1,218889430e-01    3,729097173e-02    0,000000000e+00    0,000000000e+00    0,000000000e+00    0,000000000e+00
      926000000   -9,403403103e-02    3,520773649e-01   -1,269136220e-01    1,356011182e-01    0,000000000e+00    0,000000000e+00    0,000000000e+00    0,000000000e+00
      940000000    1,843227744e-01    1,958356202e-01   -3,800838441e-02    2,154875696e-01    0,000000000e+00    0,000000000e+00    0,000000000e+00    0,000000000e+00
      954000000    2,570094466e-01   -4,950452223e-02    8,108053356e-02    2,276100665e-01    0,000000000e+00    0,000000000e+00    0,000000000e+00    0,000000000e+00
      968000000    1,780793965e-01   -2,615777850e-01    1,921965629e-01    1,789345592e-01    0,000000000e+00    0,000000000e+00    0,000000000e+00    0,000000000e+00
      982000000   -1,738216169e-02   -3,913926184e-01    2,803085446e-01    7,902021706e-02    0,000000000e+00    0,000000000e+00    0,000000000e+00    0,000000000e+00
      996000000   -2,753076255e-01   -3,728185892e-01    3,095251024e-01   -7,964804024e-02    0,000000000e+00    0,000000000e+00    0,000000000e+00    0,000000000e+00
     1010000000   -4,666964412e-01   -1,720167100e-01    2,213341445e-01   -2,543834448e-01    0,000000000e+00    0,000000000e+00    0,000000000e+00    0,000000000e+00
     1024000000   -4,570218325e-01    1,187920272e-01    2,150175907e-02   -3,291815817e-01    0,000000000e+00    0,000000000e+00    0,000000000e+00    0,000000000e+00
     1038000000   -2,643072605e-01    3,023995757e-01   -1,732011884e-01   -2,487206459e-01    0,000000000e+00    0,000000000e+00    0,000000000e+00    0,000000000e+00
     1052000000   -3,721737862e-02    3,107554913e-01   -2,588417530e-01   -7,869673520e-02    0,000000000e+00    0,000000000e+00    0,000000000e+00    0,000000000e+00
     1066000000    1,288631558e-01    2,036341876e-01   -2,268156707e-01    8,787931502e-02    0,000000000e+00    0,000000000e+00    0,000000000e+00    0,000000000e+00
     1080000000    2,091285586e-01    5,002095923e-02   -1,199384928e-01    1,943527758e-01    0,000000000e+00    0,000000000e+00    0,000000000e+00    0,000000000e+00
     1094000000    2,038299590e-01   -1,298425496e-01    1,700372249e-02    2,346671969e-01    0,000000000e+00    0,000000000e+00    0,000000000e+00    0,000000000e+00
     1108000000    1,026596501e-01   -2,855854928e-01    1,691771746e-01    2,060436755e-01    0,000000000e+00    0,000000000e+00    0,000000000e+00    0,000000000e+00
     1122000000   -1,006865203e-01   -3,720367253e-01    3,167894781e-01    8,920222521e-02    0,000000000e+00    0,000000000e+00    0,000000000e+00    0,000000000e+00
     1136000000   -3,473204374e-01   -2,633500695e-01    3,916124403e-01   -1,519229263e-01    0,000000000e+00    0,000000000e+00    0,000000000e+00    0,000000000e+00
     1150000000   -4,035259783e-01    3,645125031e-02    2,436099052e-01   -4,370560944e-01    0,000000000e+00    0,000000000e+00    0,000000000e+00    0,000000000e+00
     1164000000   -1,589645296e-01    2,218883187e-01   -9,678119421e-02   -5,133270025e-01    0,000000000e+00    0,000000000e+00    0,000000000e+00    0,000000000e+00
     1178000000    7,381711155e-02    8,677297831e-02   -3,584460914e-01   -3,461145461e-01    0,000000000e+00    0,000000000e+00    0,000000000e+00    0,000000000e+00
     1192000000    7,650336623e-02   -1,761188209e-01   -4,509132206e-01   -8,515144140e-02    0,000000000e+00    0,000000000e+00    0,000000000e+00    0,000000000e+00
     1206000000   -1,618485898e-01   -3,230923116e-01   -3,682373464e-01    1,888599247e-01    0,000000000e+00    0,000000000e+00    0,000000000e+00    0,000000000e+00
     1220000000   -4,537352920e-01   -1,838036925e-01   -1,071321890e-01    3,260387778e-01    0,000000000e+00    0,000000000e+00    0,000000000e+00    0,000000000e+00
     1234000000   -4,732414186e-01    1,631862670e-01    1,330948025e-01    2,211956680e-01    0,000000000e+00    0,000000000e+00    0,000000000e+00    0,000000000e+00
     1248000000   -2,431206405e-01    3,523779809e-01    1,910663247e-01    3,735203668e-02    0,000000000e+00    0,000000000e+00    0,000000000e+00    0,000000000e+00
     1262000000    1,950250240e-03    3,269985318e-01    1,270250827e-01   -7,150694728e-02    0,000000000e+00    0,000000000e+00    0,000000000e+00    0,000000000e+00
     1276000000    1,521251500e-01    2,034310251e-01    5,232561007e-02   -9,647084773e-02    0,000000000e+00    0,000000000e+00    0,000000000e+00    0,000000000e+00
     1290000000    2,149566114e-01    3,121131845e-02   -8,140913560e-04   -7,067479193e-02    0,000000000e+00    0,000000000e+00    0,000000000e+00    0,000000000e+00
     1304000000    2,074603587e-01   -1,437698156e-01   -1,998665743e-02   -2,799209021e-02    0,000000000e+00    0,000000000e+00    0,000000000e+00    0,000000000e+00
     1318000000    1,173721924e-01   -3,146377504e-01   -4,368811846e-03    1,965189353e-02    0,000000000e+00    0,000000000e+00    0,000000000e+00    0,000000000e+00
     1332000000   -7,104245573e-02   -4,315860271e-01    4,142157733e-02    6,340118498e-02    0,000000000e+00    0,000000000e+00    0,000000000e+00    0,000000000e+00
     1346000000   -3,261756003e-01   -4,384565949e-01    1,441018134e-01    3,701393306e-02    0,000000000e+00    0,000000000e+00    0,000000000e+00    0,000000000e+00
     1360000000   -5,517419577e-01   -2,518364787e-01    1,180625111e-01   -8,271867782e-02    0,000000000e+00    0,000000000e+00    0,000000000e+00    0,000000000e+00
     1374000000   -6,156092882e-01    2,754765376e-02    1,130433306e-01    5,670306459e-02    0,000000000e+00    0,000000000e+00    0,000000000e+00    0,000000000e+00
     1388000000   -5,172960758e-01    2,808063030e-01    2,146265060e-01   -5,175781902e-03    0,000000000e+00    0,000000000e+00    0,000000000e+00    0,000000000e+00
     1402000000   -3,066331148e-01    4,206184447e-01    2,210686654e-01   -7,138051093e-02    0,000000000e+00    0,000000000e+00    0,000000000e+00    0,000000000e+00
     1416000000   -9,665450454e-02    4,193128347e-01    1,878699809e-01   -1,184136495e-01    0,000000000e+00    0,000000000e+00    0,000000000e+00    0,000000000e+00
     1430000000    6,634865701e-02    3,356872201e-01    1,564322859e-01   -1,237182245e-01    0,000000000e+00    0,000000000e+00    0,000000000e+00    0,000000000e+00
     1444000000    1,724841595e-01    2,039432377e-01    1,486572027e-01   -9,925331920e-02    0,000000000e+00    0,000000000e+00    0,000000000e+00    0,000000000e+00
     1458000000    2,235843986e-01    3,978483006e-02    1,512642205e-01   -6,960918754e-02    0,000000000e+00    0,000000000e+00    0,000000000e+00    0,000000000e+00
     1472000000    2,035306543e-01   -1,501211226e-01    1,600962132e-01   -6,276741624e-02    0,000000000e+00    0,000000000e+00    0,000000000e+00    0,000000000e+00
     1486000000    1,063634381e-01   -3,209691942e-01    1,603529304e-01   -5,101480521e-03    0,000000000e+00    0,000000000e+00    0,000000000e+00    0,000000000e+00
     1500000000   -9,307256341e-02   -4,581622779e-01    2,044891119e-01    6,415030360e-02    0,000000000e+00    0,000000000e+00    0,000000000e+00    0,000000000e+00
