! NanoVNA-App
! Date: 2025-09-25 14:22:44
! Start: 100MHz Stop: 1,5GHz Points: 101
! S-Parameter data: F S11 S21 S12 S22
# Hz S RI R 50
!     Frequency           S11_Real           S11_Imag           S21_Real           S21_Imag           S12_Real           S12_Imag           S22_Real           S22_Imag
      100000000   -2,909398265e-02   -4,147455562e-03    3,744083047e-01   -7,220330834e-01    0,000000000e+00    0,000000000e+00    0,000000000e+00    0,000000000e+00
      114000000   -1,661935262e-02    1,160920411e-02   -8,888123184e-02   -8,056914806e-01    0,000000000e+00    0,000000000e+00    0,000000000e+00    0,000000000e+00
      128000000    3,411348909e-03    1,056391466e-02   -5,145047307e-01   -6,207786798e-01    0,000000000e+00    0,000000000e+00    0,000000000e+00    0,000000000e+00
      142000000    1,446041185e-02   -3,046655562e-03   -7,674975395e-01   -2,369410843e-01    0,000000000e+00    0,000000000e+00    0,000000000e+00    0,000000000e+00
      156000000    1,444503106e-02   -1,499786880e-02   -7,652994990e-01    2,181970030e-01    0,000000000e+00    0,000000000e+00    0,000000000e+00    0,000000000e+00
      170000000    1,656485163e-02   -2,256077528e-02   -5,185769796e-01    6,050062776e-01    0,000000000e+00    0,000000000e+00    0,000000000e+00    0,000000000e+00
      184000000    2,096916176e-02   -3,710649908e-02   -1,016836241e-01    7,862579823e-01    0,000000000e+00    0,000000000e+00    0,000000000e+00    0,000000000e+00
      198000000    1,306595281e-02   -6,257570535e-02    3,430778086e-01    7,129539251e-01    0,000000000e+00    0,000000000e+00    0,000000000e+00    0,000000000e+00
      212000000   -1,867346093e-02   -8,166699857e-02    6,784400940e-01    4,108383358e-01    0,000000000e+00    0,000000000e+00    0,000000000e+00    0,000000000e+00
      226000000   -6,197373196e-02   -6,971789151e-02    7,959787846e-01   -2,978255227e-02    0,000000000e+00    0,000000000e+00    0,000000000e+00    0,000000000e+00
      240000000   -8,317574114e-02   -2,611145005e-02    6,472069621e-01   -4,661554098e-01    0,000000000e+00    0,000000000e+00    0,000000000e+00    0,000000000e+00
      254000000   -6,440159678e-02    1,722033881e-02    2,771293521e-01   -7,436840534e-01    0,000000000e+00    0,000000000e+00    0,000000000e+00    0,000000000e+00
      268000000   -2,433342859e-02    2,953252383e-02   -1,773852706e-01   -7,650261521e-01    0,000000000e+00    0,000000000e+00    0,000000000e+00    0,000000000e+00
      282000000    4,211875144e-03    1,206188649e-02   -5,623254776e-01   -5,370239019e-01    0,000000000e+00    0,000000000e+00    0,000000000e+00    0,000000000e+00
      296000000    9,606766514e-03   -7,703159004e-03   -7,608210444e-01   -1,396220177e-01    0,000000000e+00    0,000000000e+00    0,000000000e+00    0,000000000e+00
      310000000    1,105699688e-02   -1,609065011e-02   -7,128261328e-01    2,966947258e-01    0,000000000e+00    0,000000000e+00    0,000000000e+00    0,000000000e+00
      324000000    1,953658648e-02   -2,655044571e-02   -4,281645119e-01    6,375574470e-01    0,000000000e+00    0,000000000e+00    0,000000000e+00    0,000000000e+00
      338000000    2,560213581e-02   -5,207252130e-02   -8,470900357e-03    7,628082633e-01    0,000000000e+00    0,000000000e+00    0,000000000e+00    0,000000000e+00
      352000000    7,302004844e-03   -8,472763747e-02    4,052434564e-01    6,405699849e-01    0,000000000e+00    0,000000000e+00    0,000000000e+00    0,000000000e+00
      366000000   -3,493108228e-02   -9,594435245e-02    6,907564998e-01    3,128378391e-01    0,000000000e+00    0,000000000e+00    0,000000000e+00    0,000000000e+00
      380000000   -7,170321047e-02   -7,103119791e-02    7,479428649e-01   -1,248120591e-01    0,000000000e+00    0,000000000e+00    0,000000000e+00    0,000000000e+00
      394000000   -7,340898365e-02   -3,266537562e-02    5,471087098e-01   -5,218876600e-01    0,000000000e+00    0,000000000e+00    0,000000000e+00    0,000000000e+00
      408000000   -4,672257602e-02   -1,525458507e-02    1,630958617e-01   -7,309544086e-01    0,000000000e+00    0,000000000e+00    0,000000000e+00    0,000000000e+00
      422000000   -2,811979502e-02   -3,171888739e-02   -2,653525472e-01   -6,961219907e-01    0,000000000e+00    0,000000000e+00    0,000000000e+00    0,000000000e+00
      436000000   -3,990418836e-02   -5,209954455e-02   -6,020737290e-01   -4,341823161e-01    0,000000000e+00    0,000000000e+00    0,000000000e+00    0,000000000e+00
      450000000   -6,797017902e-02   -4,483586922e-02   -7,405338287e-01   -2,523271367e-02    0,000000000e+00    0,000000000e+00    0,000000000e+00    0,000000000e+00
      464000000   -7,435078919e-02   -1,257442497e-02   -6,215272546e-01    3,947693110e-01    0,000000000e+00    0,000000000e+00    0,000000000e+00    0,000000000e+00
      478000000   -4,919106513e-02    1,181062870e-02   -2,867931128e-01    6,681830287e-01    0,000000000e+00    0,000000000e+00    0,000000000e+00    0,000000000e+00
      492000000   -1,704100706e-02    6,316445302e-03    1,337653995e-01    7,042016387e-01    0,000000000e+00    0,000000000e+00    0,000000000e+00    0,000000000e+00
      506000000   -3,925455268e-03   -1,504224073e-02    4,972923696e-01    5,058132410e-01    0,000000000e+00    0,000000000e+00    0,000000000e+00    0,000000000e+00
      520000000   -6,035691593e-03   -2,970614098e-02    6,889910698e-01    1,431866288e-01    0,000000000e+00    0,000000000e+00    0,000000000e+00    0,000000000e+00
      534000000   -3,589884844e-03   -3,569935262e-02    6,443731189e-01   -2,597077489e-01    0,000000000e+00    0,000000000e+00    0,000000000e+00    0,000000000e+00
      548000000    8,333082311e-03   -5,255462602e-02    3,846912682e-01   -5,649336576e-01    0,000000000e+00    0,000000000e+00    0,000000000e+00    0,000000000e+00
      562000000    5,897661671e-03   -8,932154626e-02    8,173705079e-03   -6,711296439e-01    0,000000000e+00    0,000000000e+00    0,000000000e+00    0,000000000e+00
      576000000   -3,110246919e-02   -1,263049543e-01   -3,625402749e-01   -5,614488721e-01    0,000000000e+00    0,000000000e+00    0,000000000e+00    0,000000000e+00
      590000000   -9,487334639e-02   -1,276496202e-01   -6,183438301e-01   -2,716147602e-01    0,000000000e+00    0,000000000e+00    0,000000000e+00    0,000000000e+00
      604000000   -1,433766037e-01   -7,836496085e-02   -6,672716141e-01    1,259172708e-01    0,000000000e+00    0,000000000e+00    0,000000000e+00    0,000000000e+00
      618000000   -1,380219609e-01   -1,186642423e-02   -4,753924906e-01    4,854395092e-01    0,000000000e+00    0,000000000e+00    0,000000000e+00    0,000000000e+00
      632000000   -9,277969599e-02    2,149778418e-02   -1,129698977e-01    6,632629633e-01    0,000000000e+00    0,000000000e+00    0,000000000e+00    0,000000000e+00
      646000000   -5,560008809e-02    1,146184374e-02    2,736360431e-01    6,037505865e-01    0,000000000e+00    0,000000000e+00    0,000000000e+00    0,000000000e+00
      660000000   -4,837199673e-02   -8,534246124e-03    5,573798418e-01    3,397541642e-01    0,000000000e+00    0,000000000e+00    0,000000000e+00    0,000000000e+00
      674000000   -5,645558238e-02   -1,071731653e-02    6,442143917e-01   -3,975043073e-02    0,000000000e+00    0,000000000e+00    0,000000000e+00    0,000000000e+00
      688000000   -4,979225621e-02    3,475489561e-03    4,929767549e-01   -4,014280140e-01    0,000000000e+00    0,000000000e+00    0,000000000e+00    0,000000000e+00
      702000000   -2,561155520e-02    7,281689905e-03    1,602689177e-01   -6,047781110e-01    0,000000000e+00    0,000000000e+00    0,000000000e+00    0,000000000e+00
      716000000   -2,252619946e-03   -8,342939429e-03   -2,178502530e-01   -5,748967528e-01    0,000000000e+00    0,000000000e+00    0,000000000e+00    0,000000000e+00
      730000000    9,066842496e-03   -3,429119289e-02   -5,095367432e-01   -3,330487907e-01    0,000000000e+00    0,000000000e+00    0,000000000e+00    0,000000000e+00
      744000000    1,720467024e-02   -6,075933203e-02   -6,007581353e-01    3,327995911e-02    0,000000000e+00    0,000000000e+00    0,000000000e+00    0,000000000e+00
      758000000    2,228998952e-02   -1,042202041e-01   -4,543998241e-01    3,773719072e-01    0,000000000e+00    0,000000000e+00    0,000000000e+00    0,000000000e+00
      772000000   -4,929040559e-03   -1,738624424e-01   -1,400126368e-01    5,580484271e-01    0,000000000e+00    0,000000000e+00    0,000000000e+00    0,000000000e+00
      786000000   -1,059082299e-01   -2,325335443e-01    2,117908150e-01    5,199787617e-01    0,000000000e+00    0,000000000e+00    0,000000000e+00    0,000000000e+00
      800000000   -2,663403749e-01   -1,933342516e-01    4,713323712e-01    2,752734423e-01    0,000000000e+00    0,000000000e+00    0,000000000e+00    0,000000000e+00
      814000000   -3,642706871e-01    2,668999834e-03    5,075569749e-01   -8,854654431e-02    0,000000000e+00    0,000000000e+00    0,000000000e+00    0,000000000e+00
      828000000   -2,482188344e-01    2,330285609e-01    2,819201946e-01   -3,526896834e-01    0,000000000e+00    0,000000000e+00    0,000000000e+00    0,000000000e+00
      842000000    1,316576824e-02    2,777738571e-01   -1,558141038e-02   -3,628546894e-01    0,000000000e+00    0,000000000e+00    0,000000000e+00    0,000000000e+00
      856000000    2,125192136e-01    1,156846136e-01   -1,881669611e-01   -2,049770653e-01    0,000000000e+00    0,000000000e+00    0,000000000e+00    0,000000000e+00
      870000000    2,390709966e-01   -1,485560089e-01   -2,001502365e-01   -2,543418109e-02    0,000000000e+00    0,000000000e+00    0,000000000e+00    0,000000000e+00
      884000000    3,871168569e-02   -3,865082264e-01   -1,033398956e-01    7,009368390e-02    0,000000000e+00    0,000000000e+00    0,000000000e+00    0,000000000e+00
      898000000   -3,696988523e-01   -3,416368067e-01   -1,669686846e-02    2,749419585e-02    0,000000000e+00    0,000000000e+00    0,000000000e+00    0,000000000e+00
      912000000   -4,670648873e-01    1,383315325e-01   -1,213214546e-01    3,964928538e-02    0,000000000e+00    0,000000000e+00    0,000000000e+00    0,000000000e+00
      926000000   -9,600051492e-02    3,498992324e-01   -1,293365359e-01    1,323766410e-01    0,000000000e+00    0,000000000e+00    0,000000000e+00    0,000000000e+00
      940000000    1,839566529e-01    1,936077178e-01   -3,858276457e-02    2,152477652e-01    0,000000000e+00    0,000000000e+00    0,000000000e+00    0,000000000e+00
      954000000    2,558925748e-01   -5,079560354e-02    8,164881915e-02    2,269577682e-01    0,000000000e+00    0,000000000e+00    0,000000000e+00    0,000000000e+00
      968000000    1,741817594e-01   -2,623544633e-01    1,911331862e-01    1,793704778e-01    0,000000000e+00    0,000000000e+00    0,000000000e+00    0,000000000e+00
      982000000   -1,725404896e-02   -3,913851678e-01    2,810667157e-01    7,975046337e-02    0,000000000e+00    0,000000000e+00    0,000000000e+00    0,000000000e+00
      996000000   -2,724181414e-01   -3,741697967e-01    3,111228049e-01   -7,977268845e-02    0,000000000e+00    0,000000000e+00    0,000000000e+00    0,000000000e+00
     1010000000   -4,721860290e-01   -1,702668071e-01    2,212754637e-01   -2,521760464e-01    0,000000000e+00    0,000000000e+00    0,000000000e+00    0,000000000e+00
     1024000000   -4,568339288e-01    1,162623093e-01    1,960754395e-02   -3,290541172e-01    0,000000000e+00    0,000000000e+00    0,000000000e+00    0,000000000e+00
     1038000000   -2,609260082e-01    3,012915552e-01   -1,746014357e-01   -2,477232963e-01    0,000000000e+00    0,000000000e+00    0,000000000e+00    0,000000000e+00
     1052000000   -3,855983168e-02    3,049173951e-01   -2,561735809e-01   -7,741041481e-02    0,000000000e+00    0,000000000e+00    0,000000000e+00    0,000000000e+00
     1066000000    1,258932054e-01    2,066777647e-01   -2,204295695e-01    8,283588290e-02    0,000000000e+00    0,000000000e+00    0,000000000e+00    0,000000000e+00
     1080000000    2,045312822e-01    4,934908450e-02   -1,203524470e-01    1,932373792e-01    0,000000000e+00    0,000000000e+00    0,000000000e+00    0,000000000e+00
     1094000000    1,989123970e-01   -1,299293786e-01    1,722883992e-02    2,340538502e-01    0,000000000e+00    0,000000000e+00    0,000000000e+00    0,000000000e+00
     1108000000    1,017967686e-01   -2,850189805e-01    1,695471853e-01    2,058846951e-01    0,000000000e+00    0,000000000e+00    0,000000000e+00    0,000000000e+00
     1122000000   -1,029489338e-01   -3,713346422e-01    3,185862899e-01    8,938778192e-02    0,000000000e+00    0,000000000e+00    0,000000000e+00    0,000000000e+00
     1136000000   -3,492725492e-01   -2,634403110e-01    3,896284997e-01   -1,517078131e-01    0,000000000e+00    0,000000000e+00    0,000000000e+00    0,000000000e+00
     1150000000   -4,140188694e-01    3,941893950e-02    2,414329648e-01   -4,370765984e-01    0,000000000e+00    0,000000000e+00    0,000000000e+00    0,000000000e+00
     1164000000   -1,622350663e-01    2,156464607e-01   -9,737227112e-02   -5,163053870e-01    0,000000000e+00    0,000000000e+00    0,000000000e+00    0,000000000e+00
     1178000000    7,629438490e-02    8,303492516e-02   -3,549920619e-01   -3,488424718e-01    0,000000000e+00    0,000000000e+00    0,000000000e+00    0,000000000e+00
     1192000000    7,833205163e-02   -1,742172241e-01   -4,508293569e-01   -8,258779347e-02    0,000000000e+00    0,000000000e+00    0,000000000e+00    0,000000000e+00
     1206000000   -1,627396196e-01   -3,270163238e-01   -3,691611290e-01    1,892201900e-01    0,000000000e+00    0,000000000e+00    0,000000000e+00    0,000000000e+00
     1220000000   -4,502723217e-01   -1,795479208e-01   -1,010884866e-01    3,253114522e-01    0,000000000e+00    0,000000000e+00    0,000000000e+00    0,000000000e+00
     1234000000   -4,682632685e-01    1,668921411e-01    1,400158405e-01    2,256696820e-01    0,000000000e+00    0,000000000e+00    0,000000000e+00    0,000000000e+00
     1248000000   -2,303786576e-01    3,516446650e-01    1,868774593e-01    3,541764617e-02    0,000000000e+00    0,000000000e+00    0,000000000e+00    0,000000000e+00
     1262000000   -2,719045151e-04    3,291712105e-01    1,224611029e-01   -7,489778847e-02    0,000000000e+00    0,000000000e+00    0,000000000e+00    0,000000000e+00
     1276000000    1,538305730e-01    2,021917105e-01    5,227289349e-02   -9,514386952e-02    0,000000000e+00    0,000000000e+00    0,000000000e+00    0,000000000e+00
     1290000000    2,137589455e-01    3,426465020e-02   -1,158877058e-04   -7,322758436e-02    0,000000000e+00    0,000000000e+00    0,000000000e+00    0,000000000e+00
     1304000000    2,048922479e-01   -1,468110830e-01   -1,552003063e-02   -2,797379531e-02    0,000000000e+00    0,000000000e+00    0,000000000e+00    0,000000000e+00
     1318000000    1,133607775e-01   -3,110068142e-01   -2,282187343e-03    2,251071669e-02    0,000000000e+00    0,000000000e+00    0,000000000e+00    0,000000000e+00
     1332000000   -6,505053490e-02   -4,312083125e-01    5,229541659e-02    6,123661995e-02    0,000000000e+00    0,000000000e+00    0,000000000e+00    0,000000000e+00
     1346000000   -3,243089318e-01   -4,304142296e-01    1,499796510e-01    4,975774512e-02    0,000000000e+00    0,000000000e+00    0,000000000e+00    0,000000000e+00
     1360000000   -5,541338921e-01   -2,500734031e-01    1,169777364e-01   -8,724968880e-02    0,000000000e+00    0,000000000e+00    0,000000000e+00    0,000000000e+00
     1374000000   -6,251427531e-01    3,633170575e-02    1,020281762e-01    6,538768113e-02    0,000000000e+00    0,000000000e+00    0,000000000e+00    0,000000000e+00
     1388000000   -5,167808533e-01    2,969989181e-01    2,145178169e-01    3,624206875e-03    0,000000000e+00    0,000000000e+00    0,000000000e+00    0,000000000e+00
     1402000000   -3,006518781e-01    4,302426875e-01    2,324971259e-01   -7,708550990e-02    0,000000000e+00    0,000000000e+00    0,000000000e+00    0,000000000e+00
     1416000000   -9,503591061e-02    4,154770076e-01    1,937638074e-01   -1,225898415e-01    0,000000000e+00    0,000000000e+00    0,000000000e+00    0,000000000e+00
     1430000000    7,690900564e-02    3,305411339e-01    1,403912157e-01   -1,167599112e-01    0,000000000e+00    0,000000000e+00    0,000000000e+00    0,000000000e+00
     1444000000    1,763473302e-01    2,015040219e-01    1,584409624e-01   -1,015407965e-01    0,000000000e+00    0,000000000e+00    0,000000000e+00    0,000000000e+00
     1458000000    2,242812812e-01    3,875634074e-02    1,563398242e-01   -7,358821481e-02    0,000000000e+00    0,000000000e+00    0,000000000e+00    0,000000000e+00
     1472000000    2,062764764e-01   -1,425190568e-01    1,431228518e-01   -4,271063209e-02    0,000000000e+00    0,000000000e+00    0,000000000e+00    0,000000000e+00
     1486000000    1,010843441e-01   -3,223873079e-01    1,693954617e-01   -4,112658557e-03    0,000000000e+00    0,000000000e+00    0,000000000e+00    0,000000000e+00
     1500000000   -8,777908981e-02   -4,623114765e-01    2,181308568e-01    4,776996002e-02    0,000000000e+00    0,000000000e+00    0,000000000e+00    0,000000000e+00
