! NanoVNA-App
! Date: 2025-09-25 14:22:28
! Start: 100MHz Stop: 1,5GHz Points: 101
! S-Parameter data: F S11 S21 S12 S22
# Hz S RI R 50
!     Frequency           S11_Real           S11_Imag           S21_Real           S21_Imag           S12_Real           S12_Imag           S22_Real           S22_Imag
      100000000   -2,908932790e-02   -4,138260148e-03    3,744574785e-01   -7,220582366e-01    0,000000000e+00    0,000000000e+00    0,000000000e+00    0,000000000e+00
      114000000   -1,660921797e-02    1,158502046e-02   -8,898656070e-02   -8,056756854e-01    0,000000000e+00    0,000000000e+00    0,000000000e+00    0,000000000e+00
      128000000    3,395518987e-03    1,058303751e-02   -5,146249533e-01   -6,209304333e-01    0,000000000e+00    0,000000000e+00    0,000000000e+00    0,000000000e+00
      142000000    1,446255483e-02   -3,042959375e-03   -7,675459981e-01   -2,369995117e-01    0,000000000e+00    0,000000000e+00    0,000000000e+00    0,000000000e+00
      156000000    1,464835834e-02   -1,502227597e-02   -7,660954595e-01    2,213776559e-01    0,000000000e+00    0,000000000e+00    0,000000000e+00    0,000000000e+00
      170000000    1,661325246e-02   -2,252578177e-02   -5,186146498e-01    6,050336361e-01    0,000000000e+00    0,000000000e+00    0,000000000e+00    0,000000000e+00
      184000000    2,092823759e-02   -3,707562760e-02   -1,019218490e-01    7,863699198e-01    0,000000000e+00    0,000000000e+00    0,000000000e+00    0,000000000e+00
      198000000    1,301615778e-02   -6,260706484e-02    3,430236876e-01    7,129476070e-01    0,000000000e+00    0,000000000e+00    0,000000000e+00    0,000000000e+00
      212000000   -1,871103980e-02   -8,161811531e-02    6,784414053e-01    4,104622304e-01    0,000000000e+00    0,000000000e+00    0,000000000e+00    0,000000000e+00
      226000000   -6,203534827e-02   -6,968201697e-02    7,961865664e-01   -2,974319644e-02    0,000000000e+00    0,000000000e+00    0,000000000e+00    0,000000000e+00
      240000000   -8,317385614e-02   -2,609813958e-02    6,471846700e-01   -4,664569199e-01    0,000000000e+00    0,000000000e+00    0,000000000e+00    0,000000000e+00
      254000000   -6,437826902e-02    1,723033749e-02    2,770151198e-01   -7,434055209e-01    0,000000000e+00    0,000000000e+00    0,000000000e+00    0,000000000e+00
      268000000   -2,428626455e-02    2,951311320e-02   -1,771560609e-01   -7,650105357e-01    0,000000000e+00    0,000000000e+00    0,000000000e+00    0,000000000e+00
      282000000    4,280710127e-03    1,216176152e-02   -5,626751781e-01   -5,371570587e-01    0,000000000e+00    0,000000000e+00    0,000000000e+00    0,000000000e+00
      296000000    9,616663679e-03   -7,644175552e-03   -7,609085441e-01   -1,395071447e-01    0,000000000e+00    0,000000000e+00    0,000000000e+00    0,000000000e+00
      310000000    1,103835832e-02   -1,612346619e-02   -7,135856152e-01    2,972886264e-01    0,000000000e+00    0,000000000e+00    0,000000000e+00    0,000000000e+00
      324000000    1,950401813e-02   -2,663165890e-02   -4,286514819e-01    6,369761229e-01    0,000000000e+00    0,000000000e+00    0,000000000e+00    0,000000000e+00
      338000000    2,554991469e-02   -5,218669027e-02   -1,048553176e-02    7,642688155e-01    0,000000000e+00    0,000000000e+00    0,000000000e+00    0,000000000e+00
      352000000    7,475157268e-03   -8,498983085e-02    4,068567157e-01    6,401420236e-01    0,000000000e+00    0,000000000e+00    0,000000000e+00    0,000000000e+00
      366000000   -3,492985293e-02   -9,579125047e-02    6,907687783e-01    3,128913045e-01    0,000000000e+00    0,000000000e+00    0,000000000e+00    0,000000000e+00
      380000000   -7,145278156e-02   -7,121320069e-02    7,480785251e-01   -1,250399947e-01    0,000000000e+00    0,000000000e+00    0,000000000e+00    0,000000000e+00
      394000000   -7,334310561e-02   -3,249781951e-02    5,485708714e-01   -5,207176805e-01    0,000000000e+00    0,000000000e+00    0,000000000e+00    0,000000000e+00
      408000000   -4,696503654e-02   -1,573947631e-02    1,628309637e-01   -7,308533788e-01    0,000000000e+00    0,000000000e+00    0,000000000e+00    0,000000000e+00
      422000000   -2,818661183e-02   -3,167739138e-02   -2,664584517e-01   -6,966379285e-01    0,000000000e+00    0,000000000e+00    0,000000000e+00    0,000000000e+00
      436000000   -4,008872062e-02   -5,178437009e-02   -6,026673317e-01   -4,338850081e-01    0,000000000e+00    0,000000000e+00    0,000000000e+00    0,000000000e+00
      450000000   -6,759571284e-02   -4,505597800e-02   -7,402164340e-01   -2,503685839e-02    0,000000000e+00    0,000000000e+00    0,000000000e+00    0,000000000e+00
      464000000   -7,422355562e-02   -1,243435405e-02   -6,213507652e-01    3,946699798e-01    0,000000000e+00    0,000000000e+00    0,000000000e+00    0,000000000e+00
      478000000   -4,915372655e-02    1,171702985e-02   -2,868206203e-01    6,673430204e-01    0,000000000e+00    0,000000000e+00    0,000000000e+00    0,000000000e+00
      492000000   -1,707568020e-02    6,598895881e-03    1,338756680e-01    7,045112848e-01    0,000000000e+00    0,000000000e+00    0,000000000e+00    0,000000000e+00
      506000000   -3,670820966e-03   -1,500508841e-02    4,978231788e-01    5,061356425e-01    0,000000000e+00    0,000000000e+00    0,000000000e+00    0,000000000e+00
      520000000   -5,832828116e-03   -2,954240516e-02    6,896244884e-01    1,429366916e-01    0,000000000e+00    0,000000000e+00    0,000000000e+00    0,000000000e+00
      534000000   -3,381805494e-03   -3,595693409e-02    6,449846029e-01   -2,601473927e-01    0,000000000e+00    0,000000000e+00    0,000000000e+00    0,000000000e+00
      548000000    8,294897154e-03   -5,267469585e-02    3,848503828e-01   -5,636738539e-01    0,000000000e+00    0,000000000e+00    0,000000000e+00    0,000000000e+00
      562000000    5,878413096e-03   -8,922071010e-02    9,057348594e-03   -6,716849804e-01    0,000000000e+00    0,000000000e+00    0,000000000e+00    0,000000000e+00
      576000000   -3,125433996e-02   -1,266316772e-01   -3,630024195e-01   -5,615788698e-01    0,000000000e+00    0,000000000e+00    0,000000000e+00    0,000000000e+00
      590000000   -9,481779486e-02   -1,275652796e-01   -6,151331663e-01   -2,731442451e-01    0,000000000e+00    0,000000000e+00    0,000000000e+00    0,000000000e+00
      604000000   -1,432312429e-01   -7,790715247e-02   -6,675329208e-01    1,268403828e-01    0,000000000e+00    0,000000000e+00    0,000000000e+00    0,000000000e+00
      618000000   -1,384021789e-01   -1,153115369e-02   -4,756659567e-01    4,861378372e-01    0,000000000e+00    0,000000000e+00    0,000000000e+00    0,000000000e+00
      632000000   -9,289797395e-02    2,214143053e-02   -1,140738279e-01    6,641491652e-01    0,000000000e+00    0,000000000e+00    0,000000000e+00    0,000000000e+00
      646000000   -5,511860549e-02    1,139204670e-02    2,737906873e-01    6,024035215e-01    0,000000000e+00    0,000000000e+00    0,000000000e+00    0,000000000e+00
      660000000   -4,871460050e-02   -8,928944357e-03    5,574276447e-01    3,397439718e-01    0,000000000e+00    0,000000000e+00    0,000000000e+00    0,000000000e+00
      674000000   -5,574613810e-02   -9,920587763e-03    6,441916227e-01   -3,988492116e-02    0,000000000e+00    0,000000000e+00    0,000000000e+00    0,000000000e+00
      688000000   -5,071906373e-02    3,318105591e-03    4,931981564e-01   -4,021572173e-01    0,000000000e+00    0,000000000e+00    0,000000000e+00    0,000000000e+00
      702000000   -2,642853744e-02    7,212129887e-03    1,599996537e-01   -6,034762859e-01    0,000000000e+00    0,000000000e+00    0,000000000e+00    0,000000000e+00
      716000000   -2,299521584e-03   -9,665137157e-03   -2,179313451e-01   -5,754714012e-01    0,000000000e+00    0,000000000e+00    0,000000000e+00    0,000000000e+00
      730000000    1,003890485e-02   -3,522623330e-02   -5,092484951e-01   -3,329382241e-01    0,000000000e+00    0,000000000e+00    0,000000000e+00    0,000000000e+00
      744000000    1,744513586e-02   -6,081912294e-02   -6,009569168e-01    3,326285258e-02    0,000000000e+00    0,000000000e+00    0,000000000e+00    0,000000000e+00
      758000000    2,187974751e-02   -1,030056030e-01   -4,541096091e-01    3,770785928e-01    0,000000000e+00    0,000000000e+00    0,000000000e+00    0,000000000e+00
      772000000   -5,581106525e-03   -1,734509617e-01   -1,390518546e-01    5,578299165e-01    0,000000000e+00    0,000000000e+00    0,000000000e+00    0,000000000e+00
      786000000   -1,045462638e-01   -2,322253436e-01    2,105401009e-01    5,194960237e-01    0,000000000e+00    0,000000000e+00    0,000000000e+00    0,000000000e+00
      800000000   -2,657605708e-01   -1,920024753e-01    4,712061286e-01    2,750931382e-01    0,000000000e+00    0,000000000e+00    0,000000000e+00    0,000000000e+00
      814000000   -3,645956218e-01    3,984447569e-03    5,074706674e-01   -8,862605691e-02    0,000000000e+00    0,000000000e+00    0,000000000e+00    0,000000000e+00
      828000000   -2,467349470e-01    2,336762398e-01    2,810610235e-01   -3,522725999e-01    0,000000000e+00    0,000000000e+00    0,000000000e+00    0,000000000e+00
      842000000    1,262779906e-02    2,781305611e-01   -1,591960900e-02   -3,627667725e-01    0,000000000e+00    0,000000000e+00    0,000000000e+00    0,000000000e+00
      856000000    2,124468088e-01    1,155330241e-01   -1,879443675e-01   -2,041772753e-01    0,000000000e+00    0,000000000e+00    0,000000000e+00    0,000000000e+00
      870000000    2,388293892e-01   -1,484089047e-01   -2,002531588e-01   -2,576270327e-02    0,000000000e+00    0,000000000e+00    0,000000000e+00    0,000000000e+00
      884000000    3,734226152e-02   -3,862077892e-01   -1,037349924e-01    7,077267766e-02    0,000000000e+00    0,000000000e+00    0,000000000e+00    0,000000000e+00
      898000000   -3,696106970e-01   -3,420286477e-01   -1,634939574e-02    2,693467587e-02    0,000000000e+00    0,000000000e+00    0,000000000e+00    0,000000000e+00
      912000000   -4,661267102e-01    1,381274611e-01   -1,231330484e-01    3,495141864e-02    0,000000000e+00    0,000000000e+00    0,000000000e+00    0,000000000e+00
      926000000   -9,367300570e-02    3,528517485e-01   -1,269621253e-01    1,343520284e-01    0,000000000e+00    0,000000000e+00    0,000000000e+00    0,000000000e+00
      940000000    1,837050170e-01    1,962924600e-01   -3,821888939e-02    2,171755582e-01    0,000000000e+00    0,000000000e+00    0,000000000e+00    0,000000000e+00
      954000000    2,530852854e-01   -4,718435928e-02    8,016367257e-02    2,292201966e-01    0,000000000e+00    0,000000000e+00    0,000000000e+00    0,000000000e+00
      968000000    1,750252247e-01   -2,642164528e-01    1,918929964e-01    1,806783080e-01    0,000000000e+00    0,000000000e+00    0,000000000e+00    0,000000000e+00
      982000000   -1,762684621e-02   -3,970295489e-01    2,798155248e-01    7,930129021e-02    0,000000000e+00    0,000000000e+00    0,000000000e+00    0,000000000e+00
      996000000   -2,728868425e-01   -3,787319660e-01    3,093842864e-01   -7,911997288e-02    0,000000000e+00    0,000000000e+00    0,000000000e+00    0,000000000e+00
     1010000000   -4,659657776e-01   -1,734887362e-01    2,202204615e-01   -2,541063130e-01    0,000000000e+00    0,000000000e+00    0,000000000e+00    0,000000000e+00
     1024000000   -4,563847184e-01    1,190905645e-01    2,146182768e-02   -3,300086856e-01    0,000000000e+00    0,000000000e+00    0,000000000e+00    0,000000000e+00
     1038000000   -2,627284527e-01    2,949850261e-01   -1,725079268e-01   -2,489625067e-01    0,000000000e+00    0,000000000e+00    0,000000000e+00    0,000000000e+00
     1052000000   -4,076540098e-02    3,090026081e-01   -2,565493882e-01   -7,704243809e-02    0,000000000e+00    0,000000000e+00    0,000000000e+00    0,000000000e+00
     1066000000    1,253242642e-01    2,032625675e-01   -2,226162255e-01    8,594597131e-02    0,000000000e+00    0,000000000e+00    0,000000000e+00    0,000000000e+00
     1080000000    2,057195902e-01    4,889472201e-02   -1,196167022e-01    1,920724958e-01    0,000000000e+00    0,000000000e+00    0,000000000e+00    0,000000000e+00
     1094000000    2,029552609e-01   -1,305159777e-01    1,822742261e-02    2,358872294e-01    0,000000000e+00    0,000000000e+00    0,000000000e+00    0,000000000e+00
     1108000000    9,951280057e-02   -2,882463932e-01    1,700891852e-01    2,063602954e-01    0,000000000e+00    0,000000000e+00    0,000000000e+00    0,000000000e+00
     1122000000   -1,005602628e-01   -3,673684597e-01    3,169303834e-01    8,902250230e-02    0,000000000e+00    0,000000000e+00    0,000000000e+00    0,000000000e+00
     1136000000   -3,424848020e-01   -2,697764039e-01    3,914770484e-01   -1,507024616e-01    0,000000000e+00    0,000000000e+00    0,000000000e+00    0,000000000e+00
     1150000000   -4,096319675e-01    3,272778913e-02    2,458272576e-01   -4,372863472e-01    0,000000000e+00    0,000000000e+00    0,000000000e+00    0,000000000e+00
     1164000000   -1,584851295e-01    2,224057168e-01   -9,463506192e-02   -5,150420070e-01    0,000000000e+00    0,000000000e+00    0,000000000e+00    0,000000000e+00
     1178000000    7,494167238e-02    8,048813045e-02   -3,557999730e-01   -3,490109146e-01    0,000000000e+00    0,000000000e+00    0,000000000e+00    0,000000000e+00
     1192000000    7,394470274e-02   -1,752191186e-01   -4,544306993e-01   -8,348466456e-02    0,000000000e+00    0,000000000e+00    0,000000000e+00    0,000000000e+00
     1206000000   -1,635082215e-01   -3,224858940e-01   -3,698495030e-01    1,901437938e-01    0,000000000e+00    0,000000000e+00    0,000000000e+00    0,000000000e+00
     1220000000   -4,564229250e-01   -1,775290817e-01   -1,087464914e-01    3,269087076e-01    0,000000000e+00    0,000000000e+00    0,000000000e+00    0,000000000e+00
     1234000000   -4,718185663e-01    1,726723462e-01    1,415606886e-01    2,269704193e-01    0,000000000e+00    0,000000000e+00    0,000000000e+00    0,000000000e+00
     1248000000   -2,389471680e-01    3,501467109e-01    1,869405210e-01    2,961813286e-02    0,000000000e+00    0,000000000e+00    0,000000000e+00    0,000000000e+00
     1262000000    6,368847098e-03    3,257791400e-01    1,325504333e-01   -7,666658610e-02    0,000000000e+00    0,000000000e+00    0,000000000e+00    0,000000000e+00
     1276000000    1,498571783e-01    1,973741502e-01    4,908004403e-02   -9,350351989e-02    0,000000000e+00    0,000000000e+00    0,000000000e+00    0,000000000e+00
     1290000000    2,197573781e-01    3,482034430e-02    3,807837842e-03   -7,169205695e-02    0,000000000e+00    0,000000000e+00    0,000000000e+00    0,000000000e+00
     1304000000    2,069189399e-01   -1,480184495e-01   -1,718560234e-02   -3,329170868e-02    0,000000000e+00    0,000000000e+00    0,000000000e+00    0,000000000e+00
     1318000000    1,138096303e-01   -3,143292367e-01   -8,968944661e-03    2,083651721e-02    0,000000000e+00    0,000000000e+00    0,000000000e+00    0,000000000e+00
     1332000000   -6,658314168e-02   -4,321471453e-01    5,285649002e-02    6,271263957e-02    0,000000000e+00    0,000000000e+00    0,000000000e+00    0,000000000e+00
     1346000000   -3,271084726e-01   -4,323057830e-01    1,442385614e-01    4,557676613e-02    0,000000000e+00    0,000000000e+00    0,000000000e+00    0,000000000e+00
     1360000000   -5,521441102e-01   -2,410241365e-01    1,238507628e-01   -7,762552053e-02    0,000000000e+00    0,000000000e+00    0,000000000e+00    0,000000000e+00
     1374000000   -6,202713847e-01    4,009438306e-02    1,081705689e-01    6,853360683e-02    0,000000000e+00    0,000000000e+00    0,000000000e+00    0,000000000e+00
     1388000000   -5,150480270e-01    2,898491323e-01    2,248133272e-01   -8,230798878e-03    0,000000000e+00    0,000000000e+00    0,000000000e+00    0,000000000e+00
     1402000000   -2,964186072e-01    4,157600403e-01    2,281699330e-01   -8,209869266e-02    0,000000000e+00    0,000000000e+00    0,000000000e+00    0,000000000e+00
     1416000000   -9,130262583e-02    4,221154451e-01    1,893955022e-01   -1,108163595e-01    0,000000000e+00    0,000000000e+00    0,000000000e+00    0,000000000e+00
     1430000000    7,014653832e-02    3,335266113e-01    1,612687260e-01   -1,301358789e-01    0,000000000e+00    0,000000000e+00    0,000000000e+00    0,000000000e+00
     1444000000    1,769433767e-01    1,978283823e-01    1,474589407e-01   -1,006178632e-01    0,000000000e+00    0,000000000e+00    0,000000000e+00    0,000000000e+00
     1458000000    2,208935171e-01    3,736716881e-02    1,446134448e-01   -7,969934493e-02    0,000000000e+00    0,000000000e+00    0,000000000e+00    0,000000000e+00
     1472000000    2,076790631e-01   -1,428184360e-01    1,552217901e-01   -4,981318116e-02    0,000000000e+00    0,000000000e+00    0,000000000e+00    0,000000000e+00
     1486000000    1,054472774e-01   -3,186483085e-01    1,777946949e-01   -3,220187267e-03    0,000000000e+00    0,000000000e+00    0,000000000e+00    0,000000000e+00
     1500000000   -9,284982830e-02   -4,566949606e-01    2,148661315e-01    6,571569294e-02    0,000000000e+00    0,000000000e+00    0,000000000e+00    0,000000000e+00
