! NanoVNA-App
! Date: 2025-09-25 14:26:22
! Start: 100MHz Stop: 1,5GHz Points: 101
! S-Parameter data: F S11 S21 S12 S22
# Hz S RI R 50
!     Frequency           S11_Real           S11_Imag           S21_Real           S21_Imag           S12_Real           S12_Imag           S22_Real           S22_Imag
      100000000   -2,908991277e-02   -4,128256813e-03    3,744795918e-01   -7,220384479e-01    0,000000000e+00    0,000000000e+00    0,000000000e+00    0,000000000e+00
      114000000   -1,659774221e-02    1,163239125e-02   -8,900064230e-02   -8,059016466e-01    0,000000000e+00    0,000000000e+00    0,000000000e+00    0,000000000e+00
      128000000    3,443376860e-03    1,056420058e-02   -5,145837069e-01   -6,208776832e-01    0,000000000e+00    0,000000000e+00    0,000000000e+00    0,000000000e+00
      142000000    1,444620080e-02   -3,087382298e-03   -7,674874067e-01   -2,370398790e-01    0,000000000e+00    0,000000000e+00    0,000000000e+00    0,000000000e+00
      156000000    1,463202387e-02   -1,507185306e-02   -7,675107121e-01    2,183906734e-01    0,000000000e+00    0,000000000e+00    0,000000000e+00    0,000000000e+00
      170000000    1,648288779e-02   -2,250205912e-02   -5,185852647e-01    6,049496531e-01    0,000000000e+00    0,000000000e+00    0,000000000e+00    0,000000000e+00
      184000000    2,095960826e-02   -3,701269999e-02   -1,019585654e-01    7,865710258e-01    0,000000000e+00    0,000000000e+00    0,000000000e+00    0,000000000e+00
      198000000    1,313885953e-02   -6,259186566e-02    3,429615498e-01    7,129197121e-01    0,000000000e+00    0,000000000e+00    0,000000000e+00    0,000000000e+00
      212000000   -1,870752685e-02   -8,167993277e-02    6,783707142e-01    4,104601741e-01    0,000000000e+00    0,000000000e+00    0,000000000e+00    0,000000000e+00
      226000000   -6,210897863e-02   -6,969362497e-02    7,961492538e-01   -2,975936234e-02    0,000000000e+00    0,000000000e+00    0,000000000e+00    0,000000000e+00
      240000000   -8,331937343e-02   -2,603820711e-02    6,471604705e-01   -4,666607678e-01    0,000000000e+00    0,000000000e+00    0,000000000e+00    0,000000000e+00
      254000000   -6,435588747e-02    1,748051122e-02    2,770781815e-01   -7,431054711e-01    0,000000000e+00    0,000000000e+00    0,000000000e+00    0,000000000e+00
      268000000   -2,402805164e-02    2,946972661e-02   -1,768826842e-01   -7,652211785e-01    0,000000000e+00    0,000000000e+00    0,000000000e+00    0,000000000e+00
      282000000    4,056281410e-03    1,215771958e-02   -5,626797080e-01   -5,370741487e-01    0,000000000e+00    0,000000000e+00    0,000000000e+00    0,000000000e+00
      296000000    9,638513438e-03   -7,735156454e-03   -7,605975270e-01   -1,395314038e-01    0,000000000e+00    0,000000000e+00    0,000000000e+00    0,000000000e+00
      310000000    1,067109779e-02   -1,614626311e-02   -7,137265801e-01    2,983340621e-01    0,000000000e+00    0,000000000e+00    0,000000000e+00    0,000000000e+00
      324000000    1,956409588e-02   -2,662130445e-02   -4,286802113e-01    6,376691461e-01    0,000000000e+00    0,000000000e+00    0,000000000e+00    0,000000000e+00
      338000000    2,552721277e-02   -5,185968801e-02   -8,891829289e-03    7,613176107e-01    0,000000000e+00    0,000000000e+00    0,000000000e+00    0,000000000e+00
      352000000    7,367502432e-03   -8,501385897e-02    4,052483141e-01    6,411930323e-01    0,000000000e+00    0,000000000e+00    0,000000000e+00    0,000000000e+00
      366000000   -3,465295583e-02   -9,616161138e-02    6,911020875e-01    3,123119473e-01    0,000000000e+00    0,000000000e+00    0,000000000e+00    0,000000000e+00
      380000000   -7,153877616e-02   -7,108483464e-02    7,482740283e-01   -1,246228963e-01    0,000000000e+00    0,000000000e+00    0,000000000e+00    0,000000000e+00
      394000000   -7,318813354e-02   -3,250497952e-02    5,475109220e-01   -5,213637948e-01    0,000000000e+00    0,000000000e+00    0,000000000e+00    0,000000000e+00
      408000000   -4,708591104e-02   -1,565015502e-02    1,625048518e-01   -7,319836020e-01    0,000000000e+00    0,000000000e+00    0,000000000e+00    0,000000000e+00
      422000000   -2,865431271e-02   -3,128192201e-02   -2,667539120e-01   -6,964445710e-01    0,000000000e+00    0,000000000e+00    0,000000000e+00    0,000000000e+00
      436000000   -4,020736367e-02   -5,227965862e-02   -6,028524041e-01   -4,339412153e-01    0,000000000e+00    0,000000000e+00    0,000000000e+00    0,000000000e+00
      450000000   -6,764110178e-02   -4,500669986e-02   -7,406234145e-01   -2,501613088e-02    0,000000000e+00    0,000000000e+00    0,000000000e+00    0,000000000e+00
      464000000   -7,410372794e-02   -1,200770214e-02   -6,209973097e-01    3,949663341e-01    0,000000000e+00    0,000000000e+00    0,000000000e+00    0,000000000e+00
      478000000   -4,934415221e-02    1,150861010e-02   -2,856902778e-01    6,677379608e-01    0,000000000e+00    0,000000000e+00    0,000000000e+00    0,000000000e+00
      492000000   -1,687062345e-02    6,453531794e-03    1,341056377e-01    7,034562826e-01    0,000000000e+00    0,000000000e+00    0,000000000e+00    0,000000000e+00
      506000000   -3,579885233e-03   -1,479144953e-02    4,975847304e-01    5,064868927e-01    0,000000000e+00    0,000000000e+00    0,000000000e+00    0,000000000e+00
      520000000   -5,641340744e-03   -2,963426337e-02    6,886232495e-01    1,449218541e-01    0,000000000e+00    0,000000000e+00    0,000000000e+00    0,000000000e+00
      534000000   -3,238196019e-03   -3,604954481e-02    6,444424987e-01   -2,601393461e-01    0,000000000e+00    0,000000000e+00    0,000000000e+00    0,000000000e+00
      548000000    8,230572566e-03   -5,258850753e-02    3,851753473e-01   -5,641710162e-01    0,000000000e+00    0,000000000e+00    0,000000000e+00    0,000000000e+00
      562000000    5,723362323e-03   -8,990452439e-02    9,244525805e-03   -6,721646786e-01    0,000000000e+00    0,000000000e+00    0,000000000e+00    0,000000000e+00
      576000000   -3,171186149e-02   -1,260402352e-01   -3,625853956e-01   -5,605507493e-01    0,000000000e+00    0,000000000e+00    0,000000000e+00    0,000000000e+00
      590000000   -9,502541274e-02   -1,274201423e-01   -6,172792912e-01   -2,737869322e-01    0,000000000e+00    0,000000000e+00    0,000000000e+00    0,000000000e+00
      604000000   -1,433618665e-01   -7,750730217e-02   -6,673730016e-01    1,265512854e-01    0,000000000e+00    0,000000000e+00    0,000000000e+00    0,000000000e+00
      618000000   -1,383659989e-01   -1,116194669e-02   -4,754590988e-01    4,854837358e-01    0,000000000e+00    0,000000000e+00    0,000000000e+00    0,000000000e+00
      632000000   -9,285922348e-02    2,217111178e-02   -1,142196134e-01    6,633207202e-01    0,000000000e+00    0,000000000e+00    0,000000000e+00    0,000000000e+00
      646000000   -5,518604070e-02    1,254661474e-02    2,736297250e-01    6,028313637e-01    0,000000000e+00    0,000000000e+00    0,000000000e+00    0,000000000e+00
      660000000   -4,861108586e-02   -8,360716514e-03    5,567198992e-01    3,395835459e-01    0,000000000e+00    0,000000000e+00    0,000000000e+00    0,000000000e+00
      674000000   -5,533336848e-02   -1,033663191e-02    6,444172859e-01   -3,971381485e-02    0,000000000e+00    0,000000000e+00    0,000000000e+00    0,000000000e+00
      688000000   -4,997049645e-02    3,462907160e-03    4,931279123e-01   -4,023229480e-01    0,000000000e+00    0,000000000e+00    0,000000000e+00    0,000000000e+00
      702000000   -2,645435184e-02    8,509760723e-03    1,605422199e-01   -6,050279140e-01    0,000000000e+00    0,000000000e+00    0,000000000e+00    0,000000000e+00
      716000000   -2,584433649e-03   -8,601753041e-03   -2,201509327e-01   -5,752114654e-01    0,000000000e+00    0,000000000e+00    0,000000000e+00    0,000000000e+00
      730000000    9,800714441e-03   -3,388319165e-02   -5,087244511e-01   -3,332681358e-01    0,000000000e+00    0,000000000e+00    0,000000000e+00    0,000000000e+00
      744000000    1,733139344e-02   -6,115884334e-02   -6,009830236e-01    3,283270076e-02    0,000000000e+00    0,000000000e+00    0,000000000e+00    0,000000000e+00
      758000000    2,253944054e-02   -1,032518148e-01   -4,547888935e-01    3,768167496e-01    0,000000000e+00    0,000000000e+00    0,000000000e+00    0,000000000e+00
      772000000   -5,062050652e-03   -1,730622947e-01   -1,399011463e-01    5,575250387e-01    0,000000000e+00    0,000000000e+00    0,000000000e+00    0,000000000e+00
      786000000   -1,055918038e-01   -2,320422679e-01    2,102640718e-01    5,196474791e-01    0,000000000e+00    0,000000000e+00    0,000000000e+00    0,000000000e+00
      800000000   -2,667170763e-01   -1,926162243e-01    4,719379842e-01    2,763616443e-01    0,000000000e+00    0,000000000e+00    0,000000000e+00    0,000000000e+00
      814000000   -3,648999035e-01    3,205435583e-03    5,082959533e-01   -8,845024556e-02    0,000000000e+00    0,000000000e+00    0,000000000e+00    0,000000000e+00
      828000000   -2,469945103e-01    2,342247069e-01    2,809160650e-01   -3,519539833e-01    0,000000000e+00    0,000000000e+00    0,000000000e+00    0,000000000e+00
      842000000    1,259883679e-02    2,788999379e-01   -1,640424132e-02   -3,628858030e-01    0,000000000e+00    0,000000000e+00    0,000000000e+00    0,000000000e+00
      856000000    2,128229886e-01    1,153852493e-01   -1,876365542e-01   -2,049731463e-01    0,000000000e+00    0,000000000e+00    0,000000000e+00    0,000000000e+00
      870000000    2,388579696e-01   -1,483176947e-01   -2,004040778e-01   -2,607083693e-02    0,000000000e+00    0,000000000e+00    0,000000000e+00    0,000000000e+00
      884000000    3,740493953e-02   -3,872742355e-01   -1,046595946e-01    7,109107822e-02    0,000000000e+00    0,000000000e+00    0,000000000e+00    0,000000000e+00
      898000000   -3,695128858e-01   -3,419994712e-01   -1,739955880e-02    2,769820392e-02    0,000000000e+00    0,000000000e+00    0,000000000e+00    0,000000000e+00
      912000000   -4,661419094e-01    1,383420080e-01   -1,161810458e-01    4,163653404e-02    0,000000000e+00    0,000000000e+00    0,000000000e+00    0,000000000e+00
      926000000   -9,770587087e-02    3,508478105e-01   -1,288094074e-01    1,345248818e-01    0,000000000e+00    0,000000000e+00    0,000000000e+00    0,000000000e+00
      940000000    1,813032180e-01    1,926481277e-01   -3,882921860e-02    2,155070454e-01    0,000000000e+00    0,000000000e+00    0,000000000e+00    0,000000000e+00
      954000000    2,541486323e-01   -5,100086331e-02    7,992110401e-02    2,255989164e-01    0,000000000e+00    0,000000000e+00    0,000000000e+00    0,000000000e+00
      968000000    1,775407344e-01   -2,633657753e-01    1,923565716e-01    1,798104495e-01    0,000000000e+00    0,000000000e+00    0,000000000e+00    0,000000000e+00
      982000000   -1,633277163e-02   -3,924720585e-01    2,812891006e-01    7,944792509e-02    0,000000000e+00    0,000000000e+00    0,000000000e+00    0,000000000e+00
      996000000   -2,724396288e-01   -3,803729415e-01    3,077659607e-01   -7,813205570e-02    0,000000000e+00    0,000000000e+00    0,000000000e+00    0,000000000e+00
     1010000000   -4,720522463e-01   -1,709741056e-01    2,202592343e-01   -2,528508604e-01    0,000000000e+00    0,000000000e+00    0,000000000e+00    0,000000000e+00
     1024000000   -4,560633600e-01    1,172968373e-01    2,026619948e-02   -3,302755654e-01    0,000000000e+00    0,000000000e+00    0,000000000e+00    0,000000000e+00
     1038000000   -2,612209320e-01    3,010149300e-01   -1,734891832e-01   -2,490603030e-01    0,000000000e+00    0,000000000e+00    0,000000000e+00    0,000000000e+00
     1052000000   -3,725317121e-02    3,066118956e-01   -2,580879927e-01   -7,644199580e-02    0,000000000e+00    0,000000000e+00    0,000000000e+00    0,000000000e+00
     1066000000    1,300388724e-01    2,036050409e-01   -2,285395712e-01    8,630408347e-02    0,000000000e+00    0,000000000e+00    0,000000000e+00    0,000000000e+00
     1080000000    2,102426887e-01    4,721610248e-02   -1,195142269e-01    1,957655698e-01    0,000000000e+00    0,000000000e+00    0,000000000e+00    0,000000000e+00
     1094000000    2,045870274e-01   -1,257157773e-01    1,555751916e-02    2,333264202e-01    0,000000000e+00    0,000000000e+00    0,000000000e+00    0,000000000e+00
     1108000000    1,016182452e-01   -2,889670432e-01    1,703135967e-01    2,061135173e-01    0,000000000e+00    0,000000000e+00    0,000000000e+00    0,000000000e+00
     1122000000   -9,910125285e-02   -3,728168607e-01    3,154671788e-01    9,255602211e-02    0,000000000e+00    0,000000000e+00    0,000000000e+00    0,000000000e+00
     1136000000   -3,449058533e-01   -2,689529061e-01    3,936926126e-01   -1,511725783e-01    0,000000000e+00    0,000000000e+00    0,000000000e+00    0,000000000e+00
     1150000000   -4,042929411e-01    3,948009759e-02    2,445616871e-01   -4,340599477e-01    0,000000000e+00    0,000000000e+00    0,000000000e+00    0,000000000e+00
     1164000000   -1,599064767e-01    2,132951915e-01   -9,090179950e-02   -5,142036080e-01    0,000000000e+00    0,000000000e+00    0,000000000e+00    0,000000000e+00
     1178000000    7,249213755e-02    8,457682282e-02   -3,580709100e-01   -3,436754048e-01    0,000000000e+00    0,000000000e+00    0,000000000e+00    0,000000000e+00
     1192000000    7,177490741e-02   -1,738998890e-01   -4,549681246e-01   -8,351939917e-02    0,000000000e+00    0,000000000e+00    0,000000000e+00    0,000000000e+00
     1206000000   -1,627455801e-01   -3,258292973e-01   -3,722662926e-01    1,928211451e-01    0,000000000e+00    0,000000000e+00    0,000000000e+00    0,000000000e+00
     1220000000   -4,538858235e-01   -1,810338646e-01   -1,080513224e-01    3,270376921e-01    0,000000000e+00    0,000000000e+00    0,000000000e+00    0,000000000e+00
     1234000000   -4,768320322e-01    1,685972065e-01    1,356354654e-01    2,243719846e-01    0,000000000e+00    0,000000000e+00    0,000000000e+00    0,000000000e+00
     1248000000   -2,374904603e-01    3,520434499e-01    1,911301017e-01    3,625210375e-02    0,000000000e+00    0,000000000e+00    0,000000000e+00    0,000000000e+00
     1262000000    3,000820521e-03    3,246120811e-01    1,321841776e-01   -7,110330462e-02    0,000000000e+00    0,000000000e+00    0,000000000e+00    0,000000000e+00
     1276000000    1,539387107e-01    2,019675374e-01    5,102805048e-02   -9,534911811e-02    0,000000000e+00    0,000000000e+00    0,000000000e+00    0,000000000e+00
     1290000000    2,184847742e-01    3,164197505e-02    5,398752633e-03   -7,534576952e-02    0,000000000e+00    0,000000000e+00    0,000000000e+00    0,000000000e+00
     1304000000    2,069611847e-01   -1,470092237e-01   -1,836278103e-02   -3,527501971e-02    0,000000000e+00    0,000000000e+00    0,000000000e+00    0,000000000e+00
     1318000000    1,170241833e-01   -3,128034770e-01   -1,172812004e-02    2,057200857e-02    0,000000000e+00    0,000000000e+00    0,000000000e+00    0,000000000e+00
     1332000000   -6,547891349e-02   -4,322151840e-01    4,541337863e-02    6,523708254e-02    0,000000000e+00    0,000000000e+00    0,000000000e+00    0,000000000e+00
     1346000000   -3,276648521e-01   -4,369323850e-01    1,440585107e-01    3,444055468e-02    0,000000000e+00    0,000000000e+00    0,000000000e+00    0,000000000e+00
     1360000000   -5,612901449e-01   -2,422955334e-01    1,050448120e-01   -7,379077375e-02    0,000000000e+00    0,000000000e+00    0,000000000e+00    0,000000000e+00
     1374000000   -6,279116273e-01    2,820019238e-02    1,028023139e-01    5,842264742e-02    0,000000000e+00    0,000000000e+00    0,000000000e+00    0,000000000e+00
     1388000000   -5,185478926e-01    2,911951840e-01    2,265436500e-01    1,107347314e-03    0,000000000e+00    0,000000000e+00    0,000000000e+00    0,000000000e+00
     1402000000   -3,028030396e-01    4,156502783e-01    2,347641289e-01   -8,250771463e-02    0,000000000e+00    0,000000000e+00    0,000000000e+00    0,000000000e+00
     1416000000   -9,266629815e-02    4,244948626e-01    1,900073737e-01   -1,147982627e-01    0,000000000e+00    0,000000000e+00    0,000000000e+00    0,000000000e+00
     1430000000    7,460827380e-02    3,350577652e-01    1,715449989e-01   -1,092341915e-01    0,000000000e+00    0,000000000e+00    0,000000000e+00    0,000000000e+00
     1444000000    1,724715382e-01    2,025070041e-01    1,453318000e-01   -1,063721254e-01    0,000000000e+00    0,000000000e+00    0,000000000e+00    0,000000000e+00
     1458000000    2,221730351e-01    3,458283842e-02    1,452404857e-01   -8,711160719e-02    0,000000000e+00    0,000000000e+00    0,000000000e+00    0,000000000e+00
     1472000000    2,074149400e-01   -1,508168280e-01    1,589096785e-01   -6,550977379e-02    0,000000000e+00    0,000000000e+00    0,000000000e+00    0,000000000e+00
     1486000000    1,075902358e-01   -3,209660649e-01    1,733518094e-01   -4,426757805e-03    0,000000000e+00    0,000000000e+00    0,000000000e+00    0,000000000e+00
     1500000000   -8,773881197e-02   -4,603003263e-01    2,139019519e-01    6,951133162e-02    0,000000000e+00    0,000000000e+00    0,000000000e+00    0,000000000e+00
