! NanoVNA-App
! Date: 2025-09-25 14:22:17
! Start: 100MHz Stop: 1,5GHz Points: 101
! S-Parameter data: F S11 S21 S12 S22
# Hz S RI R 50
!     Frequency           S11_Real           S11_Imag           S21_Real           S21_Imag           S12_Real           S12_Imag           S22_Real           S22_Imag
      100000000   -2,908959053e-02   -4,141040146e-03    3,744127452e-01   -7,220211625e-01    0,000000000e+00    0,000000000e+00    0,000000000e+00    0,000000000e+00
      114000000   -1,666277274e-02    1,161747985e-02   -8,898481727e-02   -8,058450818e-01    0,000000000e+00    0,000000000e+00    0,000000000e+00    0,000000000e+00
      128000000    3,445652314e-03    1,058730017e-02   -5,145383477e-01   -6,207978129e-01    0,000000000e+00    0,000000000e+00    0,000000000e+00    0,000000000e+00
      142000000    1,445875037e-02   -3,019464202e-03   -7,676157355e-01   -2,369070202e-01    0,000000000e+00    0,000000000e+00    0,000000000e+00    0,000000000e+00
      156000000    1,557291113e-02   -1,474143099e-02   -7,698872685e-01    2,238790840e-01    0,000000000e+00    0,000000000e+00    0,000000000e+00    0,000000000e+00
      170000000    1,659410819e-02   -2,248926647e-02   -5,186573863e-01    6,049289703e-01    0,000000000e+00    0,000000000e+00    0,000000000e+00    0,000000000e+00
      184000000    2,100561373e-02   -3,704049066e-02   -1,015810892e-01    7,864427567e-01    0,000000000e+00    0,000000000e+00    0,000000000e+00    0,000000000e+00
      198000000    1,303591393e-02   -6,259796023e-02    3,429223597e-01    7,130378485e-01    0,000000000e+00    0,000000000e+00    0,000000000e+00    0,000000000e+00
      212000000   -1,868860051e-02   -8,167061955e-02    6,783146262e-01    4,103332758e-01    0,000000000e+00    0,000000000e+00    0,000000000e+00    0,000000000e+00
      226000000   -6,201815605e-02   -6,961955875e-02    7,961007357e-01   -2,977966517e-02    0,000000000e+00    0,000000000e+00    0,000000000e+00    0,000000000e+00
      240000000   -8,315970004e-02   -2,609814145e-02    6,471611857e-01   -4,666620195e-01    0,000000000e+00    0,000000000e+00    0,000000000e+00    0,000000000e+00
      254000000   -6,437288225e-02    1,723270118e-02    2,772189081e-01   -7,434178591e-01    0,000000000e+00    0,000000000e+00    0,000000000e+00    0,000000000e+00
      268000000   -2,433371730e-02    2,951985970e-02   -1,773568243e-01   -7,658031583e-01    0,000000000e+00    0,000000000e+00    0,000000000e+00    0,000000000e+00
      282000000    4,268229008e-03    1,208419073e-02   -5,623449087e-01   -5,369639993e-01    0,000000000e+00    0,000000000e+00    0,000000000e+00    0,000000000e+00
      296000000    9,579046629e-03   -7,695147302e-03   -7,606839538e-01   -1,394098550e-01    0,000000000e+00    0,000000000e+00    0,000000000e+00    0,000000000e+00
      310000000    1,075330563e-02   -1,603742689e-02   -7,140365243e-01    2,981746197e-01    0,000000000e+00    0,000000000e+00    0,000000000e+00    0,000000000e+00
      324000000    1,950605586e-02   -2,636857517e-02   -4,284977913e-01    6,378916502e-01    0,000000000e+00    0,000000000e+00    0,000000000e+00    0,000000000e+00
      338000000    2,548503876e-02   -5,203061923e-02   -1,095434371e-02    7,609384060e-01    0,000000000e+00    0,000000000e+00    0,000000000e+00    0,000000000e+00
      352000000    7,119900547e-03   -8,485728502e-02    4,062158763e-01    6,416243315e-01    0,000000000e+00    0,000000000e+00    0,000000000e+00    0,000000000e+00
      366000000   -3,487015888e-02   -9,609784186e-02    6,906679869e-01    3,127708435e-01    0,000000000e+00    0,000000000e+00    0,000000000e+00    0,000000000e+00
      380000000   -7,116510719e-02   -7,124579698e-02    7,479452491e-01   -1,247238666e-01    0,000000000e+00    0,000000000e+00    0,000000000e+00    0,000000000e+00
      394000000   -7,332751900e-02   -3,251050785e-02    5,480324030e-01   -5,214619637e-01    0,000000000e+00    0,000000000e+00    0,000000000e+00    0,000000000e+00
      408000000   -4,694686085e-02   -1,586028375e-02    1,628406048e-01   -7,326813340e-01    0,000000000e+00    0,000000000e+00    0,000000000e+00    0,000000000e+00
      422000000   -2,818930522e-02   -3,160766512e-02   -2,657853961e-01   -6,968758106e-01    0,000000000e+00    0,000000000e+00    0,000000000e+00    0,000000000e+00
      436000000   -4,038752988e-02   -5,207893997e-02   -6,027505398e-01   -4,337286651e-01    0,000000000e+00    0,000000000e+00    0,000000000e+00    0,000000000e+00
      450000000   -6,756786257e-02   -4,508272558e-02   -7,406471968e-01   -2,509148791e-02    0,000000000e+00    0,000000000e+00    0,000000000e+00    0,000000000e+00
      464000000   -7,426230609e-02   -1,250396110e-02   -6,212425232e-01    3,949673474e-01    0,000000000e+00    0,000000000e+00    0,000000000e+00    0,000000000e+00
      478000000   -4,880372435e-02    1,155231334e-02   -2,859343886e-01    6,675755978e-01    0,000000000e+00    0,000000000e+00    0,000000000e+00    0,000000000e+00
      492000000   -1,717634127e-02    6,553316023e-03    1,345693618e-01    7,038133740e-01    0,000000000e+00    0,000000000e+00    0,000000000e+00    0,000000000e+00
      506000000   -3,468044568e-03   -1,514389645e-02    4,981369376e-01    5,057713389e-01    0,000000000e+00    0,000000000e+00    0,000000000e+00    0,000000000e+00
      520000000   -6,188926287e-03   -2,974360250e-02    6,884828806e-01    1,433978528e-01    0,000000000e+00    0,000000000e+00    0,000000000e+00    0,000000000e+00
      534000000   -3,318615491e-03   -3,552697226e-02    6,450743675e-01   -2,595875859e-01    0,000000000e+00    0,000000000e+00    0,000000000e+00    0,000000000e+00
      548000000    8,280987851e-03   -5,244294554e-02    3,845567107e-01   -5,642882586e-01    0,000000000e+00    0,000000000e+00    0,000000000e+00    0,000000000e+00
      562000000    6,066935603e-03   -8,931151032e-02    8,324873634e-03   -6,715286970e-01    0,000000000e+00    0,000000000e+00    0,000000000e+00    0,000000000e+00
      576000000   -3,091239929e-02   -1,256377399e-01   -3,628107309e-01   -5,606843829e-01    0,000000000e+00    0,000000000e+00    0,000000000e+00    0,000000000e+00
      590000000   -9,474886954e-02   -1,277319193e-01   -6,186190248e-01   -2,727277875e-01    0,000000000e+00    0,000000000e+00    0,000000000e+00    0,000000000e+00
      604000000   -1,432680041e-01   -7,787197828e-02   -6,674105525e-01    1,266369224e-01    0,000000000e+00    0,000000000e+00    0,000000000e+00    0,000000000e+00
      618000000   -1,383497417e-01   -1,116920635e-02   -4,753270149e-01    4,862336516e-01    0,000000000e+00    0,000000000e+00    0,000000000e+00    0,000000000e+00
      632000000   -9,351821244e-02    2,200511098e-02   -1,140116155e-01    6,622714400e-01    0,000000000e+00    0,000000000e+00    0,000000000e+00    0,000000000e+00
      646000000   -5,461467430e-02    1,192278974e-02    2,734698653e-01    6,029073596e-01    0,000000000e+00    0,000000000e+00    0,000000000e+00    0,000000000e+00
      660000000   -4,840391874e-02   -8,962175809e-03    5,577914715e-01    3,412989080e-01    0,000000000e+00    0,000000000e+00    0,000000000e+00    0,000000000e+00
      674000000   -5,590784177e-02   -9,966037236e-03    6,445353031e-01   -3,982948139e-02    0,000000000e+00    0,000000000e+00    0,000000000e+00    0,000000000e+00
      688000000   -5,087783933e-02    3,166202456e-03    4,932413995e-01   -4,015296400e-01    0,000000000e+00    0,000000000e+00    0,000000000e+00    0,000000000e+00
      702000000   -2,614883892e-02    7,590141613e-03    1,583461314e-01   -6,066172719e-01    0,000000000e+00    0,000000000e+00    0,000000000e+00    0,000000000e+00
      716000000   -2,286503091e-03   -9,875563905e-03   -2,194107175e-01   -5,754924417e-01    0,000000000e+00    0,000000000e+00    0,000000000e+00    0,000000000e+00
      730000000    9,323447943e-03   -3,395424411e-02   -5,090919137e-01   -3,335285783e-01    0,000000000e+00    0,000000000e+00    0,000000000e+00    0,000000000e+00
      744000000    1,652058586e-02   -6,061554328e-02   -6,010974050e-01    3,307529539e-02    0,000000000e+00    0,000000000e+00    0,000000000e+00    0,000000000e+00
      758000000    2,145997807e-02   -1,037058458e-01   -4,546598196e-01    3,772434592e-01    0,000000000e+00    0,000000000e+00    0,000000000e+00    0,000000000e+00
      772000000   -5,013338290e-03   -1,745108813e-01   -1,396985799e-01    5,582136512e-01    0,000000000e+00    0,000000000e+00    0,000000000e+00    0,000000000e+00
      786000000   -1,052043661e-01   -2,329762727e-01    2,109167576e-01    5,200148225e-01    0,000000000e+00    0,000000000e+00    0,000000000e+00    0,000000000e+00
      800000000   -2,653510571e-01   -1,931126714e-01    4,715840816e-01    2,757691145e-01    0,000000000e+00    0,000000000e+00    0,000000000e+00    0,000000000e+00
      814000000   -3,637936711e-01    3,697311971e-03    5,075409412e-01   -8,872395009e-02    0,000000000e+00    0,000000000e+00    0,000000000e+00    0,000000000e+00
      828000000   -2,478161603e-01    2,342821956e-01    2,809478045e-01   -3,531148732e-01    0,000000000e+00    0,000000000e+00    0,000000000e+00    0,000000000e+00
      842000000    1,210645679e-02    2,785877287e-01   -1,585690491e-02   -3,623310626e-01    0,000000000e+00    0,000000000e+00    0,000000000e+00    0,000000000e+00
      856000000    2,122943699e-01    1,149730831e-01   -1,880510598e-01   -2,047573924e-01    0,000000000e+00    0,000000000e+00    0,000000000e+00    0,000000000e+00
      870000000    2,384926528e-01   -1,488966644e-01   -2,008773685e-01   -2,536494471e-02    0,000000000e+00    0,000000000e+00    0,000000000e+00    0,000000000e+00
      884000000    3,827432171e-02   -3,865372837e-01   -1,039155573e-01    7,095245272e-02    0,000000000e+00    0,000000000e+00    0,000000000e+00    0,000000000e+00
      898000000   -3,694034815e-01   -3,423973918e-01   -1,658828370e-02    2,683630586e-02    0,000000000e+00    0,000000000e+00    0,000000000e+00    0,000000000e+00
      912000000   -4,674057662e-01    1,378262341e-01   -1,221757308e-01    3,915331885e-02    0,000000000e+00    0,000000000e+00    0,000000000e+00    0,000000000e+00
      926000000   -9,713203460e-02    3,507587612e-01   -1,300318390e-01    1,339315176e-01    0,000000000e+00    0,000000000e+00    0,000000000e+00    0,000000000e+00
      940000000    1,827382445e-01    1,925919205e-01   -3,844498843e-02    2,151047885e-01    0,000000000e+00    0,000000000e+00    0,000000000e+00    0,000000000e+00
      954000000    2,574922740e-01   -4,943133146e-02    7,981012017e-02    2,263774723e-01    0,000000000e+00    0,000000000e+00    0,000000000e+00    0,000000000e+00
      968000000    1,725242436e-01   -2,626647353e-01    1,918101162e-01    1,789985895e-01    0,000000000e+00    0,000000000e+00    0,000000000e+00    0,000000000e+00
      982000000   -1,859791204e-02   -3,918760419e-01    2,798861861e-01    8,030367643e-02    0,000000000e+00    0,000000000e+00    0,000000000e+00    0,000000000e+00
      996000000   -2,754183412e-01   -3,751146197e-01    3,086408973e-01   -7,988568395e-02    0,000000000e+00    0,000000000e+00    0,000000000e+00    0,000000000e+00
     1010000000   -4,720397890e-01   -1,728391647e-01    2,214890122e-01   -2,533885241e-01    0,000000000e+00    0,000000000e+00    0,000000000e+00    0,000000000e+00
     1024000000   -4,570716619e-01    1,193800345e-01    2,036732063e-02   -3,301826119e-01    0,000000000e+00    0,000000000e+00    0,000000000e+00    0,000000000e+00
     1038000000   -2,642883658e-01    3,012353182e-01   -1,741065830e-01   -2,466469705e-01    0,000000000e+00    0,000000000e+00    0,000000000e+00    0,000000000e+00
     1052000000   -4,045321792e-02    3,099090755e-01   -2,562283874e-01   -7,615211606e-02    0,000000000e+00    0,000000000e+00    0,000000000e+00    0,000000000e+00
     1066000000    1,257294267e-01    2,029067427e-01   -2,255998254e-01    8,620580286e-02    0,000000000e+00    0,000000000e+00    0,000000000e+00    0,000000000e+00
     1080000000    2,065234780e-01    4,904706404e-02   -1,201710328e-01    1,929555237e-01    0,000000000e+00    0,000000000e+00    0,000000000e+00    0,000000000e+00
     1094000000    1,989407837e-01   -1,283132285e-01    1,519911550e-02    2,317382842e-01    0,000000000e+00    0,000000000e+00    0,000000000e+00    0,000000000e+00
     1108000000    1,023967266e-01   -2,860152423e-01    1,694029421e-01    2,055307478e-01    0,000000000e+00    0,000000000e+00    0,000000000e+00    0,000000000e+00
     1122000000   -9,869828075e-02   -3,672739267e-01    3,153226972e-01    9,027650952e-02    0,000000000e+00    0,000000000e+00    0,000000000e+00    0,000000000e+00
     1136000000   -3,469882309e-01   -2,641386092e-01    3,918173909e-01   -1,505029500e-01    0,000000000e+00    0,000000000e+00    0,000000000e+00    0,000000000e+00
     1150000000   -4,066674411e-01    3,411554918e-02    2,425035089e-01   -4,373976588e-01    0,000000000e+00    0,000000000e+00    0,000000000e+00    0,000000000e+00
     1164000000   -1,644896865e-01    2,151219398e-01   -9,725731611e-02   -5,137315392e-01    0,000000000e+00    0,000000000e+00    0,000000000e+00    0,000000000e+00
     1178000000    7,603271306e-02    8,610904962e-02   -3,545343578e-01   -3,469597995e-01    0,000000000e+00    0,000000000e+00    0,000000000e+00    0,000000000e+00
     1192000000    7,407822460e-02   -1,753075719e-01   -4,534175098e-01   -8,437769115e-02    0,000000000e+00    0,000000000e+00    0,000000000e+00    0,000000000e+00
     1206000000   -1,635911018e-01   -3,280720711e-01   -3,652624488e-01    1,886039078e-01    0,000000000e+00    0,000000000e+00    0,000000000e+00    0,000000000e+00
     1220000000   -4,570289254e-01   -1,796048433e-01   -1,105226055e-01    3,230016232e-01    0,000000000e+00    0,000000000e+00    0,000000000e+00    0,000000000e+00
     1234000000   -4,770076871e-01    1,646236777e-01    1,399485320e-01    2,171492279e-01    0,000000000e+00    0,000000000e+00    0,000000000e+00    0,000000000e+00
     1248000000   -2,378456593e-01    3,535848558e-01    1,942535341e-01    3,168358281e-02    0,000000000e+00    0,000000000e+00    0,000000000e+00    0,000000000e+00
     1262000000    1,044246601e-03    3,307773769e-01    1,284601986e-01   -7,126729935e-02    0,000000000e+00    0,000000000e+00    0,000000000e+00    0,000000000e+00
     1276000000    1,552617997e-01    2,028104514e-01    5,544171855e-02   -9,621233493e-02    0,000000000e+00    0,000000000e+00    0,000000000e+00    0,000000000e+00
     1290000000    2,198881060e-01    2,766744420e-02    2,478322946e-03   -7,252893597e-02    0,000000000e+00    0,000000000e+00    0,000000000e+00    0,000000000e+00
     1304000000    2,033225149e-01   -1,436251998e-01   -1,680220664e-02   -2,604831941e-02    0,000000000e+00    0,000000000e+00    0,000000000e+00    0,000000000e+00
     1318000000    1,122424528e-01   -3,134950995e-01   -1,127702743e-02    1,821639389e-02    0,000000000e+00    0,000000000e+00    0,000000000e+00    0,000000000e+00
     1332000000   -6,554143131e-02   -4,358689785e-01    5,004332587e-02    6,461992115e-02    0,000000000e+00    0,000000000e+00    0,000000000e+00    0,000000000e+00
     1346000000   -3,302255273e-01   -4,318964779e-01    1,524585336e-01    4,585888609e-02    0,000000000e+00    0,000000000e+00    0,000000000e+00    0,000000000e+00
     1360000000   -5,628356934e-01   -2,487796247e-01    1,115123406e-01   -8,354726434e-02    0,000000000e+00    0,000000000e+00    0,000000000e+00    0,000000000e+00
     1374000000   -6,260332465e-01    2,232081257e-02    1,006263271e-01    5,438427627e-02    0,000000000e+00    0,000000000e+00    0,000000000e+00    0,000000000e+00
     1388000000   -5,136251450e-01    2,847082317e-01    2,309697419e-01    1,107988995e-03    0,000000000e+00    0,000000000e+00    0,000000000e+00    0,000000000e+00
     1402000000   -3,113619983e-01    4,267539382e-01    2,240319848e-01   -7,452191412e-02    0,000000000e+00    0,000000000e+00    0,000000000e+00    0,000000000e+00
     1416000000   -9,177567065e-02    4,242745042e-01    1,922697574e-01   -1,106991619e-01    0,000000000e+00    0,000000000e+00    0,000000000e+00    0,000000000e+00
     1430000000    7,350157946e-02    3,280218840e-01    1,615017653e-01   -1,355290264e-01    0,000000000e+00    0,000000000e+00    0,000000000e+00    0,000000000e+00
     1444000000    1,748863161e-01    1,949009001e-01    1,465983093e-01   -1,111686081e-01    0,000000000e+00    0,000000000e+00    0,000000000e+00    0,000000000e+00
     1458000000    2,219662964e-01    3,580173850e-02    1,544981599e-01   -8,791577816e-02    0,000000000e+00    0,000000000e+00    0,000000000e+00    0,000000000e+00
     1472000000    2,052055001e-01   -1,485607624e-01    1,445456445e-01   -5,422738567e-02    0,000000000e+00    0,000000000e+00    0,000000000e+00    0,000000000e+00
     1486000000    1,070622653e-01   -3,221451640e-01    1,691504568e-01    1,251152367e-03    0,000000000e+00    0,000000000e+00    0,000000000e+00    0,000000000e+00
     1500000000   -8,745734394e-02   -4,557425678e-01    2,180111706e-01    3,553231433e-02    0,000000000e+00    0,000000000e+00    0,000000000e+00    0,000000000e+00
