! NanoVNA-App
! Date: 2025-09-25 14:26:37
! Start: 100MHz Stop: 1,5GHz Points: 101
! S-Parameter data: F S11 S21 S12 S22
# Hz S RI R 50
!     Frequency           S11_Real           S11_Imag           S21_Real           S21_Imag           S12_Real           S12_Imag           S22_Real           S22_Imag
      100000000   -2,909647673e-02   -4,126330838e-03    3,745206594e-01   -7,220121622e-01    0,000000000e+00    0,000000000e+00    0,000000000e+00    0,000000000e+00
      114000000   -1,660576649e-02    1,158545259e-02   -8,895398676e-02   -8,059067130e-01    0,000000000e+00    0,000000000e+00    0,000000000e+00    0,000000000e+00
      128000000    3,454210004e-03    1,052825060e-02   -5,146324039e-01   -6,211233735e-01    0,000000000e+00    0,000000000e+00    0,000000000e+00    0,000000000e+00
      142000000    1,444130670e-02   -3,082508221e-03   -7,675713897e-01   -2,370590121e-01    0,000000000e+00    0,000000000e+00    0,000000000e+00    0,000000000e+00
      156000000    1,423683576e-02   -1,497173775e-02   -7,641102076e-01    2,187870145e-01    0,000000000e+00    0,000000000e+00    0,000000000e+00    0,000000000e+00
      170000000    1,654597186e-02   -2,248939686e-02   -5,188282132e-01    6,049640179e-01    0,000000000e+00    0,000000000e+00    0,000000000e+00    0,000000000e+00
      184000000    2,099596523e-02   -3,700223938e-02   -1,017744020e-01    7,866501212e-01    0,000000000e+00    0,000000000e+00    0,000000000e+00    0,000000000e+00
      198000000    1,310835779e-02   -6,259955466e-02    3,427979350e-01    7,129176855e-01    0,000000000e+00    0,000000000e+00    0,000000000e+00    0,000000000e+00
      212000000   -1,867855713e-02   -8,173507452e-02    6,782786846e-01    4,105713367e-01    0,000000000e+00    0,000000000e+00    0,000000000e+00    0,000000000e+00
      226000000   -6,200256944e-02   -6,972377002e-02    7,960399389e-01   -2,976715006e-02    0,000000000e+00    0,000000000e+00    0,000000000e+00    0,000000000e+00
      240000000   -8,330741525e-02   -2,603174932e-02    6,472632289e-01   -4,666099846e-01    0,000000000e+00    0,000000000e+00    0,000000000e+00    0,000000000e+00
      254000000   -6,437140703e-02    1,746829599e-02    2,770384252e-01   -7,430607677e-01    0,000000000e+00    0,000000000e+00    0,000000000e+00    0,000000000e+00
      268000000   -2,401607856e-02    2,945355326e-02   -1,766223162e-01   -7,649917603e-01    0,000000000e+00    0,000000000e+00    0,000000000e+00    0,000000000e+00
      282000000    4,087068141e-03    1,198059972e-02   -5,624496937e-01   -5,372460485e-01    0,000000000e+00    0,000000000e+00    0,000000000e+00    0,000000000e+00
      296000000    9,577075019e-03   -7,777011953e-03   -7,608574629e-01   -1,393684149e-01    0,000000000e+00    0,000000000e+00    0,000000000e+00    0,000000000e+00
      310000000    1,103846543e-02   -1,598306373e-02   -7,124789357e-01    2,979867160e-01    0,000000000e+00    0,000000000e+00    0,000000000e+00    0,000000000e+00
      324000000    1,949220151e-02   -2,635253780e-02   -4,279022515e-01    6,380435824e-01    0,000000000e+00    0,000000000e+00    0,000000000e+00    0,000000000e+00
      338000000    2,546031587e-02   -5,225019902e-02   -1,070680097e-02    7,634013295e-01    0,000000000e+00    0,000000000e+00    0,000000000e+00    0,000000000e+00
      352000000    7,550686598e-03   -8,493484557e-02    4,058246017e-01    6,400212646e-01    0,000000000e+00    0,000000000e+00    0,000000000e+00    0,000000000e+00
      366000000   -3,478097543e-02   -9,614378959e-02    6,909237504e-01    3,128137589e-01    0,000000000e+00    0,000000000e+00    0,000000000e+00    0,000000000e+00
      380000000   -7,154240459e-02   -7,120142132e-02    7,485085130e-01   -1,245640814e-01    0,000000000e+00    0,000000000e+00    0,000000000e+00    0,000000000e+00
      394000000   -7,312959433e-02   -3,240442276e-02    5,499684215e-01   -5,206924081e-01    0,000000000e+00    0,000000000e+00    0,000000000e+00    0,000000000e+00
      408000000   -4,699350893e-02   -1,570815407e-02    1,622521877e-01   -7,323567867e-01    0,000000000e+00    0,000000000e+00    0,000000000e+00    0,000000000e+00
      422000000   -2,825221978e-02   -3,138841689e-02   -2,659811676e-01   -6,959959865e-01    0,000000000e+00    0,000000000e+00    0,000000000e+00    0,000000000e+00
      436000000   -4,022372887e-02   -5,209728703e-02   -6,032364368e-01   -4,336139262e-01    0,000000000e+00    0,000000000e+00    0,000000000e+00    0,000000000e+00
      450000000   -6,738241017e-02   -4,443933442e-02   -7,402024865e-01   -2,488731779e-02    0,000000000e+00    0,000000000e+00    0,000000000e+00    0,000000000e+00
      464000000   -7,445383072e-02   -1,240135636e-02   -6,215108037e-01    3,947876394e-01    0,000000000e+00    0,000000000e+00    0,000000000e+00    0,000000000e+00
      478000000   -4,895269871e-02    1,127061620e-02   -2,858312726e-01    6,679851413e-01    0,000000000e+00    0,000000000e+00    0,000000000e+00    0,000000000e+00
      492000000   -1,657174900e-02    6,679308601e-03    1,342888623e-01    7,037115097e-01    0,000000000e+00    0,000000000e+00    0,000000000e+00    0,000000000e+00
      506000000   -3,723824862e-03   -1,475575659e-02    4,973208010e-01    5,063699484e-01    0,000000000e+00    0,000000000e+00    0,000000000e+00    0,000000000e+00
      520000000   -5,945997313e-03   -2,935741283e-02    6,876934767e-01    1,430240273e-01    0,000000000e+00    0,000000000e+00    0,000000000e+00    0,000000000e+00
      534000000   -3,435298800e-03   -3,579944372e-02    6,446613669e-01   -2,594953477e-01    0,000000000e+00    0,000000000e+00    0,000000000e+00    0,000000000e+00
      548000000    7,931757718e-03   -5,248390138e-02    3,856851757e-01   -5,643393993e-01    0,000000000e+00    0,000000000e+00    0,000000000e+00    0,000000000e+00
      562000000    5,938242190e-03   -8,938556910e-02    8,898025379e-03   -6,721731424e-01    0,000000000e+00    0,000000000e+00    0,000000000e+00    0,000000000e+00
      576000000   -3,131428361e-02   -1,257706881e-01   -3,616504073e-01   -5,604499578e-01    0,000000000e+00    0,000000000e+00    0,000000000e+00    0,000000000e+00
      590000000   -9,511840343e-02   -1,277310699e-01   -6,162194014e-01   -2,707631588e-01    0,000000000e+00    0,000000000e+00    0,000000000e+00    0,000000000e+00
      604000000   -1,432141811e-01   -7,763112336e-02   -6,675925851e-01    1,265742630e-01    0,000000000e+00    0,000000000e+00    0,000000000e+00    0,000000000e+00
      618000000   -1,386929601e-01   -1,135037281e-02   -4,750915170e-01    4,857871532e-01    0,000000000e+00    0,000000000e+00    0,000000000e+00    0,000000000e+00
      632000000   -9,275718778e-02    2,208234556e-02   -1,138805002e-01    6,629993320e-01    0,000000000e+00    0,000000000e+00    0,000000000e+00    0,000000000e+00
      646000000   -5,508911982e-02    1,244148146e-02    2,746290565e-01    6,039260030e-01    0,000000000e+00    0,000000000e+00    0,000000000e+00    0,000000000e+00
      660000000   -4,768350720e-02   -9,228429757e-03    5,581580997e-01    3,409200907e-01    0,000000000e+00    0,000000000e+00    0,000000000e+00    0,000000000e+00
      674000000   -5,512796715e-02   -1,037666388e-02    6,445153952e-01   -3,975417092e-02    0,000000000e+00    0,000000000e+00    0,000000000e+00    0,000000000e+00
      688000000   -5,013649911e-02    2,346677007e-03    4,930003583e-01   -4,021196365e-01    0,000000000e+00    0,000000000e+00    0,000000000e+00    0,000000000e+00
      702000000   -2,665019780e-02    7,398836315e-03    1,652109921e-01   -6,039234996e-01    0,000000000e+00    0,000000000e+00    0,000000000e+00    0,000000000e+00
      716000000   -2,732031280e-03   -9,213726968e-03   -2,190839201e-01   -5,747298002e-01    0,000000000e+00    0,000000000e+00    0,000000000e+00    0,000000000e+00
      730000000    9,516717866e-03   -3,532475233e-02   -5,089810491e-01   -3,328497410e-01    0,000000000e+00    0,000000000e+00    0,000000000e+00    0,000000000e+00
      744000000    1,717850938e-02   -6,118670851e-02   -6,008356810e-01    3,301431984e-02    0,000000000e+00    0,000000000e+00    0,000000000e+00    0,000000000e+00
      758000000    2,175282501e-02   -1,041028425e-01   -4,539658725e-01    3,769675493e-01    0,000000000e+00    0,000000000e+00    0,000000000e+00    0,000000000e+00
      772000000   -4,957697820e-03   -1,733542979e-01   -1,392019987e-01    5,583924651e-01    0,000000000e+00    0,000000000e+00    0,000000000e+00    0,000000000e+00
      786000000   -1,058134139e-01   -2,327198833e-01    2,112856209e-01    5,200341344e-01    0,000000000e+00    0,000000000e+00    0,000000000e+00    0,000000000e+00
      800000000   -2,655403614e-01   -1,922542453e-01    4,715329707e-01    2,748376131e-01    0,000000000e+00    0,000000000e+00    0,000000000e+00    0,000000000e+00
      814000000   -3,636035025e-01    3,830789588e-03    5,080726147e-01   -8,846459538e-02    0,000000000e+00    0,000000000e+00    0,000000000e+00    0,000000000e+00
      828000000   -2,477923632e-01    2,326921076e-01    2,812265456e-01   -3,525182307e-01    0,000000000e+00    0,000000000e+00    0,000000000e+00    0,000000000e+00
      842000000    1,238331012e-02    2,786307931e-01   -1,586168259e-02   -3,637483418e-01    0,000000000e+00    0,000000000e+00    0,000000000e+00    0,000000000e+00
      856000000    2,126640379e-01    1,155168116e-01   -1,880113184e-01   -2,042266726e-01    0,000000000e+00    0,000000000e+00    0,000000000e+00    0,000000000e+00
      870000000    2,389709204e-01   -1,489096433e-01   -2,003551424e-01   -2,637047879e-02    0,000000000e+00    0,000000000e+00    0,000000000e+00    0,000000000e+00
      884000000    3,775237873e-02   -3,861498535e-01   -1,045909226e-01    7,053547353e-02    0,000000000e+00    0,000000000e+00    0,000000000e+00    0,000000000e+00
      898000000   -3,703601360e-01   -3,422103822e-01   -1,704450138e-02    2,760015987e-02    0,000000000e+00    0,000000000e+00    0,000000000e+00    0,000000000e+00
      912000000   -4,682586491e-01    1,385679096e-01   -1,109070331e-01    2,172394656e-02    0,000000000e+00    0,000000000e+00    0,000000000e+00    0,000000000e+00
      926000000   -9,606698155e-02    3,511525393e-01   -1,287191510e-01    1,332074851e-01    0,000000000e+00    0,000000000e+00    0,000000000e+00    0,000000000e+00
      940000000    1,855355352e-01    1,958288252e-01   -3,949514404e-02    2,152601928e-01    0,000000000e+00    0,000000000e+00    0,000000000e+00    0,000000000e+00
      954000000    2,539936900e-01   -4,728729278e-02    7,866261899e-02    2,268784940e-01    0,000000000e+00    0,000000000e+00    0,000000000e+00    0,000000000e+00
      968000000    1,789800376e-01   -2,614965439e-01    1,921694428e-01    1,803691834e-01    0,000000000e+00    0,000000000e+00    0,000000000e+00    0,000000000e+00
      982000000   -1,811691187e-02   -3,957163095e-01    2,804940343e-01    8,037996292e-02    0,000000000e+00    0,000000000e+00    0,000000000e+00    0,000000000e+00
      996000000   -2,738184035e-01   -3,744941056e-01    3,080994785e-01   -8,054723591e-02    0,000000000e+00    0,000000000e+00    0,000000000e+00    0,000000000e+00
     1010000000   -4,725051522e-01   -1,713311523e-01    2,223455906e-01   -2,505008280e-01    0,000000000e+00    0,000000000e+00    0,000000000e+00    0,000000000e+00
     1024000000   -4,642541409e-01    1,172200590e-01    2,093325928e-02   -3,266121149e-01    0,000000000e+00    0,000000000e+00    0,000000000e+00    0,000000000e+00
     1038000000   -2,631459832e-01    3,007788360e-01   -1,745784581e-01   -2,491646111e-01    0,000000000e+00    0,000000000e+00    0,000000000e+00    0,000000000e+00
     1052000000   -3,529005498e-02    3,105092645e-01   -2,555162013e-01   -7,822974771e-02    0,000000000e+00    0,000000000e+00    0,000000000e+00    0,000000000e+00
     1066000000    1,282767653e-01    2,034574002e-01   -2,246895880e-01    8,462920040e-02    0,000000000e+00    0,000000000e+00    0,000000000e+00    0,000000000e+00
     1080000000    2,098260224e-01    4,641844705e-02   -1,187883690e-01    1,905821860e-01    0,000000000e+00    0,000000000e+00    0,000000000e+00    0,000000000e+00
     1094000000    1,989116818e-01   -1,308338642e-01    1,710981131e-02    2,360921651e-01    0,000000000e+00    0,000000000e+00    0,000000000e+00    0,000000000e+00
     1108000000    9,846305102e-02   -2,858659625e-01    1,677498668e-01    2,082463205e-01    0,000000000e+00    0,000000000e+00    0,000000000e+00    0,000000000e+00
     1122000000   -9,699539095e-02   -3,681646585e-01    3,159507513e-01    9,291540831e-02    0,000000000e+00    0,000000000e+00    0,000000000e+00    0,000000000e+00
     1136000000   -3,461546302e-01   -2,658703923e-01    3,921134770e-01   -1,493625492e-01    0,000000000e+00    0,000000000e+00    0,000000000e+00    0,000000000e+00
     1150000000   -4,062330425e-01    3,098821640e-02    2,426572144e-01   -4,388068914e-01    0,000000000e+00    0,000000000e+00    0,000000000e+00    0,000000000e+00
     1164000000   -1,555643231e-01    2,180226147e-01   -9,159647673e-02   -5,153396130e-01    0,000000000e+00    0,000000000e+00    0,000000000e+00    0,000000000e+00
     1178000000    7,489123940e-02    8,074655384e-02   -3,582110405e-01   -3,482977748e-01    0,000000000e+00    0,000000000e+00    0,000000000e+00    0,000000000e+00
     1192000000    7,632186264e-02   -1,766439676e-01   -4,535593390e-01   -8,250417560e-02    0,000000000e+00    0,000000000e+00    0,000000000e+00    0,000000000e+00
     1206000000   -1,650722027e-01   -3,265074790e-01   -3,741205931e-01    1,893069148e-01    0,000000000e+00    0,000000000e+00    0,000000000e+00    0,000000000e+00
     1220000000   -4,579621255e-01   -1,819509268e-01   -1,050314829e-01    3,280505240e-01    0,000000000e+00    0,000000000e+00    0,000000000e+00    0,000000000e+00
     1234000000   -4,742985964e-01    1,661550105e-01    1,392910480e-01    2,219185531e-01    0,000000000e+00    0,000000000e+00    0,000000000e+00    0,000000000e+00
     1248000000   -2,417185158e-01    3,583880365e-01    1,849241704e-01    3,557540476e-02    0,000000000e+00    0,000000000e+00    0,000000000e+00    0,000000000e+00
     1262000000    2,521731425e-03    3,283132911e-01    1,304743141e-01   -6,979559362e-02    0,000000000e+00    0,000000000e+00    0,000000000e+00    0,000000000e+00
     1276000000    1,542444527e-01    1,945119053e-01    5,400764197e-02   -9,655114263e-02    0,000000000e+00    0,000000000e+00    0,000000000e+00    0,000000000e+00
     1290000000    2,177155167e-01    2,789172716e-02    3,597816685e-03   -7,862652093e-02    0,000000000e+00    0,000000000e+00    0,000000000e+00    0,000000000e+00
     1304000000    2,080836892e-01   -1,444157660e-01   -1,513590291e-02   -3,070303798e-02    0,000000000e+00    0,000000000e+00    0,000000000e+00    0,000000000e+00
     1318000000    1,137025282e-01   -3,126156032e-01   -9,770489298e-03    1,957364939e-02    0,000000000e+00    0,000000000e+00    0,000000000e+00    0,000000000e+00
     1332000000   -6,472169608e-02   -4,333441556e-01    4,525978863e-02    6,983225793e-02    0,000000000e+00    0,000000000e+00    0,000000000e+00    0,000000000e+00
     1346000000   -3,195894063e-01   -4,348385334e-01    1,523498595e-01    4,407052323e-02    0,000000000e+00    0,000000000e+00    0,000000000e+00    0,000000000e+00
     1360000000   -5,620833635e-01   -2,421044409e-01    1,093327180e-01   -7,609187067e-02    0,000000000e+00    0,000000000e+00    0,000000000e+00    0,000000000e+00
     1374000000   -6,233056784e-01    2,919728309e-02    1,032175571e-01    5,395366251e-02    0,000000000e+00    0,000000000e+00    0,000000000e+00    0,000000000e+00
     1388000000   -5,137650967e-01    2,810411751e-01    2,207078189e-01    2,240727656e-03    0,000000000e+00    0,000000000e+00    0,000000000e+00    0,000000000e+00
     1402000000   -2,960228920e-01    4,230688214e-01    2,309546769e-01   -8,515115082e-02    0,000000000e+00    0,000000000e+00    0,000000000e+00    0,000000000e+00
     1416000000   -9,114704281e-02    4,212294817e-01    1,925784945e-01   -1,222794279e-01    0,000000000e+00    0,000000000e+00    0,000000000e+00    0,000000000e+00
     1430000000    7,176889479e-02    3,397087455e-01    1,572657079e-01   -9,875904769e-02    0,000000000e+00    0,000000000e+00    0,000000000e+00    0,000000000e+00
     1444000000    1,759085059e-01    2,057153583e-01    1,573065519e-01   -9,334934503e-02    0,000000000e+00    0,000000000e+00    0,000000000e+00    0,000000000e+00
     1458000000    2,266562581e-01    3,167190030e-02    1,576774865e-01   -8,588742465e-02    0,000000000e+00    0,000000000e+00    0,000000000e+00    0,000000000e+00
     1472000000    2,072905004e-01   -1,421403438e-01    1,557881534e-01   -4,381228238e-02    0,000000000e+00    0,000000000e+00    0,000000000e+00    0,000000000e+00
     1486000000    1,087515578e-01   -3,239046037e-01    1,593723446e-01   -4,692393821e-03    0,000000000e+00    0,000000000e+00    0,000000000e+00    0,000000000e+00
     1500000000   -8,738327771e-02   -4,559894204e-01    2,239799500e-01    6,256719679e-02    0,000000000e+00    0,000000000e+00    0,000000000e+00    0,000000000e+00
