! NanoVNA-App
! Date: 2025-09-25 14:25:19
! Start: 100MHz Stop: 1,5GHz Points: 101
! S-Parameter data: F S11 S21 S12 S22
# Hz S RI R 50
!     Frequency           S11_Real           S11_Imag           S21_Real           S21_Imag           S12_Real           S12_Imag           S22_Real           S22_Imag
      100000000   -2,909507416e-02   -4,126427229e-03    3,745090961e-01   -7,220576406e-01    0,000000000e+00    0,000000000e+00    0,000000000e+00    0,000000000e+00
      114000000   -1,663070545e-02    1,161359623e-02   -8,894029260e-02   -8,059326410e-01    0,000000000e+00    0,000000000e+00    0,000000000e+00    0,000000000e+00
      128000000    3,389998339e-03    1,058345288e-02   -5,146418810e-01   -6,212403774e-01    0,000000000e+00    0,000000000e+00    0,000000000e+00    0,000000000e+00
      142000000    1,445680484e-02   -3,079154762e-03   -7,674393058e-01   -2,369489670e-01    0,000000000e+00    0,000000000e+00    0,000000000e+00    0,000000000e+00
      156000000    1,562814042e-02   -1,472459733e-02   -7,700645328e-01    2,236979157e-01    0,000000000e+00    0,000000000e+00    0,000000000e+00    0,000000000e+00
      170000000    1,645107754e-02   -2,248171903e-02   -5,187017322e-01    6,049473286e-01    0,000000000e+00    0,000000000e+00    0,000000000e+00    0,000000000e+00
      184000000    2,095564269e-02   -3,701995313e-02   -1,018109173e-01    7,869356275e-01    0,000000000e+00    0,000000000e+00    0,000000000e+00    0,000000000e+00
      198000000    1,310132258e-02   -6,259797513e-02    3,431648910e-01    7,132922411e-01    0,000000000e+00    0,000000000e+00    0,000000000e+00    0,000000000e+00
      212000000   -1,868784986e-02   -8,169131726e-02    6,782314181e-01    4,107340574e-01    0,000000000e+00    0,000000000e+00    0,000000000e+00    0,000000000e+00
      226000000   -6,202391163e-02   -6,966389716e-02    7,961382270e-01   -2,972316742e-02    0,000000000e+00    0,000000000e+00    0,000000000e+00    0,000000000e+00
      240000000   -8,328012377e-02   -2,605835162e-02    6,470060349e-01   -4,665673971e-01    0,000000000e+00    0,000000000e+00    0,000000000e+00    0,000000000e+00
      254000000   -6,437023729e-02    1,744890772e-02    2,770483494e-01   -7,434893250e-01    0,000000000e+00    0,000000000e+00    0,000000000e+00    0,000000000e+00
      268000000   -2,406213805e-02    2,940190956e-02   -1,768628508e-01   -7,650850415e-01    0,000000000e+00    0,000000000e+00    0,000000000e+00    0,000000000e+00
      282000000    4,061157815e-03    1,212279126e-02   -5,626623631e-01   -5,375483036e-01    0,000000000e+00    0,000000000e+00    0,000000000e+00    0,000000000e+00
      296000000    9,563163854e-03   -7,700847462e-03   -7,610160708e-01   -1,396262646e-01    0,000000000e+00    0,000000000e+00    0,000000000e+00    0,000000000e+00
      310000000    1,080906484e-02   -1,603888907e-02   -7,138109207e-01    2,966537774e-01    0,000000000e+00    0,000000000e+00    0,000000000e+00    0,000000000e+00
      324000000    1,951261796e-02   -2,652567811e-02   -4,291995168e-01    6,368824244e-01    0,000000000e+00    0,000000000e+00    0,000000000e+00    0,000000000e+00
      338000000    2,530829795e-02   -5,209666491e-02   -8,278256282e-03    7,644026875e-01    0,000000000e+00    0,000000000e+00    0,000000000e+00    0,000000000e+00
      352000000    7,243357599e-03   -8,457465470e-02    4,047906399e-01    6,409086585e-01    0,000000000e+00    0,000000000e+00    0,000000000e+00    0,000000000e+00
      366000000   -3,514409438e-02   -9,573277831e-02    6,897422671e-01    3,126415014e-01    0,000000000e+00    0,000000000e+00    0,000000000e+00    0,000000000e+00
      380000000   -7,141108066e-02   -7,125044614e-02    7,489684820e-01   -1,247084662e-01    0,000000000e+00    0,000000000e+00    0,000000000e+00    0,000000000e+00
      394000000   -7,346936315e-02   -3,232426941e-02    5,467019081e-01   -5,205010176e-01    0,000000000e+00    0,000000000e+00    0,000000000e+00    0,000000000e+00
      408000000   -4,707168415e-02   -1,589524373e-02    1,613877416e-01   -7,322281003e-01    0,000000000e+00    0,000000000e+00    0,000000000e+00    0,000000000e+00
      422000000   -2,811986580e-02   -3,136807680e-02   -2,655854821e-01   -6,955347657e-01    0,000000000e+00    0,000000000e+00    0,000000000e+00    0,000000000e+00
      436000000   -4,029044509e-02   -5,206284672e-02   -6,028195620e-01   -4,341641366e-01    0,000000000e+00    0,000000000e+00    0,000000000e+00    0,000000000e+00
      450000000   -6,758458167e-02   -4,441976920e-02   -7,402744889e-01   -2,506449632e-02    0,000000000e+00    0,000000000e+00    0,000000000e+00    0,000000000e+00
      464000000   -7,428720593e-02   -1,262366399e-02   -6,212580204e-01    3,947115242e-01    0,000000000e+00    0,000000000e+00    0,000000000e+00    0,000000000e+00
      478000000   -4,932634905e-02    1,168846898e-02   -2,868471146e-01    6,677398682e-01    0,000000000e+00    0,000000000e+00    0,000000000e+00    0,000000000e+00
      492000000   -1,687945053e-02    6,323618349e-03    1,341529191e-01    7,039213777e-01    0,000000000e+00    0,000000000e+00    0,000000000e+00    0,000000000e+00
      506000000   -3,566493047e-03   -1,531201042e-02    4,977104664e-01    5,056979656e-01    0,000000000e+00    0,000000000e+00    0,000000000e+00    0,000000000e+00
      520000000   -5,822074134e-03   -2,978372574e-02    6,892384887e-01    1,447199583e-01    0,000000000e+00    0,000000000e+00    0,000000000e+00    0,000000000e+00
      534000000   -3,441484645e-03   -3,572268412e-02    6,446044445e-01   -2,598569393e-01    0,000000000e+00    0,000000000e+00    0,000000000e+00    0,000000000e+00
      548000000    7,896967232e-03   -5,252104253e-02    3,851017356e-01   -5,643256307e-01    0,000000000e+00    0,000000000e+00    0,000000000e+00    0,000000000e+00
      562000000    5,505416077e-03   -8,911581337e-02    8,453407325e-03   -6,726957560e-01    0,000000000e+00    0,000000000e+00    0,000000000e+00    0,000000000e+00
      576000000   -3,147743642e-02   -1,258329153e-01   -3,630117774e-01   -5,615491271e-01    0,000000000e+00    0,000000000e+00    0,000000000e+00    0,000000000e+00
      590000000   -9,489335865e-02   -1,276356280e-01   -6,183882356e-01   -2,718829811e-01    0,000000000e+00    0,000000000e+00    0,000000000e+00    0,000000000e+00
      604000000   -1,430810094e-01   -7,817082852e-02   -6,669785976e-01    1,263251752e-01    0,000000000e+00    0,000000000e+00    0,000000000e+00    0,000000000e+00
      618000000   -1,383695155e-01   -1,131086145e-02   -4,751670361e-01    4,859090149e-01    0,000000000e+00    0,000000000e+00    0,000000000e+00    0,000000000e+00
      632000000   -9,277091175e-02    2,155291289e-02   -1,135072634e-01    6,629359126e-01    0,000000000e+00    0,000000000e+00    0,000000000e+00    0,000000000e+00
      646000000   -5,585959181e-02    1,226835791e-02    2,732289135e-01    6,043300629e-01    0,000000000e+00    0,000000000e+00    0,000000000e+00    0,000000000e+00
      660000000   -4,766796902e-02   -8,455735631e-03    5,570136905e-01    3,403846025e-01    0,000000000e+00    0,000000000e+00    0,000000000e+00    0,000000000e+00
      674000000   -5,587041751e-02   -1,110165101e-02    6,446096897e-01   -3,966436163e-02    0,000000000e+00    0,000000000e+00    0,000000000e+00    0,000000000e+00
      688000000   -5,084772408e-02    2,946918597e-03    4,928895235e-01   -4,012816548e-01    0,000000000e+00    0,000000000e+00    0,000000000e+00    0,000000000e+00
      702000000   -2,514247410e-02    8,367182687e-03    1,598741859e-01   -6,051936150e-01    0,000000000e+00    0,000000000e+00    0,000000000e+00    0,000000000e+00
      716000000   -1,611707499e-03   -9,704517201e-03   -2,183492333e-01   -5,754323006e-01    0,000000000e+00    0,000000000e+00    0,000000000e+00    0,000000000e+00
      730000000    9,936687537e-03   -3,497759253e-02   -5,093270540e-01   -3,338125944e-01    0,000000000e+00    0,000000000e+00    0,000000000e+00    0,000000000e+00
      744000000    1,705758832e-02   -6,027247757e-02   -6,009926200e-01    3,314876184e-02    0,000000000e+00    0,000000000e+00    0,000000000e+00    0,000000000e+00
      758000000    2,160571143e-02   -1,032635570e-01   -4,546790123e-01    3,775113523e-01    0,000000000e+00    0,000000000e+00    0,000000000e+00    0,000000000e+00
      772000000   -4,659899045e-03   -1,741363853e-01   -1,401472688e-01    5,584880114e-01    0,000000000e+00    0,000000000e+00    0,000000000e+00    0,000000000e+00
      786000000   -1,047947109e-01   -2,322558314e-01    2,111413479e-01    5,204904675e-01    0,000000000e+00    0,000000000e+00    0,000000000e+00    0,000000000e+00
      800000000   -2,658887208e-01   -1,920737624e-01    4,716755450e-01    2,750618160e-01    0,000000000e+00    0,000000000e+00    0,000000000e+00    0,000000000e+00
      814000000   -3,638429344e-01    2,896232996e-03    5,074745417e-01   -8,844237030e-02    0,000000000e+00    0,000000000e+00    0,000000000e+00    0,000000000e+00
      828000000   -2,469862700e-01    2,329229116e-01    2,814245820e-01   -3,523639143e-01    0,000000000e+00    0,000000000e+00    0,000000000e+00    0,000000000e+00
      842000000    1,228463091e-02    2,792454660e-01   -1,643360406e-02   -3,634220660e-01    0,000000000e+00    0,000000000e+00    0,000000000e+00    0,000000000e+00
      856000000    2,121710628e-01    1,151670739e-01   -1,879869998e-01   -2,046112269e-01    0,000000000e+00    0,000000000e+00    0,000000000e+00    0,000000000e+00
      870000000    2,388058454e-01   -1,484105140e-01   -2,004849166e-01   -2,555278502e-02    0,000000000e+00    0,000000000e+00    0,000000000e+00    0,000000000e+00
      884000000    3,758708015e-02   -3,873025179e-01   -1,037848145e-01    7,114009559e-02    0,000000000e+00    0,000000000e+00    0,000000000e+00    0,000000000e+00
      898000000   -3,684854507e-01   -3,423778415e-01   -1,612428576e-02    2,742464095e-02    0,000000000e+00    0,000000000e+00    0,000000000e+00    0,000000000e+00
      912000000   -4,670265317e-01    1,377647817e-01   -1,221043393e-01    2,503747679e-02    0,000000000e+00    0,000000000e+00    0,000000000e+00    0,000000000e+00
      926000000   -9,569088370e-02    3,530741930e-01   -1,276433468e-01    1,344498247e-01    0,000000000e+00    0,000000000e+00    0,000000000e+00    0,000000000e+00
      940000000    1,826740503e-01    1,961345077e-01   -3,893030062e-02    2,163285613e-01    0,000000000e+00    0,000000000e+00    0,000000000e+00    0,000000000e+00
      954000000    2,559875846e-01   -4,919015244e-02    8,049913496e-02    2,263803780e-01    0,000000000e+00    0,000000000e+00    0,000000000e+00    0,000000000e+00
      968000000    1,734132022e-01   -2,621302605e-01    1,915242821e-01    1,807768792e-01    0,000000000e+00    0,000000000e+00    0,000000000e+00    0,000000000e+00
      982000000   -1,795910113e-02   -3,953294158e-01    2,809849083e-01    8,028924465e-02    0,000000000e+00    0,000000000e+00    0,000000000e+00    0,000000000e+00
      996000000   -2,748728991e-01   -3,798649609e-01    3,084688783e-01   -7,997719198e-02    0,000000000e+00    0,000000000e+00    0,000000000e+00    0,000000000e+00
     1010000000   -4,685403109e-01   -1,746180505e-01    2,202969193e-01   -2,518728971e-01    0,000000000e+00    0,000000000e+00    0,000000000e+00    0,000000000e+00
     1024000000   -4,575435221e-01    1,155079603e-01    2,129790559e-02   -3,289432228e-01    0,000000000e+00    0,000000000e+00    0,000000000e+00    0,000000000e+00
     1038000000   -2,665370703e-01    2,972462177e-01   -1,751307100e-01   -2,465898097e-01    0,000000000e+00    0,000000000e+00    0,000000000e+00    0,000000000e+00
     1052000000   -3,838859126e-02    3,055204153e-01   -2,573262751e-01   -7,813539356e-02    0,000000000e+00    0,000000000e+00    0,000000000e+00    0,000000000e+00
     1066000000    1,271288395e-01    2,088169903e-01   -2,225952744e-01    8,420228958e-02    0,000000000e+00    0,000000000e+00    0,000000000e+00    0,000000000e+00
     1080000000    2,106115520e-01    4,565610364e-02   -1,196106225e-01    1,929045320e-01    0,000000000e+00    0,000000000e+00    0,000000000e+00    0,000000000e+00
     1094000000    2,045042664e-01   -1,283423007e-01    1,689042151e-02    2,329717427e-01    0,000000000e+00    0,000000000e+00    0,000000000e+00    0,000000000e+00
     1108000000    1,024710461e-01   -2,848142982e-01    1,688390076e-01    2,032231688e-01    0,000000000e+00    0,000000000e+00    0,000000000e+00    0,000000000e+00
     1122000000   -9,983607382e-02   -3,665861785e-01    3,185688555e-01    8,606347442e-02    0,000000000e+00    0,000000000e+00    0,000000000e+00    0,000000000e+00
     1136000000   -3,513007760e-01   -2,662327290e-01    3,934506476e-01   -1,504854858e-01    0,000000000e+00    0,000000000e+00    0,000000000e+00    0,000000000e+00
     1150000000   -4,116313756e-01    3,813095018e-02    2,434243411e-01   -4,390436411e-01    0,000000000e+00    0,000000000e+00    0,000000000e+00    0,000000000e+00
     1164000000   -1,620485336e-01    2,141729444e-01   -9,308853000e-02   -5,162541866e-01    0,000000000e+00    0,000000000e+00    0,000000000e+00    0,000000000e+00
     1178000000    7,731484622e-02    8,133407682e-02   -3,565315604e-01   -3,484591544e-01    0,000000000e+00    0,000000000e+00    0,000000000e+00    0,000000000e+00
     1192000000    7,742619514e-02   -1,743004024e-01   -4,553438723e-01   -8,603759110e-02    0,000000000e+00    0,000000000e+00    0,000000000e+00    0,000000000e+00
     1206000000   -1,607036144e-01   -3,260994554e-01   -3,691821098e-01    1,889750659e-01    0,000000000e+00    0,000000000e+00    0,000000000e+00    0,000000000e+00
     1220000000   -4,553173780e-01   -1,759947389e-01   -1,052576751e-01    3,288949430e-01    0,000000000e+00    0,000000000e+00    0,000000000e+00    0,000000000e+00
     1234000000   -4,702415168e-01    1,639436930e-01    1,418129206e-01    2,224658728e-01    0,000000000e+00    0,000000000e+00    0,000000000e+00    0,000000000e+00
     1248000000   -2,389698774e-01    3,594692349e-01    1,882873476e-01    3,645654768e-02    0,000000000e+00    0,000000000e+00    0,000000000e+00    0,000000000e+00
     1262000000    1,125647593e-02    3,304491937e-01    1,331063956e-01   -7,440143824e-02    0,000000000e+00    0,000000000e+00    0,000000000e+00    0,000000000e+00
     1276000000    1,595706195e-01    2,010445446e-01    4,928645119e-02   -9,026863426e-02    0,000000000e+00    0,000000000e+00    0,000000000e+00    0,000000000e+00
     1290000000    2,146852762e-01    3,153512999e-02    3,062640782e-03   -6,807033718e-02    0,000000000e+00    0,000000000e+00    0,000000000e+00    0,000000000e+00
     1304000000    2,036090642e-01   -1,482606977e-01   -2,247952484e-02   -3,181333095e-02    0,000000000e+00    0,000000000e+00    0,000000000e+00    0,000000000e+00
     1318000000    1,164569333e-01   -3,141949177e-01   -6,879285444e-03    1,648205146e-02    0,000000000e+00    0,000000000e+00    0,000000000e+00    0,000000000e+00
     1332000000   -7,261009514e-02   -4,337482452e-01    4,171986878e-02    6,511819363e-02    0,000000000e+00    0,000000000e+00    0,000000000e+00    0,000000000e+00
     1346000000   -3,271615207e-01   -4,333471954e-01    1,450198293e-01    4,576877877e-02    0,000000000e+00    0,000000000e+00    0,000000000e+00    0,000000000e+00
     1360000000   -5,568690896e-01   -2,490675300e-01    1,141217947e-01   -8,489362895e-02    0,000000000e+00    0,000000000e+00    0,000000000e+00    0,000000000e+00
     1374000000   -6,261965036e-01    3,201748058e-02    9,901297092e-02    6,631603837e-02    0,000000000e+00    0,000000000e+00    0,000000000e+00    0,000000000e+00
     1388000000   -5,108606815e-01    2,906980813e-01    2,263632715e-01   -1,120352559e-02    0,000000000e+00    0,000000000e+00    0,000000000e+00    0,000000000e+00
     1402000000   -3,045522869e-01    4,215960205e-01    2,302206904e-01   -7,821605355e-02    0,000000000e+00    0,000000000e+00    0,000000000e+00    0,000000000e+00
     1416000000   -9,747378528e-02    4,181200564e-01    1,864348352e-01   -1,209771633e-01    0,000000000e+00    0,000000000e+00    0,000000000e+00    0,000000000e+00
     1430000000    7,389330864e-02    3,437332511e-01    1,759722680e-01   -1,255693883e-01    0,000000000e+00    0,000000000e+00    0,000000000e+00    0,000000000e+00
     1444000000    1,753559709e-01    1,971620470e-01    1,481431723e-01   -1,087839082e-01    0,000000000e+00    0,000000000e+00    0,000000000e+00    0,000000000e+00
     1458000000    2,212202549e-01    3,394733369e-02    1,446163654e-01   -9,640987217e-02    0,000000000e+00    0,000000000e+00    0,000000000e+00    0,000000000e+00
     1472000000    2,088217884e-01   -1,471996456e-01    1,480899006e-01   -5,174843967e-02    0,000000000e+00    0,000000000e+00    0,000000000e+00    0,000000000e+00
     1486000000    1,055078506e-01   -3,247445524e-01    1,708975881e-01   -4,433716182e-03    0,000000000e+00    0,000000000e+00    0,000000000e+00    0,000000000e+00
     1500000000   -9,626300633e-02   -4,604542553e-01    2,105695903e-01    5,308846384e-02    0,000000000e+00    0,000000000e+00    0,000000000e+00    0,000000000e+00
