! NanoVNA-App
! Date: 2025-09-25 14:25:51
! Start: 100MHz Stop: 1,5GHz Points: 101
! S-Parameter data: F S11 S21 S12 S22
# Hz S RI R 50
!     Frequency           S11_Real           S11_Imag           S21_Real           S21_Imag           S12_Real           S12_Imag           S22_Real           S22_Imag
      100000000   -2,909724787e-02   -4,121297505e-03    3,745506406e-01   -7,220883369e-01    0,000000000e+00    0,000000000e+00    0,000000000e+00    0,000000000e+00
      114000000   -1,660142653e-02    1,160191186e-02   -8,874377608e-02   -8,059399724e-01    0,000000000e+00    0,000000000e+00    0,000000000e+00    0,000000000e+00
      128000000    3,422047244e-03    1,054338086e-02   -5,145505071e-01   -6,211199164e-01    0,000000000e+00    0,000000000e+00    0,000000000e+00    0,000000000e+00
      142000000    1,445339713e-02   -3,092596307e-03   -7,673629522e-01   -2,368750274e-01    0,000000000e+00    0,000000000e+00    0,000000000e+00    0,000000000e+00
      156000000    1,572347805e-02   -1,464376599e-02   -7,707661986e-01    2,239302099e-01    0,000000000e+00    0,000000000e+00    0,000000000e+00    0,000000000e+00
      170000000    1,654757932e-02   -2,249910682e-02   -5,188936591e-01    6,051124930e-01    0,000000000e+00    0,000000000e+00    0,000000000e+00    0,000000000e+00
      184000000    2,102390118e-02   -3,699863702e-02   -1,015582457e-01    7,864354253e-01    0,000000000e+00    0,000000000e+00    0,000000000e+00    0,000000000e+00
      198000000    1,316086575e-02   -6,262742728e-02    3,432041705e-01    7,131746411e-01    0,000000000e+00    0,000000000e+00    0,000000000e+00    0,000000000e+00
      212000000   -1,870881021e-02   -8,173954487e-02    6,782753468e-01    4,104350507e-01    0,000000000e+00    0,000000000e+00    0,000000000e+00    0,000000000e+00
      226000000   -6,203086674e-02   -6,966820359e-02    7,960972786e-01   -2,977810986e-02    0,000000000e+00    0,000000000e+00    0,000000000e+00    0,000000000e+00
      240000000   -8,332561702e-02   -2,604388073e-02    6,472750306e-01   -4,665440321e-01    0,000000000e+00    0,000000000e+00    0,000000000e+00    0,000000000e+00
      254000000   -6,436894089e-02    1,749110781e-02    2,772228122e-01   -7,439644933e-01    0,000000000e+00    0,000000000e+00    0,000000000e+00    0,000000000e+00
      268000000   -2,405959181e-02    2,949524671e-02   -1,767080128e-01   -7,653060555e-01    0,000000000e+00    0,000000000e+00    0,000000000e+00    0,000000000e+00
      282000000    4,051680211e-03    1,216027886e-02   -5,626494884e-01   -5,374470353e-01    0,000000000e+00    0,000000000e+00    0,000000000e+00    0,000000000e+00
      296000000    9,624118917e-03   -7,636234630e-03   -7,608947158e-01   -1,395443678e-01    0,000000000e+00    0,000000000e+00    0,000000000e+00    0,000000000e+00
      310000000    1,070932485e-02   -1,604350656e-02   -7,136338949e-01    2,968122363e-01    0,000000000e+00    0,000000000e+00    0,000000000e+00    0,000000000e+00
      324000000    1,941137016e-02   -2,631919831e-02   -4,289314449e-01    6,374635696e-01    0,000000000e+00    0,000000000e+00    0,000000000e+00    0,000000000e+00
      338000000    2,545552142e-02   -5,235225335e-02   -8,491938934e-03    7,634792924e-01    0,000000000e+00    0,000000000e+00    0,000000000e+00    0,000000000e+00
      352000000    7,231284864e-03   -8,488883823e-02    4,057426453e-01    6,409194469e-01    0,000000000e+00    0,000000000e+00    0,000000000e+00    0,000000000e+00
      366000000   -3,487874940e-02   -9,594895691e-02    6,908828616e-01    3,123847544e-01    0,000000000e+00    0,000000000e+00    0,000000000e+00    0,000000000e+00
      380000000   -7,152137905e-02   -7,134160399e-02    7,484410405e-01   -1,243211925e-01    0,000000000e+00    0,000000000e+00    0,000000000e+00    0,000000000e+00
      394000000   -7,329001278e-02   -3,241167963e-02    5,474036336e-01   -5,217099190e-01    0,000000000e+00    0,000000000e+00    0,000000000e+00    0,000000000e+00
      408000000   -4,694433510e-02   -1,588683575e-02    1,622917205e-01   -7,331443429e-01    0,000000000e+00    0,000000000e+00    0,000000000e+00    0,000000000e+00
      422000000   -2,827245928e-02   -3,170517832e-02   -2,663556039e-01   -6,962692738e-01    0,000000000e+00    0,000000000e+00    0,000000000e+00    0,000000000e+00
      436000000   -4,031310230e-02   -5,196588114e-02   -6,029545665e-01   -4,338665009e-01    0,000000000e+00    0,000000000e+00    0,000000000e+00    0,000000000e+00
      450000000   -6,730043143e-02   -4,458495229e-02   -7,400027514e-01   -2,486594953e-02    0,000000000e+00    0,000000000e+00    0,000000000e+00    0,000000000e+00
      464000000   -7,435522974e-02   -1,249825489e-02   -6,209604144e-01    3,944581151e-01    0,000000000e+00    0,000000000e+00    0,000000000e+00    0,000000000e+00
      478000000   -4,880152643e-02    1,172098331e-02   -2,866011262e-01    6,672694683e-01    0,000000000e+00    0,000000000e+00    0,000000000e+00    0,000000000e+00
      492000000   -1,676966436e-02    6,742569152e-03    1,345781386e-01    7,039375901e-01    0,000000000e+00    0,000000000e+00    0,000000000e+00    0,000000000e+00
      506000000   -4,015605431e-03   -1,482000295e-02    4,979130030e-01    5,059128404e-01    0,000000000e+00    0,000000000e+00    0,000000000e+00    0,000000000e+00
      520000000   -5,605184007e-03   -2,966600284e-02    6,896666884e-01    1,428733766e-01    0,000000000e+00    0,000000000e+00    0,000000000e+00    0,000000000e+00
      534000000   -3,437702078e-03   -3,590096161e-02    6,445352435e-01   -2,594509125e-01    0,000000000e+00    0,000000000e+00    0,000000000e+00    0,000000000e+00
      548000000    8,238510229e-03   -5,254069716e-02    3,850130737e-01   -5,645398498e-01    0,000000000e+00    0,000000000e+00    0,000000000e+00    0,000000000e+00
      562000000    5,603209604e-03   -8,933313936e-02    8,610357530e-03   -6,706689596e-01    0,000000000e+00    0,000000000e+00    0,000000000e+00    0,000000000e+00
      576000000   -3,135881200e-02   -1,260601580e-01   -3,620975316e-01   -5,601655841e-01    0,000000000e+00    0,000000000e+00    0,000000000e+00    0,000000000e+00
      590000000   -9,490463883e-02   -1,276843101e-01   -6,151230931e-01   -2,707084715e-01    0,000000000e+00    0,000000000e+00    0,000000000e+00    0,000000000e+00
      604000000   -1,428715140e-01   -7,760055363e-02   -6,671471000e-01    1,268496960e-01    0,000000000e+00    0,000000000e+00    0,000000000e+00    0,000000000e+00
      618000000   -1,379095167e-01   -1,154898573e-02   -4,748882949e-01    4,856739640e-01    0,000000000e+00    0,000000000e+00    0,000000000e+00    0,000000000e+00
      632000000   -9,361070395e-02    2,160488814e-02   -1,143573150e-01    6,634266376e-01    0,000000000e+00    0,000000000e+00    0,000000000e+00    0,000000000e+00
      646000000   -5,529297143e-02    1,125179511e-02    2,748769522e-01    6,037382483e-01    0,000000000e+00    0,000000000e+00    0,000000000e+00    0,000000000e+00
      660000000   -4,819493368e-02   -8,272579871e-03    5,576798916e-01    3,413024247e-01    0,000000000e+00    0,000000000e+00    0,000000000e+00    0,000000000e+00
      674000000   -5,627230182e-02   -1,041165367e-02    6,444075108e-01   -3,975309059e-02    0,000000000e+00    0,000000000e+00    0,000000000e+00    0,000000000e+00
      688000000   -5,004893243e-02    3,416945459e-03    4,931794405e-01   -4,016792178e-01    0,000000000e+00    0,000000000e+00    0,000000000e+00    0,000000000e+00
      702000000   -2,629835717e-02    7,150799036e-03    1,609435529e-01   -6,054383516e-01    0,000000000e+00    0,000000000e+00    0,000000000e+00    0,000000000e+00
      716000000   -2,211156534e-03   -8,615601808e-03   -2,183861434e-01   -5,751425624e-01    0,000000000e+00    0,000000000e+00    0,000000000e+00    0,000000000e+00
      730000000    9,115038440e-03   -3,435843438e-02   -5,091233850e-01   -3,333158195e-01    0,000000000e+00    0,000000000e+00    0,000000000e+00    0,000000000e+00
      744000000    1,641764678e-02   -6,129572168e-02   -6,006891131e-01    3,304592147e-02    0,000000000e+00    0,000000000e+00    0,000000000e+00    0,000000000e+00
      758000000    2,178736962e-02   -1,030173749e-01   -4,543420672e-01    3,769096136e-01    0,000000000e+00    0,000000000e+00    0,000000000e+00    0,000000000e+00
      772000000   -4,419042263e-03   -1,739467978e-01   -1,405731738e-01    5,583240390e-01    0,000000000e+00    0,000000000e+00    0,000000000e+00    0,000000000e+00
      786000000   -1,046183854e-01   -2,327425778e-01    2,106449455e-01    5,202264786e-01    0,000000000e+00    0,000000000e+00    0,000000000e+00    0,000000000e+00
      800000000   -2,652406394e-01   -1,933754832e-01    4,712121487e-01    2,764490843e-01    0,000000000e+00    0,000000000e+00    0,000000000e+00    0,000000000e+00
      814000000   -3,634511530e-01    3,121736227e-03    5,079497099e-01   -8,860408515e-02    0,000000000e+00    0,000000000e+00    0,000000000e+00    0,000000000e+00
      828000000   -2,467754632e-01    2,335417718e-01    2,819870710e-01   -3,521552384e-01    0,000000000e+00    0,000000000e+00    0,000000000e+00    0,000000000e+00
      842000000    1,295736246e-02    2,776345313e-01   -1,581817493e-02   -3,633801341e-01    0,000000000e+00    0,000000000e+00    0,000000000e+00    0,000000000e+00
      856000000    2,123909891e-01    1,153814644e-01   -1,877737790e-01   -2,050034106e-01    0,000000000e+00    0,000000000e+00    0,000000000e+00    0,000000000e+00
      870000000    2,386314422e-01   -1,486955881e-01   -2,010072470e-01   -2,555330656e-02    0,000000000e+00    0,000000000e+00    0,000000000e+00    0,000000000e+00
      884000000    3,782445565e-02   -3,872717023e-01   -1,048430279e-01    7,056953758e-02    0,000000000e+00    0,000000000e+00    0,000000000e+00    0,000000000e+00
      898000000   -3,693343103e-01   -3,420571089e-01   -1,678353921e-02    2,795395255e-02    0,000000000e+00    0,000000000e+00    0,000000000e+00    0,000000000e+00
      912000000   -4,673011005e-01    1,380597353e-01   -1,111997440e-01    2,289905027e-02    0,000000000e+00    0,000000000e+00    0,000000000e+00    0,000000000e+00
      926000000   -9,669615328e-02    3,517875969e-01   -1,295304447e-01    1,350582838e-01    0,000000000e+00    0,000000000e+00    0,000000000e+00    0,000000000e+00
      940000000    1,817139536e-01    1,923898607e-01   -3,997239470e-02    2,154197693e-01    0,000000000e+00    0,000000000e+00    0,000000000e+00    0,000000000e+00
      954000000    2,556647658e-01   -5,016329885e-02    8,058901876e-02    2,271209955e-01    0,000000000e+00    0,000000000e+00    0,000000000e+00    0,000000000e+00
      968000000    1,761555523e-01   -2,635545135e-01    1,915391535e-01    1,798306406e-01    0,000000000e+00    0,000000000e+00    0,000000000e+00    0,000000000e+00
      982000000   -1,540349238e-02   -3,955644965e-01    2,809379697e-01    8,017970622e-02    0,000000000e+00    0,000000000e+00    0,000000000e+00    0,000000000e+00
      996000000   -2,761226296e-01   -3,784204423e-01    3,088788688e-01   -8,002553880e-02    0,000000000e+00    0,000000000e+00    0,000000000e+00    0,000000000e+00
     1010000000   -4,679255784e-01   -1,771164834e-01    2,222730815e-01   -2,529462278e-01    0,000000000e+00    0,000000000e+00    0,000000000e+00    0,000000000e+00
     1024000000   -4,557757676e-01    1,166848913e-01    2,119861171e-02   -3,288675845e-01    0,000000000e+00    0,000000000e+00    0,000000000e+00    0,000000000e+00
     1038000000   -2,618860602e-01    3,028532267e-01   -1,729355305e-01   -2,494794428e-01    0,000000000e+00    0,000000000e+00    0,000000000e+00    0,000000000e+00
     1052000000   -3,709612042e-02    3,062560260e-01   -2,582081258e-01   -7,701443136e-02    0,000000000e+00    0,000000000e+00    0,000000000e+00    0,000000000e+00
     1066000000    1,278067082e-01    2,034124732e-01   -2,258559316e-01    8,535916358e-02    0,000000000e+00    0,000000000e+00    0,000000000e+00    0,000000000e+00
     1080000000    2,093713135e-01    4,740625992e-02   -1,217468902e-01    1,944894642e-01    0,000000000e+00    0,000000000e+00    0,000000000e+00    0,000000000e+00
     1094000000    2,018439025e-01   -1,256052852e-01    1,700577140e-02    2,352346927e-01    0,000000000e+00    0,000000000e+00    0,000000000e+00    0,000000000e+00
     1108000000    1,021890193e-01   -2,881194055e-01    1,675885171e-01    2,062965930e-01    0,000000000e+00    0,000000000e+00    0,000000000e+00    0,000000000e+00
     1122000000   -9,697158635e-02   -3,706230819e-01    3,158753216e-01    8,909555525e-02    0,000000000e+00    0,000000000e+00    0,000000000e+00    0,000000000e+00
     1136000000   -3,425992429e-01   -2,677144706e-01    3,906978667e-01   -1,528071463e-01    0,000000000e+00    0,000000000e+00    0,000000000e+00    0,000000000e+00
     1150000000   -4,054071307e-01    4,155710712e-02    2,411853224e-01   -4,354419708e-01    0,000000000e+00    0,000000000e+00    0,000000000e+00    0,000000000e+00
     1164000000   -1,611120403e-01    2,211752236e-01   -9,693157673e-02   -5,137428641e-01    0,000000000e+00    0,000000000e+00    0,000000000e+00    0,000000000e+00
     1178000000    7,296935469e-02    8,214638382e-02   -3,562919796e-01   -3,465962112e-01    0,000000000e+00    0,000000000e+00    0,000000000e+00    0,000000000e+00
     1192000000    7,698173076e-02   -1,761027724e-01   -4,559762180e-01   -8,352643996e-02    0,000000000e+00    0,000000000e+00    0,000000000e+00    0,000000000e+00
     1206000000   -1,597184986e-01   -3,283503652e-01   -3,695043027e-01    1,844388098e-01    0,000000000e+00    0,000000000e+00    0,000000000e+00    0,000000000e+00
     1220000000   -4,512656629e-01   -1,748910844e-01   -1,095054373e-01    3,264068365e-01    0,000000000e+00    0,000000000e+00    0,000000000e+00    0,000000000e+00
     1234000000   -4,707424939e-01    1,608672440e-01    1,386386752e-01    2,217694968e-01    0,000000000e+00    0,000000000e+00    0,000000000e+00    0,000000000e+00
     1248000000   -2,369559258e-01    3,582474589e-01    1,918685138e-01    3,942460939e-02    0,000000000e+00    0,000000000e+00    0,000000000e+00    0,000000000e+00
     1262000000   -4,135564086e-04    3,276385069e-01    1,286364198e-01   -7,116691768e-02    0,000000000e+00    0,000000000e+00    0,000000000e+00    0,000000000e+00
     1276000000    1,562252939e-01    1,965212524e-01    5,455304310e-02   -9,844819456e-02    0,000000000e+00    0,000000000e+00    0,000000000e+00    0,000000000e+00
     1290000000    2,224925458e-01    3,138045222e-02    2,991623478e-03   -7,544633001e-02    0,000000000e+00    0,000000000e+00    0,000000000e+00    0,000000000e+00
     1304000000    2,057702392e-01   -1,471790969e-01   -2,001136728e-02   -3,126319498e-02    0,000000000e+00    0,000000000e+00    0,000000000e+00    0,000000000e+00
     1318000000    1,120426655e-01   -3,121199012e-01   -1,201605238e-02    2,734883130e-02    0,000000000e+00    0,000000000e+00    0,000000000e+00    0,000000000e+00
     1332000000   -6,913176924e-02   -4,351519346e-01    4,022623971e-02    6,718734652e-02    0,000000000e+00    0,000000000e+00    0,000000000e+00    0,000000000e+00
     1346000000   -3,288530707e-01   -4,334620833e-01    1,479892582e-01    4,781267047e-02    0,000000000e+00    0,000000000e+00    0,000000000e+00    0,000000000e+00
     1360000000   -5,583842993e-01   -2,372505814e-01    1,162385270e-01   -6,937110424e-02    0,000000000e+00    0,000000000e+00    0,000000000e+00    0,000000000e+00
     1374000000   -6,279023886e-01    3,111761808e-02    1,054857448e-01    6,848847121e-02    0,000000000e+00    0,000000000e+00    0,000000000e+00    0,000000000e+00
     1388000000   -5,114144683e-01    2,970152497e-01    2,296981663e-01    1,175432466e-03    0,000000000e+00    0,000000000e+00    0,000000000e+00    0,000000000e+00
     1402000000   -3,015097976e-01    4,166446626e-01    2,255674452e-01   -8,284190297e-02    0,000000000e+00    0,000000000e+00    0,000000000e+00    0,000000000e+00
     1416000000   -9,441483766e-02    4,202163517e-01    1,806742549e-01   -1,198619455e-01    0,000000000e+00    0,000000000e+00    0,000000000e+00    0,000000000e+00
     1430000000    6,660582125e-02    3,376567364e-01    1,749690175e-01   -1,183025166e-01    0,000000000e+00    0,000000000e+00    0,000000000e+00    0,000000000e+00
     1444000000    1,782750636e-01    2,008037269e-01    1,578084081e-01   -1,021104082e-01    0,000000000e+00    0,000000000e+00    0,000000000e+00    0,000000000e+00
     1458000000    2,220899016e-01    3,786227107e-02    1,466670185e-01   -8,687569201e-02    0,000000000e+00    0,000000000e+00    0,000000000e+00    0,000000000e+00
     1472000000    2,071597874e-01   -1,463500559e-01    1,483904272e-01   -4,064907134e-02    0,000000000e+00    0,000000000e+00    0,000000000e+00    0,000000000e+00
     1486000000    1,091251373e-01   -3,183987439e-01    1,704570800e-01   -3,066562349e-03    0,000000000e+00    0,000000000e+00    0,000000000e+00    0,000000000e+00
     1500000000   -8,929032087e-02   -4,533571899e-01    2,091936618e-01    6,743720919e-02    0,000000000e+00    0,000000000e+00    0,000000000e+00    0,000000000e+00
