! NanoVNA-App
! Date: 2025-09-25 14:28:30
! Start: 100MHz Stop: 1,5GHz Points: 101
! S-Parameter data: F S11 S21 S12 S22
# Hz S RI R 50
!     Frequency           S11_Real           S11_Imag           S21_Real           S21_Imag           S12_Real           S12_Imag           S22_Real           S22_Imag
      100000000   -2,909927629e-02   -4,138053861e-03    3,745670617e-01   -7,220147848e-01    0,000000000e+00    0,000000000e+00    0,000000000e+00    0,000000000e+00
      114000000   -1,659450866e-02    1,160688419e-02   -8,871629089e-02   -8,056993484e-01    0,000000000e+00    0,000000000e+00    0,000000000e+00    0,000000000e+00
      128000000    3,415200859e-03    1,053383667e-02   -5,145230889e-01   -6,212784648e-01    0,000000000e+00    0,000000000e+00    0,000000000e+00    0,000000000e+00
      142000000    1,443826966e-02   -3,067456884e-03   -7,674485445e-01   -2,369043827e-01    0,000000000e+00    0,000000000e+00    0,000000000e+00    0,000000000e+00
      156000000    1,573979668e-02   -1,438386925e-02   -7,727537751e-01    2,240876704e-01    0,000000000e+00    0,000000000e+00    0,000000000e+00    0,000000000e+00
      170000000    1,653762348e-02   -2,242757753e-02   -5,186358690e-01    6,047836542e-01    0,000000000e+00    0,000000000e+00    0,000000000e+00    0,000000000e+00
      184000000    2,101931907e-02   -3,697814420e-02   -1,018349007e-01    7,866350412e-01    0,000000000e+00    0,000000000e+00    0,000000000e+00    0,000000000e+00
      198000000    1,313315611e-02   -6,261610240e-02    3,429720402e-01    7,132666707e-01    0,000000000e+00    0,000000000e+00    0,000000000e+00    0,000000000e+00
      212000000   -1,871571504e-02   -8,172054589e-02    6,784380674e-01    4,106643200e-01    0,000000000e+00    0,000000000e+00    0,000000000e+00    0,000000000e+00
      226000000   -6,209562346e-02   -6,966236234e-02    7,961370945e-01   -2,970157936e-02    0,000000000e+00    0,000000000e+00    0,000000000e+00    0,000000000e+00
      240000000   -8,332514763e-02   -2,605583705e-02    6,470027566e-01   -4,666614830e-01    0,000000000e+00    0,000000000e+00    0,000000000e+00    0,000000000e+00
      254000000   -6,439498067e-02    1,744830422e-02    2,772964537e-01   -7,432902455e-01    0,000000000e+00    0,000000000e+00    0,000000000e+00    0,000000000e+00
      268000000   -2,405923419e-02    2,950422466e-02   -1,766529828e-01   -7,648730874e-01    0,000000000e+00    0,000000000e+00    0,000000000e+00    0,000000000e+00
      282000000    4,197025206e-03    1,214173064e-02   -5,626176596e-01   -5,374200344e-01    0,000000000e+00    0,000000000e+00    0,000000000e+00    0,000000000e+00
      296000000    9,521209635e-03   -7,738566026e-03   -7,608473897e-01   -1,396156847e-01    0,000000000e+00    0,000000000e+00    0,000000000e+00    0,000000000e+00
      310000000    1,083816309e-02   -1,625934057e-02   -7,128764987e-01    2,972033322e-01    0,000000000e+00    0,000000000e+00    0,000000000e+00    0,000000000e+00
      324000000    1,942043379e-02   -2,651340701e-02   -4,287787378e-01    6,373850703e-01    0,000000000e+00    0,000000000e+00    0,000000000e+00    0,000000000e+00
      338000000    2,564786188e-02   -5,220050737e-02   -1,020284928e-02    7,625585794e-01    0,000000000e+00    0,000000000e+00    0,000000000e+00    0,000000000e+00
      352000000    7,244283799e-03   -8,464491367e-02    4,057395160e-01    6,404606104e-01    0,000000000e+00    0,000000000e+00    0,000000000e+00    0,000000000e+00
      366000000   -3,477597237e-02   -9,602297097e-02    6,911299229e-01    3,126067221e-01    0,000000000e+00    0,000000000e+00    0,000000000e+00    0,000000000e+00
      380000000   -7,122117281e-02   -7,113797218e-02    7,484415174e-01   -1,249065474e-01    0,000000000e+00    0,000000000e+00    0,000000000e+00    0,000000000e+00
      394000000   -7,310042530e-02   -3,216488659e-02    5,482777357e-01   -5,202626586e-01    0,000000000e+00    0,000000000e+00    0,000000000e+00    0,000000000e+00
      408000000   -4,679946601e-02   -1,568483934e-02    1,627213359e-01   -7,319880128e-01    0,000000000e+00    0,000000000e+00    0,000000000e+00    0,000000000e+00
      422000000   -2,833564952e-02   -3,143837303e-02   -2,656963766e-01   -6,954141855e-01    0,000000000e+00    0,000000000e+00    0,000000000e+00    0,000000000e+00
      436000000   -3,996985406e-02   -5,188633129e-02   -6,025336981e-01   -4,338350892e-01    0,000000000e+00    0,000000000e+00    0,000000000e+00    0,000000000e+00
      450000000   -6,731337309e-02   -4,467485845e-02   -7,398153543e-01   -2,497558296e-02    0,000000000e+00    0,000000000e+00    0,000000000e+00    0,000000000e+00
      464000000   -7,417986542e-02   -1,211275999e-02   -6,217222810e-01    3,946569860e-01    0,000000000e+00    0,000000000e+00    0,000000000e+00    0,000000000e+00
      478000000   -4,889983684e-02    1,171799004e-02   -2,865449488e-01    6,675230265e-01    0,000000000e+00    0,000000000e+00    0,000000000e+00    0,000000000e+00
      492000000   -1,703251712e-02    6,759684533e-03    1,350491494e-01    7,043344378e-01    0,000000000e+00    0,000000000e+00    0,000000000e+00    0,000000000e+00
      506000000   -3,539614147e-03   -1,513255481e-02    4,972462356e-01    5,057672858e-01    0,000000000e+00    0,000000000e+00    0,000000000e+00    0,000000000e+00
      520000000   -5,905510392e-03   -2,953360789e-02    6,881895661e-01    1,426309496e-01    0,000000000e+00    0,000000000e+00    0,000000000e+00    0,000000000e+00
      534000000   -3,237823024e-03   -3,570897505e-02    6,447632313e-01   -2,596383691e-01    0,000000000e+00    0,000000000e+00    0,000000000e+00    0,000000000e+00
      548000000    7,911700755e-03   -5,280025676e-02    3,849380016e-01   -5,646501184e-01    0,000000000e+00    0,000000000e+00    0,000000000e+00    0,000000000e+00
      562000000    5,443698727e-03   -8,970408887e-02    8,046464063e-03   -6,719989181e-01    0,000000000e+00    0,000000000e+00    0,000000000e+00    0,000000000e+00
      576000000   -3,141041473e-02   -1,258293092e-01   -3,625430763e-01   -5,603758693e-01    0,000000000e+00    0,000000000e+00    0,000000000e+00    0,000000000e+00
      590000000   -9,485021979e-02   -1,277950853e-01   -6,152513027e-01   -2,725088596e-01    0,000000000e+00    0,000000000e+00    0,000000000e+00    0,000000000e+00
      604000000   -1,429435015e-01   -7,794054598e-02   -6,672723889e-01    1,256893575e-01    0,000000000e+00    0,000000000e+00    0,000000000e+00    0,000000000e+00
      618000000   -1,376210451e-01   -1,143551804e-02   -4,764541984e-01    4,857546687e-01    0,000000000e+00    0,000000000e+00    0,000000000e+00    0,000000000e+00
      632000000   -9,347027540e-02    2,140202373e-02   -1,139319018e-01    6,625752449e-01    0,000000000e+00    0,000000000e+00    0,000000000e+00    0,000000000e+00
      646000000   -5,556704104e-02    1,245356817e-02    2,732858360e-01    6,039642096e-01    0,000000000e+00    0,000000000e+00    0,000000000e+00    0,000000000e+00
      660000000   -4,859359190e-02   -8,870984428e-03    5,577437878e-01    3,396214247e-01    0,000000000e+00    0,000000000e+00    0,000000000e+00    0,000000000e+00
      674000000   -5,617924780e-02   -1,106990501e-02    6,444698572e-01   -3,986672312e-02    0,000000000e+00    0,000000000e+00    0,000000000e+00    0,000000000e+00
      688000000   -5,051012337e-02    3,492162796e-03    4,934598207e-01   -4,015126824e-01    0,000000000e+00    0,000000000e+00    0,000000000e+00    0,000000000e+00
      702000000   -2,698008530e-02    7,974223234e-03    1,617645025e-01   -6,003480554e-01    0,000000000e+00    0,000000000e+00    0,000000000e+00    0,000000000e+00
      716000000   -2,677325392e-03   -9,207176045e-03   -2,187864333e-01   -5,748922229e-01    0,000000000e+00    0,000000000e+00    0,000000000e+00    0,000000000e+00
      730000000    9,598969482e-03   -3,386273235e-02   -5,090023875e-01   -3,334757090e-01    0,000000000e+00    0,000000000e+00    0,000000000e+00    0,000000000e+00
      744000000    1,621954516e-02   -6,054298207e-02   -6,012252569e-01    3,317856416e-02    0,000000000e+00    0,000000000e+00    0,000000000e+00    0,000000000e+00
      758000000    2,278340608e-02   -1,037732288e-01   -4,539745748e-01    3,770471215e-01    0,000000000e+00    0,000000000e+00    0,000000000e+00    0,000000000e+00
      772000000   -4,274684470e-03   -1,732755303e-01   -1,395353079e-01    5,578504205e-01    0,000000000e+00    0,000000000e+00    0,000000000e+00    0,000000000e+00
      786000000   -1,051024869e-01   -2,317163497e-01    2,123772651e-01    5,194834471e-01    0,000000000e+00    0,000000000e+00    0,000000000e+00    0,000000000e+00
      800000000   -2,648615539e-01   -1,926129013e-01    4,713652134e-01    2,760335505e-01    0,000000000e+00    0,000000000e+00    0,000000000e+00    0,000000000e+00
      814000000   -3,640929163e-01    2,525493503e-03    5,078792572e-01   -8,796925843e-02    0,000000000e+00    0,000000000e+00    0,000000000e+00    0,000000000e+00
      828000000   -2,481892258e-01    2,327539772e-01    2,816445827e-01   -3,514127433e-01    0,000000000e+00    0,000000000e+00    0,000000000e+00    0,000000000e+00
      842000000    1,339184400e-02    2,788733840e-01   -1,582162827e-02   -3,627465963e-01    0,000000000e+00    0,000000000e+00    0,000000000e+00    0,000000000e+00
      856000000    2,124311179e-01    1,154186726e-01   -1,880490184e-01   -2,045159489e-01    0,000000000e+00    0,000000000e+00    0,000000000e+00    0,000000000e+00
      870000000    2,386624366e-01   -1,486261487e-01   -2,007332444e-01   -2,628452703e-02    0,000000000e+00    0,000000000e+00    0,000000000e+00    0,000000000e+00
      884000000    3,769608960e-02   -3,861823082e-01   -1,037313119e-01    7,103310525e-02    0,000000000e+00    0,000000000e+00    0,000000000e+00    0,000000000e+00
      898000000   -3,693582416e-01   -3,416874409e-01   -1,735775173e-02    2,751120925e-02    0,000000000e+00    0,000000000e+00    0,000000000e+00    0,000000000e+00
      912000000   -4,678162038e-01    1,390777528e-01   -1,131002158e-01    2,353309095e-02    0,000000000e+00    0,000000000e+00    0,000000000e+00    0,000000000e+00
      926000000   -9,461402148e-02    3,509318531e-01   -1,263030469e-01    1,353433430e-01    0,000000000e+00    0,000000000e+00    0,000000000e+00    0,000000000e+00
      940000000    1,848822683e-01    1,920595318e-01   -3,842917085e-02    2,151571810e-01    0,000000000e+00    0,000000000e+00    0,000000000e+00    0,000000000e+00
      954000000    2,551458180e-01   -4,629921168e-02    7,935333997e-02    2,287211567e-01    0,000000000e+00    0,000000000e+00    0,000000000e+00    0,000000000e+00
      968000000    1,739472449e-01   -2,630054355e-01    1,911682039e-01    1,806375235e-01    0,000000000e+00    0,000000000e+00    0,000000000e+00    0,000000000e+00
      982000000   -1,774966903e-02   -3,959407806e-01    2,800367177e-01    7,985827327e-02    0,000000000e+00    0,000000000e+00    0,000000000e+00    0,000000000e+00
      996000000   -2,721707821e-01   -3,787416220e-01    3,096720576e-01   -8,034538478e-02    0,000000000e+00    0,000000000e+00    0,000000000e+00    0,000000000e+00
     1010000000   -4,660371244e-01   -1,737652719e-01    2,218794376e-01   -2,527555823e-01    0,000000000e+00    0,000000000e+00    0,000000000e+00    0,000000000e+00
     1024000000   -4,589858651e-01    1,138229147e-01    2,243581228e-02   -3,285179138e-01    0,000000000e+00    0,000000000e+00    0,000000000e+00    0,000000000e+00
     1038000000   -2,650561035e-01    3,013230562e-01   -1,751490682e-01   -2,496834397e-01    0,000000000e+00    0,000000000e+00    0,000000000e+00    0,000000000e+00
     1052000000   -3,370081261e-02    3,106165826e-01   -2,569308281e-01   -7,823818922e-02    0,000000000e+00    0,000000000e+00    0,000000000e+00    0,000000000e+00
     1066000000    1,280622482e-01    2,075193077e-01   -2,249054462e-01    8,645439893e-02    0,000000000e+00    0,000000000e+00    0,000000000e+00    0,000000000e+00
     1080000000    2,063630372e-01    4,970269278e-02   -1,190947071e-01    1,910877824e-01    0,000000000e+00    0,000000000e+00    0,000000000e+00    0,000000000e+00
     1094000000    2,051062286e-01   -1,295972914e-01    1,800609380e-02    2,350291014e-01    0,000000000e+00    0,000000000e+00    0,000000000e+00    0,000000000e+00
     1108000000    1,006175280e-01   -2,905201018e-01    1,692209542e-01    2,050727457e-01    0,000000000e+00    0,000000000e+00    0,000000000e+00    0,000000000e+00
     1122000000   -1,017670780e-01   -3,668563664e-01    3,171309829e-01    9,094405174e-02    0,000000000e+00    0,000000000e+00    0,000000000e+00    0,000000000e+00
     1136000000   -3,450813890e-01   -2,664882541e-01    3,945060968e-01   -1,499357074e-01    0,000000000e+00    0,000000000e+00    0,000000000e+00    0,000000000e+00
     1150000000   -4,078724384e-01    4,040447623e-02    2,442586571e-01   -4,361736178e-01    0,000000000e+00    0,000000000e+00    0,000000000e+00    0,000000000e+00
     1164000000   -1,559472531e-01    2,188023478e-01   -9,546629339e-02   -5,125206709e-01    0,000000000e+00    0,000000000e+00    0,000000000e+00    0,000000000e+00
     1178000000    7,810760289e-02    8,565930277e-02   -3,566620052e-01   -3,456289768e-01    0,000000000e+00    0,000000000e+00    0,000000000e+00    0,000000000e+00
     1192000000    7,530675083e-02   -1,769449562e-01   -4,526954591e-01   -8,548115939e-02    0,000000000e+00    0,000000000e+00    0,000000000e+00    0,000000000e+00
     1206000000   -1,642069519e-01   -3,237721324e-01   -3,716157973e-01    1,903345138e-01    0,000000000e+00    0,000000000e+00    0,000000000e+00    0,000000000e+00
     1220000000   -4,540704787e-01   -1,736276299e-01   -1,077908650e-01    3,320100009e-01    0,000000000e+00    0,000000000e+00    0,000000000e+00    0,000000000e+00
     1234000000   -4,709452391e-01    1,630600989e-01    1,411187053e-01    2,218610197e-01    0,000000000e+00    0,000000000e+00    0,000000000e+00    0,000000000e+00
     1248000000   -2,401188612e-01    3,544975817e-01    1,875454634e-01    3,434617445e-02    0,000000000e+00    0,000000000e+00    0,000000000e+00    0,000000000e+00
     1262000000    2,435362199e-03    3,260796666e-01    1,324914545e-01   -7,509567589e-02    0,000000000e+00    0,000000000e+00    0,000000000e+00    0,000000000e+00
     1276000000    1,517629921e-01    2,011528611e-01    5,058541149e-02   -9,325586259e-02    0,000000000e+00    0,000000000e+00    0,000000000e+00    0,000000000e+00
     1290000000    2,226597220e-01    3,540034592e-02    3,332838183e-03   -7,262919098e-02    0,000000000e+00    0,000000000e+00    0,000000000e+00    0,000000000e+00
     1304000000    2,066300809e-01   -1,466734260e-01   -2,023119293e-02   -3,095395304e-02    0,000000000e+00    0,000000000e+00    0,000000000e+00    0,000000000e+00
     1318000000    1,121859476e-01   -3,108222187e-01   -1,295241341e-02    2,270774357e-02    0,000000000e+00    0,000000000e+00    0,000000000e+00    0,000000000e+00
     1332000000   -7,101043314e-02   -4,319485426e-01    4,609413072e-02    6,492661685e-02    0,000000000e+00    0,000000000e+00    0,000000000e+00    0,000000000e+00
     1346000000   -3,297644258e-01   -4,329963028e-01    1,431811154e-01    4,035392031e-02    0,000000000e+00    0,000000000e+00    0,000000000e+00    0,000000000e+00
     1360000000   -5,553105474e-01   -2,448851019e-01    1,128982306e-01   -8,529727906e-02    0,000000000e+00    0,000000000e+00    0,000000000e+00    0,000000000e+00
     1374000000   -6,169832945e-01    2,866014279e-02    1,086056083e-01    6,015405431e-02    0,000000000e+00    0,000000000e+00    0,000000000e+00    0,000000000e+00
     1388000000   -5,196579695e-01    2,889072597e-01    2,231773436e-01   -4,680211656e-03    0,000000000e+00    0,000000000e+00    0,000000000e+00    0,000000000e+00
     1402000000   -3,049515784e-01    4,235373437e-01    2,267984450e-01   -7,437905669e-02    0,000000000e+00    0,000000000e+00    0,000000000e+00    0,000000000e+00
     1416000000   -9,459286183e-02    4,197557569e-01    1,979387850e-01   -1,189766005e-01    0,000000000e+00    0,000000000e+00    0,000000000e+00    0,000000000e+00
     1430000000    7,740284503e-02    3,455827236e-01    1,971361339e-01   -1,244086474e-01    0,000000000e+00    0,000000000e+00    0,000000000e+00    0,000000000e+00
     1444000000    1,814390421e-01    2,017321438e-01    1,570171118e-01   -9,210866690e-02    0,000000000e+00    0,000000000e+00    0,000000000e+00    0,000000000e+00
     1458000000    2,218850404e-01    3,665570170e-02    1,425163448e-01   -7,062682509e-02    0,000000000e+00    0,000000000e+00    0,000000000e+00    0,000000000e+00
     1472000000    2,088072151e-01   -1,424864531e-01    1,507810056e-01   -4,493770003e-02    0,000000000e+00    0,000000000e+00    0,000000000e+00    0,000000000e+00
     1486000000    1,050515398e-01   -3,221904039e-01    1,556182355e-01    3,771732328e-03    0,000000000e+00    0,000000000e+00    0,000000000e+00    0,000000000e+00
     1500000000   -9,021639824e-02   -4,565065205e-01    2,187028974e-01    6,382787973e-02    0,000000000e+00    0,000000000e+00    0,000000000e+00    0,000000000e+00
