! NanoVNA-App
! Date: 2025-09-25 14:27:41
! Start: 100MHz Stop: 1,5GHz Points: 101
! S-Parameter data: F S11 S21 S12 S22
# Hz S RI R 50
!     Frequency           S11_Real           S11_Imag           S21_Real           S21_Imag           S12_Real           S12_Imag           S22_Real           S22_Imag
      100000000   -2,909073234e-02   -4,128906410e-03    3,745288253e-01   -7,220500708e-01    0,000000000e+00    0,000000000e+00    0,000000000e+00    0,000000000e+00
      114000000   -1,658189297e-02    1,159288455e-02   -8,873813599e-02   -8,058966994e-01    0,000000000e+00    0,000000000e+00    0,000000000e+00    0,000000000e+00
      128000000    3,413426923e-03    1,054120343e-02   -5,143852234e-01   -6,210184693e-01    0,000000000e+00    0,000000000e+00    0,000000000e+00    0,000000000e+00
      142000000    1,442890149e-02   -3,077459754e-03   -7,674586177e-01   -2,369061410e-01    0,000000000e+00    0,000000000e+00    0,000000000e+00    0,000000000e+00
      156000000    1,548909117e-02   -1,470893528e-02   -7,729222775e-01    2,230357975e-01    0,000000000e+00    0,000000000e+00    0,000000000e+00    0,000000000e+00
      170000000    1,654111966e-02   -2,253212221e-02   -5,184914470e-01    6,048676968e-01    0,000000000e+00    0,000000000e+00    0,000000000e+00    0,000000000e+00
      184000000    2,100071125e-02   -3,701543063e-02   -1,016883552e-01    7,866569757e-01    0,000000000e+00    0,000000000e+00    0,000000000e+00    0,000000000e+00
      198000000    1,313327625e-02   -6,263467669e-02    3,429962397e-01    7,130597234e-01    0,000000000e+00    0,000000000e+00    0,000000000e+00    0,000000000e+00
      212000000   -1,871523261e-02   -8,170972019e-02    6,782518029e-01    4,104562104e-01    0,000000000e+00    0,000000000e+00    0,000000000e+00    0,000000000e+00
      226000000   -6,210582703e-02   -6,967491657e-02    7,960916162e-01   -2,969451435e-02    0,000000000e+00    0,000000000e+00    0,000000000e+00    0,000000000e+00
      240000000   -8,332660049e-02   -2,604258433e-02    6,472875476e-01   -4,666804373e-01    0,000000000e+00    0,000000000e+00    0,000000000e+00    0,000000000e+00
      254000000   -6,436610967e-02    1,745425351e-02    2,773778737e-01   -7,433732748e-01    0,000000000e+00    0,000000000e+00    0,000000000e+00    0,000000000e+00
      268000000   -2,402933128e-02    2,948337607e-02   -1,769913733e-01   -7,652435303e-01    0,000000000e+00    0,000000000e+00    0,000000000e+00    0,000000000e+00
      282000000    4,113781732e-03    1,212104969e-02   -5,623131394e-01   -5,373323560e-01    0,000000000e+00    0,000000000e+00    0,000000000e+00    0,000000000e+00
      296000000    9,598064236e-03   -7,755367085e-03   -7,608779669e-01   -1,396932453e-01    0,000000000e+00    0,000000000e+00    0,000000000e+00    0,000000000e+00
      310000000    1,082202606e-02   -1,618021168e-02   -7,143969536e-01    2,976872623e-01    0,000000000e+00    0,000000000e+00    0,000000000e+00    0,000000000e+00
      324000000    1,954501122e-02   -2,639403194e-02   -4,288989902e-01    6,366950870e-01    0,000000000e+00    0,000000000e+00    0,000000000e+00    0,000000000e+00
      338000000    2,545695938e-02   -5,197976157e-02   -1,021701656e-02    7,649672031e-01    0,000000000e+00    0,000000000e+00    0,000000000e+00    0,000000000e+00
      352000000    7,495283149e-03   -8,459200710e-02    4,058792889e-01    6,412780881e-01    0,000000000e+00    0,000000000e+00    0,000000000e+00    0,000000000e+00
      366000000   -3,498139977e-02   -9,584681690e-02    6,905943155e-01    3,128181100e-01    0,000000000e+00    0,000000000e+00    0,000000000e+00    0,000000000e+00
      380000000   -7,136060297e-02   -7,106639445e-02    7,492079735e-01   -1,245685592e-01    0,000000000e+00    0,000000000e+00    0,000000000e+00    0,000000000e+00
      394000000   -7,316303998e-02   -3,246076033e-02    5,484636426e-01   -5,212190151e-01    0,000000000e+00    0,000000000e+00    0,000000000e+00    0,000000000e+00
      408000000   -4,697392508e-02   -1,570137404e-02    1,619807184e-01   -7,335196733e-01    0,000000000e+00    0,000000000e+00    0,000000000e+00    0,000000000e+00
      422000000   -2,851716802e-02   -3,141219541e-02   -2,664089501e-01   -6,956949830e-01    0,000000000e+00    0,000000000e+00    0,000000000e+00    0,000000000e+00
      436000000   -4,013517499e-02   -5,226344988e-02   -6,036326885e-01   -4,336574674e-01    0,000000000e+00    0,000000000e+00    0,000000000e+00    0,000000000e+00
      450000000   -6,745511293e-02   -4,483830184e-02   -7,404720187e-01   -2,519956790e-02    0,000000000e+00    0,000000000e+00    0,000000000e+00    0,000000000e+00
      464000000   -7,429523766e-02   -1,217580959e-02   -6,213546395e-01    3,947776854e-01    0,000000000e+00    0,000000000e+00    0,000000000e+00    0,000000000e+00
      478000000   -4,928157479e-02    1,185252890e-02   -2,871707678e-01    6,677788496e-01    0,000000000e+00    0,000000000e+00    0,000000000e+00    0,000000000e+00
      492000000   -1,705205068e-02    6,694711279e-03    1,343388557e-01    7,044079900e-01    0,000000000e+00    0,000000000e+00    0,000000000e+00    0,000000000e+00
      506000000   -3,651925595e-03   -1,498563308e-02    4,967780113e-01    5,063238740e-01    0,000000000e+00    0,000000000e+00    0,000000000e+00    0,000000000e+00
      520000000   -5,828496069e-03   -2,964070067e-02    6,885379553e-01    1,439710259e-01    0,000000000e+00    0,000000000e+00    0,000000000e+00    0,000000000e+00
      534000000   -3,240790451e-03   -3,603159264e-02    6,448295116e-01   -2,598424852e-01    0,000000000e+00    0,000000000e+00    0,000000000e+00    0,000000000e+00
      548000000    7,727360353e-03   -5,260372162e-02    3,854378462e-01   -5,642023087e-01    0,000000000e+00    0,000000000e+00    0,000000000e+00    0,000000000e+00
      562000000    5,614605732e-03   -8,954454213e-02    8,191568777e-03   -6,724677086e-01    0,000000000e+00    0,000000000e+00    0,000000000e+00    0,000000000e+00
      576000000   -3,154602647e-02   -1,266592890e-01   -3,617056906e-01   -5,608765483e-01    0,000000000e+00    0,000000000e+00    0,000000000e+00    0,000000000e+00
      590000000   -9,509208798e-02   -1,276067048e-01   -6,169237494e-01   -2,738711238e-01    0,000000000e+00    0,000000000e+00    0,000000000e+00    0,000000000e+00
      604000000   -1,427676380e-01   -7,784872502e-02   -6,667216420e-01    1,258149594e-01    0,000000000e+00    0,000000000e+00    0,000000000e+00    0,000000000e+00
      618000000   -1,384539604e-01   -1,114403643e-02   -4,755312204e-01    4,853332937e-01    0,000000000e+00    0,000000000e+00    0,000000000e+00    0,000000000e+00
      632000000   -9,270784259e-02    2,206414007e-02   -1,129812524e-01    6,627190709e-01    0,000000000e+00    0,000000000e+00    0,000000000e+00    0,000000000e+00
      646000000   -5,550656468e-02    1,131304633e-02    2,739129961e-01    6,035259366e-01    0,000000000e+00    0,000000000e+00    0,000000000e+00    0,000000000e+00
      660000000   -4,777982086e-02   -9,505583905e-03    5,572928786e-01    3,401243389e-01    0,000000000e+00    0,000000000e+00    0,000000000e+00    0,000000000e+00
      674000000   -5,629881471e-02   -1,033354923e-02    6,445387602e-01   -3,938430548e-02    0,000000000e+00    0,000000000e+00    0,000000000e+00    0,000000000e+00
      688000000   -5,102179945e-02    3,137107240e-03    4,928108454e-01   -4,014148712e-01    0,000000000e+00    0,000000000e+00    0,000000000e+00    0,000000000e+00
      702000000   -2,707332000e-02    6,937039085e-03    1,618719250e-01   -5,994368792e-01    0,000000000e+00    0,000000000e+00    0,000000000e+00    0,000000000e+00
      716000000   -1,819641679e-03   -9,827539325e-03   -2,180091441e-01   -5,764917135e-01    0,000000000e+00    0,000000000e+00    0,000000000e+00    0,000000000e+00
      730000000    1,006247010e-02   -3,484611586e-02   -5,096492767e-01   -3,332003057e-01    0,000000000e+00    0,000000000e+00    0,000000000e+00    0,000000000e+00
      744000000    1,616332680e-02   -6,082355976e-02   -6,011834741e-01    3,349477053e-02    0,000000000e+00    0,000000000e+00    0,000000000e+00    0,000000000e+00
      758000000    2,172514796e-02   -1,039309278e-01   -4,537358880e-01    3,772080243e-01    0,000000000e+00    0,000000000e+00    0,000000000e+00    0,000000000e+00
      772000000   -5,093411542e-03   -1,733154804e-01   -1,404672265e-01    5,582600236e-01    0,000000000e+00    0,000000000e+00    0,000000000e+00    0,000000000e+00
      786000000   -1,048206016e-01   -2,324432582e-01    2,113939524e-01    5,192613006e-01    0,000000000e+00    0,000000000e+00    0,000000000e+00    0,000000000e+00
      800000000   -2,658729553e-01   -1,925217509e-01    4,712864459e-01    2,752693594e-01    0,000000000e+00    0,000000000e+00    0,000000000e+00    0,000000000e+00
      814000000   -3,650018871e-01    2,796027809e-03    5,081483126e-01   -8,786028624e-02    0,000000000e+00    0,000000000e+00    0,000000000e+00    0,000000000e+00
      828000000   -2,470870465e-01    2,326455861e-01    2,818654776e-01   -3,524243236e-01    0,000000000e+00    0,000000000e+00    0,000000000e+00    0,000000000e+00
      842000000    1,341758855e-02    2,785194218e-01   -1,525059342e-02   -3,634053171e-01    0,000000000e+00    0,000000000e+00    0,000000000e+00    0,000000000e+00
      856000000    2,127328515e-01    1,150717735e-01   -1,880720854e-01   -2,049074173e-01    0,000000000e+00    0,000000000e+00    0,000000000e+00    0,000000000e+00
      870000000    2,390781641e-01   -1,491465867e-01   -2,006571293e-01   -2,617640793e-02    0,000000000e+00    0,000000000e+00    0,000000000e+00    0,000000000e+00
      884000000    3,781905398e-02   -3,876208663e-01   -1,037501767e-01    7,052365690e-02    0,000000000e+00    0,000000000e+00    0,000000000e+00    0,000000000e+00
      898000000   -3,696114421e-01   -3,423749804e-01   -1,718799025e-02    2,762961760e-02    0,000000000e+00    0,000000000e+00    0,000000000e+00    0,000000000e+00
      912000000   -4,673144817e-01    1,387300193e-01   -1,077124104e-01    2,470698766e-02    0,000000000e+00    0,000000000e+00    0,000000000e+00    0,000000000e+00
      926000000   -9,669709951e-02    3,509455621e-01   -1,295241565e-01    1,346720457e-01    0,000000000e+00    0,000000000e+00    0,000000000e+00    0,000000000e+00
      940000000    1,839767694e-01    1,968291551e-01   -4,019859433e-02    2,165222317e-01    0,000000000e+00    0,000000000e+00    0,000000000e+00    0,000000000e+00
      954000000    2,563244700e-01   -4,950827733e-02    8,036526293e-02    2,279910445e-01    0,000000000e+00    0,000000000e+00    0,000000000e+00    0,000000000e+00
      968000000    1,736900210e-01   -2,628923953e-01    1,908751279e-01    1,808056831e-01    0,000000000e+00    0,000000000e+00    0,000000000e+00    0,000000000e+00
      982000000   -1,842735708e-02   -3,912057877e-01    2,808360159e-01    7,978981733e-02    0,000000000e+00    0,000000000e+00    0,000000000e+00    0,000000000e+00
      996000000   -2,721039951e-01   -3,796515167e-01    3,103627563e-01   -8,080229908e-02    0,000000000e+00    0,000000000e+00    0,000000000e+00    0,000000000e+00
     1010000000   -4,735940099e-01   -1,753195077e-01    2,219676673e-01   -2,522855401e-01    0,000000000e+00    0,000000000e+00    0,000000000e+00    0,000000000e+00
     1024000000   -4,608841538e-01    1,218734682e-01    1,966579445e-02   -3,304246962e-01    0,000000000e+00    0,000000000e+00    0,000000000e+00    0,000000000e+00
     1038000000   -2,621716559e-01    2,955665886e-01   -1,743021160e-01   -2,465630621e-01    0,000000000e+00    0,000000000e+00    0,000000000e+00    0,000000000e+00
     1052000000   -3,441884741e-02    3,108377159e-01   -2,567704916e-01   -7,825578004e-02    0,000000000e+00    0,000000000e+00    0,000000000e+00    0,000000000e+00
     1066000000    1,275589764e-01    2,029579282e-01   -2,256237119e-01    8,816857636e-02    0,000000000e+00    0,000000000e+00    0,000000000e+00    0,000000000e+00
     1080000000    2,059002519e-01    4,807388783e-02   -1,201764941e-01    1,925707310e-01    0,000000000e+00    0,000000000e+00    0,000000000e+00    0,000000000e+00
     1094000000    2,037108541e-01   -1,258964986e-01    1,706236228e-02    2,343756407e-01    0,000000000e+00    0,000000000e+00    0,000000000e+00    0,000000000e+00
     1108000000    1,038809493e-01   -2,884454429e-01    1,690098196e-01    2,050507516e-01    0,000000000e+00    0,000000000e+00    0,000000000e+00    0,000000000e+00
     1122000000   -9,799569845e-02   -3,673777580e-01    3,164728582e-01    8,916246891e-02    0,000000000e+00    0,000000000e+00    0,000000000e+00    0,000000000e+00
     1136000000   -3,480129242e-01   -2,632268965e-01    3,917838037e-01   -1,522900015e-01    0,000000000e+00    0,000000000e+00    0,000000000e+00    0,000000000e+00
     1150000000   -4,123021960e-01    3,736353293e-02    2,422111630e-01   -4,352272451e-01    0,000000000e+00    0,000000000e+00    0,000000000e+00    0,000000000e+00
     1164000000   -1,580241174e-01    2,194415331e-01   -9,575326741e-02   -5,124068856e-01    0,000000000e+00    0,000000000e+00    0,000000000e+00    0,000000000e+00
     1178000000    7,500570267e-02    8,767221123e-02   -3,571008444e-01   -3,477958441e-01    0,000000000e+00    0,000000000e+00    0,000000000e+00    0,000000000e+00
     1192000000    7,634714991e-02   -1,756532192e-01   -4,512590468e-01   -8,438075334e-02    0,000000000e+00    0,000000000e+00    0,000000000e+00    0,000000000e+00
     1206000000   -1,627929360e-01   -3,288247883e-01   -3,707749248e-01    1,873039901e-01    0,000000000e+00    0,000000000e+00    0,000000000e+00    0,000000000e+00
     1220000000   -4,527351856e-01   -1,775366217e-01   -1,040113643e-01    3,263382614e-01    0,000000000e+00    0,000000000e+00    0,000000000e+00    0,000000000e+00
     1234000000   -4,706782103e-01    1,691468805e-01    1,426162869e-01    2,224239707e-01    0,000000000e+00    0,000000000e+00    0,000000000e+00    0,000000000e+00
     1248000000   -2,368503809e-01    3,591886163e-01    1,912303567e-01    2,833633870e-02    0,000000000e+00    0,000000000e+00    0,000000000e+00    0,000000000e+00
     1262000000    2,489649341e-04    3,306356072e-01    1,302268654e-01   -7,098621875e-02    0,000000000e+00    0,000000000e+00    0,000000000e+00    0,000000000e+00
     1276000000    1,535754949e-01    1,923885494e-01    5,355939269e-02   -1,005377397e-01    0,000000000e+00    0,000000000e+00    0,000000000e+00    0,000000000e+00
     1290000000    2,161003351e-01    3,282798827e-02    7,107029669e-04   -7,438936830e-02    0,000000000e+00    0,000000000e+00    0,000000000e+00    0,000000000e+00
     1304000000    2,068088800e-01   -1,449761540e-01   -1,301438455e-02   -2,873873897e-02    0,000000000e+00    0,000000000e+00    0,000000000e+00    0,000000000e+00
     1318000000    1,130252704e-01   -3,117485344e-01   -8,976310492e-03    2,284201607e-02    0,000000000e+00    0,000000000e+00    0,000000000e+00    0,000000000e+00
     1332000000   -6,707461178e-02   -4,362177551e-01    4,220520332e-02    6,070675328e-02    0,000000000e+00    0,000000000e+00    0,000000000e+00    0,000000000e+00
     1346000000   -3,310648203e-01   -4,312102497e-01    1,389614940e-01    4,893315956e-02    0,000000000e+00    0,000000000e+00    0,000000000e+00    0,000000000e+00
     1360000000   -5,492554307e-01   -2,484230548e-01    1,183082983e-01   -7,784925401e-02    0,000000000e+00    0,000000000e+00    0,000000000e+00    0,000000000e+00
     1374000000   -6,208896041e-01    2,787899971e-02    1,151772514e-01    6,007834151e-02    0,000000000e+00    0,000000000e+00    0,000000000e+00    0,000000000e+00
     1388000000   -5,125239491e-01    2,860589623e-01    2,371539026e-01   -3,056490561e-03    0,000000000e+00    0,000000000e+00    0,000000000e+00    0,000000000e+00
     1402000000   -3,126827776e-01    4,192959070e-01    2,197849452e-01   -9,031103551e-02    0,000000000e+00    0,000000000e+00    0,000000000e+00    0,000000000e+00
     1416000000   -8,310642093e-02    4,213250875e-01    1,928322017e-01   -1,140707657e-01    0,000000000e+00    0,000000000e+00    0,000000000e+00    0,000000000e+00
     1430000000    6,614591926e-02    3,312606812e-01    1,535073370e-01   -1,357602626e-01    0,000000000e+00    0,000000000e+00    0,000000000e+00    0,000000000e+00
     1444000000    1,742054075e-01    2,006272823e-01    1,541139483e-01   -9,800951928e-02    0,000000000e+00    0,000000000e+00    0,000000000e+00    0,000000000e+00
     1458000000    2,282485068e-01    3,597390652e-02    1,570571363e-01   -8,466548473e-02    0,000000000e+00    0,000000000e+00    0,000000000e+00    0,000000000e+00
     1472000000    2,057151645e-01   -1,451256573e-01    1,434046626e-01   -3,753381222e-02    0,000000000e+00    0,000000000e+00    0,000000000e+00    0,000000000e+00
     1486000000    1,055000648e-01   -3,236847520e-01    1,793241352e-01   -3,634307301e-03    0,000000000e+00    0,000000000e+00    0,000000000e+00    0,000000000e+00
     1500000000   -9,321945161e-02   -4,499675035e-01    2,080689669e-01    6,634344906e-02    0,000000000e+00    0,000000000e+00    0,000000000e+00    0,000000000e+00
