! NanoVNA-App
! Date: 2025-09-25 14:28:26
! Start: 100MHz Stop: 1,5GHz Points: 101
! S-Parameter data: F S11 S21 S12 S22
# Hz S RI R 50
!     Frequency           S11_Real           S11_Imag           S21_Real           S21_Imag           S12_Real           S12_Imag           S22_Real           S22_Imag
      100000000   -2,910258994e-02   -4,139830358e-03    3,744755685e-01   -7,219836116e-01    0,000000000e+00    0,000000000e+00    0,000000000e+00    0,000000000e+00
      114000000   -1,665489376e-02    1,159676816e-02   -8,882942051e-02   -8,058488369e-01    0,000000000e+00    0,000000000e+00    0,000000000e+00    0,000000000e+00
      128000000    3,454026068e-03    1,051578764e-02   -5,145481229e-01   -6,211435795e-01    0,000000000e+00    0,000000000e+00    0,000000000e+00    0,000000000e+00
      142000000    1,443752460e-02   -3,075589426e-03   -7,674742341e-01   -2,369748056e-01    0,000000000e+00    0,000000000e+00    0,000000000e+00    0,000000000e+00
      156000000    1,556982566e-02   -1,462655701e-02   -7,701247931e-01    2,236410677e-01    0,000000000e+00    0,000000000e+00    0,000000000e+00    0,000000000e+00
      170000000    1,650203951e-02   -2,238995396e-02   -5,186283588e-01    6,048809290e-01    0,000000000e+00    0,000000000e+00    0,000000000e+00    0,000000000e+00
      184000000    2,099216916e-02   -3,697805107e-02   -1,018621847e-01    7,867180109e-01    0,000000000e+00    0,000000000e+00    0,000000000e+00    0,000000000e+00
      198000000    1,316775288e-02   -6,258789450e-02    3,433971703e-01    7,129722834e-01    0,000000000e+00    0,000000000e+00    0,000000000e+00    0,000000000e+00
      212000000   -1,870951429e-02   -8,169364184e-02    6,779227257e-01    4,105484188e-01    0,000000000e+00    0,000000000e+00    0,000000000e+00    0,000000000e+00
      226000000   -6,204960123e-02   -6,971587241e-02    7,960418463e-01   -2,970183641e-02    0,000000000e+00    0,000000000e+00    0,000000000e+00    0,000000000e+00
      240000000   -8,328882605e-02   -2,602216601e-02    6,471219659e-01   -4,668558538e-01    0,000000000e+00    0,000000000e+00    0,000000000e+00    0,000000000e+00
      254000000   -6,442453712e-02    1,745070331e-02    2,771671116e-01   -7,437683940e-01    0,000000000e+00    0,000000000e+00    0,000000000e+00    0,000000000e+00
      268000000   -2,399989776e-02    2,951144241e-02   -1,769796908e-01   -7,649328709e-01    0,000000000e+00    0,000000000e+00    0,000000000e+00    0,000000000e+00
      282000000    4,036965314e-03    1,206631958e-02   -5,627455711e-01   -5,373456478e-01    0,000000000e+00    0,000000000e+00    0,000000000e+00    0,000000000e+00
      296000000    9,500979446e-03   -7,758543827e-03   -7,608126402e-01   -1,394989640e-01    0,000000000e+00    0,000000000e+00    0,000000000e+00    0,000000000e+00
      310000000    1,096705627e-02   -1,601360925e-02   -7,139260173e-01    2,978853881e-01    0,000000000e+00    0,000000000e+00    0,000000000e+00    0,000000000e+00
      324000000    1,939562522e-02   -2,654585615e-02   -4,276722670e-01    6,378314495e-01    0,000000000e+00    0,000000000e+00    0,000000000e+00    0,000000000e+00
      338000000    2,531737648e-02   -5,175280571e-02   -8,012107573e-03    7,609172463e-01    0,000000000e+00    0,000000000e+00    0,000000000e+00    0,000000000e+00
      352000000    7,487644907e-03   -8,503912389e-02    4,057258368e-01    6,405836344e-01    0,000000000e+00    0,000000000e+00    0,000000000e+00    0,000000000e+00
      366000000   -3,498887643e-02   -9,578022361e-02    6,906117797e-01    3,133305609e-01    0,000000000e+00    0,000000000e+00    0,000000000e+00    0,000000000e+00
      380000000   -7,153883576e-02   -7,114340365e-02    7,487054467e-01   -1,245652661e-01    0,000000000e+00    0,000000000e+00    0,000000000e+00    0,000000000e+00
      394000000   -7,299365848e-02   -3,233698010e-02    5,481028557e-01   -5,210999846e-01    0,000000000e+00    0,000000000e+00    0,000000000e+00    0,000000000e+00
      408000000   -4,686642811e-02   -1,538950298e-02    1,632420272e-01   -7,333745360e-01    0,000000000e+00    0,000000000e+00    0,000000000e+00    0,000000000e+00
      422000000   -2,829163149e-02   -3,139890730e-02   -2,653729022e-01   -6,956358552e-01    0,000000000e+00    0,000000000e+00    0,000000000e+00    0,000000000e+00
      436000000   -4,004248232e-02   -5,183246359e-02   -6,023682356e-01   -4,328436553e-01    0,000000000e+00    0,000000000e+00    0,000000000e+00    0,000000000e+00
      450000000   -6,759024411e-02   -4,472771287e-02   -7,403109074e-01   -2,484540455e-02    0,000000000e+00    0,000000000e+00    0,000000000e+00    0,000000000e+00
      464000000   -7,449989766e-02   -1,253831293e-02   -6,211926341e-01    3,949505389e-01    0,000000000e+00    0,000000000e+00    0,000000000e+00    0,000000000e+00
      478000000   -4,890044779e-02    1,189620979e-02   -2,865655422e-01    6,670763493e-01    0,000000000e+00    0,000000000e+00    0,000000000e+00    0,000000000e+00
      492000000   -1,726136729e-02    6,793482229e-03    1,346994340e-01    7,041509748e-01    0,000000000e+00    0,000000000e+00    0,000000000e+00    0,000000000e+00
      506000000   -3,415613668e-03   -1,505171321e-02    4,976718724e-01    5,062235594e-01    0,000000000e+00    0,000000000e+00    0,000000000e+00    0,000000000e+00
      520000000   -5,583153106e-03   -2,918205969e-02    6,895406842e-01    1,452516019e-01    0,000000000e+00    0,000000000e+00    0,000000000e+00    0,000000000e+00
      534000000   -3,439320484e-03   -3,577624261e-02    6,447673440e-01   -2,592776120e-01    0,000000000e+00    0,000000000e+00    0,000000000e+00    0,000000000e+00
      548000000    7,873003371e-03   -5,237682164e-02    3,844894171e-01   -5,639408827e-01    0,000000000e+00    0,000000000e+00    0,000000000e+00    0,000000000e+00
      562000000    5,756033119e-03   -8,937756717e-02    8,421084844e-03   -6,712339520e-01    0,000000000e+00    0,000000000e+00    0,000000000e+00    0,000000000e+00
      576000000   -3,160958365e-02   -1,263373643e-01   -3,632127345e-01   -5,610074997e-01    0,000000000e+00    0,000000000e+00    0,000000000e+00    0,000000000e+00
      590000000   -9,505906701e-02   -1,277483851e-01   -6,168277264e-01   -2,736020386e-01    0,000000000e+00    0,000000000e+00    0,000000000e+00    0,000000000e+00
      604000000   -1,431064904e-01   -7,805936038e-02   -6,674385071e-01    1,261046976e-01    0,000000000e+00    0,000000000e+00    0,000000000e+00    0,000000000e+00
      618000000   -1,378245354e-01   -1,086219121e-02   -4,755288959e-01    4,849545360e-01    0,000000000e+00    0,000000000e+00    0,000000000e+00    0,000000000e+00
      632000000   -9,317761660e-02    2,238651551e-02   -1,148950458e-01    6,628991961e-01    0,000000000e+00    0,000000000e+00    0,000000000e+00    0,000000000e+00
      646000000   -5,556596443e-02    1,258827746e-02    2,735563219e-01    6,031290889e-01    0,000000000e+00    0,000000000e+00    0,000000000e+00    0,000000000e+00
      660000000   -4,742830247e-02   -8,678676561e-03    5,576223731e-01    3,416457772e-01    0,000000000e+00    0,000000000e+00    0,000000000e+00    0,000000000e+00
      674000000   -5,536080897e-02   -1,014548726e-02    6,439067125e-01   -3,951619193e-02    0,000000000e+00    0,000000000e+00    0,000000000e+00    0,000000000e+00
      688000000   -5,039728805e-02    2,255475614e-03    4,931156337e-01   -4,017907679e-01    0,000000000e+00    0,000000000e+00    0,000000000e+00    0,000000000e+00
      702000000   -2,646607906e-02    8,275879547e-03    1,606962085e-01   -6,057559252e-01    0,000000000e+00    0,000000000e+00    0,000000000e+00    0,000000000e+00
      716000000   -1,599061070e-03   -8,990939707e-03   -2,180221975e-01   -5,756517649e-01    0,000000000e+00    0,000000000e+00    0,000000000e+00    0,000000000e+00
      730000000    9,580420330e-03   -3,382464871e-02   -5,085784197e-01   -3,333775401e-01    0,000000000e+00    0,000000000e+00    0,000000000e+00    0,000000000e+00
      744000000    1,718594134e-02   -6,135437638e-02   -6,010764837e-01    3,294054046e-02    0,000000000e+00    0,000000000e+00    0,000000000e+00    0,000000000e+00
      758000000    2,131540328e-02   -1,034961268e-01   -4,544865191e-01    3,771601915e-01    0,000000000e+00    0,000000000e+00    0,000000000e+00    0,000000000e+00
      772000000   -4,390385468e-03   -1,733889282e-01   -1,403803378e-01    5,572412610e-01    0,000000000e+00    0,000000000e+00    0,000000000e+00    0,000000000e+00
      786000000   -1,044890657e-01   -2,319344580e-01    2,106774896e-01    5,194596648e-01    0,000000000e+00    0,000000000e+00    0,000000000e+00    0,000000000e+00
      800000000   -2,656304836e-01   -1,929338425e-01    4,719085395e-01    2,755407095e-01    0,000000000e+00    0,000000000e+00    0,000000000e+00    0,000000000e+00
      814000000   -3,636395633e-01    3,050298896e-03    5,078800917e-01   -8,856232464e-02    0,000000000e+00    0,000000000e+00    0,000000000e+00    0,000000000e+00
      828000000   -2,471782416e-01    2,342178077e-01    2,810423970e-01   -3,523882031e-01    0,000000000e+00    0,000000000e+00    0,000000000e+00    0,000000000e+00
      842000000    1,319517847e-02    2,784983814e-01   -1,575727947e-02   -3,627549410e-01    0,000000000e+00    0,000000000e+00    0,000000000e+00    0,000000000e+00
      856000000    2,121200114e-01    1,156235412e-01   -1,884003729e-01   -2,049240619e-01    0,000000000e+00    0,000000000e+00    0,000000000e+00    0,000000000e+00
      870000000    2,387809902e-01   -1,487254202e-01   -2,009367496e-01   -2,596851997e-02    0,000000000e+00    0,000000000e+00    0,000000000e+00    0,000000000e+00
      884000000    3,774929792e-02   -3,872296810e-01   -1,045725644e-01    7,069314271e-02    0,000000000e+00    0,000000000e+00    0,000000000e+00    0,000000000e+00
      898000000   -3,687946200e-01   -3,424632549e-01   -1,682069898e-02    2,740582824e-02    0,000000000e+00    0,000000000e+00    0,000000000e+00    0,000000000e+00
      912000000   -4,666574001e-01    1,392699629e-01   -1,229124889e-01    2,972933091e-02    0,000000000e+00    0,000000000e+00    0,000000000e+00    0,000000000e+00
      926000000   -9,693647176e-02    3,509069383e-01   -1,284515411e-01    1,339593828e-01    0,000000000e+00    0,000000000e+00    0,000000000e+00    0,000000000e+00
      940000000    1,838075668e-01    1,959382892e-01   -3,871345520e-02    2,162662596e-01    0,000000000e+00    0,000000000e+00    0,000000000e+00    0,000000000e+00
      954000000    2,566234171e-01   -4,838729650e-02    8,046617359e-02    2,266008109e-01    0,000000000e+00    0,000000000e+00    0,000000000e+00    0,000000000e+00
      968000000    1,731437594e-01   -2,632739544e-01    1,927290112e-01    1,801938117e-01    0,000000000e+00    0,000000000e+00    0,000000000e+00    0,000000000e+00
      982000000   -1,727458276e-02   -3,917171657e-01    2,808290422e-01    7,868633419e-02    0,000000000e+00    0,000000000e+00    0,000000000e+00    0,000000000e+00
      996000000   -2,702310681e-01   -3,784673214e-01    3,083417416e-01   -8,035549521e-02    0,000000000e+00    0,000000000e+00    0,000000000e+00    0,000000000e+00
     1010000000   -4,658763707e-01   -1,720853001e-01    2,203126401e-01   -2,526254654e-01    0,000000000e+00    0,000000000e+00    0,000000000e+00    0,000000000e+00
     1024000000   -4,604424238e-01    1,149325371e-01    2,196681313e-02   -3,306318223e-01    0,000000000e+00    0,000000000e+00    0,000000000e+00    0,000000000e+00
     1038000000   -2,623481750e-01    2,957386672e-01   -1,741088778e-01   -2,490377128e-01    0,000000000e+00    0,000000000e+00    0,000000000e+00    0,000000000e+00
     1052000000   -3,992598131e-02    3,079592884e-01   -2,556654811e-01   -7,732000202e-02    0,000000000e+00    0,000000000e+00    0,000000000e+00    0,000000000e+00
     1066000000    1,263465434e-01    2,031217813e-01   -2,257354707e-01    8,496041596e-02    0,000000000e+00    0,000000000e+00    0,000000000e+00    0,000000000e+00
     1080000000    2,102153748e-01    4,510764033e-02   -1,199598983e-01    1,944349557e-01    0,000000000e+00    0,000000000e+00    0,000000000e+00    0,000000000e+00
     1094000000    1,991313398e-01   -1,278347969e-01    1,780214161e-02    2,324642539e-01    0,000000000e+00    0,000000000e+00    0,000000000e+00    0,000000000e+00
     1108000000    1,012223810e-01   -2,838262320e-01    1,684596688e-01    2,055041045e-01    0,000000000e+00    0,000000000e+00    0,000000000e+00    0,000000000e+00
     1122000000   -1,021708101e-01   -3,678088188e-01    3,172049224e-01    8,705788851e-02    0,000000000e+00    0,000000000e+00    0,000000000e+00    0,000000000e+00
     1136000000   -3,489652574e-01   -2,684087157e-01    3,916965127e-01   -1,521039903e-01    0,000000000e+00    0,000000000e+00    0,000000000e+00    0,000000000e+00
     1150000000   -4,110780656e-01    3,563052043e-02    2,433857769e-01   -4,387767911e-01    0,000000000e+00    0,000000000e+00    0,000000000e+00    0,000000000e+00
     1164000000   -1,584539413e-01    2,225127071e-01   -9,621224552e-02   -5,127444863e-01    0,000000000e+00    0,000000000e+00    0,000000000e+00    0,000000000e+00
     1178000000    7,879197598e-02    8,268658072e-02   -3,543120921e-01   -3,458751142e-01    0,000000000e+00    0,000000000e+00    0,000000000e+00    0,000000000e+00
     1192000000    7,665190101e-02   -1,736191511e-01   -4,488552213e-01   -8,418253064e-02    0,000000000e+00    0,000000000e+00    0,000000000e+00    0,000000000e+00
     1206000000   -1,613469124e-01   -3,246083558e-01   -3,655533493e-01    1,910704672e-01    0,000000000e+00    0,000000000e+00    0,000000000e+00    0,000000000e+00
     1220000000   -4,557856619e-01   -1,756474227e-01   -1,074619442e-01    3,306002319e-01    0,000000000e+00    0,000000000e+00    0,000000000e+00    0,000000000e+00
     1234000000   -4,757247269e-01    1,682609916e-01    1,363933831e-01    2,228057384e-01    0,000000000e+00    0,000000000e+00    0,000000000e+00    0,000000000e+00
     1248000000   -2,319979668e-01    3,551206887e-01    1,965328604e-01    3,108210675e-02    0,000000000e+00    0,000000000e+00    0,000000000e+00    0,000000000e+00
     1262000000    8,983228356e-03    3,333944678e-01    1,301174611e-01   -6,910020858e-02    0,000000000e+00    0,000000000e+00    0,000000000e+00    0,000000000e+00
     1276000000    1,544778198e-01    1,958459914e-01    5,192631483e-02   -9,685335308e-02    0,000000000e+00    0,000000000e+00    0,000000000e+00    0,000000000e+00
     1290000000    2,143217176e-01    3,175037354e-02    5,500321276e-04   -7,478118688e-02    0,000000000e+00    0,000000000e+00    0,000000000e+00    0,000000000e+00
     1304000000    2,077717930e-01   -1,446700990e-01   -1,854150742e-02   -2,687776648e-02    0,000000000e+00    0,000000000e+00    0,000000000e+00    0,000000000e+00
     1318000000    1,148856729e-01   -3,116689622e-01   -3,086023731e-03    1,836299151e-02    0,000000000e+00    0,000000000e+00    0,000000000e+00    0,000000000e+00
     1332000000   -6,812056899e-02   -4,317804277e-01    4,575817287e-02    6,829786301e-02    0,000000000e+00    0,000000000e+00    0,000000000e+00    0,000000000e+00
     1346000000   -3,256510198e-01   -4,322859645e-01    1,435272694e-01    4,320393875e-02    0,000000000e+00    0,000000000e+00    0,000000000e+00    0,000000000e+00
     1360000000   -5,516281724e-01   -2,478985786e-01    1,164536029e-01   -8,589729667e-02    0,000000000e+00    0,000000000e+00    0,000000000e+00    0,000000000e+00
     1374000000   -6,176620126e-01    3,430815786e-02    1,141347066e-01    6,209245697e-02    0,000000000e+00    0,000000000e+00    0,000000000e+00    0,000000000e+00
     1388000000   -5,136452913e-01    2,835542560e-01    2,295810282e-01   -8,602336980e-03    0,000000000e+00    0,000000000e+00    0,000000000e+00    0,000000000e+00
     1402000000   -3,007115126e-01    4,154776037e-01    2,273987532e-01   -9,177383035e-02    0,000000000e+00    0,000000000e+00    0,000000000e+00    0,000000000e+00
     1416000000   -9,752475470e-02    4,221516252e-01    1,862559170e-01   -1,189261526e-01    0,000000000e+00    0,000000000e+00    0,000000000e+00    0,000000000e+00
     1430000000    7,354900986e-02    3,382567167e-01    1,492656171e-01   -1,183508411e-01    0,000000000e+00    0,000000000e+00    0,000000000e+00    0,000000000e+00
     1444000000    1,789526790e-01    1,982781738e-01    1,573602706e-01   -1,071640104e-01    0,000000000e+00    0,000000000e+00    0,000000000e+00    0,000000000e+00
     1458000000    2,236635983e-01    3,896806017e-02    1,550096124e-01   -7,620898634e-02    0,000000000e+00    0,000000000e+00    0,000000000e+00    0,000000000e+00
     1472000000    2,065848261e-01   -1,455249935e-01    1,529906094e-01   -5,358298495e-02    0,000000000e+00    0,000000000e+00    0,000000000e+00    0,000000000e+00
     1486000000    1,077303588e-01   -3,219181299e-01    1,709968001e-01    1,003986970e-02    0,000000000e+00    0,000000000e+00    0,000000000e+00    0,000000000e+00
     1500000000   -8,235908300e-02   -4,570476413e-01    2,109677345e-01    4,399398714e-02    0,000000000e+00    0,000000000e+00    0,000000000e+00    0,000000000e+00
