! NanoVNA-App
! Date: 2025-09-25 14:23:57
! Start: 100MHz Stop: 1,5GHz Points: 101
! S-Parameter data: F S11 S21 S12 S22
# Hz S RI R 50
!     Frequency           S11_Real           S11_Imag           S21_Real           S21_Imag           S12_Real           S12_Imag           S22_Real           S22_Imag
      100000000   -2,908547595e-02   -4,135868512e-03    3,744399846e-01   -7,220661044e-01    0,000000000e+00    0,000000000e+00    0,000000000e+00    0,000000000e+00
      114000000   -1,665512845e-02    1,161894947e-02   -8,891262859e-02   -8,058769703e-01    0,000000000e+00    0,000000000e+00    0,000000000e+00    0,000000000e+00
      128000000    3,453473793e-03    1,054714061e-02   -5,145083070e-01   -6,209336519e-01    0,000000000e+00    0,000000000e+00    0,000000000e+00    0,000000000e+00
      142000000    1,446913090e-02   -3,049150808e-03   -7,674306631e-01   -2,368655801e-01    0,000000000e+00    0,000000000e+00    0,000000000e+00    0,000000000e+00
      156000000    1,472332887e-02   -1,506310608e-02   -7,661330104e-01    2,213592976e-01    0,000000000e+00    0,000000000e+00    0,000000000e+00    0,000000000e+00
      170000000    1,659296453e-02   -2,257669531e-02   -5,187945962e-01    6,051905155e-01    0,000000000e+00    0,000000000e+00    0,000000000e+00    0,000000000e+00
      184000000    2,094488963e-02   -3,704814240e-02   -1,015356556e-01    7,867130041e-01    0,000000000e+00    0,000000000e+00    0,000000000e+00    0,000000000e+00
      198000000    1,312009431e-02   -6,262326986e-02    3,430997133e-01    7,132931948e-01    0,000000000e+00    0,000000000e+00    0,000000000e+00    0,000000000e+00
      212000000   -1,875034720e-02   -8,163892478e-02    6,782673597e-01    4,104190469e-01    0,000000000e+00    0,000000000e+00    0,000000000e+00    0,000000000e+00
      226000000   -6,209064648e-02   -6,972849369e-02    7,960839868e-01   -2,981428988e-02    0,000000000e+00    0,000000000e+00    0,000000000e+00    0,000000000e+00
      240000000   -8,318627626e-02   -2,599100396e-02    6,472084522e-01   -4,665549099e-01    0,000000000e+00    0,000000000e+00    0,000000000e+00    0,000000000e+00
      254000000   -6,424332410e-02    1,730903424e-02    2,770550251e-01   -7,434415221e-01    0,000000000e+00    0,000000000e+00    0,000000000e+00    0,000000000e+00
      268000000   -2,427135967e-02    2,945912071e-02   -1,772301942e-01   -7,651972771e-01    0,000000000e+00    0,000000000e+00    0,000000000e+00    0,000000000e+00
      282000000    4,234896973e-03    1,218099240e-02   -5,628635287e-01   -5,370225906e-01    0,000000000e+00    0,000000000e+00    0,000000000e+00    0,000000000e+00
      296000000    9,660917334e-03   -7,714859210e-03   -7,607823014e-01   -1,394602507e-01    0,000000000e+00    0,000000000e+00    0,000000000e+00    0,000000000e+00
      310000000    1,073729247e-02   -1,628943719e-02   -7,133500576e-01    2,965399623e-01    0,000000000e+00    0,000000000e+00    0,000000000e+00    0,000000000e+00
      324000000    1,949049905e-02   -2,651052922e-02   -4,281425774e-01    6,374208927e-01    0,000000000e+00    0,000000000e+00    0,000000000e+00    0,000000000e+00
      338000000    2,553923614e-02   -5,235049501e-02   -8,641587570e-03    7,626178265e-01    0,000000000e+00    0,000000000e+00    0,000000000e+00    0,000000000e+00
      352000000    7,128031459e-03   -8,469890058e-02    4,055975378e-01    6,416438818e-01    0,000000000e+00    0,000000000e+00    0,000000000e+00    0,000000000e+00
      366000000   -3,484389931e-02   -9,588787705e-02    6,908271909e-01    3,123574853e-01    0,000000000e+00    0,000000000e+00    0,000000000e+00    0,000000000e+00
      380000000   -7,144718617e-02   -7,121147960e-02    7,479683161e-01   -1,249788776e-01    0,000000000e+00    0,000000000e+00    0,000000000e+00    0,000000000e+00
      394000000   -7,293959707e-02   -3,223789111e-02    5,486705899e-01   -5,210657716e-01    0,000000000e+00    0,000000000e+00    0,000000000e+00    0,000000000e+00
      408000000   -4,690473899e-02   -1,591596939e-02    1,623619795e-01   -7,323721051e-01    0,000000000e+00    0,000000000e+00    0,000000000e+00    0,000000000e+00
      422000000   -2,844778448e-02   -3,131434321e-02   -2,659469247e-01   -6,958349347e-01    0,000000000e+00    0,000000000e+00    0,000000000e+00    0,000000000e+00
      436000000   -4,030093551e-02   -5,189201236e-02   -6,031080484e-01   -4,333357811e-01    0,000000000e+00    0,000000000e+00    0,000000000e+00    0,000000000e+00
      450000000   -6,774698198e-02   -4,479986057e-02   -7,406043410e-01   -2,494843863e-02    0,000000000e+00    0,000000000e+00    0,000000000e+00    0,000000000e+00
      464000000   -7,433554530e-02   -1,259453967e-02   -6,214517951e-01    3,945299089e-01    0,000000000e+00    0,000000000e+00    0,000000000e+00    0,000000000e+00
      478000000   -4,909964278e-02    1,186738815e-02   -2,871856391e-01    6,670402288e-01    0,000000000e+00    0,000000000e+00    0,000000000e+00    0,000000000e+00
      492000000   -1,683405787e-02    6,585803349e-03    1,338774413e-01    7,039580345e-01    0,000000000e+00    0,000000000e+00    0,000000000e+00    0,000000000e+00
      506000000   -3,931229934e-03   -1,521548536e-02    4,971357286e-01    5,062200427e-01    0,000000000e+00    0,000000000e+00    0,000000000e+00    0,000000000e+00
      520000000   -6,067994051e-03   -2,966570854e-02    6,887668967e-01    1,437148899e-01    0,000000000e+00    0,000000000e+00    0,000000000e+00    0,000000000e+00
      534000000   -3,248245921e-03   -3,554920480e-02    6,449091434e-01   -2,591180503e-01    0,000000000e+00    0,000000000e+00    0,000000000e+00    0,000000000e+00
      548000000    8,193170652e-03   -5,317167565e-02    3,844151795e-01   -5,639498234e-01    0,000000000e+00    0,000000000e+00    0,000000000e+00    0,000000000e+00
      562000000    6,039504427e-03   -8,990740776e-02    8,320827968e-03   -6,718358397e-01    0,000000000e+00    0,000000000e+00    0,000000000e+00    0,000000000e+00
      576000000   -3,162382916e-02   -1,260404438e-01   -3,626291752e-01   -5,610820651e-01    0,000000000e+00    0,000000000e+00    0,000000000e+00    0,000000000e+00
      590000000   -9,485527873e-02   -1,278436184e-01   -6,183635592e-01   -2,718460560e-01    0,000000000e+00    0,000000000e+00    0,000000000e+00    0,000000000e+00
      604000000   -1,426827759e-01   -7,811474800e-02   -6,669735909e-01    1,260382384e-01    0,000000000e+00    0,000000000e+00    0,000000000e+00    0,000000000e+00
      618000000   -1,383652836e-01   -1,157819200e-02   -4,748305976e-01    4,866202474e-01    0,000000000e+00    0,000000000e+00    0,000000000e+00    0,000000000e+00
      632000000   -9,323778003e-02    2,233622223e-02   -1,131638363e-01    6,623907089e-01    0,000000000e+00    0,000000000e+00    0,000000000e+00    0,000000000e+00
      646000000   -5,513428897e-02    1,149196550e-02    2,735792696e-01    6,042005420e-01    0,000000000e+00    0,000000000e+00    0,000000000e+00    0,000000000e+00
      660000000   -4,746533185e-02   -8,361403830e-03    5,579230189e-01    3,402713239e-01    0,000000000e+00    0,000000000e+00    0,000000000e+00    0,000000000e+00
      674000000   -5,500063300e-02   -1,075671799e-02    6,440882087e-01   -3,983559832e-02    0,000000000e+00    0,000000000e+00    0,000000000e+00    0,000000000e+00
      688000000   -5,074451864e-02    2,975300187e-03    4,929972887e-01   -4,014180005e-01    0,000000000e+00    0,000000000e+00    0,000000000e+00    0,000000000e+00
      702000000   -2,586106397e-02    7,405191660e-03    1,667378396e-01   -5,998069048e-01    0,000000000e+00    0,000000000e+00    0,000000000e+00    0,000000000e+00
      716000000   -1,782293548e-03   -8,539988659e-03   -2,186905295e-01   -5,743416548e-01    0,000000000e+00    0,000000000e+00    0,000000000e+00    0,000000000e+00
      730000000    9,772509336e-03   -3,515810519e-02   -5,084746480e-01   -3,334150016e-01    0,000000000e+00    0,000000000e+00    0,000000000e+00    0,000000000e+00
      744000000    1,642494649e-02   -6,010986492e-02   -6,005159616e-01    3,277203441e-02    0,000000000e+00    0,000000000e+00    0,000000000e+00    0,000000000e+00
      758000000    2,260217257e-02   -1,035926268e-01   -4,546518028e-01    3,772887588e-01    0,000000000e+00    0,000000000e+00    0,000000000e+00    0,000000000e+00
      772000000   -4,493243992e-03   -1,736013740e-01   -1,400314569e-01    5,576203465e-01    0,000000000e+00    0,000000000e+00    0,000000000e+00    0,000000000e+00
      786000000   -1,056909338e-01   -2,328839600e-01    2,110647857e-01    5,189749002e-01    0,000000000e+00    0,000000000e+00    0,000000000e+00    0,000000000e+00
      800000000   -2,658394575e-01   -1,914585233e-01    4,712707400e-01    2,749051154e-01    0,000000000e+00    0,000000000e+00    0,000000000e+00    0,000000000e+00
      814000000   -3,642180264e-01    2,841467736e-03    5,077133179e-01   -8,838234842e-02    0,000000000e+00    0,000000000e+00    0,000000000e+00    0,000000000e+00
      828000000   -2,482035607e-01    2,337762117e-01    2,805960476e-01   -3,517961204e-01    0,000000000e+00    0,000000000e+00    0,000000000e+00    0,000000000e+00
      842000000    1,302801352e-02    2,784763575e-01   -1,553398836e-02   -3,629731536e-01    0,000000000e+00    0,000000000e+00    0,000000000e+00    0,000000000e+00
      856000000    2,128360569e-01    1,155868247e-01   -1,875574738e-01   -2,049571723e-01    0,000000000e+00    0,000000000e+00    0,000000000e+00    0,000000000e+00
      870000000    2,389832586e-01   -1,489928514e-01   -2,002945542e-01   -2,634746023e-02    0,000000000e+00    0,000000000e+00    0,000000000e+00    0,000000000e+00
      884000000    3,764934093e-02   -3,868418932e-01   -1,031647623e-01    7,060438395e-02    0,000000000e+00    0,000000000e+00    0,000000000e+00    0,000000000e+00
      898000000   -3,695890605e-01   -3,412673771e-01   -1,649255678e-02    2,740700357e-02    0,000000000e+00    0,000000000e+00    0,000000000e+00    0,000000000e+00
      912000000   -4,679792821e-01    1,379077286e-01   -1,167499274e-01    2,445238456e-02    0,000000000e+00    0,000000000e+00    0,000000000e+00    0,000000000e+00
      926000000   -9,598024935e-02    3,527907729e-01   -1,286648512e-01    1,359189749e-01    0,000000000e+00    0,000000000e+00    0,000000000e+00    0,000000000e+00
      940000000    1,834044605e-01    1,921436191e-01   -3,996006027e-02    2,154308408e-01    0,000000000e+00    0,000000000e+00    0,000000000e+00    0,000000000e+00
      954000000    2,539088428e-01   -4,629825056e-02    7,946332544e-02    2,283619940e-01    0,000000000e+00    0,000000000e+00    0,000000000e+00    0,000000000e+00
      968000000    1,735563427e-01   -2,610919774e-01    1,905544847e-01    1,809324026e-01    0,000000000e+00    0,000000000e+00    0,000000000e+00    0,000000000e+00
      982000000   -1,504856255e-02   -3,960455358e-01    2,802013457e-01    7,983319461e-02    0,000000000e+00    0,000000000e+00    0,000000000e+00    0,000000000e+00
      996000000   -2,767101228e-01   -3,769997358e-01    3,098122776e-01   -8,091619611e-02    0,000000000e+00    0,000000000e+00    0,000000000e+00    0,000000000e+00
     1010000000   -4,680391252e-01   -1,694289446e-01    2,222269326e-01   -2,517389655e-01    0,000000000e+00    0,000000000e+00    0,000000000e+00    0,000000000e+00
     1024000000   -4,584786296e-01    1,209316179e-01    2,100038528e-02   -3,310706615e-01    0,000000000e+00    0,000000000e+00    0,000000000e+00    0,000000000e+00
     1038000000   -2,653825581e-01    3,015809953e-01   -1,737224311e-01   -2,479771227e-01    0,000000000e+00    0,000000000e+00    0,000000000e+00    0,000000000e+00
     1052000000   -3,595783934e-02    3,055388331e-01   -2,582547665e-01   -7,621552050e-02    0,000000000e+00    0,000000000e+00    0,000000000e+00    0,000000000e+00
     1066000000    1,303314269e-01    2,059128881e-01   -2,213892639e-01    8,808946609e-02    0,000000000e+00    0,000000000e+00    0,000000000e+00    0,000000000e+00
     1080000000    2,078852206e-01    5,097068101e-02   -1,194527596e-01    1,917085499e-01    0,000000000e+00    0,000000000e+00    0,000000000e+00    0,000000000e+00
     1094000000    2,005600482e-01   -1,256116033e-01    1,734347641e-02    2,335527688e-01    0,000000000e+00    0,000000000e+00    0,000000000e+00    0,000000000e+00
     1108000000    1,031956077e-01   -2,866067588e-01    1,678857505e-01    2,060078532e-01    0,000000000e+00    0,000000000e+00    0,000000000e+00    0,000000000e+00
     1122000000   -9,843287617e-02   -3,662663698e-01    3,182686865e-01    8,939937502e-02    0,000000000e+00    0,000000000e+00    0,000000000e+00    0,000000000e+00
     1136000000   -3,458670080e-01   -2,740529180e-01    3,940437436e-01   -1,522861719e-01    0,000000000e+00    0,000000000e+00    0,000000000e+00    0,000000000e+00
     1150000000   -4,055843353e-01    3,314424306e-02    2,422817796e-01   -4,404024482e-01    0,000000000e+00    0,000000000e+00    0,000000000e+00    0,000000000e+00
     1164000000   -1,639668047e-01    2,173595726e-01   -9,590222687e-02   -5,132843852e-01    0,000000000e+00    0,000000000e+00    0,000000000e+00    0,000000000e+00
     1178000000    7,382897288e-02    8,109489083e-02   -3,556493819e-01   -3,502112627e-01    0,000000000e+00    0,000000000e+00    0,000000000e+00    0,000000000e+00
     1192000000    7,447365671e-02   -1,695398539e-01   -4,548435509e-01   -8,128047734e-02    0,000000000e+00    0,000000000e+00    0,000000000e+00    0,000000000e+00
     1206000000   -1,577042937e-01   -3,284156621e-01   -3,687306643e-01    1,913062632e-01    0,000000000e+00    0,000000000e+00    0,000000000e+00    0,000000000e+00
     1220000000   -4,566255808e-01   -1,789488345e-01   -1,107865572e-01    3,268230855e-01    0,000000000e+00    0,000000000e+00    0,000000000e+00    0,000000000e+00
     1234000000   -4,753558636e-01    1,645687521e-01    1,367044151e-01    2,162584662e-01    0,000000000e+00    0,000000000e+00    0,000000000e+00    0,000000000e+00
     1248000000   -2,344141304e-01    3,522323072e-01    1,915805936e-01    3,377406672e-02    0,000000000e+00    0,000000000e+00    0,000000000e+00    0,000000000e+00
     1262000000    1,049473695e-02    3,331078291e-01    1,296683699e-01   -7,210601866e-02    0,000000000e+00    0,000000000e+00    0,000000000e+00    0,000000000e+00
     1276000000    1,549810618e-01    2,031319737e-01    5,638701469e-02   -9,390114248e-02    0,000000000e+00    0,000000000e+00    0,000000000e+00    0,000000000e+00
     1290000000    2,203202099e-01    2,802780271e-02    6,180432159e-03   -7,764112949e-02    0,000000000e+00    0,000000000e+00    0,000000000e+00    0,000000000e+00
     1304000000    2,047935575e-01   -1,484912932e-01   -1,828283630e-02   -3,328951076e-02    0,000000000e+00    0,000000000e+00    0,000000000e+00    0,000000000e+00
     1318000000    1,163027734e-01   -3,098212481e-01   -8,763883263e-03    2,343452536e-02    0,000000000e+00    0,000000000e+00    0,000000000e+00    0,000000000e+00
     1332000000   -6,856852770e-02   -4,358173311e-01    4,479749501e-02    6,597749144e-02    0,000000000e+00    0,000000000e+00    0,000000000e+00    0,000000000e+00
     1346000000   -3,338743746e-01   -4,369306862e-01    1,404270977e-01    5,639480054e-02    0,000000000e+00    0,000000000e+00    0,000000000e+00    0,000000000e+00
     1360000000   -5,580704212e-01   -2,431553453e-01    1,116651669e-01   -7,664992660e-02    0,000000000e+00    0,000000000e+00    0,000000000e+00    0,000000000e+00
     1374000000   -6,202347279e-01    4,013003781e-02    1,076418534e-01    5,694236979e-02    0,000000000e+00    0,000000000e+00    0,000000000e+00    0,000000000e+00
     1388000000   -5,191925168e-01    2,985183299e-01    2,244195938e-01    2,013015794e-03    0,000000000e+00    0,000000000e+00    0,000000000e+00    0,000000000e+00
     1402000000   -2,985176444e-01    4,270003438e-01    2,329339534e-01   -8,104456961e-02    0,000000000e+00    0,000000000e+00    0,000000000e+00    0,000000000e+00
     1416000000   -1,030241847e-01    4,148776829e-01    1,814730167e-01   -1,180886328e-01    0,000000000e+00    0,000000000e+00    0,000000000e+00    0,000000000e+00
     1430000000    7,382134348e-02    3,332936168e-01    1,764768660e-01   -8,893503994e-02    0,000000000e+00    0,000000000e+00    0,000000000e+00    0,000000000e+00
     1444000000    1,766636670e-01    1,986107081e-01    1,590694636e-01   -1,046878919e-01    0,000000000e+00    0,000000000e+00    0,000000000e+00    0,000000000e+00
     1458000000    2,190510333e-01    3,691890836e-02    1,414031237e-01   -8,522104472e-02    0,000000000e+00    0,000000000e+00    0,000000000e+00    0,000000000e+00
     1472000000    2,066215128e-01   -1,502155960e-01    1,552623212e-01   -4,190806672e-02    0,000000000e+00    0,000000000e+00    0,000000000e+00    0,000000000e+00
     1486000000    1,059254929e-01   -3,235049546e-01    1,616451889e-01    6,953629199e-03    0,000000000e+00    0,000000000e+00    0,000000000e+00    0,000000000e+00
     1500000000   -9,434345365e-02   -4,613834023e-01    2,042056471e-01    5,531736836e-02    0,000000000e+00    0,000000000e+00    0,000000000e+00    0,000000000e+00
