! NanoVNA-App
! Date: 2025-09-25 14:26:55
! Start: 100MHz Stop: 1,5GHz Points: 101
! S-Parameter data: F S11 S21 S12 S22
# Hz S RI R 50
!     Frequency           S11_Real           S11_Imag           S21_Real           S21_Imag           S12_Real           S12_Imag           S22_Real           S22_Imag
      100000000   -2,910442092e-02   -4,121577833e-03    3,745543361e-01   -7,219780087e-01    0,000000000e+00    0,000000000e+00    0,000000000e+00    0,000000000e+00
      114000000   -1,660657674e-02    1,160157658e-02   -8,897296339e-02   -8,058785200e-01    0,000000000e+00    0,000000000e+00    0,000000000e+00    0,000000000e+00
      128000000    3,381963819e-03    1,050704997e-02   -5,144733191e-01   -6,209189892e-01    0,000000000e+00    0,000000000e+00    0,000000000e+00    0,000000000e+00
      142000000    1,442932431e-02   -3,084558062e-03   -7,674896717e-01   -2,369714975e-01    0,000000000e+00    0,000000000e+00    0,000000000e+00    0,000000000e+00
      156000000    1,512704324e-02   -1,492248103e-02   -7,718747258e-01    2,213747203e-01    0,000000000e+00    0,000000000e+00    0,000000000e+00    0,000000000e+00
      170000000    1,652291417e-02   -2,243201248e-02   -5,188573599e-01    6,050128341e-01    0,000000000e+00    0,000000000e+00    0,000000000e+00    0,000000000e+00
      184000000    2,098007686e-02   -3,702275455e-02   -1,020109206e-01    7,868633866e-01    0,000000000e+00    0,000000000e+00    0,000000000e+00    0,000000000e+00
      198000000    1,314541232e-02   -6,259886920e-02    3,430786133e-01    7,132889032e-01    0,000000000e+00    0,000000000e+00    0,000000000e+00    0,000000000e+00
      212000000   -1,871487498e-02   -8,175102621e-02    6,783633232e-01    4,106298983e-01    0,000000000e+00    0,000000000e+00    0,000000000e+00    0,000000000e+00
      226000000   -6,207749248e-02   -6,964845210e-02    7,961378098e-01   -2,969721332e-02    0,000000000e+00    0,000000000e+00    0,000000000e+00    0,000000000e+00
      240000000   -8,333173394e-02   -2,604064532e-02    6,470642090e-01   -4,668628573e-01    0,000000000e+00    0,000000000e+00    0,000000000e+00    0,000000000e+00
      254000000   -6,435818970e-02    1,743265428e-02    2,770908475e-01   -7,435250282e-01    0,000000000e+00    0,000000000e+00    0,000000000e+00    0,000000000e+00
      268000000   -2,405880019e-02    2,948567644e-02   -1,768301576e-01   -7,648735642e-01    0,000000000e+00    0,000000000e+00    0,000000000e+00    0,000000000e+00
      282000000    4,167236853e-03    1,216275617e-02   -5,628760457e-01   -5,376335979e-01    0,000000000e+00    0,000000000e+00    0,000000000e+00    0,000000000e+00
      296000000    9,658842348e-03   -7,813973352e-03   -7,607672811e-01   -1,395983547e-01    0,000000000e+00    0,000000000e+00    0,000000000e+00    0,000000000e+00
      310000000    1,091508195e-02   -1,616659574e-02   -7,126334906e-01    2,975020707e-01    0,000000000e+00    0,000000000e+00    0,000000000e+00    0,000000000e+00
      324000000    1,955716871e-02   -2,652476169e-02   -4,295189381e-01    6,379132271e-01    0,000000000e+00    0,000000000e+00    0,000000000e+00    0,000000000e+00
      338000000    2,538517118e-02   -5,193022639e-02   -7,768636569e-03    7,625502348e-01    0,000000000e+00    0,000000000e+00    0,000000000e+00    0,000000000e+00
      352000000    7,492307108e-03   -8,461674303e-02    4,056938291e-01    6,410183907e-01    0,000000000e+00    0,000000000e+00    0,000000000e+00    0,000000000e+00
      366000000   -3,482095897e-02   -9,607999772e-02    6,911492348e-01    3,123012185e-01    0,000000000e+00    0,000000000e+00    0,000000000e+00    0,000000000e+00
      380000000   -7,132789493e-02   -7,104934007e-02    7,480672002e-01   -1,244679019e-01    0,000000000e+00    0,000000000e+00    0,000000000e+00    0,000000000e+00
      394000000   -7,326345891e-02   -3,238121420e-02    5,477886200e-01   -5,200335979e-01    0,000000000e+00    0,000000000e+00    0,000000000e+00    0,000000000e+00
      408000000   -4,681051522e-02   -1,556205563e-02    1,637245715e-01   -7,326511145e-01    0,000000000e+00    0,000000000e+00    0,000000000e+00    0,000000000e+00
      422000000   -2,836468630e-02   -3,160880879e-02   -2,652524114e-01   -6,969195604e-01    0,000000000e+00    0,000000000e+00    0,000000000e+00    0,000000000e+00
      436000000   -4,020987079e-02   -5,202265829e-02   -6,026721001e-01   -4,340634346e-01    0,000000000e+00    0,000000000e+00    0,000000000e+00    0,000000000e+00
      450000000   -6,736469269e-02   -4,499577731e-02   -7,399970293e-01   -2,529986575e-02    0,000000000e+00    0,000000000e+00    0,000000000e+00    0,000000000e+00
      464000000   -7,413408160e-02   -1,250242069e-02   -6,212258339e-01    3,938774765e-01    0,000000000e+00    0,000000000e+00    0,000000000e+00    0,000000000e+00
      478000000   -4,901206121e-02    1,178468484e-02   -2,868127227e-01    6,670939922e-01    0,000000000e+00    0,000000000e+00    0,000000000e+00    0,000000000e+00
      492000000   -1,712668873e-02    6,389549002e-03    1,339603812e-01    7,042157650e-01    0,000000000e+00    0,000000000e+00    0,000000000e+00    0,000000000e+00
      506000000   -3,894675989e-03   -1,508117002e-02    4,973972738e-01    5,056660175e-01    0,000000000e+00    0,000000000e+00    0,000000000e+00    0,000000000e+00
      520000000   -5,836937577e-03   -2,974940091e-02    6,890133619e-01    1,444629729e-01    0,000000000e+00    0,000000000e+00    0,000000000e+00    0,000000000e+00
      534000000   -3,166985698e-03   -3,569699824e-02    6,448239684e-01   -2,591580749e-01    0,000000000e+00    0,000000000e+00    0,000000000e+00    0,000000000e+00
      548000000    8,084578440e-03   -5,272918940e-02    3,844224513e-01   -5,636472106e-01    0,000000000e+00    0,000000000e+00    0,000000000e+00    0,000000000e+00
      562000000    5,684539210e-03   -8,938998729e-02    8,069557138e-03   -6,719513535e-01    0,000000000e+00    0,000000000e+00    0,000000000e+00    0,000000000e+00
      576000000   -3,128682077e-02   -1,257908046e-01   -3,632831872e-01   -5,607060194e-01    0,000000000e+00    0,000000000e+00    0,000000000e+00    0,000000000e+00
      590000000   -9,509035200e-02   -1,275321841e-01   -6,156206727e-01   -2,706544101e-01    0,000000000e+00    0,000000000e+00    0,000000000e+00    0,000000000e+00
      604000000   -1,431666613e-01   -7,816462219e-02   -6,673379540e-01    1,257740706e-01    0,000000000e+00    0,000000000e+00    0,000000000e+00    0,000000000e+00
      618000000   -1,379656494e-01   -1,150527876e-02   -4,755989313e-01    4,848507941e-01    0,000000000e+00    0,000000000e+00    0,000000000e+00    0,000000000e+00
      632000000   -9,257889539e-02    2,187285386e-02   -1,132603958e-01    6,638945341e-01    0,000000000e+00    0,000000000e+00    0,000000000e+00    0,000000000e+00
      646000000   -5,482551455e-02    1,239024289e-02    2,729444802e-01    6,037733555e-01    0,000000000e+00    0,000000000e+00    0,000000000e+00    0,000000000e+00
      660000000   -4,832736030e-02   -8,113766089e-03    5,580409169e-01    3,397950530e-01    0,000000000e+00    0,000000000e+00    0,000000000e+00    0,000000000e+00
      674000000   -5,619156361e-02   -1,049954165e-02    6,443075538e-01   -4,010925815e-02    0,000000000e+00    0,000000000e+00    0,000000000e+00    0,000000000e+00
      688000000   -5,085238069e-02    2,697739983e-03    4,926052094e-01   -4,017730653e-01    0,000000000e+00    0,000000000e+00    0,000000000e+00    0,000000000e+00
      702000000   -2,597019449e-02    8,007464930e-03    1,635758281e-01   -6,080685854e-01    0,000000000e+00    0,000000000e+00    0,000000000e+00    0,000000000e+00
      716000000   -2,045525704e-03   -9,403347969e-03   -2,193062454e-01   -5,759214163e-01    0,000000000e+00    0,000000000e+00    0,000000000e+00    0,000000000e+00
      730000000    9,862363338e-03   -3,501990810e-02   -5,090898275e-01   -3,328700662e-01    0,000000000e+00    0,000000000e+00    0,000000000e+00    0,000000000e+00
      744000000    1,726400852e-02   -6,087155268e-02   -6,011304259e-01    3,316797316e-02    0,000000000e+00    0,000000000e+00    0,000000000e+00    0,000000000e+00
      758000000    2,219669707e-02   -1,031391397e-01   -4,547053277e-01    3,771811724e-01    0,000000000e+00    0,000000000e+00    0,000000000e+00    0,000000000e+00
      772000000   -4,889376927e-03   -1,740883738e-01   -1,395452172e-01    5,586521626e-01    0,000000000e+00    0,000000000e+00    0,000000000e+00    0,000000000e+00
      786000000   -1,056215018e-01   -2,324265391e-01    2,114786208e-01    5,198221207e-01    0,000000000e+00    0,000000000e+00    0,000000000e+00    0,000000000e+00
      800000000   -2,660647035e-01   -1,932680607e-01    4,718099535e-01    2,751995027e-01    0,000000000e+00    0,000000000e+00    0,000000000e+00    0,000000000e+00
      814000000   -3,638631999e-01    4,129458684e-03    5,080880523e-01   -8,867196739e-02    0,000000000e+00    0,000000000e+00    0,000000000e+00    0,000000000e+00
      828000000   -2,478429228e-01    2,336717695e-01    2,820477486e-01   -3,517111242e-01    0,000000000e+00    0,000000000e+00    0,000000000e+00    0,000000000e+00
      842000000    1,205246802e-02    2,781912684e-01   -1,572520472e-02   -3,634374738e-01    0,000000000e+00    0,000000000e+00    0,000000000e+00    0,000000000e+00
      856000000    2,124347389e-01    1,148900986e-01   -1,887215525e-01   -2,054629177e-01    0,000000000e+00    0,000000000e+00    0,000000000e+00    0,000000000e+00
      870000000    2,388887554e-01   -1,488018334e-01   -2,005903572e-01   -2,605343610e-02    0,000000000e+00    0,000000000e+00    0,000000000e+00    0,000000000e+00
      884000000    3,829151392e-02   -3,864955902e-01   -1,040397361e-01    7,120307535e-02    0,000000000e+00    0,000000000e+00    0,000000000e+00    0,000000000e+00
      898000000   -3,700026572e-01   -3,418979943e-01   -1,674658619e-02    2,794000506e-02    0,000000000e+00    0,000000000e+00    0,000000000e+00    0,000000000e+00
      912000000   -4,669523537e-01    1,390886307e-01   -1,034969985e-01    2,854049951e-02    0,000000000e+00    0,000000000e+00    0,000000000e+00    0,000000000e+00
      926000000   -9,604652226e-02    3,513917029e-01   -1,305274814e-01    1,332837045e-01    0,000000000e+00    0,000000000e+00    0,000000000e+00    0,000000000e+00
      940000000    1,841869950e-01    1,955207288e-01   -3,839632496e-02    2,167842239e-01    0,000000000e+00    0,000000000e+00    0,000000000e+00    0,000000000e+00
      954000000    2,531743944e-01   -4,698172584e-02    7,884710282e-02    2,273796201e-01    0,000000000e+00    0,000000000e+00    0,000000000e+00    0,000000000e+00
      968000000    1,744226217e-01   -2,624350786e-01    1,913484186e-01    1,800124198e-01    0,000000000e+00    0,000000000e+00    0,000000000e+00    0,000000000e+00
      982000000   -1,875638403e-02   -3,922702372e-01    2,798601687e-01    8,006811142e-02    0,000000000e+00    0,000000000e+00    0,000000000e+00    0,000000000e+00
      996000000   -2,769952714e-01   -3,756254911e-01    3,104006350e-01   -7,882755995e-02    0,000000000e+00    0,000000000e+00    0,000000000e+00    0,000000000e+00
     1010000000   -4,669079185e-01   -1,709986627e-01    2,222099453e-01   -2,534985244e-01    0,000000000e+00    0,000000000e+00    0,000000000e+00    0,000000000e+00
     1024000000   -4,609616697e-01    1,190021113e-01    2,226387523e-02   -3,310037553e-01    0,000000000e+00    0,000000000e+00    0,000000000e+00    0,000000000e+00
     1038000000   -2,610216439e-01    3,004748523e-01   -1,736125499e-01   -2,494020462e-01    0,000000000e+00    0,000000000e+00    0,000000000e+00    0,000000000e+00
     1052000000   -3,609540686e-02    3,123165965e-01   -2,567221224e-01   -7,766035199e-02    0,000000000e+00    0,000000000e+00    0,000000000e+00    0,000000000e+00
     1066000000    1,262774616e-01    2,028726190e-01   -2,216644734e-01    8,652329445e-02    0,000000000e+00    0,000000000e+00    0,000000000e+00    0,000000000e+00
     1080000000    2,107790411e-01    4,663393646e-02   -1,215572357e-01    1,923586130e-01    0,000000000e+00    0,000000000e+00    0,000000000e+00    0,000000000e+00
     1094000000    1,995680630e-01   -1,300700903e-01    1,699553989e-02    2,360799164e-01    0,000000000e+00    0,000000000e+00    0,000000000e+00    0,000000000e+00
     1108000000    1,020700261e-01   -2,847070694e-01    1,689373851e-01    2,049053907e-01    0,000000000e+00    0,000000000e+00    0,000000000e+00    0,000000000e+00
     1122000000   -1,008998901e-01   -3,668535054e-01    3,174109161e-01    8,873125166e-02    0,000000000e+00    0,000000000e+00    0,000000000e+00    0,000000000e+00
     1136000000   -3,431034684e-01   -2,711510360e-01    3,912852108e-01   -1,487552822e-01    0,000000000e+00    0,000000000e+00    0,000000000e+00    0,000000000e+00
     1150000000   -4,048059285e-01    4,127341881e-02    2,464442253e-01   -4,350160658e-01    0,000000000e+00    0,000000000e+00    0,000000000e+00    0,000000000e+00
     1164000000   -1,592729986e-01    2,235307693e-01   -9,528126568e-02   -5,139225125e-01    0,000000000e+00    0,000000000e+00    0,000000000e+00    0,000000000e+00
     1178000000    7,648884505e-02    8,271858096e-02   -3,582824469e-01   -3,469536304e-01    0,000000000e+00    0,000000000e+00    0,000000000e+00    0,000000000e+00
     1192000000    7,331624627e-02   -1,761593372e-01   -4,529979825e-01   -8,457691967e-02    0,000000000e+00    0,000000000e+00    0,000000000e+00    0,000000000e+00
     1206000000   -1,631286889e-01   -3,284919262e-01   -3,686119020e-01    1,848163903e-01    0,000000000e+00    0,000000000e+00    0,000000000e+00    0,000000000e+00
     1220000000   -4,512526393e-01   -1,793896109e-01   -1,031589508e-01    3,286250532e-01    0,000000000e+00    0,000000000e+00    0,000000000e+00    0,000000000e+00
     1234000000   -4,685379565e-01    1,712616086e-01    1,377690583e-01    2,227761298e-01    0,000000000e+00    0,000000000e+00    0,000000000e+00    0,000000000e+00
     1248000000   -2,336619794e-01    3,496854603e-01    1,950767934e-01    3,819491342e-02    0,000000000e+00    0,000000000e+00    0,000000000e+00    0,000000000e+00
     1262000000    1,131747384e-02    3,266644776e-01    1,294989437e-01   -7,301349938e-02    0,000000000e+00    0,000000000e+00    0,000000000e+00    0,000000000e+00
     1276000000    1,518600434e-01    1,978823096e-01    4,970416054e-02   -9,692811966e-02    0,000000000e+00    0,000000000e+00    0,000000000e+00    0,000000000e+00
     1290000000    2,162378430e-01    2,937948890e-02    3,182395827e-03   -7,730899751e-02    0,000000000e+00    0,000000000e+00    0,000000000e+00    0,000000000e+00
     1304000000    2,056698352e-01   -1,508849710e-01   -2,048430592e-02   -3,402218595e-02    0,000000000e+00    0,000000000e+00    0,000000000e+00    0,000000000e+00
     1318000000    1,166554540e-01   -3,129433692e-01   -5,185636692e-03    1,796402782e-02    0,000000000e+00    0,000000000e+00    0,000000000e+00    0,000000000e+00
     1332000000   -6,868483871e-02   -4,334582090e-01    3,959261253e-02    6,394777447e-02    0,000000000e+00    0,000000000e+00    0,000000000e+00    0,000000000e+00
     1346000000   -3,349770606e-01   -4,364726841e-01    1,379538625e-01    4,526746646e-02    0,000000000e+00    0,000000000e+00    0,000000000e+00    0,000000000e+00
     1360000000   -5,563671589e-01   -2,404478192e-01    1,159076393e-01   -7,821485400e-02    0,000000000e+00    0,000000000e+00    0,000000000e+00    0,000000000e+00
     1374000000   -6,214593053e-01    2,590124868e-02    1,147072613e-01    4,972556978e-02    0,000000000e+00    0,000000000e+00    0,000000000e+00    0,000000000e+00
     1388000000   -5,043638945e-01    2,918970585e-01    2,315495759e-01    4,218292888e-03    0,000000000e+00    0,000000000e+00    0,000000000e+00    0,000000000e+00
     1402000000   -3,038168848e-01    4,257103801e-01    2,188736349e-01   -7,835565507e-02    0,000000000e+00    0,000000000e+00    0,000000000e+00    0,000000000e+00
     1416000000   -8,808861673e-02    4,189831018e-01    1,999001056e-01   -1,277117282e-01    0,000000000e+00    0,000000000e+00    0,000000000e+00    0,000000000e+00
     1430000000    6,924535334e-02    3,443602920e-01    1,881653816e-01   -1,161304712e-01    0,000000000e+00    0,000000000e+00    0,000000000e+00    0,000000000e+00
     1444000000    1,790205091e-01    1,956965029e-01    1,582920998e-01   -1,037954241e-01    0,000000000e+00    0,000000000e+00    0,000000000e+00    0,000000000e+00
     1458000000    2,268136442e-01    3,493344039e-02    1,517009884e-01   -7,750518620e-02    0,000000000e+00    0,000000000e+00    0,000000000e+00    0,000000000e+00
     1472000000    2,055854648e-01   -1,465648711e-01    1,434907168e-01   -4,772999510e-02    0,000000000e+00    0,000000000e+00    0,000000000e+00    0,000000000e+00
     1486000000    1,057394445e-01   -3,273590207e-01    1,726652980e-01    4,145991988e-03    0,000000000e+00    0,000000000e+00    0,000000000e+00    0,000000000e+00
     1500000000   -9,128484875e-02   -4,651032984e-01    2,017443031e-01    5,589743331e-02    0,000000000e+00    0,000000000e+00    0,000000000e+00    0,000000000e+00
