! NanoVNA-App
! Date: 2025-09-25 14:22:55
! Start: 100MHz Stop: 1,5GHz Points: 101
! S-Parameter data: F S11 S21 S12 S22
# Hz S RI R 50
!     Frequency           S11_Real           S11_Imag           S21_Real           S21_Imag           S12_Real           S12_Imag           S22_Real           S22_Imag
      100000000   -2,909922600e-02   -4,122230690e-03    3,744143546e-01   -7,220519781e-01    0,000000000e+00    0,000000000e+00    0,000000000e+00    0,000000000e+00
      114000000   -1,660773717e-02    1,163951028e-02   -8,908428997e-02   -8,057607412e-01    0,000000000e+00    0,000000000e+00    0,000000000e+00    0,000000000e+00
      128000000    3,442579415e-03    1,057256293e-02   -5,146107078e-01   -6,207733154e-01    0,000000000e+00    0,000000000e+00    0,000000000e+00    0,000000000e+00
      142000000    1,447813585e-02   -3,026882419e-03   -7,673508525e-01   -2,368333638e-01    0,000000000e+00    0,000000000e+00    0,000000000e+00    0,000000000e+00
      156000000    1,438689604e-02   -1,501290593e-02   -7,646126151e-01    2,201275975e-01    0,000000000e+00    0,000000000e+00    0,000000000e+00    0,000000000e+00
      170000000    1,659675315e-02   -2,248797193e-02   -5,186428428e-01    6,048855782e-01    0,000000000e+00    0,000000000e+00    0,000000000e+00    0,000000000e+00
      184000000    2,102134936e-02   -3,708830476e-02   -1,017625853e-01    7,867828608e-01    0,000000000e+00    0,000000000e+00    0,000000000e+00    0,000000000e+00
      198000000    1,300942432e-02   -6,259185076e-02    3,429572582e-01    7,129791379e-01    0,000000000e+00    0,000000000e+00    0,000000000e+00    0,000000000e+00
      212000000   -1,869666204e-02   -8,165945858e-02    6,782248020e-01    4,105477929e-01    0,000000000e+00    0,000000000e+00    0,000000000e+00    0,000000000e+00
      226000000   -6,200306118e-02   -6,958515197e-02    7,960948348e-01   -2,978761122e-02    0,000000000e+00    0,000000000e+00    0,000000000e+00    0,000000000e+00
      240000000   -8,312214911e-02   -2,606322244e-02    6,471976638e-01   -4,666678607e-01    0,000000000e+00    0,000000000e+00    0,000000000e+00    0,000000000e+00
      254000000   -6,432656199e-02    1,719388925e-02    2,770625651e-01   -7,435460091e-01    0,000000000e+00    0,000000000e+00    0,000000000e+00    0,000000000e+00
      268000000   -2,432690375e-02    2,952494659e-02   -1,773882210e-01   -7,649883628e-01    0,000000000e+00    0,000000000e+00    0,000000000e+00    0,000000000e+00
      282000000    4,264264833e-03    1,212170348e-02   -5,624114871e-01   -5,371509790e-01    0,000000000e+00    0,000000000e+00    0,000000000e+00    0,000000000e+00
      296000000    9,539572522e-03   -7,652463391e-03   -7,606832981e-01   -1,395442635e-01    0,000000000e+00    0,000000000e+00    0,000000000e+00    0,000000000e+00
      310000000    1,090929192e-02   -1,608004048e-02   -7,117351890e-01    2,969599664e-01    0,000000000e+00    0,000000000e+00    0,000000000e+00    0,000000000e+00
      324000000    1,942485571e-02   -2,635162883e-02   -4,276820123e-01    6,375790834e-01    0,000000000e+00    0,000000000e+00    0,000000000e+00    0,000000000e+00
      338000000    2,532805689e-02   -5,234137177e-02   -8,601567708e-03    7,636459470e-01    0,000000000e+00    0,000000000e+00    0,000000000e+00    0,000000000e+00
      352000000    7,506074850e-03   -8,481762558e-02    4,059691131e-01    6,402630210e-01    0,000000000e+00    0,000000000e+00    0,000000000e+00    0,000000000e+00
      366000000   -3,464984149e-02   -9,610088170e-02    6,915856600e-01    3,122557998e-01    0,000000000e+00    0,000000000e+00    0,000000000e+00    0,000000000e+00
      380000000   -7,147162408e-02   -7,114583254e-02    7,479842305e-01   -1,244424060e-01    0,000000000e+00    0,000000000e+00    0,000000000e+00    0,000000000e+00
      394000000   -7,305739075e-02   -3,234940395e-02    5,484522581e-01   -5,205224752e-01    0,000000000e+00    0,000000000e+00    0,000000000e+00    0,000000000e+00
      408000000   -4,682050273e-02   -1,582685299e-02    1,629034132e-01   -7,323057652e-01    0,000000000e+00    0,000000000e+00    0,000000000e+00    0,000000000e+00
      422000000   -2,848091163e-02   -3,146793693e-02   -2,665151656e-01   -6,961667538e-01    0,000000000e+00    0,000000000e+00    0,000000000e+00    0,000000000e+00
      436000000   -4,004856944e-02   -5,216835439e-02   -6,021225452e-01   -4,335288107e-01    0,000000000e+00    0,000000000e+00    0,000000000e+00    0,000000000e+00
      450000000   -6,773786247e-02   -4,490952939e-02   -7,404558063e-01   -2,507125586e-02    0,000000000e+00    0,000000000e+00    0,000000000e+00    0,000000000e+00
      464000000   -7,394985110e-02   -1,238078345e-02   -6,212936044e-01    3,947072327e-01    0,000000000e+00    0,000000000e+00    0,000000000e+00    0,000000000e+00
      478000000   -4,914762825e-02    1,197830681e-02   -2,866476476e-01    6,675089598e-01    0,000000000e+00    0,000000000e+00    0,000000000e+00    0,000000000e+00
      492000000   -1,719216444e-02    6,305138581e-03    1,337127686e-01    7,036748528e-01    0,000000000e+00    0,000000000e+00    0,000000000e+00    0,000000000e+00
      506000000   -3,952912055e-03   -1,501650736e-02    4,975658059e-01    5,065071583e-01    0,000000000e+00    0,000000000e+00    0,000000000e+00    0,000000000e+00
      520000000   -5,813953932e-03   -2,954246104e-02    6,901166439e-01    1,436628103e-01    0,000000000e+00    0,000000000e+00    0,000000000e+00    0,000000000e+00
      534000000   -3,263117280e-03   -3,598872572e-02    6,442088485e-01   -2,597904503e-01    0,000000000e+00    0,000000000e+00    0,000000000e+00    0,000000000e+00
      548000000    8,071212098e-03   -5,232085288e-02    3,845130503e-01   -5,641014576e-01    0,000000000e+00    0,000000000e+00    0,000000000e+00    0,000000000e+00
      562000000    5,818920210e-03   -8,919064701e-02    7,771469653e-03   -6,719140410e-01    0,000000000e+00    0,000000000e+00    0,000000000e+00    0,000000000e+00
      576000000   -3,137495369e-02   -1,258948743e-01   -3,623081446e-01   -5,597341657e-01    0,000000000e+00    0,000000000e+00    0,000000000e+00    0,000000000e+00
      590000000   -9,493243694e-02   -1,276194602e-01   -6,176507473e-01   -2,704015970e-01    0,000000000e+00    0,000000000e+00    0,000000000e+00    0,000000000e+00
      604000000   -1,433185637e-01   -7,762670517e-02   -6,675384045e-01    1,265332550e-01    0,000000000e+00    0,000000000e+00    0,000000000e+00    0,000000000e+00
      618000000   -1,387106329e-01   -1,134285983e-02   -4,756668806e-01    4,857311249e-01    0,000000000e+00    0,000000000e+00    0,000000000e+00    0,000000000e+00
      632000000   -9,345838428e-02    2,137047425e-02   -1,122743189e-01    6,630079150e-01    0,000000000e+00    0,000000000e+00    0,000000000e+00    0,000000000e+00
      646000000   -5,548139662e-02    1,259475574e-02    2,735554278e-01    6,039689183e-01    0,000000000e+00    0,000000000e+00    0,000000000e+00    0,000000000e+00
      660000000   -4,762512818e-02   -8,811533451e-03    5,579746366e-01    3,402222097e-01    0,000000000e+00    0,000000000e+00    0,000000000e+00    0,000000000e+00
      674000000   -5,524073169e-02   -1,109476015e-02    6,442291141e-01   -3,951748833e-02    0,000000000e+00    0,000000000e+00    0,000000000e+00    0,000000000e+00
      688000000   -5,078909919e-02    3,213078482e-03    4,931965172e-01   -4,018504322e-01    0,000000000e+00    0,000000000e+00    0,000000000e+00    0,000000000e+00
      702000000   -2,632989548e-02    7,437029388e-03    1,600352526e-01   -6,044587493e-01    0,000000000e+00    0,000000000e+00    0,000000000e+00    0,000000000e+00
      716000000   -2,204823308e-03   -9,463622235e-03   -2,189015597e-01   -5,743906498e-01    0,000000000e+00    0,000000000e+00    0,000000000e+00    0,000000000e+00
      730000000    9,210603312e-03   -3,407914191e-02   -5,088564157e-01   -3,337990046e-01    0,000000000e+00    0,000000000e+00    0,000000000e+00    0,000000000e+00
      744000000    1,718723029e-02   -6,113965437e-02   -6,004085541e-01    3,318771347e-02    0,000000000e+00    0,000000000e+00    0,000000000e+00    0,000000000e+00
      758000000    2,253414690e-02   -1,033411175e-01   -4,546207190e-01    3,774274588e-01    0,000000000e+00    0,000000000e+00    0,000000000e+00    0,000000000e+00
      772000000   -4,501899704e-03   -1,732651889e-01   -1,398223042e-01    5,579571128e-01    0,000000000e+00    0,000000000e+00    0,000000000e+00    0,000000000e+00
      786000000   -1,053024307e-01   -2,327990681e-01    2,115304321e-01    5,194711089e-01    0,000000000e+00    0,000000000e+00    0,000000000e+00    0,000000000e+00
      800000000   -2,654967904e-01   -1,933652163e-01    4,711285830e-01    2,750842869e-01    0,000000000e+00    0,000000000e+00    0,000000000e+00    0,000000000e+00
      814000000   -3,638136983e-01    3,480094019e-03    5,076224804e-01   -8,849896491e-02    0,000000000e+00    0,000000000e+00    0,000000000e+00    0,000000000e+00
      828000000   -2,477645874e-01    2,330601662e-01    2,809304297e-01   -3,527190387e-01    0,000000000e+00    0,000000000e+00    0,000000000e+00    0,000000000e+00
      842000000    1,227126922e-02    2,786245048e-01   -1,576825976e-02   -3,623334169e-01    0,000000000e+00    0,000000000e+00    0,000000000e+00    0,000000000e+00
      856000000    2,124042362e-01    1,155279651e-01   -1,880205125e-01   -2,039440274e-01    0,000000000e+00    0,000000000e+00    0,000000000e+00    0,000000000e+00
      870000000    2,387051731e-01   -1,490099430e-01   -2,004531473e-01   -2,587066032e-02    0,000000000e+00    0,000000000e+00    0,000000000e+00    0,000000000e+00
      884000000    3,715224937e-02   -3,861204088e-01   -1,037561968e-01    7,116187364e-02    0,000000000e+00    0,000000000e+00    0,000000000e+00    0,000000000e+00
      898000000   -3,687851727e-01   -3,414966762e-01   -1,640103012e-02    2,710206807e-02    0,000000000e+00    0,000000000e+00    0,000000000e+00    0,000000000e+00
      912000000   -4,677906930e-01    1,379250884e-01   -1,058734730e-01    3,463117778e-02    0,000000000e+00    0,000000000e+00    0,000000000e+00    0,000000000e+00
      926000000   -9,633166343e-02    3,509073555e-01   -1,290218979e-01    1,335448176e-01    0,000000000e+00    0,000000000e+00    0,000000000e+00    0,000000000e+00
      940000000    1,842396110e-01    1,960175335e-01   -3,829345480e-02    2,178994566e-01    0,000000000e+00    0,000000000e+00    0,000000000e+00    0,000000000e+00
      954000000    2,553972602e-01   -4,955361784e-02    7,935716212e-02    2,260136008e-01    0,000000000e+00    0,000000000e+00    0,000000000e+00    0,000000000e+00
      968000000    1,744940281e-01   -2,630716562e-01    1,927223057e-01    1,802936196e-01    0,000000000e+00    0,000000000e+00    0,000000000e+00    0,000000000e+00
      982000000   -1,566364989e-02   -3,917764723e-01    2,780193985e-01    7,844676822e-02    0,000000000e+00    0,000000000e+00    0,000000000e+00    0,000000000e+00
      996000000   -2,766368389e-01   -3,784849048e-01    3,109830320e-01   -8,023174852e-02    0,000000000e+00    0,000000000e+00    0,000000000e+00    0,000000000e+00
     1010000000   -4,688835144e-01   -1,751870662e-01    2,217309922e-01   -2,512414455e-01    0,000000000e+00    0,000000000e+00    0,000000000e+00    0,000000000e+00
     1024000000   -4,557877779e-01    1,138868630e-01    1,875088178e-02   -3,267771006e-01    0,000000000e+00    0,000000000e+00    0,000000000e+00    0,000000000e+00
     1038000000   -2,599682808e-01    2,980937660e-01   -1,739153713e-01   -2,459070832e-01    0,000000000e+00    0,000000000e+00    0,000000000e+00    0,000000000e+00
     1052000000   -3,995595500e-02    3,068152070e-01   -2,572828233e-01   -7,765749842e-02    0,000000000e+00    0,000000000e+00    0,000000000e+00    0,000000000e+00
     1066000000    1,301505268e-01    2,036295533e-01   -2,254850566e-01    8,605764806e-02    0,000000000e+00    0,000000000e+00    0,000000000e+00    0,000000000e+00
     1080000000    2,037187815e-01    4,909800738e-02   -1,203714088e-01    1,904673427e-01    0,000000000e+00    0,000000000e+00    0,000000000e+00    0,000000000e+00
     1094000000    2,031738460e-01   -1,260295063e-01    1,693041623e-02    2,344412059e-01    0,000000000e+00    0,000000000e+00    0,000000000e+00    0,000000000e+00
     1108000000    1,010319665e-01   -2,840707302e-01    1,694245338e-01    2,053346634e-01    0,000000000e+00    0,000000000e+00    0,000000000e+00    0,000000000e+00
     1122000000   -1,029275134e-01   -3,688027263e-01    3,179390728e-01    9,016608447e-02    0,000000000e+00    0,000000000e+00    0,000000000e+00    0,000000000e+00
     1136000000   -3,422091901e-01   -2,659771442e-01    3,942748904e-01   -1,495182812e-01    0,000000000e+00    0,000000000e+00    0,000000000e+00    0,000000000e+00
     1150000000   -4,065778553e-01    3,190804645e-02    2,439028323e-01   -4,391561747e-01    0,000000000e+00    0,000000000e+00    0,000000000e+00    0,000000000e+00
     1164000000   -1,637088358e-01    2,175793350e-01   -9,758387506e-02   -5,142192841e-01    0,000000000e+00    0,000000000e+00    0,000000000e+00    0,000000000e+00
     1178000000    7,233717293e-02    8,153226227e-02   -3,580593169e-01   -3,451926410e-01    0,000000000e+00    0,000000000e+00    0,000000000e+00    0,000000000e+00
     1192000000    7,336036116e-02   -1,716701537e-01   -4,529171288e-01   -8,240050822e-02    0,000000000e+00    0,000000000e+00    0,000000000e+00    0,000000000e+00
     1206000000   -1,600962877e-01   -3,258765936e-01   -3,650672436e-01    1,905586123e-01    0,000000000e+00    0,000000000e+00    0,000000000e+00    0,000000000e+00
     1220000000   -4,546278119e-01   -1,770844758e-01   -1,039367318e-01    3,277135491e-01    0,000000000e+00    0,000000000e+00    0,000000000e+00    0,000000000e+00
     1234000000   -4,702071548e-01    1,680340469e-01    1,387019455e-01    2,211369723e-01    0,000000000e+00    0,000000000e+00    0,000000000e+00    0,000000000e+00
     1248000000   -2,385821939e-01    3,535095453e-01    1,934554875e-01    3,214649111e-02    0,000000000e+00    0,000000000e+00    0,000000000e+00    0,000000000e+00
     1262000000    8,311945945e-03    3,242486715e-01    1,272229105e-01   -7,763062418e-02    0,000000000e+00    0,000000000e+00    0,000000000e+00    0,000000000e+00
     1276000000    1,580124646e-01    2,021503448e-01    5,444347858e-02   -9,358578175e-02    0,000000000e+00    0,000000000e+00    0,000000000e+00    0,000000000e+00
     1290000000    2,177842110e-01    2,781050093e-02    1,589307678e-03   -7,587319613e-02    0,000000000e+00    0,000000000e+00    0,000000000e+00    0,000000000e+00
     1304000000    2,080386430e-01   -1,464578509e-01   -2,249825001e-02   -2,956052870e-02    0,000000000e+00    0,000000000e+00    0,000000000e+00    0,000000000e+00
     1318000000    1,128528491e-01   -3,102871478e-01   -1,889574196e-04    2,645510808e-02    0,000000000e+00    0,000000000e+00    0,000000000e+00    0,000000000e+00
     1332000000   -6,534975022e-02   -4,291390777e-01    4,606842622e-02    6,959971786e-02    0,000000000e+00    0,000000000e+00    0,000000000e+00    0,000000000e+00
     1346000000   -3,311238885e-01   -4,341693223e-01    1,355573088e-01    5,572672561e-02    0,000000000e+00    0,000000000e+00    0,000000000e+00    0,000000000e+00
     1360000000   -5,554403067e-01   -2,442299873e-01    1,138852090e-01   -7,971004397e-02    0,000000000e+00    0,000000000e+00    0,000000000e+00    0,000000000e+00
     1374000000   -6,274292469e-01    3,700463846e-02    1,023452878e-01    7,497034967e-02    0,000000000e+00    0,000000000e+00    0,000000000e+00    0,000000000e+00
     1388000000   -5,209589005e-01    2,917814553e-01    2,200165987e-01   -6,126633962e-04    0,000000000e+00    0,000000000e+00    0,000000000e+00    0,000000000e+00
     1402000000   -3,045624197e-01    4,198495150e-01    2,233486623e-01   -7,283314317e-02    0,000000000e+00    0,000000000e+00    0,000000000e+00    0,000000000e+00
     1416000000   -1,016022265e-01    4,227922559e-01    1,901856959e-01   -1,064967811e-01    0,000000000e+00    0,000000000e+00    0,000000000e+00    0,000000000e+00
     1430000000    8,252540231e-02    3,416854143e-01    1,621187329e-01   -1,458477378e-01    0,000000000e+00    0,000000000e+00    0,000000000e+00    0,000000000e+00
     1444000000    1,721944213e-01    2,018085122e-01    1,508710980e-01   -1,014482602e-01    0,000000000e+00    0,000000000e+00    0,000000000e+00    0,000000000e+00
     1458000000    2,268309891e-01    3,750807047e-02    1,530950218e-01   -7,817198336e-02    0,000000000e+00    0,000000000e+00    0,000000000e+00    0,000000000e+00
     1472000000    2,055780888e-01   -1,440127492e-01    1,552671343e-01   -4,468590394e-02    0,000000000e+00    0,000000000e+00    0,000000000e+00    0,000000000e+00
     1486000000    1,066312268e-01   -3,283052742e-01    1,666606367e-01   -1,388942357e-02    0,000000000e+00    0,000000000e+00    0,000000000e+00    0,000000000e+00
     1500000000   -8,738692105e-02   -4,549323916e-01    2,235443890e-01    6,410931051e-02    0,000000000e+00    0,000000000e+00    0,000000000e+00    0,000000000e+00
