! NanoVNA-App
! Date: 2025-09-25 14:25:42
! Start: 100MHz Stop: 1,5GHz Points: 101
! S-Parameter data: F S11 S21 S12 S22
# Hz S RI R 50
!     Frequency           S11_Real           S11_Imag           S21_Real           S21_Imag           S12_Real           S12_Imag           S22_Real           S22_Imag
      100000000   -2,908005938e-02   -4,124596715e-03    3,745127320e-01   -7,220630050e-01    0,000000000e+00    0,000000000e+00    0,000000000e+00    0,000000000e+00
      114000000   -1,660204306e-02    1,162377931e-02   -8,884876221e-02   -8,058001399e-01    0,000000000e+00    0,000000000e+00    0,000000000e+00    0,000000000e+00
      128000000    3,473828780e-03    1,050658617e-02   -5,145289302e-01   -6,210489273e-01    0,000000000e+00    0,000000000e+00    0,000000000e+00    0,000000000e+00
      142000000    1,446278673e-02   -3,090397688e-03   -7,675762773e-01   -2,369820774e-01    0,000000000e+00    0,000000000e+00    0,000000000e+00    0,000000000e+00
      156000000    1,549340598e-02   -1,470694784e-02   -7,731369734e-01    2,231376022e-01    0,000000000e+00    0,000000000e+00    0,000000000e+00    0,000000000e+00
      170000000    1,653341204e-02   -2,251602523e-02   -5,186734200e-01    6,051074266e-01    0,000000000e+00    0,000000000e+00    0,000000000e+00    0,000000000e+00
      184000000    2,093540132e-02   -3,697894886e-02   -1,019923761e-01    7,870553732e-01    0,000000000e+00    0,000000000e+00    0,000000000e+00    0,000000000e+00
      198000000    1,314823236e-02   -6,260702014e-02    3,428028524e-01    7,127339244e-01    0,000000000e+00    0,000000000e+00    0,000000000e+00    0,000000000e+00
      212000000   -1,871320792e-02   -8,169836551e-02    6,783611774e-01    4,104921818e-01    0,000000000e+00    0,000000000e+00    0,000000000e+00    0,000000000e+00
      226000000   -6,205990911e-02   -6,964155287e-02    7,961801291e-01   -2,972064540e-02    0,000000000e+00    0,000000000e+00    0,000000000e+00    0,000000000e+00
      240000000   -8,328797668e-02   -2,606113628e-02    6,471047997e-01   -4,664818347e-01    0,000000000e+00    0,000000000e+00    0,000000000e+00    0,000000000e+00
      254000000   -6,436828524e-02    1,745272242e-02    2,772391140e-01   -7,433769703e-01    0,000000000e+00    0,000000000e+00    0,000000000e+00    0,000000000e+00
      268000000   -2,398080379e-02    2,948731743e-02   -1,767561138e-01   -7,650237083e-01    0,000000000e+00    0,000000000e+00    0,000000000e+00    0,000000000e+00
      282000000    4,040390253e-03    1,210197993e-02   -5,626079440e-01   -5,372954607e-01    0,000000000e+00    0,000000000e+00    0,000000000e+00    0,000000000e+00
      296000000    9,580030106e-03   -7,725439966e-03   -7,607921362e-01   -1,395136863e-01    0,000000000e+00    0,000000000e+00    0,000000000e+00    0,000000000e+00
      310000000    1,083812956e-02   -1,596770249e-02   -7,137779593e-01    2,978560030e-01    0,000000000e+00    0,000000000e+00    0,000000000e+00    0,000000000e+00
      324000000    1,937839948e-02   -2,640683204e-02   -4,291447401e-01    6,370379925e-01    0,000000000e+00    0,000000000e+00    0,000000000e+00    0,000000000e+00
      338000000    2,538050152e-02   -5,182925239e-02   -9,606603533e-03    7,607835531e-01    0,000000000e+00    0,000000000e+00    0,000000000e+00    0,000000000e+00
      352000000    7,544950582e-03   -8,449137956e-02    4,051376283e-01    6,413571835e-01    0,000000000e+00    0,000000000e+00    0,000000000e+00    0,000000000e+00
      366000000   -3,494202718e-02   -9,600305557e-02    6,903363466e-01    3,121713102e-01    0,000000000e+00    0,000000000e+00    0,000000000e+00    0,000000000e+00
      380000000   -7,139894366e-02   -7,136667520e-02    7,480583787e-01   -1,248427853e-01    0,000000000e+00    0,000000000e+00    0,000000000e+00    0,000000000e+00
      394000000   -7,300858945e-02   -3,234229982e-02    5,481815338e-01   -5,196929574e-01    0,000000000e+00    0,000000000e+00    0,000000000e+00    0,000000000e+00
      408000000   -4,688084498e-02   -1,573265530e-02    1,638428122e-01   -7,314381003e-01    0,000000000e+00    0,000000000e+00    0,000000000e+00    0,000000000e+00
      422000000   -2,816187218e-02   -3,162515536e-02   -2,649015188e-01   -6,962844133e-01    0,000000000e+00    0,000000000e+00    0,000000000e+00    0,000000000e+00
      436000000   -3,991771862e-02   -5,196784064e-02   -6,024578214e-01   -4,331712127e-01    0,000000000e+00    0,000000000e+00    0,000000000e+00    0,000000000e+00
      450000000   -6,762797385e-02   -4,490616173e-02   -7,401663661e-01   -2,511101402e-02    0,000000000e+00    0,000000000e+00    0,000000000e+00    0,000000000e+00
      464000000   -7,399076223e-02   -1,211610530e-02   -6,210502386e-01    3,946243227e-01    0,000000000e+00    0,000000000e+00    0,000000000e+00    0,000000000e+00
      478000000   -4,918687418e-02    1,194328722e-02   -2,866929471e-01    6,681714058e-01    0,000000000e+00    0,000000000e+00    0,000000000e+00    0,000000000e+00
      492000000   -1,659223624e-02    6,495452952e-03    1,344420463e-01    7,036392689e-01    0,000000000e+00    0,000000000e+00    0,000000000e+00    0,000000000e+00
      506000000   -3,789304523e-03   -1,519508008e-02    4,974966347e-01    5,059614182e-01    0,000000000e+00    0,000000000e+00    0,000000000e+00    0,000000000e+00
      520000000   -5,502585322e-03   -2,949132025e-02    6,888641119e-01    1,462964863e-01    0,000000000e+00    0,000000000e+00    0,000000000e+00    0,000000000e+00
      534000000   -3,489224240e-03   -3,582151607e-02    6,438335180e-01   -2,596045732e-01    0,000000000e+00    0,000000000e+00    0,000000000e+00    0,000000000e+00
      548000000    7,892592810e-03   -5,283468962e-02    3,852162957e-01   -5,636756420e-01    0,000000000e+00    0,000000000e+00    0,000000000e+00    0,000000000e+00
      562000000    5,593407899e-03   -8,927684277e-02    8,344708011e-03   -6,719920039e-01    0,000000000e+00    0,000000000e+00    0,000000000e+00    0,000000000e+00
      576000000   -3,148190305e-02   -1,260009408e-01   -3,618818223e-01   -5,607010722e-01    0,000000000e+00    0,000000000e+00    0,000000000e+00    0,000000000e+00
      590000000   -9,494152665e-02   -1,275963932e-01   -6,184628010e-01   -2,729122341e-01    0,000000000e+00    0,000000000e+00    0,000000000e+00    0,000000000e+00
      604000000   -1,431171894e-01   -7,791837305e-02   -6,669582129e-01    1,265682131e-01    0,000000000e+00    0,000000000e+00    0,000000000e+00    0,000000000e+00
      618000000   -1,384426057e-01   -1,080330182e-02   -4,759334028e-01    4,852090478e-01    0,000000000e+00    0,000000000e+00    0,000000000e+00    0,000000000e+00
      632000000   -9,370339662e-02    2,193623409e-02   -1,131775901e-01    6,635552645e-01    0,000000000e+00    0,000000000e+00    0,000000000e+00    0,000000000e+00
      646000000   -5,479847640e-02    1,254218537e-02    2,732431591e-01    6,031838655e-01    0,000000000e+00    0,000000000e+00    0,000000000e+00    0,000000000e+00
      660000000   -4,792232066e-02   -9,102716111e-03    5,578305125e-01    3,406080008e-01    0,000000000e+00    0,000000000e+00    0,000000000e+00    0,000000000e+00
      674000000   -5,520173535e-02   -1,043850277e-02    6,444807053e-01   -3,931985795e-02    0,000000000e+00    0,000000000e+00    0,000000000e+00    0,000000000e+00
      688000000   -5,023742095e-02    2,466741716e-03    4,930850267e-01   -4,016183317e-01    0,000000000e+00    0,000000000e+00    0,000000000e+00    0,000000000e+00
      702000000   -2,560381591e-02    7,159975357e-03    1,655851305e-01   -6,041690707e-01    0,000000000e+00    0,000000000e+00    0,000000000e+00    0,000000000e+00
      716000000   -2,340420149e-03   -9,844245389e-03   -2,184869051e-01   -5,744897723e-01    0,000000000e+00    0,000000000e+00    0,000000000e+00    0,000000000e+00
      730000000    1,011613570e-02   -3,505650908e-02   -5,092048645e-01   -3,334677219e-01    0,000000000e+00    0,000000000e+00    0,000000000e+00    0,000000000e+00
      744000000    1,725806482e-02   -6,099206954e-02   -6,007586122e-01    3,302497044e-02    0,000000000e+00    0,000000000e+00    0,000000000e+00    0,000000000e+00
      758000000    2,288750373e-02   -1,030785441e-01   -4,544211030e-01    3,768717349e-01    0,000000000e+00    0,000000000e+00    0,000000000e+00    0,000000000e+00
      772000000   -5,165009294e-03   -1,738719791e-01   -1,389172077e-01    5,583131313e-01    0,000000000e+00    0,000000000e+00    0,000000000e+00    0,000000000e+00
      786000000   -1,051508784e-01   -2,326410860e-01    2,120501101e-01    5,196270943e-01    0,000000000e+00    0,000000000e+00    0,000000000e+00    0,000000000e+00
      800000000   -2,663294077e-01   -1,926513314e-01    4,721700251e-01    2,757997215e-01    0,000000000e+00    0,000000000e+00    0,000000000e+00    0,000000000e+00
      814000000   -3,648677468e-01    3,260966158e-03    5,083457828e-01   -8,860407025e-02    0,000000000e+00    0,000000000e+00    0,000000000e+00    0,000000000e+00
      828000000   -2,469229996e-01    2,339581251e-01    2,812003493e-01   -3,525971770e-01    0,000000000e+00    0,000000000e+00    0,000000000e+00    0,000000000e+00
      842000000    1,198376250e-02    2,777460217e-01   -1,607651822e-02   -3,624213934e-01    0,000000000e+00    0,000000000e+00    0,000000000e+00    0,000000000e+00
      856000000    2,127792239e-01    1,150295883e-01   -1,874233782e-01   -2,053943425e-01    0,000000000e+00    0,000000000e+00    0,000000000e+00    0,000000000e+00
      870000000    2,384406030e-01   -1,485878974e-01   -2,010423988e-01   -2,553541027e-02    0,000000000e+00    0,000000000e+00    0,000000000e+00    0,000000000e+00
      884000000    3,828915209e-02   -3,871631324e-01   -1,039950028e-01    7,042001188e-02    0,000000000e+00    0,000000000e+00    0,000000000e+00    0,000000000e+00
      898000000   -3,701579273e-01   -3,422359824e-01   -1,709787361e-02    2,813855745e-02    0,000000000e+00    0,000000000e+00    0,000000000e+00    0,000000000e+00
      912000000   -4,665341079e-01    1,374969184e-01   -1,136619523e-01    2,272875421e-02    0,000000000e+00    0,000000000e+00    0,000000000e+00    0,000000000e+00
      926000000   -9,424623102e-02    3,491928577e-01   -1,280543208e-01    1,325447857e-01    0,000000000e+00    0,000000000e+00    0,000000000e+00    0,000000000e+00
      940000000    1,856482476e-01    1,937017590e-01   -3,826188296e-02    2,156103253e-01    0,000000000e+00    0,000000000e+00    0,000000000e+00    0,000000000e+00
      954000000    2,564872801e-01   -4,775892198e-02    7,979020476e-02    2,270152122e-01    0,000000000e+00    0,000000000e+00    0,000000000e+00    0,000000000e+00
      968000000    1,749600470e-01   -2,650452852e-01    1,907853782e-01    1,797213554e-01    0,000000000e+00    0,000000000e+00    0,000000000e+00    0,000000000e+00
      982000000   -1,851320826e-02   -3,917936385e-01    2,794982195e-01    8,024366945e-02    0,000000000e+00    0,000000000e+00    0,000000000e+00    0,000000000e+00
      996000000   -2,715146542e-01   -3,759099245e-01    3,088328540e-01   -7,985185832e-02    0,000000000e+00    0,000000000e+00    0,000000000e+00    0,000000000e+00
     1010000000   -4,664095938e-01   -1,706174761e-01    2,198356390e-01   -2,533048093e-01    0,000000000e+00    0,000000000e+00    0,000000000e+00    0,000000000e+00
     1024000000   -4,601462781e-01    1,132553741e-01    2,324271388e-02   -3,272756338e-01    0,000000000e+00    0,000000000e+00    0,000000000e+00    0,000000000e+00
     1038000000   -2,636128366e-01    3,014633656e-01   -1,749318838e-01   -2,503229976e-01    0,000000000e+00    0,000000000e+00    0,000000000e+00    0,000000000e+00
     1052000000   -3,761731461e-02    3,058210909e-01   -2,539637089e-01   -7,670087367e-02    0,000000000e+00    0,000000000e+00    0,000000000e+00    0,000000000e+00
     1066000000    1,237835065e-01    2,069533467e-01   -2,217636704e-01    8,647621423e-02    0,000000000e+00    0,000000000e+00    0,000000000e+00    0,000000000e+00
     1080000000    2,096403688e-01    4,949214309e-02   -1,225498766e-01    1,928023845e-01    0,000000000e+00    0,000000000e+00    0,000000000e+00    0,000000000e+00
     1094000000    2,012155205e-01   -1,249054149e-01    1,819566451e-02    2,322283834e-01    0,000000000e+00    0,000000000e+00    0,000000000e+00    0,000000000e+00
     1108000000    1,018351391e-01   -2,891090810e-01    1,691483259e-01    2,074667215e-01    0,000000000e+00    0,000000000e+00    0,000000000e+00    0,000000000e+00
     1122000000   -1,022484154e-01   -3,661795557e-01    3,175870180e-01    8,879223466e-02    0,000000000e+00    0,000000000e+00    0,000000000e+00    0,000000000e+00
     1136000000   -3,436864018e-01   -2,703638077e-01    3,919671774e-01   -1,491304338e-01    0,000000000e+00    0,000000000e+00    0,000000000e+00    0,000000000e+00
     1150000000   -4,111307859e-01    3,466464207e-02    2,450523078e-01   -4,362413585e-01    0,000000000e+00    0,000000000e+00    0,000000000e+00    0,000000000e+00
     1164000000   -1,601414382e-01    2,223934829e-01   -9,456387162e-02   -5,145464540e-01    0,000000000e+00    0,000000000e+00    0,000000000e+00    0,000000000e+00
     1178000000    7,377198339e-02    8,334624767e-02   -3,602229357e-01   -3,466591835e-01    0,000000000e+00    0,000000000e+00    0,000000000e+00    0,000000000e+00
     1192000000    7,500745356e-02   -1,764102429e-01   -4,524147511e-01   -8,811575174e-02    0,000000000e+00    0,000000000e+00    0,000000000e+00    0,000000000e+00
     1206000000   -1,612462252e-01   -3,262037039e-01   -3,657145798e-01    1,875219643e-01    0,000000000e+00    0,000000000e+00    0,000000000e+00    0,000000000e+00
     1220000000   -4,534059167e-01   -1,764868796e-01   -1,046945453e-01    3,300553262e-01    0,000000000e+00    0,000000000e+00    0,000000000e+00    0,000000000e+00
     1234000000   -4,720304012e-01    1,626081467e-01    1,381715983e-01    2,235470414e-01    0,000000000e+00    0,000000000e+00    0,000000000e+00    0,000000000e+00
     1248000000   -2,315937132e-01    3,524384797e-01    1,929960549e-01    2,945179865e-02    0,000000000e+00    0,000000000e+00    0,000000000e+00    0,000000000e+00
     1262000000    3,858388169e-03    3,336507380e-01    1,268854141e-01   -7,012167573e-02    0,000000000e+00    0,000000000e+00    0,000000000e+00    0,000000000e+00
     1276000000    1,508460343e-01    2,029273212e-01    5,085898563e-02   -9,751617163e-02    0,000000000e+00    0,000000000e+00    0,000000000e+00    0,000000000e+00
     1290000000    2,197377682e-01    3,427426517e-02    2,422692021e-03   -7,447261363e-02    0,000000000e+00    0,000000000e+00    0,000000000e+00    0,000000000e+00
     1304000000    2,067122608e-01   -1,464579552e-01   -1,735113747e-02   -3,143716231e-02    0,000000000e+00    0,000000000e+00    0,000000000e+00    0,000000000e+00
     1318000000    1,126569062e-01   -3,132003546e-01   -6,643391680e-03    2,189913578e-02    0,000000000e+00    0,000000000e+00    0,000000000e+00    0,000000000e+00
     1332000000   -6,563004106e-02   -4,323652089e-01    4,613825306e-02    6,575269252e-02    0,000000000e+00    0,000000000e+00    0,000000000e+00    0,000000000e+00
     1346000000   -3,292135894e-01   -4,324645400e-01    1,502245218e-01    4,328140989e-02    0,000000000e+00    0,000000000e+00    0,000000000e+00    0,000000000e+00
     1360000000   -5,547701716e-01   -2,388497740e-01    1,111794114e-01   -7,063610852e-02    0,000000000e+00    0,000000000e+00    0,000000000e+00    0,000000000e+00
     1374000000   -6,271128654e-01    3,613715991e-02    1,044987589e-01    6,858731061e-02    0,000000000e+00    0,000000000e+00    0,000000000e+00    0,000000000e+00
     1388000000   -5,090288520e-01    2,931422591e-01    2,354693413e-01   -1,079379581e-04    0,000000000e+00    0,000000000e+00    0,000000000e+00    0,000000000e+00
     1402000000   -3,106910586e-01    4,116609693e-01    2,167824209e-01   -8,605575562e-02    0,000000000e+00    0,000000000e+00    0,000000000e+00    0,000000000e+00
     1416000000   -9,251021594e-02    4,202241600e-01    1,903727055e-01   -1,266001165e-01    0,000000000e+00    0,000000000e+00    0,000000000e+00    0,000000000e+00
     1430000000    7,623272389e-02    3,416704237e-01    2,000392079e-01   -1,180180386e-01    0,000000000e+00    0,000000000e+00    0,000000000e+00    0,000000000e+00
     1444000000    1,790165752e-01    1,984214187e-01    1,481512785e-01   -1,069187894e-01    0,000000000e+00    0,000000000e+00    0,000000000e+00    0,000000000e+00
     1458000000    2,254447788e-01    3,694635630e-02    1,570854038e-01   -8,051881194e-02    0,000000000e+00    0,000000000e+00    0,000000000e+00    0,000000000e+00
     1472000000    2,077220082e-01   -1,444217414e-01    1,576502025e-01   -5,168879777e-02    0,000000000e+00    0,000000000e+00    0,000000000e+00    0,000000000e+00
     1486000000    1,069842875e-01   -3,317630887e-01    1,656237096e-01   -1,149179693e-02    0,000000000e+00    0,000000000e+00    0,000000000e+00    0,000000000e+00
     1500000000   -9,156466275e-02   -4,564412236e-01    2,029244304e-01    7,309748977e-02    0,000000000e+00    0,000000000e+00    0,000000000e+00    0,000000000e+00
