! NanoVNA-App
! Date: 2025-09-25 14:24:54
! Start: 100MHz Stop: 1,5GHz Points: 101
! S-Parameter data: F S11 S21 S12 S22
# Hz S RI R 50
!     Frequency           S11_Real           S11_Imag           S21_Real           S21_Imag           S12_Real           S12_Imag           S22_Real           S22_Imag
      100000000   -2,908882312e-02   -4,120396916e-03    3,744916022e-01   -7,220749259e-01    0,000000000e+00    0,000000000e+00    0,000000000e+00    0,000000000e+00
      114000000   -1,660683006e-02    1,162116416e-02   -8,889342099e-02   -8,057875633e-01    0,000000000e+00    0,000000000e+00    0,000000000e+00    0,000000000e+00
      128000000    3,430396318e-03    1,055233274e-02   -5,147445798e-01   -6,210485697e-01    0,000000000e+00    0,000000000e+00    0,000000000e+00    0,000000000e+00
      142000000    1,444706693e-02   -3,077718662e-03   -7,675331831e-01   -2,370561063e-01    0,000000000e+00    0,000000000e+00    0,000000000e+00    0,000000000e+00
      156000000    1,579325460e-02   -1,437850390e-02   -7,729652524e-01    2,240252942e-01    0,000000000e+00    0,000000000e+00    0,000000000e+00    0,000000000e+00
      170000000    1,651756838e-02   -2,242738754e-02   -5,187766552e-01    6,049559712e-01    0,000000000e+00    0,000000000e+00    0,000000000e+00    0,000000000e+00
      184000000    2,098051831e-02   -3,699440137e-02   -1,016748548e-01    7,863479853e-01    0,000000000e+00    0,000000000e+00    0,000000000e+00    0,000000000e+00
      198000000    1,312814839e-02   -6,262734532e-02    3,431810141e-01    7,130751610e-01    0,000000000e+00    0,000000000e+00    0,000000000e+00    0,000000000e+00
      212000000   -1,869701408e-02   -8,171101660e-02    6,781218052e-01    4,105829298e-01    0,000000000e+00    0,000000000e+00    0,000000000e+00    0,000000000e+00
      226000000   -6,215637922e-02   -6,967913359e-02    7,961118221e-01   -2,975705080e-02    0,000000000e+00    0,000000000e+00    0,000000000e+00    0,000000000e+00
      240000000   -8,328472078e-02   -2,603058703e-02    6,473891139e-01   -4,667631388e-01    0,000000000e+00    0,000000000e+00    0,000000000e+00    0,000000000e+00
      254000000   -6,433109939e-02    1,741760410e-02    2,769861519e-01   -7,434067726e-01    0,000000000e+00    0,000000000e+00    0,000000000e+00    0,000000000e+00
      268000000   -2,413729578e-02    2,941001765e-02   -1,769184917e-01   -7,652873993e-01    0,000000000e+00    0,000000000e+00    0,000000000e+00    0,000000000e+00
      282000000    4,139072727e-03    1,206158660e-02   -5,623461008e-01   -5,369040370e-01    0,000000000e+00    0,000000000e+00    0,000000000e+00    0,000000000e+00
      296000000    9,567555971e-03   -7,619642653e-03   -7,609190345e-01   -1,395968199e-01    0,000000000e+00    0,000000000e+00    0,000000000e+00    0,000000000e+00
      310000000    1,089464035e-02   -1,620014384e-02   -7,132729888e-01    2,964221239e-01    0,000000000e+00    0,000000000e+00    0,000000000e+00    0,000000000e+00
      324000000    1,960165985e-02   -2,659144998e-02   -4,283495545e-01    6,375546455e-01    0,000000000e+00    0,000000000e+00    0,000000000e+00    0,000000000e+00
      338000000    2,563524246e-02   -5,194001645e-02   -1,055677235e-02    7,611682415e-01    0,000000000e+00    0,000000000e+00    0,000000000e+00    0,000000000e+00
      352000000    7,393334061e-03   -8,485470712e-02    4,055273235e-01    6,407293677e-01    0,000000000e+00    0,000000000e+00    0,000000000e+00    0,000000000e+00
      366000000   -3,486588970e-02   -9,616097063e-02    6,912964582e-01    3,127455711e-01    0,000000000e+00    0,000000000e+00    0,000000000e+00    0,000000000e+00
      380000000   -7,139896601e-02   -7,128512859e-02    7,482945323e-01   -1,249645874e-01    0,000000000e+00    0,000000000e+00    0,000000000e+00    0,000000000e+00
      394000000   -7,307926565e-02   -3,236757219e-02    5,480300188e-01   -5,214372277e-01    0,000000000e+00    0,000000000e+00    0,000000000e+00    0,000000000e+00
      408000000   -4,698440060e-02   -1,572891697e-02    1,630479693e-01   -7,320582867e-01    0,000000000e+00    0,000000000e+00    0,000000000e+00    0,000000000e+00
      422000000   -2,827641182e-02   -3,160389513e-02   -2,664771080e-01   -6,958067417e-01    0,000000000e+00    0,000000000e+00    0,000000000e+00    0,000000000e+00
      436000000   -4,005324841e-02   -5,194479227e-02   -6,025891900e-01   -4,332967997e-01    0,000000000e+00    0,000000000e+00    0,000000000e+00    0,000000000e+00
      450000000   -6,772990525e-02   -4,452396557e-02   -7,403838038e-01   -2,477184683e-02    0,000000000e+00    0,000000000e+00    0,000000000e+00    0,000000000e+00
      464000000   -7,386788726e-02   -1,269455533e-02   -6,214919090e-01    3,941739798e-01    0,000000000e+00    0,000000000e+00    0,000000000e+00    0,000000000e+00
      478000000   -4,925005510e-02    1,174463704e-02   -2,872236669e-01    6,671740413e-01    0,000000000e+00    0,000000000e+00    0,000000000e+00    0,000000000e+00
      492000000   -1,660171896e-02    6,690011360e-03    1,341087669e-01    7,043534517e-01    0,000000000e+00    0,000000000e+00    0,000000000e+00    0,000000000e+00
      506000000   -3,565080930e-03   -1,534827705e-02    4,978716075e-01    5,057862997e-01    0,000000000e+00    0,000000000e+00    0,000000000e+00    0,000000000e+00
      520000000   -5,611650180e-03   -3,015130945e-02    6,910170317e-01    1,439603269e-01    0,000000000e+00    0,000000000e+00    0,000000000e+00    0,000000000e+00
      534000000   -3,416040912e-03   -3,575439751e-02    6,446883678e-01   -2,595295012e-01    0,000000000e+00    0,000000000e+00    0,000000000e+00    0,000000000e+00
      548000000    8,057112806e-03   -5,278576910e-02    3,847421110e-01   -5,645545125e-01    0,000000000e+00    0,000000000e+00    0,000000000e+00    0,000000000e+00
      562000000    5,967672449e-03   -8,945900202e-02    7,877982222e-03   -6,729489565e-01    0,000000000e+00    0,000000000e+00    0,000000000e+00    0,000000000e+00
      576000000   -3,087428957e-02   -1,262039542e-01   -3,614673018e-01   -5,613952875e-01    0,000000000e+00    0,000000000e+00    0,000000000e+00    0,000000000e+00
      590000000   -9,475856274e-02   -1,275294423e-01   -6,184758544e-01   -2,721914053e-01    0,000000000e+00    0,000000000e+00    0,000000000e+00    0,000000000e+00
      604000000   -1,430246532e-01   -7,762540132e-02   -6,674979925e-01    1,262888163e-01    0,000000000e+00    0,000000000e+00    0,000000000e+00    0,000000000e+00
      618000000   -1,380037367e-01   -1,169405226e-02   -4,749450088e-01    4,856553972e-01    0,000000000e+00    0,000000000e+00    0,000000000e+00    0,000000000e+00
      632000000   -9,374797344e-02    2,181566134e-02   -1,141426265e-01    6,631430387e-01    0,000000000e+00    0,000000000e+00    0,000000000e+00    0,000000000e+00
      646000000   -5,572078004e-02    1,174554043e-02    2,734642029e-01    6,030163765e-01    0,000000000e+00    0,000000000e+00    0,000000000e+00    0,000000000e+00
      660000000   -4,808339477e-02   -7,970044389e-03    5,570363998e-01    3,404319584e-01    0,000000000e+00    0,000000000e+00    0,000000000e+00    0,000000000e+00
      674000000   -5,580199510e-02   -1,010765973e-02    6,446501613e-01   -3,946378455e-02    0,000000000e+00    0,000000000e+00    0,000000000e+00    0,000000000e+00
      688000000   -4,990135133e-02    2,445103601e-03    4,934096634e-01   -4,014306664e-01    0,000000000e+00    0,000000000e+00    0,000000000e+00    0,000000000e+00
      702000000   -2,689325996e-02    6,917981897e-03    1,660323441e-01   -6,036472321e-01    0,000000000e+00    0,000000000e+00    0,000000000e+00    0,000000000e+00
      716000000   -1,551488414e-03   -8,509153500e-03   -2,186407149e-01   -5,757951140e-01    0,000000000e+00    0,000000000e+00    0,000000000e+00    0,000000000e+00
      730000000    9,536176920e-03   -3,395253420e-02   -5,092823505e-01   -3,337035179e-01    0,000000000e+00    0,000000000e+00    0,000000000e+00    0,000000000e+00
      744000000    1,621496305e-02   -6,073493138e-02   -6,009488702e-01    3,311990947e-02    0,000000000e+00    0,000000000e+00    0,000000000e+00    0,000000000e+00
      758000000    2,277204208e-02   -1,034985706e-01   -4,543523788e-01    3,767452240e-01    0,000000000e+00    0,000000000e+00    0,000000000e+00    0,000000000e+00
      772000000   -5,841224454e-03   -1,738301367e-01   -1,389625221e-01    5,572444797e-01    0,000000000e+00    0,000000000e+00    0,000000000e+00    0,000000000e+00
      786000000   -1,049663648e-01   -2,325202972e-01    2,107628286e-01    5,200778246e-01    0,000000000e+00    0,000000000e+00    0,000000000e+00    0,000000000e+00
      800000000   -2,656098902e-01   -1,929123551e-01    4,714717269e-01    2,755315900e-01    0,000000000e+00    0,000000000e+00    0,000000000e+00    0,000000000e+00
      814000000   -3,644887507e-01    4,137582611e-03    5,077013969e-01   -8,855641633e-02    0,000000000e+00    0,000000000e+00    0,000000000e+00    0,000000000e+00
      828000000   -2,468972653e-01    2,325925231e-01    2,818446755e-01   -3,528742194e-01    0,000000000e+00    0,000000000e+00    0,000000000e+00    0,000000000e+00
      842000000    1,319113281e-02    2,791557610e-01   -1,529745199e-02   -3,627856970e-01    0,000000000e+00    0,000000000e+00    0,000000000e+00    0,000000000e+00
      856000000    2,126880735e-01    1,151356995e-01   -1,881680489e-01   -2,053140998e-01    0,000000000e+00    0,000000000e+00    0,000000000e+00    0,000000000e+00
      870000000    2,385949492e-01   -1,484230757e-01   -2,008177489e-01   -2,532689832e-02    0,000000000e+00    0,000000000e+00    0,000000000e+00    0,000000000e+00
      884000000    3,763991222e-02   -3,869953156e-01   -1,040569842e-01    7,067736238e-02    0,000000000e+00    0,000000000e+00    0,000000000e+00    0,000000000e+00
      898000000   -3,692380190e-01   -3,420252800e-01   -1,661091857e-02    2,725399286e-02    0,000000000e+00    0,000000000e+00    0,000000000e+00    0,000000000e+00
      912000000   -4,678341746e-01    1,386892498e-01   -1,049687341e-01    3,480430692e-02    0,000000000e+00    0,000000000e+00    0,000000000e+00    0,000000000e+00
      926000000   -9,481207281e-02    3,523173332e-01   -1,290748119e-01    1,363534033e-01    0,000000000e+00    0,000000000e+00    0,000000000e+00    0,000000000e+00
      940000000    1,825860888e-01    1,970685124e-01   -3,930816054e-02    2,163210213e-01    0,000000000e+00    0,000000000e+00    0,000000000e+00    0,000000000e+00
      954000000    2,538504601e-01   -4,624804482e-02    7,849363983e-02    2,271895111e-01    0,000000000e+00    0,000000000e+00    0,000000000e+00    0,000000000e+00
      968000000    1,773112565e-01   -2,621107101e-01    1,906832904e-01    1,794755608e-01    0,000000000e+00    0,000000000e+00    0,000000000e+00    0,000000000e+00
      982000000   -1,543093286e-02   -3,926506341e-01    2,812665403e-01    7,962121814e-02    0,000000000e+00    0,000000000e+00    0,000000000e+00    0,000000000e+00
      996000000   -2,751247287e-01   -3,795374036e-01    3,102590740e-01   -7,982239872e-02    0,000000000e+00    0,000000000e+00    0,000000000e+00    0,000000000e+00
     1010000000   -4,676714242e-01   -1,738210022e-01    2,216002792e-01   -2,535877824e-01    0,000000000e+00    0,000000000e+00    0,000000000e+00    0,000000000e+00
     1024000000   -4,556062520e-01    1,182358116e-01    2,248195000e-02   -3,299551010e-01    0,000000000e+00    0,000000000e+00    0,000000000e+00    0,000000000e+00
     1038000000   -2,664160728e-01    2,960200012e-01   -1,731874198e-01   -2,487667352e-01    0,000000000e+00    0,000000000e+00    0,000000000e+00    0,000000000e+00
     1052000000   -3,779225796e-02    3,049726784e-01   -2,569662035e-01   -7,718417048e-02    0,000000000e+00    0,000000000e+00    0,000000000e+00    0,000000000e+00
     1066000000    1,239655986e-01    2,069181204e-01   -2,227948755e-01    8,199901879e-02    0,000000000e+00    0,000000000e+00    0,000000000e+00    0,000000000e+00
     1080000000    2,055660635e-01    4,607130215e-02   -1,205193028e-01    1,928245872e-01    0,000000000e+00    0,000000000e+00    0,000000000e+00    0,000000000e+00
     1094000000    2,002787888e-01   -1,296589822e-01    1,463772729e-02    2,344434857e-01    0,000000000e+00    0,000000000e+00    0,000000000e+00    0,000000000e+00
     1108000000    9,906912595e-02   -2,856304646e-01    1,704214513e-01    2,064862251e-01    0,000000000e+00    0,000000000e+00    0,000000000e+00    0,000000000e+00
     1122000000   -9,680373967e-02   -3,702125549e-01    3,145969212e-01    8,897516131e-02    0,000000000e+00    0,000000000e+00    0,000000000e+00    0,000000000e+00
     1136000000   -3,505209684e-01   -2,715471983e-01    3,925988674e-01   -1,513826251e-01    0,000000000e+00    0,000000000e+00    0,000000000e+00    0,000000000e+00
     1150000000   -4,090715945e-01    4,010721296e-02    2,408087552e-01   -4,371768236e-01    0,000000000e+00    0,000000000e+00    0,000000000e+00    0,000000000e+00
     1164000000   -1,637670398e-01    2,194686383e-01   -9,487021714e-02   -5,121783614e-01    0,000000000e+00    0,000000000e+00    0,000000000e+00    0,000000000e+00
     1178000000    7,270546257e-02    8,190915734e-02   -3,575314283e-01   -3,475815654e-01    0,000000000e+00    0,000000000e+00    0,000000000e+00    0,000000000e+00
     1192000000    7,605159283e-02   -1,717681140e-01   -4,550503790e-01   -8,039953560e-02    0,000000000e+00    0,000000000e+00    0,000000000e+00    0,000000000e+00
     1206000000   -1,607826352e-01   -3,275914192e-01   -3,707394302e-01    1,876948029e-01    0,000000000e+00    0,000000000e+00    0,000000000e+00    0,000000000e+00
     1220000000   -4,607057273e-01   -1,793089360e-01   -1,119204760e-01    3,330507576e-01    0,000000000e+00    0,000000000e+00    0,000000000e+00    0,000000000e+00
     1234000000   -4,707031846e-01    1,710901260e-01    1,384865642e-01    2,236731499e-01    0,000000000e+00    0,000000000e+00    0,000000000e+00    0,000000000e+00
     1248000000   -2,336491942e-01    3,585563302e-01    1,929706186e-01    3,422443196e-02    0,000000000e+00    0,000000000e+00    0,000000000e+00    0,000000000e+00
     1262000000   -8,951626951e-04    3,289016783e-01    1,253755391e-01   -6,869451702e-02    0,000000000e+00    0,000000000e+00    0,000000000e+00    0,000000000e+00
     1276000000    1,488498151e-01    1,982575953e-01    5,274572968e-02   -9,751198441e-02    0,000000000e+00    0,000000000e+00    0,000000000e+00    0,000000000e+00
     1290000000    2,172339708e-01    2,892830037e-02   -4,238951369e-04   -7,298601419e-02    0,000000000e+00    0,000000000e+00    0,000000000e+00    0,000000000e+00
     1304000000    2,093039751e-01   -1,471617520e-01   -1,852691174e-02   -3,239622340e-02    0,000000000e+00    0,000000000e+00    0,000000000e+00    0,000000000e+00
     1318000000    1,153328195e-01   -3,117855489e-01   -8,545168675e-03    1,804755256e-02    0,000000000e+00    0,000000000e+00    0,000000000e+00    0,000000000e+00
     1332000000   -6,809001416e-02   -4,362868369e-01    5,184150487e-02    6,431327760e-02    0,000000000e+00    0,000000000e+00    0,000000000e+00    0,000000000e+00
     1346000000   -3,259077668e-01   -4,361995161e-01    1,508462727e-01    4,650708288e-02    0,000000000e+00    0,000000000e+00    0,000000000e+00    0,000000000e+00
     1360000000   -5,542941093e-01   -2,467595488e-01    1,104416773e-01   -8,195884526e-02    0,000000000e+00    0,000000000e+00    0,000000000e+00    0,000000000e+00
     1374000000   -6,199972630e-01    4,002640024e-02    1,106059924e-01    6,402363628e-02    0,000000000e+00    0,000000000e+00    0,000000000e+00    0,000000000e+00
     1388000000   -5,188483000e-01    2,947420776e-01    2,208264172e-01    1,364617329e-02    0,000000000e+00    0,000000000e+00    0,000000000e+00    0,000000000e+00
     1402000000   -3,120873868e-01    4,116127789e-01    2,239755243e-01   -8,969294280e-02    0,000000000e+00    0,000000000e+00    0,000000000e+00    0,000000000e+00
     1416000000   -9,357248992e-02    4,234121442e-01    1,872164756e-01   -1,127407551e-01    0,000000000e+00    0,000000000e+00    0,000000000e+00    0,000000000e+00
     1430000000    7,394455373e-02    3,315043151e-01    1,629003435e-01   -1,408184022e-01    0,000000000e+00    0,000000000e+00    0,000000000e+00    0,000000000e+00
     1444000000    1,748312265e-01    2,013637125e-01    1,555656344e-01   -9,389800578e-02    0,000000000e+00    0,000000000e+00    0,000000000e+00    0,000000000e+00
     1458000000    2,222129852e-01    3,437691927e-02    1,454652101e-01   -8,197313547e-02    0,000000000e+00    0,000000000e+00    0,000000000e+00    0,000000000e+00
     1472000000    2,066427767e-01   -1,463435292e-01    1,529450417e-01   -6,208084896e-02    0,000000000e+00    0,000000000e+00    0,000000000e+00    0,000000000e+00
     1486000000    1,069011390e-01   -3,279253840e-01    1,752844602e-01   -7,775557693e-03    0,000000000e+00    0,000000000e+00    0,000000000e+00    0,000000000e+00
     1500000000   -9,232897311e-02   -4,585641325e-01    2,163521647e-01    6,863456964e-02    0,000000000e+00    0,000000000e+00    0,000000000e+00    0,000000000e+00
