! NanoVNA-App
! Date: 2025-09-25 14:22:42
! Start: 100MHz Stop: 1,5GHz Points: 101
! S-Parameter data: F S11 S21 S12 S22
# Hz S RI R 50
!     Frequency           S11_Real           S11_Imag           S21_Real           S21_Imag           S12_Real           S12_Imag           S22_Real           S22_Imag
      100000000   -2,909378707e-02   -4,142338410e-03    3,744224608e-01   -7,220285535e-01    0,000000000e+00    0,000000000e+00    0,000000000e+00    0,000000000e+00
      114000000   -1,659742557e-02    1,160269137e-02   -8,892288804e-02   -8,059225082e-01    0,000000000e+00    0,000000000e+00    0,000000000e+00    0,000000000e+00
      128000000    3,395104781e-03    1,053020079e-02   -5,146523714e-01   -6,209172606e-01    0,000000000e+00    0,000000000e+00    0,000000000e+00    0,000000000e+00
      142000000    1,446513180e-02   -3,023609286e-03   -7,675293088e-01   -2,368045896e-01    0,000000000e+00    0,000000000e+00    0,000000000e+00    0,000000000e+00
      156000000    1,447577588e-02   -1,505256537e-02   -7,646400332e-01    2,200331092e-01    0,000000000e+00    0,000000000e+00    0,000000000e+00    0,000000000e+00
      170000000    1,660562120e-02   -2,253590897e-02   -5,186262727e-01    6,051805615e-01    0,000000000e+00    0,000000000e+00    0,000000000e+00    0,000000000e+00
      184000000    2,094981819e-02   -3,711816669e-02   -1,017235667e-01    7,866709232e-01    0,000000000e+00    0,000000000e+00    0,000000000e+00    0,000000000e+00
      198000000    1,299573854e-02   -6,256294250e-02    3,430126607e-01    7,131636739e-01    0,000000000e+00    0,000000000e+00    0,000000000e+00    0,000000000e+00
      212000000   -1,867990568e-02   -8,162564039e-02    6,781387329e-01    4,104409814e-01    0,000000000e+00    0,000000000e+00    0,000000000e+00    0,000000000e+00
      226000000   -6,203558668e-02   -6,962195039e-02    7,960827947e-01   -2,977569215e-02    0,000000000e+00    0,000000000e+00    0,000000000e+00    0,000000000e+00
      240000000   -8,315078914e-02   -2,611395903e-02    6,472831964e-01   -4,668208063e-01    0,000000000e+00    0,000000000e+00    0,000000000e+00    0,000000000e+00
      254000000   -6,435982883e-02    1,720734127e-02    2,773236036e-01   -7,436835170e-01    0,000000000e+00    0,000000000e+00    0,000000000e+00    0,000000000e+00
      268000000   -2,433102764e-02    2,953976765e-02   -1,772150397e-01   -7,648037672e-01    0,000000000e+00    0,000000000e+00    0,000000000e+00    0,000000000e+00
      282000000    4,164061043e-03    1,218117494e-02   -5,625567436e-01   -5,372349024e-01    0,000000000e+00    0,000000000e+00    0,000000000e+00    0,000000000e+00
      296000000    9,511373937e-03   -7,640363649e-03   -7,609170675e-01   -1,395857185e-01    0,000000000e+00    0,000000000e+00    0,000000000e+00    0,000000000e+00
      310000000    1,088866312e-02   -1,601731218e-02   -7,137447000e-01    2,980404794e-01    0,000000000e+00    0,000000000e+00    0,000000000e+00    0,000000000e+00
      324000000    1,936391741e-02   -2,645189874e-02   -4,289842546e-01    6,371413469e-01    0,000000000e+00    0,000000000e+00    0,000000000e+00    0,000000000e+00
      338000000    2,543644793e-02   -5,237307400e-02   -1,139278058e-02    7,630187869e-01    0,000000000e+00    0,000000000e+00    0,000000000e+00    0,000000000e+00
      352000000    7,530068513e-03   -8,457019925e-02    4,061326683e-01    6,411017179e-01    0,000000000e+00    0,000000000e+00    0,000000000e+00    0,000000000e+00
      366000000   -3,496462479e-02   -9,570789337e-02    6,905868649e-01    3,123286366e-01    0,000000000e+00    0,000000000e+00    0,000000000e+00    0,000000000e+00
      380000000   -7,159093767e-02   -7,095059752e-02    7,481698990e-01   -1,242048070e-01    0,000000000e+00    0,000000000e+00    0,000000000e+00    0,000000000e+00
      394000000   -7,321392745e-02   -3,238216788e-02    5,486540794e-01   -5,213104486e-01    0,000000000e+00    0,000000000e+00    0,000000000e+00    0,000000000e+00
      408000000   -4,683846608e-02   -1,579581574e-02    1,627516747e-01   -7,329084277e-01    0,000000000e+00    0,000000000e+00    0,000000000e+00    0,000000000e+00
      422000000   -2,831456997e-02   -3,152355924e-02   -2,660535276e-01   -6,961207390e-01    0,000000000e+00    0,000000000e+00    0,000000000e+00    0,000000000e+00
      436000000   -4,022495449e-02   -5,198021978e-02   -6,026529670e-01   -4,338566065e-01    0,000000000e+00    0,000000000e+00    0,000000000e+00    0,000000000e+00
      450000000   -6,768169999e-02   -4,487220943e-02   -7,401188612e-01   -2,522752248e-02    0,000000000e+00    0,000000000e+00    0,000000000e+00    0,000000000e+00
      464000000   -7,426606864e-02   -1,257044077e-02   -6,211546659e-01    3,946170211e-01    0,000000000e+00    0,000000000e+00    0,000000000e+00    0,000000000e+00
      478000000   -4,907187447e-02    1,164399087e-02   -2,863271534e-01    6,678996086e-01    0,000000000e+00    0,000000000e+00    0,000000000e+00    0,000000000e+00
      492000000   -1,681976020e-02    6,356143393e-03    1,342651993e-01    7,033051848e-01    0,000000000e+00    0,000000000e+00    0,000000000e+00    0,000000000e+00
      506000000   -4,043322988e-03   -1,539133769e-02    4,974076450e-01    5,060678720e-01    0,000000000e+00    0,000000000e+00    0,000000000e+00    0,000000000e+00
      520000000   -5,561719183e-03   -2,995377034e-02    6,892617941e-01    1,432802528e-01    0,000000000e+00    0,000000000e+00    0,000000000e+00    0,000000000e+00
      534000000   -3,241553670e-03   -3,578132764e-02    6,445823312e-01   -2,595565617e-01    0,000000000e+00    0,000000000e+00    0,000000000e+00    0,000000000e+00
      548000000    7,936439477e-03   -5,266395584e-02    3,851518333e-01   -5,635911822e-01    0,000000000e+00    0,000000000e+00    0,000000000e+00    0,000000000e+00
      562000000    5,817535333e-03   -8,984378725e-02    8,681895211e-03   -6,726208329e-01    0,000000000e+00    0,000000000e+00    0,000000000e+00    0,000000000e+00
      576000000   -3,096831776e-02   -1,262199581e-01   -3,627490103e-01   -5,606239438e-01    0,000000000e+00    0,000000000e+00    0,000000000e+00    0,000000000e+00
      590000000   -9,484255314e-02   -1,277062446e-01   -6,159293652e-01   -2,731902301e-01    0,000000000e+00    0,000000000e+00    0,000000000e+00    0,000000000e+00
      604000000   -1,429354250e-01   -7,799164206e-02   -6,667241454e-01    1,264649332e-01    0,000000000e+00    0,000000000e+00    0,000000000e+00    0,000000000e+00
      618000000   -1,378357112e-01   -1,091671176e-02   -4,749021828e-01    4,855670035e-01    0,000000000e+00    0,000000000e+00    0,000000000e+00    0,000000000e+00
      632000000   -9,350585938e-02    2,205733396e-02   -1,129337177e-01    6,627697945e-01    0,000000000e+00    0,000000000e+00    0,000000000e+00    0,000000000e+00
      646000000   -5,578750744e-02    1,211889554e-02    2,734819949e-01    6,034682989e-01    0,000000000e+00    0,000000000e+00    0,000000000e+00    0,000000000e+00
      660000000   -4,752776399e-02   -8,879674599e-03    5,579004884e-01    3,403992057e-01    0,000000000e+00    0,000000000e+00    0,000000000e+00    0,000000000e+00
      674000000   -5,633190274e-02   -1,098891255e-02    6,440097094e-01   -3,991436586e-02    0,000000000e+00    0,000000000e+00    0,000000000e+00    0,000000000e+00
      688000000   -5,031103641e-02    3,769383766e-03    4,926916659e-01   -4,020008147e-01    0,000000000e+00    0,000000000e+00    0,000000000e+00    0,000000000e+00
      702000000   -2,559387498e-02    8,352622390e-03    1,595746875e-01   -6,051757932e-01    0,000000000e+00    0,000000000e+00    0,000000000e+00    0,000000000e+00
      716000000   -1,529380213e-03   -9,568500333e-03   -2,195562869e-01   -5,760665536e-01    0,000000000e+00    0,000000000e+00    0,000000000e+00    0,000000000e+00
      730000000    9,257215075e-03   -3,484895825e-02   -5,091905594e-01   -3,332400918e-01    0,000000000e+00    0,000000000e+00    0,000000000e+00    0,000000000e+00
      744000000    1,654679701e-02   -6,151532009e-02   -6,009135246e-01    3,314411268e-02    0,000000000e+00    0,000000000e+00    0,000000000e+00    0,000000000e+00
      758000000    2,160149999e-02   -1,034456566e-01   -4,541378915e-01    3,777403235e-01    0,000000000e+00    0,000000000e+00    0,000000000e+00    0,000000000e+00
      772000000   -4,744051490e-03   -1,733229905e-01   -1,398751587e-01    5,572235584e-01    0,000000000e+00    0,000000000e+00    0,000000000e+00    0,000000000e+00
      786000000   -1,057048813e-01   -2,323822826e-01    2,117495388e-01    5,187959075e-01    0,000000000e+00    0,000000000e+00    0,000000000e+00    0,000000000e+00
      800000000   -2,665037811e-01   -1,932273507e-01    4,717954397e-01    2,752269506e-01    0,000000000e+00    0,000000000e+00    0,000000000e+00    0,000000000e+00
      814000000   -3,644941747e-01    2,727070823e-03    5,082566738e-01   -8,861292899e-02    0,000000000e+00    0,000000000e+00    0,000000000e+00    0,000000000e+00
      828000000   -2,468458563e-01    2,328234613e-01    2,811975479e-01   -3,526875675e-01    0,000000000e+00    0,000000000e+00    0,000000000e+00    0,000000000e+00
      842000000    1,239584200e-02    2,781564593e-01   -1,631022617e-02   -3,630883396e-01    0,000000000e+00    0,000000000e+00    0,000000000e+00    0,000000000e+00
      856000000    2,125164419e-01    1,152807325e-01   -1,872418523e-01   -2,045994997e-01    0,000000000e+00    0,000000000e+00    0,000000000e+00    0,000000000e+00
      870000000    2,387836277e-01   -1,485615522e-01   -2,001878172e-01   -2,559060417e-02    0,000000000e+00    0,000000000e+00    0,000000000e+00    0,000000000e+00
      884000000    3,845134377e-02   -3,872277439e-01   -1,030730382e-01    7,084779441e-02    0,000000000e+00    0,000000000e+00    0,000000000e+00    0,000000000e+00
      898000000   -3,697479069e-01   -3,420058787e-01   -1,732425019e-02    2,760442905e-02    0,000000000e+00    0,000000000e+00    0,000000000e+00    0,000000000e+00
      912000000   -4,660861194e-01    1,374210715e-01   -1,221903563e-01    2,564172260e-02    0,000000000e+00    0,000000000e+00    0,000000000e+00    0,000000000e+00
      926000000   -9,531623125e-02    3,536509573e-01   -1,275372505e-01    1,381780207e-01    0,000000000e+00    0,000000000e+00    0,000000000e+00    0,000000000e+00
      940000000    1,858410239e-01    1,927780807e-01   -3,785070032e-02    2,160680890e-01    0,000000000e+00    0,000000000e+00    0,000000000e+00    0,000000000e+00
      954000000    2,577744722e-01   -4,833075032e-02    8,038616925e-02    2,272376269e-01    0,000000000e+00    0,000000000e+00    0,000000000e+00    0,000000000e+00
      968000000    1,751658320e-01   -2,596766055e-01    1,917757690e-01    1,802178174e-01    0,000000000e+00    0,000000000e+00    0,000000000e+00    0,000000000e+00
      982000000   -1,606650837e-02   -3,939191997e-01    2,794806361e-01    7,882616669e-02    0,000000000e+00    0,000000000e+00    0,000000000e+00    0,000000000e+00
      996000000   -2,698099911e-01   -3,762184083e-01    3,079990149e-01   -7,898711413e-02    0,000000000e+00    0,000000000e+00    0,000000000e+00    0,000000000e+00
     1010000000   -4,708642960e-01   -1,750365496e-01    2,203759700e-01   -2,529447377e-01    0,000000000e+00    0,000000000e+00    0,000000000e+00    0,000000000e+00
     1024000000   -4,591917098e-01    1,131995097e-01    2,013906278e-02   -3,280229270e-01    0,000000000e+00    0,000000000e+00    0,000000000e+00    0,000000000e+00
     1038000000   -2,671116292e-01    3,015538454e-01   -1,740835160e-01   -2,492729723e-01    0,000000000e+00    0,000000000e+00    0,000000000e+00    0,000000000e+00
     1052000000   -4,057976604e-02    3,082877398e-01   -2,558105886e-01   -7,612326741e-02    0,000000000e+00    0,000000000e+00    0,000000000e+00    0,000000000e+00
     1066000000    1,279412508e-01    2,059645504e-01   -2,249295413e-01    8,540090173e-02    0,000000000e+00    0,000000000e+00    0,000000000e+00    0,000000000e+00
     1080000000    2,045026422e-01    4,807710648e-02   -1,199184060e-01    1,931130439e-01    0,000000000e+00    0,000000000e+00    0,000000000e+00    0,000000000e+00
     1094000000    1,995967180e-01   -1,291295290e-01    1,605314948e-02    2,360903025e-01    0,000000000e+00    0,000000000e+00    0,000000000e+00    0,000000000e+00
     1108000000    1,005745009e-01   -2,840298414e-01    1,688016951e-01    2,056057751e-01    0,000000000e+00    0,000000000e+00    0,000000000e+00    0,000000000e+00
     1122000000   -9,762862325e-02   -3,697719276e-01    3,158981204e-01    8,932572603e-02    0,000000000e+00    0,000000000e+00    0,000000000e+00    0,000000000e+00
     1136000000   -3,494723141e-01   -2,715884149e-01    3,872998059e-01   -1,504478455e-01    0,000000000e+00    0,000000000e+00    0,000000000e+00    0,000000000e+00
     1150000000   -4,070485830e-01    3,183430433e-02    2,411317825e-01   -4,376616180e-01    0,000000000e+00    0,000000000e+00    0,000000000e+00    0,000000000e+00
     1164000000   -1,641621441e-01    2,193667293e-01   -9,635842592e-02   -5,162774324e-01    0,000000000e+00    0,000000000e+00    0,000000000e+00    0,000000000e+00
     1178000000    7,575434446e-02    8,813467622e-02   -3,572042584e-01   -3,443230391e-01    0,000000000e+00    0,000000000e+00    0,000000000e+00    0,000000000e+00
     1192000000    7,424158603e-02   -1,759492606e-01   -4,552268386e-01   -8,453574777e-02    0,000000000e+00    0,000000000e+00    0,000000000e+00    0,000000000e+00
     1206000000   -1,644203961e-01   -3,284641802e-01   -3,716291785e-01    1,878386438e-01    0,000000000e+00    0,000000000e+00    0,000000000e+00    0,000000000e+00
     1220000000   -4,536010325e-01   -1,778801233e-01   -1,083814204e-01    3,270678222e-01    0,000000000e+00    0,000000000e+00    0,000000000e+00    0,000000000e+00
     1234000000   -4,765185118e-01    1,677963883e-01    1,350658685e-01    2,197057456e-01    0,000000000e+00    0,000000000e+00    0,000000000e+00    0,000000000e+00
     1248000000   -2,386108935e-01    3,504853845e-01    1,952427775e-01    3,111871146e-02    0,000000000e+00    0,000000000e+00    0,000000000e+00    0,000000000e+00
     1262000000    3,726515453e-03    3,237152398e-01    1,332568079e-01   -7,884337008e-02    0,000000000e+00    0,000000000e+00    0,000000000e+00    0,000000000e+00
     1276000000    1,550778151e-01    1,964111924e-01    5,320977792e-02   -9,854574502e-02    0,000000000e+00    0,000000000e+00    0,000000000e+00    0,000000000e+00
     1290000000    2,134973854e-01    2,827231586e-02   -4,053905606e-03   -7,239967585e-02    0,000000000e+00    0,000000000e+00    0,000000000e+00    0,000000000e+00
     1304000000    2,037701011e-01   -1,453059763e-01   -2,099667303e-02   -3,048400395e-02    0,000000000e+00    0,000000000e+00    0,000000000e+00    0,000000000e+00
     1318000000    1,141148061e-01   -3,099091053e-01   -1,084353589e-02    2,409033105e-02    0,000000000e+00    0,000000000e+00    0,000000000e+00    0,000000000e+00
     1332000000   -6,702507287e-02   -4,308958948e-01    4,831723124e-02    6,992352754e-02    0,000000000e+00    0,000000000e+00    0,000000000e+00    0,000000000e+00
     1346000000   -3,302682340e-01   -4,284467697e-01    1,427690536e-01    5,359307677e-02    0,000000000e+00    0,000000000e+00    0,000000000e+00    0,000000000e+00
     1360000000   -5,587361455e-01   -2,419897914e-01    1,089010760e-01   -7,599659264e-02    0,000000000e+00    0,000000000e+00    0,000000000e+00    0,000000000e+00
     1374000000   -6,181751490e-01    3,119258024e-02    1,089562550e-01    6,788995862e-02    0,000000000e+00    0,000000000e+00    0,000000000e+00    0,000000000e+00
     1388000000   -5,151721835e-01    2,865421176e-01    2,245850563e-01   -3,811097704e-03    0,000000000e+00    0,000000000e+00    0,000000000e+00    0,000000000e+00
     1402000000   -3,085275292e-01    4,239451885e-01    2,151427120e-01   -7,598110288e-02    0,000000000e+00    0,000000000e+00    0,000000000e+00    0,000000000e+00
     1416000000   -1,012139767e-01    4,181489348e-01    1,803880930e-01   -1,178788692e-01    0,000000000e+00    0,000000000e+00    0,000000000e+00    0,000000000e+00
     1430000000    7,125580311e-02    3,334967196e-01    1,621267647e-01   -1,440942883e-01    0,000000000e+00    0,000000000e+00    0,000000000e+00    0,000000000e+00
     1444000000    1,767976582e-01    1,973030865e-01    1,574464142e-01   -1,073853076e-01    0,000000000e+00    0,000000000e+00    0,000000000e+00    0,000000000e+00
     1458000000    2,230440080e-01    3,425502032e-02    1,444793195e-01   -8,202324063e-02    0,000000000e+00    0,000000000e+00    0,000000000e+00    0,000000000e+00
     1472000000    2,051904351e-01   -1,465227455e-01    1,491265744e-01   -6,169108301e-02    0,000000000e+00    0,000000000e+00    0,000000000e+00    0,000000000e+00
     1486000000    1,024781764e-01   -3,294701278e-01    1,583970934e-01   -6,758479401e-03    0,000000000e+00    0,000000000e+00    0,000000000e+00    0,000000000e+00
     1500000000   -9,282518178e-02   -4,545748830e-01    2,134606987e-01    6,681815535e-02    0,000000000e+00    0,000000000e+00    0,000000000e+00    0,000000000e+00
