! NanoVNA-App
! Date: 2025-09-25 14:22:22
! Start: 100MHz Stop: 1,5GHz Points: 101
! S-Parameter data: F S11 S21 S12 S22
# Hz S RI R 50
!     Frequency           S11_Real           S11_Imag           S21_Real           S21_Imag           S12_Real           S12_Imag           S22_Real           S22_Imag
      100000000   -2,910463512e-02   -4,131347407e-03    3,744280040e-01   -7,221043706e-01    0,000000000e+00    0,000000000e+00    0,000000000e+00    0,000000000e+00
      114000000   -1,664660871e-02    1,162155997e-02   -8,897635341e-02   -8,058654666e-01    0,000000000e+00    0,000000000e+00    0,000000000e+00    0,000000000e+00
      128000000    3,442329820e-03    1,056468673e-02   -5,146198869e-01   -6,209566593e-01    0,000000000e+00    0,000000000e+00    0,000000000e+00    0,000000000e+00
      142000000    1,447949186e-02   -3,036915790e-03   -7,675543427e-01   -2,370474637e-01    0,000000000e+00    0,000000000e+00    0,000000000e+00    0,000000000e+00
      156000000    1,443130337e-02   -1,493365690e-02   -7,652395368e-01    2,181741595e-01    0,000000000e+00    0,000000000e+00    0,000000000e+00    0,000000000e+00
      170000000    1,659799181e-02   -2,252158336e-02   -5,187980533e-01    6,051694751e-01    0,000000000e+00    0,000000000e+00    0,000000000e+00    0,000000000e+00
      184000000    2,099126577e-02   -3,708973154e-02   -1,018727645e-01    7,866621017e-01    0,000000000e+00    0,000000000e+00    0,000000000e+00    0,000000000e+00
      198000000    1,303926203e-02   -6,259585917e-02    3,430802822e-01    7,128631473e-01    0,000000000e+00    0,000000000e+00    0,000000000e+00    0,000000000e+00
      212000000   -1,871459372e-02   -8,167254180e-02    6,783686280e-01    4,106420875e-01    0,000000000e+00    0,000000000e+00    0,000000000e+00    0,000000000e+00
      226000000   -6,206820533e-02   -6,959088892e-02    7,961406708e-01   -2,978957817e-02    0,000000000e+00    0,000000000e+00    0,000000000e+00    0,000000000e+00
      240000000   -8,310493827e-02   -2,609479427e-02    6,471709609e-01   -4,668180346e-01    0,000000000e+00    0,000000000e+00    0,000000000e+00    0,000000000e+00
      254000000   -6,434596330e-02    1,723719388e-02    2,769564092e-01   -7,437657118e-01    0,000000000e+00    0,000000000e+00    0,000000000e+00    0,000000000e+00
      268000000   -2,432405576e-02    2,944864705e-02   -1,771468073e-01   -7,650743127e-01    0,000000000e+00    0,000000000e+00    0,000000000e+00    0,000000000e+00
      282000000    4,201602191e-03    1,220693998e-02   -5,621523857e-01   -5,371127725e-01    0,000000000e+00    0,000000000e+00    0,000000000e+00    0,000000000e+00
      296000000    9,612157010e-03   -7,708712481e-03   -7,606453300e-01   -1,395844370e-01    0,000000000e+00    0,000000000e+00    0,000000000e+00    0,000000000e+00
      310000000    1,091053709e-02   -1,616442204e-02   -7,137961984e-01    2,981055677e-01    0,000000000e+00    0,000000000e+00    0,000000000e+00    0,000000000e+00
      324000000    1,953618415e-02   -2,653330937e-02   -4,282939136e-01    6,375057697e-01    0,000000000e+00    0,000000000e+00    0,000000000e+00    0,000000000e+00
      338000000    2,520584129e-02   -5,209877342e-02   -1,192387380e-02    7,623401880e-01    0,000000000e+00    0,000000000e+00    0,000000000e+00    0,000000000e+00
      352000000    7,430878002e-03   -8,461960405e-02    4,054760933e-01    6,414734721e-01    0,000000000e+00    0,000000000e+00    0,000000000e+00    0,000000000e+00
      366000000   -3,485083207e-02   -9,604728222e-02    6,907363534e-01    3,118733168e-01    0,000000000e+00    0,000000000e+00    0,000000000e+00    0,000000000e+00
      380000000   -7,151404768e-02   -7,129266113e-02    7,480546236e-01   -1,249585152e-01    0,000000000e+00    0,000000000e+00    0,000000000e+00    0,000000000e+00
      394000000   -7,327303290e-02   -3,245829791e-02    5,473998785e-01   -5,219922066e-01    0,000000000e+00    0,000000000e+00    0,000000000e+00    0,000000000e+00
      408000000   -4,687541351e-02   -1,557734888e-02    1,623291671e-01   -7,320805192e-01    0,000000000e+00    0,000000000e+00    0,000000000e+00    0,000000000e+00
      422000000   -2,859018743e-02   -3,131011501e-02   -2,664237618e-01   -6,958878040e-01    0,000000000e+00    0,000000000e+00    0,000000000e+00    0,000000000e+00
      436000000   -3,998889774e-02   -5,196088552e-02   -6,028069258e-01   -4,339972734e-01    0,000000000e+00    0,000000000e+00    0,000000000e+00    0,000000000e+00
      450000000   -6,749089062e-02   -4,474726692e-02   -7,403897047e-01   -2,545096539e-02    0,000000000e+00    0,000000000e+00    0,000000000e+00    0,000000000e+00
      464000000   -7,445632666e-02   -1,210989803e-02   -6,213014722e-01    3,948034346e-01    0,000000000e+00    0,000000000e+00    0,000000000e+00    0,000000000e+00
      478000000   -4,899552464e-02    1,171505358e-02   -2,862501144e-01    6,672312617e-01    0,000000000e+00    0,000000000e+00    0,000000000e+00    0,000000000e+00
      492000000   -1,719844900e-02    6,442344282e-03    1,345040500e-01    7,043849826e-01    0,000000000e+00    0,000000000e+00    0,000000000e+00    0,000000000e+00
      506000000   -3,496331396e-03   -1,489333622e-02    4,980776012e-01    5,060277581e-01    0,000000000e+00    0,000000000e+00    0,000000000e+00    0,000000000e+00
      520000000   -6,004899740e-03   -2,923298627e-02    6,897506118e-01    1,442651600e-01    0,000000000e+00    0,000000000e+00    0,000000000e+00    0,000000000e+00
      534000000   -3,246419365e-03   -3,588290513e-02    6,450060606e-01   -2,607226372e-01    0,000000000e+00    0,000000000e+00    0,000000000e+00    0,000000000e+00
      548000000    8,497107774e-03   -5,294373259e-02    3,852695525e-01   -5,643773079e-01    0,000000000e+00    0,000000000e+00    0,000000000e+00    0,000000000e+00
      562000000    5,580209661e-03   -8,945567906e-02    8,327068761e-03   -6,723758578e-01    0,000000000e+00    0,000000000e+00    0,000000000e+00    0,000000000e+00
      576000000   -3,140226007e-02   -1,263088733e-01   -3,623540103e-01   -5,613429546e-01    0,000000000e+00    0,000000000e+00    0,000000000e+00    0,000000000e+00
      590000000   -9,499455988e-02   -1,276761591e-01   -6,186320782e-01   -2,730185390e-01    0,000000000e+00    0,000000000e+00    0,000000000e+00    0,000000000e+00
      604000000   -1,428077817e-01   -7,778196782e-02   -6,673757434e-01    1,267540902e-01    0,000000000e+00    0,000000000e+00    0,000000000e+00    0,000000000e+00
      618000000   -1,380690932e-01   -1,076754369e-02   -4,750996828e-01    4,850279391e-01    0,000000000e+00    0,000000000e+00    0,000000000e+00    0,000000000e+00
      632000000   -9,366076440e-02    2,199125104e-02   -1,131286174e-01    6,634485126e-01    0,000000000e+00    0,000000000e+00    0,000000000e+00    0,000000000e+00
      646000000   -5,482771993e-02    1,203532703e-02    2,732650638e-01    6,030623913e-01    0,000000000e+00    0,000000000e+00    0,000000000e+00    0,000000000e+00
      660000000   -4,865593836e-02   -9,024179541e-03    5,578376651e-01    3,399399817e-01    0,000000000e+00    0,000000000e+00    0,000000000e+00    0,000000000e+00
      674000000   -5,614940822e-02   -1,104266476e-02    6,444973946e-01   -4,002789780e-02    0,000000000e+00    0,000000000e+00    0,000000000e+00    0,000000000e+00
      688000000   -4,999469966e-02    2,496154280e-03    4,934088290e-01   -4,018091857e-01    0,000000000e+00    0,000000000e+00    0,000000000e+00    0,000000000e+00
      702000000   -2,506236918e-02    8,066456765e-03    1,605189145e-01   -6,062490344e-01    0,000000000e+00    0,000000000e+00    0,000000000e+00    0,000000000e+00
      716000000   -1,761757885e-03   -8,612032048e-03   -2,201495171e-01   -5,751145482e-01    0,000000000e+00    0,000000000e+00    0,000000000e+00    0,000000000e+00
      730000000    9,165099822e-03   -3,423302621e-02   -5,089696050e-01   -3,332830071e-01    0,000000000e+00    0,000000000e+00    0,000000000e+00    0,000000000e+00
      744000000    1,743744873e-02   -6,084013730e-02   -6,011846066e-01    3,319442272e-02    0,000000000e+00    0,000000000e+00    0,000000000e+00    0,000000000e+00
      758000000    2,226934582e-02   -1,030086428e-01   -4,541589916e-01    3,771614432e-01    0,000000000e+00    0,000000000e+00    0,000000000e+00    0,000000000e+00
      772000000   -5,239041522e-03   -1,733982563e-01   -1,383844167e-01    5,582991242e-01    0,000000000e+00    0,000000000e+00    0,000000000e+00    0,000000000e+00
      786000000   -1,058882475e-01   -2,324319035e-01    2,115812749e-01    5,194420815e-01    0,000000000e+00    0,000000000e+00    0,000000000e+00    0,000000000e+00
      800000000   -2,667883933e-01   -1,927710474e-01    4,715546966e-01    2,753291130e-01    0,000000000e+00    0,000000000e+00    0,000000000e+00    0,000000000e+00
      814000000   -3,638435006e-01    2,894145669e-03    5,073719025e-01   -8,880648762e-02    0,000000000e+00    0,000000000e+00    0,000000000e+00    0,000000000e+00
      828000000   -2,481046319e-01    2,333272845e-01    2,814020216e-01   -3,526297212e-01    0,000000000e+00    0,000000000e+00    0,000000000e+00    0,000000000e+00
      842000000    1,269066148e-02    2,780939937e-01   -1,577096805e-02   -3,626750410e-01    0,000000000e+00    0,000000000e+00    0,000000000e+00    0,000000000e+00
      856000000    2,127578110e-01    1,154863909e-01   -1,878817976e-01   -2,043906748e-01    0,000000000e+00    0,000000000e+00    0,000000000e+00    0,000000000e+00
      870000000    2,392874062e-01   -1,488330066e-01   -2,000445127e-01   -2,596636862e-02    0,000000000e+00    0,000000000e+00    0,000000000e+00    0,000000000e+00
      884000000    3,704798967e-02   -3,871996105e-01   -1,039446741e-01    7,047924399e-02    0,000000000e+00    0,000000000e+00    0,000000000e+00    0,000000000e+00
      898000000   -3,691230416e-01   -3,425165415e-01   -1,654974557e-02    2,717558108e-02    0,000000000e+00    0,000000000e+00    0,000000000e+00    0,000000000e+00
      912000000   -4,676109552e-01    1,371346414e-01   -1,068747640e-01    3,547361866e-02    0,000000000e+00    0,000000000e+00    0,000000000e+00    0,000000000e+00
      926000000   -9,368309379e-02    3,514617682e-01   -1,280265749e-01    1,346530169e-01    0,000000000e+00    0,000000000e+00    0,000000000e+00    0,000000000e+00
      940000000    1,858350486e-01    1,939579546e-01   -3,695341572e-02    2,163326889e-01    0,000000000e+00    0,000000000e+00    0,000000000e+00    0,000000000e+00
      954000000    2,531677783e-01   -4,911123216e-02    8,040467650e-02    2,285081744e-01    0,000000000e+00    0,000000000e+00    0,000000000e+00    0,000000000e+00
      968000000    1,758731753e-01   -2,599685192e-01    1,909746677e-01    1,813162863e-01    0,000000000e+00    0,000000000e+00    0,000000000e+00    0,000000000e+00
      982000000   -1,897552609e-02   -3,931000829e-01    2,798234820e-01    7,877349108e-02    0,000000000e+00    0,000000000e+00    0,000000000e+00    0,000000000e+00
      996000000   -2,765938640e-01   -3,781225383e-01    3,101108074e-01   -7,959397137e-02    0,000000000e+00    0,000000000e+00    0,000000000e+00    0,000000000e+00
     1010000000   -4,670467675e-01   -1,714092493e-01    2,214938402e-01   -2,535983324e-01    0,000000000e+00    0,000000000e+00    0,000000000e+00    0,000000000e+00
     1024000000   -4,594016969e-01    1,131636873e-01    2,057475410e-02   -3,295982480e-01    0,000000000e+00    0,000000000e+00    0,000000000e+00    0,000000000e+00
     1038000000   -2,612907588e-01    2,960039973e-01   -1,733666211e-01   -2,485293895e-01    0,000000000e+00    0,000000000e+00    0,000000000e+00    0,000000000e+00
     1052000000   -3,572043777e-02    3,074703515e-01   -2,570805848e-01   -8,015377074e-02    0,000000000e+00    0,000000000e+00    0,000000000e+00    0,000000000e+00
     1066000000    1,299227774e-01    2,062157691e-01   -2,235185206e-01    8,691910654e-02    0,000000000e+00    0,000000000e+00    0,000000000e+00    0,000000000e+00
     1080000000    2,083144933e-01    4,448997229e-02   -1,228719205e-01    1,932514310e-01    0,000000000e+00    0,000000000e+00    0,000000000e+00    0,000000000e+00
     1094000000    1,993087530e-01   -1,266814470e-01    1,755716652e-02    2,352240980e-01    0,000000000e+00    0,000000000e+00    0,000000000e+00    0,000000000e+00
     1108000000    9,913500398e-02   -2,882331014e-01    1,684092581e-01    2,072330862e-01    0,000000000e+00    0,000000000e+00    0,000000000e+00    0,000000000e+00
     1122000000   -1,019836590e-01   -3,730486631e-01    3,182775378e-01    9,461150318e-02    0,000000000e+00    0,000000000e+00    0,000000000e+00    0,000000000e+00
     1136000000   -3,474743068e-01   -2,717628777e-01    3,879193664e-01   -1,515029818e-01    0,000000000e+00    0,000000000e+00    0,000000000e+00    0,000000000e+00
     1150000000   -4,060186744e-01    3,436185792e-02    2,423963100e-01   -4,374254942e-01    0,000000000e+00    0,000000000e+00    0,000000000e+00    0,000000000e+00
     1164000000   -1,547971368e-01    2,203315496e-01   -9,321659803e-02   -5,162781477e-01    0,000000000e+00    0,000000000e+00    0,000000000e+00    0,000000000e+00
     1178000000    7,348427922e-02    8,251058310e-02   -3,620154262e-01   -3,478506804e-01    0,000000000e+00    0,000000000e+00    0,000000000e+00    0,000000000e+00
     1192000000    7,458432019e-02   -1,768092066e-01   -4,539141357e-01   -8,381073922e-02    0,000000000e+00    0,000000000e+00    0,000000000e+00    0,000000000e+00
     1206000000   -1,648421288e-01   -3,273414075e-01   -3,706553578e-01    1,911069751e-01    0,000000000e+00    0,000000000e+00    0,000000000e+00    0,000000000e+00
     1220000000   -4,568310082e-01   -1,779305339e-01   -1,043668985e-01    3,263731301e-01    0,000000000e+00    0,000000000e+00    0,000000000e+00    0,000000000e+00
     1234000000   -4,734543562e-01    1,616785973e-01    1,368301362e-01    2,237822264e-01    0,000000000e+00    0,000000000e+00    0,000000000e+00    0,000000000e+00
     1248000000   -2,375231981e-01    3,530204296e-01    1,922530532e-01    3,356115147e-02    0,000000000e+00    0,000000000e+00    0,000000000e+00    0,000000000e+00
     1262000000    6,862875074e-03    3,255127668e-01    1,336028874e-01   -7,297600061e-02    0,000000000e+00    0,000000000e+00    0,000000000e+00    0,000000000e+00
     1276000000    1,584599465e-01    2,013294697e-01    5,424294621e-02   -9,656675905e-02    0,000000000e+00    0,000000000e+00    0,000000000e+00    0,000000000e+00
     1290000000    2,136934698e-01    3,254868463e-02    2,128000051e-05   -7,368037105e-02    0,000000000e+00    0,000000000e+00    0,000000000e+00    0,000000000e+00
     1304000000    2,053022236e-01   -1,475541145e-01   -1,767929643e-02   -3,125184402e-02    0,000000000e+00    0,000000000e+00    0,000000000e+00    0,000000000e+00
     1318000000    1,121955216e-01   -3,115798533e-01   -9,228157811e-03    2,516322024e-02    0,000000000e+00    0,000000000e+00    0,000000000e+00    0,000000000e+00
     1332000000   -6,845127791e-02   -4,316219687e-01    5,594650656e-02    6,191047281e-02    0,000000000e+00    0,000000000e+00    0,000000000e+00    0,000000000e+00
     1346000000   -3,295573592e-01   -4,343476593e-01    1,483159214e-01    5,434728414e-02    0,000000000e+00    0,000000000e+00    0,000000000e+00    0,000000000e+00
     1360000000   -5,587841272e-01   -2,441102117e-01    1,074340269e-01   -7,587713748e-02    0,000000000e+00    0,000000000e+00    0,000000000e+00    0,000000000e+00
     1374000000   -6,235699654e-01    2,798647806e-02    1,023760363e-01    5,524739996e-02    0,000000000e+00    0,000000000e+00    0,000000000e+00    0,000000000e+00
     1388000000   -5,160279274e-01    2,932497859e-01    2,325461209e-01    8,207709529e-03    0,000000000e+00    0,000000000e+00    0,000000000e+00    0,000000000e+00
     1402000000   -3,084775805e-01    4,266404808e-01    2,234523743e-01   -7,158252597e-02    0,000000000e+00    0,000000000e+00    0,000000000e+00    0,000000000e+00
     1416000000   -8,956354856e-02    4,216030538e-01    2,039770186e-01   -1,197418794e-01    0,000000000e+00    0,000000000e+00    0,000000000e+00    0,000000000e+00
     1430000000    6,960358471e-02    3,359761238e-01    1,898657084e-01   -9,709402919e-02    0,000000000e+00    0,000000000e+00    0,000000000e+00    0,000000000e+00
     1444000000    1,709990352e-01    1,998077780e-01    1,450805366e-01   -9,553254396e-02    0,000000000e+00    0,000000000e+00    0,000000000e+00    0,000000000e+00
     1458000000    2,215196490e-01    3,584381938e-02    1,453376114e-01   -8,196341246e-02    0,000000000e+00    0,000000000e+00    0,000000000e+00    0,000000000e+00
     1472000000    2,030852735e-01   -1,480513662e-01    1,465341300e-01   -5,820840970e-02    0,000000000e+00    0,000000000e+00    0,000000000e+00    0,000000000e+00
     1486000000    1,068198383e-01   -3,262285292e-01    1,667728275e-01   -1,612512767e-02    0,000000000e+00    0,000000000e+00    0,000000000e+00    0,000000000e+00
     1500000000   -9,321447462e-02   -4,554000795e-01    2,103665620e-01    5,921549350e-02    0,000000000e+00    0,000000000e+00    0,000000000e+00    0,000000000e+00
