! NanoVNA-App
! Date: 2025-09-25 14:22:13
! Start: 100MHz Stop: 1,5GHz Points: 101
! S-Parameter data: F S11 S21 S12 S22
# Hz S RI R 50
!     Frequency           S11_Real           S11_Imag           S21_Real           S21_Imag           S12_Real           S12_Imag           S22_Real           S22_Imag
      100000000   -2,909911238e-02   -4,152989946e-03    3,744293153e-01   -7,220256329e-01    0,000000000e+00    0,000000000e+00    0,000000000e+00    0,000000000e+00
      114000000   -1,664151438e-02    1,159301214e-02   -8,906372637e-02   -8,058126569e-01    0,000000000e+00    0,000000000e+00    0,000000000e+00    0,000000000e+00
      128000000    3,408086719e-03    1,058547944e-02   -5,146298409e-01   -6,208780408e-01    0,000000000e+00    0,000000000e+00    0,000000000e+00    0,000000000e+00
      142000000    1,447094884e-02   -3,023638390e-03   -7,673738003e-01   -2,368128002e-01    0,000000000e+00    0,000000000e+00    0,000000000e+00    0,000000000e+00
      156000000    1,548503619e-02   -1,466471143e-02   -7,729399800e-01    2,231796384e-01    0,000000000e+00    0,000000000e+00    0,000000000e+00    0,000000000e+00
      170000000    1,658793353e-02   -2,250942774e-02   -5,188783407e-01    6,051594019e-01    0,000000000e+00    0,000000000e+00    0,000000000e+00    0,000000000e+00
      184000000    2,099770680e-02   -3,714562207e-02   -1,016651243e-01    7,865821719e-01    0,000000000e+00    0,000000000e+00    0,000000000e+00    0,000000000e+00
      198000000    1,302600466e-02   -6,258577853e-02    3,429931402e-01    7,130900025e-01    0,000000000e+00    0,000000000e+00    0,000000000e+00    0,000000000e+00
      212000000   -1,866719313e-02   -8,162558824e-02    6,782341003e-01    4,105167687e-01    0,000000000e+00    0,000000000e+00    0,000000000e+00    0,000000000e+00
      226000000   -6,203210726e-02   -6,967692822e-02    7,961438894e-01   -2,974743024e-02    0,000000000e+00    0,000000000e+00    0,000000000e+00    0,000000000e+00
      240000000   -8,308055252e-02   -2,604291588e-02    6,468630433e-01   -4,666349888e-01    0,000000000e+00    0,000000000e+00    0,000000000e+00    0,000000000e+00
      254000000   -6,439594924e-02    1,724144258e-02    2,770892978e-01   -7,431958914e-01    0,000000000e+00    0,000000000e+00    0,000000000e+00    0,000000000e+00
      268000000   -2,432350256e-02    2,953273989e-02   -1,770648062e-01   -7,651703358e-01    0,000000000e+00    0,000000000e+00    0,000000000e+00    0,000000000e+00
      282000000    4,095340148e-03    1,214366686e-02   -5,626203418e-01   -5,368628502e-01    0,000000000e+00    0,000000000e+00    0,000000000e+00    0,000000000e+00
      296000000    9,536591358e-03   -7,671730593e-03   -7,607111335e-01   -1,395355910e-01    0,000000000e+00    0,000000000e+00    0,000000000e+00    0,000000000e+00
      310000000    1,095025707e-02   -1,602714136e-02   -7,136747837e-01    2,976092994e-01    0,000000000e+00    0,000000000e+00    0,000000000e+00    0,000000000e+00
      324000000    1,942018047e-02   -2,654503658e-02   -4,282598495e-01    6,382537484e-01    0,000000000e+00    0,000000000e+00    0,000000000e+00    0,000000000e+00
      338000000    2,530828118e-02   -5,188583210e-02   -9,043634869e-03    7,605476975e-01    0,000000000e+00    0,000000000e+00    0,000000000e+00    0,000000000e+00
      352000000    7,389226928e-03   -8,466017246e-02    4,063896835e-01    6,415106058e-01    0,000000000e+00    0,000000000e+00    0,000000000e+00    0,000000000e+00
      366000000   -3,463485837e-02   -9,597408772e-02    6,915619373e-01    3,125608265e-01    0,000000000e+00    0,000000000e+00    0,000000000e+00    0,000000000e+00
      380000000   -7,150141895e-02   -7,110367715e-02    7,487676144e-01   -1,244581193e-01    0,000000000e+00    0,000000000e+00    0,000000000e+00    0,000000000e+00
      394000000   -7,312236726e-02   -3,235398978e-02    5,488258004e-01   -5,214180350e-01    0,000000000e+00    0,000000000e+00    0,000000000e+00    0,000000000e+00
      408000000   -4,686926305e-02   -1,582925767e-02    1,627399027e-01   -7,338472009e-01    0,000000000e+00    0,000000000e+00    0,000000000e+00    0,000000000e+00
      422000000   -2,827782184e-02   -3,152634576e-02   -2,655864656e-01   -6,972447634e-01    0,000000000e+00    0,000000000e+00    0,000000000e+00    0,000000000e+00
      436000000   -4,014012963e-02   -5,202658474e-02   -6,030824780e-01   -4,337540567e-01    0,000000000e+00    0,000000000e+00    0,000000000e+00    0,000000000e+00
      450000000   -6,782686710e-02   -4,455886781e-02   -7,403874993e-01   -2,500872500e-02    0,000000000e+00    0,000000000e+00    0,000000000e+00    0,000000000e+00
      464000000   -7,432365417e-02   -1,229145471e-02   -6,210255623e-01    3,950223923e-01    0,000000000e+00    0,000000000e+00    0,000000000e+00    0,000000000e+00
      478000000   -4,907482117e-02    1,168607268e-02   -2,861157060e-01    6,681132913e-01    0,000000000e+00    0,000000000e+00    0,000000000e+00    0,000000000e+00
      492000000   -1,724379696e-02    6,627098657e-03    1,336438656e-01    7,035044432e-01    0,000000000e+00    0,000000000e+00    0,000000000e+00    0,000000000e+00
      506000000   -3,361686831e-03   -1,510658301e-02    4,976876676e-01    5,061392188e-01    0,000000000e+00    0,000000000e+00    0,000000000e+00    0,000000000e+00
      520000000   -5,948263220e-03   -2,932630479e-02    6,885498762e-01    1,417926848e-01    0,000000000e+00    0,000000000e+00    0,000000000e+00    0,000000000e+00
      534000000   -3,161771921e-03   -3,558110446e-02    6,449823380e-01   -2,593116760e-01    0,000000000e+00    0,000000000e+00    0,000000000e+00    0,000000000e+00
      548000000    8,314297535e-03   -5,270567536e-02    3,849029541e-01   -5,641343594e-01    0,000000000e+00    0,000000000e+00    0,000000000e+00    0,000000000e+00
      562000000    5,704447161e-03   -8,995843679e-02    8,114899509e-03   -6,723953485e-01    0,000000000e+00    0,000000000e+00    0,000000000e+00    0,000000000e+00
      576000000   -3,147286177e-02   -1,260049492e-01   -3,630037606e-01   -5,608987212e-01    0,000000000e+00    0,000000000e+00    0,000000000e+00    0,000000000e+00
      590000000   -9,468333423e-02   -1,275278181e-01   -6,175043583e-01   -2,703939676e-01    0,000000000e+00    0,000000000e+00    0,000000000e+00    0,000000000e+00
      604000000   -1,425295919e-01   -7,819292694e-02   -6,669830084e-01    1,263717264e-01    0,000000000e+00    0,000000000e+00    0,000000000e+00    0,000000000e+00
      618000000   -1,385629177e-01   -1,159034576e-02   -4,753322601e-01    4,854753315e-01    0,000000000e+00    0,000000000e+00    0,000000000e+00    0,000000000e+00
      632000000   -9,301520884e-02    2,221904881e-02   -1,128181517e-01    6,625820994e-01    0,000000000e+00    0,000000000e+00    0,000000000e+00    0,000000000e+00
      646000000   -5,477345735e-02    1,157451514e-02    2,731243074e-01    6,025431752e-01    0,000000000e+00    0,000000000e+00    0,000000000e+00    0,000000000e+00
      660000000   -4,773437604e-02   -7,963886485e-03    5,576817989e-01    3,403546810e-01    0,000000000e+00    0,000000000e+00    0,000000000e+00    0,000000000e+00
      674000000   -5,585800484e-02   -1,104933023e-02    6,444617510e-01   -3,963632137e-02    0,000000000e+00    0,000000000e+00    0,000000000e+00    0,000000000e+00
      688000000   -5,075876042e-02    3,197105136e-03    4,929039180e-01   -4,023844004e-01    0,000000000e+00    0,000000000e+00    0,000000000e+00    0,000000000e+00
      702000000   -2,690230682e-02    7,767339237e-03    1,604501009e-01   -6,086388826e-01    0,000000000e+00    0,000000000e+00    0,000000000e+00    0,000000000e+00
      716000000   -2,467011102e-03   -9,674064815e-03   -2,191573977e-01   -5,761171579e-01    0,000000000e+00    0,000000000e+00    0,000000000e+00    0,000000000e+00
      730000000    1,019530743e-02   -3,482677788e-02   -5,091686845e-01   -3,330560327e-01    0,000000000e+00    0,000000000e+00    0,000000000e+00    0,000000000e+00
      744000000    1,633309759e-02   -6,128088757e-02   -6,005883217e-01    3,303612396e-02    0,000000000e+00    0,000000000e+00    0,000000000e+00    0,000000000e+00
      758000000    2,222418226e-02   -1,040018275e-01   -4,544014931e-01    3,764986992e-01    0,000000000e+00    0,000000000e+00    0,000000000e+00    0,000000000e+00
      772000000   -4,524821881e-03   -1,740736812e-01   -1,397744119e-01    5,588041544e-01    0,000000000e+00    0,000000000e+00    0,000000000e+00    0,000000000e+00
      786000000   -1,054117903e-01   -2,324862033e-01    2,114192098e-01    5,192468762e-01    0,000000000e+00    0,000000000e+00    0,000000000e+00    0,000000000e+00
      800000000   -2,653587162e-01   -1,924935281e-01    4,717164636e-01    2,751474679e-01    0,000000000e+00    0,000000000e+00    0,000000000e+00    0,000000000e+00
      814000000   -3,642000258e-01    2,890828997e-03    5,078116655e-01   -8,861245960e-02    0,000000000e+00    0,000000000e+00    0,000000000e+00    0,000000000e+00
      828000000   -2,473624349e-01    2,328615934e-01    2,810496390e-01   -3,528322875e-01    0,000000000e+00    0,000000000e+00    0,000000000e+00    0,000000000e+00
      842000000    1,248733886e-02    2,779882550e-01   -1,588544808e-02   -3,631234467e-01    0,000000000e+00    0,000000000e+00    0,000000000e+00    0,000000000e+00
      856000000    2,127646953e-01    1,154062152e-01   -1,877326518e-01   -2,045287788e-01    0,000000000e+00    0,000000000e+00    0,000000000e+00    0,000000000e+00
      870000000    2,389315814e-01   -1,489130408e-01   -2,003128231e-01   -2,599230781e-02    0,000000000e+00    0,000000000e+00    0,000000000e+00    0,000000000e+00
      884000000    3,686603531e-02   -3,862781525e-01   -1,035161167e-01    7,088034600e-02    0,000000000e+00    0,000000000e+00    0,000000000e+00    0,000000000e+00
      898000000   -3,695565760e-01   -3,411929607e-01   -1,666066796e-02    2,790864930e-02    0,000000000e+00    0,000000000e+00    0,000000000e+00    0,000000000e+00
      912000000   -4,680522978e-01    1,389034092e-01   -1,182715595e-01    2,198333479e-02    0,000000000e+00    0,000000000e+00    0,000000000e+00    0,000000000e+00
      926000000   -9,470222890e-02    3,537399769e-01   -1,293951720e-01    1,356257200e-01    0,000000000e+00    0,000000000e+00    0,000000000e+00    0,000000000e+00
      940000000    1,859350801e-01    1,927173287e-01   -3,772451356e-02    2,149394900e-01    0,000000000e+00    0,000000000e+00    0,000000000e+00    0,000000000e+00
      954000000    2,575039566e-01   -4,910914227e-02    7,898870111e-02    2,285285443e-01    0,000000000e+00    0,000000000e+00    0,000000000e+00    0,000000000e+00
      968000000    1,744806319e-01   -2,655252516e-01    1,906561255e-01    1,814157069e-01    0,000000000e+00    0,000000000e+00    0,000000000e+00    0,000000000e+00
      982000000   -1,954983920e-02   -3,925265372e-01    2,810088694e-01    7,963116467e-02    0,000000000e+00    0,000000000e+00    0,000000000e+00    0,000000000e+00
      996000000   -2,770062983e-01   -3,775615692e-01    3,109837770e-01   -7,980190963e-02    0,000000000e+00    0,000000000e+00    0,000000000e+00    0,000000000e+00
     1010000000   -4,685128927e-01   -1,686278731e-01    2,226469517e-01   -2,530337572e-01    0,000000000e+00    0,000000000e+00    0,000000000e+00    0,000000000e+00
     1024000000   -4,612701833e-01    1,198468283e-01    1,973108388e-02   -3,287560344e-01    0,000000000e+00    0,000000000e+00    0,000000000e+00    0,000000000e+00
     1038000000   -2,604022920e-01    2,986782491e-01   -1,723056436e-01   -2,498723119e-01    0,000000000e+00    0,000000000e+00    0,000000000e+00    0,000000000e+00
     1052000000   -4,104195908e-02    3,061414361e-01   -2,572807670e-01   -7,599371672e-02    0,000000000e+00    0,000000000e+00    0,000000000e+00    0,000000000e+00
     1066000000    1,277488172e-01    2,082727551e-01   -2,205028832e-01    8,547049761e-02    0,000000000e+00    0,000000000e+00    0,000000000e+00    0,000000000e+00
     1080000000    2,088735104e-01    4,637859762e-02   -1,216096655e-01    1,924873590e-01    0,000000000e+00    0,000000000e+00    0,000000000e+00    0,000000000e+00
     1094000000    2,028150260e-01   -1,276145875e-01    1,749914140e-02    2,353897244e-01    0,000000000e+00    0,000000000e+00    0,000000000e+00    0,000000000e+00
     1108000000    1,027816311e-01   -2,855406404e-01    1,673601866e-01    2,051932514e-01    0,000000000e+00    0,000000000e+00    0,000000000e+00    0,000000000e+00
     1122000000   -1,013553292e-01   -3,667357862e-01    3,182656765e-01    8,977627754e-02    0,000000000e+00    0,000000000e+00    0,000000000e+00    0,000000000e+00
     1136000000   -3,517073393e-01   -2,665386796e-01    3,914048374e-01   -1,505903900e-01    0,000000000e+00    0,000000000e+00    0,000000000e+00    0,000000000e+00
     1150000000   -4,055509269e-01    4,106516391e-02    2,443326116e-01   -4,332616329e-01    0,000000000e+00    0,000000000e+00    0,000000000e+00    0,000000000e+00
     1164000000   -1,583531350e-01    2,135863304e-01   -9,254419059e-02   -5,143864155e-01    0,000000000e+00    0,000000000e+00    0,000000000e+00    0,000000000e+00
     1178000000    7,629081607e-02    8,213004470e-02   -3,553467393e-01   -3,464068472e-01    0,000000000e+00    0,000000000e+00    0,000000000e+00    0,000000000e+00
     1192000000    7,838571072e-02   -1,766299605e-01   -4,533719718e-01   -8,360965550e-02    0,000000000e+00    0,000000000e+00    0,000000000e+00    0,000000000e+00
     1206000000   -1,669740379e-01   -3,263648450e-01   -3,709159195e-01    1,900373548e-01    0,000000000e+00    0,000000000e+00    0,000000000e+00    0,000000000e+00
     1220000000   -4,595155716e-01   -1,783000231e-01   -1,078820825e-01    3,262763619e-01    0,000000000e+00    0,000000000e+00    0,000000000e+00    0,000000000e+00
     1234000000   -4,694905579e-01    1,650280952e-01    1,378024518e-01    2,232430130e-01    0,000000000e+00    0,000000000e+00    0,000000000e+00    0,000000000e+00
     1248000000   -2,389635891e-01    3,584708273e-01    1,888792217e-01    3,897905722e-02    0,000000000e+00    0,000000000e+00    0,000000000e+00    0,000000000e+00
     1262000000    2,249592450e-03    3,291120827e-01    1,225506142e-01   -6,965798885e-02    0,000000000e+00    0,000000000e+00    0,000000000e+00    0,000000000e+00
     1276000000    1,530800909e-01    1,940397769e-01    5,258570984e-02   -9,505694360e-02    0,000000000e+00    0,000000000e+00    0,000000000e+00    0,000000000e+00
     1290000000    2,165491432e-01    3,463576362e-02    1,344233460e-04   -7,202254981e-02    0,000000000e+00    0,000000000e+00    0,000000000e+00    0,000000000e+00
     1304000000    2,017132193e-01   -1,444944143e-01   -2,467946522e-02   -3,272037581e-02    0,000000000e+00    0,000000000e+00    0,000000000e+00    0,000000000e+00
     1318000000    1,166245639e-01   -3,094589114e-01   -6,694943644e-03    2,665704861e-02    0,000000000e+00    0,000000000e+00    0,000000000e+00    0,000000000e+00
     1332000000   -6,579804420e-02   -4,279479980e-01    4,411305115e-02    6,972495466e-02    0,000000000e+00    0,000000000e+00    0,000000000e+00    0,000000000e+00
     1346000000   -3,325880468e-01   -4,343089163e-01    1,388898939e-01    3,832999617e-02    0,000000000e+00    0,000000000e+00    0,000000000e+00    0,000000000e+00
     1360000000   -5,589358211e-01   -2,363216728e-01    1,162117347e-01   -7,183352858e-02    0,000000000e+00    0,000000000e+00    0,000000000e+00    0,000000000e+00
     1374000000   -6,129992604e-01    3,677304089e-02    1,147910804e-01    5,971490219e-02    0,000000000e+00    0,000000000e+00    0,000000000e+00    0,000000000e+00
     1388000000   -5,150279999e-01    2,841564417e-01    2,190156579e-01   -6,174448878e-03    0,000000000e+00    0,000000000e+00    0,000000000e+00    0,000000000e+00
     1402000000   -3,093810976e-01    4,244293571e-01    2,222573608e-01   -8,006371558e-02    0,000000000e+00    0,000000000e+00    0,000000000e+00    0,000000000e+00
     1416000000   -9,636798501e-02    4,222435057e-01    1,802980900e-01   -1,234343201e-01    0,000000000e+00    0,000000000e+00    0,000000000e+00    0,000000000e+00
     1430000000    7,501386106e-02    3,324978054e-01    1,595312506e-01   -9,304969013e-02    0,000000000e+00    0,000000000e+00    0,000000000e+00    0,000000000e+00
     1444000000    1,728798002e-01    2,014872879e-01    1,494470239e-01   -9,864677489e-02    0,000000000e+00    0,000000000e+00    0,000000000e+00    0,000000000e+00
     1458000000    2,239761502e-01    3,918023780e-02    1,594148427e-01   -8,058887720e-02    0,000000000e+00    0,000000000e+00    0,000000000e+00    0,000000000e+00
     1472000000    2,059090883e-01   -1,503383815e-01    1,475988328e-01   -6,500880420e-02    0,000000000e+00    0,000000000e+00    0,000000000e+00    0,000000000e+00
     1486000000    1,095540673e-01   -3,238122463e-01    1,747204810e-01   -7,738823188e-04    0,000000000e+00    0,000000000e+00    0,000000000e+00    0,000000000e+00
     1500000000   -9,517993778e-02   -4,586311579e-01    2,036439329e-01    4,965300113e-02    0,000000000e+00    0,000000000e+00    0,000000000e+00    0,000000000e+00
