! NanoVNA-App
! Date: 2025-09-25 14:25:34
! Start: 100MHz Stop: 1,5GHz Points: 101
! S-Parameter data: F S11 S21 S12 S22
# Hz S RI R 50
!     Frequency           S11_Real           S11_Imag           S21_Real           S21_Imag           S12_Real           S12_Imag           S22_Real           S22_Imag
      100000000   -2,909841947e-02   -4,115538672e-03    3,744793236e-01   -7,220968604e-01    0,000000000e+00    0,000000000e+00    0,000000000e+00    0,000000000e+00
      114000000   -1,662443019e-02    1,159313973e-02   -8,891282231e-02   -8,057447672e-01    0,000000000e+00    0,000000000e+00    0,000000000e+00    0,000000000e+00
      128000000    3,470451571e-03    1,052951626e-02   -5,146570802e-01   -6,210814714e-01    0,000000000e+00    0,000000000e+00    0,000000000e+00    0,000000000e+00
      142000000    1,446359139e-02   -3,083435120e-03   -7,674134374e-01   -2,369098961e-01    0,000000000e+00    0,000000000e+00    0,000000000e+00    0,000000000e+00
      156000000    1,492054481e-02   -1,509199478e-02   -7,679118514e-01    2,224964052e-01    0,000000000e+00    0,000000000e+00    0,000000000e+00    0,000000000e+00
      170000000    1,652393118e-02   -2,246827260e-02   -5,188694000e-01    6,051344872e-01    0,000000000e+00    0,000000000e+00    0,000000000e+00    0,000000000e+00
      184000000    2,099392377e-02   -3,698108718e-02   -1,017439738e-01    7,866910100e-01    0,000000000e+00    0,000000000e+00    0,000000000e+00    0,000000000e+00
      198000000    1,314203721e-02   -6,259495765e-02    3,430806994e-01    7,129706740e-01    0,000000000e+00    0,000000000e+00    0,000000000e+00    0,000000000e+00
      212000000   -1,873371936e-02   -8,177968860e-02    6,781967878e-01    4,105168879e-01    0,000000000e+00    0,000000000e+00    0,000000000e+00    0,000000000e+00
      226000000   -6,212427095e-02   -6,968554854e-02    7,961467505e-01   -2,972522378e-02    0,000000000e+00    0,000000000e+00    0,000000000e+00    0,000000000e+00
      240000000   -8,330178261e-02   -2,611142211e-02    6,473371387e-01   -4,667741060e-01    0,000000000e+00    0,000000000e+00    0,000000000e+00    0,000000000e+00
      254000000   -6,439989060e-02    1,746701635e-02    2,767628133e-01   -7,436327934e-01    0,000000000e+00    0,000000000e+00    0,000000000e+00    0,000000000e+00
      268000000   -2,408338897e-02    2,951142006e-02   -1,769904196e-01   -7,646813989e-01    0,000000000e+00    0,000000000e+00    0,000000000e+00    0,000000000e+00
      282000000    4,194298759e-03    1,212557312e-02   -5,622612238e-01   -5,370162129e-01    0,000000000e+00    0,000000000e+00    0,000000000e+00    0,000000000e+00
      296000000    9,552066214e-03   -7,691267412e-03   -7,605190873e-01   -1,395378411e-01    0,000000000e+00    0,000000000e+00    0,000000000e+00    0,000000000e+00
      310000000    1,080479566e-02   -1,603481174e-02   -7,131475806e-01    2,988546491e-01    0,000000000e+00    0,000000000e+00    0,000000000e+00    0,000000000e+00
      324000000    1,950322837e-02   -2,652532607e-02   -4,290266335e-01    6,369225979e-01    0,000000000e+00    0,000000000e+00    0,000000000e+00    0,000000000e+00
      338000000    2,549392171e-02   -5,191520602e-02   -1,221414935e-02    7,634310722e-01    0,000000000e+00    0,000000000e+00    0,000000000e+00    0,000000000e+00
      352000000    7,586669642e-03   -8,473262191e-02    4,060934782e-01    6,412947178e-01    0,000000000e+00    0,000000000e+00    0,000000000e+00    0,000000000e+00
      366000000   -3,493096679e-02   -9,615854174e-02    6,905372739e-01    3,118820190e-01    0,000000000e+00    0,000000000e+00    0,000000000e+00    0,000000000e+00
      380000000   -7,147493958e-02   -7,111036777e-02    7,489418387e-01   -1,248333082e-01    0,000000000e+00    0,000000000e+00    0,000000000e+00    0,000000000e+00
      394000000   -7,328959554e-02   -3,245693073e-02    5,481705666e-01   -5,220316648e-01    0,000000000e+00    0,000000000e+00    0,000000000e+00    0,000000000e+00
      408000000   -4,695473611e-02   -1,570897177e-02    1,633734852e-01   -7,326110005e-01    0,000000000e+00    0,000000000e+00    0,000000000e+00    0,000000000e+00
      422000000   -2,841613255e-02   -3,148099408e-02   -2,662823498e-01   -6,957561374e-01    0,000000000e+00    0,000000000e+00    0,000000000e+00    0,000000000e+00
      436000000   -4,025882483e-02   -5,193552747e-02   -6,033124924e-01   -4,339762926e-01    0,000000000e+00    0,000000000e+00    0,000000000e+00    0,000000000e+00
      450000000   -6,748586893e-02   -4,505496845e-02   -7,405565977e-01   -2,517432719e-02    0,000000000e+00    0,000000000e+00    0,000000000e+00    0,000000000e+00
      464000000   -7,415357232e-02   -1,235138904e-02   -6,209191680e-01    3,947095573e-01    0,000000000e+00    0,000000000e+00    0,000000000e+00    0,000000000e+00
      478000000   -4,942832887e-02    1,176964864e-02   -2,876374424e-01    6,678048968e-01    0,000000000e+00    0,000000000e+00    0,000000000e+00    0,000000000e+00
      492000000   -1,690845937e-02    6,736240350e-03    1,338136345e-01    7,039325833e-01    0,000000000e+00    0,000000000e+00    0,000000000e+00    0,000000000e+00
      506000000   -3,622235497e-03   -1,510935277e-02    4,979979396e-01    5,060033202e-01    0,000000000e+00    0,000000000e+00    0,000000000e+00    0,000000000e+00
      520000000   -5,461070687e-03   -3,016298451e-02    6,906723976e-01    1,443093717e-01    0,000000000e+00    0,000000000e+00    0,000000000e+00    0,000000000e+00
      534000000   -3,224782879e-03   -3,592592478e-02    6,450979710e-01   -2,600961328e-01    0,000000000e+00    0,000000000e+00    0,000000000e+00    0,000000000e+00
      548000000    8,039583452e-03   -5,246682838e-02    3,851866424e-01   -5,639288425e-01    0,000000000e+00    0,000000000e+00    0,000000000e+00    0,000000000e+00
      562000000    6,048457697e-03   -8,963891119e-02    8,605526760e-03   -6,727555990e-01    0,000000000e+00    0,000000000e+00    0,000000000e+00    0,000000000e+00
      576000000   -3,185636923e-02   -1,262684762e-01   -3,623534441e-01   -5,609984398e-01    0,000000000e+00    0,000000000e+00    0,000000000e+00    0,000000000e+00
      590000000   -9,485903382e-02   -1,276150346e-01   -6,170277596e-01   -2,709746957e-01    0,000000000e+00    0,000000000e+00    0,000000000e+00    0,000000000e+00
      604000000   -1,433174759e-01   -7,757813483e-02   -6,678317785e-01    1,267080158e-01    0,000000000e+00    0,000000000e+00    0,000000000e+00    0,000000000e+00
      618000000   -1,377001107e-01   -1,151708048e-02   -4,753631949e-01    4,864331782e-01    0,000000000e+00    0,000000000e+00    0,000000000e+00    0,000000000e+00
      632000000   -9,373772144e-02    2,173660882e-02   -1,145437211e-01    6,624949574e-01    0,000000000e+00    0,000000000e+00    0,000000000e+00    0,000000000e+00
      646000000   -5,512382463e-02    1,245426480e-02    2,731368542e-01    6,037660241e-01    0,000000000e+00    0,000000000e+00    0,000000000e+00    0,000000000e+00
      660000000   -4,804476351e-02   -9,580100887e-03    5,571889877e-01    3,400757909e-01    0,000000000e+00    0,000000000e+00    0,000000000e+00    0,000000000e+00
      674000000   -5,510355905e-02   -1,099590212e-02    6,443326473e-01   -3,968728706e-02    0,000000000e+00    0,000000000e+00    0,000000000e+00    0,000000000e+00
      688000000   -5,079945177e-02    3,100097412e-03    4,935333729e-01   -4,016218483e-01    0,000000000e+00    0,000000000e+00    0,000000000e+00    0,000000000e+00
      702000000   -2,608248591e-02    7,582711987e-03    1,593775004e-01   -6,097981334e-01    0,000000000e+00    0,000000000e+00    0,000000000e+00    0,000000000e+00
      716000000   -1,632832340e-03   -9,489391930e-03   -2,192356586e-01   -5,750668049e-01    0,000000000e+00    0,000000000e+00    0,000000000e+00    0,000000000e+00
      730000000    1,011057198e-02   -3,431199491e-02   -5,088641047e-01   -3,331533670e-01    0,000000000e+00    0,000000000e+00    0,000000000e+00    0,000000000e+00
      744000000    1,713715680e-02   -6,037263945e-02   -6,009595990e-01    3,267631307e-02    0,000000000e+00    0,000000000e+00    0,000000000e+00    0,000000000e+00
      758000000    2,197868936e-02   -1,031031683e-01   -4,545719326e-01    3,772919774e-01    0,000000000e+00    0,000000000e+00    0,000000000e+00    0,000000000e+00
      772000000   -5,306961481e-03   -1,732502580e-01   -1,396106333e-01    5,579673648e-01    0,000000000e+00    0,000000000e+00    0,000000000e+00    0,000000000e+00
      786000000   -1,047279015e-01   -2,319524139e-01    2,109753639e-01    5,198439360e-01    0,000000000e+00    0,000000000e+00    0,000000000e+00    0,000000000e+00
      800000000   -2,657660246e-01   -1,935272515e-01    4,713748097e-01    2,757727802e-01    0,000000000e+00    0,000000000e+00    0,000000000e+00    0,000000000e+00
      814000000   -3,647112846e-01    4,197862465e-03    5,079700947e-01   -8,867745101e-02    0,000000000e+00    0,000000000e+00    0,000000000e+00    0,000000000e+00
      828000000   -2,482684106e-01    2,332123071e-01    2,816120982e-01   -3,521648645e-01    0,000000000e+00    0,000000000e+00    0,000000000e+00    0,000000000e+00
      842000000    1,313281246e-02    2,785280943e-01   -1,583315991e-02   -3,630539775e-01    0,000000000e+00    0,000000000e+00    0,000000000e+00    0,000000000e+00
      856000000    2,128556818e-01    1,154806539e-01   -1,875285208e-01   -2,054238319e-01    0,000000000e+00    0,000000000e+00    0,000000000e+00    0,000000000e+00
      870000000    2,393717617e-01   -1,487589628e-01   -2,006723583e-01   -2,629262954e-02    0,000000000e+00    0,000000000e+00    0,000000000e+00    0,000000000e+00
      884000000    3,812668100e-02   -3,867491782e-01   -1,044105068e-01    7,040472329e-02    0,000000000e+00    0,000000000e+00    0,000000000e+00    0,000000000e+00
      898000000   -3,689153492e-01   -3,423815668e-01   -1,671360619e-02    2,704871818e-02    0,000000000e+00    0,000000000e+00    0,000000000e+00    0,000000000e+00
      912000000   -4,668633044e-01    1,390727758e-01   -1,228690445e-01    3,108874895e-02    0,000000000e+00    0,000000000e+00    0,000000000e+00    0,000000000e+00
      926000000   -9,362456948e-02    3,520047963e-01   -1,261132658e-01    1,353770941e-01    0,000000000e+00    0,000000000e+00    0,000000000e+00    0,000000000e+00
      940000000    1,844850630e-01    1,924140006e-01   -3,888913989e-02    2,135416716e-01    0,000000000e+00    0,000000000e+00    0,000000000e+00    0,000000000e+00
      954000000    2,564420998e-01   -4,897530004e-02    8,036990464e-02    2,275387198e-01    0,000000000e+00    0,000000000e+00    0,000000000e+00    0,000000000e+00
      968000000    1,769614518e-01   -2,600768507e-01    1,924131811e-01    1,814173609e-01    0,000000000e+00    0,000000000e+00    0,000000000e+00    0,000000000e+00
      982000000   -1,751964353e-02   -3,906526566e-01    2,822104990e-01    7,959672064e-02    0,000000000e+00    0,000000000e+00    0,000000000e+00    0,000000000e+00
      996000000   -2,761916816e-01   -3,773654997e-01    3,093419075e-01   -8,063566685e-02    0,000000000e+00    0,000000000e+00    0,000000000e+00    0,000000000e+00
     1010000000   -4,709342122e-01   -1,754825562e-01    2,216990590e-01   -2,532660067e-01    0,000000000e+00    0,000000000e+00    0,000000000e+00    0,000000000e+00
     1024000000   -4,614011049e-01    1,115109399e-01    2,158275992e-02   -3,279829025e-01    0,000000000e+00    0,000000000e+00    0,000000000e+00    0,000000000e+00
     1038000000   -2,658803165e-01    3,021861613e-01   -1,723834127e-01   -2,479320765e-01    0,000000000e+00    0,000000000e+00    0,000000000e+00    0,000000000e+00
     1052000000   -3,444564715e-02    3,067002296e-01   -2,570767403e-01   -7,784663886e-02    0,000000000e+00    0,000000000e+00    0,000000000e+00    0,000000000e+00
     1066000000    1,230593398e-01    2,041527033e-01   -2,214623541e-01    8,227743953e-02    0,000000000e+00    0,000000000e+00    0,000000000e+00    0,000000000e+00
     1080000000    2,079733461e-01    4,453663528e-02   -1,218775064e-01    1,923859715e-01    0,000000000e+00    0,000000000e+00    0,000000000e+00    0,000000000e+00
     1094000000    2,008803189e-01   -1,254002154e-01    1,715386659e-02    2,342841327e-01    0,000000000e+00    0,000000000e+00    0,000000000e+00    0,000000000e+00
     1108000000    1,030823141e-01   -2,870961130e-01    1,688071340e-01    2,070164979e-01    0,000000000e+00    0,000000000e+00    0,000000000e+00    0,000000000e+00
     1122000000   -1,026946381e-01   -3,713073432e-01    3,148847222e-01    8,736022562e-02    0,000000000e+00    0,000000000e+00    0,000000000e+00    0,000000000e+00
     1136000000   -3,443470895e-01   -2,725097835e-01    3,913550079e-01   -1,517479569e-01    0,000000000e+00    0,000000000e+00    0,000000000e+00    0,000000000e+00
     1150000000   -4,125366211e-01    3,879358992e-02    2,480984926e-01   -4,362090826e-01    0,000000000e+00    0,000000000e+00    0,000000000e+00    0,000000000e+00
     1164000000   -1,565716416e-01    2,210886329e-01   -9,283697605e-02   -5,144901276e-01    0,000000000e+00    0,000000000e+00    0,000000000e+00    0,000000000e+00
     1178000000    7,686635852e-02    8,185070753e-02   -3,552681208e-01   -3,480417132e-01    0,000000000e+00    0,000000000e+00    0,000000000e+00    0,000000000e+00
     1192000000    7,260111719e-02   -1,735369116e-01   -4,548350275e-01   -8,353701234e-02    0,000000000e+00    0,000000000e+00    0,000000000e+00    0,000000000e+00
     1206000000   -1,625176668e-01   -3,242999315e-01   -3,701179624e-01    1,905906796e-01    0,000000000e+00    0,000000000e+00    0,000000000e+00    0,000000000e+00
     1220000000   -4,506514668e-01   -1,773539186e-01   -1,029666290e-01    3,288665116e-01    0,000000000e+00    0,000000000e+00    0,000000000e+00    0,000000000e+00
     1234000000   -4,794088900e-01    1,655776054e-01    1,363656372e-01    2,230267972e-01    0,000000000e+00    0,000000000e+00    0,000000000e+00    0,000000000e+00
     1248000000   -2,325109988e-01    3,567088842e-01    1,917943209e-01    4,002560675e-02    0,000000000e+00    0,000000000e+00    0,000000000e+00    0,000000000e+00
     1262000000   -2,878048108e-04    3,328096867e-01    1,264023185e-01   -6,943348795e-02    0,000000000e+00    0,000000000e+00    0,000000000e+00    0,000000000e+00
     1276000000    1,603507847e-01    2,023656815e-01    5,975107476e-02   -9,258776903e-02    0,000000000e+00    0,000000000e+00    0,000000000e+00    0,000000000e+00
     1290000000    2,164450586e-01    2,968646586e-02    4,524652613e-04   -7,860966027e-02    0,000000000e+00    0,000000000e+00    0,000000000e+00    0,000000000e+00
     1304000000    2,055248171e-01   -1,471414417e-01   -1,523099374e-02   -2,978329733e-02    0,000000000e+00    0,000000000e+00    0,000000000e+00    0,000000000e+00
     1318000000    1,146835461e-01   -3,099052906e-01   -9,303405881e-03    2,126760595e-02    0,000000000e+00    0,000000000e+00    0,000000000e+00    0,000000000e+00
     1332000000   -6,753727049e-02   -4,313291907e-01    5,033567548e-02    6,692674756e-02    0,000000000e+00    0,000000000e+00    0,000000000e+00    0,000000000e+00
     1346000000   -3,269272447e-01   -4,389291406e-01    1,472896338e-01    3,862758726e-02    0,000000000e+00    0,000000000e+00    0,000000000e+00    0,000000000e+00
     1360000000   -5,554216504e-01   -2,452448010e-01    1,114587560e-01   -7,860801369e-02    0,000000000e+00    0,000000000e+00    0,000000000e+00    0,000000000e+00
     1374000000   -6,176502109e-01    3,703544661e-02    1,132288799e-01    6,848485023e-02    0,000000000e+00    0,000000000e+00    0,000000000e+00    0,000000000e+00
     1388000000   -5,086908937e-01    2,860444486e-01    2,339216471e-01   -7,206505165e-03    0,000000000e+00    0,000000000e+00    0,000000000e+00    0,000000000e+00
     1402000000   -3,120986819e-01    4,230287075e-01    2,181063294e-01   -7,828737050e-02    0,000000000e+00    0,000000000e+00    0,000000000e+00    0,000000000e+00
     1416000000   -8,898624778e-02    4,261223972e-01    1,898697764e-01   -1,050955206e-01    0,000000000e+00    0,000000000e+00    0,000000000e+00    0,000000000e+00
     1430000000    7,790106535e-02    3,323112130e-01    1,778281182e-01   -1,330359578e-01    0,000000000e+00    0,000000000e+00    0,000000000e+00    0,000000000e+00
     1444000000    1,809630841e-01    1,979292780e-01    1,588667929e-01   -9,398663044e-02    0,000000000e+00    0,000000000e+00    0,000000000e+00    0,000000000e+00
     1458000000    2,237554938e-01    3,667107970e-02    1,587691903e-01   -8,929261565e-02    0,000000000e+00    0,000000000e+00    0,000000000e+00    0,000000000e+00
     1472000000    2,078692764e-01   -1,485656500e-01    1,568909287e-01   -5,141787231e-02    0,000000000e+00    0,000000000e+00    0,000000000e+00    0,000000000e+00
     1486000000    1,058320925e-01   -3,284850419e-01    1,655898094e-01   -4,023867194e-03    0,000000000e+00    0,000000000e+00    0,000000000e+00    0,000000000e+00
     1500000000   -9,250855446e-02   -4,640099406e-01    2,237200290e-01    5,197546259e-02    0,000000000e+00    0,000000000e+00    0,000000000e+00    0,000000000e+00
