! NanoVNA-App
! Date: 2025-09-25 14:26:06
! Start: 100MHz Stop: 1,5GHz Points: 101
! S-Parameter data: F S11 S21 S12 S22
# Hz S RI R 50
!     Frequency           S11_Real           S11_Imag           S21_Real           S21_Imag           S12_Real           S12_Imag           S22_Real           S22_Imag
      100000000   -2,910351939e-02   -4,127365537e-03    3,745462894e-01   -7,220253348e-01    0,000000000e+00    0,000000000e+00    0,000000000e+00    0,000000000e+00
      114000000   -1,660647243e-02    1,159007940e-02   -8,882664144e-02   -8,056640625e-01    0,000000000e+00    0,000000000e+00    0,000000000e+00    0,000000000e+00
      128000000    3,428173717e-03    1,055770833e-02   -5,146175027e-01   -6,209632158e-01    0,000000000e+00    0,000000000e+00    0,000000000e+00    0,000000000e+00
      142000000    1,443478651e-02   -3,077466274e-03   -7,676519752e-01   -2,369700670e-01    0,000000000e+00    0,000000000e+00    0,000000000e+00    0,000000000e+00
      156000000    1,522458438e-02   -1,485134475e-02   -7,721450925e-01    2,215009481e-01    0,000000000e+00    0,000000000e+00    0,000000000e+00    0,000000000e+00
      170000000    1,655572839e-02   -2,246417291e-02   -5,189358592e-01    6,051079035e-01    0,000000000e+00    0,000000000e+00    0,000000000e+00    0,000000000e+00
      184000000    2,099889331e-02   -3,701946139e-02   -1,018167362e-01    7,867341042e-01    0,000000000e+00    0,000000000e+00    0,000000000e+00    0,000000000e+00
      198000000    1,315134577e-02   -6,261692941e-02    3,430588245e-01    7,131556273e-01    0,000000000e+00    0,000000000e+00    0,000000000e+00    0,000000000e+00
      212000000   -1,872660033e-02   -8,172936738e-02    6,781075597e-01    4,102549255e-01    0,000000000e+00    0,000000000e+00    0,000000000e+00    0,000000000e+00
      226000000   -6,208699942e-02   -6,975208223e-02    7,961351871e-01   -2,965560369e-02    0,000000000e+00    0,000000000e+00    0,000000000e+00    0,000000000e+00
      240000000   -8,331667632e-02   -2,599861473e-02    6,471549869e-01   -4,668415487e-01    0,000000000e+00    0,000000000e+00    0,000000000e+00    0,000000000e+00
      254000000   -6,435018778e-02    1,745843329e-02    2,773975730e-01   -7,436723709e-01    0,000000000e+00    0,000000000e+00    0,000000000e+00    0,000000000e+00
      268000000   -2,394976467e-02    2,941875719e-02   -1,763803363e-01   -7,649599910e-01    0,000000000e+00    0,000000000e+00    0,000000000e+00    0,000000000e+00
      282000000    4,044696223e-03    1,205574721e-02   -5,625101924e-01   -5,376517177e-01    0,000000000e+00    0,000000000e+00    0,000000000e+00    0,000000000e+00
      296000000    9,551064111e-03   -7,737737149e-03   -7,607517242e-01   -1,395017654e-01    0,000000000e+00    0,000000000e+00    0,000000000e+00    0,000000000e+00
      310000000    1,082952693e-02   -1,615000330e-02   -7,137942314e-01    2,982857525e-01    0,000000000e+00    0,000000000e+00    0,000000000e+00    0,000000000e+00
      324000000    1,937401854e-02   -2,670301497e-02   -4,289708734e-01    6,381559372e-01    0,000000000e+00    0,000000000e+00    0,000000000e+00    0,000000000e+00
      338000000    2,532125264e-02   -5,206664652e-02   -1,036665030e-02    7,595971227e-01    0,000000000e+00    0,000000000e+00    0,000000000e+00    0,000000000e+00
      352000000    7,333257236e-03   -8,471363038e-02    4,062299430e-01    6,406271458e-01    0,000000000e+00    0,000000000e+00    0,000000000e+00    0,000000000e+00
      366000000   -3,466193378e-02   -9,589318931e-02    6,909603477e-01    3,129120469e-01    0,000000000e+00    0,000000000e+00    0,000000000e+00    0,000000000e+00
      380000000   -7,150624692e-02   -7,138433307e-02    7,487849593e-01   -1,251641363e-01    0,000000000e+00    0,000000000e+00    0,000000000e+00    0,000000000e+00
      394000000   -7,297567278e-02   -3,249057755e-02    5,495293140e-01   -5,216438174e-01    0,000000000e+00    0,000000000e+00    0,000000000e+00    0,000000000e+00
      408000000   -4,703140259e-02   -1,578287221e-02    1,620662659e-01   -7,337179184e-01    0,000000000e+00    0,000000000e+00    0,000000000e+00    0,000000000e+00
      422000000   -2,821980976e-02   -3,148424625e-02   -2,659069598e-01   -6,959252954e-01    0,000000000e+00    0,000000000e+00    0,000000000e+00    0,000000000e+00
      436000000   -3,997363150e-02   -5,198747665e-02   -6,029022336e-01   -4,336277843e-01    0,000000000e+00    0,000000000e+00    0,000000000e+00    0,000000000e+00
      450000000   -6,734034419e-02   -4,520902783e-02   -7,401086688e-01   -2,468110248e-02    0,000000000e+00    0,000000000e+00    0,000000000e+00    0,000000000e+00
      464000000   -7,436418533e-02   -1,252146531e-02   -6,215834618e-01    3,945075572e-01    0,000000000e+00    0,000000000e+00    0,000000000e+00    0,000000000e+00
      478000000   -4,925771803e-02    1,180429477e-02   -2,862704396e-01    6,680392027e-01    0,000000000e+00    0,000000000e+00    0,000000000e+00    0,000000000e+00
      492000000   -1,698571816e-02    6,353995763e-03    1,343505234e-01    7,036358118e-01    0,000000000e+00    0,000000000e+00    0,000000000e+00    0,000000000e+00
      506000000   -3,698447254e-03   -1,496854145e-02    4,975261390e-01    5,066478252e-01    0,000000000e+00    0,000000000e+00    0,000000000e+00    0,000000000e+00
      520000000   -5,968259182e-03   -2,942711674e-02    6,868742704e-01    1,451753825e-01    0,000000000e+00    0,000000000e+00    0,000000000e+00    0,000000000e+00
      534000000   -3,115718020e-03   -3,584251180e-02    6,449947357e-01   -2,600264549e-01    0,000000000e+00    0,000000000e+00    0,000000000e+00    0,000000000e+00
      548000000    8,138583973e-03   -5,247376859e-02    3,848933578e-01   -5,639441013e-01    0,000000000e+00    0,000000000e+00    0,000000000e+00    0,000000000e+00
      562000000    5,626874976e-03   -8,976838738e-02    8,358814754e-03   -6,722114682e-01    0,000000000e+00    0,000000000e+00    0,000000000e+00    0,000000000e+00
      576000000   -3,164540231e-02   -1,261807978e-01   -3,625655472e-01   -5,615500212e-01    0,000000000e+00    0,000000000e+00    0,000000000e+00    0,000000000e+00
      590000000   -9,507863224e-02   -1,274293810e-01   -6,182904243e-01   -2,716450393e-01    0,000000000e+00    0,000000000e+00    0,000000000e+00    0,000000000e+00
      604000000   -1,431533247e-01   -7,766628265e-02   -6,670405865e-01    1,265547872e-01    0,000000000e+00    0,000000000e+00    0,000000000e+00    0,000000000e+00
      618000000   -1,379089206e-01   -1,160702948e-02   -4,754045606e-01    4,849939644e-01    0,000000000e+00    0,000000000e+00    0,000000000e+00    0,000000000e+00
      632000000   -9,281702340e-02    2,127268724e-02   -1,151374727e-01    6,637997031e-01    0,000000000e+00    0,000000000e+00    0,000000000e+00    0,000000000e+00
      646000000   -5,465481803e-02    1,217501890e-02    2,742850482e-01    6,039459109e-01    0,000000000e+00    0,000000000e+00    0,000000000e+00    0,000000000e+00
      660000000   -4,813588411e-02   -7,981599309e-03    5,574223399e-01    3,397176266e-01    0,000000000e+00    0,000000000e+00    0,000000000e+00    0,000000000e+00
      674000000   -5,544883385e-02   -1,116893627e-02    6,445936561e-01   -3,945845366e-02    0,000000000e+00    0,000000000e+00    0,000000000e+00    0,000000000e+00
      688000000   -4,976928234e-02    2,704413375e-03    4,938099980e-01   -4,016500115e-01    0,000000000e+00    0,000000000e+00    0,000000000e+00    0,000000000e+00
      702000000   -2,569315396e-02    8,336927742e-03    1,567135155e-01   -6,003862619e-01    0,000000000e+00    0,000000000e+00    0,000000000e+00    0,000000000e+00
      716000000   -1,495989622e-03   -9,566481225e-03   -2,189010084e-01   -5,761408210e-01    0,000000000e+00    0,000000000e+00    0,000000000e+00    0,000000000e+00
      730000000    9,237314574e-03   -3,500211611e-02   -5,089532137e-01   -3,332432508e-01    0,000000000e+00    0,000000000e+00    0,000000000e+00    0,000000000e+00
      744000000    1,668555848e-02   -6,151480973e-02   -6,006757021e-01    3,257342428e-02    0,000000000e+00    0,000000000e+00    0,000000000e+00    0,000000000e+00
      758000000    2,268578671e-02   -1,038354933e-01   -4,546064138e-01    3,772861660e-01    0,000000000e+00    0,000000000e+00    0,000000000e+00    0,000000000e+00
      772000000   -4,188562278e-03   -1,732745022e-01   -1,404024363e-01    5,572640300e-01    0,000000000e+00    0,000000000e+00    0,000000000e+00    0,000000000e+00
      786000000   -1,054479182e-01   -2,329961956e-01    2,121595889e-01    5,199714899e-01    0,000000000e+00    0,000000000e+00    0,000000000e+00    0,000000000e+00
      800000000   -2,664849162e-01   -1,926188469e-01    4,723053277e-01    2,747117877e-01    0,000000000e+00    0,000000000e+00    0,000000000e+00    0,000000000e+00
      814000000   -3,634087443e-01    3,449319629e-03    5,079230666e-01   -8,862767369e-02    0,000000000e+00    0,000000000e+00    0,000000000e+00    0,000000000e+00
      828000000   -2,480479330e-01    2,329938412e-01    2,820166647e-01   -3,524802625e-01    0,000000000e+00    0,000000000e+00    0,000000000e+00    0,000000000e+00
      842000000    1,371695567e-02    2,780179083e-01   -1,563251950e-02   -3,628251851e-01    0,000000000e+00    0,000000000e+00    0,000000000e+00    0,000000000e+00
      856000000    2,130493075e-01    1,158191264e-01   -1,875876188e-01   -2,047698051e-01    0,000000000e+00    0,000000000e+00    0,000000000e+00    0,000000000e+00
      870000000    2,385824770e-01   -1,487724632e-01   -2,005617172e-01   -2,561300620e-02    0,000000000e+00    0,000000000e+00    0,000000000e+00    0,000000000e+00
      884000000    3,760033473e-02   -3,862001002e-01   -1,042090878e-01    7,072666287e-02    0,000000000e+00    0,000000000e+00    0,000000000e+00    0,000000000e+00
      898000000   -3,688803315e-01   -3,415778279e-01   -1,660732366e-02    2,805809677e-02    0,000000000e+00    0,000000000e+00    0,000000000e+00    0,000000000e+00
      912000000   -4,674844146e-01    1,370924115e-01   -1,245883405e-01    3,442254663e-02    0,000000000e+00    0,000000000e+00    0,000000000e+00    0,000000000e+00
      926000000   -9,400862455e-02    3,512043655e-01   -1,257675737e-01    1,362189054e-01    0,000000000e+00    0,000000000e+00    0,000000000e+00    0,000000000e+00
      940000000    1,842207015e-01    1,956728846e-01   -3,903494775e-02    2,153832912e-01    0,000000000e+00    0,000000000e+00    0,000000000e+00    0,000000000e+00
      954000000    2,531976700e-01   -4,704688489e-02    7,985157520e-02    2,275149971e-01    0,000000000e+00    0,000000000e+00    0,000000000e+00    0,000000000e+00
      968000000    1,779602766e-01   -2,611784935e-01    1,918246895e-01    1,816401780e-01    0,000000000e+00    0,000000000e+00    0,000000000e+00    0,000000000e+00
      982000000   -1,482988428e-02   -3,913469911e-01    2,787260115e-01    7,904763520e-02    0,000000000e+00    0,000000000e+00    0,000000000e+00    0,000000000e+00
      996000000   -2,720786929e-01   -3,781817555e-01    3,095311821e-01   -7,930369675e-02    0,000000000e+00    0,000000000e+00    0,000000000e+00    0,000000000e+00
     1010000000   -4,728005528e-01   -1,740132421e-01    2,238513678e-01   -2,530971467e-01    0,000000000e+00    0,000000000e+00    0,000000000e+00    0,000000000e+00
     1024000000   -4,595905840e-01    1,140083745e-01    1,975775510e-02   -3,296415508e-01    0,000000000e+00    0,000000000e+00    0,000000000e+00    0,000000000e+00
     1038000000   -2,611643970e-01    2,984878421e-01   -1,733628809e-01   -2,469138205e-01    0,000000000e+00    0,000000000e+00    0,000000000e+00    0,000000000e+00
     1052000000   -3,352076560e-02    3,097206950e-01   -2,571983635e-01   -7,899207622e-02    0,000000000e+00    0,000000000e+00    0,000000000e+00    0,000000000e+00
     1066000000    1,274741590e-01    2,087289393e-01   -2,224485725e-01    8,437382430e-02    0,000000000e+00    0,000000000e+00    0,000000000e+00    0,000000000e+00
     1080000000    2,054904401e-01    4,912361875e-02   -1,218871698e-01    1,925331652e-01    0,000000000e+00    0,000000000e+00    0,000000000e+00    0,000000000e+00
     1094000000    2,056812048e-01   -1,289969236e-01    1,774329320e-02    2,328713834e-01    0,000000000e+00    0,000000000e+00    0,000000000e+00    0,000000000e+00
     1108000000    1,020720303e-01   -2,833081186e-01    1,684178561e-01    2,064363211e-01    0,000000000e+00    0,000000000e+00    0,000000000e+00    0,000000000e+00
     1122000000   -1,020499840e-01   -3,702168167e-01    3,182485104e-01    8,865232021e-02    0,000000000e+00    0,000000000e+00    0,000000000e+00    0,000000000e+00
     1136000000   -3,410056531e-01   -2,677488029e-01    3,894558847e-01   -1,521488875e-01    0,000000000e+00    0,000000000e+00    0,000000000e+00    0,000000000e+00
     1150000000   -4,069103599e-01    4,095812514e-02    2,410425991e-01   -4,359445870e-01    0,000000000e+00    0,000000000e+00    0,000000000e+00    0,000000000e+00
     1164000000   -1,637466699e-01    2,210522741e-01   -9,673569351e-02   -5,153209567e-01    0,000000000e+00    0,000000000e+00    0,000000000e+00    0,000000000e+00
     1178000000    7,858850062e-02    8,517328650e-02   -3,546908498e-01   -3,465287685e-01    0,000000000e+00    0,000000000e+00    0,000000000e+00    0,000000000e+00
     1192000000    7,419112325e-02   -1,777306050e-01   -4,534613788e-01   -8,538135886e-02    0,000000000e+00    0,000000000e+00    0,000000000e+00    0,000000000e+00
     1206000000   -1,651176810e-01   -3,214977086e-01   -3,692915738e-01    1,911636889e-01    0,000000000e+00    0,000000000e+00    0,000000000e+00    0,000000000e+00
     1220000000   -4,585319757e-01   -1,777296364e-01   -1,085787788e-01    3,263460696e-01    0,000000000e+00    0,000000000e+00    0,000000000e+00    0,000000000e+00
     1234000000   -4,758243561e-01    1,635818332e-01    1,369734704e-01    2,215001434e-01    0,000000000e+00    0,000000000e+00    0,000000000e+00    0,000000000e+00
     1248000000   -2,363518625e-01    3,569689393e-01    1,960211247e-01    3,937435150e-02    0,000000000e+00    0,000000000e+00    0,000000000e+00    0,000000000e+00
     1262000000    1,365280361e-03    3,325822353e-01    1,276111305e-01   -7,085653394e-02    0,000000000e+00    0,000000000e+00    0,000000000e+00    0,000000000e+00
     1276000000    1,533108205e-01    1,956727803e-01    5,170900375e-02   -9,622790664e-02    0,000000000e+00    0,000000000e+00    0,000000000e+00    0,000000000e+00
     1290000000    2,179735601e-01    3,258712217e-02   -6,139170146e-04   -6,890129298e-02    0,000000000e+00    0,000000000e+00    0,000000000e+00    0,000000000e+00
     1304000000    2,053475827e-01   -1,442933381e-01   -1,991661824e-02   -3,024867177e-02    0,000000000e+00    0,000000000e+00    0,000000000e+00    0,000000000e+00
     1318000000    1,181661189e-01   -3,133165538e-01   -4,354795441e-03    2,330680192e-02    0,000000000e+00    0,000000000e+00    0,000000000e+00    0,000000000e+00
     1332000000   -6,733766198e-02   -4,312400222e-01    5,455186591e-02    6,699190289e-02    0,000000000e+00    0,000000000e+00    0,000000000e+00    0,000000000e+00
     1346000000   -3,307671547e-01   -4,316264689e-01    1,469906121e-01    5,203156546e-02    0,000000000e+00    0,000000000e+00    0,000000000e+00    0,000000000e+00
     1360000000   -5,593556166e-01   -2,392395884e-01    1,168736517e-01   -7,682333142e-02    0,000000000e+00    0,000000000e+00    0,000000000e+00    0,000000000e+00
     1374000000   -6,294612885e-01    3,258953616e-02    1,055156291e-01    6,287249923e-02    0,000000000e+00    0,000000000e+00    0,000000000e+00    0,000000000e+00
     1388000000   -5,236467719e-01    2,849175334e-01    2,215964645e-01   -8,990046568e-03    0,000000000e+00    0,000000000e+00    0,000000000e+00    0,000000000e+00
     1402000000   -3,040557802e-01    4,133076370e-01    2,271891683e-01   -9,278608859e-02    0,000000000e+00    0,000000000e+00    0,000000000e+00    0,000000000e+00
     1416000000   -9,213251621e-02    4,250232875e-01    1,834712923e-01   -1,148087531e-01    0,000000000e+00    0,000000000e+00    0,000000000e+00    0,000000000e+00
     1430000000    7,138248533e-02    3,310247064e-01    1,597594172e-01   -1,415673196e-01    0,000000000e+00    0,000000000e+00    0,000000000e+00    0,000000000e+00
     1444000000    1,773199141e-01    1,984294057e-01    1,617100090e-01   -1,075690687e-01    0,000000000e+00    0,000000000e+00    0,000000000e+00    0,000000000e+00
     1458000000    2,207785696e-01    3,591159359e-02    1,440334320e-01   -8,164405078e-02    0,000000000e+00    0,000000000e+00    0,000000000e+00    0,000000000e+00
     1472000000    2,089026868e-01   -1,444974244e-01    1,577723026e-01   -4,603747278e-02    0,000000000e+00    0,000000000e+00    0,000000000e+00    0,000000000e+00
     1486000000    1,012766138e-01   -3,218306005e-01    1,730164140e-01    7,178160828e-03    0,000000000e+00    0,000000000e+00    0,000000000e+00    0,000000000e+00
     1500000000   -9,285052121e-02   -4,554141760e-01    2,010538727e-01    5,692839622e-02    0,000000000e+00    0,000000000e+00    0,000000000e+00    0,000000000e+00
