! NanoVNA-App
! Date: 2025-09-25 14:25:56
! Start: 100MHz Stop: 1,5GHz Points: 101
! S-Parameter data: F S11 S21 S12 S22
# Hz S RI R 50
!     Frequency           S11_Real           S11_Imag           S21_Real           S21_Imag           S12_Real           S12_Imag           S22_Real           S22_Imag
      100000000   -2,908874117e-02   -4,120774101e-03    3,744494319e-01   -7,219943404e-01    0,000000000e+00    0,000000000e+00    0,000000000e+00    0,000000000e+00
      114000000   -1,660430245e-02    1,162546314e-02   -8,888923377e-02   -8,059443831e-01    0,000000000e+00    0,000000000e+00    0,000000000e+00    0,000000000e+00
      128000000    3,439796623e-03    1,052632183e-02   -5,144617558e-01   -6,209314466e-01    0,000000000e+00    0,000000000e+00    0,000000000e+00    0,000000000e+00
      142000000    1,445490960e-02   -3,080493305e-03   -7,675322294e-01   -2,369367629e-01    0,000000000e+00    0,000000000e+00    0,000000000e+00    0,000000000e+00
      156000000    1,432059053e-02   -1,505418308e-02   -7,644099593e-01    2,187732011e-01    0,000000000e+00    0,000000000e+00    0,000000000e+00    0,000000000e+00
      170000000    1,649457216e-02   -2,244781703e-02   -5,185533166e-01    6,048736572e-01    0,000000000e+00    0,000000000e+00    0,000000000e+00    0,000000000e+00
      184000000    2,098033577e-02   -3,703070432e-02   -1,021145284e-01    7,869055867e-01    0,000000000e+00    0,000000000e+00    0,000000000e+00    0,000000000e+00
      198000000    1,312638633e-02   -6,260659546e-02    3,430075943e-01    7,128596306e-01    0,000000000e+00    0,000000000e+00    0,000000000e+00    0,000000000e+00
      212000000   -1,870865189e-02   -8,169408143e-02    6,782234311e-01    4,105620682e-01    0,000000000e+00    0,000000000e+00    0,000000000e+00    0,000000000e+00
      226000000   -6,206815690e-02   -6,967107207e-02    7,961641550e-01   -2,980633453e-02    0,000000000e+00    0,000000000e+00    0,000000000e+00    0,000000000e+00
      240000000   -8,328383416e-02   -2,606055513e-02    6,470618844e-01   -4,666547477e-01    0,000000000e+00    0,000000000e+00    0,000000000e+00    0,000000000e+00
      254000000   -6,436541677e-02    1,746895537e-02    2,769471109e-01   -7,431414723e-01    0,000000000e+00    0,000000000e+00    0,000000000e+00    0,000000000e+00
      268000000   -2,407193929e-02    2,943139337e-02   -1,767954379e-01   -7,650151253e-01    0,000000000e+00    0,000000000e+00    0,000000000e+00    0,000000000e+00
      282000000    4,072622862e-03    1,217412949e-02   -5,625833869e-01   -5,368740559e-01    0,000000000e+00    0,000000000e+00    0,000000000e+00    0,000000000e+00
      296000000    9,639364667e-03   -7,740800269e-03   -7,607331276e-01   -1,396003366e-01    0,000000000e+00    0,000000000e+00    0,000000000e+00    0,000000000e+00
      310000000    1,084481552e-02   -1,613644138e-02   -7,135084271e-01    2,968327105e-01    0,000000000e+00    0,000000000e+00    0,000000000e+00    0,000000000e+00
      324000000    1,946737058e-02   -2,628248557e-02   -4,295597970e-01    6,388773918e-01    0,000000000e+00    0,000000000e+00    0,000000000e+00    0,000000000e+00
      338000000    2,552076615e-02   -5,217001215e-02   -1,033793390e-02    7,631523013e-01    0,000000000e+00    0,000000000e+00    0,000000000e+00    0,000000000e+00
      352000000    7,197805215e-03   -8,496411145e-02    4,059424996e-01    6,409098506e-01    0,000000000e+00    0,000000000e+00    0,000000000e+00    0,000000000e+00
      366000000   -3,481357545e-02   -9,627711773e-02    6,910782456e-01    3,122311234e-01    0,000000000e+00    0,000000000e+00    0,000000000e+00    0,000000000e+00
      380000000   -7,155305892e-02   -7,120238990e-02    7,480270863e-01   -1,244720295e-01    0,000000000e+00    0,000000000e+00    0,000000000e+00    0,000000000e+00
      394000000   -7,305987924e-02   -3,239605203e-02    5,480658412e-01   -5,207054615e-01    0,000000000e+00    0,000000000e+00    0,000000000e+00    0,000000000e+00
      408000000   -4,696528614e-02   -1,583747007e-02    1,631059051e-01   -7,332779765e-01    0,000000000e+00    0,000000000e+00    0,000000000e+00    0,000000000e+00
      422000000   -2,811966464e-02   -3,142984211e-02   -2,654650509e-01   -6,951837540e-01    0,000000000e+00    0,000000000e+00    0,000000000e+00    0,000000000e+00
      436000000   -4,004072025e-02   -5,201387405e-02   -6,024010181e-01   -4,332790375e-01    0,000000000e+00    0,000000000e+00    0,000000000e+00    0,000000000e+00
      450000000   -6,778242439e-02   -4,488764331e-02   -7,404489517e-01   -2,500233799e-02    0,000000000e+00    0,000000000e+00    0,000000000e+00    0,000000000e+00
      464000000   -7,395806909e-02   -1,223699469e-02   -6,212903261e-01    3,946346641e-01    0,000000000e+00    0,000000000e+00    0,000000000e+00    0,000000000e+00
      478000000   -4,909954220e-02    1,183628011e-02   -2,868314087e-01    6,680648327e-01    0,000000000e+00    0,000000000e+00    0,000000000e+00    0,000000000e+00
      492000000   -1,733318716e-02    6,599946413e-03    1,333285719e-01    7,037540078e-01    0,000000000e+00    0,000000000e+00    0,000000000e+00    0,000000000e+00
      506000000   -3,588994034e-03   -1,515719201e-02    4,974498451e-01    5,064773560e-01    0,000000000e+00    0,000000000e+00    0,000000000e+00    0,000000000e+00
      520000000   -5,998763721e-03   -2,977129072e-02    6,885250211e-01    1,431392878e-01    0,000000000e+00    0,000000000e+00    0,000000000e+00    0,000000000e+00
      534000000   -3,486929229e-03   -3,585268930e-02    6,450127363e-01   -2,594170868e-01    0,000000000e+00    0,000000000e+00    0,000000000e+00    0,000000000e+00
      548000000    8,243410848e-03   -5,260962993e-02    3,856808245e-01   -5,641207099e-01    0,000000000e+00    0,000000000e+00    0,000000000e+00    0,000000000e+00
      562000000    5,853048526e-03   -8,942040801e-02    8,699268103e-03   -6,717510223e-01    0,000000000e+00    0,000000000e+00    0,000000000e+00    0,000000000e+00
      576000000   -3,152195364e-02   -1,259074509e-01   -3,625133038e-01   -5,607485175e-01    0,000000000e+00    0,000000000e+00    0,000000000e+00    0,000000000e+00
      590000000   -9,510240704e-02   -1,278066933e-01   -6,188108921e-01   -2,719433308e-01    0,000000000e+00    0,000000000e+00    0,000000000e+00    0,000000000e+00
      604000000   -1,432736963e-01   -7,810854912e-02   -6,674067378e-01    1,260560155e-01    0,000000000e+00    0,000000000e+00    0,000000000e+00    0,000000000e+00
      618000000   -1,379679292e-01   -1,172104944e-02   -4,748505354e-01    4,856244922e-01    0,000000000e+00    0,000000000e+00    0,000000000e+00    0,000000000e+00
      632000000   -9,284589440e-02    2,154118754e-02   -1,142832115e-01    6,630697250e-01    0,000000000e+00    0,000000000e+00    0,000000000e+00    0,000000000e+00
      646000000   -5,450710654e-02    1,185247768e-02    2,738257349e-01    6,034883857e-01    0,000000000e+00    0,000000000e+00    0,000000000e+00    0,000000000e+00
      660000000   -4,770610482e-02   -8,379457518e-03    5,580590367e-01    3,403235972e-01    0,000000000e+00    0,000000000e+00    0,000000000e+00    0,000000000e+00
      674000000   -5,580955371e-02   -1,122554578e-02    6,446943283e-01   -3,983448073e-02    0,000000000e+00    0,000000000e+00    0,000000000e+00    0,000000000e+00
      688000000   -4,969635978e-02    2,905066358e-03    4,932671785e-01   -4,010750055e-01    0,000000000e+00    0,000000000e+00    0,000000000e+00    0,000000000e+00
      702000000   -2,531168051e-02    7,783047855e-03    1,606835574e-01   -6,045208573e-01    0,000000000e+00    0,000000000e+00    0,000000000e+00    0,000000000e+00
      716000000   -1,774427132e-03   -8,571393788e-03   -2,182598114e-01   -5,753784776e-01    0,000000000e+00    0,000000000e+00    0,000000000e+00    0,000000000e+00
      730000000    9,413372725e-03   -3,414314985e-02   -5,095716715e-01   -3,337941468e-01    0,000000000e+00    0,000000000e+00    0,000000000e+00    0,000000000e+00
      744000000    1,723454893e-02   -6,045236811e-02   -6,012309790e-01    3,300379217e-02    0,000000000e+00    0,000000000e+00    0,000000000e+00    0,000000000e+00
      758000000    2,235065773e-02   -1,041880399e-01   -4,550292194e-01    3,769327700e-01    0,000000000e+00    0,000000000e+00    0,000000000e+00    0,000000000e+00
      772000000   -5,343310535e-03   -1,734726578e-01   -1,398328394e-01    5,579828024e-01    0,000000000e+00    0,000000000e+00    0,000000000e+00    0,000000000e+00
      786000000   -1,049897745e-01   -2,320069075e-01    2,109761238e-01    5,195717812e-01    0,000000000e+00    0,000000000e+00    0,000000000e+00    0,000000000e+00
      800000000   -2,653254569e-01   -1,933511049e-01    4,717649817e-01    2,757788002e-01    0,000000000e+00    0,000000000e+00    0,000000000e+00    0,000000000e+00
      814000000   -3,635995984e-01    3,336827038e-03    5,077605247e-01   -8,858734369e-02    0,000000000e+00    0,000000000e+00    0,000000000e+00    0,000000000e+00
      828000000   -2,480644286e-01    2,329322547e-01    2,818101645e-01   -3,525552154e-01    0,000000000e+00    0,000000000e+00    0,000000000e+00    0,000000000e+00
      842000000    1,232511085e-02    2,779650092e-01   -1,605630480e-02   -3,634549379e-01    0,000000000e+00    0,000000000e+00    0,000000000e+00    0,000000000e+00
      856000000    2,126664668e-01    1,150123775e-01   -1,874169260e-01   -2,053109556e-01    0,000000000e+00    0,000000000e+00    0,000000000e+00    0,000000000e+00
      870000000    2,385633439e-01   -1,487474293e-01   -2,008090019e-01   -2,625009231e-02    0,000000000e+00    0,000000000e+00    0,000000000e+00    0,000000000e+00
      884000000    3,813340515e-02   -3,864071965e-01   -1,041670069e-01    7,131011039e-02    0,000000000e+00    0,000000000e+00    0,000000000e+00    0,000000000e+00
      898000000   -3,693580925e-01   -3,418170214e-01   -1,774096675e-02    2,792295627e-02    0,000000000e+00    0,000000000e+00    0,000000000e+00    0,000000000e+00
      912000000   -4,677689970e-01    1,372770220e-01   -1,218171045e-01    2,885013446e-02    0,000000000e+00    0,000000000e+00    0,000000000e+00    0,000000000e+00
      926000000   -9,451117367e-02    3,521357477e-01   -1,286763847e-01    1,356180012e-01    0,000000000e+00    0,000000000e+00    0,000000000e+00    0,000000000e+00
      940000000    1,844165623e-01    1,929208934e-01   -3,888673335e-02    2,165418714e-01    0,000000000e+00    0,000000000e+00    0,000000000e+00    0,000000000e+00
      954000000    2,553963363e-01   -4,955465719e-02    8,029268682e-02    2,274245173e-01    0,000000000e+00    0,000000000e+00    0,000000000e+00    0,000000000e+00
      968000000    1,744421870e-01   -2,621630430e-01    1,929915994e-01    1,805458218e-01    0,000000000e+00    0,000000000e+00    0,000000000e+00    0,000000000e+00
      982000000   -1,774010807e-02   -3,904663920e-01    2,820087373e-01    7,836150378e-02    0,000000000e+00    0,000000000e+00    0,000000000e+00    0,000000000e+00
      996000000   -2,764957249e-01   -3,763775229e-01    3,098833561e-01   -7,836905122e-02    0,000000000e+00    0,000000000e+00    0,000000000e+00    0,000000000e+00
     1010000000   -4,668170214e-01   -1,688376218e-01    2,206125855e-01   -2,533549368e-01    0,000000000e+00    0,000000000e+00    0,000000000e+00    0,000000000e+00
     1024000000   -4,617463946e-01    1,187987998e-01    2,197992615e-02   -3,293179870e-01    0,000000000e+00    0,000000000e+00    0,000000000e+00    0,000000000e+00
     1038000000   -2,610071599e-01    2,979535758e-01   -1,728939712e-01   -2,493030280e-01    0,000000000e+00    0,000000000e+00    0,000000000e+00    0,000000000e+00
     1052000000   -3,657751903e-02    3,114148378e-01   -2,575450242e-01   -7,759021223e-02    0,000000000e+00    0,000000000e+00    0,000000000e+00    0,000000000e+00
     1066000000    1,286540329e-01    2,044594735e-01   -2,266929895e-01    8,744228631e-02    0,000000000e+00    0,000000000e+00    0,000000000e+00    0,000000000e+00
     1080000000    2,100281864e-01    5,006627366e-02   -1,217711642e-01    1,924932450e-01    0,000000000e+00    0,000000000e+00    0,000000000e+00    0,000000000e+00
     1094000000    2,006147802e-01   -1,241120398e-01    1,845749654e-02    2,321423292e-01    0,000000000e+00    0,000000000e+00    0,000000000e+00    0,000000000e+00
     1108000000    9,765278548e-02   -2,846468389e-01    1,706011146e-01    2,053420991e-01    0,000000000e+00    0,000000000e+00    0,000000000e+00    0,000000000e+00
     1122000000   -9,737794101e-02   -3,676859438e-01    3,157362938e-01    9,037642181e-02    0,000000000e+00    0,000000000e+00    0,000000000e+00    0,000000000e+00
     1136000000   -3,504462540e-01   -2,646873593e-01    3,924375772e-01   -1,497255564e-01    0,000000000e+00    0,000000000e+00    0,000000000e+00    0,000000000e+00
     1150000000   -4,140357673e-01    4,044641927e-02    2,399182022e-01   -4,386463761e-01    0,000000000e+00    0,000000000e+00    0,000000000e+00    0,000000000e+00
     1164000000   -1,626634747e-01    2,161000222e-01   -9,442882985e-02   -5,146118999e-01    0,000000000e+00    0,000000000e+00    0,000000000e+00    0,000000000e+00
     1178000000    7,529549301e-02    8,693213761e-02   -3,539276421e-01   -3,478809297e-01    0,000000000e+00    0,000000000e+00    0,000000000e+00    0,000000000e+00
     1192000000    7,705895603e-02   -1,760860085e-01   -4,534680247e-01   -8,671978116e-02    0,000000000e+00    0,000000000e+00    0,000000000e+00    0,000000000e+00
     1206000000   -1,665741205e-01   -3,259257078e-01   -3,688072264e-01    1,905544698e-01    0,000000000e+00    0,000000000e+00    0,000000000e+00    0,000000000e+00
     1220000000   -4,580722749e-01   -1,770552099e-01   -1,089578494e-01    3,266137540e-01    0,000000000e+00    0,000000000e+00    0,000000000e+00    0,000000000e+00
     1234000000   -4,720591903e-01    1,729477197e-01    1,399884820e-01    2,257211655e-01    0,000000000e+00    0,000000000e+00    0,000000000e+00    0,000000000e+00
     1248000000   -2,353845835e-01    3,609527946e-01    1,907254606e-01    4,023842886e-02    0,000000000e+00    0,000000000e+00    0,000000000e+00    0,000000000e+00
     1262000000    7,477056701e-03    3,275324702e-01    1,289050877e-01   -7,317274064e-02    0,000000000e+00    0,000000000e+00    0,000000000e+00    0,000000000e+00
     1276000000    1,501780897e-01    1,995866150e-01    5,262922496e-02   -9,923182428e-02    0,000000000e+00    0,000000000e+00    0,000000000e+00    0,000000000e+00
     1290000000    2,167673707e-01    2,818018012e-02    1,318753697e-03   -7,525834441e-02    0,000000000e+00    0,000000000e+00    0,000000000e+00    0,000000000e+00
     1304000000    2,041173875e-01   -1,455884576e-01   -2,132450230e-02   -3,101463616e-02    0,000000000e+00    0,000000000e+00    0,000000000e+00    0,000000000e+00
     1318000000    1,154028401e-01   -3,117864430e-01   -9,140995331e-03    2,466805279e-02    0,000000000e+00    0,000000000e+00    0,000000000e+00    0,000000000e+00
     1332000000   -6,781243533e-02   -4,349370003e-01    5,603495240e-02    5,886619911e-02    0,000000000e+00    0,000000000e+00    0,000000000e+00    0,000000000e+00
     1346000000   -3,334817290e-01   -4,397920668e-01    1,356859058e-01    4,690942541e-02    0,000000000e+00    0,000000000e+00    0,000000000e+00    0,000000000e+00
     1360000000   -5,554365516e-01   -2,420058846e-01    1,168772131e-01   -8,465959132e-02    0,000000000e+00    0,000000000e+00    0,000000000e+00    0,000000000e+00
     1374000000   -6,230829358e-01    3,715472668e-02    1,037892103e-01    6,263955683e-02    0,000000000e+00    0,000000000e+00    0,000000000e+00    0,000000000e+00
     1388000000   -5,063976049e-01    2,944248915e-01    2,325982153e-01    1,094693318e-03    0,000000000e+00    0,000000000e+00    0,000000000e+00    0,000000000e+00
     1402000000   -3,082435727e-01    4,218774736e-01    2,224366516e-01   -7,783501595e-02    0,000000000e+00    0,000000000e+00    0,000000000e+00    0,000000000e+00
     1416000000   -9,531363845e-02    4,204398692e-01    1,754531711e-01   -1,174089685e-01    0,000000000e+00    0,000000000e+00    0,000000000e+00    0,000000000e+00
     1430000000    6,388541311e-02    3,385012746e-01    1,542075425e-01   -1,225663722e-01    0,000000000e+00    0,000000000e+00    0,000000000e+00    0,000000000e+00
     1444000000    1,755980104e-01    2,057096064e-01    1,579535902e-01   -9,075789154e-02    0,000000000e+00    0,000000000e+00    0,000000000e+00    0,000000000e+00
     1458000000    2,233751565e-01    3,612373769e-02    1,436710656e-01   -7,232814282e-02    0,000000000e+00    0,000000000e+00    0,000000000e+00    0,000000000e+00
     1472000000    2,097228467e-01   -1,485245824e-01    1,580224335e-01   -5,696899444e-02    0,000000000e+00    0,000000000e+00    0,000000000e+00    0,000000000e+00
     1486000000    1,068540215e-01   -3,199194968e-01    1,672292352e-01    5,103583448e-03    0,000000000e+00    0,000000000e+00    0,000000000e+00    0,000000000e+00
     1500000000   -9,787105024e-02   -4,563712180e-01    2,029938549e-01    6,107042730e-02    0,000000000e+00    0,000000000e+00    0,000000000e+00    0,000000000e+00
