! NanoVNA-App
! Date: 2025-09-25 14:23:39
! Start: 100MHz Stop: 1,5GHz Points: 101
! S-Parameter data: F S11 S21 S12 S22
# Hz S RI R 50
!     Frequency           S11_Real           S11_Imag           S21_Real           S21_Imag           S12_Real           S12_Imag           S22_Real           S22_Imag
      100000000   -2,909761854e-02   -4,139602184e-03    3,744699359e-01   -7,220471501e-01    0,000000000e+00    0,000000000e+00    0,000000000e+00    0,000000000e+00
      114000000   -1,663652249e-02    1,162496675e-02   -8,898708224e-02   -8,057818413e-01    0,000000000e+00    0,000000000e+00    0,000000000e+00    0,000000000e+00
      128000000    3,457823535e-03    1,049889997e-02   -5,145704746e-01   -6,210219860e-01    0,000000000e+00    0,000000000e+00    0,000000000e+00    0,000000000e+00
      142000000    1,447053906e-02   -3,051832551e-03   -7,671861053e-01   -2,367778271e-01    0,000000000e+00    0,000000000e+00    0,000000000e+00    0,000000000e+00
      156000000    1,434790343e-02   -1,500835735e-02   -7,647255063e-01    2,200797647e-01    0,000000000e+00    0,000000000e+00    0,000000000e+00    0,000000000e+00
      170000000    1,649590209e-02   -2,248973027e-02   -5,188631415e-01    6,051791310e-01    0,000000000e+00    0,000000000e+00    0,000000000e+00    0,000000000e+00
      184000000    2,099337988e-02   -3,706941009e-02   -1,018569171e-01    7,867586017e-01    0,000000000e+00    0,000000000e+00    0,000000000e+00    0,000000000e+00
      198000000    1,310936734e-02   -6,258356571e-02    3,429856002e-01    7,131081820e-01    0,000000000e+00    0,000000000e+00    0,000000000e+00    0,000000000e+00
      212000000   -1,868657023e-02   -8,166943491e-02    6,783097982e-01    4,105681479e-01    0,000000000e+00    0,000000000e+00    0,000000000e+00    0,000000000e+00
      226000000   -6,210087985e-02   -6,967502087e-02    7,961649895e-01   -2,983891405e-02    0,000000000e+00    0,000000000e+00    0,000000000e+00    0,000000000e+00
      240000000   -8,320701122e-02   -2,608192340e-02    6,471158862e-01   -4,665792882e-01    0,000000000e+00    0,000000000e+00    0,000000000e+00    0,000000000e+00
      254000000   -6,442042440e-02    1,736450382e-02    2,770363390e-01   -7,434554696e-01    0,000000000e+00    0,000000000e+00    0,000000000e+00    0,000000000e+00
      268000000   -2,409214713e-02    2,942138538e-02   -1,770120561e-01   -7,651588321e-01    0,000000000e+00    0,000000000e+00    0,000000000e+00    0,000000000e+00
      282000000    4,130171612e-03    1,201369893e-02   -5,626440644e-01   -5,373730063e-01    0,000000000e+00    0,000000000e+00    0,000000000e+00    0,000000000e+00
      296000000    9,564350359e-03   -7,643110119e-03   -7,607098222e-01   -1,395935714e-01    0,000000000e+00    0,000000000e+00    0,000000000e+00    0,000000000e+00
      310000000    1,095171180e-02   -1,600413211e-02   -7,118616104e-01    2,975959778e-01    0,000000000e+00    0,000000000e+00    0,000000000e+00    0,000000000e+00
      324000000    1,964782178e-02   -2,658129670e-02   -4,275857508e-01    6,383629441e-01    0,000000000e+00    0,000000000e+00    0,000000000e+00    0,000000000e+00
      338000000    2,522358112e-02   -5,226793513e-02   -1,249601413e-02    7,609292269e-01    0,000000000e+00    0,000000000e+00    0,000000000e+00    0,000000000e+00
      352000000    7,293238305e-03   -8,486062288e-02    4,055949450e-01    6,395341158e-01    0,000000000e+00    0,000000000e+00    0,000000000e+00    0,000000000e+00
      366000000   -3,484363109e-02   -9,635261446e-02    6,906033158e-01    3,115308285e-01    0,000000000e+00    0,000000000e+00    0,000000000e+00    0,000000000e+00
      380000000   -7,150997221e-02   -7,112031430e-02    7,479391098e-01   -1,245731339e-01    0,000000000e+00    0,000000000e+00    0,000000000e+00    0,000000000e+00
      394000000   -7,305362821e-02   -3,257407993e-02    5,480267406e-01   -5,214154720e-01    0,000000000e+00    0,000000000e+00    0,000000000e+00    0,000000000e+00
      408000000   -4,677855968e-02   -1,553555671e-02    1,635297090e-01   -7,323882580e-01    0,000000000e+00    0,000000000e+00    0,000000000e+00    0,000000000e+00
      422000000   -2,820804529e-02   -3,164275736e-02   -2,664366364e-01   -6,962806582e-01    0,000000000e+00    0,000000000e+00    0,000000000e+00    0,000000000e+00
      436000000   -3,999811038e-02   -5,193305761e-02   -6,026377678e-01   -4,335921109e-01    0,000000000e+00    0,000000000e+00    0,000000000e+00    0,000000000e+00
      450000000   -6,726003438e-02   -4,456233978e-02   -7,398880720e-01   -2,473456785e-02    0,000000000e+00    0,000000000e+00    0,000000000e+00    0,000000000e+00
      464000000   -7,435811311e-02   -1,252330653e-02   -6,215881705e-01    3,942821920e-01    0,000000000e+00    0,000000000e+00    0,000000000e+00    0,000000000e+00
      478000000   -4,914726317e-02    1,190253999e-02   -2,868154645e-01    6,675139070e-01    0,000000000e+00    0,000000000e+00    0,000000000e+00    0,000000000e+00
      492000000   -1,700714231e-02    6,388464477e-03    1,345207840e-01    7,037136555e-01    0,000000000e+00    0,000000000e+00    0,000000000e+00    0,000000000e+00
      506000000   -3,965092823e-03   -1,506740041e-02    4,968809783e-01    5,064442754e-01    0,000000000e+00    0,000000000e+00    0,000000000e+00    0,000000000e+00
      520000000   -6,000346970e-03   -2,959281951e-02    6,880289316e-01    1,444280893e-01    0,000000000e+00    0,000000000e+00    0,000000000e+00    0,000000000e+00
      534000000   -3,150628414e-03   -3,570777923e-02    6,442907453e-01   -2,595510185e-01    0,000000000e+00    0,000000000e+00    0,000000000e+00    0,000000000e+00
      548000000    8,039650507e-03   -5,231065303e-02    3,852526248e-01   -5,645692945e-01    0,000000000e+00    0,000000000e+00    0,000000000e+00    0,000000000e+00
      562000000    6,235309877e-03   -8,963879198e-02    9,072892368e-03   -6,719586253e-01    0,000000000e+00    0,000000000e+00    0,000000000e+00    0,000000000e+00
      576000000   -3,146339208e-02   -1,264190227e-01   -3,623057902e-01   -5,611327887e-01    0,000000000e+00    0,000000000e+00    0,000000000e+00    0,000000000e+00
      590000000   -9,514814615e-02   -1,279059500e-01   -6,180652976e-01   -2,724014521e-01    0,000000000e+00    0,000000000e+00    0,000000000e+00    0,000000000e+00
      604000000   -1,428111047e-01   -7,794056088e-02   -6,671970487e-01    1,269725859e-01    0,000000000e+00    0,000000000e+00    0,000000000e+00    0,000000000e+00
      618000000   -1,382230669e-01   -1,156030409e-02   -4,755261838e-01    4,853673577e-01    0,000000000e+00    0,000000000e+00    0,000000000e+00    0,000000000e+00
      632000000   -9,343770891e-02    2,222332172e-02   -1,142274439e-01    6,630088091e-01    0,000000000e+00    0,000000000e+00    0,000000000e+00    0,000000000e+00
      646000000   -5,555324629e-02    1,234322507e-02    2,733048797e-01    6,030544639e-01    0,000000000e+00    0,000000000e+00    0,000000000e+00    0,000000000e+00
      660000000   -4,777266085e-02   -8,969492279e-03    5,571703911e-01    3,407601714e-01    0,000000000e+00    0,000000000e+00    0,000000000e+00    0,000000000e+00
      674000000   -5,535268039e-02   -1,090348046e-02    6,444465518e-01   -3,952719644e-02    0,000000000e+00    0,000000000e+00    0,000000000e+00    0,000000000e+00
      688000000   -5,083668604e-02    2,979923505e-03    4,932051301e-01   -4,017457962e-01    0,000000000e+00    0,000000000e+00    0,000000000e+00    0,000000000e+00
      702000000   -2,602216601e-02    6,804129574e-03    1,621697694e-01   -6,008751988e-01    0,000000000e+00    0,000000000e+00    0,000000000e+00    0,000000000e+00
      716000000   -1,709304634e-03   -8,370069787e-03   -2,186093777e-01   -5,759905577e-01    0,000000000e+00    0,000000000e+00    0,000000000e+00    0,000000000e+00
      730000000    9,984461591e-03   -3,501802683e-02   -5,088925362e-01   -3,334899545e-01    0,000000000e+00    0,000000000e+00    0,000000000e+00    0,000000000e+00
      744000000    1,734665968e-02   -6,096804142e-02   -6,008574367e-01    3,302454203e-02    0,000000000e+00    0,000000000e+00    0,000000000e+00    0,000000000e+00
      758000000    2,250780910e-02   -1,033658981e-01   -4,544452131e-01    3,766431212e-01    0,000000000e+00    0,000000000e+00    0,000000000e+00    0,000000000e+00
      772000000   -5,219604354e-03   -1,736711562e-01   -1,394581944e-01    5,579590797e-01    0,000000000e+00    0,000000000e+00    0,000000000e+00    0,000000000e+00
      786000000   -1,049677432e-01   -2,321718335e-01    2,110349387e-01    5,190727711e-01    0,000000000e+00    0,000000000e+00    0,000000000e+00    0,000000000e+00
      800000000   -2,661392987e-01   -1,935958713e-01    4,716390967e-01    2,757868469e-01    0,000000000e+00    0,000000000e+00    0,000000000e+00    0,000000000e+00
      814000000   -3,643027842e-01    4,366688896e-03    5,077639818e-01   -8,841653168e-02    0,000000000e+00    0,000000000e+00    0,000000000e+00    0,000000000e+00
      828000000   -2,473294139e-01    2,327996790e-01    2,818174064e-01   -3,520309329e-01    0,000000000e+00    0,000000000e+00    0,000000000e+00    0,000000000e+00
      842000000    1,297389250e-02    2,783911824e-01   -1,549627539e-02   -3,628329635e-01    0,000000000e+00    0,000000000e+00    0,000000000e+00    0,000000000e+00
      856000000    2,128252238e-01    1,157311574e-01   -1,875993609e-01   -2,047246695e-01    0,000000000e+00    0,000000000e+00    0,000000000e+00    0,000000000e+00
      870000000    2,389848381e-01   -1,488102227e-01   -2,002000660e-01   -2,594612539e-02    0,000000000e+00    0,000000000e+00    0,000000000e+00    0,000000000e+00
      884000000    3,796729073e-02   -3,865861297e-01   -1,040772200e-01    7,081263512e-02    0,000000000e+00    0,000000000e+00    0,000000000e+00    0,000000000e+00
      898000000   -3,697465956e-01   -3,425807655e-01   -1,689583808e-02    2,684381232e-02    0,000000000e+00    0,000000000e+00    0,000000000e+00    0,000000000e+00
      912000000   -4,675938189e-01    1,382563412e-01   -1,173959523e-01    4,050856456e-02    0,000000000e+00    0,000000000e+00    0,000000000e+00    0,000000000e+00
      926000000   -9,592406452e-02    3,507719338e-01   -1,295762360e-01    1,335600615e-01    0,000000000e+00    0,000000000e+00    0,000000000e+00    0,000000000e+00
      940000000    1,857059896e-01    1,957518011e-01   -3,784745187e-02    2,150827646e-01    0,000000000e+00    0,000000000e+00    0,000000000e+00    0,000000000e+00
      954000000    2,557238042e-01   -4,582550377e-02    8,038437366e-02    2,278236747e-01    0,000000000e+00    0,000000000e+00    0,000000000e+00    0,000000000e+00
      968000000    1,737167835e-01   -2,605236769e-01    1,903024465e-01    1,788980365e-01    0,000000000e+00    0,000000000e+00    0,000000000e+00    0,000000000e+00
      982000000   -1,962795481e-02   -3,922495544e-01    2,800734043e-01    7,926517725e-02    0,000000000e+00    0,000000000e+00    0,000000000e+00    0,000000000e+00
      996000000   -2,718508542e-01   -3,776237667e-01    3,104256690e-01   -7,903961092e-02    0,000000000e+00    0,000000000e+00    0,000000000e+00    0,000000000e+00
     1010000000   -4,728314281e-01   -1,715214252e-01    2,219772190e-01   -2,549721301e-01    0,000000000e+00    0,000000000e+00    0,000000000e+00    0,000000000e+00
     1024000000   -4,563009739e-01    1,204326153e-01    2,207691222e-02   -3,299701810e-01    0,000000000e+00    0,000000000e+00    0,000000000e+00    0,000000000e+00
     1038000000   -2,628359199e-01    2,999438345e-01   -1,755850464e-01   -2,487401366e-01    0,000000000e+00    0,000000000e+00    0,000000000e+00    0,000000000e+00
     1052000000   -3,731010854e-02    3,051005602e-01   -2,571099997e-01   -7,806754112e-02    0,000000000e+00    0,000000000e+00    0,000000000e+00    0,000000000e+00
     1066000000    1,292850524e-01    2,033492178e-01   -2,258734107e-01    8,660125732e-02    0,000000000e+00    0,000000000e+00    0,000000000e+00    0,000000000e+00
     1080000000    2,052979767e-01    4,485317320e-02   -1,217181683e-01    1,930694133e-01    0,000000000e+00    0,000000000e+00    0,000000000e+00    0,000000000e+00
     1094000000    2,023389190e-01   -1,256385595e-01    1,877462305e-02    2,336992770e-01    0,000000000e+00    0,000000000e+00    0,000000000e+00    0,000000000e+00
     1108000000    1,024503037e-01   -2,870438993e-01    1,690133214e-01    2,090575993e-01    0,000000000e+00    0,000000000e+00    0,000000000e+00    0,000000000e+00
     1122000000   -1,022767425e-01   -3,718955517e-01    3,160029650e-01    8,927479386e-02    0,000000000e+00    0,000000000e+00    0,000000000e+00    0,000000000e+00
     1136000000   -3,460536897e-01   -2,636401057e-01    3,921908438e-01   -1,492680162e-01    0,000000000e+00    0,000000000e+00    0,000000000e+00    0,000000000e+00
     1150000000   -4,112688303e-01    4,118729383e-02    2,437287420e-01   -4,385271966e-01    0,000000000e+00    0,000000000e+00    0,000000000e+00    0,000000000e+00
     1164000000   -1,640325934e-01    2,208072245e-01   -9,474931657e-02   -5,142573118e-01    0,000000000e+00    0,000000000e+00    0,000000000e+00    0,000000000e+00
     1178000000    7,843940705e-02    8,561404049e-02   -3,559421301e-01   -3,475788832e-01    0,000000000e+00    0,000000000e+00    0,000000000e+00    0,000000000e+00
     1192000000    7,591868192e-02   -1,755844206e-01   -4,528696537e-01   -8,484856039e-02    0,000000000e+00    0,000000000e+00    0,000000000e+00    0,000000000e+00
     1206000000   -1,651431620e-01   -3,242318332e-01   -3,694900870e-01    1,887491047e-01    0,000000000e+00    0,000000000e+00    0,000000000e+00    0,000000000e+00
     1220000000   -4,566193223e-01   -1,750599891e-01   -1,053882912e-01    3,268914223e-01    0,000000000e+00    0,000000000e+00    0,000000000e+00    0,000000000e+00
     1234000000   -4,771667719e-01    1,671940833e-01    1,325100809e-01    2,269762903e-01    0,000000000e+00    0,000000000e+00    0,000000000e+00    0,000000000e+00
     1248000000   -2,347189337e-01    3,488715291e-01    1,925372928e-01    3,318526223e-02    0,000000000e+00    0,000000000e+00    0,000000000e+00    0,000000000e+00
     1262000000    8,226209320e-03    3,274107873e-01    1,302032322e-01   -7,235292345e-02    0,000000000e+00    0,000000000e+00    0,000000000e+00    0,000000000e+00
     1276000000    1,593129039e-01    2,011753470e-01    5,646701157e-02   -9,515232593e-02    0,000000000e+00    0,000000000e+00    0,000000000e+00    0,000000000e+00
     1290000000    2,222958505e-01    3,316939622e-02    6,465006154e-03   -7,121377438e-02    0,000000000e+00    0,000000000e+00    0,000000000e+00    0,000000000e+00
     1304000000    2,055717409e-01   -1,500132233e-01   -1,736641489e-02   -3,390703350e-02    0,000000000e+00    0,000000000e+00    0,000000000e+00    0,000000000e+00
     1318000000    1,132859960e-01   -3,122839630e-01   -6,745113526e-03    2,587457933e-02    0,000000000e+00    0,000000000e+00    0,000000000e+00    0,000000000e+00
     1332000000   -7,097906619e-02   -4,342376888e-01    4,614020139e-02    6,812884659e-02    0,000000000e+00    0,000000000e+00    0,000000000e+00    0,000000000e+00
     1346000000   -3,242916167e-01   -4,323468804e-01    1,484498233e-01    4,778163135e-02    0,000000000e+00    0,000000000e+00    0,000000000e+00    0,000000000e+00
     1360000000   -5,562067628e-01   -2,436339557e-01    1,116168424e-01   -7,182399184e-02    0,000000000e+00    0,000000000e+00    0,000000000e+00    0,000000000e+00
     1374000000   -6,253270507e-01    2,619540505e-02    1,033483669e-01    5,941262096e-02    0,000000000e+00    0,000000000e+00    0,000000000e+00    0,000000000e+00
     1388000000   -5,081056356e-01    2,911167145e-01    2,238968164e-01    1,160334577e-04    0,000000000e+00    0,000000000e+00    0,000000000e+00    0,000000000e+00
     1402000000   -3,034118414e-01    4,246244431e-01    2,218237370e-01   -7,372137159e-02    0,000000000e+00    0,000000000e+00    0,000000000e+00    0,000000000e+00
     1416000000   -9,337352216e-02    4,190160036e-01    1,959809810e-01   -1,288658828e-01    0,000000000e+00    0,000000000e+00    0,000000000e+00    0,000000000e+00
     1430000000    6,720612943e-02    3,357156217e-01    1,676269770e-01   -1,033391058e-01    0,000000000e+00    0,000000000e+00    0,000000000e+00    0,000000000e+00
     1444000000    1,757767200e-01    2,023764998e-01    1,576419771e-01   -1,120709777e-01    0,000000000e+00    0,000000000e+00    0,000000000e+00    0,000000000e+00
     1458000000    2,283570021e-01    4,007984325e-02    1,615378410e-01   -8,613831550e-02    0,000000000e+00    0,000000000e+00    0,000000000e+00    0,000000000e+00
     1472000000    2,047688663e-01   -1,469527781e-01    1,454584897e-01   -5,190394819e-02    0,000000000e+00    0,000000000e+00    0,000000000e+00    0,000000000e+00
     1486000000    1,070304662e-01   -3,261653483e-01    1,676373333e-01   -5,714899395e-03    0,000000000e+00    0,000000000e+00    0,000000000e+00    0,000000000e+00
     1500000000   -9,289535880e-02   -4,566060603e-01    2,108666152e-01    4,161202163e-02    0,000000000e+00    0,000000000e+00    0,000000000e+00    0,000000000e+00
