! NanoVNA-App
! Date: 2025-09-25 14:26:02
! Start: 100MHz Stop: 1,5GHz Points: 101
! S-Parameter data: F S11 S21 S12 S22
# Hz S RI R 50
!     Frequency           S11_Real           S11_Imag           S21_Real           S21_Imag           S12_Real           S12_Imag           S22_Real           S22_Imag
      100000000   -2,908796817e-02   -4,125245847e-03    3,744651377e-01   -7,220341563e-01    0,000000000e+00    0,000000000e+00    0,000000000e+00    0,000000000e+00
      114000000   -1,664113253e-02    1,160813868e-02   -8,887156099e-02   -8,058673143e-01    0,000000000e+00    0,000000000e+00    0,000000000e+00    0,000000000e+00
      128000000    3,377107903e-03    1,057539694e-02   -5,146386623e-01   -6,212055087e-01    0,000000000e+00    0,000000000e+00    0,000000000e+00    0,000000000e+00
      142000000    1,443395577e-02   -3,098883433e-03   -7,675541639e-01   -2,369333953e-01    0,000000000e+00    0,000000000e+00    0,000000000e+00    0,000000000e+00
      156000000    1,525161695e-02   -1,486324798e-02   -7,693165541e-01    2,232320756e-01    0,000000000e+00    0,000000000e+00    0,000000000e+00    0,000000000e+00
      170000000    1,643831469e-02   -2,245783620e-02   -5,187303424e-01    6,052230000e-01    0,000000000e+00    0,000000000e+00    0,000000000e+00    0,000000000e+00
      184000000    2,097985893e-02   -3,702329844e-02   -1,020066738e-01    7,868034244e-01    0,000000000e+00    0,000000000e+00    0,000000000e+00    0,000000000e+00
      198000000    1,307209581e-02   -6,258413196e-02    3,431226015e-01    7,132410407e-01    0,000000000e+00    0,000000000e+00    0,000000000e+00    0,000000000e+00
      212000000   -1,873568259e-02   -8,165222406e-02    6,783570051e-01    4,104066193e-01    0,000000000e+00    0,000000000e+00    0,000000000e+00    0,000000000e+00
      226000000   -6,208562106e-02   -6,968247145e-02    7,961448431e-01   -2,980708890e-02    0,000000000e+00    0,000000000e+00    0,000000000e+00    0,000000000e+00
      240000000   -8,332073689e-02   -2,600467950e-02    6,472203135e-01   -4,668383598e-01    0,000000000e+00    0,000000000e+00    0,000000000e+00    0,000000000e+00
      254000000   -6,439495832e-02    1,747741550e-02    2,771255672e-01   -7,436267734e-01    0,000000000e+00    0,000000000e+00    0,000000000e+00    0,000000000e+00
      268000000   -2,409644797e-02    2,947533131e-02   -1,770820469e-01   -7,652918100e-01    0,000000000e+00    0,000000000e+00    0,000000000e+00    0,000000000e+00
      282000000    3,978978377e-03    1,208263077e-02   -5,626308918e-01   -5,372230411e-01    0,000000000e+00    0,000000000e+00    0,000000000e+00    0,000000000e+00
      296000000    9,510623291e-03   -7,731685881e-03   -7,609490156e-01   -1,395869553e-01    0,000000000e+00    0,000000000e+00    0,000000000e+00    0,000000000e+00
      310000000    1,085822284e-02   -1,616245881e-02   -7,137053609e-01    2,975527942e-01    0,000000000e+00    0,000000000e+00    0,000000000e+00    0,000000000e+00
      324000000    1,966304891e-02   -2,659097128e-02   -4,290750921e-01    6,374233365e-01    0,000000000e+00    0,000000000e+00    0,000000000e+00    0,000000000e+00
      338000000    2,544217370e-02   -5,180253088e-02   -1,020575408e-02    7,642750740e-01    0,000000000e+00    0,000000000e+00    0,000000000e+00    0,000000000e+00
      352000000    7,598137949e-03   -8,486401290e-02    4,056715667e-01    6,412994862e-01    0,000000000e+00    0,000000000e+00    0,000000000e+00    0,000000000e+00
      366000000   -3,504369408e-02   -9,590687603e-02    6,907466650e-01    3,122346997e-01    0,000000000e+00    0,000000000e+00    0,000000000e+00    0,000000000e+00
      380000000   -7,124252617e-02   -7,092776150e-02    7,485032678e-01   -1,240844578e-01    0,000000000e+00    0,000000000e+00    0,000000000e+00    0,000000000e+00
      394000000   -7,316556573e-02   -3,256985173e-02    5,472936034e-01   -5,220170617e-01    0,000000000e+00    0,000000000e+00    0,000000000e+00    0,000000000e+00
      408000000   -4,714342207e-02   -1,580072567e-02    1,624171734e-01   -7,332533002e-01    0,000000000e+00    0,000000000e+00    0,000000000e+00    0,000000000e+00
      422000000   -2,829832956e-02   -3,139318898e-02   -2,654570937e-01   -6,960554123e-01    0,000000000e+00    0,000000000e+00    0,000000000e+00    0,000000000e+00
      436000000   -4,006148130e-02   -5,184585229e-02   -6,028267145e-01   -4,337673485e-01    0,000000000e+00    0,000000000e+00    0,000000000e+00    0,000000000e+00
      450000000   -6,759157032e-02   -4,495870695e-02   -7,401462197e-01   -2,536400408e-02    0,000000000e+00    0,000000000e+00    0,000000000e+00    0,000000000e+00
      464000000   -7,442413270e-02   -1,245839056e-02   -6,219491959e-01    3,947251439e-01    0,000000000e+00    0,000000000e+00    0,000000000e+00    0,000000000e+00
      478000000   -4,949279130e-02    1,192404330e-02   -2,872728705e-01    6,676781178e-01    0,000000000e+00    0,000000000e+00    0,000000000e+00    0,000000000e+00
      492000000   -1,688563824e-02    6,621613167e-03    1,345596761e-01    7,046034932e-01    0,000000000e+00    0,000000000e+00    0,000000000e+00    0,000000000e+00
      506000000   -3,822598606e-03   -1,522300392e-02    4,977594614e-01    5,055137277e-01    0,000000000e+00    0,000000000e+00    0,000000000e+00    0,000000000e+00
      520000000   -6,051229313e-03   -2,921543270e-02    6,892949939e-01    1,432827860e-01    0,000000000e+00    0,000000000e+00    0,000000000e+00    0,000000000e+00
      534000000   -3,332775785e-03   -3,590316698e-02    6,454282403e-01   -2,600715160e-01    0,000000000e+00    0,000000000e+00    0,000000000e+00    0,000000000e+00
      548000000    8,290040307e-03   -5,273533612e-02    3,845233023e-01   -5,649408102e-01    0,000000000e+00    0,000000000e+00    0,000000000e+00    0,000000000e+00
      562000000    5,956331268e-03   -8,974012733e-02    8,653015830e-03   -6,722233891e-01    0,000000000e+00    0,000000000e+00    0,000000000e+00    0,000000000e+00
      576000000   -3,116236255e-02   -1,263113320e-01   -3,620150089e-01   -5,606682897e-01    0,000000000e+00    0,000000000e+00    0,000000000e+00    0,000000000e+00
      590000000   -9,511644393e-02   -1,277503073e-01   -6,175858378e-01   -2,734638155e-01    0,000000000e+00    0,000000000e+00    0,000000000e+00    0,000000000e+00
      604000000   -1,431897581e-01   -7,808790356e-02   -6,671966910e-01    1,257139891e-01    0,000000000e+00    0,000000000e+00    0,000000000e+00    0,000000000e+00
      618000000   -1,385014206e-01   -1,145833824e-02   -4,753755629e-01    4,856367707e-01    0,000000000e+00    0,000000000e+00    0,000000000e+00    0,000000000e+00
      632000000   -9,336642921e-02    2,147722617e-02   -1,144423559e-01    6,636515856e-01    0,000000000e+00    0,000000000e+00    0,000000000e+00    0,000000000e+00
      646000000   -5,527638271e-02    1,149726938e-02    2,751755714e-01    6,034826040e-01    0,000000000e+00    0,000000000e+00    0,000000000e+00    0,000000000e+00
      660000000   -4,781194031e-02   -9,196686558e-03    5,578222871e-01    3,405607343e-01    0,000000000e+00    0,000000000e+00    0,000000000e+00    0,000000000e+00
      674000000   -5,656138808e-02   -1,072697155e-02    6,445557475e-01   -3,981729224e-02    0,000000000e+00    0,000000000e+00    0,000000000e+00    0,000000000e+00
      688000000   -4,987883568e-02    3,563375678e-03    4,940588772e-01   -4,025330842e-01    0,000000000e+00    0,000000000e+00    0,000000000e+00    0,000000000e+00
      702000000   -2,579596639e-02    6,958247162e-03    1,596426815e-01   -6,049954295e-01    0,000000000e+00    0,000000000e+00    0,000000000e+00    0,000000000e+00
      716000000   -2,130699810e-03   -8,651544340e-03   -2,187128514e-01   -5,750831962e-01    0,000000000e+00    0,000000000e+00    0,000000000e+00    0,000000000e+00
      730000000    1,016477868e-02   -3,503344581e-02   -5,094677806e-01   -3,330444098e-01    0,000000000e+00    0,000000000e+00    0,000000000e+00    0,000000000e+00
      744000000    1,721360348e-02   -6,094208360e-02   -6,011564136e-01    3,276212886e-02    0,000000000e+00    0,000000000e+00    0,000000000e+00    0,000000000e+00
      758000000    2,244114131e-02   -1,030233875e-01   -4,542881250e-01    3,769927323e-01    0,000000000e+00    0,000000000e+00    0,000000000e+00    0,000000000e+00
      772000000   -4,419290461e-03   -1,729576588e-01   -1,394258142e-01    5,577219129e-01    0,000000000e+00    0,000000000e+00    0,000000000e+00    0,000000000e+00
      786000000   -1,055584624e-01   -2,331141829e-01    2,113128453e-01    5,201880932e-01    0,000000000e+00    0,000000000e+00    0,000000000e+00    0,000000000e+00
      800000000   -2,658714354e-01   -1,918807328e-01    4,714867175e-01    2,750569880e-01    0,000000000e+00    0,000000000e+00    0,000000000e+00    0,000000000e+00
      814000000   -3,639613390e-01    2,796526765e-03    5,074700713e-01   -8,857732266e-02    0,000000000e+00    0,000000000e+00    0,000000000e+00    0,000000000e+00
      828000000   -2,472686321e-01    2,333896160e-01    2,808633447e-01   -3,527326882e-01    0,000000000e+00    0,000000000e+00    0,000000000e+00    0,000000000e+00
      842000000    1,358895376e-02    2,786932290e-01   -1,532699447e-02   -3,630634546e-01    0,000000000e+00    0,000000000e+00    0,000000000e+00    0,000000000e+00
      856000000    2,127297968e-01    1,155289784e-01   -1,875749081e-01   -2,053016573e-01    0,000000000e+00    0,000000000e+00    0,000000000e+00    0,000000000e+00
      870000000    2,390082181e-01   -1,484088600e-01   -2,004620731e-01   -2,611303329e-02    0,000000000e+00    0,000000000e+00    0,000000000e+00    0,000000000e+00
      884000000    3,766443953e-02   -3,864630461e-01   -1,039575264e-01    7,056358457e-02    0,000000000e+00    0,000000000e+00    0,000000000e+00    0,000000000e+00
      898000000   -3,698586822e-01   -3,412427008e-01   -1,674128883e-02    2,770069055e-02    0,000000000e+00    0,000000000e+00    0,000000000e+00    0,000000000e+00
      912000000   -4,678323269e-01    1,387780160e-01   -1,105454415e-01    2,392420918e-02    0,000000000e+00    0,000000000e+00    0,000000000e+00    0,000000000e+00
      926000000   -9,397710860e-02    3,506123424e-01   -1,269480437e-01    1,340384185e-01    0,000000000e+00    0,000000000e+00    0,000000000e+00    0,000000000e+00
      940000000    1,825567782e-01    1,919121742e-01   -3,930460289e-02    2,150336355e-01    0,000000000e+00    0,000000000e+00    0,000000000e+00    0,000000000e+00
      954000000    2,554199994e-01   -5,014931783e-02    8,039535582e-02    2,262472659e-01    0,000000000e+00    0,000000000e+00    0,000000000e+00    0,000000000e+00
      968000000    1,771042049e-01   -2,635350823e-01    1,912116110e-01    1,794110090e-01    0,000000000e+00    0,000000000e+00    0,000000000e+00    0,000000000e+00
      982000000   -1,555626001e-02   -3,931586742e-01    2,807170451e-01    7,940068096e-02    0,000000000e+00    0,000000000e+00    0,000000000e+00    0,000000000e+00
      996000000   -2,748775780e-01   -3,743551970e-01    3,098519444e-01   -7,829453796e-02    0,000000000e+00    0,000000000e+00    0,000000000e+00    0,000000000e+00
     1010000000   -4,666126966e-01   -1,732930541e-01    2,201338261e-01   -2,534742355e-01    0,000000000e+00    0,000000000e+00    0,000000000e+00    0,000000000e+00
     1024000000   -4,630972743e-01    1,153457910e-01    2,070996538e-02   -3,298888803e-01    0,000000000e+00    0,000000000e+00    0,000000000e+00    0,000000000e+00
     1038000000   -2,653685212e-01    2,958302498e-01   -1,752364933e-01   -2,472023964e-01    0,000000000e+00    0,000000000e+00    0,000000000e+00    0,000000000e+00
     1052000000   -3,626750782e-02    3,066441119e-01   -2,573831975e-01   -7,807634026e-02    0,000000000e+00    0,000000000e+00    0,000000000e+00    0,000000000e+00
     1066000000    1,279674470e-01    2,058438063e-01   -2,246689349e-01    8,651655912e-02    0,000000000e+00    0,000000000e+00    0,000000000e+00    0,000000000e+00
     1080000000    2,072811425e-01    4,948030040e-02   -1,219249070e-01    1,934836060e-01    0,000000000e+00    0,000000000e+00    0,000000000e+00    0,000000000e+00
     1094000000    2,054163814e-01   -1,294085383e-01    1,726431772e-02    2,352030724e-01    0,000000000e+00    0,000000000e+00    0,000000000e+00    0,000000000e+00
     1108000000    9,951622784e-02   -2,854872942e-01    1,690138131e-01    2,053496838e-01    0,000000000e+00    0,000000000e+00    0,000000000e+00    0,000000000e+00
     1122000000   -9,794482589e-02   -3,668790460e-01    3,178422749e-01    8,999880403e-02    0,000000000e+00    0,000000000e+00    0,000000000e+00    0,000000000e+00
     1136000000   -3,473263681e-01   -2,650035620e-01    3,927091956e-01   -1,495863348e-01    0,000000000e+00    0,000000000e+00    0,000000000e+00    0,000000000e+00
     1150000000   -4,088833928e-01    3,349637240e-02    2,420966774e-01   -4,377080500e-01    0,000000000e+00    0,000000000e+00    0,000000000e+00    0,000000000e+00
     1164000000   -1,641225666e-01    2,198964953e-01   -9,344414622e-02   -5,156198740e-01    0,000000000e+00    0,000000000e+00    0,000000000e+00    0,000000000e+00
     1178000000    7,693679631e-02    8,556777239e-02   -3,572044969e-01   -3,481743038e-01    0,000000000e+00    0,000000000e+00    0,000000000e+00    0,000000000e+00
     1192000000    7,408961654e-02   -1,714752465e-01   -4,557164907e-01   -8,211702853e-02    0,000000000e+00    0,000000000e+00    0,000000000e+00    0,000000000e+00
     1206000000   -1,672413200e-01   -3,253652751e-01   -3,700824082e-01    1,895813048e-01    0,000000000e+00    0,000000000e+00    0,000000000e+00    0,000000000e+00
     1220000000   -4,542563260e-01   -1,781928837e-01   -1,060484350e-01    3,279454410e-01    0,000000000e+00    0,000000000e+00    0,000000000e+00    0,000000000e+00
     1234000000   -4,770456553e-01    1,677161008e-01    1,366361380e-01    2,203323990e-01    0,000000000e+00    0,000000000e+00    0,000000000e+00    0,000000000e+00
     1248000000   -2,385079265e-01    3,596782088e-01    1,919298023e-01    3,614076227e-02    0,000000000e+00    0,000000000e+00    0,000000000e+00    0,000000000e+00
     1262000000    8,597456850e-03    3,250581920e-01    1,328524351e-01   -7,387399673e-02    0,000000000e+00    0,000000000e+00    0,000000000e+00    0,000000000e+00
     1276000000    1,563080102e-01    2,034983337e-01    5,352496356e-02   -9,555930644e-02    0,000000000e+00    0,000000000e+00    0,000000000e+00    0,000000000e+00
     1290000000    2,186107039e-01    2,898838930e-02    4,132028669e-03   -7,841299474e-02    0,000000000e+00    0,000000000e+00    0,000000000e+00    0,000000000e+00
     1304000000    2,039507776e-01   -1,424020380e-01   -2,221422270e-02   -3,188830987e-02    0,000000000e+00    0,000000000e+00    0,000000000e+00    0,000000000e+00
     1318000000    1,140144542e-01   -3,136547804e-01   -5,552006420e-03    1,813142188e-02    0,000000000e+00    0,000000000e+00    0,000000000e+00    0,000000000e+00
     1332000000   -6,686273962e-02   -4,336246848e-01    5,006848648e-02    6,401365250e-02    0,000000000e+00    0,000000000e+00    0,000000000e+00    0,000000000e+00
     1346000000   -3,350508213e-01   -4,367601573e-01    1,440565437e-01    4,185547307e-02    0,000000000e+00    0,000000000e+00    0,000000000e+00    0,000000000e+00
     1360000000   -5,517016053e-01   -2,492179722e-01    1,168220937e-01   -8,200316876e-02    0,000000000e+00    0,000000000e+00    0,000000000e+00    0,000000000e+00
     1374000000   -6,115682125e-01    3,122082353e-02    1,096688583e-01    5,643929914e-02    0,000000000e+00    0,000000000e+00    0,000000000e+00    0,000000000e+00
     1388000000   -5,181713700e-01    2,897365987e-01    2,226982564e-01   -4,272243939e-03    0,000000000e+00    0,000000000e+00    0,000000000e+00    0,000000000e+00
     1402000000   -2,971111536e-01    4,220832288e-01    2,324234247e-01   -9,195514023e-02    0,000000000e+00    0,000000000e+00    0,000000000e+00    0,000000000e+00
     1416000000   -9,218564630e-02    4,223991036e-01    2,037053257e-01   -1,094928011e-01    0,000000000e+00    0,000000000e+00    0,000000000e+00    0,000000000e+00
     1430000000    7,172037661e-02    3,466516733e-01    1,962102801e-01   -1,101268828e-01    0,000000000e+00    0,000000000e+00    0,000000000e+00    0,000000000e+00
     1444000000    1,705521792e-01    2,037020475e-01    1,445937157e-01   -9,766269475e-02    0,000000000e+00    0,000000000e+00    0,000000000e+00    0,000000000e+00
     1458000000    2,227065563e-01    3,705168515e-02    1,490330249e-01   -8,041039854e-02    0,000000000e+00    0,000000000e+00    0,000000000e+00    0,000000000e+00
     1472000000    2,064730674e-01   -1,436762065e-01    1,594395190e-01   -5,480311066e-02    0,000000000e+00    0,000000000e+00    0,000000000e+00    0,000000000e+00
     1486000000    1,051663682e-01   -3,294386864e-01    1,656546444e-01   -1,256914344e-02    0,000000000e+00    0,000000000e+00    0,000000000e+00    0,000000000e+00
     1500000000   -8,685801923e-02   -4,581432343e-01    2,263921052e-01    4,977209866e-02    0,000000000e+00    0,000000000e+00    0,000000000e+00    0,000000000e+00
