! NanoVNA-App
! Date: 2025-09-25 14:22:14
! Start: 100MHz Stop: 1,5GHz Points: 101
! S-Parameter data: F S11 S21 S12 S22
# Hz S RI R 50
!     Frequency           S11_Real           S11_Imag           S21_Real           S21_Imag           S12_Real           S12_Imag           S22_Real           S22_Imag
      100000000   -2,908786945e-02   -4,138302524e-03    3,744257689e-01   -7,220503688e-01    0,000000000e+00    0,000000000e+00    0,000000000e+00    0,000000000e+00
      114000000   -1,661685482e-02    1,161124278e-02   -8,890813589e-02   -8,058421612e-01    0,000000000e+00    0,000000000e+00    0,000000000e+00    0,000000000e+00
      128000000    3,392999992e-03    1,053945161e-02   -5,147699118e-01   -6,209453940e-01    0,000000000e+00    0,000000000e+00    0,000000000e+00    0,000000000e+00
      142000000    1,447765063e-02   -3,024714068e-03   -7,674478889e-01   -2,370046973e-01    0,000000000e+00    0,000000000e+00    0,000000000e+00    0,000000000e+00
      156000000    1,507290825e-02   -1,504582260e-02   -7,678070664e-01    2,225179374e-01    0,000000000e+00    0,000000000e+00    0,000000000e+00    0,000000000e+00
      170000000    1,658981107e-02   -2,257794514e-02   -5,185781717e-01    6,049102545e-01    0,000000000e+00    0,000000000e+00    0,000000000e+00    0,000000000e+00
      184000000    2,096096985e-02   -3,710554540e-02   -1,016820297e-01    7,866794467e-01    0,000000000e+00    0,000000000e+00    0,000000000e+00    0,000000000e+00
      198000000    1,304101944e-02   -6,262440979e-02    3,431721330e-01    7,128047347e-01    0,000000000e+00    0,000000000e+00    0,000000000e+00    0,000000000e+00
      212000000   -1,871446520e-02   -8,161159605e-02    6,783596873e-01    4,103988409e-01    0,000000000e+00    0,000000000e+00    0,000000000e+00    0,000000000e+00
      226000000   -6,197736785e-02   -6,961867213e-02    7,960298657e-01   -2,980548888e-02    0,000000000e+00    0,000000000e+00    0,000000000e+00    0,000000000e+00
      240000000   -8,313278854e-02   -2,606057003e-02    6,470854878e-01   -4,667548239e-01    0,000000000e+00    0,000000000e+00    0,000000000e+00    0,000000000e+00
      254000000   -6,437041610e-02    1,722382940e-02    2,773561180e-01   -7,437976003e-01    0,000000000e+00    0,000000000e+00    0,000000000e+00    0,000000000e+00
      268000000   -2,433503233e-02    2,952032723e-02   -1,770790964e-01   -7,644910812e-01    0,000000000e+00    0,000000000e+00    0,000000000e+00    0,000000000e+00
      282000000    4,111189861e-03    1,214933116e-02   -5,625599623e-01   -5,368475318e-01    0,000000000e+00    0,000000000e+00    0,000000000e+00    0,000000000e+00
      296000000    9,506186470e-03   -7,688100450e-03   -7,607837915e-01   -1,394440979e-01    0,000000000e+00    0,000000000e+00    0,000000000e+00    0,000000000e+00
      310000000    1,103109960e-02   -1,602032967e-02   -7,142212987e-01    2,975462079e-01    0,000000000e+00    0,000000000e+00    0,000000000e+00    0,000000000e+00
      324000000    1,957894303e-02   -2,645905316e-02   -4,287776053e-01    6,380427480e-01    0,000000000e+00    0,000000000e+00    0,000000000e+00    0,000000000e+00
      338000000    2,534360252e-02   -5,228196084e-02   -1,049874444e-02    7,626380324e-01    0,000000000e+00    0,000000000e+00    0,000000000e+00    0,000000000e+00
      352000000    7,210531272e-03   -8,492910117e-02    4,055742919e-01    6,406849623e-01    0,000000000e+00    0,000000000e+00    0,000000000e+00    0,000000000e+00
      366000000   -3,499507159e-02   -9,617118537e-02    6,907042265e-01    3,121408820e-01    0,000000000e+00    0,000000000e+00    0,000000000e+00    0,000000000e+00
      380000000   -7,156142592e-02   -7,132732123e-02    7,483888865e-01   -1,245222688e-01    0,000000000e+00    0,000000000e+00    0,000000000e+00    0,000000000e+00
      394000000   -7,306217402e-02   -3,242136911e-02    5,478424430e-01   -5,216813087e-01    0,000000000e+00    0,000000000e+00    0,000000000e+00    0,000000000e+00
      408000000   -4,697905853e-02   -1,577029936e-02    1,631319225e-01   -7,320286632e-01    0,000000000e+00    0,000000000e+00    0,000000000e+00    0,000000000e+00
      422000000   -2,851359360e-02   -3,143156320e-02   -2,662835121e-01   -6,961365938e-01    0,000000000e+00    0,000000000e+00    0,000000000e+00    0,000000000e+00
      436000000   -4,017432779e-02   -5,190824345e-02   -6,026659608e-01   -4,337630272e-01    0,000000000e+00    0,000000000e+00    0,000000000e+00    0,000000000e+00
      450000000   -6,740797311e-02   -4,449323565e-02   -7,399653792e-01   -2,483570017e-02    0,000000000e+00    0,000000000e+00    0,000000000e+00    0,000000000e+00
      464000000   -7,431972027e-02   -1,204029471e-02   -6,211644411e-01    3,944520652e-01    0,000000000e+00    0,000000000e+00    0,000000000e+00    0,000000000e+00
      478000000   -4,899972677e-02    1,144242194e-02   -2,865993679e-01    6,669299603e-01    0,000000000e+00    0,000000000e+00    0,000000000e+00    0,000000000e+00
      492000000   -1,712138020e-02    6,469251588e-03    1,338378787e-01    7,039200664e-01    0,000000000e+00    0,000000000e+00    0,000000000e+00    0,000000000e+00
      506000000   -3,498236882e-03   -1,489747409e-02    4,978545904e-01    5,060697198e-01    0,000000000e+00    0,000000000e+00    0,000000000e+00    0,000000000e+00
      520000000   -5,634627771e-03   -2,968527563e-02    6,894133687e-01    1,435388476e-01    0,000000000e+00    0,000000000e+00    0,000000000e+00    0,000000000e+00
      534000000   -3,132294398e-03   -3,578725830e-02    6,452112794e-01   -2,601487637e-01    0,000000000e+00    0,000000000e+00    0,000000000e+00    0,000000000e+00
      548000000    8,234243840e-03   -5,256550759e-02    3,853899539e-01   -5,639898777e-01    0,000000000e+00    0,000000000e+00    0,000000000e+00    0,000000000e+00
      562000000    5,346983206e-03   -8,972802758e-02    8,058228530e-03   -6,721037030e-01    0,000000000e+00    0,000000000e+00    0,000000000e+00    0,000000000e+00
      576000000   -3,139347956e-02   -1,257080287e-01   -3,625518084e-01   -5,608952045e-01    0,000000000e+00    0,000000000e+00    0,000000000e+00    0,000000000e+00
      590000000   -9,483896941e-02   -1,276474595e-01   -6,155568361e-01   -2,716401219e-01    0,000000000e+00    0,000000000e+00    0,000000000e+00    0,000000000e+00
      604000000   -1,430217475e-01   -7,779861242e-02   -6,673211455e-01    1,267370731e-01    0,000000000e+00    0,000000000e+00    0,000000000e+00    0,000000000e+00
      618000000   -1,378807276e-01   -1,169948373e-02   -4,753713608e-01    4,854402542e-01    0,000000000e+00    0,000000000e+00    0,000000000e+00    0,000000000e+00
      632000000   -9,342315048e-02    2,163218334e-02   -1,136484370e-01    6,633479595e-01    0,000000000e+00    0,000000000e+00    0,000000000e+00    0,000000000e+00
      646000000   -5,516369268e-02    1,143788081e-02    2,734220922e-01    6,031627059e-01    0,000000000e+00    0,000000000e+00    0,000000000e+00    0,000000000e+00
      660000000   -4,768855125e-02   -9,125693701e-03    5,576688647e-01    3,390685022e-01    0,000000000e+00    0,000000000e+00    0,000000000e+00    0,000000000e+00
      674000000   -5,538105965e-02   -1,068093628e-02    6,442845464e-01   -3,993766755e-02    0,000000000e+00    0,000000000e+00    0,000000000e+00    0,000000000e+00
      688000000   -4,974944890e-02    3,347530263e-03    4,929334819e-01   -4,020729959e-01    0,000000000e+00    0,000000000e+00    0,000000000e+00    0,000000000e+00
      702000000   -2,582294866e-02    7,244380191e-03    1,590798646e-01   -6,052341461e-01    0,000000000e+00    0,000000000e+00    0,000000000e+00    0,000000000e+00
      716000000   -2,359207720e-03   -8,380204439e-03   -2,183396220e-01   -5,757975578e-01    0,000000000e+00    0,000000000e+00    0,000000000e+00    0,000000000e+00
      730000000    1,050301827e-02   -3,464992717e-02   -5,097276568e-01   -3,331869543e-01    0,000000000e+00    0,000000000e+00    0,000000000e+00    0,000000000e+00
      744000000    1,689060405e-02   -6,039468572e-02   -6,007654071e-01    3,318984061e-02    0,000000000e+00    0,000000000e+00    0,000000000e+00    0,000000000e+00
      758000000    2,241520584e-02   -1,040004194e-01   -4,542200565e-01    3,768862486e-01    0,000000000e+00    0,000000000e+00    0,000000000e+00    0,000000000e+00
      772000000   -4,534306936e-03   -1,738313138e-01   -1,394875944e-01    5,574324727e-01    0,000000000e+00    0,000000000e+00    0,000000000e+00    0,000000000e+00
      786000000   -1,054612398e-01   -2,331734896e-01    2,114970237e-01    5,203345418e-01    0,000000000e+00    0,000000000e+00    0,000000000e+00    0,000000000e+00
      800000000   -2,656424642e-01   -1,934162974e-01    4,715436101e-01    2,754741907e-01    0,000000000e+00    0,000000000e+00    0,000000000e+00    0,000000000e+00
      814000000   -3,648181260e-01    3,725766903e-03    5,076387525e-01   -8,918066323e-02    0,000000000e+00    0,000000000e+00    0,000000000e+00    0,000000000e+00
      828000000   -2,470470816e-01    2,334542572e-01    2,813877463e-01   -3,524145782e-01    0,000000000e+00    0,000000000e+00    0,000000000e+00    0,000000000e+00
      842000000    1,286743209e-02    2,787378728e-01   -1,569591276e-02   -3,624179959e-01    0,000000000e+00    0,000000000e+00    0,000000000e+00    0,000000000e+00
      856000000    2,121276855e-01    1,150731966e-01   -1,878831387e-01   -2,044333071e-01    0,000000000e+00    0,000000000e+00    0,000000000e+00    0,000000000e+00
      870000000    2,389055640e-01   -1,488396972e-01   -2,005201131e-01   -2,562609501e-02    0,000000000e+00    0,000000000e+00    0,000000000e+00    0,000000000e+00
      884000000    3,867305070e-02   -3,869514763e-01   -1,031493321e-01    7,078034431e-02    0,000000000e+00    0,000000000e+00    0,000000000e+00    0,000000000e+00
      898000000   -3,693082035e-01   -3,418080211e-01   -1,642500795e-02    2,712599002e-02    0,000000000e+00    0,000000000e+00    0,000000000e+00    0,000000000e+00
      912000000   -4,672397673e-01    1,392878294e-01   -1,217926443e-01    3,905755654e-02    0,000000000e+00    0,000000000e+00    0,000000000e+00    0,000000000e+00
      926000000   -9,474243969e-02    3,520779014e-01   -1,267071366e-01    1,359013468e-01    0,000000000e+00    0,000000000e+00    0,000000000e+00    0,000000000e+00
      940000000    1,841574311e-01    1,955083460e-01   -3,872022033e-02    2,171285003e-01    0,000000000e+00    0,000000000e+00    0,000000000e+00    0,000000000e+00
      954000000    2,573069632e-01   -5,150543898e-02    7,892340422e-02    2,262908816e-01    0,000000000e+00    0,000000000e+00    0,000000000e+00    0,000000000e+00
      968000000    1,773373783e-01   -2,607387304e-01    1,914931536e-01    1,798114628e-01    0,000000000e+00    0,000000000e+00    0,000000000e+00    0,000000000e+00
      982000000   -1,697511226e-02   -3,918860555e-01    2,801522613e-01    7,911048084e-02    0,000000000e+00    0,000000000e+00    0,000000000e+00    0,000000000e+00
      996000000   -2,702953517e-01   -3,774969280e-01    3,087111712e-01   -8,041889966e-02    0,000000000e+00    0,000000000e+00    0,000000000e+00    0,000000000e+00
     1010000000   -4,719573855e-01   -1,747930348e-01    2,217917740e-01   -2,521984279e-01    0,000000000e+00    0,000000000e+00    0,000000000e+00    0,000000000e+00
     1024000000   -4,606020153e-01    1,124581471e-01    1,956710219e-02   -3,286865354e-01    0,000000000e+00    0,000000000e+00    0,000000000e+00    0,000000000e+00
     1038000000   -2,621281743e-01    2,987881303e-01   -1,745586246e-01   -2,478598952e-01    0,000000000e+00    0,000000000e+00    0,000000000e+00    0,000000000e+00
     1052000000   -3,523324430e-02    3,105067015e-01   -2,588397264e-01   -7,853727788e-02    0,000000000e+00    0,000000000e+00    0,000000000e+00    0,000000000e+00
     1066000000    1,280759573e-01    2,079363465e-01   -2,239783853e-01    8,423655480e-02    0,000000000e+00    0,000000000e+00    0,000000000e+00    0,000000000e+00
     1080000000    2,053172141e-01    4,735772312e-02   -1,199809313e-01    1,914461255e-01    0,000000000e+00    0,000000000e+00    0,000000000e+00    0,000000000e+00
     1094000000    2,041265070e-01   -1,270014793e-01    1,797767729e-02    2,338360101e-01    0,000000000e+00    0,000000000e+00    0,000000000e+00    0,000000000e+00
     1108000000    1,016954109e-01   -2,895654440e-01    1,702838242e-01    2,070217282e-01    0,000000000e+00    0,000000000e+00    0,000000000e+00    0,000000000e+00
     1122000000   -9,749682993e-02   -3,695150018e-01    3,161481023e-01    9,022921324e-02    0,000000000e+00    0,000000000e+00    0,000000000e+00    0,000000000e+00
     1136000000   -3,496559262e-01   -2,723687887e-01    3,924030066e-01   -1,476086080e-01    0,000000000e+00    0,000000000e+00    0,000000000e+00    0,000000000e+00
     1150000000   -4,077818096e-01    3,931535035e-02    2,413664609e-01   -4,360703826e-01    0,000000000e+00    0,000000000e+00    0,000000000e+00    0,000000000e+00
     1164000000   -1,607953608e-01    2,216772735e-01   -9,451291710e-02   -5,115471482e-01    0,000000000e+00    0,000000000e+00    0,000000000e+00    0,000000000e+00
     1178000000    7,902028412e-02    8,326415718e-02   -3,538805544e-01   -3,459346294e-01    0,000000000e+00    0,000000000e+00    0,000000000e+00    0,000000000e+00
     1192000000    7,448919117e-02   -1,751127392e-01   -4,533473253e-01   -8,434801549e-02    0,000000000e+00    0,000000000e+00    0,000000000e+00    0,000000000e+00
     1206000000   -1,606621891e-01   -3,280712366e-01   -3,677136302e-01    1,856640279e-01    0,000000000e+00    0,000000000e+00    0,000000000e+00    0,000000000e+00
     1220000000   -4,512363970e-01   -1,771830171e-01   -1,050389931e-01    3,323650360e-01    0,000000000e+00    0,000000000e+00    0,000000000e+00    0,000000000e+00
     1234000000   -4,716304541e-01    1,713474840e-01    1,414328068e-01    2,274464220e-01    0,000000000e+00    0,000000000e+00    0,000000000e+00    0,000000000e+00
     1248000000   -2,347370088e-01    3,606416285e-01    1,910846531e-01    3,608799726e-02    0,000000000e+00    0,000000000e+00    0,000000000e+00    0,000000000e+00
     1262000000   -2,293452999e-04    3,326909542e-01    1,250572950e-01   -7,243391871e-02    0,000000000e+00    0,000000000e+00    0,000000000e+00    0,000000000e+00
     1276000000    1,556678861e-01    1,997040957e-01    5,408950895e-02   -9,412048012e-02    0,000000000e+00    0,000000000e+00    0,000000000e+00    0,000000000e+00
     1290000000    2,149791121e-01    2,888346463e-02    3,068787279e-03   -7,465773076e-02    0,000000000e+00    0,000000000e+00    0,000000000e+00    0,000000000e+00
     1304000000    2,033462822e-01   -1,436543465e-01   -2,157586627e-02   -2,835769765e-02    0,000000000e+00    0,000000000e+00    0,000000000e+00    0,000000000e+00
     1318000000    1,157139689e-01   -3,150117099e-01   -5,389559548e-03    2,151579969e-02    0,000000000e+00    0,000000000e+00    0,000000000e+00    0,000000000e+00
     1332000000   -6,724051386e-02   -4,305454791e-01    3,989494964e-02    6,549155712e-02    0,000000000e+00    0,000000000e+00    0,000000000e+00    0,000000000e+00
     1346000000   -3,274455965e-01   -4,320165515e-01    1,455695778e-01    4,547666386e-02    0,000000000e+00    0,000000000e+00    0,000000000e+00    0,000000000e+00
     1360000000   -5,575249791e-01   -2,438106388e-01    1,178867891e-01   -6,625898182e-02    0,000000000e+00    0,000000000e+00    0,000000000e+00    0,000000000e+00
     1374000000   -6,245722175e-01    3,049119376e-02    1,013704166e-01    5,548771098e-02    0,000000000e+00    0,000000000e+00    0,000000000e+00    0,000000000e+00
     1388000000   -5,214892030e-01    2,852458358e-01    2,133530080e-01    4,962656181e-03    0,000000000e+00    0,000000000e+00    0,000000000e+00    0,000000000e+00
     1402000000   -3,037294149e-01    4,257434309e-01    2,338454574e-01   -7,319982350e-02    0,000000000e+00    0,000000000e+00    0,000000000e+00    0,000000000e+00
     1416000000   -9,441870451e-02    4,214817584e-01    1,913040578e-01   -1,064625755e-01    0,000000000e+00    0,000000000e+00    0,000000000e+00    0,000000000e+00
     1430000000    6,451761723e-02    3,366217017e-01    1,612307578e-01   -1,037567332e-01    0,000000000e+00    0,000000000e+00    0,000000000e+00    0,000000000e+00
     1444000000    1,809348613e-01    2,032770663e-01    1,527161747e-01   -9,949968010e-02    0,000000000e+00    0,000000000e+00    0,000000000e+00    0,000000000e+00
     1458000000    2,256221324e-01    3,417292610e-02    1,557818800e-01   -8,845087141e-02    0,000000000e+00    0,000000000e+00    0,000000000e+00    0,000000000e+00
     1472000000    2,053442150e-01   -1,457754225e-01    1,410292387e-01   -6,328904629e-02    0,000000000e+00    0,000000000e+00    0,000000000e+00    0,000000000e+00
     1486000000    1,076298356e-01   -3,262253106e-01    1,763804853e-01   -1,792978495e-02    0,000000000e+00    0,000000000e+00    0,000000000e+00    0,000000000e+00
     1500000000   -1,033131629e-01   -4,568454325e-01    2,005622387e-01    5,147162452e-02    0,000000000e+00    0,000000000e+00    0,000000000e+00    0,000000000e+00
