! NanoVNA-App
! Date: 2025-09-25 14:21:34
! Start: 100MHz Stop: 1,5GHz Points: 101
! S-Parameter data: F S11 S21 S12 S22
# Hz S RI R 50
!     Frequency           S11_Real           S11_Imag           S21_Real           S21_Imag           S12_Real           S12_Imag           S22_Real           S22_Imag
      100000000   -2,909545042e-02   -4,130748101e-03    3,744343817e-01   -7,220398784e-01    0,000000000e+00    0,000000000e+00    0,000000000e+00    0,000000000e+00
      114000000   -1,659417339e-02    1,158202905e-02   -8,901218325e-02   -8,059725761e-01    0,000000000e+00    0,000000000e+00    0,000000000e+00    0,000000000e+00
      128000000    3,447257681e-03    1,056178752e-02   -5,147146583e-01   -6,210348606e-01    0,000000000e+00    0,000000000e+00    0,000000000e+00    0,000000000e+00
      142000000    1,446480397e-02   -3,055505920e-03   -7,674448490e-01   -2,368712872e-01    0,000000000e+00    0,000000000e+00    0,000000000e+00    0,000000000e+00
      156000000    1,524217892e-02   -1,485424768e-02   -7,719596624e-01    2,215591222e-01    0,000000000e+00    0,000000000e+00    0,000000000e+00    0,000000000e+00
      170000000    1,647382230e-02   -2,252812125e-02   -5,186156034e-01    6,048828363e-01    0,000000000e+00    0,000000000e+00    0,000000000e+00    0,000000000e+00
      184000000    2,095870487e-02   -3,708551824e-02   -1,019232795e-01    7,866927385e-01    0,000000000e+00    0,000000000e+00    0,000000000e+00    0,000000000e+00
      198000000    1,301521529e-02   -6,257735938e-02    3,429025114e-01    7,131617069e-01    0,000000000e+00    0,000000000e+00    0,000000000e+00    0,000000000e+00
      212000000   -1,868325844e-02   -8,166461438e-02    6,782247424e-01    4,103094041e-01    0,000000000e+00    0,000000000e+00    0,000000000e+00    0,000000000e+00
      226000000   -6,208168715e-02   -6,964623183e-02    7,961856127e-01   -2,966941707e-02    0,000000000e+00    0,000000000e+00    0,000000000e+00    0,000000000e+00
      240000000   -8,313409239e-02   -2,602499910e-02    6,471486092e-01   -4,666315019e-01    0,000000000e+00    0,000000000e+00    0,000000000e+00    0,000000000e+00
      254000000   -6,434305012e-02    1,732775010e-02    2,769213617e-01   -7,434063554e-01    0,000000000e+00    0,000000000e+00    0,000000000e+00    0,000000000e+00
      268000000   -2,430549450e-02    2,942520753e-02   -1,772754788e-01   -7,654428482e-01    0,000000000e+00    0,000000000e+00    0,000000000e+00    0,000000000e+00
      282000000    4,126626998e-03    1,210530382e-02   -5,622164607e-01   -5,369384289e-01    0,000000000e+00    0,000000000e+00    0,000000000e+00    0,000000000e+00
      296000000    9,588938206e-03   -7,625550963e-03   -7,607092857e-01   -1,394859999e-01    0,000000000e+00    0,000000000e+00    0,000000000e+00    0,000000000e+00
      310000000    1,090054400e-02   -1,631348766e-02   -7,139956355e-01    2,970035672e-01    0,000000000e+00    0,000000000e+00    0,000000000e+00    0,000000000e+00
      324000000    1,962581836e-02   -2,652373910e-02   -4,283235371e-01    6,374742985e-01    0,000000000e+00    0,000000000e+00    0,000000000e+00    0,000000000e+00
      338000000    2,550767735e-02   -5,201841891e-02   -7,957156748e-03    7,639732361e-01    0,000000000e+00    0,000000000e+00    0,000000000e+00    0,000000000e+00
      352000000    7,437852677e-03   -8,480586857e-02    4,060356319e-01    6,410143375e-01    0,000000000e+00    0,000000000e+00    0,000000000e+00    0,000000000e+00
      366000000   -3,515170142e-02   -9,604568034e-02    6,910037398e-01    3,121441901e-01    0,000000000e+00    0,000000000e+00    0,000000000e+00    0,000000000e+00
      380000000   -7,148583233e-02   -7,092416286e-02    7,486880422e-01   -1,246898100e-01    0,000000000e+00    0,000000000e+00    0,000000000e+00    0,000000000e+00
      394000000   -7,310583442e-02   -3,239497542e-02    5,486689210e-01   -5,210477710e-01    0,000000000e+00    0,000000000e+00    0,000000000e+00    0,000000000e+00
      408000000   -4,667580128e-02   -1,568763331e-02    1,623784155e-01   -7,328169942e-01    0,000000000e+00    0,000000000e+00    0,000000000e+00    0,000000000e+00
      422000000   -2,820370160e-02   -3,158999607e-02   -2,645501196e-01   -6,955362558e-01    0,000000000e+00    0,000000000e+00    0,000000000e+00    0,000000000e+00
      436000000   -4,024705663e-02   -5,185457692e-02   -6,026005745e-01   -4,332146645e-01    0,000000000e+00    0,000000000e+00    0,000000000e+00    0,000000000e+00
      450000000   -6,728951633e-02   -4,479109496e-02   -7,403498888e-01   -2,508879639e-02    0,000000000e+00    0,000000000e+00    0,000000000e+00    0,000000000e+00
      464000000   -7,410108298e-02   -1,206057426e-02   -6,205623150e-01    3,953034580e-01    0,000000000e+00    0,000000000e+00    0,000000000e+00    0,000000000e+00
      478000000   -4,914459214e-02    1,156991534e-02   -2,865285277e-01    6,677381992e-01    0,000000000e+00    0,000000000e+00    0,000000000e+00    0,000000000e+00
      492000000   -1,698143035e-02    6,808125880e-03    1,341992319e-01    7,038672566e-01    0,000000000e+00    0,000000000e+00    0,000000000e+00    0,000000000e+00
      506000000   -3,687189193e-03   -1,477619167e-02    4,967240989e-01    5,058117509e-01    0,000000000e+00    0,000000000e+00    0,000000000e+00    0,000000000e+00
      520000000   -5,631830543e-03   -2,940534987e-02    6,885893345e-01    1,424506903e-01    0,000000000e+00    0,000000000e+00    0,000000000e+00    0,000000000e+00
      534000000   -3,144437214e-03   -3,577125818e-02    6,447625160e-01   -2,596867085e-01    0,000000000e+00    0,000000000e+00    0,000000000e+00    0,000000000e+00
      548000000    7,769044954e-03   -5,303351581e-02    3,849454224e-01   -5,642641187e-01    0,000000000e+00    0,000000000e+00    0,000000000e+00    0,000000000e+00
      562000000    5,627207458e-03   -8,909974247e-02    8,045240305e-03   -6,714047790e-01    0,000000000e+00    0,000000000e+00    0,000000000e+00    0,000000000e+00
      576000000   -3,085715696e-02   -1,262091696e-01   -3,615145087e-01   -5,609916449e-01    0,000000000e+00    0,000000000e+00    0,000000000e+00    0,000000000e+00
      590000000   -9,479885548e-02   -1,276280880e-01   -6,154269576e-01   -2,730535865e-01    0,000000000e+00    0,000000000e+00    0,000000000e+00    0,000000000e+00
      604000000   -1,428464353e-01   -7,781995833e-02   -6,672835350e-01    1,267864704e-01    0,000000000e+00    0,000000000e+00    0,000000000e+00    0,000000000e+00
      618000000   -1,380539387e-01   -1,107444242e-02   -4,749307632e-01    4,852015078e-01    0,000000000e+00    0,000000000e+00    0,000000000e+00    0,000000000e+00
      632000000   -9,319124371e-02    2,205974981e-02   -1,136198938e-01    6,626266241e-01    0,000000000e+00    0,000000000e+00    0,000000000e+00    0,000000000e+00
      646000000   -5,571001768e-02    1,228766236e-02    2,737018168e-01    6,034830213e-01    0,000000000e+00    0,000000000e+00    0,000000000e+00    0,000000000e+00
      660000000   -4,867152497e-02   -8,588066325e-03    5,580837131e-01    3,404279649e-01    0,000000000e+00    0,000000000e+00    0,000000000e+00    0,000000000e+00
      674000000   -5,598181859e-02   -1,090683974e-02    6,443843842e-01   -3,992969915e-02    0,000000000e+00    0,000000000e+00    0,000000000e+00    0,000000000e+00
      688000000   -5,030968040e-02    3,536455799e-03    4,934697747e-01   -4,022739232e-01    0,000000000e+00    0,000000000e+00    0,000000000e+00    0,000000000e+00
      702000000   -2,657776140e-02    7,691620383e-03    1,598519683e-01   -6,022858024e-01    0,000000000e+00    0,000000000e+00    0,000000000e+00    0,000000000e+00
      716000000   -2,546125557e-03   -9,488484822e-03   -2,181567252e-01   -5,749772191e-01    0,000000000e+00    0,000000000e+00    0,000000000e+00    0,000000000e+00
      730000000    9,885450825e-03   -3,393764794e-02   -5,092888474e-01   -3,329287171e-01    0,000000000e+00    0,000000000e+00    0,000000000e+00    0,000000000e+00
      744000000    1,587780565e-02   -6,068281457e-02   -6,007586718e-01    3,330380097e-02    0,000000000e+00    0,000000000e+00    0,000000000e+00    0,000000000e+00
      758000000    2,275698632e-02   -1,038049757e-01   -4,544468224e-01    3,772282600e-01    0,000000000e+00    0,000000000e+00    0,000000000e+00    0,000000000e+00
      772000000   -4,333810881e-03   -1,732096523e-01   -1,397333890e-01    5,583500266e-01    0,000000000e+00    0,000000000e+00    0,000000000e+00    0,000000000e+00
      786000000   -1,051132157e-01   -2,317363024e-01    2,113214582e-01    5,194975734e-01    0,000000000e+00    0,000000000e+00    0,000000000e+00    0,000000000e+00
      800000000   -2,653053701e-01   -1,927890480e-01    4,713449180e-01    2,750295103e-01    0,000000000e+00    0,000000000e+00    0,000000000e+00    0,000000000e+00
      814000000   -3,636943102e-01    3,509665374e-03    5,074918270e-01   -8,888696879e-02    0,000000000e+00    0,000000000e+00    0,000000000e+00    0,000000000e+00
      828000000   -2,472152859e-01    2,341567129e-01    2,807565928e-01   -3,519541621e-01    0,000000000e+00    0,000000000e+00    0,000000000e+00    0,000000000e+00
      842000000    1,220002584e-02    2,782045305e-01   -1,634591632e-02   -3,632546663e-01    0,000000000e+00    0,000000000e+00    0,000000000e+00    0,000000000e+00
      856000000    2,124242187e-01    1,154936403e-01   -1,880155206e-01   -2,055043727e-01    0,000000000e+00    0,000000000e+00    0,000000000e+00    0,000000000e+00
      870000000    2,389271706e-01   -1,488714963e-01   -2,002384663e-01   -2,610276453e-02    0,000000000e+00    0,000000000e+00    0,000000000e+00    0,000000000e+00
      884000000    3,678806126e-02   -3,869892657e-01   -1,035029069e-01    7,068001479e-02    0,000000000e+00    0,000000000e+00    0,000000000e+00    0,000000000e+00
      898000000   -3,693024218e-01   -3,406051397e-01   -1,612318493e-02    2,720776573e-02    0,000000000e+00    0,000000000e+00    0,000000000e+00    0,000000000e+00
      912000000   -4,668877125e-01    1,377047151e-01   -1,184411645e-01    3,837091103e-02    0,000000000e+00    0,000000000e+00    0,000000000e+00    0,000000000e+00
      926000000   -9,606808424e-02    3,523495495e-01   -1,292956322e-01    1,366485357e-01    0,000000000e+00    0,000000000e+00    0,000000000e+00    0,000000000e+00
      940000000    1,857107282e-01    1,923256516e-01   -3,844219819e-02    2,153546810e-01    0,000000000e+00    0,000000000e+00    0,000000000e+00    0,000000000e+00
      954000000    2,520954907e-01   -4,763292894e-02    7,889029384e-02    2,266755253e-01    0,000000000e+00    0,000000000e+00    0,000000000e+00    0,000000000e+00
      968000000    1,770222932e-01   -2,612004876e-01    1,928492785e-01    1,798425168e-01    0,000000000e+00    0,000000000e+00    0,000000000e+00    0,000000000e+00
      982000000   -1,917043328e-02   -3,947353661e-01    2,797505260e-01    8,014678955e-02    0,000000000e+00    0,000000000e+00    0,000000000e+00    0,000000000e+00
      996000000   -2,731205523e-01   -3,741420805e-01    3,079892695e-01   -8,039128780e-02    0,000000000e+00    0,000000000e+00    0,000000000e+00    0,000000000e+00
     1010000000   -4,679174125e-01   -1,745599061e-01    2,208442241e-01   -2,520259023e-01    0,000000000e+00    0,000000000e+00    0,000000000e+00    0,000000000e+00
     1024000000   -4,636332095e-01    1,164795756e-01    2,020301111e-02   -3,299970329e-01    0,000000000e+00    0,000000000e+00    0,000000000e+00    0,000000000e+00
     1038000000   -2,633296847e-01    3,018228412e-01   -1,732627302e-01   -2,479603589e-01    0,000000000e+00    0,000000000e+00    0,000000000e+00    0,000000000e+00
     1052000000   -3,600805625e-02    3,061825037e-01   -2,567183673e-01   -7,678878307e-02    0,000000000e+00    0,000000000e+00    0,000000000e+00    0,000000000e+00
     1066000000    1,294014752e-01    2,028647512e-01   -2,264518887e-01    8,584225178e-02    0,000000000e+00    0,000000000e+00    0,000000000e+00    0,000000000e+00
     1080000000    2,048523873e-01    4,633554444e-02   -1,205825806e-01    1,916916519e-01    0,000000000e+00    0,000000000e+00    0,000000000e+00    0,000000000e+00
     1094000000    2,026836276e-01   -1,263153106e-01    1,652630977e-02    2,344912440e-01    0,000000000e+00    0,000000000e+00    0,000000000e+00    0,000000000e+00
     1108000000    1,027584895e-01   -2,887242436e-01    1,692488492e-01    2,069129497e-01    0,000000000e+00    0,000000000e+00    0,000000000e+00    0,000000000e+00
     1122000000   -1,038126945e-01   -3,693827987e-01    3,159645498e-01    8,762152493e-02    0,000000000e+00    0,000000000e+00    0,000000000e+00    0,000000000e+00
     1136000000   -3,466479480e-01   -2,628915310e-01    3,922175169e-01   -1,504362524e-01    0,000000000e+00    0,000000000e+00    0,000000000e+00    0,000000000e+00
     1150000000   -4,115292728e-01    3,796069697e-02    2,412226945e-01   -4,358532727e-01    0,000000000e+00    0,000000000e+00    0,000000000e+00    0,000000000e+00
     1164000000   -1,625563651e-01    2,180718333e-01   -9,857068956e-02   -5,145705342e-01    0,000000000e+00    0,000000000e+00    0,000000000e+00    0,000000000e+00
     1178000000    7,403529435e-02    8,166550845e-02   -3,574801683e-01   -3,472044468e-01    0,000000000e+00    0,000000000e+00    0,000000000e+00    0,000000000e+00
     1192000000    7,338680327e-02   -1,723259836e-01   -4,540253282e-01   -8,245933056e-02    0,000000000e+00    0,000000000e+00    0,000000000e+00    0,000000000e+00
     1206000000   -1,611031145e-01   -3,253868520e-01   -3,696739674e-01    1,881213188e-01    0,000000000e+00    0,000000000e+00    0,000000000e+00    0,000000000e+00
     1220000000   -4,531708360e-01   -1,806067377e-01   -1,070868820e-01    3,251147270e-01    0,000000000e+00    0,000000000e+00    0,000000000e+00    0,000000000e+00
     1234000000   -4,719204307e-01    1,633309424e-01    1,403158456e-01    2,233415544e-01    0,000000000e+00    0,000000000e+00    0,000000000e+00    0,000000000e+00
     1248000000   -2,392956018e-01    3,538002074e-01    1,953582466e-01    3,411094472e-02    0,000000000e+00    0,000000000e+00    0,000000000e+00    0,000000000e+00
     1262000000    7,513602264e-03    3,321374655e-01    1,296996027e-01   -6,612833589e-02    0,000000000e+00    0,000000000e+00    0,000000000e+00    0,000000000e+00
     1276000000    1,564174742e-01    1,959689558e-01    5,315692723e-02   -9,522997588e-02    0,000000000e+00    0,000000000e+00    0,000000000e+00    0,000000000e+00
     1290000000    2,134164423e-01    2,961368300e-02   -3,406730946e-03   -7,346050441e-02    0,000000000e+00    0,000000000e+00    0,000000000e+00    0,000000000e+00
     1304000000    2,037231177e-01   -1,478116363e-01   -1,779950596e-02   -3,404791281e-02    0,000000000e+00    0,000000000e+00    0,000000000e+00    0,000000000e+00
     1318000000    1,183984205e-01   -3,141810894e-01   -9,857917903e-04    1,588863693e-02    0,000000000e+00    0,000000000e+00    0,000000000e+00    0,000000000e+00
     1332000000   -7,231146842e-02   -4,342339337e-01    4,319442064e-02    5,686851218e-02    0,000000000e+00    0,000000000e+00    0,000000000e+00    0,000000000e+00
     1346000000   -3,302645683e-01   -4,292552173e-01    1,512614936e-01    5,048749223e-02    0,000000000e+00    0,000000000e+00    0,000000000e+00    0,000000000e+00
     1360000000   -5,575477481e-01   -2,323166877e-01    1,098835915e-01   -7,406315207e-02    0,000000000e+00    0,000000000e+00    0,000000000e+00    0,000000000e+00
     1374000000   -6,210691929e-01    2,641459182e-02    1,102963164e-01    6,032253802e-02    0,000000000e+00    0,000000000e+00    0,000000000e+00    0,000000000e+00
     1388000000   -5,176755190e-01    2,851984799e-01    2,143588811e-01   -5,740112159e-03    0,000000000e+00    0,000000000e+00    0,000000000e+00    0,000000000e+00
     1402000000   -3,048948646e-01    4,213993847e-01    2,267567217e-01   -7,443946600e-02    0,000000000e+00    0,000000000e+00    0,000000000e+00    0,000000000e+00
     1416000000   -9,426089376e-02    4,146967530e-01    1,901121438e-01   -1,261262447e-01    0,000000000e+00    0,000000000e+00    0,000000000e+00    0,000000000e+00
     1430000000    7,166323811e-02    3,366295099e-01    1,516127288e-01   -1,140975505e-01    0,000000000e+00    0,000000000e+00    0,000000000e+00    0,000000000e+00
     1444000000    1,770658940e-01    2,014350891e-01    1,478502005e-01   -1,061850265e-01    0,000000000e+00    0,000000000e+00    0,000000000e+00    0,000000000e+00
     1458000000    2,235964835e-01    3,332792595e-02    1,452654749e-01   -9,327835590e-02    0,000000000e+00    0,000000000e+00    0,000000000e+00    0,000000000e+00
     1472000000    2,005827874e-01   -1,420875490e-01    1,452130228e-01   -4,736632481e-02    0,000000000e+00    0,000000000e+00    0,000000000e+00    0,000000000e+00
     1486000000    1,034742594e-01   -3,243108392e-01    1,481449604e-01   -8,140438236e-03    0,000000000e+00    0,000000000e+00    0,000000000e+00    0,000000000e+00
     1500000000   -9,377110004e-02   -4,510386288e-01    2,092314065e-01    7,102932781e-02    0,000000000e+00    0,000000000e+00    0,000000000e+00    0,000000000e+00
