! NanoVNA-App
! Date: 2025-09-25 14:23:01
! Start: 100MHz Stop: 1,5GHz Points: 101
! S-Parameter data: F S11 S21 S12 S22
# Hz S RI R 50
!     Frequency           S11_Real           S11_Imag           S21_Real           S21_Imag           S12_Real           S12_Imag           S22_Real           S22_Imag
      100000000   -2,908973210e-02   -4,133159295e-03    3,744383752e-01   -7,220503688e-01    0,000000000e+00    0,000000000e+00    0,000000000e+00    0,000000000e+00
      114000000   -1,664529182e-02    1,161669102e-02   -8,899709582e-02   -8,059182763e-01    0,000000000e+00    0,000000000e+00    0,000000000e+00    0,000000000e+00
      128000000    3,390621394e-03    1,051838789e-02   -5,148112774e-01   -6,211101413e-01    0,000000000e+00    0,000000000e+00    0,000000000e+00    0,000000000e+00
      142000000    1,446006913e-02   -3,042460186e-03   -7,674533725e-01   -2,368427366e-01    0,000000000e+00    0,000000000e+00    0,000000000e+00    0,000000000e+00
      156000000    1,543361880e-02   -1,482544094e-02   -7,692195177e-01    2,232698202e-01    0,000000000e+00    0,000000000e+00    0,000000000e+00    0,000000000e+00
      170000000    1,662363857e-02   -2,252080664e-02   -5,186188817e-01    6,050132513e-01    0,000000000e+00    0,000000000e+00    0,000000000e+00    0,000000000e+00
      184000000    2,102514915e-02   -3,710130230e-02   -1,019721478e-01    7,865845561e-01    0,000000000e+00    0,000000000e+00    0,000000000e+00    0,000000000e+00
      198000000    1,306104381e-02   -6,259173155e-02    3,427712619e-01    7,129315734e-01    0,000000000e+00    0,000000000e+00    0,000000000e+00    0,000000000e+00
      212000000   -1,870920509e-02   -8,164820075e-02    6,784237623e-01    4,105380476e-01    0,000000000e+00    0,000000000e+00    0,000000000e+00    0,000000000e+00
      226000000   -6,202829257e-02   -6,969337910e-02    7,961404920e-01   -2,977962606e-02    0,000000000e+00    0,000000000e+00    0,000000000e+00    0,000000000e+00
      240000000   -8,317484707e-02   -2,608584426e-02    6,472513080e-01   -4,666271210e-01    0,000000000e+00    0,000000000e+00    0,000000000e+00    0,000000000e+00
      254000000   -6,434515864e-02    1,721552387e-02    2,772285342e-01   -7,434971333e-01    0,000000000e+00    0,000000000e+00    0,000000000e+00    0,000000000e+00
      268000000   -2,435086295e-02    2,947310917e-02   -1,773412675e-01   -7,654625773e-01    0,000000000e+00    0,000000000e+00    0,000000000e+00    0,000000000e+00
      282000000    4,184061196e-03    1,211171970e-02   -5,624352694e-01   -5,371247530e-01    0,000000000e+00    0,000000000e+00    0,000000000e+00    0,000000000e+00
      296000000    9,568966925e-03   -7,604860701e-03   -7,607624531e-01   -1,395195425e-01    0,000000000e+00    0,000000000e+00    0,000000000e+00    0,000000000e+00
      310000000    1,098673791e-02   -1,624932513e-02   -7,135035992e-01    2,971478999e-01    0,000000000e+00    0,000000000e+00    0,000000000e+00    0,000000000e+00
      324000000    1,944673806e-02   -2,649538964e-02   -4,286401868e-01    6,371705532e-01    0,000000000e+00    0,000000000e+00    0,000000000e+00    0,000000000e+00
      338000000    2,525509149e-02   -5,200307816e-02   -8,350264281e-03    7,609785199e-01    0,000000000e+00    0,000000000e+00    0,000000000e+00    0,000000000e+00
      352000000    7,640494965e-03   -8,474984020e-02    4,053733945e-01    6,400849819e-01    0,000000000e+00    0,000000000e+00    0,000000000e+00    0,000000000e+00
      366000000   -3,494643047e-02   -9,603618085e-02    6,902682185e-01    3,125055730e-01    0,000000000e+00    0,000000000e+00    0,000000000e+00    0,000000000e+00
      380000000   -7,137491554e-02   -7,115690410e-02    7,482927442e-01   -1,246048585e-01    0,000000000e+00    0,000000000e+00    0,000000000e+00    0,000000000e+00
      394000000   -7,322160900e-02   -3,241703659e-02    5,492700338e-01   -5,199831724e-01    0,000000000e+00    0,000000000e+00    0,000000000e+00    0,000000000e+00
      408000000   -4,685002938e-02   -1,577819139e-02    1,623337865e-01   -7,330762148e-01    0,000000000e+00    0,000000000e+00    0,000000000e+00    0,000000000e+00
      422000000   -2,831528522e-02   -3,149732575e-02   -2,653975785e-01   -6,963842511e-01    0,000000000e+00    0,000000000e+00    0,000000000e+00    0,000000000e+00
      436000000   -4,026376829e-02   -5,224992707e-02   -6,028448343e-01   -4,329808652e-01    0,000000000e+00    0,000000000e+00    0,000000000e+00    0,000000000e+00
      450000000   -6,794185191e-02   -4,494172707e-02   -7,405555248e-01   -2,533079311e-02    0,000000000e+00    0,000000000e+00    0,000000000e+00    0,000000000e+00
      464000000   -7,409092784e-02   -1,223427150e-02   -6,210572720e-01    3,947284520e-01    0,000000000e+00    0,000000000e+00    0,000000000e+00    0,000000000e+00
      478000000   -4,912449047e-02    1,149109378e-02   -2,856953740e-01    6,674044728e-01    0,000000000e+00    0,000000000e+00    0,000000000e+00    0,000000000e+00
      492000000   -1,718569547e-02    6,627885159e-03    1,342965215e-01    7,037252188e-01    0,000000000e+00    0,000000000e+00    0,000000000e+00    0,000000000e+00
      506000000   -3,801001236e-03   -1,494241972e-02    4,973119497e-01    5,060600638e-01    0,000000000e+00    0,000000000e+00    0,000000000e+00    0,000000000e+00
      520000000   -5,842753686e-03   -2,968450449e-02    6,884461641e-01    1,432465911e-01    0,000000000e+00    0,000000000e+00    0,000000000e+00    0,000000000e+00
      534000000   -3,102880437e-03   -3,570258245e-02    6,447652578e-01   -2,599700987e-01    0,000000000e+00    0,000000000e+00    0,000000000e+00    0,000000000e+00
      548000000    7,884494029e-03   -5,290759727e-02    3,854209185e-01   -5,644627213e-01    0,000000000e+00    0,000000000e+00    0,000000000e+00    0,000000000e+00
      562000000    5,926249549e-03   -8,989686519e-02    8,636045270e-03   -6,724258661e-01    0,000000000e+00    0,000000000e+00    0,000000000e+00    0,000000000e+00
      576000000   -3,134574741e-02   -1,260742694e-01   -3,629060686e-01   -5,608966947e-01    0,000000000e+00    0,000000000e+00    0,000000000e+00    0,000000000e+00
      590000000   -9,517218173e-02   -1,278328300e-01   -6,149787307e-01   -2,726481259e-01    0,000000000e+00    0,000000000e+00    0,000000000e+00    0,000000000e+00
      604000000   -1,429250836e-01   -7,772602141e-02   -6,673496366e-01    1,268579811e-01    0,000000000e+00    0,000000000e+00    0,000000000e+00    0,000000000e+00
      618000000   -1,379577816e-01   -1,161467284e-02   -4,745742679e-01    4,847873449e-01    0,000000000e+00    0,000000000e+00    0,000000000e+00    0,000000000e+00
      632000000   -9,358227253e-02    2,167578787e-02   -1,145741791e-01    6,622971892e-01    0,000000000e+00    0,000000000e+00    0,000000000e+00    0,000000000e+00
      646000000   -5,562634021e-02    1,150592230e-02    2,735008001e-01    6,030575037e-01    0,000000000e+00    0,000000000e+00    0,000000000e+00    0,000000000e+00
      660000000   -4,826627672e-02   -8,156121708e-03    5,579410195e-01    3,402852118e-01    0,000000000e+00    0,000000000e+00    0,000000000e+00    0,000000000e+00
      674000000   -5,537962541e-02   -1,119336020e-02    6,440306306e-01   -4,000719637e-02    0,000000000e+00    0,000000000e+00    0,000000000e+00    0,000000000e+00
      688000000   -4,973214492e-02    2,663888037e-03    4,938832223e-01   -4,016494453e-01    0,000000000e+00    0,000000000e+00    0,000000000e+00    0,000000000e+00
      702000000   -2,648128755e-02    7,398506626e-03    1,590178609e-01   -6,058769822e-01    0,000000000e+00    0,000000000e+00    0,000000000e+00    0,000000000e+00
      716000000   -2,707103267e-03   -9,519602172e-03   -2,178515494e-01   -5,750132203e-01    0,000000000e+00    0,000000000e+00    0,000000000e+00    0,000000000e+00
      730000000    9,904081002e-03   -3,402985260e-02   -5,094912648e-01   -3,331314921e-01    0,000000000e+00    0,000000000e+00    0,000000000e+00    0,000000000e+00
      744000000    1,621652767e-02   -6,049888209e-02   -6,006909609e-01    3,298188001e-02    0,000000000e+00    0,000000000e+00    0,000000000e+00    0,000000000e+00
      758000000    2,156420052e-02   -1,040251330e-01   -4,539761245e-01    3,765797615e-01    0,000000000e+00    0,000000000e+00    0,000000000e+00    0,000000000e+00
      772000000   -4,914061632e-03   -1,728950292e-01   -1,397428215e-01    5,576006174e-01    0,000000000e+00    0,000000000e+00    0,000000000e+00    0,000000000e+00
      786000000   -1,045574546e-01   -2,323137075e-01    2,108415067e-01    5,196896791e-01    0,000000000e+00    0,000000000e+00    0,000000000e+00    0,000000000e+00
      800000000   -2,651891112e-01   -1,922484636e-01    4,719108939e-01    2,747366130e-01    0,000000000e+00    0,000000000e+00    0,000000000e+00    0,000000000e+00
      814000000   -3,643741608e-01    4,110684618e-03    5,081244111e-01   -8,867982775e-02    0,000000000e+00    0,000000000e+00    0,000000000e+00    0,000000000e+00
      828000000   -2,480324209e-01    2,338090539e-01    2,807818651e-01   -3,530334830e-01    0,000000000e+00    0,000000000e+00    0,000000000e+00    0,000000000e+00
      842000000    1,295002643e-02    2,780875266e-01   -1,559320930e-02   -3,628184795e-01    0,000000000e+00    0,000000000e+00    0,000000000e+00    0,000000000e+00
      856000000    2,122126371e-01    1,158319488e-01   -1,880251914e-01   -2,044603527e-01    0,000000000e+00    0,000000000e+00    0,000000000e+00    0,000000000e+00
      870000000    2,390539646e-01   -1,486361325e-01   -2,003956288e-01   -2,556584217e-02    0,000000000e+00    0,000000000e+00    0,000000000e+00    0,000000000e+00
      884000000    3,766071424e-02   -3,861948252e-01   -1,037559062e-01    7,130196691e-02    0,000000000e+00    0,000000000e+00    0,000000000e+00    0,000000000e+00
      898000000   -3,691561520e-01   -3,415103257e-01   -1,671499759e-02    2,699586004e-02    0,000000000e+00    0,000000000e+00    0,000000000e+00    0,000000000e+00
      912000000   -4,669808149e-01    1,387986541e-01   -1,150009036e-01    2,152830176e-02    0,000000000e+00    0,000000000e+00    0,000000000e+00    0,000000000e+00
      926000000   -9,525081515e-02    3,507449031e-01   -1,270544529e-01    1,335469782e-01    0,000000000e+00    0,000000000e+00    0,000000000e+00    0,000000000e+00
      940000000    1,828133613e-01    1,961545795e-01   -3,905379027e-02    2,155711800e-01    0,000000000e+00    0,000000000e+00    0,000000000e+00    0,000000000e+00
      954000000    2,525829375e-01   -4,890022799e-02    8,011993766e-02    2,268621773e-01    0,000000000e+00    0,000000000e+00    0,000000000e+00    0,000000000e+00
      968000000    1,743926108e-01   -2,603887022e-01    1,906267107e-01    1,805821806e-01    0,000000000e+00    0,000000000e+00    0,000000000e+00    0,000000000e+00
      982000000   -1,928541064e-02   -3,937948048e-01    2,787982225e-01    7,948015630e-02    0,000000000e+00    0,000000000e+00    0,000000000e+00    0,000000000e+00
      996000000   -2,761780322e-01   -3,784845173e-01    3,113648891e-01   -7,803905755e-02    0,000000000e+00    0,000000000e+00    0,000000000e+00    0,000000000e+00
     1010000000   -4,673473537e-01   -1,764705032e-01    2,210980505e-01   -2,530391514e-01    0,000000000e+00    0,000000000e+00    0,000000000e+00    0,000000000e+00
     1024000000   -4,605747163e-01    1,199920550e-01    2,171665616e-02   -3,301715255e-01    0,000000000e+00    0,000000000e+00    0,000000000e+00    0,000000000e+00
     1038000000   -2,605994940e-01    2,969998717e-01   -1,761256456e-01   -2,476094514e-01    0,000000000e+00    0,000000000e+00    0,000000000e+00    0,000000000e+00
     1052000000   -3,462847695e-02    3,107117712e-01   -2,590393722e-01   -7,969291508e-02    0,000000000e+00    0,000000000e+00    0,000000000e+00    0,000000000e+00
     1066000000    1,277729571e-01    2,062955052e-01   -2,201828361e-01    8,490583301e-02    0,000000000e+00    0,000000000e+00    0,000000000e+00    0,000000000e+00
     1080000000    2,094845921e-01    4,555010051e-02   -1,217773631e-01    1,923057288e-01    0,000000000e+00    0,000000000e+00    0,000000000e+00    0,000000000e+00
     1094000000    1,981133074e-01   -1,283305436e-01    1,642394252e-02    2,349132448e-01    0,000000000e+00    0,000000000e+00    0,000000000e+00    0,000000000e+00
     1108000000    1,017671749e-01   -2,825469375e-01    1,670952588e-01    2,067620158e-01    0,000000000e+00    0,000000000e+00    0,000000000e+00    0,000000000e+00
     1122000000   -9,922623634e-02   -3,725403249e-01    3,141378164e-01    9,401413798e-02    0,000000000e+00    0,000000000e+00    0,000000000e+00    0,000000000e+00
     1136000000   -3,438881338e-01   -2,675441504e-01    3,931547105e-01   -1,496956348e-01    0,000000000e+00    0,000000000e+00    0,000000000e+00    0,000000000e+00
     1150000000   -4,088771343e-01    3,157730773e-02    2,427246422e-01   -4,375612736e-01    0,000000000e+00    0,000000000e+00    0,000000000e+00    0,000000000e+00
     1164000000   -1,581136733e-01    2,151425034e-01   -9,363798052e-02   -5,152160525e-01    0,000000000e+00    0,000000000e+00    0,000000000e+00    0,000000000e+00
     1178000000    7,336837053e-02    8,415690809e-02   -3,591663837e-01   -3,477800488e-01    0,000000000e+00    0,000000000e+00    0,000000000e+00    0,000000000e+00
     1192000000    7,339012623e-02   -1,709968597e-01   -4,539257288e-01   -7,879421115e-02    0,000000000e+00    0,000000000e+00    0,000000000e+00    0,000000000e+00
     1206000000   -1,652755290e-01   -3,251828551e-01   -3,690470755e-01    1,880299151e-01    0,000000000e+00    0,000000000e+00    0,000000000e+00    0,000000000e+00
     1220000000   -4,575657248e-01   -1,815659553e-01   -1,113181189e-01    3,268667758e-01    0,000000000e+00    0,000000000e+00    0,000000000e+00    0,000000000e+00
     1234000000   -4,712159634e-01    1,650425643e-01    1,350565106e-01    2,242717892e-01    0,000000000e+00    0,000000000e+00    0,000000000e+00    0,000000000e+00
     1248000000   -2,301900536e-01    3,555507362e-01    1,919116676e-01    3,243939951e-02    0,000000000e+00    0,000000000e+00    0,000000000e+00    0,000000000e+00
     1262000000    8,260113187e-03    3,300473690e-01    1,291781217e-01   -7,183239609e-02    0,000000000e+00    0,000000000e+00    0,000000000e+00    0,000000000e+00
     1276000000    1,517536789e-01    2,011977583e-01    5,229167268e-02   -9,278179705e-02    0,000000000e+00    0,000000000e+00    0,000000000e+00    0,000000000e+00
     1290000000    2,189720124e-01    3,180571273e-02    6,059812848e-03   -7,484217733e-02    0,000000000e+00    0,000000000e+00    0,000000000e+00    0,000000000e+00
     1304000000    2,054363638e-01   -1,475883573e-01   -1,962896064e-02   -2,752051316e-02    0,000000000e+00    0,000000000e+00    0,000000000e+00    0,000000000e+00
     1318000000    1,139995307e-01   -3,156903386e-01   -6,944488734e-03    1,834920049e-02    0,000000000e+00    0,000000000e+00    0,000000000e+00    0,000000000e+00
     1332000000   -6,709994376e-02   -4,356403351e-01    4,422381520e-02    5,846077204e-02    0,000000000e+00    0,000000000e+00    0,000000000e+00    0,000000000e+00
     1346000000   -3,279139698e-01   -4,312905967e-01    1,475658566e-01    5,240343511e-02    0,000000000e+00    0,000000000e+00    0,000000000e+00    0,000000000e+00
     1360000000   -5,570124388e-01   -2,380473912e-01    1,061973497e-01   -7,049115002e-02    0,000000000e+00    0,000000000e+00    0,000000000e+00    0,000000000e+00
     1374000000   -6,174684763e-01    2,845564112e-02    1,148060188e-01    5,955174565e-02    0,000000000e+00    0,000000000e+00    0,000000000e+00    0,000000000e+00
     1388000000   -5,141470432e-01    2,938934267e-01    2,306925356e-01    1,422510948e-03    0,000000000e+00    0,000000000e+00    0,000000000e+00    0,000000000e+00
     1402000000   -3,005846739e-01    4,172318876e-01    2,259932160e-01   -8,921749890e-02    0,000000000e+00    0,000000000e+00    0,000000000e+00    0,000000000e+00
     1416000000   -9,750932455e-02    4,173619151e-01    1,796644181e-01   -1,182717085e-01    0,000000000e+00    0,000000000e+00    0,000000000e+00    0,000000000e+00
     1430000000    7,605713606e-02    3,365983367e-01    1,555907428e-01   -1,066369489e-01    0,000000000e+00    0,000000000e+00    0,000000000e+00    0,000000000e+00
     1444000000    1,753639430e-01    1,999987811e-01    1,415227056e-01   -9,591869265e-02    0,000000000e+00    0,000000000e+00    0,000000000e+00    0,000000000e+00
     1458000000    2,242244333e-01    3,647441044e-02    1,552504003e-01   -7,644678652e-02    0,000000000e+00    0,000000000e+00    0,000000000e+00    0,000000000e+00
     1472000000    2,058290988e-01   -1,466190070e-01    1,534503698e-01   -6,069584191e-02    0,000000000e+00    0,000000000e+00    0,000000000e+00    0,000000000e+00
     1486000000    1,051860601e-01   -3,221461177e-01    1,812475324e-01    3,613106441e-03    0,000000000e+00    0,000000000e+00    0,000000000e+00    0,000000000e+00
     1500000000   -8,539295197e-02   -4,606786370e-01    2,248247266e-01    4,351623356e-02    0,000000000e+00    0,000000000e+00    0,000000000e+00    0,000000000e+00
