! NanoVNA-App
! Date: 2025-09-25 14:26:24
! Start: 100MHz Stop: 1,5GHz Points: 101
! S-Parameter data: F S11 S21 S12 S22
# Hz S RI R 50
!     Frequency           S11_Real           S11_Imag           S21_Real           S21_Imag           S12_Real           S12_Imag           S22_Real           S22_Imag
      100000000   -2,907879092e-02   -4,119237885e-03    3,745184839e-01   -7,220459580e-01    0,000000000e+00    0,000000000e+00    0,000000000e+00    0,000000000e+00
      114000000   -1,659686677e-02    1,161983423e-02   -8,896986395e-02   -8,057480454e-01    0,000000000e+00    0,000000000e+00    0,000000000e+00    0,000000000e+00
      128000000    3,387858393e-03    1,051103137e-02   -5,147377849e-01   -6,211308241e-01    0,000000000e+00    0,000000000e+00    0,000000000e+00    0,000000000e+00
      142000000    1,445685048e-02   -3,081185510e-03   -7,675217390e-01   -2,369365543e-01    0,000000000e+00    0,000000000e+00    0,000000000e+00    0,000000000e+00
      156000000    1,486263145e-02   -1,508719847e-02   -7,700204849e-01    2,196271718e-01    0,000000000e+00    0,000000000e+00    0,000000000e+00    0,000000000e+00
      170000000    1,650759950e-02   -2,246325836e-02   -5,188809633e-01    6,051551700e-01    0,000000000e+00    0,000000000e+00    0,000000000e+00    0,000000000e+00
      184000000    2,102424391e-02   -3,705845773e-02   -1,019882113e-01    7,865689993e-01    0,000000000e+00    0,000000000e+00    0,000000000e+00    0,000000000e+00
      198000000    1,316995826e-02   -6,261234730e-02    3,429473937e-01    7,132433653e-01    0,000000000e+00    0,000000000e+00    0,000000000e+00    0,000000000e+00
      212000000   -1,871700957e-02   -8,168138564e-02    6,784099340e-01    4,104458094e-01    0,000000000e+00    0,000000000e+00    0,000000000e+00    0,000000000e+00
      226000000   -6,210421771e-02   -6,966268271e-02    7,961253524e-01   -2,973949723e-02    0,000000000e+00    0,000000000e+00    0,000000000e+00    0,000000000e+00
      240000000   -8,330802619e-02   -2,601092122e-02    6,469759941e-01   -4,664850533e-01    0,000000000e+00    0,000000000e+00    0,000000000e+00    0,000000000e+00
      254000000   -6,435086578e-02    1,748847216e-02    2,770747244e-01   -7,435283065e-01    0,000000000e+00    0,000000000e+00    0,000000000e+00    0,000000000e+00
      268000000   -2,404152416e-02    2,947799489e-02   -1,763651818e-01   -7,648385763e-01    0,000000000e+00    0,000000000e+00    0,000000000e+00    0,000000000e+00
      282000000    4,150557797e-03    1,208768506e-02   -5,625960231e-01   -5,373396873e-01    0,000000000e+00    0,000000000e+00    0,000000000e+00    0,000000000e+00
      296000000    9,626246989e-03   -7,684056181e-03   -7,606856227e-01   -1,394719929e-01    0,000000000e+00    0,000000000e+00    0,000000000e+00    0,000000000e+00
      310000000    1,069668960e-02   -1,599320583e-02   -7,139126658e-01    2,967075408e-01    0,000000000e+00    0,000000000e+00    0,000000000e+00    0,000000000e+00
      324000000    1,953231357e-02   -2,644371986e-02   -4,281107187e-01    6,371201873e-01    0,000000000e+00    0,000000000e+00    0,000000000e+00    0,000000000e+00
      338000000    2,541341446e-02   -5,213275179e-02   -1,226685010e-02    7,611638904e-01    0,000000000e+00    0,000000000e+00    0,000000000e+00    0,000000000e+00
      352000000    7,225514855e-03   -8,473784477e-02    4,049791992e-01    6,404933929e-01    0,000000000e+00    0,000000000e+00    0,000000000e+00    0,000000000e+00
      366000000   -3,507319838e-02   -9,602042288e-02    6,906942725e-01    3,123045564e-01    0,000000000e+00    0,000000000e+00    0,000000000e+00    0,000000000e+00
      380000000   -7,145058364e-02   -7,115989923e-02    7,489498258e-01   -1,244345233e-01    0,000000000e+00    0,000000000e+00    0,000000000e+00    0,000000000e+00
      394000000   -7,326392084e-02   -3,238385171e-02    5,474214554e-01   -5,211000443e-01    0,000000000e+00    0,000000000e+00    0,000000000e+00    0,000000000e+00
      408000000   -4,689398035e-02   -1,558157429e-02    1,626089811e-01   -7,318601012e-01    0,000000000e+00    0,000000000e+00    0,000000000e+00    0,000000000e+00
      422000000   -2,828349546e-02   -3,132344782e-02   -2,658945620e-01   -6,961123943e-01    0,000000000e+00    0,000000000e+00    0,000000000e+00    0,000000000e+00
      436000000   -4,012970626e-02   -5,212825537e-02   -6,023021936e-01   -4,341100156e-01    0,000000000e+00    0,000000000e+00    0,000000000e+00    0,000000000e+00
      450000000   -6,738209724e-02   -4,455048591e-02   -7,403886318e-01   -2,541929483e-02    0,000000000e+00    0,000000000e+00    0,000000000e+00    0,000000000e+00
      464000000   -7,426686585e-02   -1,246252749e-02   -6,213485599e-01    3,946310878e-01    0,000000000e+00    0,000000000e+00    0,000000000e+00    0,000000000e+00
      478000000   -4,895044118e-02    1,156095136e-02   -2,863512933e-01    6,675661206e-01    0,000000000e+00    0,000000000e+00    0,000000000e+00    0,000000000e+00
      492000000   -1,676617935e-02    6,514132954e-03    1,341133714e-01    7,034979463e-01    0,000000000e+00    0,000000000e+00    0,000000000e+00    0,000000000e+00
      506000000   -3,814867465e-03   -1,527655218e-02    4,974357784e-01    5,057982206e-01    0,000000000e+00    0,000000000e+00    0,000000000e+00    0,000000000e+00
      520000000   -5,748795345e-03   -2,985583059e-02    6,895281076e-01    1,442350149e-01    0,000000000e+00    0,000000000e+00    0,000000000e+00    0,000000000e+00
      534000000   -3,438797779e-03   -3,590849042e-02    6,446290016e-01   -2,598353922e-01    0,000000000e+00    0,000000000e+00    0,000000000e+00    0,000000000e+00
      548000000    7,924523205e-03   -5,253762379e-02    3,843527436e-01   -5,643655658e-01    0,000000000e+00    0,000000000e+00    0,000000000e+00    0,000000000e+00
      562000000    5,519373342e-03   -8,957778662e-02    7,888961583e-03   -6,727460623e-01    0,000000000e+00    0,000000000e+00    0,000000000e+00    0,000000000e+00
      576000000   -3,144824505e-02   -1,265002042e-01   -3,623293042e-01   -5,617212057e-01    0,000000000e+00    0,000000000e+00    0,000000000e+00    0,000000000e+00
      590000000   -9,515398741e-02   -1,280177683e-01   -6,174812317e-01   -2,713293433e-01    0,000000000e+00    0,000000000e+00    0,000000000e+00    0,000000000e+00
      604000000   -1,427738070e-01   -7,796467841e-02   -6,671223640e-01    1,262991726e-01    0,000000000e+00    0,000000000e+00    0,000000000e+00    0,000000000e+00
      618000000   -1,380547136e-01   -1,076752599e-02   -4,748134911e-01    4,865085185e-01    0,000000000e+00    0,000000000e+00    0,000000000e+00    0,000000000e+00
      632000000   -9,307639301e-02    2,113690414e-02   -1,128579676e-01    6,628233194e-01    0,000000000e+00    0,000000000e+00    0,000000000e+00    0,000000000e+00
      646000000   -5,455274135e-02    1,170473918e-02    2,737033963e-01    6,038452983e-01    0,000000000e+00    0,000000000e+00    0,000000000e+00    0,000000000e+00
      660000000   -4,861377180e-02   -8,756762370e-03    5,588029623e-01    3,410083652e-01    0,000000000e+00    0,000000000e+00    0,000000000e+00    0,000000000e+00
      674000000   -5,526987091e-02   -1,030640583e-02    6,444526315e-01   -3,982072696e-02    0,000000000e+00    0,000000000e+00    0,000000000e+00    0,000000000e+00
      688000000   -5,057348683e-02    2,402543556e-03    4,926774800e-01   -4,022785425e-01    0,000000000e+00    0,000000000e+00    0,000000000e+00    0,000000000e+00
      702000000   -2,658469230e-02    7,812887430e-03    1,657103151e-01   -6,007093191e-01    0,000000000e+00    0,000000000e+00    0,000000000e+00    0,000000000e+00
      716000000   -1,439901651e-03   -8,682892658e-03   -2,185694575e-01   -5,755755305e-01    0,000000000e+00    0,000000000e+00    0,000000000e+00    0,000000000e+00
      730000000    9,769357741e-03   -3,517794237e-02   -5,096288323e-01   -3,335406780e-01    0,000000000e+00    0,000000000e+00    0,000000000e+00    0,000000000e+00
      744000000    1,732669584e-02   -6,092335284e-02   -6,013994813e-01    3,298709542e-02    0,000000000e+00    0,000000000e+00    0,000000000e+00    0,000000000e+00
      758000000    2,144989371e-02   -1,038106456e-01   -4,538942575e-01    3,767750263e-01    0,000000000e+00    0,000000000e+00    0,000000000e+00    0,000000000e+00
      772000000   -4,939966369e-03   -1,740800589e-01   -1,397017390e-01    5,584217906e-01    0,000000000e+00    0,000000000e+00    0,000000000e+00    0,000000000e+00
      786000000   -1,049009934e-01   -2,322910875e-01    2,117550522e-01    5,198395252e-01    0,000000000e+00    0,000000000e+00    0,000000000e+00    0,000000000e+00
      800000000   -2,662141621e-01   -1,921931654e-01    4,718921781e-01    2,750941515e-01    0,000000000e+00    0,000000000e+00    0,000000000e+00    0,000000000e+00
      814000000   -3,648962677e-01    3,137193155e-03    5,085508227e-01   -8,855783939e-02    0,000000000e+00    0,000000000e+00    0,000000000e+00    0,000000000e+00
      828000000   -2,478462458e-01    2,342803329e-01    2,820313573e-01   -3,527483344e-01    0,000000000e+00    0,000000000e+00    0,000000000e+00    0,000000000e+00
      842000000    1,344081573e-02    2,778762877e-01   -1,587325521e-02   -3,629249334e-01    0,000000000e+00    0,000000000e+00    0,000000000e+00    0,000000000e+00
      856000000    2,127259821e-01    1,155058220e-01   -1,881999075e-01   -2,044396847e-01    0,000000000e+00    0,000000000e+00    0,000000000e+00    0,000000000e+00
      870000000    2,389439344e-01   -1,484285891e-01   -2,009288669e-01   -2,559599839e-02    0,000000000e+00    0,000000000e+00    0,000000000e+00    0,000000000e+00
      884000000    3,739784658e-02   -3,868292868e-01   -1,047696844e-01    7,101520151e-02    0,000000000e+00    0,000000000e+00    0,000000000e+00    0,000000000e+00
      898000000   -3,698693514e-01   -3,413868546e-01   -1,677991450e-02    2,762647718e-02    0,000000000e+00    0,000000000e+00    0,000000000e+00    0,000000000e+00
      912000000   -4,672431350e-01    1,379407048e-01   -1,084492654e-01    2,592032589e-02    0,000000000e+00    0,000000000e+00    0,000000000e+00    0,000000000e+00
      926000000   -9,657075256e-02    3,529395759e-01   -1,297156513e-01    1,343951374e-01    0,000000000e+00    0,000000000e+00    0,000000000e+00    0,000000000e+00
      940000000    1,822286844e-01    1,942002177e-01   -3,830814362e-02    2,155198455e-01    0,000000000e+00    0,000000000e+00    0,000000000e+00    0,000000000e+00
      954000000    2,565821707e-01   -4,720766470e-02    8,052219450e-02    2,281455547e-01    0,000000000e+00    0,000000000e+00    0,000000000e+00    0,000000000e+00
      968000000    1,749469489e-01   -2,590718269e-01    1,917319596e-01    1,795503646e-01    0,000000000e+00    0,000000000e+00    0,000000000e+00    0,000000000e+00
      982000000   -1,869608462e-02   -3,924781978e-01    2,793626189e-01    7,933091372e-02    0,000000000e+00    0,000000000e+00    0,000000000e+00    0,000000000e+00
      996000000   -2,728682458e-01   -3,791544437e-01    3,097238839e-01   -8,153241128e-02    0,000000000e+00    0,000000000e+00    0,000000000e+00    0,000000000e+00
     1010000000   -4,720116854e-01   -1,728224754e-01    2,210558951e-01   -2,520051599e-01    0,000000000e+00    0,000000000e+00    0,000000000e+00    0,000000000e+00
     1024000000   -4,552842081e-01    1,176295877e-01    1,991375536e-02   -3,290385306e-01    0,000000000e+00    0,000000000e+00    0,000000000e+00    0,000000000e+00
     1038000000   -2,634621859e-01    3,006474674e-01   -1,728080511e-01   -2,470503300e-01    0,000000000e+00    0,000000000e+00    0,000000000e+00    0,000000000e+00
     1052000000   -3,842895105e-02    3,051274717e-01   -2,557093799e-01   -7,680137455e-02    0,000000000e+00    0,000000000e+00    0,000000000e+00    0,000000000e+00
     1066000000    1,258454025e-01    2,087590992e-01   -2,281196713e-01    8,875452727e-02    0,000000000e+00    0,000000000e+00    0,000000000e+00    0,000000000e+00
     1080000000    2,045876533e-01    4,583042860e-02   -1,196346134e-01    1,932296753e-01    0,000000000e+00    0,000000000e+00    0,000000000e+00    0,000000000e+00
     1094000000    1,985840350e-01   -1,263269484e-01    1,843227819e-02    2,327589244e-01    0,000000000e+00    0,000000000e+00    0,000000000e+00    0,000000000e+00
     1108000000    1,014164314e-01   -2,849865556e-01    1,690028906e-01    2,072071433e-01    0,000000000e+00    0,000000000e+00    0,000000000e+00    0,000000000e+00
     1122000000   -9,830568731e-02   -3,703246713e-01    3,189661801e-01    8,964732289e-02    0,000000000e+00    0,000000000e+00    0,000000000e+00    0,000000000e+00
     1136000000   -3,512849510e-01   -2,688410878e-01    3,902168274e-01   -1,510485113e-01    0,000000000e+00    0,000000000e+00    0,000000000e+00    0,000000000e+00
     1150000000   -4,083125293e-01    4,013939202e-02    2,449466139e-01   -4,354328811e-01    0,000000000e+00    0,000000000e+00    0,000000000e+00    0,000000000e+00
     1164000000   -1,627987474e-01    2,211031616e-01   -9,298191965e-02   -5,115454793e-01    0,000000000e+00    0,000000000e+00    0,000000000e+00    0,000000000e+00
     1178000000    7,899934798e-02    8,468241990e-02   -3,575813472e-01   -3,455271721e-01    0,000000000e+00    0,000000000e+00    0,000000000e+00    0,000000000e+00
     1192000000    7,667747140e-02   -1,702292264e-01   -4,506918490e-01   -8,228938282e-02    0,000000000e+00    0,000000000e+00    0,000000000e+00    0,000000000e+00
     1206000000   -1,630072743e-01   -3,251115978e-01   -3,677042127e-01    1,887869537e-01    0,000000000e+00    0,000000000e+00    0,000000000e+00    0,000000000e+00
     1220000000   -4,519953430e-01   -1,810474843e-01   -1,059336215e-01    3,289007545e-01    0,000000000e+00    0,000000000e+00    0,000000000e+00    0,000000000e+00
     1234000000   -4,707451463e-01    1,654772162e-01    1,387179345e-01    2,209547907e-01    0,000000000e+00    0,000000000e+00    0,000000000e+00    0,000000000e+00
     1248000000   -2,313604653e-01    3,544704020e-01    1,907764524e-01    3,797420114e-02    0,000000000e+00    0,000000000e+00    0,000000000e+00    0,000000000e+00
     1262000000    6,540721515e-04    3,265622556e-01    1,261751652e-01   -7,402554154e-02    0,000000000e+00    0,000000000e+00    0,000000000e+00    0,000000000e+00
     1276000000    1,521729976e-01    1,949284524e-01    5,417607352e-02   -9,697004408e-02    0,000000000e+00    0,000000000e+00    0,000000000e+00    0,000000000e+00
     1290000000    2,144754827e-01    3,553813323e-02   -3,062224481e-03   -7,048355788e-02    0,000000000e+00    0,000000000e+00    0,000000000e+00    0,000000000e+00
     1304000000    2,039265782e-01   -1,460317075e-01   -2,179202437e-02   -3,319061175e-02    0,000000000e+00    0,000000000e+00    0,000000000e+00    0,000000000e+00
     1318000000    1,172561422e-01   -3,108734488e-01   -8,945708163e-03    2,198217250e-02    0,000000000e+00    0,000000000e+00    0,000000000e+00    0,000000000e+00
     1332000000   -6,579240412e-02   -4,337215424e-01    4,906114563e-02    6,603706628e-02    0,000000000e+00    0,000000000e+00    0,000000000e+00    0,000000000e+00
     1346000000   -3,301233947e-01   -4,315680265e-01    1,486731023e-01    5,341694504e-02    0,000000000e+00    0,000000000e+00    0,000000000e+00    0,000000000e+00
     1360000000   -5,545462370e-01   -2,467549145e-01    1,168324724e-01   -9,044703096e-02    0,000000000e+00    0,000000000e+00    0,000000000e+00    0,000000000e+00
     1374000000   -6,360718608e-01    3,258251771e-02    1,003584936e-01    6,116540357e-02    0,000000000e+00    0,000000000e+00    0,000000000e+00    0,000000000e+00
     1388000000   -5,138092041e-01    2,894966304e-01    2,121390402e-01   -5,942524294e-04    0,000000000e+00    0,000000000e+00    0,000000000e+00    0,000000000e+00
     1402000000   -3,051086664e-01    4,112783074e-01    2,240706831e-01   -9,365994483e-02    0,000000000e+00    0,000000000e+00    0,000000000e+00    0,000000000e+00
     1416000000   -8,882068098e-02    4,225463271e-01    2,064077407e-01   -1,268508285e-01    0,000000000e+00    0,000000000e+00    0,000000000e+00    0,000000000e+00
     1430000000    6,758110225e-02    3,432428837e-01    1,598980278e-01   -1,034676954e-01    0,000000000e+00    0,000000000e+00    0,000000000e+00    0,000000000e+00
     1444000000    1,755604297e-01    2,029091716e-01    1,391096115e-01   -1,017267033e-01    0,000000000e+00    0,000000000e+00    0,000000000e+00    0,000000000e+00
     1458000000    2,244488001e-01    3,767685220e-02    1,560854614e-01   -7,368283719e-02    0,000000000e+00    0,000000000e+00    0,000000000e+00    0,000000000e+00
     1472000000    2,066757679e-01   -1,502344012e-01    1,550170034e-01   -6,452356279e-02    0,000000000e+00    0,000000000e+00    0,000000000e+00    0,000000000e+00
     1486000000    1,055073291e-01   -3,228891194e-01    1,720327288e-01   -6,826476194e-03    0,000000000e+00    0,000000000e+00    0,000000000e+00    0,000000000e+00
     1500000000   -9,266217798e-02   -4,621900022e-01    2,009989172e-01    4,234219715e-02    0,000000000e+00    0,000000000e+00    0,000000000e+00    0,000000000e+00
