! NanoVNA-App
! Date: 2025-09-25 14:22:50
! Start: 100MHz Stop: 1,5GHz Points: 101
! S-Parameter data: F S11 S21 S12 S22
# Hz S RI R 50
!     Frequency           S11_Real           S11_Imag           S21_Real           S21_Imag           S12_Real           S12_Imag           S22_Real           S22_Imag
      100000000   -2,908753231e-02   -4,147241823e-03    3,744956255e-01   -7,220672369e-01    0,000000000e+00    0,000000000e+00    0,000000000e+00    0,000000000e+00
      114000000   -1,663334668e-02    1,161707751e-02   -8,902171999e-02   -8,058077693e-01    0,000000000e+00    0,000000000e+00    0,000000000e+00    0,000000000e+00
      128000000    3,449058626e-03    1,057561859e-02   -5,144419670e-01   -6,209243536e-01    0,000000000e+00    0,000000000e+00    0,000000000e+00    0,000000000e+00
      142000000    1,445687469e-02   -3,026746446e-03   -7,675571442e-01   -2,369567007e-01    0,000000000e+00    0,000000000e+00    0,000000000e+00    0,000000000e+00
      156000000    1,522651222e-02   -1,484672632e-02   -7,721738219e-01    2,215889394e-01    0,000000000e+00    0,000000000e+00    0,000000000e+00    0,000000000e+00
      170000000    1,657180116e-02   -2,257095277e-02   -5,185420513e-01    6,051209569e-01    0,000000000e+00    0,000000000e+00    0,000000000e+00    0,000000000e+00
      184000000    2,096941322e-02   -3,705340624e-02   -1,017118692e-01    7,865671515e-01    0,000000000e+00    0,000000000e+00    0,000000000e+00    0,000000000e+00
      198000000    1,302622259e-02   -6,259373575e-02    3,432188928e-01    7,130711079e-01    0,000000000e+00    0,000000000e+00    0,000000000e+00    0,000000000e+00
      212000000   -1,867783442e-02   -8,169160783e-02    6,782389283e-01    4,104937315e-01    0,000000000e+00    0,000000000e+00    0,000000000e+00    0,000000000e+00
      226000000   -6,198983639e-02   -6,973223388e-02    7,959951162e-01   -2,969627082e-02    0,000000000e+00    0,000000000e+00    0,000000000e+00    0,000000000e+00
      240000000   -8,319453895e-02   -2,610422485e-02    6,471513510e-01   -4,667105675e-01    0,000000000e+00    0,000000000e+00    0,000000000e+00    0,000000000e+00
      254000000   -6,438744068e-02    1,725474186e-02    2,773091495e-01   -7,436228395e-01    0,000000000e+00    0,000000000e+00    0,000000000e+00    0,000000000e+00
      268000000   -2,426144481e-02    2,950441837e-02   -1,769927889e-01   -7,648323774e-01    0,000000000e+00    0,000000000e+00    0,000000000e+00    0,000000000e+00
      282000000    4,108313471e-03    1,215695404e-02   -5,621535182e-01   -5,371627808e-01    0,000000000e+00    0,000000000e+00    0,000000000e+00    0,000000000e+00
      296000000    9,615640156e-03   -7,683802862e-03   -7,607967854e-01   -1,396314353e-01    0,000000000e+00    0,000000000e+00    0,000000000e+00    0,000000000e+00
      310000000    1,095939521e-02   -1,595671847e-02   -7,133129835e-01    2,983201146e-01    0,000000000e+00    0,000000000e+00    0,000000000e+00    0,000000000e+00
      324000000    1,937049069e-02   -2,657497674e-02   -4,288637340e-01    6,373391151e-01    0,000000000e+00    0,000000000e+00    0,000000000e+00    0,000000000e+00
      338000000    2,554831095e-02   -5,219450220e-02   -8,705271408e-03    7,629168034e-01    0,000000000e+00    0,000000000e+00    0,000000000e+00    0,000000000e+00
      352000000    7,321451325e-03   -8,470038325e-02    4,059971869e-01    6,418649554e-01    0,000000000e+00    0,000000000e+00    0,000000000e+00    0,000000000e+00
      366000000   -3,500753641e-02   -9,602204710e-02    6,904839873e-01    3,125407994e-01    0,000000000e+00    0,000000000e+00    0,000000000e+00    0,000000000e+00
      380000000   -7,147698849e-02   -7,108601928e-02    7,480330467e-01   -1,253288984e-01    0,000000000e+00    0,000000000e+00    0,000000000e+00    0,000000000e+00
      394000000   -7,298355550e-02   -3,245259821e-02    5,478640199e-01   -5,218785405e-01    0,000000000e+00    0,000000000e+00    0,000000000e+00    0,000000000e+00
      408000000   -4,682498798e-02   -1,595893688e-02    1,641776860e-01   -7,331584692e-01    0,000000000e+00    0,000000000e+00    0,000000000e+00    0,000000000e+00
      422000000   -2,857810073e-02   -3,142046556e-02   -2,662120759e-01   -6,953175068e-01    0,000000000e+00    0,000000000e+00    0,000000000e+00    0,000000000e+00
      436000000   -4,050937667e-02   -5,216149613e-02   -6,029138565e-01   -4,337705076e-01    0,000000000e+00    0,000000000e+00    0,000000000e+00    0,000000000e+00
      450000000   -6,769248843e-02   -4,506706074e-02   -7,406705618e-01   -2,509943210e-02    0,000000000e+00    0,000000000e+00    0,000000000e+00    0,000000000e+00
      464000000   -7,429517061e-02   -1,247395761e-02   -6,213773489e-01    3,943463862e-01    0,000000000e+00    0,000000000e+00    0,000000000e+00    0,000000000e+00
      478000000   -4,925962538e-02    1,177866198e-02   -2,869839668e-01    6,676626801e-01    0,000000000e+00    0,000000000e+00    0,000000000e+00    0,000000000e+00
      492000000   -1,666860282e-02    6,663801149e-03    1,345531493e-01    7,050293684e-01    0,000000000e+00    0,000000000e+00    0,000000000e+00    0,000000000e+00
      506000000   -3,625364508e-03   -1,526453719e-02    4,976466894e-01    5,061304569e-01    0,000000000e+00    0,000000000e+00    0,000000000e+00    0,000000000e+00
      520000000   -5,642538425e-03   -2,971065603e-02    6,882389188e-01    1,444402039e-01    0,000000000e+00    0,000000000e+00    0,000000000e+00    0,000000000e+00
      534000000   -3,218183061e-03   -3,591511771e-02    6,444657445e-01   -2,599489987e-01    0,000000000e+00    0,000000000e+00    0,000000000e+00    0,000000000e+00
      548000000    8,443649858e-03   -5,261776224e-02    3,851282299e-01   -5,644437075e-01    0,000000000e+00    0,000000000e+00    0,000000000e+00    0,000000000e+00
      562000000    6,010646466e-03   -8,979762346e-02    7,304639090e-03   -6,722398400e-01    0,000000000e+00    0,000000000e+00    0,000000000e+00    0,000000000e+00
      576000000   -3,110938147e-02   -1,262912005e-01   -3,620443642e-01   -5,609180331e-01    0,000000000e+00    0,000000000e+00    0,000000000e+00    0,000000000e+00
      590000000   -9,488213807e-02   -1,278394610e-01   -6,157623529e-01   -2,733722627e-01    0,000000000e+00    0,000000000e+00    0,000000000e+00    0,000000000e+00
      604000000   -1,431636512e-01   -7,811680436e-02   -6,679583788e-01    1,264846623e-01    0,000000000e+00    0,000000000e+00    0,000000000e+00    0,000000000e+00
      618000000   -1,381795853e-01   -1,177844219e-02   -4,754797220e-01    4,861300290e-01    0,000000000e+00    0,000000000e+00    0,000000000e+00    0,000000000e+00
      632000000   -9,347223490e-02    2,211723663e-02   -1,133415699e-01    6,632753611e-01    0,000000000e+00    0,000000000e+00    0,000000000e+00    0,000000000e+00
      646000000   -5,464074016e-02    1,205590460e-02    2,736106217e-01    6,026575565e-01    0,000000000e+00    0,000000000e+00    0,000000000e+00    0,000000000e+00
      660000000   -4,848685116e-02   -9,094862267e-03    5,570873022e-01    3,401380181e-01    0,000000000e+00    0,000000000e+00    0,000000000e+00    0,000000000e+00
      674000000   -5,541172251e-02   -1,111126039e-02    6,441499591e-01   -3,984516114e-02    0,000000000e+00    0,000000000e+00    0,000000000e+00    0,000000000e+00
      688000000   -5,084213614e-02    3,337389790e-03    4,936066270e-01   -4,017044604e-01    0,000000000e+00    0,000000000e+00    0,000000000e+00    0,000000000e+00
      702000000   -2,649678476e-02    7,752145175e-03    1,587670296e-01   -6,094826460e-01    0,000000000e+00    0,000000000e+00    0,000000000e+00    0,000000000e+00
      716000000   -1,703652670e-03   -9,771457873e-03   -2,201788723e-01   -5,761448741e-01    0,000000000e+00    0,000000000e+00    0,000000000e+00    0,000000000e+00
      730000000    1,021147799e-02   -3,459709510e-02   -5,091102123e-01   -3,330317140e-01    0,000000000e+00    0,000000000e+00    0,000000000e+00    0,000000000e+00
      744000000    1,678253897e-02   -6,136443838e-02   -6,006095409e-01    3,314849734e-02    0,000000000e+00    0,000000000e+00    0,000000000e+00    0,000000000e+00
      758000000    2,270630375e-02   -1,039697528e-01   -4,548507929e-01    3,769296408e-01    0,000000000e+00    0,000000000e+00    0,000000000e+00    0,000000000e+00
      772000000   -5,369750317e-03   -1,742478460e-01   -1,396110058e-01    5,578184724e-01    0,000000000e+00    0,000000000e+00    0,000000000e+00    0,000000000e+00
      786000000   -1,055717617e-01   -2,318982780e-01    2,120345384e-01    5,198885798e-01    0,000000000e+00    0,000000000e+00    0,000000000e+00    0,000000000e+00
      800000000   -2,655487359e-01   -1,924954653e-01    4,718817174e-01    2,754611671e-01    0,000000000e+00    0,000000000e+00    0,000000000e+00    0,000000000e+00
      814000000   -3,641160429e-01    4,127388820e-03    5,086464882e-01   -8,875310421e-02    0,000000000e+00    0,000000000e+00    0,000000000e+00    0,000000000e+00
      828000000   -2,471377850e-01    2,327617109e-01    2,809454799e-01   -3,522309959e-01    0,000000000e+00    0,000000000e+00    0,000000000e+00    0,000000000e+00
      842000000    1,323517412e-02    2,788596749e-01   -1,564088278e-02   -3,632102907e-01    0,000000000e+00    0,000000000e+00    0,000000000e+00    0,000000000e+00
      856000000    2,123920918e-01    1,158655658e-01   -1,884516329e-01   -2,045617998e-01    0,000000000e+00    0,000000000e+00    0,000000000e+00    0,000000000e+00
      870000000    2,384894341e-01   -1,485543996e-01   -1,998450607e-01   -2,534781769e-02    0,000000000e+00    0,000000000e+00    0,000000000e+00    0,000000000e+00
      884000000    3,814081848e-02   -3,872110248e-01   -1,032375768e-01    7,072272897e-02    0,000000000e+00    0,000000000e+00    0,000000000e+00    0,000000000e+00
      898000000   -3,697788119e-01   -3,428763449e-01   -1,715842076e-02    2,698804997e-02    0,000000000e+00    0,000000000e+00    0,000000000e+00    0,000000000e+00
      912000000   -4,682735801e-01    1,387500316e-01   -1,204642057e-01    3,975088894e-02    0,000000000e+00    0,000000000e+00    0,000000000e+00    0,000000000e+00
      926000000   -9,744673222e-02    3,524677455e-01   -1,305315942e-01    1,361747533e-01    0,000000000e+00    0,000000000e+00    0,000000000e+00    0,000000000e+00
      940000000    1,819748282e-01    1,929804832e-01   -3,855216131e-02    2,161643207e-01    0,000000000e+00    0,000000000e+00    0,000000000e+00    0,000000000e+00
      954000000    2,539851964e-01   -5,103100091e-02    7,921393216e-02    2,283827066e-01    0,000000000e+00    0,000000000e+00    0,000000000e+00    0,000000000e+00
      968000000    1,742274314e-01   -2,603462338e-01    1,891892403e-01    1,797356904e-01    0,000000000e+00    0,000000000e+00    0,000000000e+00    0,000000000e+00
      982000000   -1,664279960e-02   -3,923409283e-01    2,783400714e-01    7,863742113e-02    0,000000000e+00    0,000000000e+00    0,000000000e+00    0,000000000e+00
      996000000   -2,763386965e-01   -3,785611987e-01    3,104240000e-01   -7,922220230e-02    0,000000000e+00    0,000000000e+00    0,000000000e+00    0,000000000e+00
     1010000000   -4,703032076e-01   -1,752473712e-01    2,213566452e-01   -2,534687221e-01    0,000000000e+00    0,000000000e+00    0,000000000e+00    0,000000000e+00
     1024000000   -4,624669552e-01    1,198882833e-01    2,263676561e-02   -3,308558166e-01    0,000000000e+00    0,000000000e+00    0,000000000e+00    0,000000000e+00
     1038000000   -2,605493069e-01    2,989997566e-01   -1,741677523e-01   -2,488999516e-01    0,000000000e+00    0,000000000e+00    0,000000000e+00    0,000000000e+00
     1052000000   -3,586112708e-02    3,117567897e-01   -2,562156916e-01   -7,801635563e-02    0,000000000e+00    0,000000000e+00    0,000000000e+00    0,000000000e+00
     1066000000    1,269201189e-01    2,070076466e-01   -2,269606441e-01    8,619409055e-02    0,000000000e+00    0,000000000e+00    0,000000000e+00    0,000000000e+00
     1080000000    2,048519999e-01    4,629445821e-02   -1,215150729e-01    1,928900480e-01    0,000000000e+00    0,000000000e+00    0,000000000e+00    0,000000000e+00
     1094000000    1,998572499e-01   -1,306231916e-01    1,767780259e-02    2,338864803e-01    0,000000000e+00    0,000000000e+00    0,000000000e+00    0,000000000e+00
     1108000000    1,039522216e-01   -2,882969081e-01    1,695840508e-01    2,050800472e-01    0,000000000e+00    0,000000000e+00    0,000000000e+00    0,000000000e+00
     1122000000   -9,780465811e-02   -3,698207736e-01    3,141636550e-01    9,057191759e-02    0,000000000e+00    0,000000000e+00    0,000000000e+00    0,000000000e+00
     1136000000   -3,470763862e-01   -2,661957443e-01    3,891398907e-01   -1,511164904e-01    0,000000000e+00    0,000000000e+00    0,000000000e+00    0,000000000e+00
     1150000000   -4,066821635e-01    3,221843019e-02    2,418316901e-01   -4,374798238e-01    0,000000000e+00    0,000000000e+00    0,000000000e+00    0,000000000e+00
     1164000000   -1,632163227e-01    2,192360014e-01   -9,712964296e-02   -5,158168674e-01    0,000000000e+00    0,000000000e+00    0,000000000e+00    0,000000000e+00
     1178000000    7,869970798e-02    8,543071151e-02   -3,560903072e-01   -3,468328416e-01    0,000000000e+00    0,000000000e+00    0,000000000e+00    0,000000000e+00
     1192000000    7,474274933e-02   -1,715038121e-01   -4,537287652e-01   -8,201697469e-02    0,000000000e+00    0,000000000e+00    0,000000000e+00    0,000000000e+00
     1206000000   -1,598669291e-01   -3,274827898e-01   -3,657116294e-01    1,867062896e-01    0,000000000e+00    0,000000000e+00    0,000000000e+00    0,000000000e+00
     1220000000   -4,528819323e-01   -1,736014485e-01   -1,077286080e-01    3,286719322e-01    0,000000000e+00    0,000000000e+00    0,000000000e+00    0,000000000e+00
     1234000000   -4,700393081e-01    1,620165855e-01    1,395785064e-01    2,185834348e-01    0,000000000e+00    0,000000000e+00    0,000000000e+00    0,000000000e+00
     1248000000   -2,301715016e-01    3,556101918e-01    1,922582686e-01    3,083818033e-02    0,000000000e+00    0,000000000e+00    0,000000000e+00    0,000000000e+00
     1262000000    1,858354895e-03    3,287722468e-01    1,257863492e-01   -7,063864172e-02    0,000000000e+00    0,000000000e+00    0,000000000e+00    0,000000000e+00
     1276000000    1,518657953e-01    2,009445578e-01    5,309942365e-02   -9,496837854e-02    0,000000000e+00    0,000000000e+00    0,000000000e+00    0,000000000e+00
     1290000000    2,182880342e-01    3,079006821e-02    1,918347203e-03   -7,620666921e-02    0,000000000e+00    0,000000000e+00    0,000000000e+00    0,000000000e+00
     1304000000    2,021180540e-01   -1,486662030e-01   -2,340705134e-02   -2,914978564e-02    0,000000000e+00    0,000000000e+00    0,000000000e+00    0,000000000e+00
     1318000000    1,138124913e-01   -3,141244352e-01   -7,239121012e-03    2,131605893e-02    0,000000000e+00    0,000000000e+00    0,000000000e+00    0,000000000e+00
     1332000000   -6,504441053e-02   -4,331685603e-01    5,173451826e-02    6,252840161e-02    0,000000000e+00    0,000000000e+00    0,000000000e+00    0,000000000e+00
     1346000000   -3,289969563e-01   -4,369374812e-01    1,388030946e-01    4,370378703e-02    0,000000000e+00    0,000000000e+00    0,000000000e+00    0,000000000e+00
     1360000000   -5,535532236e-01   -2,424209863e-01    1,142605841e-01   -7,599265873e-02    0,000000000e+00    0,000000000e+00    0,000000000e+00    0,000000000e+00
     1374000000   -6,282590032e-01    2,921883576e-02    9,967801720e-02    5,780554563e-02    0,000000000e+00    0,000000000e+00    0,000000000e+00    0,000000000e+00
     1388000000   -5,232303143e-01    2,939910591e-01    2,147810012e-01    5,166687537e-03    0,000000000e+00    0,000000000e+00    0,000000000e+00    0,000000000e+00
     1402000000   -3,052730560e-01    4,129935205e-01    2,188208103e-01   -9,295424819e-02    0,000000000e+00    0,000000000e+00    0,000000000e+00    0,000000000e+00
     1416000000   -9,585794061e-02    4,213024676e-01    1,774207056e-01   -1,116376445e-01    0,000000000e+00    0,000000000e+00    0,000000000e+00    0,000000000e+00
     1430000000    6,682918221e-02    3,284250200e-01    1,485045105e-01   -1,123057306e-01    0,000000000e+00    0,000000000e+00    0,000000000e+00    0,000000000e+00
     1444000000    1,729810387e-01    1,906783879e-01    1,497358978e-01   -1,082357243e-01    0,000000000e+00    0,000000000e+00    0,000000000e+00    0,000000000e+00
     1458000000    2,239427716e-01    3,407705575e-02    1,608557850e-01   -9,034906328e-02    0,000000000e+00    0,000000000e+00    0,000000000e+00    0,000000000e+00
     1472000000    2,070016861e-01   -1,454393715e-01    1,543375552e-01   -5,028505251e-02    0,000000000e+00    0,000000000e+00    0,000000000e+00    0,000000000e+00
     1486000000    1,071243286e-01   -3,267484307e-01    1,612918079e-01    2,189713996e-03    0,000000000e+00    0,000000000e+00    0,000000000e+00    0,000000000e+00
     1500000000   -1,002319604e-01   -4,600062370e-01    1,943490952e-01    5,374613032e-02    0,000000000e+00    0,000000000e+00    0,000000000e+00    0,000000000e+00
