! NanoVNA-App
! Date: 2025-09-25 14:28:07
! Start: 100MHz Stop: 1,5GHz Points: 101
! S-Parameter data: F S11 S21 S12 S22
# Hz S RI R 50
!     Frequency           S11_Real           S11_Imag           S21_Real           S21_Imag           S12_Real           S12_Imag           S22_Real           S22_Imag
      100000000   -2,909176424e-02   -4,128126428e-03    3,745579422e-01   -7,220285535e-01    0,000000000e+00    0,000000000e+00    0,000000000e+00    0,000000000e+00
      114000000   -1,662317291e-02    1,162187103e-02   -8,873973787e-02   -8,058831096e-01    0,000000000e+00    0,000000000e+00    0,000000000e+00    0,000000000e+00
      128000000    3,463044297e-03    1,052120514e-02   -5,145556927e-01   -6,211683154e-01    0,000000000e+00    0,000000000e+00    0,000000000e+00    0,000000000e+00
      142000000    1,442443859e-02   -3,088739701e-03   -7,674986124e-01   -2,370452732e-01    0,000000000e+00    0,000000000e+00    0,000000000e+00    0,000000000e+00
      156000000    1,458794996e-02   -1,506329607e-02   -7,675006986e-01    2,184627801e-01    0,000000000e+00    0,000000000e+00    0,000000000e+00    0,000000000e+00
      170000000    1,652382128e-02   -2,247048169e-02   -5,187798142e-01    6,049460173e-01    0,000000000e+00    0,000000000e+00    0,000000000e+00    0,000000000e+00
      184000000    2,100703679e-02   -3,697993979e-02   -1,018564105e-01    7,865131497e-01    0,000000000e+00    0,000000000e+00    0,000000000e+00    0,000000000e+00
      198000000    1,314345933e-02   -6,257560104e-02    3,432020545e-01    7,130587101e-01    0,000000000e+00    0,000000000e+00    0,000000000e+00    0,000000000e+00
      212000000   -1,873530820e-02   -8,167389035e-02    6,783159375e-01    4,107590318e-01    0,000000000e+00    0,000000000e+00    0,000000000e+00    0,000000000e+00
      226000000   -6,212914363e-02   -6,969845295e-02    7,961364985e-01   -2,970495448e-02    0,000000000e+00    0,000000000e+00    0,000000000e+00    0,000000000e+00
      240000000   -8,330982924e-02   -2,603982389e-02    6,472753882e-01   -4,667169750e-01    0,000000000e+00    0,000000000e+00    0,000000000e+00    0,000000000e+00
      254000000   -6,438503414e-02    1,746385731e-02    2,771438360e-01   -7,430612445e-01    0,000000000e+00    0,000000000e+00    0,000000000e+00    0,000000000e+00
      268000000   -2,400918864e-02    2,950260229e-02   -1,768124104e-01   -7,650131583e-01    0,000000000e+00    0,000000000e+00    0,000000000e+00    0,000000000e+00
      282000000    4,122715443e-03    1,204923261e-02   -5,624838471e-01   -5,371866822e-01    0,000000000e+00    0,000000000e+00    0,000000000e+00    0,000000000e+00
      296000000    9,522668086e-03   -7,840160280e-03   -7,607071400e-01   -1,394935101e-01    0,000000000e+00    0,000000000e+00    0,000000000e+00    0,000000000e+00
      310000000    1,109324861e-02   -1,619169675e-02   -7,123242021e-01    2,970734835e-01    0,000000000e+00    0,000000000e+00    0,000000000e+00    0,000000000e+00
      324000000    1,948310621e-02   -2,645387873e-02   -4,278763533e-01    6,373270154e-01    0,000000000e+00    0,000000000e+00    0,000000000e+00    0,000000000e+00
      338000000    2,533584274e-02   -5,204798281e-02   -1,240415871e-02    7,635859847e-01    0,000000000e+00    0,000000000e+00    0,000000000e+00    0,000000000e+00
      352000000    7,570962887e-03   -8,467792720e-02    4,062558711e-01    6,416143775e-01    0,000000000e+00    0,000000000e+00    0,000000000e+00    0,000000000e+00
      366000000   -3,502212465e-02   -9,607850760e-02    6,904347539e-01    3,120139837e-01    0,000000000e+00    0,000000000e+00    0,000000000e+00    0,000000000e+00
      380000000   -7,130854577e-02   -7,129112631e-02    7,479461432e-01   -1,244013160e-01    0,000000000e+00    0,000000000e+00    0,000000000e+00    0,000000000e+00
      394000000   -7,288306206e-02   -3,238615394e-02    5,480009913e-01   -5,219861269e-01    0,000000000e+00    0,000000000e+00    0,000000000e+00    0,000000000e+00
      408000000   -4,691128433e-02   -1,563725434e-02    1,637644023e-01   -7,322155237e-01    0,000000000e+00    0,000000000e+00    0,000000000e+00    0,000000000e+00
      422000000   -2,831121907e-02   -3,138053045e-02   -2,648875415e-01   -6,956514120e-01    0,000000000e+00    0,000000000e+00    0,000000000e+00    0,000000000e+00
      436000000   -4,017561302e-02   -5,204152688e-02   -6,023999453e-01   -4,334720075e-01    0,000000000e+00    0,000000000e+00    0,000000000e+00    0,000000000e+00
      450000000   -6,771876663e-02   -4,469483718e-02   -7,403602004e-01   -2,502241358e-02    0,000000000e+00    0,000000000e+00    0,000000000e+00    0,000000000e+00
      464000000   -7,410410792e-02   -1,249825303e-02   -6,214672327e-01    3,951700628e-01    0,000000000e+00    0,000000000e+00    0,000000000e+00    0,000000000e+00
      478000000   -4,921722785e-02    1,160359941e-02   -2,869021297e-01    6,680596471e-01    0,000000000e+00    0,000000000e+00    0,000000000e+00    0,000000000e+00
      492000000   -1,671947353e-02    6,477192510e-03    1,344703734e-01    7,036886811e-01    0,000000000e+00    0,000000000e+00    0,000000000e+00    0,000000000e+00
      506000000   -3,432194237e-03   -1,470847987e-02    4,974070787e-01    5,062526464e-01    0,000000000e+00    0,000000000e+00    0,000000000e+00    0,000000000e+00
      520000000   -5,667469464e-03   -2,928911708e-02    6,892995834e-01    1,440929025e-01    0,000000000e+00    0,000000000e+00    0,000000000e+00    0,000000000e+00
      534000000   -3,547540167e-03   -3,576661274e-02    6,441052556e-01   -2,593859434e-01    0,000000000e+00    0,000000000e+00    0,000000000e+00    0,000000000e+00
      548000000    7,663999218e-03   -5,246966705e-02    3,848032951e-01   -5,635113120e-01    0,000000000e+00    0,000000000e+00    0,000000000e+00    0,000000000e+00
      562000000    5,403798539e-03   -8,965035528e-02    9,037439711e-03   -6,724076867e-01    0,000000000e+00    0,000000000e+00    0,000000000e+00    0,000000000e+00
      576000000   -3,078434803e-02   -1,258470416e-01   -3,621260822e-01   -5,609439015e-01    0,000000000e+00    0,000000000e+00    0,000000000e+00    0,000000000e+00
      590000000   -9,515261650e-02   -1,275873482e-01   -6,180743575e-01   -2,719725072e-01    0,000000000e+00    0,000000000e+00    0,000000000e+00    0,000000000e+00
      604000000   -1,432995647e-01   -7,832182199e-02   -6,674419641e-01    1,258355081e-01    0,000000000e+00    0,000000000e+00    0,000000000e+00    0,000000000e+00
      618000000   -1,380731612e-01   -1,153447665e-02   -4,753133953e-01    4,851890504e-01    0,000000000e+00    0,000000000e+00    0,000000000e+00    0,000000000e+00
      632000000   -9,275609255e-02    2,166791633e-02   -1,155699790e-01    6,630768180e-01    0,000000000e+00    0,000000000e+00    0,000000000e+00    0,000000000e+00
      646000000   -5,544761568e-02    1,152642444e-02    2,731631100e-01    6,032926440e-01    0,000000000e+00    0,000000000e+00    0,000000000e+00    0,000000000e+00
      660000000   -4,844389856e-02   -8,415734395e-03    5,566262007e-01    3,405079544e-01    0,000000000e+00    0,000000000e+00    0,000000000e+00    0,000000000e+00
      674000000   -5,521675572e-02   -1,071445271e-02    6,443981528e-01   -3,981318325e-02    0,000000000e+00    0,000000000e+00    0,000000000e+00    0,000000000e+00
      688000000   -5,046660081e-02    2,290515462e-03    4,936107397e-01   -4,019726217e-01    0,000000000e+00    0,000000000e+00    0,000000000e+00    0,000000000e+00
      702000000   -2,601481974e-02    7,011445705e-03    1,618639380e-01   -6,072740555e-01    0,000000000e+00    0,000000000e+00    0,000000000e+00    0,000000000e+00
      716000000   -2,650582464e-03   -8,832522668e-03   -2,178512514e-01   -5,750915408e-01    0,000000000e+00    0,000000000e+00    0,000000000e+00    0,000000000e+00
      730000000    8,976288140e-03   -3,452004120e-02   -5,092227459e-01   -3,324982524e-01    0,000000000e+00    0,000000000e+00    0,000000000e+00    0,000000000e+00
      744000000    1,727620512e-02   -6,051372364e-02   -6,007820964e-01    3,310545906e-02    0,000000000e+00    0,000000000e+00    0,000000000e+00    0,000000000e+00
      758000000    2,196922712e-02   -1,040141806e-01   -4,553128183e-01    3,766315579e-01    0,000000000e+00    0,000000000e+00    0,000000000e+00    0,000000000e+00
      772000000   -4,959132988e-03   -1,732359082e-01   -1,391568035e-01    5,573117733e-01    0,000000000e+00    0,000000000e+00    0,000000000e+00    0,000000000e+00
      786000000   -1,049923971e-01   -2,325400859e-01    2,110418081e-01    5,189667344e-01    0,000000000e+00    0,000000000e+00    0,000000000e+00    0,000000000e+00
      800000000   -2,659921944e-01   -1,929796487e-01    4,716709256e-01    2,759983540e-01    0,000000000e+00    0,000000000e+00    0,000000000e+00    0,000000000e+00
      814000000   -3,643850088e-01    4,058338236e-03    5,081898570e-01   -8,896288276e-02    0,000000000e+00    0,000000000e+00    0,000000000e+00    0,000000000e+00
      828000000   -2,466184497e-01    2,334720790e-01    2,814882696e-01   -3,522854447e-01    0,000000000e+00    0,000000000e+00    0,000000000e+00    0,000000000e+00
      842000000    1,299143210e-02    2,785424888e-01   -1,555719785e-02   -3,629898727e-01    0,000000000e+00    0,000000000e+00    0,000000000e+00    0,000000000e+00
      856000000    2,127095014e-01    1,153688282e-01   -1,878320128e-01   -2,042217553e-01    0,000000000e+00    0,000000000e+00    0,000000000e+00    0,000000000e+00
      870000000    2,384744436e-01   -1,483637244e-01   -2,007579952e-01   -2,583804913e-02    0,000000000e+00    0,000000000e+00    0,000000000e+00    0,000000000e+00
      884000000    3,694424406e-02   -3,860684335e-01   -1,044236794e-01    7,091495395e-02    0,000000000e+00    0,000000000e+00    0,000000000e+00    0,000000000e+00
      898000000   -3,695117831e-01   -3,410094380e-01   -1,712678187e-02    2,791078016e-02    0,000000000e+00    0,000000000e+00    0,000000000e+00    0,000000000e+00
      912000000   -4,675771892e-01    1,381198466e-01   -1,239504963e-01    3,359909356e-02    0,000000000e+00    0,000000000e+00    0,000000000e+00    0,000000000e+00
      926000000   -9,676633030e-02    3,510863781e-01   -1,303831786e-01    1,337135732e-01    0,000000000e+00    0,000000000e+00    0,000000000e+00    0,000000000e+00
      940000000    1,832471490e-01    1,916264445e-01   -3,853861988e-02    2,152408659e-01    0,000000000e+00    0,000000000e+00    0,000000000e+00    0,000000000e+00
      954000000    2,545529604e-01   -5,013742298e-02    7,998573780e-02    2,270255238e-01    0,000000000e+00    0,000000000e+00    0,000000000e+00    0,000000000e+00
      968000000    1,760419607e-01   -2,605674267e-01    1,921760142e-01    1,809247583e-01    0,000000000e+00    0,000000000e+00    0,000000000e+00    0,000000000e+00
      982000000   -1,901552454e-02   -3,930972219e-01    2,794639468e-01    7,907783985e-02    0,000000000e+00    0,000000000e+00    0,000000000e+00    0,000000000e+00
      996000000   -2,711911201e-01   -3,768856525e-01    3,102744222e-01   -7,997366041e-02    0,000000000e+00    0,000000000e+00    0,000000000e+00    0,000000000e+00
     1010000000   -4,719120562e-01   -1,750913858e-01    2,235385478e-01   -2,529382408e-01    0,000000000e+00    0,000000000e+00    0,000000000e+00    0,000000000e+00
     1024000000   -4,612664282e-01    1,121633649e-01    2,233324386e-02   -3,306986988e-01    0,000000000e+00    0,000000000e+00    0,000000000e+00    0,000000000e+00
     1038000000   -2,670248151e-01    3,008608222e-01   -1,736896038e-01   -2,483170182e-01    0,000000000e+00    0,000000000e+00    0,000000000e+00    0,000000000e+00
     1052000000   -3,558066487e-02    3,062702715e-01   -2,589370310e-01   -7,739918679e-02    0,000000000e+00    0,000000000e+00    0,000000000e+00    0,000000000e+00
     1066000000    1,244788989e-01    2,046713531e-01   -2,258841693e-01    8,492103219e-02    0,000000000e+00    0,000000000e+00    0,000000000e+00    0,000000000e+00
     1080000000    2,096017897e-01    5,019712448e-02   -1,190982759e-01    1,923229396e-01    0,000000000e+00    0,000000000e+00    0,000000000e+00    0,000000000e+00
     1094000000    2,010301054e-01   -1,256931424e-01    1,730632409e-02    2,348647863e-01    0,000000000e+00    0,000000000e+00    0,000000000e+00    0,000000000e+00
     1108000000    9,873639792e-02   -2,842719853e-01    1,697777808e-01    2,039448768e-01    0,000000000e+00    0,000000000e+00    0,000000000e+00    0,000000000e+00
     1122000000   -1,027488112e-01   -3,675983250e-01    3,162269592e-01    8,980737627e-02    0,000000000e+00    0,000000000e+00    0,000000000e+00    0,000000000e+00
     1136000000   -3,504535258e-01   -2,695888281e-01    3,943109810e-01   -1,505079418e-01    0,000000000e+00    0,000000000e+00    0,000000000e+00    0,000000000e+00
     1150000000   -4,042977393e-01    4,138763994e-02    2,439788133e-01   -4,393588305e-01    0,000000000e+00    0,000000000e+00    0,000000000e+00    0,000000000e+00
     1164000000   -1,609833390e-01    2,156241089e-01   -9,497095644e-02   -5,147029757e-01    0,000000000e+00    0,000000000e+00    0,000000000e+00    0,000000000e+00
     1178000000    7,272367179e-02    8,338305354e-02   -3,576917648e-01   -3,491584063e-01    0,000000000e+00    0,000000000e+00    0,000000000e+00    0,000000000e+00
     1192000000    7,468225062e-02   -1,764584184e-01   -4,536391199e-01   -8,294533938e-02    0,000000000e+00    0,000000000e+00    0,000000000e+00    0,000000000e+00
     1206000000   -1,632731259e-01   -3,241534233e-01   -3,705332577e-01    1,919449866e-01    0,000000000e+00    0,000000000e+00    0,000000000e+00    0,000000000e+00
     1220000000   -4,525820613e-01   -1,775182784e-01   -1,058313027e-01    3,313736022e-01    0,000000000e+00    0,000000000e+00    0,000000000e+00    0,000000000e+00
     1234000000   -4,769256711e-01    1,683624834e-01    1,345205754e-01    2,260005772e-01    0,000000000e+00    0,000000000e+00    0,000000000e+00    0,000000000e+00
     1248000000   -2,377476990e-01    3,527446091e-01    1,933655590e-01    3,592232242e-02    0,000000000e+00    0,000000000e+00    0,000000000e+00    0,000000000e+00
     1262000000    3,371471073e-03    3,227139711e-01    1,246462464e-01   -7,459321618e-02    0,000000000e+00    0,000000000e+00    0,000000000e+00    0,000000000e+00
     1276000000    1,580325812e-01    1,967755109e-01    5,339099839e-02   -9,414374828e-02    0,000000000e+00    0,000000000e+00    0,000000000e+00    0,000000000e+00
     1290000000    2,231043875e-01    3,402424604e-02    3,028208157e-03   -7,193361223e-02    0,000000000e+00    0,000000000e+00    0,000000000e+00    0,000000000e+00
     1304000000    2,065937519e-01   -1,466664821e-01   -1,755218022e-02   -3,006696329e-02    0,000000000e+00    0,000000000e+00    0,000000000e+00    0,000000000e+00
     1318000000    1,116087809e-01   -3,117634952e-01   -1,273373235e-02    2,383577824e-02    0,000000000e+00    0,000000000e+00    0,000000000e+00    0,000000000e+00
     1332000000   -7,242050767e-02   -4,354854226e-01    4,344485328e-02    6,357697397e-02    0,000000000e+00    0,000000000e+00    0,000000000e+00    0,000000000e+00
     1346000000   -3,306908906e-01   -4,320172071e-01    1,458598375e-01    4,659381881e-02    0,000000000e+00    0,000000000e+00    0,000000000e+00    0,000000000e+00
     1360000000   -5,534929037e-01   -2,442906052e-01    1,263411343e-01   -7,857002318e-02    0,000000000e+00    0,000000000e+00    0,000000000e+00    0,000000000e+00
     1374000000   -6,313040257e-01    2,813555487e-02    1,045922637e-01    5,106243491e-02    0,000000000e+00    0,000000000e+00    0,000000000e+00    0,000000000e+00
     1388000000   -5,142121911e-01    2,978513539e-01    2,234087288e-01    1,282617822e-02    0,000000000e+00    0,000000000e+00    0,000000000e+00    0,000000000e+00
     1402000000   -2,992627919e-01    4,205553830e-01    2,316963673e-01   -8,355352283e-02    0,000000000e+00    0,000000000e+00    0,000000000e+00    0,000000000e+00
     1416000000   -9,907075018e-02    4,216073453e-01    1,806466132e-01   -1,122334674e-01    0,000000000e+00    0,000000000e+00    0,000000000e+00    0,000000000e+00
     1430000000    7,983599603e-02    3,312954605e-01    1,438924521e-01   -1,467878819e-01    0,000000000e+00    0,000000000e+00    0,000000000e+00    0,000000000e+00
     1444000000    1,805400848e-01    1,999619603e-01    1,557280868e-01   -1,088367850e-01    0,000000000e+00    0,000000000e+00    0,000000000e+00    0,000000000e+00
     1458000000    2,315351665e-01    3,678165376e-02    1,594718993e-01   -8,473076671e-02    0,000000000e+00    0,000000000e+00    0,000000000e+00    0,000000000e+00
     1472000000    2,075156122e-01   -1,454840600e-01    1,591057330e-01   -6,254509836e-02    0,000000000e+00    0,000000000e+00    0,000000000e+00    0,000000000e+00
     1486000000    1,061044261e-01   -3,248798251e-01    1,559992731e-01   -5,629950203e-03    0,000000000e+00    0,000000000e+00    0,000000000e+00    0,000000000e+00
     1500000000   -9,770307690e-02   -4,597954154e-01    2,029777169e-01    4,658636823e-02    0,000000000e+00    0,000000000e+00    0,000000000e+00    0,000000000e+00
