! NanoVNA-App
! Date: 2025-09-25 14:28:18
! Start: 100MHz Stop: 1,5GHz Points: 101
! S-Parameter data: F S11 S21 S12 S22
# Hz S RI R 50
!     Frequency           S11_Real           S11_Imag           S21_Real           S21_Imag           S12_Real           S12_Imag           S22_Real           S22_Imag
      100000000   -2,909005620e-02   -4,146963358e-03    3,745458722e-01   -7,219823003e-01    0,000000000e+00    0,000000000e+00    0,000000000e+00    0,000000000e+00
      114000000   -1,662719250e-02    1,158745773e-02   -8,883127570e-02   -8,056812882e-01    0,000000000e+00    0,000000000e+00    0,000000000e+00    0,000000000e+00
      128000000    3,429259872e-03    1,053292118e-02   -5,145600438e-01   -6,213353276e-01    0,000000000e+00    0,000000000e+00    0,000000000e+00    0,000000000e+00
      142000000    1,443930995e-02   -3,073584521e-03   -7,674070597e-01   -2,369605601e-01    0,000000000e+00    0,000000000e+00    0,000000000e+00    0,000000000e+00
      156000000    1,546525490e-02   -1,455049217e-02   -7,731518745e-01    2,231847793e-01    0,000000000e+00    0,000000000e+00    0,000000000e+00    0,000000000e+00
      170000000    1,645547152e-02   -2,251053602e-02   -5,188968778e-01    6,049560308e-01    0,000000000e+00    0,000000000e+00    0,000000000e+00    0,000000000e+00
      184000000    2,098795213e-02   -3,700581938e-02   -1,019349471e-01    7,866738439e-01    0,000000000e+00    0,000000000e+00    0,000000000e+00    0,000000000e+00
      198000000    1,310494635e-02   -6,262741238e-02    3,430830240e-01    7,131084800e-01    0,000000000e+00    0,000000000e+00    0,000000000e+00    0,000000000e+00
      212000000   -1,865995117e-02   -8,171354979e-02    6,785386801e-01    4,105661511e-01    0,000000000e+00    0,000000000e+00    0,000000000e+00    0,000000000e+00
      226000000   -6,207867339e-02   -6,974031776e-02    7,960953116e-01   -2,957599051e-02    0,000000000e+00    0,000000000e+00    0,000000000e+00    0,000000000e+00
      240000000   -8,330675960e-02   -2,604472637e-02    6,471864581e-01   -4,667660892e-01    0,000000000e+00    0,000000000e+00    0,000000000e+00    0,000000000e+00
      254000000   -6,437014788e-02    1,746246032e-02    2,772402465e-01   -7,430500388e-01    0,000000000e+00    0,000000000e+00    0,000000000e+00    0,000000000e+00
      268000000   -2,400086075e-02    2,950008772e-02   -1,767071187e-01   -7,646819949e-01    0,000000000e+00    0,000000000e+00    0,000000000e+00    0,000000000e+00
      282000000    4,135172348e-03    1,214361005e-02   -5,627707839e-01   -5,372989178e-01    0,000000000e+00    0,000000000e+00    0,000000000e+00    0,000000000e+00
      296000000    9,545984678e-03   -7,830153219e-03   -7,608215213e-01   -1,395944953e-01    0,000000000e+00    0,000000000e+00    0,000000000e+00    0,000000000e+00
      310000000    1,090276986e-02   -1,614408381e-02   -7,140569091e-01    2,980544567e-01    0,000000000e+00    0,000000000e+00    0,000000000e+00    0,000000000e+00
      324000000    1,934837550e-02   -2,645305544e-02   -4,290290177e-01    6,378415227e-01    0,000000000e+00    0,000000000e+00    0,000000000e+00    0,000000000e+00
      338000000    2,513661236e-02   -5,205677822e-02   -8,873116225e-03    7,640700936e-01    0,000000000e+00    0,000000000e+00    0,000000000e+00    0,000000000e+00
      352000000    7,618769538e-03   -8,483905345e-02    4,059936404e-01    6,405460238e-01    0,000000000e+00    0,000000000e+00    0,000000000e+00    0,000000000e+00
      366000000   -3,498312086e-02   -9,593475610e-02    6,905803084e-01    3,117620051e-01    0,000000000e+00    0,000000000e+00    0,000000000e+00    0,000000000e+00
      380000000   -7,141876966e-02   -7,129404694e-02    7,482939959e-01   -1,248997971e-01    0,000000000e+00    0,000000000e+00    0,000000000e+00    0,000000000e+00
      394000000   -7,333130389e-02   -3,221062198e-02    5,473114252e-01   -5,211004615e-01    0,000000000e+00    0,000000000e+00    0,000000000e+00    0,000000000e+00
      408000000   -4,683897644e-02   -1,566104591e-02    1,623822898e-01   -7,331541777e-01    0,000000000e+00    0,000000000e+00    0,000000000e+00    0,000000000e+00
      422000000   -2,815356851e-02   -3,136127815e-02   -2,653151453e-01   -6,965526938e-01    0,000000000e+00    0,000000000e+00    0,000000000e+00    0,000000000e+00
      436000000   -3,984611109e-02   -5,196737871e-02   -6,023682356e-01   -4,336787760e-01    0,000000000e+00    0,000000000e+00    0,000000000e+00    0,000000000e+00
      450000000   -6,738506258e-02   -4,466812685e-02   -7,400609851e-01   -2,519494481e-02    0,000000000e+00    0,000000000e+00    0,000000000e+00    0,000000000e+00
      464000000   -7,434340566e-02   -1,241905615e-02   -6,213001013e-01    3,947242796e-01    0,000000000e+00    0,000000000e+00    0,000000000e+00    0,000000000e+00
      478000000   -4,932944849e-02    1,177333295e-02   -2,875297070e-01    6,677806377e-01    0,000000000e+00    0,000000000e+00    0,000000000e+00    0,000000000e+00
      492000000   -1,717840508e-02    6,550309714e-03    1,340688765e-01    7,037126422e-01    0,000000000e+00    0,000000000e+00    0,000000000e+00    0,000000000e+00
      506000000   -4,163303412e-03   -1,525160298e-02    4,970810115e-01    5,054847002e-01    0,000000000e+00    0,000000000e+00    0,000000000e+00    0,000000000e+00
      520000000   -5,478235427e-03   -2,951921150e-02    6,900995374e-01    1,452059150e-01    0,000000000e+00    0,000000000e+00    0,000000000e+00    0,000000000e+00
      534000000   -3,184499452e-03   -3,585724160e-02    6,445356011e-01   -2,593501508e-01    0,000000000e+00    0,000000000e+00    0,000000000e+00    0,000000000e+00
      548000000    8,314588107e-03   -5,269578099e-02    3,856567442e-01   -5,645440221e-01    0,000000000e+00    0,000000000e+00    0,000000000e+00    0,000000000e+00
      562000000    6,023304537e-03   -8,923951536e-02    7,620375138e-03   -6,721387506e-01    0,000000000e+00    0,000000000e+00    0,000000000e+00    0,000000000e+00
      576000000   -3,150035441e-02   -1,258400828e-01   -3,623964489e-01   -5,608198047e-01    0,000000000e+00    0,000000000e+00    0,000000000e+00    0,000000000e+00
      590000000   -9,507216513e-02   -1,278275996e-01   -6,171630025e-01   -2,706463039e-01    0,000000000e+00    0,000000000e+00    0,000000000e+00    0,000000000e+00
      604000000   -1,435334086e-01   -7,777158171e-02   -6,679587960e-01    1,264858693e-01    0,000000000e+00    0,000000000e+00    0,000000000e+00    0,000000000e+00
      618000000   -1,379423440e-01   -1,122711971e-02   -4,763154089e-01    4,846588671e-01    0,000000000e+00    0,000000000e+00    0,000000000e+00    0,000000000e+00
      632000000   -9,322752059e-02    2,129773423e-02   -1,126581356e-01    6,625706553e-01    0,000000000e+00    0,000000000e+00    0,000000000e+00    0,000000000e+00
      646000000   -5,504292250e-02    1,135649905e-02    2,738577425e-01    6,025992632e-01    0,000000000e+00    0,000000000e+00    0,000000000e+00    0,000000000e+00
      660000000   -4,842898622e-02   -8,724793792e-03    5,579360127e-01    3,404748142e-01    0,000000000e+00    0,000000000e+00    0,000000000e+00    0,000000000e+00
      674000000   -5,524887890e-02   -1,058333553e-02    6,445625424e-01   -3,943377733e-02    0,000000000e+00    0,000000000e+00    0,000000000e+00    0,000000000e+00
      688000000   -5,016092211e-02    3,671475919e-03    4,928782880e-01   -4,018055797e-01    0,000000000e+00    0,000000000e+00    0,000000000e+00    0,000000000e+00
      702000000   -2,644191869e-02    7,933140732e-03    1,650644094e-01   -6,005334854e-01    0,000000000e+00    0,000000000e+00    0,000000000e+00    0,000000000e+00
      716000000   -1,547813648e-03   -9,283878841e-03   -2,182662487e-01   -5,757257938e-01    0,000000000e+00    0,000000000e+00    0,000000000e+00    0,000000000e+00
      730000000    9,993412532e-03   -3,399122134e-02   -5,086151361e-01   -3,339118659e-01    0,000000000e+00    0,000000000e+00    0,000000000e+00    0,000000000e+00
      744000000    1,700580493e-02   -6,159505993e-02   -6,010261774e-01    3,302307799e-02    0,000000000e+00    0,000000000e+00    0,000000000e+00    0,000000000e+00
      758000000    2,146417834e-02   -1,034310162e-01   -4,550920725e-01    3,773879409e-01    0,000000000e+00    0,000000000e+00    0,000000000e+00    0,000000000e+00
      772000000   -4,753018264e-03   -1,743110269e-01   -1,395986676e-01    5,582764149e-01    0,000000000e+00    0,000000000e+00    0,000000000e+00    0,000000000e+00
      786000000   -1,050735563e-01   -2,330406606e-01    2,107913643e-01    5,203908682e-01    0,000000000e+00    0,000000000e+00    0,000000000e+00    0,000000000e+00
      800000000   -2,662876844e-01   -1,930112988e-01    4,719840586e-01    2,758663595e-01    0,000000000e+00    0,000000000e+00    0,000000000e+00    0,000000000e+00
      814000000   -3,636309206e-01    3,779120045e-03    5,079278350e-01   -8,825616539e-02    0,000000000e+00    0,000000000e+00    0,000000000e+00    0,000000000e+00
      828000000   -2,477051020e-01    2,320992500e-01    2,816885710e-01   -3,523293734e-01    0,000000000e+00    0,000000000e+00    0,000000000e+00    0,000000000e+00
      842000000    1,303312927e-02    2,782697678e-01   -1,666168310e-02   -3,626192808e-01    0,000000000e+00    0,000000000e+00    0,000000000e+00    0,000000000e+00
      856000000    2,124528140e-01    1,153333411e-01   -1,879192740e-01   -2,056997567e-01    0,000000000e+00    0,000000000e+00    0,000000000e+00    0,000000000e+00
      870000000    2,389512509e-01   -1,486877054e-01   -2,006118447e-01   -2,613276802e-02    0,000000000e+00    0,000000000e+00    0,000000000e+00    0,000000000e+00
      884000000    3,772445396e-02   -3,868777454e-01   -1,046209037e-01    7,105031610e-02    0,000000000e+00    0,000000000e+00    0,000000000e+00    0,000000000e+00
      898000000   -3,697436154e-01   -3,413684964e-01   -1,667503081e-02    2,791536041e-02    0,000000000e+00    0,000000000e+00    0,000000000e+00    0,000000000e+00
      912000000   -4,676386118e-01    1,376338005e-01   -1,222785562e-01    3,253383934e-02    0,000000000e+00    0,000000000e+00    0,000000000e+00    0,000000000e+00
      926000000   -9,419896454e-02    3,522841334e-01   -1,264476478e-01    1,356374174e-01    0,000000000e+00    0,000000000e+00    0,000000000e+00    0,000000000e+00
      940000000    1,844832301e-01    1,929764450e-01   -3,823999316e-02    2,158784419e-01    0,000000000e+00    0,000000000e+00    0,000000000e+00    0,000000000e+00
      954000000    2,530453205e-01   -4,909902439e-02    8,003108948e-02    2,269097418e-01    0,000000000e+00    0,000000000e+00    0,000000000e+00    0,000000000e+00
      968000000    1,752784401e-01   -2,637319863e-01    1,916299164e-01    1,805424988e-01    0,000000000e+00    0,000000000e+00    0,000000000e+00    0,000000000e+00
      982000000   -1,896507852e-02   -3,915208280e-01    2,800830007e-01    8,040811867e-02    0,000000000e+00    0,000000000e+00    0,000000000e+00    0,000000000e+00
      996000000   -2,776590884e-01   -3,768430352e-01    3,084726334e-01   -8,035723120e-02    0,000000000e+00    0,000000000e+00    0,000000000e+00    0,000000000e+00
     1010000000   -4,709974825e-01   -1,760941744e-01    2,207599878e-01   -2,524445057e-01    0,000000000e+00    0,000000000e+00    0,000000000e+00    0,000000000e+00
     1024000000   -4,587476552e-01    1,214996576e-01    2,051060088e-02   -3,309576213e-01    0,000000000e+00    0,000000000e+00    0,000000000e+00    0,000000000e+00
     1038000000   -2,622340322e-01    2,975869775e-01   -1,736173332e-01   -2,460178137e-01    0,000000000e+00    0,000000000e+00    0,000000000e+00    0,000000000e+00
     1052000000   -3,951207176e-02    3,084333539e-01   -2,570984662e-01   -7,844147831e-02    0,000000000e+00    0,000000000e+00    0,000000000e+00    0,000000000e+00
     1066000000    1,281059086e-01    2,072637975e-01   -2,241254002e-01    8,675520122e-02    0,000000000e+00    0,000000000e+00    0,000000000e+00    0,000000000e+00
     1080000000    2,086906433e-01    4,495928809e-02   -1,209783629e-01    1,942039728e-01    0,000000000e+00    0,000000000e+00    0,000000000e+00    0,000000000e+00
     1094000000    2,041888088e-01   -1,269195825e-01    1,486432552e-02    2,339288294e-01    0,000000000e+00    0,000000000e+00    0,000000000e+00    0,000000000e+00
     1108000000    1,019164100e-01   -2,850629687e-01    1,707986742e-01    2,043453604e-01    0,000000000e+00    0,000000000e+00    0,000000000e+00    0,000000000e+00
     1122000000   -1,005167663e-01   -3,730954528e-01    3,170958757e-01    8,968977630e-02    0,000000000e+00    0,000000000e+00    0,000000000e+00    0,000000000e+00
     1136000000   -3,424007595e-01   -2,692499161e-01    3,893643618e-01   -1,503993869e-01    0,000000000e+00    0,000000000e+00    0,000000000e+00    0,000000000e+00
     1150000000   -4,112798870e-01    3,395513073e-02    2,427482605e-01   -4,354673028e-01    0,000000000e+00    0,000000000e+00    0,000000000e+00    0,000000000e+00
     1164000000   -1,611398160e-01    2,149843127e-01   -9,661441296e-02   -5,165726542e-01    0,000000000e+00    0,000000000e+00    0,000000000e+00    0,000000000e+00
     1178000000    7,598841190e-02    8,163806796e-02   -3,571323752e-01   -3,486075699e-01    0,000000000e+00    0,000000000e+00    0,000000000e+00    0,000000000e+00
     1192000000    7,797279954e-02   -1,739614606e-01   -4,523575008e-01   -8,219995350e-02    0,000000000e+00    0,000000000e+00    0,000000000e+00    0,000000000e+00
     1206000000   -1,635739803e-01   -3,254189789e-01   -3,686355054e-01    1,938103586e-01    0,000000000e+00    0,000000000e+00    0,000000000e+00    0,000000000e+00
     1220000000   -4,515681565e-01   -1,767487675e-01   -1,050177887e-01    3,269976079e-01    0,000000000e+00    0,000000000e+00    0,000000000e+00    0,000000000e+00
     1234000000   -4,771450162e-01    1,667975485e-01    1,367381215e-01    2,249098718e-01    0,000000000e+00    0,000000000e+00    0,000000000e+00    0,000000000e+00
     1248000000   -2,359418124e-01    3,490088582e-01    1,920184642e-01    3,135588765e-02    0,000000000e+00    0,000000000e+00    0,000000000e+00    0,000000000e+00
     1262000000    9,531836957e-03    3,287543654e-01    1,309885532e-01   -7,246208191e-02    0,000000000e+00    0,000000000e+00    0,000000000e+00    0,000000000e+00
     1276000000    1,566527188e-01    2,009976059e-01    5,375609919e-02   -9,547119588e-02    0,000000000e+00    0,000000000e+00    0,000000000e+00    0,000000000e+00
     1290000000    2,142353207e-01    3,244770318e-02   -2,605060814e-03   -6,935415417e-02    0,000000000e+00    0,000000000e+00    0,000000000e+00    0,000000000e+00
     1304000000    2,043357044e-01   -1,471957117e-01   -2,103943005e-02   -2,845654823e-02    0,000000000e+00    0,000000000e+00    0,000000000e+00    0,000000000e+00
     1318000000    1,143034473e-01   -3,126720786e-01   -7,325102575e-03    2,343467809e-02    0,000000000e+00    0,000000000e+00    0,000000000e+00    0,000000000e+00
     1332000000   -7,033584267e-02   -4,352617860e-01    4,897977039e-02    6,181775033e-02    0,000000000e+00    0,000000000e+00    0,000000000e+00    0,000000000e+00
     1346000000   -3,311730325e-01   -4,298430085e-01    1,481377482e-01    4,833116755e-02    0,000000000e+00    0,000000000e+00    0,000000000e+00    0,000000000e+00
     1360000000   -5,599831343e-01   -2,415909469e-01    1,098855957e-01   -7,881905884e-02    0,000000000e+00    0,000000000e+00    0,000000000e+00    0,000000000e+00
     1374000000   -6,274490356e-01    2,688969672e-02    1,008231565e-01    5,197869614e-02    0,000000000e+00    0,000000000e+00    0,000000000e+00    0,000000000e+00
     1388000000   -5,177844763e-01    2,980071306e-01    2,263029516e-01    1,117674354e-02    0,000000000e+00    0,000000000e+00    0,000000000e+00    0,000000000e+00
     1402000000   -2,955514789e-01    4,164205194e-01    2,249558121e-01   -9,126453102e-02    0,000000000e+00    0,000000000e+00    0,000000000e+00    0,000000000e+00
     1416000000   -9,787178040e-02    4,210182428e-01    1,849885285e-01   -1,189073324e-01    0,000000000e+00    0,000000000e+00    0,000000000e+00    0,000000000e+00
     1430000000    7,059656084e-02    3,427472413e-01    1,577555835e-01   -1,145191193e-01    0,000000000e+00    0,000000000e+00    0,000000000e+00    0,000000000e+00
     1444000000    1,766417474e-01    2,025198489e-01    1,536943465e-01   -1,027273163e-01    0,000000000e+00    0,000000000e+00    0,000000000e+00    0,000000000e+00
     1458000000    2,213963568e-01    4,074862972e-02    1,448740959e-01   -8,596228063e-02    0,000000000e+00    0,000000000e+00    0,000000000e+00    0,000000000e+00
     1472000000    2,077803463e-01   -1,504765898e-01    1,510698944e-01   -5,733401328e-02    0,000000000e+00    0,000000000e+00    0,000000000e+00    0,000000000e+00
     1486000000    1,081133336e-01   -3,198083639e-01    1,666322798e-01    5,536240526e-03    0,000000000e+00    0,000000000e+00    0,000000000e+00    0,000000000e+00
     1500000000   -9,729194641e-02   -4,534508586e-01    2,075083554e-01    6,385792792e-02    0,000000000e+00    0,000000000e+00    0,000000000e+00    0,000000000e+00
