! NanoVNA-App
! Date: 2025-09-25 14:21:49
! Start: 100MHz Stop: 1,5GHz Points: 101
! S-Parameter data: F S11 S21 S12 S22
# Hz S RI R 50
!     Frequency           S11_Real           S11_Imag           S21_Real           S21_Imag           S12_Real           S12_Imag           S22_Real           S22_Imag
      100000000   -2,908612974e-02   -4,123365972e-03    3,744096458e-01   -7,220913172e-01    0,000000000e+00    0,000000000e+00    0,000000000e+00    0,000000000e+00
      114000000   -1,659613848e-02    1,161709707e-02   -8,899061382e-02   -8,056594729e-01    0,000000000e+00    0,000000000e+00    0,000000000e+00    0,000000000e+00
      128000000    3,396272194e-03    1,055332180e-02   -5,147603154e-01   -6,210503578e-01    0,000000000e+00    0,000000000e+00    0,000000000e+00    0,000000000e+00
      142000000    1,446388941e-02   -3,054866800e-03   -7,673457265e-01   -2,368092388e-01    0,000000000e+00    0,000000000e+00    0,000000000e+00    0,000000000e+00
      156000000    1,504522189e-02   -1,499106269e-02   -7,678822875e-01    2,226069868e-01    0,000000000e+00    0,000000000e+00    0,000000000e+00    0,000000000e+00
      170000000    1,650483534e-02   -2,255369909e-02   -5,185834169e-01    6,051376462e-01    0,000000000e+00    0,000000000e+00    0,000000000e+00    0,000000000e+00
      184000000    2,099475265e-02   -3,707188368e-02   -1,014874205e-01    7,866101861e-01    0,000000000e+00    0,000000000e+00    0,000000000e+00    0,000000000e+00
      198000000    1,303987764e-02   -6,255635619e-02    3,427830935e-01    7,130385041e-01    0,000000000e+00    0,000000000e+00    0,000000000e+00    0,000000000e+00
      212000000   -1,870508492e-02   -8,166977763e-02    6,784432530e-01    4,106453955e-01    0,000000000e+00    0,000000000e+00    0,000000000e+00    0,000000000e+00
      226000000   -6,206915900e-02   -6,966910511e-02    7,961097956e-01   -2,975645661e-02    0,000000000e+00    0,000000000e+00    0,000000000e+00    0,000000000e+00
      240000000   -8,314323425e-02   -2,610564977e-02    6,470739245e-01   -4,666127264e-01    0,000000000e+00    0,000000000e+00    0,000000000e+00    0,000000000e+00
      254000000   -6,441304833e-02    1,730530150e-02    2,771430612e-01   -7,437661886e-01    0,000000000e+00    0,000000000e+00    0,000000000e+00    0,000000000e+00
      268000000   -2,422318608e-02    2,955589071e-02   -1,769607961e-01   -7,652512193e-01    0,000000000e+00    0,000000000e+00    0,000000000e+00    0,000000000e+00
      282000000    4,181695636e-03    1,210419554e-02   -5,625903606e-01   -5,370640755e-01    0,000000000e+00    0,000000000e+00    0,000000000e+00    0,000000000e+00
      296000000    9,605892003e-03   -7,706906646e-03   -7,610015869e-01   -1,397355497e-01    0,000000000e+00    0,000000000e+00    0,000000000e+00    0,000000000e+00
      310000000    1,089400612e-02   -1,611283235e-02   -7,123965025e-01    2,970893979e-01    0,000000000e+00    0,000000000e+00    0,000000000e+00    0,000000000e+00
      324000000    1,971209049e-02   -2,636030875e-02   -4,281233549e-01    6,378899813e-01    0,000000000e+00    0,000000000e+00    0,000000000e+00    0,000000000e+00
      338000000    2,544648387e-02   -5,208663642e-02   -8,011554368e-03    7,620649934e-01    0,000000000e+00    0,000000000e+00    0,000000000e+00    0,000000000e+00
      352000000    7,336114533e-03   -8,490054309e-02    4,062829018e-01    6,404503584e-01    0,000000000e+00    0,000000000e+00    0,000000000e+00    0,000000000e+00
      366000000   -3,511483222e-02   -9,614467621e-02    6,906806827e-01    3,123589456e-01    0,000000000e+00    0,000000000e+00    0,000000000e+00    0,000000000e+00
      380000000   -7,145567238e-02   -7,110715657e-02    7,483974099e-01   -1,245683581e-01    0,000000000e+00    0,000000000e+00    0,000000000e+00    0,000000000e+00
      394000000   -7,303026319e-02   -3,238174319e-02    5,477409959e-01   -5,214524865e-01    0,000000000e+00    0,000000000e+00    0,000000000e+00    0,000000000e+00
      408000000   -4,685207084e-02   -1,570210420e-02    1,628618240e-01   -7,320424318e-01    0,000000000e+00    0,000000000e+00    0,000000000e+00    0,000000000e+00
      422000000   -2,815747261e-02   -3,165919334e-02   -2,657673359e-01   -6,966701150e-01    0,000000000e+00    0,000000000e+00    0,000000000e+00    0,000000000e+00
      436000000   -3,995769843e-02   -5,226270854e-02   -6,020945311e-01   -4,336657524e-01    0,000000000e+00    0,000000000e+00    0,000000000e+00    0,000000000e+00
      450000000   -6,747250259e-02   -4,491603747e-02   -7,402815223e-01   -2,453904040e-02    0,000000000e+00    0,000000000e+00    0,000000000e+00    0,000000000e+00
      464000000   -7,440927625e-02   -1,225114521e-02   -6,220054030e-01    3,941368163e-01    0,000000000e+00    0,000000000e+00    0,000000000e+00    0,000000000e+00
      478000000   -4,950085282e-02    1,172310207e-02   -2,857320607e-01    6,681449413e-01    0,000000000e+00    0,000000000e+00    0,000000000e+00    0,000000000e+00
      492000000   -1,691639237e-02    6,394479424e-03    1,348018944e-01    7,035993338e-01    0,000000000e+00    0,000000000e+00    0,000000000e+00    0,000000000e+00
      506000000   -3,593582893e-03   -1,529294346e-02    4,969989657e-01    5,055991411e-01    0,000000000e+00    0,000000000e+00    0,000000000e+00    0,000000000e+00
      520000000   -5,621454213e-03   -2,957916632e-02    6,890248656e-01    1,440208852e-01    0,000000000e+00    0,000000000e+00    0,000000000e+00    0,000000000e+00
      534000000   -3,093069186e-03   -3,594794497e-02    6,449548006e-01   -2,601107359e-01    0,000000000e+00    0,000000000e+00    0,000000000e+00    0,000000000e+00
      548000000    8,430649526e-03   -5,241810158e-02    3,850606680e-01   -5,644071698e-01    0,000000000e+00    0,000000000e+00    0,000000000e+00    0,000000000e+00
      562000000    5,714946892e-03   -8,971597999e-02    9,025609121e-03   -6,727341413e-01    0,000000000e+00    0,000000000e+00    0,000000000e+00    0,000000000e+00
      576000000   -3,140607849e-02   -1,259439737e-01   -3,622813225e-01   -5,608112216e-01    0,000000000e+00    0,000000000e+00    0,000000000e+00    0,000000000e+00
      590000000   -9,501047432e-02   -1,278384477e-01   -6,170613170e-01   -2,710142136e-01    0,000000000e+00    0,000000000e+00    0,000000000e+00    0,000000000e+00
      604000000   -1,429382712e-01   -7,809688151e-02   -6,671978235e-01    1,261890680e-01    0,000000000e+00    0,000000000e+00    0,000000000e+00    0,000000000e+00
      618000000   -1,385993212e-01   -1,120173000e-02   -4,758925140e-01    4,854035974e-01    0,000000000e+00    0,000000000e+00    0,000000000e+00    0,000000000e+00
      632000000   -9,347947687e-02    2,149997465e-02   -1,138303578e-01    6,629942060e-01    0,000000000e+00    0,000000000e+00    0,000000000e+00    0,000000000e+00
      646000000   -5,582121760e-02    1,155453548e-02    2,734053135e-01    6,034789681e-01    0,000000000e+00    0,000000000e+00    0,000000000e+00    0,000000000e+00
      660000000   -4,813763872e-02   -9,219253436e-03    5,582276583e-01    3,406252265e-01    0,000000000e+00    0,000000000e+00    0,000000000e+00    0,000000000e+00
      674000000   -5,548846349e-02   -1,119197346e-02    6,446277499e-01   -3,974086791e-02    0,000000000e+00    0,000000000e+00    0,000000000e+00    0,000000000e+00
      688000000   -5,044299364e-02    3,587798914e-03    4,931528568e-01   -4,023598731e-01    0,000000000e+00    0,000000000e+00    0,000000000e+00    0,000000000e+00
      702000000   -2,556732111e-02    6,964068394e-03    1,632201076e-01   -6,008271575e-01    0,000000000e+00    0,000000000e+00    0,000000000e+00    0,000000000e+00
      716000000   -1,720026368e-03   -8,506722748e-03   -2,188218236e-01   -5,754258037e-01    0,000000000e+00    0,000000000e+00    0,000000000e+00    0,000000000e+00
      730000000    1,005841978e-02   -3,412761167e-02   -5,092009306e-01   -3,334340751e-01    0,000000000e+00    0,000000000e+00    0,000000000e+00    0,000000000e+00
      744000000    1,656669006e-02   -6,029177085e-02   -6,010617018e-01    3,307630867e-02    0,000000000e+00    0,000000000e+00    0,000000000e+00    0,000000000e+00
      758000000    2,159319632e-02   -1,036876366e-01   -4,541781247e-01    3,773768544e-01    0,000000000e+00    0,000000000e+00    0,000000000e+00    0,000000000e+00
      772000000   -5,083859432e-03   -1,735460609e-01   -1,397627443e-01    5,581811666e-01    0,000000000e+00    0,000000000e+00    0,000000000e+00    0,000000000e+00
      786000000   -1,049897894e-01   -2,318102419e-01    2,107951492e-01    5,196824670e-01    0,000000000e+00    0,000000000e+00    0,000000000e+00    0,000000000e+00
      800000000   -2,657153606e-01   -1,933673471e-01    4,713820517e-01    2,758088708e-01    0,000000000e+00    0,000000000e+00    0,000000000e+00    0,000000000e+00
      814000000   -3,644750416e-01    3,896253649e-03    5,077793002e-01   -8,924292773e-02    0,000000000e+00    0,000000000e+00    0,000000000e+00    0,000000000e+00
      828000000   -2,468847930e-01    2,323611528e-01    2,813619971e-01   -3,525100350e-01    0,000000000e+00    0,000000000e+00    0,000000000e+00    0,000000000e+00
      842000000    1,232783590e-02    2,774477899e-01   -1,632821374e-02   -3,625415862e-01    0,000000000e+00    0,000000000e+00    0,000000000e+00    0,000000000e+00
      856000000    2,125433236e-01    1,157747284e-01   -1,878781319e-01   -2,044888735e-01    0,000000000e+00    0,000000000e+00    0,000000000e+00    0,000000000e+00
      870000000    2,386418879e-01   -1,484518498e-01   -2,011752576e-01   -2,562486380e-02    0,000000000e+00    0,000000000e+00    0,000000000e+00    0,000000000e+00
      884000000    3,732142970e-02   -3,861595690e-01   -1,037885845e-01    7,036327571e-02    0,000000000e+00    0,000000000e+00    0,000000000e+00    0,000000000e+00
      898000000   -3,697967231e-01   -3,424961865e-01   -1,671779715e-02    2,764981985e-02    0,000000000e+00    0,000000000e+00    0,000000000e+00    0,000000000e+00
      912000000   -4,670605361e-01    1,377117336e-01   -1,106152982e-01    2,388893813e-02    0,000000000e+00    0,000000000e+00    0,000000000e+00    0,000000000e+00
      926000000   -9,394433349e-02    3,505668342e-01   -1,269891262e-01    1,341287643e-01    0,000000000e+00    0,000000000e+00    0,000000000e+00    0,000000000e+00
      940000000    1,829241365e-01    1,933276802e-01   -3,986470774e-02    2,154813856e-01    0,000000000e+00    0,000000000e+00    0,000000000e+00    0,000000000e+00
      954000000    2,549736202e-01   -5,062171444e-02    7,931932062e-02    2,267147899e-01    0,000000000e+00    0,000000000e+00    0,000000000e+00    0,000000000e+00
      968000000    1,739454567e-01   -2,638966441e-01    1,921964139e-01    1,804457456e-01    0,000000000e+00    0,000000000e+00    0,000000000e+00    0,000000000e+00
      982000000   -1,568392105e-02   -3,917554617e-01    2,799172103e-01    8,035323024e-02    0,000000000e+00    0,000000000e+00    0,000000000e+00    0,000000000e+00
      996000000   -2,739700973e-01   -3,797128201e-01    3,085560501e-01   -8,002653718e-02    0,000000000e+00    0,000000000e+00    0,000000000e+00    0,000000000e+00
     1010000000   -4,722754359e-01   -1,699156016e-01    2,203559875e-01   -2,522018254e-01    0,000000000e+00    0,000000000e+00    0,000000000e+00    0,000000000e+00
     1024000000   -4,634990990e-01    1,174423024e-01    2,117162012e-02   -3,300683498e-01    0,000000000e+00    0,000000000e+00    0,000000000e+00    0,000000000e+00
     1038000000   -2,671802640e-01    2,968955040e-01   -1,730161458e-01   -2,475545257e-01    0,000000000e+00    0,000000000e+00    0,000000000e+00    0,000000000e+00
     1052000000   -3,660788387e-02    3,126593530e-01   -2,569458485e-01   -7,761633396e-02    0,000000000e+00    0,000000000e+00    0,000000000e+00    0,000000000e+00
     1066000000    1,270444095e-01    2,088564634e-01   -2,237877995e-01    8,440185338e-02    0,000000000e+00    0,000000000e+00    0,000000000e+00    0,000000000e+00
     1080000000    2,079998404e-01    4,447800294e-02   -1,208035946e-01    1,930421293e-01    0,000000000e+00    0,000000000e+00    0,000000000e+00    0,000000000e+00
     1094000000    2,021029145e-01   -1,296173185e-01    1,717029884e-02    2,352743447e-01    0,000000000e+00    0,000000000e+00    0,000000000e+00    0,000000000e+00
     1108000000    9,751964360e-02   -2,888271511e-01    1,711278409e-01    2,048556656e-01    0,000000000e+00    0,000000000e+00    0,000000000e+00    0,000000000e+00
     1122000000   -1,016615778e-01   -3,728544414e-01    3,169138134e-01    9,022864699e-02    0,000000000e+00    0,000000000e+00    0,000000000e+00    0,000000000e+00
     1136000000   -3,484460413e-01   -2,657053769e-01    3,904173374e-01   -1,493611485e-01    0,000000000e+00    0,000000000e+00    0,000000000e+00    0,000000000e+00
     1150000000   -4,110461473e-01    3,938650340e-02    2,461383492e-01   -4,376545548e-01    0,000000000e+00    0,000000000e+00    0,000000000e+00    0,000000000e+00
     1164000000   -1,547047794e-01    2,167282254e-01   -9,349182993e-02   -5,139172077e-01    0,000000000e+00    0,000000000e+00    0,000000000e+00    0,000000000e+00
     1178000000    7,366260141e-02    8,048714697e-02   -3,584353924e-01   -3,509023190e-01    0,000000000e+00    0,000000000e+00    0,000000000e+00    0,000000000e+00
     1192000000    7,342667133e-02   -1,733223349e-01   -4,544551075e-01   -8,328543603e-02    0,000000000e+00    0,000000000e+00    0,000000000e+00    0,000000000e+00
     1206000000   -1,634589881e-01   -3,243256509e-01   -3,704362810e-01    1,870088577e-01    0,000000000e+00    0,000000000e+00    0,000000000e+00    0,000000000e+00
     1220000000   -4,589749277e-01   -1,779245436e-01   -1,093904451e-01    3,322685659e-01    0,000000000e+00    0,000000000e+00    0,000000000e+00    0,000000000e+00
     1234000000   -4,773097932e-01    1,634336114e-01    1,362694353e-01    2,228268683e-01    0,000000000e+00    0,000000000e+00    0,000000000e+00    0,000000000e+00
     1248000000   -2,359053791e-01    3,592239618e-01    1,932253242e-01    4,143831506e-02    0,000000000e+00    0,000000000e+00    0,000000000e+00    0,000000000e+00
     1262000000    6,562206428e-03    3,279860616e-01    1,284921467e-01   -7,305476069e-02    0,000000000e+00    0,000000000e+00    0,000000000e+00    0,000000000e+00
     1276000000    1,560416222e-01    1,982542574e-01    5,537619069e-02   -9,677524865e-02    0,000000000e+00    0,000000000e+00    0,000000000e+00    0,000000000e+00
     1290000000    2,177947909e-01    2,960794792e-02    4,812899977e-03   -6,981319934e-02    0,000000000e+00    0,000000000e+00    0,000000000e+00    0,000000000e+00
     1304000000    2,026715726e-01   -1,463653594e-01   -2,131969668e-02   -2,965381742e-02    0,000000000e+00    0,000000000e+00    0,000000000e+00    0,000000000e+00
     1318000000    1,147784516e-01   -3,097293377e-01   -4,016302060e-03    2,230300941e-02    0,000000000e+00    0,000000000e+00    0,000000000e+00    0,000000000e+00
     1332000000   -6,420169771e-02   -4,349241853e-01    5,276644975e-02    6,207630411e-02    0,000000000e+00    0,000000000e+00    0,000000000e+00    0,000000000e+00
     1346000000   -3,300901353e-01   -4,362636805e-01    1,366641372e-01    4,209963232e-02    0,000000000e+00    0,000000000e+00    0,000000000e+00    0,000000000e+00
     1360000000   -5,486165881e-01   -2,432373464e-01    1,117532477e-01   -7,501287013e-02    0,000000000e+00    0,000000000e+00    0,000000000e+00    0,000000000e+00
     1374000000   -6,292966008e-01    3,534620628e-02    1,050448269e-01    6,684011966e-02    0,000000000e+00    0,000000000e+00    0,000000000e+00    0,000000000e+00
     1388000000   -5,172510743e-01    2,879847884e-01    2,182787210e-01    9,274899960e-03    0,000000000e+00    0,000000000e+00    0,000000000e+00    0,000000000e+00
     1402000000   -3,086909056e-01    4,190332294e-01    2,339790910e-01   -7,560303062e-02    0,000000000e+00    0,000000000e+00    0,000000000e+00    0,000000000e+00
     1416000000   -1,002708599e-01    4,184136391e-01    1,913735271e-01   -1,245214045e-01    0,000000000e+00    0,000000000e+00    0,000000000e+00    0,000000000e+00
     1430000000    6,240653992e-02    3,384401798e-01    1,516464353e-01   -1,171739325e-01    0,000000000e+00    0,000000000e+00    0,000000000e+00    0,000000000e+00
     1444000000    1,786660105e-01    2,024030685e-01    1,578043401e-01   -9,508691728e-02    0,000000000e+00    0,000000000e+00    0,000000000e+00    0,000000000e+00
     1458000000    2,247646153e-01    3,303113580e-02    1,489412934e-01   -8,858209848e-02    0,000000000e+00    0,000000000e+00    0,000000000e+00    0,000000000e+00
     1472000000    2,068971395e-01   -1,476016641e-01    1,434083134e-01   -5,442066491e-02    0,000000000e+00    0,000000000e+00    0,000000000e+00    0,000000000e+00
     1486000000    1,102756113e-01   -3,285287023e-01    1,660979092e-01   -1,322747488e-02    0,000000000e+00    0,000000000e+00    0,000000000e+00    0,000000000e+00
     1500000000   -8,841368556e-02   -4,542898238e-01    2,320960462e-01    5,418041348e-02    0,000000000e+00    0,000000000e+00    0,000000000e+00    0,000000000e+00
