! NanoVNA-App
! Date: 2025-09-25 14:21:32
! Start: 100MHz Stop: 1,5GHz Points: 101
! S-Parameter data: F S11 S21 S12 S22
# Hz S RI R 50
!     Frequency           S11_Real           S11_Imag           S21_Real           S21_Imag           S12_Real           S12_Imag           S22_Real           S22_Imag
      100000000   -2,909752168e-02   -4,135966767e-03    3,744457662e-01   -7,220475078e-01    0,000000000e+00    0,000000000e+00    0,000000000e+00    0,000000000e+00
      114000000   -1,661302149e-02    1,160251535e-02   -8,897622675e-02   -8,057754040e-01    0,000000000e+00    0,000000000e+00    0,000000000e+00    0,000000000e+00
      128000000    3,385217395e-03    1,051017735e-02   -5,145540237e-01   -6,208779812e-01    0,000000000e+00    0,000000000e+00    0,000000000e+00    0,000000000e+00
      142000000    1,447294094e-02   -3,058440518e-03   -7,675834298e-01   -2,369541526e-01    0,000000000e+00    0,000000000e+00    0,000000000e+00    0,000000000e+00
      156000000    1,501297485e-02   -1,506041456e-02   -7,678211331e-01    2,224968523e-01    0,000000000e+00    0,000000000e+00    0,000000000e+00    0,000000000e+00
      170000000    1,656254008e-02   -2,247789502e-02   -5,187221766e-01    6,051199436e-01    0,000000000e+00    0,000000000e+00    0,000000000e+00    0,000000000e+00
      184000000    2,099045739e-02   -3,713611886e-02   -1,017994955e-01    7,864717841e-01    0,000000000e+00    0,000000000e+00    0,000000000e+00    0,000000000e+00
      198000000    1,303617284e-02   -6,259156018e-02    3,431312144e-01    7,131804824e-01    0,000000000e+00    0,000000000e+00    0,000000000e+00    0,000000000e+00
      212000000   -1,874641143e-02   -8,166529238e-02    6,784510016e-01    4,104400873e-01    0,000000000e+00    0,000000000e+00    0,000000000e+00    0,000000000e+00
      226000000   -6,203746423e-02   -6,966678798e-02    7,960866094e-01   -2,973204851e-02    0,000000000e+00    0,000000000e+00    0,000000000e+00    0,000000000e+00
      240000000   -8,324367553e-02   -2,604485676e-02    6,472158432e-01   -4,667088687e-01    0,000000000e+00    0,000000000e+00    0,000000000e+00    0,000000000e+00
      254000000   -6,433702260e-02    1,735941879e-02    2,770458162e-01   -7,435349822e-01    0,000000000e+00    0,000000000e+00    0,000000000e+00    0,000000000e+00
      268000000   -2,426362038e-02    2,947286144e-02   -1,769894809e-01   -7,648843527e-01    0,000000000e+00    0,000000000e+00    0,000000000e+00    0,000000000e+00
      282000000    4,200435244e-03    1,220000815e-02   -5,624651313e-01   -5,371861458e-01    0,000000000e+00    0,000000000e+00    0,000000000e+00    0,000000000e+00
      296000000    9,573454037e-03   -7,613628171e-03   -7,607342005e-01   -1,395306140e-01    0,000000000e+00    0,000000000e+00    0,000000000e+00    0,000000000e+00
      310000000    1,092192344e-02   -1,603738405e-02   -7,141178250e-01    2,988603115e-01    0,000000000e+00    0,000000000e+00    0,000000000e+00    0,000000000e+00
      324000000    1,958662271e-02   -2,656575665e-02   -4,292033017e-01    6,375972629e-01    0,000000000e+00    0,000000000e+00    0,000000000e+00    0,000000000e+00
      338000000    2,524313144e-02   -5,179763213e-02   -7,745349780e-03    7,609549165e-01    0,000000000e+00    0,000000000e+00    0,000000000e+00    0,000000000e+00
      352000000    7,404542062e-03   -8,444243670e-02    4,058970213e-01    6,406194568e-01    0,000000000e+00    0,000000000e+00    0,000000000e+00    0,000000000e+00
      366000000   -3,468504548e-02   -9,620099515e-02    6,911370754e-01    3,118196428e-01    0,000000000e+00    0,000000000e+00    0,000000000e+00    0,000000000e+00
      380000000   -7,119314373e-02   -7,164811343e-02    7,483969331e-01   -1,245478019e-01    0,000000000e+00    0,000000000e+00    0,000000000e+00    0,000000000e+00
      394000000   -7,316857576e-02   -3,250146285e-02    5,489157438e-01   -5,211240053e-01    0,000000000e+00    0,000000000e+00    0,000000000e+00    0,000000000e+00
      408000000   -4,681916535e-02   -1,580129564e-02    1,629282385e-01   -7,322759032e-01    0,000000000e+00    0,000000000e+00    0,000000000e+00    0,000000000e+00
      422000000   -2,835723944e-02   -3,145121410e-02   -2,658160925e-01   -6,956866980e-01    0,000000000e+00    0,000000000e+00    0,000000000e+00    0,000000000e+00
      436000000   -4,017347842e-02   -5,211273953e-02   -6,020859480e-01   -4,342736006e-01    0,000000000e+00    0,000000000e+00    0,000000000e+00    0,000000000e+00
      450000000   -6,750465184e-02   -4,492373019e-02   -7,402154803e-01   -2,499974146e-02    0,000000000e+00    0,000000000e+00    0,000000000e+00    0,000000000e+00
      464000000   -7,408478111e-02   -1,249349490e-02   -6,212938428e-01    3,945318162e-01    0,000000000e+00    0,000000000e+00    0,000000000e+00    0,000000000e+00
      478000000   -4,921216890e-02    1,158940978e-02   -2,868911624e-01    6,674844623e-01    0,000000000e+00    0,000000000e+00    0,000000000e+00    0,000000000e+00
      492000000   -1,694542728e-02    6,591285579e-03    1,346174181e-01    7,041531801e-01    0,000000000e+00    0,000000000e+00    0,000000000e+00    0,000000000e+00
      506000000   -3,603753634e-03   -1,526791882e-02    4,980400503e-01    5,064290166e-01    0,000000000e+00    0,000000000e+00    0,000000000e+00    0,000000000e+00
      520000000   -5,525967572e-03   -2,986904606e-02    6,893170476e-01    1,423025131e-01    0,000000000e+00    0,000000000e+00    0,000000000e+00    0,000000000e+00
      534000000   -3,392295912e-03   -3,598476201e-02    6,444779038e-01   -2,595474422e-01    0,000000000e+00    0,000000000e+00    0,000000000e+00    0,000000000e+00
      548000000    8,007925935e-03   -5,289733037e-02    3,851549923e-01   -5,647611022e-01    0,000000000e+00    0,000000000e+00    0,000000000e+00    0,000000000e+00
      562000000    5,980601069e-03   -8,916828036e-02    7,898912765e-03   -6,722292304e-01    0,000000000e+00    0,000000000e+00    0,000000000e+00    0,000000000e+00
      576000000   -3,154493123e-02   -1,257624477e-01   -3,625943661e-01   -5,611358285e-01    0,000000000e+00    0,000000000e+00    0,000000000e+00    0,000000000e+00
      590000000   -9,496743977e-02   -1,276892871e-01   -6,185148358e-01   -2,722369134e-01    0,000000000e+00    0,000000000e+00    0,000000000e+00    0,000000000e+00
      604000000   -1,432358623e-01   -7,815154642e-02   -6,673902869e-01    1,262819320e-01    0,000000000e+00    0,000000000e+00    0,000000000e+00    0,000000000e+00
      618000000   -1,384167969e-01   -1,094072033e-02   -4,752489924e-01    4,851351678e-01    0,000000000e+00    0,000000000e+00    0,000000000e+00    0,000000000e+00
      632000000   -9,284161776e-02    2,153408341e-02   -1,141756848e-01    6,635291576e-01    0,000000000e+00    0,000000000e+00    0,000000000e+00    0,000000000e+00
      646000000   -5,492180958e-02    1,233967021e-02    2,721929550e-01    6,031830907e-01    0,000000000e+00    0,000000000e+00    0,000000000e+00    0,000000000e+00
      660000000   -4,838552326e-02   -9,216863662e-03    5,572844744e-01    3,394458294e-01    0,000000000e+00    0,000000000e+00    0,000000000e+00    0,000000000e+00
      674000000   -5,607579276e-02   -1,020175312e-02    6,441317201e-01   -3,960713744e-02    0,000000000e+00    0,000000000e+00    0,000000000e+00    0,000000000e+00
      688000000   -5,068381503e-02    3,085181117e-03    4,932109714e-01   -4,029279947e-01    0,000000000e+00    0,000000000e+00    0,000000000e+00    0,000000000e+00
      702000000   -2,582815848e-02    8,482079953e-03    1,571545750e-01   -6,012736559e-01    0,000000000e+00    0,000000000e+00    0,000000000e+00    0,000000000e+00
      716000000   -2,579014283e-03   -8,737178519e-03   -2,190147042e-01   -5,744907856e-01    0,000000000e+00    0,000000000e+00    0,000000000e+00    0,000000000e+00
      730000000    9,924643673e-03   -3,392354399e-02   -5,090600252e-01   -3,329935074e-01    0,000000000e+00    0,000000000e+00    0,000000000e+00    0,000000000e+00
      744000000    1,649915986e-02   -6,141736731e-02   -6,006135941e-01    3,315569088e-02    0,000000000e+00    0,000000000e+00    0,000000000e+00    0,000000000e+00
      758000000    2,248516679e-02   -1,040637121e-01   -4,538122118e-01    3,779114187e-01    0,000000000e+00    0,000000000e+00    0,000000000e+00    0,000000000e+00
      772000000   -5,538019352e-03   -1,729912311e-01   -1,394807845e-01    5,571930408e-01    0,000000000e+00    0,000000000e+00    0,000000000e+00    0,000000000e+00
      786000000   -1,053997129e-01   -2,327811271e-01    2,117571533e-01    5,195118785e-01    0,000000000e+00    0,000000000e+00    0,000000000e+00    0,000000000e+00
      800000000   -2,655839324e-01   -1,918732673e-01    4,713087678e-01    2,748417258e-01    0,000000000e+00    0,000000000e+00    0,000000000e+00    0,000000000e+00
      814000000   -3,638553321e-01    3,117373213e-03    5,078269839e-01   -8,838156611e-02    0,000000000e+00    0,000000000e+00    0,000000000e+00    0,000000000e+00
      828000000   -2,477416396e-01    2,328310460e-01    2,818465233e-01   -3,520877063e-01    0,000000000e+00    0,000000000e+00    0,000000000e+00    0,000000000e+00
      842000000    1,356271561e-02    2,784975469e-01   -1,594751514e-02   -3,626090884e-01    0,000000000e+00    0,000000000e+00    0,000000000e+00    0,000000000e+00
      856000000    2,122450322e-01    1,149150655e-01   -1,883527040e-01   -2,048074901e-01    0,000000000e+00    0,000000000e+00    0,000000000e+00    0,000000000e+00
      870000000    2,387954444e-01   -1,484756321e-01   -2,008939683e-01   -2,567963302e-02    0,000000000e+00    0,000000000e+00    0,000000000e+00    0,000000000e+00
      884000000    3,803050518e-02   -3,864338398e-01   -1,036278829e-01    7,105399668e-02    0,000000000e+00    0,000000000e+00    0,000000000e+00    0,000000000e+00
      898000000   -3,711928129e-01   -3,420367837e-01   -1,740117185e-02    2,727388591e-02    0,000000000e+00    0,000000000e+00    0,000000000e+00    0,000000000e+00
      912000000   -4,669453204e-01    1,390384883e-01   -1,084171981e-01    3,876784444e-02    0,000000000e+00    0,000000000e+00    0,000000000e+00    0,000000000e+00
      926000000   -9,630812705e-02    3,495402634e-01   -1,283725500e-01    1,326749176e-01    0,000000000e+00    0,000000000e+00    0,000000000e+00    0,000000000e+00
      940000000    1,855989397e-01    1,932083666e-01   -3,697696701e-02    2,163401842e-01    0,000000000e+00    0,000000000e+00    0,000000000e+00    0,000000000e+00
      954000000    2,564125061e-01   -4,806573689e-02    7,971286029e-02    2,267535776e-01    0,000000000e+00    0,000000000e+00    0,000000000e+00    0,000000000e+00
      968000000    1,735146791e-01   -2,609880269e-01    1,907200068e-01    1,804919988e-01    0,000000000e+00    0,000000000e+00    0,000000000e+00    0,000000000e+00
      982000000   -1,626756229e-02   -3,947673142e-01    2,797409296e-01    7,830312103e-02    0,000000000e+00    0,000000000e+00    0,000000000e+00    0,000000000e+00
      996000000   -2,751193941e-01   -3,784602880e-01    3,091819882e-01   -8,041031659e-02    0,000000000e+00    0,000000000e+00    0,000000000e+00    0,000000000e+00
     1010000000   -4,714204371e-01   -1,755495220e-01    2,227853239e-01   -2,525990009e-01    0,000000000e+00    0,000000000e+00    0,000000000e+00    0,000000000e+00
     1024000000   -4,601038992e-01    1,135655791e-01    2,217039652e-02   -3,295623362e-01    0,000000000e+00    0,000000000e+00    0,000000000e+00    0,000000000e+00
     1038000000   -2,605552077e-01    2,962708771e-01   -1,747922450e-01   -2,492181212e-01    0,000000000e+00    0,000000000e+00    0,000000000e+00    0,000000000e+00
     1052000000   -3,402718529e-02    3,074030280e-01   -2,574266791e-01   -7,624651492e-02    0,000000000e+00    0,000000000e+00    0,000000000e+00    0,000000000e+00
     1066000000    1,302604228e-01    2,046734840e-01   -2,248649895e-01    8,581178635e-02    0,000000000e+00    0,000000000e+00    0,000000000e+00    0,000000000e+00
     1080000000    2,052972168e-01    4,520279914e-02   -1,195396408e-01    1,939471364e-01    0,000000000e+00    0,000000000e+00    0,000000000e+00    0,000000000e+00
     1094000000    2,023532093e-01   -1,257049292e-01    1,878965460e-02    2,332282215e-01    0,000000000e+00    0,000000000e+00    0,000000000e+00    0,000000000e+00
     1108000000    9,980373085e-02   -2,832009196e-01    1,675208062e-01    2,055269480e-01    0,000000000e+00    0,000000000e+00    0,000000000e+00    0,000000000e+00
     1122000000   -9,636800736e-02   -3,697117865e-01    3,160889149e-01    8,944597840e-02    0,000000000e+00    0,000000000e+00    0,000000000e+00    0,000000000e+00
     1136000000   -3,452953994e-01   -2,712529004e-01    3,899612725e-01   -1,488984078e-01    0,000000000e+00    0,000000000e+00    0,000000000e+00    0,000000000e+00
     1150000000   -4,105928540e-01    4,036242887e-02    2,439712137e-01   -4,381103218e-01    0,000000000e+00    0,000000000e+00    0,000000000e+00    0,000000000e+00
     1164000000   -1,614819765e-01    2,228196859e-01   -9,738727659e-02   -5,140505433e-01    0,000000000e+00    0,000000000e+00    0,000000000e+00    0,000000000e+00
     1178000000    7,267997414e-02    8,458445966e-02   -3,613035679e-01   -3,461529315e-01    0,000000000e+00    0,000000000e+00    0,000000000e+00    0,000000000e+00
     1192000000    7,337860018e-02   -1,748492718e-01   -4,529108107e-01   -8,536933362e-02    0,000000000e+00    0,000000000e+00    0,000000000e+00    0,000000000e+00
     1206000000   -1,620326936e-01   -3,227083981e-01   -3,691009879e-01    1,909563392e-01    0,000000000e+00    0,000000000e+00    0,000000000e+00    0,000000000e+00
     1220000000   -4,590138793e-01   -1,751237065e-01   -1,075441316e-01    3,297522962e-01    0,000000000e+00    0,000000000e+00    0,000000000e+00    0,000000000e+00
     1234000000   -4,762091637e-01    1,623555273e-01    1,374417990e-01    2,202544808e-01    0,000000000e+00    0,000000000e+00    0,000000000e+00    0,000000000e+00
     1248000000   -2,404451817e-01    3,560868204e-01    1,937606037e-01    3,928987309e-02    0,000000000e+00    0,000000000e+00    0,000000000e+00    0,000000000e+00
     1262000000    1,080632582e-02    3,300507069e-01    1,295348257e-01   -7,377660275e-02    0,000000000e+00    0,000000000e+00    0,000000000e+00    0,000000000e+00
     1276000000    1,530079842e-01    1,965920478e-01    5,103909969e-02   -9,802383184e-02    0,000000000e+00    0,000000000e+00    0,000000000e+00    0,000000000e+00
     1290000000    2,180723399e-01    3,505705670e-02    5,442579277e-03   -6,777386367e-02    0,000000000e+00    0,000000000e+00    0,000000000e+00    0,000000000e+00
     1304000000    2,080961466e-01   -1,482175589e-01   -1,834716462e-02   -2,708780952e-02    0,000000000e+00    0,000000000e+00    0,000000000e+00    0,000000000e+00
     1318000000    1,153604910e-01   -3,128254116e-01   -7,395178080e-03    2,354221791e-02    0,000000000e+00    0,000000000e+00    0,000000000e+00    0,000000000e+00
     1332000000   -6,431019306e-02   -4,308329523e-01    4,573890194e-02    6,920860708e-02    0,000000000e+00    0,000000000e+00    0,000000000e+00    0,000000000e+00
     1346000000   -3,248867989e-01   -4,382867813e-01    1,503929496e-01    4,201671854e-02    0,000000000e+00    0,000000000e+00    0,000000000e+00    0,000000000e+00
     1360000000   -5,600709319e-01   -2,424424738e-01    1,134402156e-01   -7,733511180e-02    0,000000000e+00    0,000000000e+00    0,000000000e+00    0,000000000e+00
     1374000000   -6,230295300e-01    2,553394437e-02    1,134560853e-01    5,358717591e-02    0,000000000e+00    0,000000000e+00    0,000000000e+00    0,000000000e+00
     1388000000   -5,117547512e-01    2,909242213e-01    2,291731685e-01    3,568591783e-03    0,000000000e+00    0,000000000e+00    0,000000000e+00    0,000000000e+00
     1402000000   -3,079642057e-01    4,139697552e-01    2,211524248e-01   -8,543190360e-02    0,000000000e+00    0,000000000e+00    0,000000000e+00    0,000000000e+00
     1416000000   -8,986810595e-02    4,140698314e-01    1,901277304e-01   -1,202086881e-01    0,000000000e+00    0,000000000e+00    0,000000000e+00    0,000000000e+00
     1430000000    6,250081211e-02    3,303504288e-01    1,329632699e-01   -1,197800860e-01    0,000000000e+00    0,000000000e+00    0,000000000e+00    0,000000000e+00
     1444000000    1,746159196e-01    2,024785578e-01    1,588217020e-01   -9,747586399e-02    0,000000000e+00    0,000000000e+00    0,000000000e+00    0,000000000e+00
     1458000000    2,233614624e-01    3,822716698e-02    1,411797404e-01   -7,809843868e-02    0,000000000e+00    0,000000000e+00    0,000000000e+00    0,000000000e+00
     1472000000    2,063483000e-01   -1,467420161e-01    1,606344283e-01   -5,224745348e-02    0,000000000e+00    0,000000000e+00    0,000000000e+00    0,000000000e+00
     1486000000    1,037138849e-01   -3,202116191e-01    1,697788984e-01    1,899977797e-03    0,000000000e+00    0,000000000e+00    0,000000000e+00    0,000000000e+00
     1500000000   -9,319362789e-02   -4,532022178e-01    2,043319345e-01    5,505722016e-02    0,000000000e+00    0,000000000e+00    0,000000000e+00    0,000000000e+00
