! NanoVNA-App
! Date: 2025-09-25 14:21:25
! Start: 100MHz Stop: 1,5GHz Points: 101
! S-Parameter data: F S11 S21 S12 S22
# Hz S RI R 50
!     Frequency           S11_Real           S11_Imag           S21_Real           S21_Imag           S12_Real           S12_Imag           S22_Real           S22_Imag
      100000000   -2,909949794e-02   -4,123253748e-03    3,744384348e-01   -7,221205831e-01    0,000000000e+00    0,000000000e+00    0,000000000e+00    0,000000000e+00
      114000000   -1,661207527e-02    1,163117308e-02   -8,905759454e-02   -8,058691025e-01    0,000000000e+00    0,000000000e+00    0,000000000e+00    0,000000000e+00
      128000000    3,471460659e-03    1,058124751e-02   -5,145998597e-01   -6,210862994e-01    0,000000000e+00    0,000000000e+00    0,000000000e+00    0,000000000e+00
      142000000    1,447082125e-02   -3,042224329e-03   -7,676158547e-01   -2,370186895e-01    0,000000000e+00    0,000000000e+00    0,000000000e+00    0,000000000e+00
      156000000    1,548458356e-02   -1,459648181e-02   -7,729300261e-01    2,230438888e-01    0,000000000e+00    0,000000000e+00    0,000000000e+00    0,000000000e+00
      170000000    1,654521748e-02   -2,253979072e-02   -5,187518597e-01    6,052334905e-01    0,000000000e+00    0,000000000e+00    0,000000000e+00    0,000000000e+00
      184000000    2,100038715e-02   -3,708736226e-02   -1,018496081e-01    7,869855165e-01    0,000000000e+00    0,000000000e+00    0,000000000e+00    0,000000000e+00
      198000000    1,304988097e-02   -6,255228072e-02    3,429484367e-01    7,126759291e-01    0,000000000e+00    0,000000000e+00    0,000000000e+00    0,000000000e+00
      212000000   -1,875664480e-02   -8,166892081e-02    6,781404018e-01    4,104562104e-01    0,000000000e+00    0,000000000e+00    0,000000000e+00    0,000000000e+00
      226000000   -6,211333349e-02   -6,963581592e-02    7,960914373e-01   -2,978990600e-02    0,000000000e+00    0,000000000e+00    0,000000000e+00    0,000000000e+00
      240000000   -8,320692182e-02   -2,606805041e-02    6,472064853e-01   -4,668018520e-01    0,000000000e+00    0,000000000e+00    0,000000000e+00    0,000000000e+00
      254000000   -6,428198516e-02    1,729133911e-02    2,771117985e-01   -7,434636950e-01    0,000000000e+00    0,000000000e+00    0,000000000e+00    0,000000000e+00
      268000000   -2,416842803e-02    2,954450995e-02   -1,772530824e-01   -7,652555704e-01    0,000000000e+00    0,000000000e+00    0,000000000e+00    0,000000000e+00
      282000000    4,151108675e-03    1,201268844e-02   -5,628799796e-01   -5,369308591e-01    0,000000000e+00    0,000000000e+00    0,000000000e+00    0,000000000e+00
      296000000    9,507643990e-03   -7,593971677e-03   -7,608370185e-01   -1,394423544e-01    0,000000000e+00    0,000000000e+00    0,000000000e+00    0,000000000e+00
      310000000    1,107821614e-02   -1,600355469e-02   -7,121246457e-01    2,973403633e-01    0,000000000e+00    0,000000000e+00    0,000000000e+00    0,000000000e+00
      324000000    1,958868653e-02   -2,625267953e-02   -4,276596606e-01    6,376020312e-01    0,000000000e+00    0,000000000e+00    0,000000000e+00    0,000000000e+00
      338000000    2,525300533e-02   -5,207427591e-02   -7,480707951e-03    7,611697912e-01    0,000000000e+00    0,000000000e+00    0,000000000e+00    0,000000000e+00
      352000000    7,474269252e-03   -8,477754146e-02    4,065352082e-01    6,407182217e-01    0,000000000e+00    0,000000000e+00    0,000000000e+00    0,000000000e+00
      366000000   -3,467573225e-02   -9,596454352e-02    6,913583875e-01    3,128533661e-01    0,000000000e+00    0,000000000e+00    0,000000000e+00    0,000000000e+00
      380000000   -7,134804875e-02   -7,115669549e-02    7,487129569e-01   -1,245988533e-01    0,000000000e+00    0,000000000e+00    0,000000000e+00    0,000000000e+00
      394000000   -7,311514765e-02   -3,237892687e-02    5,481524467e-01   -5,219786763e-01    0,000000000e+00    0,000000000e+00    0,000000000e+00    0,000000000e+00
      408000000   -4,703677073e-02   -1,569789648e-02    1,625870466e-01   -7,321036458e-01    0,000000000e+00    0,000000000e+00    0,000000000e+00    0,000000000e+00
      422000000   -2,848577127e-02   -3,141681850e-02   -2,664336860e-01   -6,957034469e-01    0,000000000e+00    0,000000000e+00    0,000000000e+00    0,000000000e+00
      436000000   -4,014197737e-02   -5,169012398e-02   -6,033245325e-01   -4,340613484e-01    0,000000000e+00    0,000000000e+00    0,000000000e+00    0,000000000e+00
      450000000   -6,733962148e-02   -4,449994117e-02   -7,406387925e-01   -2,492235601e-02    0,000000000e+00    0,000000000e+00    0,000000000e+00    0,000000000e+00
      464000000   -7,432741672e-02   -1,202626992e-02   -6,214092970e-01    3,950570226e-01    0,000000000e+00    0,000000000e+00    0,000000000e+00    0,000000000e+00
      478000000   -4,904846475e-02    1,188489515e-02   -2,866715193e-01    6,675980687e-01    0,000000000e+00    0,000000000e+00    0,000000000e+00    0,000000000e+00
      492000000   -1,713646390e-02    6,472934037e-03    1,339999288e-01    7,040075064e-01    0,000000000e+00    0,000000000e+00    0,000000000e+00    0,000000000e+00
      506000000   -3,700022819e-03   -1,521029975e-02    4,976966381e-01    5,057578683e-01    0,000000000e+00    0,000000000e+00    0,000000000e+00    0,000000000e+00
      520000000   -6,404968910e-03   -2,971933596e-02    6,894812584e-01    1,432094574e-01    0,000000000e+00    0,000000000e+00    0,000000000e+00    0,000000000e+00
      534000000   -3,605406266e-03   -3,578872979e-02    6,447835565e-01   -2,600641847e-01    0,000000000e+00    0,000000000e+00    0,000000000e+00    0,000000000e+00
      548000000    7,938972674e-03   -5,279960856e-02    3,847587705e-01   -5,636169314e-01    0,000000000e+00    0,000000000e+00    0,000000000e+00    0,000000000e+00
      562000000    5,623696838e-03   -8,972183615e-02    8,465533145e-03   -6,713548899e-01    0,000000000e+00    0,000000000e+00    0,000000000e+00    0,000000000e+00
      576000000   -3,138608485e-02   -1,263593137e-01   -3,632321060e-01   -5,613536835e-01    0,000000000e+00    0,000000000e+00    0,000000000e+00    0,000000000e+00
      590000000   -9,480357915e-02   -1,276499480e-01   -6,174284220e-01   -2,730747461e-01    0,000000000e+00    0,000000000e+00    0,000000000e+00    0,000000000e+00
      604000000   -1,432036608e-01   -7,809967548e-02   -6,677636504e-01    1,263476312e-01    0,000000000e+00    0,000000000e+00    0,000000000e+00    0,000000000e+00
      618000000   -1,377576590e-01   -1,130072586e-02   -4,747006297e-01    4,857916832e-01    0,000000000e+00    0,000000000e+00    0,000000000e+00    0,000000000e+00
      632000000   -9,310326725e-02    2,221921645e-02   -1,138004065e-01    6,628354788e-01    0,000000000e+00    0,000000000e+00    0,000000000e+00    0,000000000e+00
      646000000   -5,546250194e-02    1,141896099e-02    2,732272744e-01    6,029923558e-01    0,000000000e+00    0,000000000e+00    0,000000000e+00    0,000000000e+00
      660000000   -4,882071540e-02   -8,170927875e-03    5,580219030e-01    3,398632407e-01    0,000000000e+00    0,000000000e+00    0,000000000e+00    0,000000000e+00
      674000000   -5,628463253e-02   -1,057611313e-02    6,444370747e-01   -3,988701478e-02    0,000000000e+00    0,000000000e+00    0,000000000e+00    0,000000000e+00
      688000000   -5,079763383e-02    2,707771491e-03    4,937093258e-01   -4,015491307e-01    0,000000000e+00    0,000000000e+00    0,000000000e+00    0,000000000e+00
      702000000   -2,574253269e-02    8,327297866e-03    1,586840153e-01   -6,029941440e-01    0,000000000e+00    0,000000000e+00    0,000000000e+00    0,000000000e+00
      716000000   -1,178913284e-03   -9,494190104e-03   -2,185922563e-01   -5,751305223e-01    0,000000000e+00    0,000000000e+00    0,000000000e+00    0,000000000e+00
      730000000    1,004190929e-02   -3,424144164e-02   -5,094421506e-01   -3,333140612e-01    0,000000000e+00    0,000000000e+00    0,000000000e+00    0,000000000e+00
      744000000    1,684920676e-02   -6,057665497e-02   -6,010833979e-01    3,319316357e-02    0,000000000e+00    0,000000000e+00    0,000000000e+00    0,000000000e+00
      758000000    2,222415805e-02   -1,043988243e-01   -4,544234574e-01    3,776643574e-01    0,000000000e+00    0,000000000e+00    0,000000000e+00    0,000000000e+00
      772000000   -4,255930427e-03   -1,738601476e-01   -1,390721351e-01    5,574979782e-01    0,000000000e+00    0,000000000e+00    0,000000000e+00    0,000000000e+00
      786000000   -1,046410352e-01   -2,320774347e-01    2,108002454e-01    5,183602571e-01    0,000000000e+00    0,000000000e+00    0,000000000e+00    0,000000000e+00
      800000000   -2,654177248e-01   -1,920752823e-01    4,714176655e-01    2,754377723e-01    0,000000000e+00    0,000000000e+00    0,000000000e+00    0,000000000e+00
      814000000   -3,643157482e-01    2,879712032e-03    5,072204471e-01   -8,863137662e-02    0,000000000e+00    0,000000000e+00    0,000000000e+00    0,000000000e+00
      828000000   -2,470638156e-01    2,338181436e-01    2,809811234e-01   -3,522390723e-01    0,000000000e+00    0,000000000e+00    0,000000000e+00    0,000000000e+00
      842000000    1,236476097e-02    2,782409489e-01   -1,540864911e-02   -3,627330661e-01    0,000000000e+00    0,000000000e+00    0,000000000e+00    0,000000000e+00
      856000000    2,125452012e-01    1,155702993e-01   -1,875955164e-01   -2,045496702e-01    0,000000000e+00    0,000000000e+00    0,000000000e+00    0,000000000e+00
      870000000    2,387396693e-01   -1,487323493e-01   -2,010637522e-01   -2,565972507e-02    0,000000000e+00    0,000000000e+00    0,000000000e+00    0,000000000e+00
      884000000    3,721639141e-02   -3,866506219e-01   -1,047600135e-01    7,079970092e-02    0,000000000e+00    0,000000000e+00    0,000000000e+00    0,000000000e+00
      898000000   -3,695907295e-01   -3,422743976e-01   -1,732145250e-02    2,711140178e-02    0,000000000e+00    0,000000000e+00    0,000000000e+00    0,000000000e+00
      912000000   -4,667372704e-01    1,382384896e-01   -1,228591800e-01    2,724179626e-02    0,000000000e+00    0,000000000e+00    0,000000000e+00    0,000000000e+00
      926000000   -9,554563463e-02    3,504669070e-01   -1,264492869e-01    1,331370622e-01    0,000000000e+00    0,000000000e+00    0,000000000e+00    0,000000000e+00
      940000000    1,819143146e-01    1,950195134e-01   -3,878097981e-02    2,167899013e-01    0,000000000e+00    0,000000000e+00    0,000000000e+00    0,000000000e+00
      954000000    2,562817931e-01   -5,066965148e-02    8,104173839e-02    2,264200300e-01    0,000000000e+00    0,000000000e+00    0,000000000e+00    0,000000000e+00
      968000000    1,730752736e-01   -2,633075714e-01    1,907535940e-01    1,799990684e-01    0,000000000e+00    0,000000000e+00    0,000000000e+00    0,000000000e+00
      982000000   -1,644448936e-02   -3,908845186e-01    2,805931866e-01    7,993219048e-02    0,000000000e+00    0,000000000e+00    0,000000000e+00    0,000000000e+00
      996000000   -2,758285999e-01   -3,765620887e-01    3,088468909e-01   -7,894900441e-02    0,000000000e+00    0,000000000e+00    0,000000000e+00    0,000000000e+00
     1010000000   -4,678228796e-01   -1,712489426e-01    2,201698720e-01   -2,520793080e-01    0,000000000e+00    0,000000000e+00    0,000000000e+00    0,000000000e+00
     1024000000   -4,621674716e-01    1,209768280e-01    2,222504467e-02   -3,296194077e-01    0,000000000e+00    0,000000000e+00    0,000000000e+00    0,000000000e+00
     1038000000   -2,615234852e-01    2,969764471e-01   -1,745459586e-01   -2,485804558e-01    0,000000000e+00    0,000000000e+00    0,000000000e+00    0,000000000e+00
     1052000000   -3,379207104e-02    3,100734651e-01   -2,583424151e-01   -7,643000036e-02    0,000000000e+00    0,000000000e+00    0,000000000e+00    0,000000000e+00
     1066000000    1,269571483e-01    2,025536150e-01   -2,247827053e-01    8,549376577e-02    0,000000000e+00    0,000000000e+00    0,000000000e+00    0,000000000e+00
     1080000000    2,084536552e-01    4,507058486e-02   -1,205989420e-01    1,937046945e-01    0,000000000e+00    0,000000000e+00    0,000000000e+00    0,000000000e+00
     1094000000    2,031188756e-01   -1,280243993e-01    1,645627432e-02    2,341115177e-01    0,000000000e+00    0,000000000e+00    0,000000000e+00    0,000000000e+00
     1108000000    1,001676172e-01   -2,847428918e-01    1,693776399e-01    2,078951001e-01    0,000000000e+00    0,000000000e+00    0,000000000e+00    0,000000000e+00
     1122000000   -1,030072421e-01   -3,665117919e-01    3,159431815e-01    9,034971148e-02    0,000000000e+00    0,000000000e+00    0,000000000e+00    0,000000000e+00
     1136000000   -3,491536975e-01   -2,687827349e-01    3,918215632e-01   -1,483515799e-01    0,000000000e+00    0,000000000e+00    0,000000000e+00    0,000000000e+00
     1150000000   -4,083404541e-01    3,271416947e-02    2,459554076e-01   -4,370452166e-01    0,000000000e+00    0,000000000e+00    0,000000000e+00    0,000000000e+00
     1164000000   -1,568948776e-01    2,149155438e-01   -9,472248703e-02   -5,145820379e-01    0,000000000e+00    0,000000000e+00    0,000000000e+00    0,000000000e+00
     1178000000    7,632588595e-02    8,265468478e-02   -3,570960164e-01   -3,469969928e-01    0,000000000e+00    0,000000000e+00    0,000000000e+00    0,000000000e+00
     1192000000    7,641152292e-02   -1,722467989e-01   -4,539014399e-01   -8,085949719e-02    0,000000000e+00    0,000000000e+00    0,000000000e+00    0,000000000e+00
     1206000000   -1,631780565e-01   -3,251660466e-01   -3,687702417e-01    1,880150884e-01    0,000000000e+00    0,000000000e+00    0,000000000e+00    0,000000000e+00
     1220000000   -4,517340362e-01   -1,803056300e-01   -1,061153486e-01    3,288745880e-01    0,000000000e+00    0,000000000e+00    0,000000000e+00    0,000000000e+00
     1234000000   -4,760116339e-01    1,684125215e-01    1,396670043e-01    2,220080197e-01    0,000000000e+00    0,000000000e+00    0,000000000e+00    0,000000000e+00
     1248000000   -2,381000370e-01    3,496075571e-01    1,848488748e-01    3,134945780e-02    0,000000000e+00    0,000000000e+00    0,000000000e+00    0,000000000e+00
     1262000000    5,876945797e-03    3,253340423e-01    1,304360777e-01   -7,300535589e-02    0,000000000e+00    0,000000000e+00    0,000000000e+00    0,000000000e+00
     1276000000    1,581254900e-01    1,971472651e-01    5,308671668e-02   -9,787998348e-02    0,000000000e+00    0,000000000e+00    0,000000000e+00    0,000000000e+00
     1290000000    2,197850794e-01    3,344648331e-02    1,757242368e-03   -7,071755081e-02    0,000000000e+00    0,000000000e+00    0,000000000e+00    0,000000000e+00
     1304000000    2,013237327e-01   -1,434955895e-01   -2,674099058e-02   -2,952258475e-02    0,000000000e+00    0,000000000e+00    0,000000000e+00    0,000000000e+00
     1318000000    1,140300632e-01   -3,097766936e-01   -9,713427862e-04    1,891610958e-02    0,000000000e+00    0,000000000e+00    0,000000000e+00    0,000000000e+00
     1332000000   -6,898322701e-02   -4,350727499e-01    5,000635609e-02    5,889320001e-02    0,000000000e+00    0,000000000e+00    0,000000000e+00    0,000000000e+00
     1346000000   -3,280195892e-01   -4,336244464e-01    1,391007602e-01    5,200365931e-02    0,000000000e+00    0,000000000e+00    0,000000000e+00    0,000000000e+00
     1360000000   -5,638867617e-01   -2,422365546e-01    1,076017544e-01   -7,899562269e-02    0,000000000e+00    0,000000000e+00    0,000000000e+00    0,000000000e+00
     1374000000   -6,193850636e-01    3,643938899e-02    1,121075973e-01    6,714322418e-02    0,000000000e+00    0,000000000e+00    0,000000000e+00    0,000000000e+00
     1388000000   -5,117827058e-01    2,979208827e-01    2,255035788e-01    8,125795983e-03    0,000000000e+00    0,000000000e+00    0,000000000e+00    0,000000000e+00
     1402000000   -3,102168441e-01    4,182256460e-01    2,161719203e-01   -8,553529531e-02    0,000000000e+00    0,000000000e+00    0,000000000e+00    0,000000000e+00
     1416000000   -8,989393711e-02    4,267200828e-01    1,898948997e-01   -1,085034981e-01    0,000000000e+00    0,000000000e+00    0,000000000e+00    0,000000000e+00
     1430000000    7,180393487e-02    3,300422430e-01    1,619677991e-01   -1,325681806e-01    0,000000000e+00    0,000000000e+00    0,000000000e+00    0,000000000e+00
     1444000000    1,777104884e-01    1,989544034e-01    1,634688973e-01   -9,791211039e-02    0,000000000e+00    0,000000000e+00    0,000000000e+00    0,000000000e+00
     1458000000    2,204468250e-01    3,266576305e-02    1,442532837e-01   -8,358865231e-02    0,000000000e+00    0,000000000e+00    0,000000000e+00    0,000000000e+00
     1472000000    2,046559155e-01   -1,471210569e-01    1,583643854e-01   -5,865417793e-02    0,000000000e+00    0,000000000e+00    0,000000000e+00    0,000000000e+00
     1486000000    1,027728096e-01   -3,245249987e-01    1,681053191e-01    1,047669072e-02    0,000000000e+00    0,000000000e+00    0,000000000e+00    0,000000000e+00
     1500000000   -9,350965917e-02   -4,691453576e-01    2,220736295e-01    5,240475759e-02    0,000000000e+00    0,000000000e+00    0,000000000e+00    0,000000000e+00
