! NanoVNA-App
! Date: 2025-09-25 14:28:37
! Start: 100MHz Stop: 1,5GHz Points: 101
! S-Parameter data: F S11 S21 S12 S22
# Hz S RI R 50
!     Frequency           S11_Real           S11_Imag           S21_Real           S21_Imag           S12_Real           S12_Imag           S22_Real           S22_Imag
      100000000   -2,910103090e-02   -4,131047986e-03    3,745568395e-01   -7,220460176e-01    0,000000000e+00    0,000000000e+00    0,000000000e+00    0,000000000e+00
      114000000   -1,662059128e-02    1,161549985e-02   -8,882889152e-02   -8,059356213e-01    0,000000000e+00    0,000000000e+00    0,000000000e+00    0,000000000e+00
      128000000    3,367765341e-03    1,048591174e-02   -5,145190954e-01   -6,210120320e-01    0,000000000e+00    0,000000000e+00    0,000000000e+00    0,000000000e+00
      142000000    1,442434825e-02   -3,068732563e-03   -7,673939466e-01   -2,370711565e-01    0,000000000e+00    0,000000000e+00    0,000000000e+00    0,000000000e+00
      156000000    1,527777314e-02   -1,483904570e-02   -7,692313790e-01    2,231509387e-01    0,000000000e+00    0,000000000e+00    0,000000000e+00    0,000000000e+00
      170000000    1,647052728e-02   -2,250591293e-02   -5,188331008e-01    6,051880121e-01    0,000000000e+00    0,000000000e+00    0,000000000e+00    0,000000000e+00
      184000000    2,100984007e-02   -3,700856492e-02   -1,020283252e-01    7,864240408e-01    0,000000000e+00    0,000000000e+00    0,000000000e+00    0,000000000e+00
      198000000    1,313270070e-02   -6,255750358e-02    3,431717455e-01    7,129399180e-01    0,000000000e+00    0,000000000e+00    0,000000000e+00    0,000000000e+00
      212000000   -1,870781928e-02   -8,174911886e-02    6,780658364e-01    4,107005894e-01    0,000000000e+00    0,000000000e+00    0,000000000e+00    0,000000000e+00
      226000000   -6,211597472e-02   -6,970843673e-02    7,961194515e-01   -2,969732694e-02    0,000000000e+00    0,000000000e+00    0,000000000e+00    0,000000000e+00
      240000000   -8,324144036e-02   -2,605658583e-02    6,470856667e-01   -4,664327800e-01    0,000000000e+00    0,000000000e+00    0,000000000e+00    0,000000000e+00
      254000000   -6,436708570e-02    1,747427881e-02    2,770718634e-01   -7,430621982e-01    0,000000000e+00    0,000000000e+00    0,000000000e+00    0,000000000e+00
      268000000   -2,405758761e-02    2,949584648e-02   -1,769507378e-01   -7,653654814e-01    0,000000000e+00    0,000000000e+00    0,000000000e+00    0,000000000e+00
      282000000    4,208507482e-03    1,204430126e-02   -5,623166561e-01   -5,373097658e-01    0,000000000e+00    0,000000000e+00    0,000000000e+00    0,000000000e+00
      296000000    9,551418014e-03   -7,693120744e-03   -7,607587576e-01   -1,396980733e-01    0,000000000e+00    0,000000000e+00    0,000000000e+00    0,000000000e+00
      310000000    1,079851110e-02   -1,610404626e-02   -7,135072351e-01    2,980908751e-01    0,000000000e+00    0,000000000e+00    0,000000000e+00    0,000000000e+00
      324000000    1,934650540e-02   -2,640528604e-02   -4,292910397e-01    6,377362609e-01    0,000000000e+00    0,000000000e+00    0,000000000e+00    0,000000000e+00
      338000000    2,544323169e-02   -5,181817338e-02   -1,097170543e-02    7,605795860e-01    0,000000000e+00    0,000000000e+00    0,000000000e+00    0,000000000e+00
      352000000    7,126973476e-03   -8,502607793e-02    4,050644040e-01    6,404189467e-01    0,000000000e+00    0,000000000e+00    0,000000000e+00    0,000000000e+00
      366000000   -3,504495695e-02   -9,586901218e-02    6,900473237e-01    3,128849566e-01    0,000000000e+00    0,000000000e+00    0,000000000e+00    0,000000000e+00
      380000000   -7,158872485e-02   -7,123328745e-02    7,486267090e-01   -1,247152463e-01    0,000000000e+00    0,000000000e+00    0,000000000e+00    0,000000000e+00
      394000000   -7,342537493e-02   -3,261089325e-02    5,472055674e-01   -5,216239691e-01    0,000000000e+00    0,000000000e+00    0,000000000e+00    0,000000000e+00
      408000000   -4,692104459e-02   -1,554046664e-02    1,643922627e-01   -7,323047519e-01    0,000000000e+00    0,000000000e+00    0,000000000e+00    0,000000000e+00
      422000000   -2,828148194e-02   -3,144151345e-02   -2,663276792e-01   -6,952484250e-01    0,000000000e+00    0,000000000e+00    0,000000000e+00    0,000000000e+00
      436000000   -4,008373246e-02   -5,188754573e-02   -6,023142338e-01   -4,339222908e-01    0,000000000e+00    0,000000000e+00    0,000000000e+00    0,000000000e+00
      450000000   -6,752993912e-02   -4,463432357e-02   -7,405592203e-01   -2,478806674e-02    0,000000000e+00    0,000000000e+00    0,000000000e+00    0,000000000e+00
      464000000   -7,390146703e-02   -1,206408534e-02   -6,217446327e-01    3,947762847e-01    0,000000000e+00    0,000000000e+00    0,000000000e+00    0,000000000e+00
      478000000   -4,914433882e-02    1,166932005e-02   -2,868435681e-01    6,672455072e-01    0,000000000e+00    0,000000000e+00    0,000000000e+00    0,000000000e+00
      492000000   -1,689733192e-02    6,508137565e-03    1,344657540e-01    7,045884132e-01    0,000000000e+00    0,000000000e+00    0,000000000e+00    0,000000000e+00
      506000000   -3,532999661e-03   -1,489716675e-02    4,979054630e-01    5,061224103e-01    0,000000000e+00    0,000000000e+00    0,000000000e+00    0,000000000e+00
      520000000   -5,997500382e-03   -3,002617881e-02    6,914259195e-01    1,447076797e-01    0,000000000e+00    0,000000000e+00    0,000000000e+00    0,000000000e+00
      534000000   -3,443274181e-03   -3,572161868e-02    6,444981694e-01   -2,594523728e-01    0,000000000e+00    0,000000000e+00    0,000000000e+00    0,000000000e+00
      548000000    8,334814571e-03   -5,251543969e-02    3,854314983e-01   -5,643966794e-01    0,000000000e+00    0,000000000e+00    0,000000000e+00    0,000000000e+00
      562000000    5,451668985e-03   -8,994162828e-02    8,877737448e-03   -6,726135612e-01    0,000000000e+00    0,000000000e+00    0,000000000e+00    0,000000000e+00
      576000000   -3,187591583e-02   -1,261025667e-01   -3,622967005e-01   -5,600236654e-01    0,000000000e+00    0,000000000e+00    0,000000000e+00    0,000000000e+00
      590000000   -9,480930120e-02   -1,277405620e-01   -6,188673973e-01   -2,715137899e-01    0,000000000e+00    0,000000000e+00    0,000000000e+00    0,000000000e+00
      604000000   -1,428946555e-01   -7,780092210e-02   -6,667774916e-01    1,263625771e-01    0,000000000e+00    0,000000000e+00    0,000000000e+00    0,000000000e+00
      618000000   -1,381268650e-01   -1,169111114e-02   -4,747914672e-01    4,851140976e-01    0,000000000e+00    0,000000000e+00    0,000000000e+00    0,000000000e+00
      632000000   -9,299315512e-02    2,153345942e-02   -1,135961115e-01    6,631230712e-01    0,000000000e+00    0,000000000e+00    0,000000000e+00    0,000000000e+00
      646000000   -5,559704453e-02    1,179403719e-02    2,735220492e-01    6,033960581e-01    0,000000000e+00    0,000000000e+00    0,000000000e+00    0,000000000e+00
      660000000   -4,845295474e-02   -8,130834438e-03    5,572083592e-01    3,404742479e-01    0,000000000e+00    0,000000000e+00    0,000000000e+00    0,000000000e+00
      674000000   -5,622555315e-02   -1,064146496e-02    6,446986794e-01   -3,934296221e-02    0,000000000e+00    0,000000000e+00    0,000000000e+00    0,000000000e+00
      688000000   -5,059037358e-02    2,405676059e-03    4,932872653e-01   -4,013509154e-01    0,000000000e+00    0,000000000e+00    0,000000000e+00    0,000000000e+00
      702000000   -2,553322911e-02    7,364740130e-03    1,613464057e-01   -6,065377593e-01    0,000000000e+00    0,000000000e+00    0,000000000e+00    0,000000000e+00
      716000000   -2,462636679e-03   -8,328897879e-03   -2,180258036e-01   -5,755293965e-01    0,000000000e+00    0,000000000e+00    0,000000000e+00    0,000000000e+00
      730000000    9,075921029e-03   -3,480565175e-02   -5,094808340e-01   -3,337917030e-01    0,000000000e+00    0,000000000e+00    0,000000000e+00    0,000000000e+00
      744000000    1,718839072e-02   -6,007850543e-02   -6,009857059e-01    3,253738582e-02    0,000000000e+00    0,000000000e+00    0,000000000e+00    0,000000000e+00
      758000000    2,156503312e-02   -1,031003743e-01   -4,545893073e-01    3,772958815e-01    0,000000000e+00    0,000000000e+00    0,000000000e+00    0,000000000e+00
      772000000   -5,163971800e-03   -1,735856235e-01   -1,402652711e-01    5,579025149e-01    0,000000000e+00    0,000000000e+00    0,000000000e+00    0,000000000e+00
      786000000   -1,045955271e-01   -2,331050187e-01    2,108090222e-01    5,198163986e-01    0,000000000e+00    0,000000000e+00    0,000000000e+00    0,000000000e+00
      800000000   -2,662965059e-01   -1,923859715e-01    4,714412689e-01    2,751573026e-01    0,000000000e+00    0,000000000e+00    0,000000000e+00    0,000000000e+00
      814000000   -3,651161194e-01    3,389804158e-03    5,078283548e-01   -8,780411631e-02    0,000000000e+00    0,000000000e+00    0,000000000e+00    0,000000000e+00
      828000000   -2,473728061e-01    2,339007854e-01    2,816967070e-01   -3,521281481e-01    0,000000000e+00    0,000000000e+00    0,000000000e+00    0,000000000e+00
      842000000    1,353255007e-02    2,783722579e-01   -1,520232577e-02   -3,625215292e-01    0,000000000e+00    0,000000000e+00    0,000000000e+00    0,000000000e+00
      856000000    2,124428451e-01    1,151098087e-01   -1,877299547e-01   -2,054177523e-01    0,000000000e+00    0,000000000e+00    0,000000000e+00    0,000000000e+00
      870000000    2,390156686e-01   -1,487646997e-01   -2,009845972e-01   -2,612127922e-02    0,000000000e+00    0,000000000e+00    0,000000000e+00    0,000000000e+00
      884000000    3,813384101e-02   -3,867970705e-01   -1,041176096e-01    7,118043303e-02    0,000000000e+00    0,000000000e+00    0,000000000e+00    0,000000000e+00
      898000000   -3,706174195e-01   -3,413879275e-01   -1,671918668e-02    2,846425772e-02    0,000000000e+00    0,000000000e+00    0,000000000e+00    0,000000000e+00
      912000000   -4,662505388e-01    1,395356506e-01   -1,121091247e-01    2,324268408e-02    0,000000000e+00    0,000000000e+00    0,000000000e+00    0,000000000e+00
      926000000   -9,787444025e-02    3,517390490e-01   -1,288296729e-01    1,319468468e-01    0,000000000e+00    0,000000000e+00    0,000000000e+00    0,000000000e+00
      940000000    1,838997006e-01    1,921234578e-01   -3,802359849e-02    2,145127356e-01    0,000000000e+00    0,000000000e+00    0,000000000e+00    0,000000000e+00
      954000000    2,567262352e-01   -5,018306896e-02    7,819253206e-02    2,261321545e-01    0,000000000e+00    0,000000000e+00    0,000000000e+00    0,000000000e+00
      968000000    1,770963073e-01   -2,622106075e-01    1,903358549e-01    1,802355647e-01    0,000000000e+00    0,000000000e+00    0,000000000e+00    0,000000000e+00
      982000000   -1,765065454e-02   -3,947590888e-01    2,787366211e-01    8,043779433e-02    0,000000000e+00    0,000000000e+00    0,000000000e+00    0,000000000e+00
      996000000   -2,726418674e-01   -3,737112284e-01    3,075265288e-01   -8,004136384e-02    0,000000000e+00    0,000000000e+00    0,000000000e+00    0,000000000e+00
     1010000000   -4,664826989e-01   -1,742409319e-01    2,218301147e-01   -2,538966835e-01    0,000000000e+00    0,000000000e+00    0,000000000e+00    0,000000000e+00
     1024000000   -4,626688957e-01    1,149900481e-01    2,098567411e-02   -3,287101984e-01    0,000000000e+00    0,000000000e+00    0,000000000e+00    0,000000000e+00
     1038000000   -2,661117315e-01    2,956091464e-01   -1,726312190e-01   -2,497972995e-01    0,000000000e+00    0,000000000e+00    0,000000000e+00    0,000000000e+00
     1052000000   -3,982091323e-02    3,094511628e-01   -2,560408115e-01   -7,863968611e-02    0,000000000e+00    0,000000000e+00    0,000000000e+00    0,000000000e+00
     1066000000    1,234115884e-01    2,065173537e-01   -2,227720320e-01    8,554346114e-02    0,000000000e+00    0,000000000e+00    0,000000000e+00    0,000000000e+00
     1080000000    2,042102963e-01    4,656220973e-02   -1,190375984e-01    1,918107718e-01    0,000000000e+00    0,000000000e+00    0,000000000e+00    0,000000000e+00
     1094000000    2,016850710e-01   -1,254025400e-01    1,771911792e-02    2,332323194e-01    0,000000000e+00    0,000000000e+00    0,000000000e+00    0,000000000e+00
     1108000000    9,981163591e-02   -2,837901711e-01    1,701264530e-01    2,051630616e-01    0,000000000e+00    0,000000000e+00    0,000000000e+00    0,000000000e+00
     1122000000   -1,042764708e-01   -3,699518144e-01    3,188165724e-01    8,990169317e-02    0,000000000e+00    0,000000000e+00    0,000000000e+00    0,000000000e+00
     1136000000   -3,476214111e-01   -2,736741602e-01    3,912141025e-01   -1,465991586e-01    0,000000000e+00    0,000000000e+00    0,000000000e+00    0,000000000e+00
     1150000000   -4,103288352e-01    4,017024860e-02    2,452876121e-01   -4,366711080e-01    0,000000000e+00    0,000000000e+00    0,000000000e+00    0,000000000e+00
     1164000000   -1,557637602e-01    2,140565217e-01   -9,227950871e-02   -5,158130527e-01    0,000000000e+00    0,000000000e+00    0,000000000e+00    0,000000000e+00
     1178000000    7,227247208e-02    8,156961948e-02   -3,548854291e-01   -3,446537852e-01    0,000000000e+00    0,000000000e+00    0,000000000e+00    0,000000000e+00
     1192000000    7,529310882e-02   -1,757915616e-01   -4,526362419e-01   -8,483528346e-02    0,000000000e+00    0,000000000e+00    0,000000000e+00    0,000000000e+00
     1206000000   -1,600622833e-01   -3,250306547e-01   -3,664078116e-01    1,951762885e-01    0,000000000e+00    0,000000000e+00    0,000000000e+00    0,000000000e+00
     1220000000   -4,555140436e-01   -1,755163223e-01   -1,062259600e-01    3,256914616e-01    0,000000000e+00    0,000000000e+00    0,000000000e+00    0,000000000e+00
     1234000000   -4,714299738e-01    1,653512269e-01    1,418346316e-01    2,237681895e-01    0,000000000e+00    0,000000000e+00    0,000000000e+00    0,000000000e+00
     1248000000   -2,305363119e-01    3,561853766e-01    1,946283877e-01    3,486084193e-02    0,000000000e+00    0,000000000e+00    0,000000000e+00    0,000000000e+00
     1262000000    5,670585204e-03    3,260331154e-01    1,242112964e-01   -7,598866522e-02    0,000000000e+00    0,000000000e+00    0,000000000e+00    0,000000000e+00
     1276000000    1,583290845e-01    1,995113641e-01    5,420818925e-02   -9,614818543e-02    0,000000000e+00    0,000000000e+00    0,000000000e+00    0,000000000e+00
     1290000000    2,178091109e-01    3,499803320e-02   -2,724599617e-04   -6,923955679e-02    0,000000000e+00    0,000000000e+00    0,000000000e+00    0,000000000e+00
     1304000000    2,033859193e-01   -1,431433409e-01   -2,174262516e-02   -3,168064728e-02    0,000000000e+00    0,000000000e+00    0,000000000e+00    0,000000000e+00
     1318000000    1,164639741e-01   -3,140994608e-01   -9,041892365e-03    1,804587245e-02    0,000000000e+00    0,000000000e+00    0,000000000e+00    0,000000000e+00
     1332000000   -6,397843361e-02   -4,362361133e-01    5,189158767e-02    6,358226389e-02    0,000000000e+00    0,000000000e+00    0,000000000e+00    0,000000000e+00
     1346000000   -3,245145082e-01   -4,317488670e-01    1,509394795e-01    5,454749987e-02    0,000000000e+00    0,000000000e+00    0,000000000e+00    0,000000000e+00
     1360000000   -5,581066012e-01   -2,404951006e-01    1,113797203e-01   -7,404629141e-02    0,000000000e+00    0,000000000e+00    0,000000000e+00    0,000000000e+00
     1374000000   -6,332455873e-01    3,555889428e-02    9,762614965e-02    6,302749366e-02    0,000000000e+00    0,000000000e+00    0,000000000e+00    0,000000000e+00
     1388000000   -5,104342103e-01    2,942819893e-01    2,291463912e-01    4,201587755e-03    0,000000000e+00    0,000000000e+00    0,000000000e+00    0,000000000e+00
     1402000000   -3,107392192e-01    4,223617911e-01    2,180931419e-01   -7,792986929e-02    0,000000000e+00    0,000000000e+00    0,000000000e+00    0,000000000e+00
     1416000000   -9,593304992e-02    4,166162312e-01    1,793479472e-01   -1,158328280e-01    0,000000000e+00    0,000000000e+00    0,000000000e+00    0,000000000e+00
     1430000000    7,256670296e-02    3,353876173e-01    1,633528769e-01   -1,184542701e-01    0,000000000e+00    0,000000000e+00    0,000000000e+00    0,000000000e+00
     1444000000    1,798531711e-01    2,006703317e-01    1,544292718e-01   -1,107442528e-01    0,000000000e+00    0,000000000e+00    0,000000000e+00    0,000000000e+00
     1458000000    2,273852229e-01    3,226659819e-02    1,565991193e-01   -7,685367018e-02    0,000000000e+00    0,000000000e+00    0,000000000e+00    0,000000000e+00
     1472000000    2,092914283e-01   -1,462291628e-01    1,480703652e-01   -3,917484358e-02    0,000000000e+00    0,000000000e+00    0,000000000e+00    0,000000000e+00
     1486000000    1,102158129e-01   -3,230845928e-01    1,753942072e-01    4,112509079e-03    0,000000000e+00    0,000000000e+00    0,000000000e+00    0,000000000e+00
     1500000000   -9,126394242e-02   -4,596439302e-01    2,122326642e-01    4,521228373e-02    0,000000000e+00    0,000000000e+00    0,000000000e+00    0,000000000e+00
