! NanoVNA-App
! Date: 2025-09-25 14:24:21
! Start: 100MHz Stop: 1,5GHz Points: 101
! S-Parameter data: F S11 S21 S12 S22
# Hz S RI R 50
!     Frequency           S11_Real           S11_Imag           S21_Real           S21_Imag           S12_Real           S12_Imag           S22_Real           S22_Imag
      100000000   -2,909922972e-02   -4,116240423e-03    3,744525909e-01   -7,220313549e-01    0,000000000e+00    0,000000000e+00    0,000000000e+00    0,000000000e+00
      114000000   -1,662420481e-02    1,162821520e-02   -8,900326490e-02   -8,058858514e-01    0,000000000e+00    0,000000000e+00    0,000000000e+00    0,000000000e+00
      128000000    3,441225272e-03    1,048652083e-02   -5,145618916e-01   -6,210245490e-01    0,000000000e+00    0,000000000e+00    0,000000000e+00    0,000000000e+00
      142000000    1,445927378e-02   -3,072573105e-03   -7,675372362e-01   -2,370257527e-01    0,000000000e+00    0,000000000e+00    0,000000000e+00    0,000000000e+00
      156000000    1,500688493e-02   -1,505946368e-02   -7,679001689e-01    2,223996818e-01    0,000000000e+00    0,000000000e+00    0,000000000e+00    0,000000000e+00
      170000000    1,655953005e-02   -2,249687724e-02   -5,187413096e-01    6,052473187e-01    0,000000000e+00    0,000000000e+00    0,000000000e+00    0,000000000e+00
      184000000    2,093502693e-02   -3,699892759e-02   -1,017855033e-01    7,864936590e-01    0,000000000e+00    0,000000000e+00    0,000000000e+00    0,000000000e+00
      198000000    1,314728707e-02   -6,258097291e-02    3,431966901e-01    7,131267190e-01    0,000000000e+00    0,000000000e+00    0,000000000e+00    0,000000000e+00
      212000000   -1,864537783e-02   -8,173169941e-02    6,782627702e-01    4,106730223e-01    0,000000000e+00    0,000000000e+00    0,000000000e+00    0,000000000e+00
      226000000   -6,202420220e-02   -6,971056014e-02    7,960075140e-01   -2,981897071e-02    0,000000000e+00    0,000000000e+00    0,000000000e+00    0,000000000e+00
      240000000   -8,321651071e-02   -2,607605234e-02    6,471115351e-01   -4,665397406e-01    0,000000000e+00    0,000000000e+00    0,000000000e+00    0,000000000e+00
      254000000   -6,430168450e-02    1,736356691e-02    2,772232592e-01   -7,436281443e-01    0,000000000e+00    0,000000000e+00    0,000000000e+00    0,000000000e+00
      268000000   -2,415925078e-02    2,957466617e-02   -1,771101952e-01   -7,651292086e-01    0,000000000e+00    0,000000000e+00    0,000000000e+00    0,000000000e+00
      282000000    4,133929033e-03    1,216736529e-02   -5,623470545e-01   -5,372975469e-01    0,000000000e+00    0,000000000e+00    0,000000000e+00    0,000000000e+00
      296000000    9,570381604e-03   -7,691622246e-03   -7,607198954e-01   -1,393858045e-01    0,000000000e+00    0,000000000e+00    0,000000000e+00    0,000000000e+00
      310000000    1,087270118e-02   -1,612669975e-02   -7,142239213e-01    2,970233560e-01    0,000000000e+00    0,000000000e+00    0,000000000e+00    0,000000000e+00
      324000000    1,939568855e-02   -2,644219808e-02   -4,292372167e-01    6,375549436e-01    0,000000000e+00    0,000000000e+00    0,000000000e+00    0,000000000e+00
      338000000    2,522757463e-02   -5,206961930e-02   -9,765008464e-03    7,606260777e-01    0,000000000e+00    0,000000000e+00    0,000000000e+00    0,000000000e+00
      352000000    7,332780398e-03   -8,467980474e-02    4,051395655e-01    6,410163045e-01    0,000000000e+00    0,000000000e+00    0,000000000e+00    0,000000000e+00
      366000000   -3,489473462e-02   -9,608834982e-02    6,912860274e-01    3,119093478e-01    0,000000000e+00    0,000000000e+00    0,000000000e+00    0,000000000e+00
      380000000   -7,145858556e-02   -7,097683847e-02    7,479984164e-01   -1,244028509e-01    0,000000000e+00    0,000000000e+00    0,000000000e+00    0,000000000e+00
      394000000   -7,302223891e-02   -3,234844282e-02    5,490266085e-01   -5,208299756e-01    0,000000000e+00    0,000000000e+00    0,000000000e+00    0,000000000e+00
      408000000   -4,686015099e-02   -1,569008641e-02    1,619105488e-01   -7,339920998e-01    0,000000000e+00    0,000000000e+00    0,000000000e+00    0,000000000e+00
      422000000   -2,851129696e-02   -3,143142909e-02   -2,654234767e-01   -6,961769462e-01    0,000000000e+00    0,000000000e+00    0,000000000e+00    0,000000000e+00
      436000000   -3,987582773e-02   -5,209163576e-02   -6,019509435e-01   -4,341494441e-01    0,000000000e+00    0,000000000e+00    0,000000000e+00    0,000000000e+00
      450000000   -6,779408455e-02   -4,477505758e-02   -7,410207987e-01   -2,503586560e-02    0,000000000e+00    0,000000000e+00    0,000000000e+00    0,000000000e+00
      464000000   -7,392122597e-02   -1,208162867e-02   -6,209987998e-01    3,948960900e-01    0,000000000e+00    0,000000000e+00    0,000000000e+00    0,000000000e+00
      478000000   -4,915303364e-02    1,206645928e-02   -2,865613401e-01    6,677805781e-01    0,000000000e+00    0,000000000e+00    0,000000000e+00    0,000000000e+00
      492000000   -1,710582525e-02    6,663442589e-03    1,336674243e-01    7,043589354e-01    0,000000000e+00    0,000000000e+00    0,000000000e+00    0,000000000e+00
      506000000   -3,714574734e-03   -1,497633010e-02    4,976659715e-01    5,066072941e-01    0,000000000e+00    0,000000000e+00    0,000000000e+00    0,000000000e+00
      520000000   -6,104998291e-03   -2,968624420e-02    6,888856292e-01    1,435960233e-01    0,000000000e+00    0,000000000e+00    0,000000000e+00    0,000000000e+00
      534000000   -3,550885245e-03   -3,576773778e-02    6,444360614e-01   -2,598438263e-01    0,000000000e+00    0,000000000e+00    0,000000000e+00    0,000000000e+00
      548000000    8,071464486e-03   -5,286172032e-02    3,849253953e-01   -5,652253628e-01    0,000000000e+00    0,000000000e+00    0,000000000e+00    0,000000000e+00
      562000000    5,731543526e-03   -8,923009038e-02    7,583652623e-03   -6,719108820e-01    0,000000000e+00    0,000000000e+00    0,000000000e+00    0,000000000e+00
      576000000   -3,113867156e-02   -1,265756339e-01   -3,618850410e-01   -5,609338880e-01    0,000000000e+00    0,000000000e+00    0,000000000e+00    0,000000000e+00
      590000000   -9,484026581e-02   -1,276379079e-01   -6,177977920e-01   -2,722095847e-01    0,000000000e+00    0,000000000e+00    0,000000000e+00    0,000000000e+00
      604000000   -1,432789266e-01   -7,789825648e-02   -6,671745777e-01    1,264874488e-01    0,000000000e+00    0,000000000e+00    0,000000000e+00    0,000000000e+00
      618000000   -1,381651312e-01   -1,157797500e-02   -4,741959870e-01    4,854281545e-01    0,000000000e+00    0,000000000e+00    0,000000000e+00    0,000000000e+00
      632000000   -9,353441745e-02    2,220028825e-02   -1,131318733e-01    6,633738279e-01    0,000000000e+00    0,000000000e+00    0,000000000e+00    0,000000000e+00
      646000000   -5,467778444e-02    1,235044003e-02    2,733882368e-01    6,032068729e-01    0,000000000e+00    0,000000000e+00    0,000000000e+00    0,000000000e+00
      660000000   -4,809824750e-02   -9,170129895e-03    5,579106808e-01    3,412455320e-01    0,000000000e+00    0,000000000e+00    0,000000000e+00    0,000000000e+00
      674000000   -5,542421713e-02   -1,139352284e-02    6,446183324e-01   -3,968921676e-02    0,000000000e+00    0,000000000e+00    0,000000000e+00    0,000000000e+00
      688000000   -4,979854077e-02    2,511271043e-03    4,934214354e-01   -4,015989900e-01    0,000000000e+00    0,000000000e+00    0,000000000e+00    0,000000000e+00
      702000000   -2,712491900e-02    7,484892849e-03    1,665205210e-01   -5,998061299e-01    0,000000000e+00    0,000000000e+00    0,000000000e+00    0,000000000e+00
      716000000   -2,606782131e-03   -9,329034016e-03   -2,186073214e-01   -5,752028227e-01    0,000000000e+00    0,000000000e+00    0,000000000e+00    0,000000000e+00
      730000000    9,893940762e-03   -3,390353173e-02   -5,092016459e-01   -3,334573209e-01    0,000000000e+00    0,000000000e+00    0,000000000e+00    0,000000000e+00
      744000000    1,703134365e-02   -6,155718490e-02   -6,006724238e-01    3,288620338e-02    0,000000000e+00    0,000000000e+00    0,000000000e+00    0,000000000e+00
      758000000    2,239421755e-02   -1,038956419e-01   -4,544928968e-01    3,776931167e-01    0,000000000e+00    0,000000000e+00    0,000000000e+00    0,000000000e+00
      772000000   -4,685232416e-03   -1,731699556e-01   -1,397323310e-01    5,578321218e-01    0,000000000e+00    0,000000000e+00    0,000000000e+00    0,000000000e+00
      786000000   -1,048315838e-01   -2,318931818e-01    2,121648341e-01    5,197805166e-01    0,000000000e+00    0,000000000e+00    0,000000000e+00    0,000000000e+00
      800000000   -2,652319372e-01   -1,931442916e-01    4,717556536e-01    2,755676508e-01    0,000000000e+00    0,000000000e+00    0,000000000e+00    0,000000000e+00
      814000000   -3,638372719e-01    3,939704504e-03    5,079213381e-01   -8,865170181e-02    0,000000000e+00    0,000000000e+00    0,000000000e+00    0,000000000e+00
      828000000   -2,478720099e-01    2,327058017e-01    2,812615633e-01   -3,533561230e-01    0,000000000e+00    0,000000000e+00    0,000000000e+00    0,000000000e+00
      842000000    1,297263149e-02    2,785764337e-01   -1,572916098e-02   -3,624596298e-01    0,000000000e+00    0,000000000e+00    0,000000000e+00    0,000000000e+00
      856000000    2,129114121e-01    1,152977422e-01   -1,876857430e-01   -2,051637620e-01    0,000000000e+00    0,000000000e+00    0,000000000e+00    0,000000000e+00
      870000000    2,386204898e-01   -1,488841623e-01   -2,000239342e-01   -2,604738623e-02    0,000000000e+00    0,000000000e+00    0,000000000e+00    0,000000000e+00
      884000000    3,735261783e-02   -3,874026835e-01   -1,042875648e-01    7,033023238e-02    0,000000000e+00    0,000000000e+00    0,000000000e+00    0,000000000e+00
      898000000   -3,696007729e-01   -3,419792950e-01   -1,682847925e-02    2,804489061e-02    0,000000000e+00    0,000000000e+00    0,000000000e+00    0,000000000e+00
      912000000   -4,670624137e-01    1,373368651e-01   -1,213568598e-01    3,813769668e-02    0,000000000e+00    0,000000000e+00    0,000000000e+00    0,000000000e+00
      926000000   -9,464759380e-02    3,511707485e-01   -1,276544183e-01    1,337748468e-01    0,000000000e+00    0,000000000e+00    0,000000000e+00    0,000000000e+00
      940000000    1,851639152e-01    1,947925687e-01   -3,812152520e-02    2,172451466e-01    0,000000000e+00    0,000000000e+00    0,000000000e+00    0,000000000e+00
      954000000    2,547268569e-01   -4,983109236e-02    7,851043344e-02    2,283327132e-01    0,000000000e+00    0,000000000e+00    0,000000000e+00    0,000000000e+00
      968000000    1,761475801e-01   -2,607791126e-01    1,899402440e-01    1,800672859e-01    0,000000000e+00    0,000000000e+00    0,000000000e+00    0,000000000e+00
      982000000   -1,943440177e-02   -3,929209411e-01    2,796005607e-01    8,047622442e-02    0,000000000e+00    0,000000000e+00    0,000000000e+00    0,000000000e+00
      996000000   -2,716820240e-01   -3,753768504e-01    3,085924983e-01   -7,951453328e-02    0,000000000e+00    0,000000000e+00    0,000000000e+00    0,000000000e+00
     1010000000   -4,687145650e-01   -1,700758636e-01    2,189489603e-01   -2,553156316e-01    0,000000000e+00    0,000000000e+00    0,000000000e+00    0,000000000e+00
     1024000000   -4,563883841e-01    1,147477329e-01    2,096769772e-02   -3,320749402e-01    0,000000000e+00    0,000000000e+00    0,000000000e+00    0,000000000e+00
     1038000000   -2,610033154e-01    2,999807000e-01   -1,731379926e-01   -2,469517887e-01    0,000000000e+00    0,000000000e+00    0,000000000e+00    0,000000000e+00
     1052000000   -3,887699172e-02    3,053175211e-01   -2,571026385e-01   -7,650487870e-02    0,000000000e+00    0,000000000e+00    0,000000000e+00    0,000000000e+00
     1066000000    1,270003319e-01    2,017682195e-01   -2,239563167e-01    8,555885404e-02    0,000000000e+00    0,000000000e+00    0,000000000e+00    0,000000000e+00
     1080000000    2,090235353e-01    4,532763734e-02   -1,206906810e-01    1,920042485e-01    0,000000000e+00    0,000000000e+00    0,000000000e+00    0,000000000e+00
     1094000000    1,983535439e-01   -1,251403242e-01    1,608942822e-02    2,334193587e-01    0,000000000e+00    0,000000000e+00    0,000000000e+00    0,000000000e+00
     1108000000    1,051890850e-01   -2,871162295e-01    1,710178107e-01    2,059504837e-01    0,000000000e+00    0,000000000e+00    0,000000000e+00    0,000000000e+00
     1122000000   -9,714219719e-02   -3,666071296e-01    3,177430034e-01    8,818040788e-02    0,000000000e+00    0,000000000e+00    0,000000000e+00    0,000000000e+00
     1136000000   -3,450130522e-01   -2,687930465e-01    3,913870752e-01   -1,487862021e-01    0,000000000e+00    0,000000000e+00    0,000000000e+00    0,000000000e+00
     1150000000   -4,078221321e-01    4,097246006e-02    2,444835901e-01   -4,388958514e-01    0,000000000e+00    0,000000000e+00    0,000000000e+00    0,000000000e+00
     1164000000   -1,612400115e-01    2,223222405e-01   -9,575232863e-02   -5,139135718e-01    0,000000000e+00    0,000000000e+00    0,000000000e+00    0,000000000e+00
     1178000000    7,701162994e-02    8,360281587e-02   -3,592353463e-01   -3,464103639e-01    0,000000000e+00    0,000000000e+00    0,000000000e+00    0,000000000e+00
     1192000000    7,511957735e-02   -1,758926064e-01   -4,542219341e-01   -8,513363451e-02    0,000000000e+00    0,000000000e+00    0,000000000e+00    0,000000000e+00
     1206000000   -1,639435589e-01   -3,264392912e-01   -3,688214719e-01    1,898554265e-01    0,000000000e+00    0,000000000e+00    0,000000000e+00    0,000000000e+00
     1220000000   -4,581728578e-01   -1,761531532e-01   -1,079178229e-01    3,312316835e-01    0,000000000e+00    0,000000000e+00    0,000000000e+00    0,000000000e+00
     1234000000   -4,754944742e-01    1,636870801e-01    1,390340179e-01    2,171303630e-01    0,000000000e+00    0,000000000e+00    0,000000000e+00    0,000000000e+00
     1248000000   -2,356126010e-01    3,519008756e-01    1,964771599e-01    3,247602284e-02    0,000000000e+00    0,000000000e+00    0,000000000e+00    0,000000000e+00
     1262000000    1,488661161e-03    3,325902820e-01    1,277983189e-01   -6,902030855e-02    0,000000000e+00    0,000000000e+00    0,000000000e+00    0,000000000e+00
     1276000000    1,559843570e-01    1,982993931e-01    5,700365826e-02   -9,713577479e-02    0,000000000e+00    0,000000000e+00    0,000000000e+00    0,000000000e+00
     1290000000    2,161963433e-01    3,411492705e-02   -2,210912207e-04   -7,229273021e-02    0,000000000e+00    0,000000000e+00    0,000000000e+00    0,000000000e+00
     1304000000    2,026602626e-01   -1,483992338e-01   -2,274711989e-02   -3,131384030e-02    0,000000000e+00    0,000000000e+00    0,000000000e+00    0,000000000e+00
     1318000000    1,146494001e-01   -3,133114278e-01   -4,320459906e-03    2,412433177e-02    0,000000000e+00    0,000000000e+00    0,000000000e+00    0,000000000e+00
     1332000000   -6,661938131e-02   -4,333325922e-01    5,007359758e-02    7,070343196e-02    0,000000000e+00    0,000000000e+00    0,000000000e+00    0,000000000e+00
     1346000000   -3,271875083e-01   -4,350585938e-01    1,461632699e-01    4,960925132e-02    0,000000000e+00    0,000000000e+00    0,000000000e+00    0,000000000e+00
     1360000000   -5,510728955e-01   -2,417609394e-01    1,229777560e-01   -6,857711077e-02    0,000000000e+00    0,000000000e+00    0,000000000e+00    0,000000000e+00
     1374000000   -6,220717430e-01    2,517760359e-02    1,126663387e-01    5,335800722e-02    0,000000000e+00    0,000000000e+00    0,000000000e+00    0,000000000e+00
     1388000000   -5,088606477e-01    2,914536595e-01    2,336784005e-01   -4,455988295e-03    0,000000000e+00    0,000000000e+00    0,000000000e+00    0,000000000e+00
     1402000000   -3,013466597e-01    4,188623726e-01    2,320376933e-01   -7,897344977e-02    0,000000000e+00    0,000000000e+00    0,000000000e+00    0,000000000e+00
     1416000000   -9,065090120e-02    4,172191918e-01    1,899681836e-01   -1,245480552e-01    0,000000000e+00    0,000000000e+00    0,000000000e+00    0,000000000e+00
     1430000000    7,811887562e-02    3,362004459e-01    1,546338648e-01   -1,117677391e-01    0,000000000e+00    0,000000000e+00    0,000000000e+00    0,000000000e+00
     1444000000    1,741319746e-01    2,074743062e-01    1,518502831e-01   -9,507349879e-02    0,000000000e+00    0,000000000e+00    0,000000000e+00    0,000000000e+00
     1458000000    2,233981341e-01    3,189617395e-02    1,575330049e-01   -8,137481660e-02    0,000000000e+00    0,000000000e+00    0,000000000e+00    0,000000000e+00
     1472000000    2,081155032e-01   -1,475888938e-01    1,563212276e-01   -6,203520298e-02    0,000000000e+00    0,000000000e+00    0,000000000e+00    0,000000000e+00
     1486000000    1,087196544e-01   -3,228307366e-01    1,746363938e-01    3,033207729e-03    0,000000000e+00    0,000000000e+00    0,000000000e+00    0,000000000e+00
     1500000000   -9,760623425e-02   -4,565735459e-01    2,110176533e-01    5,171478167e-02    0,000000000e+00    0,000000000e+00    0,000000000e+00    0,000000000e+00
