! NanoVNA-App
! Date: 2025-09-25 14:23:25
! Start: 100MHz Stop: 1,5GHz Points: 101
! S-Parameter data: F S11 S21 S12 S22
# Hz S RI R 50
!     Frequency           S11_Real           S11_Imag           S21_Real           S21_Imag           S12_Real           S12_Imag           S22_Real           S22_Imag
      100000000   -2,909611911e-02   -4,124884959e-03    3,744648993e-01   -7,220774889e-01    0,000000000e+00    0,000000000e+00    0,000000000e+00    0,000000000e+00
      114000000   -1,661958732e-02    1,163978595e-02   -8,895362169e-02   -8,059529066e-01    0,000000000e+00    0,000000000e+00    0,000000000e+00    0,000000000e+00
      128000000    3,416925669e-03    1,050010044e-02   -5,145967007e-01   -6,209560633e-01    0,000000000e+00    0,000000000e+00    0,000000000e+00    0,000000000e+00
      142000000    1,445452310e-02   -3,054183442e-03   -7,674331069e-01   -2,370875031e-01    0,000000000e+00    0,000000000e+00    0,000000000e+00    0,000000000e+00
      156000000    1,472755056e-02   -1,501941495e-02   -7,675257921e-01    2,184583843e-01    0,000000000e+00    0,000000000e+00    0,000000000e+00    0,000000000e+00
      170000000    1,657566242e-02   -2,256183885e-02   -5,187470317e-01    6,050426960e-01    0,000000000e+00    0,000000000e+00    0,000000000e+00    0,000000000e+00
      184000000    2,100523934e-02   -3,703346476e-02   -1,018667296e-01    7,866209745e-01    0,000000000e+00    0,000000000e+00    0,000000000e+00    0,000000000e+00
      198000000    1,309352461e-02   -6,262022257e-02    3,431186974e-01    7,133088112e-01    0,000000000e+00    0,000000000e+00    0,000000000e+00    0,000000000e+00
      212000000   -1,867374778e-02   -8,167499304e-02    6,782524586e-01    4,105579853e-01    0,000000000e+00    0,000000000e+00    0,000000000e+00    0,000000000e+00
      226000000   -6,202138215e-02   -6,970802695e-02    7,960917354e-01   -2,985380031e-02    0,000000000e+00    0,000000000e+00    0,000000000e+00    0,000000000e+00
      240000000   -8,325725049e-02   -2,609790675e-02    6,469176412e-01   -4,665155113e-01    0,000000000e+00    0,000000000e+00    0,000000000e+00    0,000000000e+00
      254000000   -6,445942819e-02    1,739050448e-02    2,769679129e-01   -7,435476780e-01    0,000000000e+00    0,000000000e+00    0,000000000e+00    0,000000000e+00
      268000000   -2,401275374e-02    2,958511375e-02   -1,767950207e-01   -7,655059099e-01    0,000000000e+00    0,000000000e+00    0,000000000e+00    0,000000000e+00
      282000000    4,140599631e-03    1,198879350e-02   -5,627701283e-01   -5,374542475e-01    0,000000000e+00    0,000000000e+00    0,000000000e+00    0,000000000e+00
      296000000    9,617843665e-03   -7,751417346e-03   -7,609475255e-01   -1,395403743e-01    0,000000000e+00    0,000000000e+00    0,000000000e+00    0,000000000e+00
      310000000    1,083412208e-02   -1,624165103e-02   -7,127615213e-01    2,965879738e-01    0,000000000e+00    0,000000000e+00    0,000000000e+00    0,000000000e+00
      324000000    1,936800219e-02   -2,660189569e-02   -4,291788638e-01    6,376617551e-01    0,000000000e+00    0,000000000e+00    0,000000000e+00    0,000000000e+00
      338000000    2,530268393e-02   -5,183402821e-02   -9,322023019e-03    7,609530091e-01    0,000000000e+00    0,000000000e+00    0,000000000e+00    0,000000000e+00
      352000000    7,496392820e-03   -8,479866385e-02    4,063537419e-01    6,409924030e-01    0,000000000e+00    0,000000000e+00    0,000000000e+00    0,000000000e+00
      366000000   -3,496968746e-02   -9,610365331e-02    6,908946037e-01    3,122369647e-01    0,000000000e+00    0,000000000e+00    0,000000000e+00    0,000000000e+00
      380000000   -7,138174772e-02   -7,100971788e-02    7,488484383e-01   -1,244850010e-01    0,000000000e+00    0,000000000e+00    0,000000000e+00    0,000000000e+00
      394000000   -7,297130674e-02   -3,233520687e-02    5,490893126e-01   -5,212993026e-01    0,000000000e+00    0,000000000e+00    0,000000000e+00    0,000000000e+00
      408000000   -4,702814668e-02   -1,558794267e-02    1,623096019e-01   -7,326416373e-01    0,000000000e+00    0,000000000e+00    0,000000000e+00    0,000000000e+00
      422000000   -2,801894583e-02   -3,167760745e-02   -2,664920390e-01   -6,962508559e-01    0,000000000e+00    0,000000000e+00    0,000000000e+00    0,000000000e+00
      436000000   -4,047210515e-02   -5,210689828e-02   -6,030191183e-01   -4,340579510e-01    0,000000000e+00    0,000000000e+00    0,000000000e+00    0,000000000e+00
      450000000   -6,762652099e-02   -4,466123134e-02   -7,406448722e-01   -2,513884753e-02    0,000000000e+00    0,000000000e+00    0,000000000e+00    0,000000000e+00
      464000000   -7,402207702e-02   -1,238444913e-02   -6,217109561e-01    3,946893513e-01    0,000000000e+00    0,000000000e+00    0,000000000e+00    0,000000000e+00
      478000000   -4,915400967e-02    1,141506992e-02   -2,870576084e-01    6,676081419e-01    0,000000000e+00    0,000000000e+00    0,000000000e+00    0,000000000e+00
      492000000   -1,655861922e-02    6,437703967e-03    1,343807876e-01    7,042616606e-01    0,000000000e+00    0,000000000e+00    0,000000000e+00    0,000000000e+00
      506000000   -3,822552506e-03   -1,495504752e-02    4,976515174e-01    5,071872473e-01    0,000000000e+00    0,000000000e+00    0,000000000e+00    0,000000000e+00
      520000000   -6,025966257e-03   -2,965427004e-02    6,897663474e-01    1,447602957e-01    0,000000000e+00    0,000000000e+00    0,000000000e+00    0,000000000e+00
      534000000   -3,390212543e-03   -3,606323525e-02    6,450659633e-01   -2,599056661e-01    0,000000000e+00    0,000000000e+00    0,000000000e+00    0,000000000e+00
      548000000    8,493232541e-03   -5,273062736e-02    3,854128122e-01   -5,641791821e-01    0,000000000e+00    0,000000000e+00    0,000000000e+00    0,000000000e+00
      562000000    5,949804094e-03   -8,980308473e-02    7,689050399e-03   -6,726146936e-01    0,000000000e+00    0,000000000e+00    0,000000000e+00    0,000000000e+00
      576000000   -3,151677176e-02   -1,257530898e-01   -3,634342849e-01   -5,611875057e-01    0,000000000e+00    0,000000000e+00    0,000000000e+00    0,000000000e+00
      590000000   -9,505307674e-02   -1,276957393e-01   -6,174061298e-01   -2,744488418e-01    0,000000000e+00    0,000000000e+00    0,000000000e+00    0,000000000e+00
      604000000   -1,431082934e-01   -7,758634537e-02   -6,673399806e-01    1,266445965e-01    0,000000000e+00    0,000000000e+00    0,000000000e+00    0,000000000e+00
      618000000   -1,378081590e-01   -1,193649322e-02   -4,749437869e-01    4,852877855e-01    0,000000000e+00    0,000000000e+00    0,000000000e+00    0,000000000e+00
      632000000   -9,350121766e-02    2,191720344e-02   -1,142537445e-01    6,639627218e-01    0,000000000e+00    0,000000000e+00    0,000000000e+00    0,000000000e+00
      646000000   -5,581128970e-02    1,167777274e-02    2,730928361e-01    6,036974192e-01    0,000000000e+00    0,000000000e+00    0,000000000e+00    0,000000000e+00
      660000000   -4,852395505e-02   -8,994446136e-03    5,567421317e-01    3,403539956e-01    0,000000000e+00    0,000000000e+00    0,000000000e+00    0,000000000e+00
      674000000   -5,629162490e-02   -1,078645978e-02    6,444677711e-01   -3,962902352e-02    0,000000000e+00    0,000000000e+00    0,000000000e+00    0,000000000e+00
      688000000   -5,056405067e-02    2,488810569e-03    4,936229587e-01   -4,012441337e-01    0,000000000e+00    0,000000000e+00    0,000000000e+00    0,000000000e+00
      702000000   -2,627119981e-02    7,047951687e-03    1,582974494e-01   -6,009631157e-01    0,000000000e+00    0,000000000e+00    0,000000000e+00    0,000000000e+00
      716000000   -2,609177958e-03   -9,586098604e-03   -2,186922729e-01   -5,742411017e-01    0,000000000e+00    0,000000000e+00    0,000000000e+00    0,000000000e+00
      730000000    9,104883298e-03   -3,496202454e-02   -5,086135268e-01   -3,325704932e-01    0,000000000e+00    0,000000000e+00    0,000000000e+00    0,000000000e+00
      744000000    1,661336981e-02   -6,149904802e-02   -6,009510756e-01    3,322809190e-02    0,000000000e+00    0,000000000e+00    0,000000000e+00    0,000000000e+00
      758000000    2,248945832e-02   -1,038730368e-01   -4,546245039e-01    3,769136369e-01    0,000000000e+00    0,000000000e+00    0,000000000e+00    0,000000000e+00
      772000000   -5,260562524e-03   -1,733908653e-01   -1,389739066e-01    5,578192472e-01    0,000000000e+00    0,000000000e+00    0,000000000e+00    0,000000000e+00
      786000000   -1,047725454e-01   -2,327395082e-01    2,114363611e-01    5,196345448e-01    0,000000000e+00    0,000000000e+00    0,000000000e+00    0,000000000e+00
      800000000   -2,661075294e-01   -1,928212345e-01    4,718623459e-01    2,750527561e-01    0,000000000e+00    0,000000000e+00    0,000000000e+00    0,000000000e+00
      814000000   -3,644132316e-01    2,960824873e-03    5,077821016e-01   -8,836833388e-02    0,000000000e+00    0,000000000e+00    0,000000000e+00    0,000000000e+00
      828000000   -2,472553849e-01    2,338137925e-01    2,807483375e-01   -3,525453210e-01    0,000000000e+00    0,000000000e+00    0,000000000e+00    0,000000000e+00
      842000000    1,285206527e-02    2,773837745e-01   -1,613146067e-02   -3,623021543e-01    0,000000000e+00    0,000000000e+00    0,000000000e+00    0,000000000e+00
      856000000    2,124227732e-01    1,155324206e-01   -1,878970414e-01   -2,040880620e-01    0,000000000e+00    0,000000000e+00    0,000000000e+00    0,000000000e+00
      870000000    2,388277501e-01   -1,487889439e-01   -2,002341300e-01   -2,570194565e-02    0,000000000e+00    0,000000000e+00    0,000000000e+00    0,000000000e+00
      884000000    3,761895746e-02   -3,869569600e-01   -1,034788936e-01    7,089381665e-02    0,000000000e+00    0,000000000e+00    0,000000000e+00    0,000000000e+00
      898000000   -3,694445789e-01   -3,424048424e-01   -1,728429459e-02    2,743318863e-02    0,000000000e+00    0,000000000e+00    0,000000000e+00    0,000000000e+00
      912000000   -4,668619633e-01    1,384276748e-01   -1,061029658e-01    2,864184789e-02    0,000000000e+00    0,000000000e+00    0,000000000e+00    0,000000000e+00
      926000000   -9,364558756e-02    3,512037694e-01   -1,274276376e-01    1,343264729e-01    0,000000000e+00    0,000000000e+00    0,000000000e+00    0,000000000e+00
      940000000    1,855596155e-01    1,949125081e-01   -3,740423173e-02    2,162927091e-01    0,000000000e+00    0,000000000e+00    0,000000000e+00    0,000000000e+00
      954000000    2,562073469e-01   -5,019444972e-02    8,094158024e-02    2,262773812e-01    0,000000000e+00    0,000000000e+00    0,000000000e+00    0,000000000e+00
      968000000    1,722006500e-01   -2,629727125e-01    1,909831911e-01    1,793766320e-01    0,000000000e+00    0,000000000e+00    0,000000000e+00    0,000000000e+00
      982000000   -1,724063419e-02   -3,914625943e-01    2,806538641e-01    8,137515932e-02    0,000000000e+00    0,000000000e+00    0,000000000e+00    0,000000000e+00
      996000000   -2,759625316e-01   -3,753225803e-01    3,104657233e-01   -8,006449789e-02    0,000000000e+00    0,000000000e+00    0,000000000e+00    0,000000000e+00
     1010000000   -4,662298560e-01   -1,740673333e-01    2,218911350e-01   -2,527193129e-01    0,000000000e+00    0,000000000e+00    0,000000000e+00    0,000000000e+00
     1024000000   -4,554545581e-01    1,182229891e-01    2,277067117e-02   -3,290987313e-01    0,000000000e+00    0,000000000e+00    0,000000000e+00    0,000000000e+00
     1038000000   -2,662737966e-01    2,976292670e-01   -1,717338711e-01   -2,456606179e-01    0,000000000e+00    0,000000000e+00    0,000000000e+00    0,000000000e+00
     1052000000   -3,729536384e-02    3,100254536e-01   -2,575063407e-01   -7,691226155e-02    0,000000000e+00    0,000000000e+00    0,000000000e+00    0,000000000e+00
     1066000000    1,278907061e-01    2,039634138e-01   -2,274784297e-01    8,772158623e-02    0,000000000e+00    0,000000000e+00    0,000000000e+00    0,000000000e+00
     1080000000    2,108758688e-01    4,710876569e-02   -1,211255789e-01    1,939799339e-01    0,000000000e+00    0,000000000e+00    0,000000000e+00    0,000000000e+00
     1094000000    1,992789209e-01   -1,293898225e-01    1,788186841e-02    2,343792766e-01    0,000000000e+00    0,000000000e+00    0,000000000e+00    0,000000000e+00
     1108000000    1,002124101e-01   -2,897566557e-01    1,694673598e-01    2,066229135e-01    0,000000000e+00    0,000000000e+00    0,000000000e+00    0,000000000e+00
     1122000000   -9,889283031e-02   -3,684302866e-01    3,151857853e-01    8,752927184e-02    0,000000000e+00    0,000000000e+00    0,000000000e+00    0,000000000e+00
     1136000000   -3,504675627e-01   -2,712147832e-01    3,920040727e-01   -1,503782570e-01    0,000000000e+00    0,000000000e+00    0,000000000e+00    0,000000000e+00
     1150000000   -4,076529741e-01    2,992251329e-02    2,406014949e-01   -4,337670207e-01    0,000000000e+00    0,000000000e+00    0,000000000e+00    0,000000000e+00
     1164000000   -1,565288007e-01    2,158344984e-01   -9,540591389e-02   -5,174328685e-01    0,000000000e+00    0,000000000e+00    0,000000000e+00    0,000000000e+00
     1178000000    7,351326942e-02    8,315340430e-02   -3,563795686e-01   -3,464126587e-01    0,000000000e+00    0,000000000e+00    0,000000000e+00    0,000000000e+00
     1192000000    7,477044314e-02   -1,771267802e-01   -4,522476792e-01   -8,796061575e-02    0,000000000e+00    0,000000000e+00    0,000000000e+00    0,000000000e+00
     1206000000   -1,627746522e-01   -3,224823475e-01   -3,685697019e-01    1,903183609e-01    0,000000000e+00    0,000000000e+00    0,000000000e+00    0,000000000e+00
     1220000000   -4,566824138e-01   -1,804252863e-01   -1,074778587e-01    3,231510818e-01    0,000000000e+00    0,000000000e+00    0,000000000e+00    0,000000000e+00
     1234000000   -4,717358947e-01    1,621018350e-01    1,345406622e-01    2,207764387e-01    0,000000000e+00    0,000000000e+00    0,000000000e+00    0,000000000e+00
     1248000000   -2,332412750e-01    3,525618017e-01    1,867818534e-01    3,336803243e-02    0,000000000e+00    0,000000000e+00    0,000000000e+00    0,000000000e+00
     1262000000    9,820038453e-03    3,263251483e-01    1,327757984e-01   -7,220371068e-02    0,000000000e+00    0,000000000e+00    0,000000000e+00    0,000000000e+00
     1276000000    1,592103094e-01    2,005295306e-01    5,836228281e-02   -9,736916423e-02    0,000000000e+00    0,000000000e+00    0,000000000e+00    0,000000000e+00
     1290000000    2,189521044e-01    3,138657659e-02    6,567357108e-03   -7,194624841e-02    0,000000000e+00    0,000000000e+00    0,000000000e+00    0,000000000e+00
     1304000000    2,031533122e-01   -1,425427943e-01   -1,647403650e-02   -2,910484001e-02    0,000000000e+00    0,000000000e+00    0,000000000e+00    0,000000000e+00
     1318000000    1,154548153e-01   -3,098275363e-01   -1,045828965e-02    2,364887483e-02    0,000000000e+00    0,000000000e+00    0,000000000e+00    0,000000000e+00
     1332000000   -6,832340360e-02   -4,341550469e-01    4,689033702e-02    6,158503145e-02    0,000000000e+00    0,000000000e+00    0,000000000e+00    0,000000000e+00
     1346000000   -3,294867277e-01   -4,267697930e-01    1,429267824e-01    5,225274339e-02    0,000000000e+00    0,000000000e+00    0,000000000e+00    0,000000000e+00
     1360000000   -5,546433330e-01   -2,478266060e-01    1,160122231e-01   -8,599168807e-02    0,000000000e+00    0,000000000e+00    0,000000000e+00    0,000000000e+00
     1374000000   -6,254110932e-01    3,256304935e-02    9,457413107e-02    6,153478473e-02    0,000000000e+00    0,000000000e+00    0,000000000e+00    0,000000000e+00
     1388000000   -5,127453804e-01    2,917532325e-01    2,350681424e-01    9,376900271e-03    0,000000000e+00    0,000000000e+00    0,000000000e+00    0,000000000e+00
     1402000000   -3,099998236e-01    4,117222726e-01    2,193345577e-01   -8,932380378e-02    0,000000000e+00    0,000000000e+00    0,000000000e+00    0,000000000e+00
     1416000000   -9,853537381e-02    4,234941900e-01    1,886726171e-01   -1,108206362e-01    0,000000000e+00    0,000000000e+00    0,000000000e+00    0,000000000e+00
     1430000000    6,536012143e-02    3,279509544e-01    1,303967237e-01   -1,302701533e-01    0,000000000e+00    0,000000000e+00    0,000000000e+00    0,000000000e+00
     1444000000    1,753483564e-01    2,035549134e-01    1,532121897e-01   -1,044599712e-01    0,000000000e+00    0,000000000e+00    0,000000000e+00    0,000000000e+00
     1458000000    2,224068195e-01    3,143288940e-02    1,538657695e-01   -8,450845629e-02    0,000000000e+00    0,000000000e+00    0,000000000e+00    0,000000000e+00
     1472000000    2,016679198e-01   -1,454191059e-01    1,425776929e-01   -6,036772951e-02    0,000000000e+00    0,000000000e+00    0,000000000e+00    0,000000000e+00
     1486000000    1,109541431e-01   -3,217776716e-01    1,576870084e-01   -6,375205703e-03    0,000000000e+00    0,000000000e+00    0,000000000e+00    0,000000000e+00
     1500000000   -9,136293828e-02   -4,541324377e-01    2,116825283e-01    7,458159328e-02    0,000000000e+00    0,000000000e+00    0,000000000e+00    0,000000000e+00
