! NanoVNA-App
! Date: 2025-09-25 14:24:38
! Start: 100MHz Stop: 1,5GHz Points: 101
! S-Parameter data: F S11 S21 S12 S22
# Hz S RI R 50
!     Frequency           S11_Real           S11_Imag           S21_Real           S21_Imag           S12_Real           S12_Imag           S22_Real           S22_Imag
      100000000   -2,908924408e-02   -4,126172513e-03    3,745204508e-01   -7,221014500e-01    0,000000000e+00    0,000000000e+00    0,000000000e+00    0,000000000e+00
      114000000   -1,662915014e-02    1,158874016e-02   -8,892728388e-02   -8,058599234e-01    0,000000000e+00    0,000000000e+00    0,000000000e+00    0,000000000e+00
      128000000    3,369143466e-03    1,056658570e-02   -5,144258738e-01   -6,210746169e-01    0,000000000e+00    0,000000000e+00    0,000000000e+00    0,000000000e+00
      142000000    1,444747020e-02   -3,054713598e-03   -7,675400376e-01   -2,369426787e-01    0,000000000e+00    0,000000000e+00    0,000000000e+00    0,000000000e+00
      156000000    1,555892080e-02   -1,469044201e-02   -7,700071335e-01    2,236963212e-01    0,000000000e+00    0,000000000e+00    0,000000000e+00    0,000000000e+00
      170000000    1,656631008e-02   -2,251612954e-02   -5,187700391e-01    6,051527858e-01    0,000000000e+00    0,000000000e+00    0,000000000e+00    0,000000000e+00
      184000000    2,094600536e-02   -3,701432794e-02   -1,020251811e-01    7,867265940e-01    0,000000000e+00    0,000000000e+00    0,000000000e+00    0,000000000e+00
      198000000    1,306879334e-02   -6,259264797e-02    3,431092203e-01    7,130963802e-01    0,000000000e+00    0,000000000e+00    0,000000000e+00    0,000000000e+00
      212000000   -1,867113635e-02   -8,171757311e-02    6,784502864e-01    4,107113481e-01    0,000000000e+00    0,000000000e+00    0,000000000e+00    0,000000000e+00
      226000000   -6,207709759e-02   -6,972792745e-02    7,961244583e-01   -2,979830280e-02    0,000000000e+00    0,000000000e+00    0,000000000e+00    0,000000000e+00
      240000000   -8,327677846e-02   -2,613178641e-02    6,470627189e-01   -4,666859210e-01    0,000000000e+00    0,000000000e+00    0,000000000e+00    0,000000000e+00
      254000000   -6,443189830e-02    1,739882492e-02    2,770430148e-01   -7,434948683e-01    0,000000000e+00    0,000000000e+00    0,000000000e+00    0,000000000e+00
      268000000   -2,415830642e-02    2,952646650e-02   -1,768641770e-01   -7,648222446e-01    0,000000000e+00    0,000000000e+00    0,000000000e+00    0,000000000e+00
      282000000    4,202456214e-03    1,214224566e-02   -5,626307726e-01   -5,375878215e-01    0,000000000e+00    0,000000000e+00    0,000000000e+00    0,000000000e+00
      296000000    9,537477046e-03   -7,788168266e-03   -7,608709931e-01   -1,396051496e-01    0,000000000e+00    0,000000000e+00    0,000000000e+00    0,000000000e+00
      310000000    1,095183846e-02   -1,603949070e-02   -7,132450938e-01    2,968026102e-01    0,000000000e+00    0,000000000e+00    0,000000000e+00    0,000000000e+00
      324000000    1,952919364e-02   -2,658990212e-02   -4,277867377e-01    6,376585364e-01    0,000000000e+00    0,000000000e+00    0,000000000e+00    0,000000000e+00
      338000000    2,549099177e-02   -5,197174102e-02   -8,075008169e-03    7,629277110e-01    0,000000000e+00    0,000000000e+00    0,000000000e+00    0,000000000e+00
      352000000    7,471699733e-03   -8,499329537e-02    4,060686231e-01    6,407136321e-01    0,000000000e+00    0,000000000e+00    0,000000000e+00    0,000000000e+00
      366000000   -3,474267200e-02   -9,624368697e-02    6,910555363e-01    3,122985065e-01    0,000000000e+00    0,000000000e+00    0,000000000e+00    0,000000000e+00
      380000000   -7,128926367e-02   -7,118252665e-02    7,484608889e-01   -1,249214038e-01    0,000000000e+00    0,000000000e+00    0,000000000e+00    0,000000000e+00
      394000000   -7,318860292e-02   -3,222047165e-02    5,473266244e-01   -5,202998519e-01    0,000000000e+00    0,000000000e+00    0,000000000e+00    0,000000000e+00
      408000000   -4,667912051e-02   -1,578209922e-02    1,637510508e-01   -7,331057787e-01    0,000000000e+00    0,000000000e+00    0,000000000e+00    0,000000000e+00
      422000000   -2,819202654e-02   -3,146858513e-02   -2,656787932e-01   -6,959486008e-01    0,000000000e+00    0,000000000e+00    0,000000000e+00    0,000000000e+00
      436000000   -3,999461979e-02   -5,179369450e-02   -6,025856137e-01   -4,335043430e-01    0,000000000e+00    0,000000000e+00    0,000000000e+00    0,000000000e+00
      450000000   -6,741397083e-02   -4,491605982e-02   -7,405090928e-01   -2,519862354e-02    0,000000000e+00    0,000000000e+00    0,000000000e+00    0,000000000e+00
      464000000   -7,431364805e-02   -1,232720912e-02   -6,212707162e-01    3,949869871e-01    0,000000000e+00    0,000000000e+00    0,000000000e+00    0,000000000e+00
      478000000   -4,914397001e-02    1,170891337e-02   -2,862408161e-01    6,676457524e-01    0,000000000e+00    0,000000000e+00    0,000000000e+00    0,000000000e+00
      492000000   -1,702237688e-02    6,390409078e-03    1,346021593e-01    7,036072612e-01    0,000000000e+00    0,000000000e+00    0,000000000e+00    0,000000000e+00
      506000000   -4,109055270e-03   -1,483900193e-02    4,964937568e-01    5,055571198e-01    0,000000000e+00    0,000000000e+00    0,000000000e+00    0,000000000e+00
      520000000   -5,782749970e-03   -2,933555841e-02    6,895757318e-01    1,434971839e-01    0,000000000e+00    0,000000000e+00    0,000000000e+00    0,000000000e+00
      534000000   -3,224912332e-03   -3,608379513e-02    6,447513103e-01   -2,596138120e-01    0,000000000e+00    0,000000000e+00    0,000000000e+00    0,000000000e+00
      548000000    7,814622484e-03   -5,272594839e-02    3,848370016e-01   -5,642722845e-01    0,000000000e+00    0,000000000e+00    0,000000000e+00    0,000000000e+00
      562000000    5,440448411e-03   -8,943406492e-02    8,445860818e-03   -6,717072129e-01    0,000000000e+00    0,000000000e+00    0,000000000e+00    0,000000000e+00
      576000000   -3,138551489e-02   -1,256902814e-01   -3,624278307e-01   -5,599995852e-01    0,000000000e+00    0,000000000e+00    0,000000000e+00    0,000000000e+00
      590000000   -9,475965798e-02   -1,278947145e-01   -6,183137298e-01   -2,713604867e-01    0,000000000e+00    0,000000000e+00    0,000000000e+00    0,000000000e+00
      604000000   -1,435883790e-01   -7,801730186e-02   -6,674411297e-01    1,262438893e-01    0,000000000e+00    0,000000000e+00    0,000000000e+00    0,000000000e+00
      618000000   -1,379146576e-01   -1,115108188e-02   -4,753338099e-01    4,855233431e-01    0,000000000e+00    0,000000000e+00    0,000000000e+00    0,000000000e+00
      632000000   -9,307825565e-02    2,113208175e-02   -1,139629707e-01    6,634037495e-01    0,000000000e+00    0,000000000e+00    0,000000000e+00    0,000000000e+00
      646000000   -5,467650667e-02    1,176963281e-02    2,737591863e-01    6,032248735e-01    0,000000000e+00    0,000000000e+00    0,000000000e+00    0,000000000e+00
      660000000   -4,856866971e-02   -8,870354854e-03    5,573758483e-01    3,400229216e-01    0,000000000e+00    0,000000000e+00    0,000000000e+00    0,000000000e+00
      674000000   -5,594196916e-02   -1,006364543e-02    6,441993713e-01   -3,966523334e-02    0,000000000e+00    0,000000000e+00    0,000000000e+00    0,000000000e+00
      688000000   -5,057605356e-02    3,130564699e-03    4,929625392e-01   -4,018720090e-01    0,000000000e+00    0,000000000e+00    0,000000000e+00    0,000000000e+00
      702000000   -2,570198290e-02    7,335914299e-03    1,689988524e-01   -6,049237251e-01    0,000000000e+00    0,000000000e+00    0,000000000e+00    0,000000000e+00
      716000000   -2,764682984e-03   -9,320027195e-03   -2,187411487e-01   -5,755940676e-01    0,000000000e+00    0,000000000e+00    0,000000000e+00    0,000000000e+00
      730000000    9,641971439e-03   -3,395915031e-02   -5,094730258e-01   -3,336956501e-01    0,000000000e+00    0,000000000e+00    0,000000000e+00    0,000000000e+00
      744000000    1,709035598e-02   -6,120419875e-02   -6,007583141e-01    3,309682384e-02    0,000000000e+00    0,000000000e+00    0,000000000e+00    0,000000000e+00
      758000000    2,133773640e-02   -1,037498936e-01   -4,544810355e-01    3,770151734e-01    0,000000000e+00    0,000000000e+00    0,000000000e+00    0,000000000e+00
      772000000   -5,342177581e-03   -1,740625203e-01   -1,397160888e-01    5,579115748e-01    0,000000000e+00    0,000000000e+00    0,000000000e+00    0,000000000e+00
      786000000   -1,049512029e-01   -2,328755111e-01    2,117466778e-01    5,199735761e-01    0,000000000e+00    0,000000000e+00    0,000000000e+00    0,000000000e+00
      800000000   -2,651366293e-01   -1,932242811e-01    4,716008008e-01    2,759045064e-01    0,000000000e+00    0,000000000e+00    0,000000000e+00    0,000000000e+00
      814000000   -3,637539446e-01    3,177974140e-03    5,076134801e-01   -8,837171644e-02    0,000000000e+00    0,000000000e+00    0,000000000e+00    0,000000000e+00
      828000000   -2,483283579e-01    2,326405793e-01    2,814304829e-01   -3,520633280e-01    0,000000000e+00    0,000000000e+00    0,000000000e+00    0,000000000e+00
      842000000    1,264482830e-02    2,781288624e-01   -1,562574133e-02   -3,635401428e-01    0,000000000e+00    0,000000000e+00    0,000000000e+00    0,000000000e+00
      856000000    2,127180398e-01    1,156212464e-01   -1,878579557e-01   -2,048848271e-01    0,000000000e+00    0,000000000e+00    0,000000000e+00    0,000000000e+00
      870000000    2,391729504e-01   -1,484487951e-01   -2,002574205e-01   -2,604217455e-02    0,000000000e+00    0,000000000e+00    0,000000000e+00    0,000000000e+00
      884000000    3,805047646e-02   -3,872686625e-01   -1,032085568e-01    7,099042833e-02    0,000000000e+00    0,000000000e+00    0,000000000e+00    0,000000000e+00
      898000000   -3,694735765e-01   -3,424594104e-01   -1,676626317e-02    2,719230205e-02    0,000000000e+00    0,000000000e+00    0,000000000e+00    0,000000000e+00
      912000000   -4,670582712e-01    1,389038116e-01   -1,145955548e-01    4,179256782e-02    0,000000000e+00    0,000000000e+00    0,000000000e+00    0,000000000e+00
      926000000   -9,728655219e-02    3,509518504e-01   -1,306480467e-01    1,347266585e-01    0,000000000e+00    0,000000000e+00    0,000000000e+00    0,000000000e+00
      940000000    1,865985841e-01    1,953529567e-01   -3,810353577e-02    2,154133916e-01    0,000000000e+00    0,000000000e+00    0,000000000e+00    0,000000000e+00
      954000000    2,542186081e-01   -4,552303255e-02    8,089655638e-02    2,264314890e-01    0,000000000e+00    0,000000000e+00    0,000000000e+00    0,000000000e+00
      968000000    1,769303381e-01   -2,621531487e-01    1,922363937e-01    1,812788546e-01    0,000000000e+00    0,000000000e+00    0,000000000e+00    0,000000000e+00
      982000000   -1,847048663e-02   -3,955717385e-01    2,809479237e-01    8,186221123e-02    0,000000000e+00    0,000000000e+00    0,000000000e+00    0,000000000e+00
      996000000   -2,734730840e-01   -3,794473112e-01    3,086050451e-01   -8,029825985e-02    0,000000000e+00    0,000000000e+00    0,000000000e+00    0,000000000e+00
     1010000000   -4,735395908e-01   -1,692653894e-01    2,213753611e-01   -2,539286613e-01    0,000000000e+00    0,000000000e+00    0,000000000e+00    0,000000000e+00
     1024000000   -4,636023045e-01    1,171778291e-01    2,063979208e-02   -3,298150301e-01    0,000000000e+00    0,000000000e+00    0,000000000e+00    0,000000000e+00
     1038000000   -2,635985911e-01    3,012891710e-01   -1,758089066e-01   -2,506496012e-01    0,000000000e+00    0,000000000e+00    0,000000000e+00    0,000000000e+00
     1052000000   -3,714568168e-02    3,114078939e-01   -2,586448789e-01   -7,788810134e-02    0,000000000e+00    0,000000000e+00    0,000000000e+00    0,000000000e+00
     1066000000    1,235663891e-01    2,070245743e-01   -2,249252051e-01    8,622103184e-02    0,000000000e+00    0,000000000e+00    0,000000000e+00    0,000000000e+00
     1080000000    2,095286697e-01    4,938194156e-02   -1,225100905e-01    1,921160072e-01    0,000000000e+00    0,000000000e+00    0,000000000e+00    0,000000000e+00
     1094000000    2,025099397e-01   -1,299401820e-01    1,747263223e-02    2,347808331e-01    0,000000000e+00    0,000000000e+00    0,000000000e+00    0,000000000e+00
     1108000000    1,029555276e-01   -2,890720963e-01    1,699539572e-01    2,069520354e-01    0,000000000e+00    0,000000000e+00    0,000000000e+00    0,000000000e+00
     1122000000   -1,040754616e-01   -3,710036576e-01    3,196609616e-01    8,919396251e-02    0,000000000e+00    0,000000000e+00    0,000000000e+00    0,000000000e+00
     1136000000   -3,500236869e-01   -2,712284923e-01    3,902466297e-01   -1,511658430e-01    0,000000000e+00    0,000000000e+00    0,000000000e+00    0,000000000e+00
     1150000000   -4,077828228e-01    3,134644032e-02    2,459914684e-01   -4,375293553e-01    0,000000000e+00    0,000000000e+00    0,000000000e+00    0,000000000e+00
     1164000000   -1,547353715e-01    2,143609524e-01   -9,369324893e-02   -5,118045211e-01    0,000000000e+00    0,000000000e+00    0,000000000e+00    0,000000000e+00
     1178000000    7,832809538e-02    8,586420864e-02   -3,545870483e-01   -3,458687961e-01    0,000000000e+00    0,000000000e+00    0,000000000e+00    0,000000000e+00
     1192000000    7,644933462e-02   -1,760957390e-01   -4,532802403e-01   -8,200278133e-02    0,000000000e+00    0,000000000e+00    0,000000000e+00    0,000000000e+00
     1206000000   -1,619952172e-01   -3,235907257e-01   -3,704771399e-01    1,908759773e-01    0,000000000e+00    0,000000000e+00    0,000000000e+00    0,000000000e+00
     1220000000   -4,536391795e-01   -1,777015924e-01   -1,027019471e-01    3,267744780e-01    0,000000000e+00    0,000000000e+00    0,000000000e+00    0,000000000e+00
     1234000000   -4,691393673e-01    1,661353111e-01    1,406742930e-01    2,203799486e-01    0,000000000e+00    0,000000000e+00    0,000000000e+00    0,000000000e+00
     1248000000   -2,335968912e-01    3,555240929e-01    1,948799640e-01    3,258019686e-02    0,000000000e+00    0,000000000e+00    0,000000000e+00    0,000000000e+00
     1262000000    6,873954087e-03    3,324980140e-01    1,296907663e-01   -6,599310786e-02    0,000000000e+00    0,000000000e+00    0,000000000e+00    0,000000000e+00
     1276000000    1,535218358e-01    1,959150583e-01    5,100145191e-02   -9,755889326e-02    0,000000000e+00    0,000000000e+00    0,000000000e+00    0,000000000e+00
     1290000000    2,144536823e-01    3,250572830e-02   -2,904219320e-03   -7,369682938e-02    0,000000000e+00    0,000000000e+00    0,000000000e+00    0,000000000e+00
     1304000000    2,039403021e-01   -1,461140066e-01   -2,043983340e-02   -3,033586591e-02    0,000000000e+00    0,000000000e+00    0,000000000e+00    0,000000000e+00
     1318000000    1,142216697e-01   -3,094922304e-01   -4,924418870e-03    2,006862126e-02    0,000000000e+00    0,000000000e+00    0,000000000e+00    0,000000000e+00
     1332000000   -6,362296641e-02   -4,342442751e-01    4,806518927e-02    6,139807776e-02    0,000000000e+00    0,000000000e+00    0,000000000e+00    0,000000000e+00
     1346000000   -3,276695013e-01   -4,379110038e-01    1,409406960e-01    3,760149330e-02    0,000000000e+00    0,000000000e+00    0,000000000e+00    0,000000000e+00
     1360000000   -5,589309931e-01   -2,403967977e-01    1,084668040e-01   -7,626835257e-02    0,000000000e+00    0,000000000e+00    0,000000000e+00    0,000000000e+00
     1374000000   -6,207258105e-01    2,448808961e-02    1,149021685e-01    6,092923135e-02    0,000000000e+00    0,000000000e+00    0,000000000e+00    0,000000000e+00
     1388000000   -5,052005053e-01    2,953674197e-01    2,264062762e-01   -3,158608451e-03    0,000000000e+00    0,000000000e+00    0,000000000e+00    0,000000000e+00
     1402000000   -3,119819760e-01    4,200477302e-01    2,201050818e-01   -8,376912773e-02    0,000000000e+00    0,000000000e+00    0,000000000e+00    0,000000000e+00
     1416000000   -9,168254584e-02    4,168683589e-01    1,833147109e-01   -1,185768768e-01    0,000000000e+00    0,000000000e+00    0,000000000e+00    0,000000000e+00
     1430000000    7,680417597e-02    3,314821422e-01    1,627459377e-01   -1,468975544e-01    0,000000000e+00    0,000000000e+00    0,000000000e+00    0,000000000e+00
     1444000000    1,747041196e-01    1,981152743e-01    1,472985595e-01   -1,108567119e-01    0,000000000e+00    0,000000000e+00    0,000000000e+00    0,000000000e+00
     1458000000    2,228033692e-01    3,655732423e-02    1,420056969e-01   -7,130785286e-02    0,000000000e+00    0,000000000e+00    0,000000000e+00    0,000000000e+00
     1472000000    2,051659822e-01   -1,454684287e-01    1,385950744e-01   -5,412309617e-02    0,000000000e+00    0,000000000e+00    0,000000000e+00    0,000000000e+00
     1486000000    1,011019200e-01   -3,233004808e-01    1,523142904e-01   -1,305421535e-02    0,000000000e+00    0,000000000e+00    0,000000000e+00    0,000000000e+00
     1500000000   -9,292371571e-02   -4,620945156e-01    2,068353742e-01    5,506582558e-02    0,000000000e+00    0,000000000e+00    0,000000000e+00    0,000000000e+00
