! NanoVNA-App
! Date: 2025-09-25 14:22:32
! Start: 100MHz Stop: 1,5GHz Points: 101
! S-Parameter data: F S11 S21 S12 S22
# Hz S RI R 50
!     Frequency           S11_Real           S11_Imag           S21_Real           S21_Imag           S12_Real           S12_Imag           S22_Real           S22_Imag
      100000000   -2,908582799e-02   -4,143786151e-03    3,744454980e-01   -7,220907807e-01    0,000000000e+00    0,000000000e+00    0,000000000e+00    0,000000000e+00
      114000000   -1,665051468e-02    1,161916368e-02   -8,893798292e-02   -8,058388233e-01    0,000000000e+00    0,000000000e+00    0,000000000e+00    0,000000000e+00
      128000000    3,470279742e-03    1,052054577e-02   -5,146843195e-01   -6,211367846e-01    0,000000000e+00    0,000000000e+00    0,000000000e+00    0,000000000e+00
      142000000    1,446583960e-02   -3,051453037e-03   -7,675027251e-01   -2,368821651e-01    0,000000000e+00    0,000000000e+00    0,000000000e+00    0,000000000e+00
      156000000    1,500403043e-02   -1,499092206e-02   -7,676956654e-01    2,223884016e-01    0,000000000e+00    0,000000000e+00    0,000000000e+00    0,000000000e+00
      170000000    1,660799794e-02   -2,250405774e-02   -5,186534524e-01    6,050876975e-01    0,000000000e+00    0,000000000e+00    0,000000000e+00    0,000000000e+00
      184000000    2,102405392e-02   -3,710449487e-02   -1,018968597e-01    7,868468165e-01    0,000000000e+00    0,000000000e+00    0,000000000e+00    0,000000000e+00
      198000000    1,302544586e-02   -6,255081296e-02    3,427871168e-01    7,129440904e-01    0,000000000e+00    0,000000000e+00    0,000000000e+00    0,000000000e+00
      212000000   -1,873066463e-02   -8,162821084e-02    6,779850125e-01    4,104053080e-01    0,000000000e+00    0,000000000e+00    0,000000000e+00    0,000000000e+00
      226000000   -6,202117726e-02   -6,965566427e-02    7,961067557e-01   -2,978728898e-02    0,000000000e+00    0,000000000e+00    0,000000000e+00    0,000000000e+00
      240000000   -8,315796405e-02   -2,609287575e-02    6,471711993e-01   -4,664052725e-01    0,000000000e+00    0,000000000e+00    0,000000000e+00    0,000000000e+00
      254000000   -6,436919421e-02    1,723669656e-02    2,770329714e-01   -7,434132099e-01    0,000000000e+00    0,000000000e+00    0,000000000e+00    0,000000000e+00
      268000000   -2,426158637e-02    2,951234020e-02   -1,774295568e-01   -7,651951909e-01    0,000000000e+00    0,000000000e+00    0,000000000e+00    0,000000000e+00
      282000000    4,212323111e-03    1,219102088e-02   -5,623607635e-01   -5,371774435e-01    0,000000000e+00    0,000000000e+00    0,000000000e+00    0,000000000e+00
      296000000    9,584150277e-03   -7,711335085e-03   -7,607938647e-01   -1,396634430e-01    0,000000000e+00    0,000000000e+00    0,000000000e+00    0,000000000e+00
      310000000    1,091094874e-02   -1,599038951e-02   -7,128549218e-01    2,964755297e-01    0,000000000e+00    0,000000000e+00    0,000000000e+00    0,000000000e+00
      324000000    1,947352849e-02   -2,660755999e-02   -4,288580120e-01    6,374334693e-01    0,000000000e+00    0,000000000e+00    0,000000000e+00    0,000000000e+00
      338000000    2,575993352e-02   -5,179869756e-02   -9,757772088e-03    7,597503066e-01    0,000000000e+00    0,000000000e+00    0,000000000e+00    0,000000000e+00
      352000000    7,652371656e-03   -8,473506570e-02    4,054648280e-01    6,410840750e-01    0,000000000e+00    0,000000000e+00    0,000000000e+00    0,000000000e+00
      366000000   -3,458534554e-02   -9,616787732e-02    6,909719110e-01    3,122606277e-01    0,000000000e+00    0,000000000e+00    0,000000000e+00    0,000000000e+00
      380000000   -7,114466280e-02   -7,115934789e-02    7,486941814e-01   -1,246939600e-01    0,000000000e+00    0,000000000e+00    0,000000000e+00    0,000000000e+00
      394000000   -7,292568684e-02   -3,248573095e-02    5,489805341e-01   -5,206187367e-01    0,000000000e+00    0,000000000e+00    0,000000000e+00    0,000000000e+00
      408000000   -4,689805210e-02   -1,564146951e-02    1,632166803e-01   -7,326410413e-01    0,000000000e+00    0,000000000e+00    0,000000000e+00    0,000000000e+00
      422000000   -2,861651033e-02   -3,159047663e-02   -2,661307156e-01   -6,959396601e-01    0,000000000e+00    0,000000000e+00    0,000000000e+00    0,000000000e+00
      436000000   -3,972335905e-02   -5,218678340e-02   -6,019680500e-01   -4,337400496e-01    0,000000000e+00    0,000000000e+00    0,000000000e+00    0,000000000e+00
      450000000   -6,776423752e-02   -4,494556785e-02   -7,404676080e-01   -2,550756186e-02    0,000000000e+00    0,000000000e+00    0,000000000e+00    0,000000000e+00
      464000000   -7,400882989e-02   -1,258151513e-02   -6,209118366e-01    3,944737017e-01    0,000000000e+00    0,000000000e+00    0,000000000e+00    0,000000000e+00
      478000000   -4,929746687e-02    1,165333111e-02   -2,869670987e-01    6,675159931e-01    0,000000000e+00    0,000000000e+00    0,000000000e+00    0,000000000e+00
      492000000   -1,688495278e-02    6,121058948e-03    1,334477812e-01    7,028155923e-01    0,000000000e+00    0,000000000e+00    0,000000000e+00    0,000000000e+00
      506000000   -3,946139943e-03   -1,481286716e-02    4,970830083e-01    5,068247914e-01    0,000000000e+00    0,000000000e+00    0,000000000e+00    0,000000000e+00
      520000000   -5,637984257e-03   -2,993010543e-02    6,908625364e-01    1,447841078e-01    0,000000000e+00    0,000000000e+00    0,000000000e+00    0,000000000e+00
      534000000   -3,583031939e-03   -3,610556945e-02    6,446046829e-01   -2,600872815e-01    0,000000000e+00    0,000000000e+00    0,000000000e+00    0,000000000e+00
      548000000    8,169665001e-03   -5,293261260e-02    3,851198256e-01   -5,644643903e-01    0,000000000e+00    0,000000000e+00    0,000000000e+00    0,000000000e+00
      562000000    5,390181206e-03   -8,939460665e-02    8,536932990e-03   -6,715340614e-01    0,000000000e+00    0,000000000e+00    0,000000000e+00    0,000000000e+00
      576000000   -3,155893087e-02   -1,264663935e-01   -3,624123037e-01   -5,602918267e-01    0,000000000e+00    0,000000000e+00    0,000000000e+00    0,000000000e+00
      590000000   -9,498428553e-02   -1,278952062e-01   -6,160572171e-01   -2,736836076e-01    0,000000000e+00    0,000000000e+00    0,000000000e+00    0,000000000e+00
      604000000   -1,429650635e-01   -7,812614739e-02   -6,671426892e-01    1,262127757e-01    0,000000000e+00    0,000000000e+00    0,000000000e+00    0,000000000e+00
      618000000   -1,383375823e-01   -1,140297670e-02   -4,755584300e-01    4,851046205e-01    0,000000000e+00    0,000000000e+00    0,000000000e+00    0,000000000e+00
      632000000   -9,337491542e-02    2,212153003e-02   -1,134651154e-01    6,629440784e-01    0,000000000e+00    0,000000000e+00    0,000000000e+00    0,000000000e+00
      646000000   -5,542508885e-02    1,237760298e-02    2,737794518e-01    6,037468910e-01    0,000000000e+00    0,000000000e+00    0,000000000e+00    0,000000000e+00
      660000000   -4,771217704e-02   -8,503307588e-03    5,577388406e-01    3,404888809e-01    0,000000000e+00    0,000000000e+00    0,000000000e+00    0,000000000e+00
      674000000   -5,555292964e-02   -9,849033318e-03    6,444596052e-01   -3,988998011e-02    0,000000000e+00    0,000000000e+00    0,000000000e+00    0,000000000e+00
      688000000   -4,982016981e-02    2,828133991e-03    4,928736091e-01   -4,017744660e-01    0,000000000e+00    0,000000000e+00    0,000000000e+00    0,000000000e+00
      702000000   -2,511282079e-02    7,653549314e-03    1,607218534e-01   -6,073582172e-01    0,000000000e+00    0,000000000e+00    0,000000000e+00    0,000000000e+00
      716000000   -1,630006591e-03   -8,719357662e-03   -2,200111002e-01   -5,755260587e-01    0,000000000e+00    0,000000000e+00    0,000000000e+00    0,000000000e+00
      730000000    9,775752202e-03   -3,399949148e-02   -5,090696812e-01   -3,330095410e-01    0,000000000e+00    0,000000000e+00    0,000000000e+00    0,000000000e+00
      744000000    1,727665402e-02   -6,121857837e-02   -6,009215117e-01    3,322871029e-02    0,000000000e+00    0,000000000e+00    0,000000000e+00    0,000000000e+00
      758000000    2,264657430e-02   -1,037335545e-01   -4,549047351e-01    3,772196472e-01    0,000000000e+00    0,000000000e+00    0,000000000e+00    0,000000000e+00
      772000000   -5,105001386e-03   -1,741583049e-01   -1,400649697e-01    5,575592518e-01    0,000000000e+00    0,000000000e+00    0,000000000e+00    0,000000000e+00
      786000000   -1,051329225e-01   -2,328609675e-01    2,114312202e-01    5,191981792e-01    0,000000000e+00    0,000000000e+00    0,000000000e+00    0,000000000e+00
      800000000   -2,665632367e-01   -1,925004125e-01    4,716154039e-01    2,754024863e-01    0,000000000e+00    0,000000000e+00    0,000000000e+00    0,000000000e+00
      814000000   -3,647154868e-01    2,778455848e-03    5,073762536e-01   -8,893986791e-02    0,000000000e+00    0,000000000e+00    0,000000000e+00    0,000000000e+00
      828000000   -2,476049215e-01    2,338863760e-01    2,809923589e-01   -3,523867726e-01    0,000000000e+00    0,000000000e+00    0,000000000e+00    0,000000000e+00
      842000000    1,283851545e-02    2,780514359e-01   -1,592293382e-02   -3,631124496e-01    0,000000000e+00    0,000000000e+00    0,000000000e+00    0,000000000e+00
      856000000    2,131474316e-01    1,157904193e-01   -1,875264645e-01   -2,045840323e-01    0,000000000e+00    0,000000000e+00    0,000000000e+00    0,000000000e+00
      870000000    2,387803793e-01   -1,488981992e-01   -2,002202719e-01   -2,600102313e-02    0,000000000e+00    0,000000000e+00    0,000000000e+00    0,000000000e+00
      884000000    3,771271929e-02   -3,865382075e-01   -1,034954712e-01    7,151560485e-02    0,000000000e+00    0,000000000e+00    0,000000000e+00    0,000000000e+00
      898000000   -3,692425489e-01   -3,421015143e-01   -1,667593233e-02    2,683195844e-02    0,000000000e+00    0,000000000e+00    0,000000000e+00    0,000000000e+00
      912000000   -4,670859873e-01    1,381496936e-01   -1,073276475e-01    2,648676559e-02    0,000000000e+00    0,000000000e+00    0,000000000e+00    0,000000000e+00
      926000000   -9,433611482e-02    3,532990217e-01   -1,263291538e-01    1,356528401e-01    0,000000000e+00    0,000000000e+00    0,000000000e+00    0,000000000e+00
      940000000    1,833909154e-01    1,956073493e-01   -3,803817555e-02    2,156047672e-01    0,000000000e+00    0,000000000e+00    0,000000000e+00    0,000000000e+00
      954000000    2,575492561e-01   -4,884069040e-02    7,950103283e-02    2,256028950e-01    0,000000000e+00    0,000000000e+00    0,000000000e+00    0,000000000e+00
      968000000    1,765461266e-01   -2,605156898e-01    1,914140135e-01    1,795353293e-01    0,000000000e+00    0,000000000e+00    0,000000000e+00    0,000000000e+00
      982000000   -1,763291843e-02   -3,969055712e-01    2,803227901e-01    8,075629920e-02    0,000000000e+00    0,000000000e+00    0,000000000e+00    0,000000000e+00
      996000000   -2,761319280e-01   -3,745431006e-01    3,085097075e-01   -7,910017669e-02    0,000000000e+00    0,000000000e+00    0,000000000e+00    0,000000000e+00
     1010000000   -4,718957543e-01   -1,732125729e-01    2,212291211e-01   -2,539699078e-01    0,000000000e+00    0,000000000e+00    0,000000000e+00    0,000000000e+00
     1024000000   -4,575425088e-01    1,137150899e-01    1,908539422e-02   -3,270329237e-01    0,000000000e+00    0,000000000e+00    0,000000000e+00    0,000000000e+00
     1038000000   -2,665394545e-01    2,979718447e-01   -1,721433997e-01   -2,476774007e-01    0,000000000e+00    0,000000000e+00    0,000000000e+00    0,000000000e+00
     1052000000   -3,655337542e-02    3,121176958e-01   -2,566415668e-01   -7,792167366e-02    0,000000000e+00    0,000000000e+00    0,000000000e+00    0,000000000e+00
     1066000000    1,284570545e-01    2,036661208e-01   -2,265820652e-01    8,683671802e-02    0,000000000e+00    0,000000000e+00    0,000000000e+00    0,000000000e+00
     1080000000    2,096926570e-01    4,598110542e-02   -1,204694733e-01    1,939146370e-01    0,000000000e+00    0,000000000e+00    0,000000000e+00    0,000000000e+00
     1094000000    2,014933228e-01   -1,306722760e-01    1,765945368e-02    2,369518429e-01    0,000000000e+00    0,000000000e+00    0,000000000e+00    0,000000000e+00
     1108000000    9,945411235e-02   -2,863942087e-01    1,694390476e-01    2,059645504e-01    0,000000000e+00    0,000000000e+00    0,000000000e+00    0,000000000e+00
     1122000000   -1,020393595e-01   -3,706264198e-01    3,169195354e-01    8,871126920e-02    0,000000000e+00    0,000000000e+00    0,000000000e+00    0,000000000e+00
     1136000000   -3,457666039e-01   -2,630361319e-01    3,919137716e-01   -1,484195441e-01    0,000000000e+00    0,000000000e+00    0,000000000e+00    0,000000000e+00
     1150000000   -4,087389708e-01    3,958004341e-02    2,420004755e-01   -4,388684630e-01    0,000000000e+00    0,000000000e+00    0,000000000e+00    0,000000000e+00
     1164000000   -1,622134894e-01    2,163938731e-01   -9,127329290e-02   -5,115219355e-01    0,000000000e+00    0,000000000e+00    0,000000000e+00    0,000000000e+00
     1178000000    7,547063380e-02    7,993471622e-02   -3,571158648e-01   -3,456230164e-01    0,000000000e+00    0,000000000e+00    0,000000000e+00    0,000000000e+00
     1192000000    7,283414900e-02   -1,705261469e-01   -4,531093836e-01   -8,290037513e-02    0,000000000e+00    0,000000000e+00    0,000000000e+00    0,000000000e+00
     1206000000   -1,638765782e-01   -3,284535408e-01   -3,687371314e-01    1,878353655e-01    0,000000000e+00    0,000000000e+00    0,000000000e+00    0,000000000e+00
     1220000000   -4,546670318e-01   -1,800327003e-01   -1,054728329e-01    3,291026354e-01    0,000000000e+00    0,000000000e+00    0,000000000e+00    0,000000000e+00
     1234000000   -4,785663784e-01    1,693174839e-01    1,352183521e-01    2,259349525e-01    0,000000000e+00    0,000000000e+00    0,000000000e+00    0,000000000e+00
     1248000000   -2,310096174e-01    3,561660945e-01    1,975298822e-01    3,458456695e-02    0,000000000e+00    0,000000000e+00    0,000000000e+00    0,000000000e+00
     1262000000    5,024981685e-03    3,241479695e-01    1,275000423e-01   -7,438251376e-02    0,000000000e+00    0,000000000e+00    0,000000000e+00    0,000000000e+00
     1276000000    1,587524563e-01    1,945784986e-01    5,543322489e-02   -9,353140742e-02    0,000000000e+00    0,000000000e+00    0,000000000e+00    0,000000000e+00
     1290000000    2,203977108e-01    3,269287571e-02    1,983597875e-03   -7,187577337e-02    0,000000000e+00    0,000000000e+00    0,000000000e+00    0,000000000e+00
     1304000000    2,071156502e-01   -1,421705484e-01   -1,789740473e-02   -2,641261555e-02    0,000000000e+00    0,000000000e+00    0,000000000e+00    0,000000000e+00
     1318000000    1,157090142e-01   -3,178077042e-01   -6,691700313e-03    1,898884773e-02    0,000000000e+00    0,000000000e+00    0,000000000e+00    0,000000000e+00
     1332000000   -6,698972732e-02   -4,357003868e-01    4,299975932e-02    6,756879389e-02    0,000000000e+00    0,000000000e+00    0,000000000e+00    0,000000000e+00
     1346000000   -3,312451243e-01   -4,361683428e-01    1,437517405e-01    3,421720862e-02    0,000000000e+00    0,000000000e+00    0,000000000e+00    0,000000000e+00
     1360000000   -5,550065041e-01   -2,487421334e-01    1,147059873e-01   -7,840760797e-02    0,000000000e+00    0,000000000e+00    0,000000000e+00    0,000000000e+00
     1374000000   -6,264151335e-01    3,174620867e-02    1,011188775e-01    6,977479160e-02    0,000000000e+00    0,000000000e+00    0,000000000e+00    0,000000000e+00
     1388000000   -5,200958252e-01    2,886886597e-01    2,252934277e-01   -8,027741686e-03    0,000000000e+00    0,000000000e+00    0,000000000e+00    0,000000000e+00
     1402000000   -3,044458330e-01    4,175829887e-01    2,248819619e-01   -9,057863057e-02    0,000000000e+00    0,000000000e+00    0,000000000e+00    0,000000000e+00
     1416000000   -9,945762902e-02    4,223797023e-01    1,835609525e-01   -1,171686500e-01    0,000000000e+00    0,000000000e+00    0,000000000e+00    0,000000000e+00
     1430000000    7,076547295e-02    3,368006349e-01    1,448393613e-01   -1,096186340e-01    0,000000000e+00    0,000000000e+00    0,000000000e+00    0,000000000e+00
     1444000000    1,748289615e-01    2,030949891e-01    1,465991288e-01   -9,383249283e-02    0,000000000e+00    0,000000000e+00    0,000000000e+00    0,000000000e+00
     1458000000    2,268381715e-01    3,735369071e-02    1,531985849e-01   -7,674039900e-02    0,000000000e+00    0,000000000e+00    0,000000000e+00    0,000000000e+00
     1472000000    2,023786008e-01   -1,448769569e-01    1,584850848e-01   -5,592649430e-02    0,000000000e+00    0,000000000e+00    0,000000000e+00    0,000000000e+00
     1486000000    1,026744321e-01   -3,216691911e-01    1,527025253e-01   -6,433688104e-03    0,000000000e+00    0,000000000e+00    0,000000000e+00    0,000000000e+00
     1500000000   -9,237013012e-02   -4,578729868e-01    2,179729491e-01    6,597878039e-02    0,000000000e+00    0,000000000e+00    0,000000000e+00    0,000000000e+00
