! NanoVNA-App
! Date: 2025-09-25 14:22:02
! Start: 100MHz Stop: 1,5GHz Points: 101
! S-Parameter data: F S11 S21 S12 S22
# Hz S RI R 50
!     Frequency           S11_Real           S11_Imag           S21_Real           S21_Imag           S12_Real           S12_Imag           S22_Real           S22_Imag
      100000000   -2,908028662e-02   -4,120803438e-03    3,744252622e-01   -7,220846415e-01    0,000000000e+00    0,000000000e+00    0,000000000e+00    0,000000000e+00
      114000000   -1,660274714e-02    1,160453726e-02   -8,894149959e-02   -8,056605458e-01    0,000000000e+00    0,000000000e+00    0,000000000e+00    0,000000000e+00
      128000000    3,420769237e-03    1,052005123e-02   -5,147976279e-01   -6,210550070e-01    0,000000000e+00    0,000000000e+00    0,000000000e+00    0,000000000e+00
      142000000    1,447069086e-02   -3,059825161e-03   -7,676139474e-01   -2,369391173e-01    0,000000000e+00    0,000000000e+00    0,000000000e+00    0,000000000e+00
      156000000    1,521449722e-02   -1,493244432e-02   -7,720432878e-01    2,215336263e-01    0,000000000e+00    0,000000000e+00    0,000000000e+00    0,000000000e+00
      170000000    1,656340621e-02   -2,248022892e-02   -5,186382532e-01    6,052073240e-01    0,000000000e+00    0,000000000e+00    0,000000000e+00    0,000000000e+00
      184000000    2,100370079e-02   -3,706855699e-02   -1,016750112e-01    7,866015434e-01    0,000000000e+00    0,000000000e+00    0,000000000e+00    0,000000000e+00
      198000000    1,304350886e-02   -6,258384138e-02    3,430409431e-01    7,130293250e-01    0,000000000e+00    0,000000000e+00    0,000000000e+00    0,000000000e+00
      212000000   -1,868908480e-02   -8,166826516e-02    6,784328818e-01    4,104149044e-01    0,000000000e+00    0,000000000e+00    0,000000000e+00    0,000000000e+00
      226000000   -6,206617504e-02   -6,969442964e-02    7,961745262e-01   -2,977227606e-02    0,000000000e+00    0,000000000e+00    0,000000000e+00    0,000000000e+00
      240000000   -8,317920566e-02   -2,607069537e-02    6,472776532e-01   -4,667360187e-01    0,000000000e+00    0,000000000e+00    0,000000000e+00    0,000000000e+00
      254000000   -6,437803060e-02    1,724905707e-02    2,769134641e-01   -7,438681722e-01    0,000000000e+00    0,000000000e+00    0,000000000e+00    0,000000000e+00
      268000000   -2,424693853e-02    2,950556390e-02   -1,772990972e-01   -7,647583485e-01    0,000000000e+00    0,000000000e+00    0,000000000e+00    0,000000000e+00
      282000000    4,207436461e-03    1,223040279e-02   -5,625331402e-01   -5,371313095e-01    0,000000000e+00    0,000000000e+00    0,000000000e+00    0,000000000e+00
      296000000    9,568807669e-03   -7,674642373e-03   -7,607523799e-01   -1,394859999e-01    0,000000000e+00    0,000000000e+00    0,000000000e+00    0,000000000e+00
      310000000    1,086571347e-02   -1,613737643e-02   -7,129103541e-01    2,967932820e-01    0,000000000e+00    0,000000000e+00    0,000000000e+00    0,000000000e+00
      324000000    1,950085349e-02   -2,654740214e-02   -4,281950593e-01    6,376247406e-01    0,000000000e+00    0,000000000e+00    0,000000000e+00    0,000000000e+00
      338000000    2,530612797e-02   -5,196632072e-02   -8,571257815e-03    7,643248439e-01    0,000000000e+00    0,000000000e+00    0,000000000e+00    0,000000000e+00
      352000000    7,570412010e-03   -8,467219770e-02    4,057240486e-01    6,406427622e-01    0,000000000e+00    0,000000000e+00    0,000000000e+00    0,000000000e+00
      366000000   -3,458098322e-02   -9,604104608e-02    6,913084984e-01    3,122450411e-01    0,000000000e+00    0,000000000e+00    0,000000000e+00    0,000000000e+00
      380000000   -7,135660946e-02   -7,102485001e-02    7,481420636e-01   -1,242993325e-01    0,000000000e+00    0,000000000e+00    0,000000000e+00    0,000000000e+00
      394000000   -7,300583273e-02   -3,251329064e-02    5,490899086e-01   -5,211736560e-01    0,000000000e+00    0,000000000e+00    0,000000000e+00    0,000000000e+00
      408000000   -4,650506750e-02   -1,569897495e-02    1,636058688e-01   -7,334727049e-01    0,000000000e+00    0,000000000e+00    0,000000000e+00    0,000000000e+00
      422000000   -2,837839723e-02   -3,156580776e-02   -2,657824457e-01   -6,959075928e-01    0,000000000e+00    0,000000000e+00    0,000000000e+00    0,000000000e+00
      436000000   -4,028164223e-02   -5,201964080e-02   -6,026691794e-01   -4,335536361e-01    0,000000000e+00    0,000000000e+00    0,000000000e+00    0,000000000e+00
      450000000   -6,730043888e-02   -4,457806423e-02   -7,397623062e-01   -2,494776808e-02    0,000000000e+00    0,000000000e+00    0,000000000e+00    0,000000000e+00
      464000000   -7,406615466e-02   -1,193050295e-02   -6,211025119e-01    3,949592710e-01    0,000000000e+00    0,000000000e+00    0,000000000e+00    0,000000000e+00
      478000000   -4,907586053e-02    1,191585883e-02   -2,864706814e-01    6,682859063e-01    0,000000000e+00    0,000000000e+00    0,000000000e+00    0,000000000e+00
      492000000   -1,712390408e-02    6,413286552e-03    1,339903772e-01    7,029109001e-01    0,000000000e+00    0,000000000e+00    0,000000000e+00    0,000000000e+00
      506000000   -3,536754055e-03   -1,517273206e-02    4,978989363e-01    5,053830743e-01    0,000000000e+00    0,000000000e+00    0,000000000e+00    0,000000000e+00
      520000000   -6,229531486e-03   -2,968737297e-02    6,881250143e-01    1,437447369e-01    0,000000000e+00    0,000000000e+00    0,000000000e+00    0,000000000e+00
      534000000   -3,425438423e-03   -3,595206514e-02    6,450974941e-01   -2,603656650e-01    0,000000000e+00    0,000000000e+00    0,000000000e+00    0,000000000e+00
      548000000    8,086529560e-03   -5,244278535e-02    3,843256235e-01   -5,640698671e-01    0,000000000e+00    0,000000000e+00    0,000000000e+00    0,000000000e+00
      562000000    5,971550476e-03   -8,944482356e-02    7,454534527e-03   -6,718771458e-01    0,000000000e+00    0,000000000e+00    0,000000000e+00    0,000000000e+00
      576000000   -3,144179657e-02   -1,262536049e-01   -3,620601892e-01   -5,617309809e-01    0,000000000e+00    0,000000000e+00    0,000000000e+00    0,000000000e+00
      590000000   -9,473967552e-02   -1,276859045e-01   -6,153837442e-01   -2,723208964e-01    0,000000000e+00    0,000000000e+00    0,000000000e+00    0,000000000e+00
      604000000   -1,431307197e-01   -7,827812433e-02   -6,677373052e-01    1,261102557e-01    0,000000000e+00    0,000000000e+00    0,000000000e+00    0,000000000e+00
      618000000   -1,378057748e-01   -1,091387682e-02   -4,750367105e-01    4,853511453e-01    0,000000000e+00    0,000000000e+00    0,000000000e+00    0,000000000e+00
      632000000   -9,283796698e-02    2,137086540e-02   -1,148488373e-01    6,635931730e-01    0,000000000e+00    0,000000000e+00    0,000000000e+00    0,000000000e+00
      646000000   -5,476744100e-02    1,189888362e-02    2,733462155e-01    6,031452417e-01    0,000000000e+00    0,000000000e+00    0,000000000e+00    0,000000000e+00
      660000000   -4,869625717e-02   -9,445204400e-03    5,579115748e-01    3,405023217e-01    0,000000000e+00    0,000000000e+00    0,000000000e+00    0,000000000e+00
      674000000   -5,567171797e-02   -1,107518375e-02    6,443154216e-01   -3,972157463e-02    0,000000000e+00    0,000000000e+00    0,000000000e+00    0,000000000e+00
      688000000   -4,964662343e-02    2,887038747e-03    4,927870631e-01   -4,020185769e-01    0,000000000e+00    0,000000000e+00    0,000000000e+00    0,000000000e+00
      702000000   -2,642667294e-02    6,471962668e-03    1,625879258e-01   -6,014842391e-01    0,000000000e+00    0,000000000e+00    0,000000000e+00    0,000000000e+00
      716000000   -2,156215487e-03   -8,306998760e-03   -2,185034901e-01   -5,762670636e-01    0,000000000e+00    0,000000000e+00    0,000000000e+00    0,000000000e+00
      730000000    1,025815774e-02   -3,488555923e-02   -5,094451308e-01   -3,328150213e-01    0,000000000e+00    0,000000000e+00    0,000000000e+00    0,000000000e+00
      744000000    1,621095277e-02   -6,127543002e-02   -6,005200744e-01    3,329926729e-02    0,000000000e+00    0,000000000e+00    0,000000000e+00    0,000000000e+00
      758000000    2,243088000e-02   -1,030780822e-01   -4,546464980e-01    3,775431812e-01    0,000000000e+00    0,000000000e+00    0,000000000e+00    0,000000000e+00
      772000000   -4,581421614e-03   -1,738652140e-01   -1,399497390e-01    5,573143363e-01    0,000000000e+00    0,000000000e+00    0,000000000e+00    0,000000000e+00
      786000000   -1,058362648e-01   -2,328711152e-01    2,115641832e-01    5,191771388e-01    0,000000000e+00    0,000000000e+00    0,000000000e+00    0,000000000e+00
      800000000   -2,652992606e-01   -1,933655143e-01    4,716510773e-01    2,752656341e-01    0,000000000e+00    0,000000000e+00    0,000000000e+00    0,000000000e+00
      814000000   -3,652020991e-01    3,927162383e-03    5,078011751e-01   -8,841391653e-02    0,000000000e+00    0,000000000e+00    0,000000000e+00    0,000000000e+00
      828000000   -2,486650795e-01    2,334702909e-01    2,808696330e-01   -3,533785343e-01    0,000000000e+00    0,000000000e+00    0,000000000e+00    0,000000000e+00
      842000000    1,252525672e-02    2,775768340e-01   -1,622542180e-02   -3,626061678e-01    0,000000000e+00    0,000000000e+00    0,000000000e+00    0,000000000e+00
      856000000    2,127277106e-01    1,149743423e-01   -1,876585335e-01   -2,050886303e-01    0,000000000e+00    0,000000000e+00    0,000000000e+00    0,000000000e+00
      870000000    2,386268228e-01   -1,492222399e-01   -2,004414946e-01   -2,569986507e-02    0,000000000e+00    0,000000000e+00    0,000000000e+00    0,000000000e+00
      884000000    3,762869537e-02   -3,860639334e-01   -1,038079560e-01    7,137904316e-02    0,000000000e+00    0,000000000e+00    0,000000000e+00    0,000000000e+00
      898000000   -3,694756329e-01   -3,403741717e-01   -1,709486730e-02    2,790848538e-02    0,000000000e+00    0,000000000e+00    0,000000000e+00    0,000000000e+00
      912000000   -4,675557613e-01    1,384651959e-01   -1,211493164e-01    3,875996917e-02    0,000000000e+00    0,000000000e+00    0,000000000e+00    0,000000000e+00
      926000000   -9,433745593e-02    3,512766659e-01   -1,269374043e-01    1,336895674e-01    0,000000000e+00    0,000000000e+00    0,000000000e+00    0,000000000e+00
      940000000    1,809344292e-01    1,944565624e-01   -3,890823945e-02    2,163402438e-01    0,000000000e+00    0,000000000e+00    0,000000000e+00    0,000000000e+00
      954000000    2,542291582e-01   -5,023143813e-02    7,996240258e-02    2,275674790e-01    0,000000000e+00    0,000000000e+00    0,000000000e+00    0,000000000e+00
      968000000    1,744638234e-01   -2,602208555e-01    1,908459961e-01    1,790436804e-01    0,000000000e+00    0,000000000e+00    0,000000000e+00    0,000000000e+00
      982000000   -1,418393850e-02   -3,940379918e-01    2,805149853e-01    8,002711833e-02    0,000000000e+00    0,000000000e+00    0,000000000e+00    0,000000000e+00
      996000000   -2,704036832e-01   -3,771026731e-01    3,079049289e-01   -7,855009288e-02    0,000000000e+00    0,000000000e+00    0,000000000e+00    0,000000000e+00
     1010000000   -4,712147117e-01   -1,747022718e-01    2,211839408e-01   -2,514843047e-01    0,000000000e+00    0,000000000e+00    0,000000000e+00    0,000000000e+00
     1024000000   -4,595482051e-01    1,207551211e-01    2,072504722e-02   -3,302041888e-01    0,000000000e+00    0,000000000e+00    0,000000000e+00    0,000000000e+00
     1038000000   -2,665392458e-01    2,995199859e-01   -1,715520620e-01   -2,479805648e-01    0,000000000e+00    0,000000000e+00    0,000000000e+00    0,000000000e+00
     1052000000   -3,451944143e-02    3,079502881e-01   -2,553755045e-01   -7,704623789e-02    0,000000000e+00    0,000000000e+00    0,000000000e+00    0,000000000e+00
     1066000000    1,232047454e-01    2,048761398e-01   -2,237056196e-01    8,568350226e-02    0,000000000e+00    0,000000000e+00    0,000000000e+00    0,000000000e+00
     1080000000    2,104423642e-01    5,027564988e-02   -1,221592575e-01    1,919859350e-01    0,000000000e+00    0,000000000e+00    0,000000000e+00    0,000000000e+00
     1094000000    2,015764117e-01   -1,258151680e-01    1,851076260e-02    2,334392816e-01    0,000000000e+00    0,000000000e+00    0,000000000e+00    0,000000000e+00
     1108000000    1,039095670e-01   -2,874917388e-01    1,680805981e-01    2,046463192e-01    0,000000000e+00    0,000000000e+00    0,000000000e+00    0,000000000e+00
     1122000000   -9,805814922e-02   -3,682415187e-01    3,160683513e-01    9,086177498e-02    0,000000000e+00    0,000000000e+00    0,000000000e+00    0,000000000e+00
     1136000000   -3,467798531e-01   -2,718956172e-01    3,904508948e-01   -1,494102180e-01    0,000000000e+00    0,000000000e+00    0,000000000e+00    0,000000000e+00
     1150000000   -4,032720029e-01    3,326981887e-02    2,458979487e-01   -4,363622069e-01    0,000000000e+00    0,000000000e+00    0,000000000e+00    0,000000000e+00
     1164000000   -1,635315567e-01    2,184131294e-01   -9,539747983e-02   -5,153380632e-01    0,000000000e+00    0,000000000e+00    0,000000000e+00    0,000000000e+00
     1178000000    7,358702272e-02    8,300280571e-02   -3,575922251e-01   -3,480393887e-01    0,000000000e+00    0,000000000e+00    0,000000000e+00    0,000000000e+00
     1192000000    7,477165014e-02   -1,746647358e-01   -4,554360211e-01   -8,555983007e-02    0,000000000e+00    0,000000000e+00    0,000000000e+00    0,000000000e+00
     1206000000   -1,630912125e-01   -3,278988302e-01   -3,665198386e-01    1,862649173e-01    0,000000000e+00    0,000000000e+00    0,000000000e+00    0,000000000e+00
     1220000000   -4,574296772e-01   -1,730265170e-01   -1,097815037e-01    3,295553029e-01    0,000000000e+00    0,000000000e+00    0,000000000e+00    0,000000000e+00
     1234000000   -4,775227308e-01    1,677633822e-01    1,359305084e-01    2,187626809e-01    0,000000000e+00    0,000000000e+00    0,000000000e+00    0,000000000e+00
     1248000000   -2,365788370e-01    3,590247631e-01    1,893663108e-01    3,642207757e-02    0,000000000e+00    0,000000000e+00    0,000000000e+00    0,000000000e+00
     1262000000    3,724406939e-03    3,347724676e-01    1,268098801e-01   -6,916727871e-02    0,000000000e+00    0,000000000e+00    0,000000000e+00    0,000000000e+00
     1276000000    1,570876092e-01    2,012515515e-01    5,425449088e-02   -9,629826248e-02    0,000000000e+00    0,000000000e+00    0,000000000e+00    0,000000000e+00
     1290000000    2,153586745e-01    3,197073191e-02   -4,064340144e-03   -7,219363749e-02    0,000000000e+00    0,000000000e+00    0,000000000e+00    0,000000000e+00
     1304000000    2,069923282e-01   -1,494340748e-01   -2,000235207e-02   -3,619938344e-02    0,000000000e+00    0,000000000e+00    0,000000000e+00    0,000000000e+00
     1318000000    1,126124263e-01   -3,105779886e-01   -8,884853683e-03    2,533882111e-02    0,000000000e+00    0,000000000e+00    0,000000000e+00    0,000000000e+00
     1332000000   -6,773208082e-02   -4,330368340e-01    4,230473563e-02    6,747813523e-02    0,000000000e+00    0,000000000e+00    0,000000000e+00    0,000000000e+00
     1346000000   -3,285144269e-01   -4,375115037e-01    1,460813731e-01    4,494043812e-02    0,000000000e+00    0,000000000e+00    0,000000000e+00    0,000000000e+00
     1360000000   -5,536555052e-01   -2,470495403e-01    1,176347807e-01   -8,480460197e-02    0,000000000e+00    0,000000000e+00    0,000000000e+00    0,000000000e+00
     1374000000   -6,240491867e-01    2,988537028e-02    1,059538871e-01    5,842207745e-02    0,000000000e+00    0,000000000e+00    0,000000000e+00    0,000000000e+00
     1388000000   -5,152522922e-01    2,824896574e-01    2,249111086e-01   -4,111009184e-03    0,000000000e+00    0,000000000e+00    0,000000000e+00    0,000000000e+00
     1402000000   -3,096130490e-01    4,187539816e-01    2,243509889e-01   -8,186978847e-02    0,000000000e+00    0,000000000e+00    0,000000000e+00    0,000000000e+00
     1416000000   -9,359896928e-02    4,195814431e-01    1,907304823e-01   -1,262382418e-01    0,000000000e+00    0,000000000e+00    0,000000000e+00    0,000000000e+00
     1430000000    7,170050591e-02    3,343806267e-01    1,947524548e-01   -1,022027954e-01    0,000000000e+00    0,000000000e+00    0,000000000e+00    0,000000000e+00
     1444000000    1,768517494e-01    1,962516010e-01    1,511695087e-01   -1,143392771e-01    0,000000000e+00    0,000000000e+00    0,000000000e+00    0,000000000e+00
     1458000000    2,253517359e-01    3,290901333e-02    1,515603811e-01   -8,668472618e-02    0,000000000e+00    0,000000000e+00    0,000000000e+00    0,000000000e+00
     1472000000    2,048563510e-01   -1,475777179e-01    1,451313049e-01   -5,279973894e-02    0,000000000e+00    0,000000000e+00    0,000000000e+00    0,000000000e+00
     1486000000    1,042860821e-01   -3,230853379e-01    1,671128720e-01   -1,383407786e-02    0,000000000e+00    0,000000000e+00    0,000000000e+00    0,000000000e+00
     1500000000   -9,269630909e-02   -4,540074766e-01    2,166251242e-01    5,712297559e-02    0,000000000e+00    0,000000000e+00    0,000000000e+00    0,000000000e+00
