! NanoVNA-App
! Date: 2025-09-25 14:27:58
! Start: 100MHz Stop: 1,5GHz Points: 101
! S-Parameter data: F S11 S21 S12 S22
# Hz S RI R 50
!     Frequency           S11_Real           S11_Imag           S21_Real           S21_Imag           S12_Real           S12_Imag           S22_Real           S22_Imag
      100000000   -2,910314687e-02   -4,131779540e-03    3,745844662e-01   -7,220305204e-01    0,000000000e+00    0,000000000e+00    0,000000000e+00    0,000000000e+00
      114000000   -1,662014797e-02    1,161671616e-02   -8,868090063e-02   -8,058583736e-01    0,000000000e+00    0,000000000e+00    0,000000000e+00    0,000000000e+00
      128000000    3,394470550e-03    1,054263487e-02   -5,144830942e-01   -6,210216284e-01    0,000000000e+00    0,000000000e+00    0,000000000e+00    0,000000000e+00
      142000000    1,444429718e-02   -3,081449308e-03   -7,674767971e-01   -2,370245457e-01    0,000000000e+00    0,000000000e+00    0,000000000e+00    0,000000000e+00
      156000000    1,467316132e-02   -1,497460809e-02   -7,673884630e-01    2,183367759e-01    0,000000000e+00    0,000000000e+00    0,000000000e+00    0,000000000e+00
      170000000    1,654948853e-02   -2,246184833e-02   -5,186560154e-01    6,048052907e-01    0,000000000e+00    0,000000000e+00    0,000000000e+00    0,000000000e+00
      184000000    2,099208534e-02   -3,702488169e-02   -1,017931998e-01    7,863898277e-01    0,000000000e+00    0,000000000e+00    0,000000000e+00    0,000000000e+00
      198000000    1,315402985e-02   -6,262300909e-02    3,427886963e-01    7,127203345e-01    0,000000000e+00    0,000000000e+00    0,000000000e+00    0,000000000e+00
      212000000   -1,871230081e-02   -8,168750256e-02    6,784368753e-01    4,106244147e-01    0,000000000e+00    0,000000000e+00    0,000000000e+00    0,000000000e+00
      226000000   -6,208194792e-02   -6,972736865e-02    7,960852981e-01   -2,956432849e-02    0,000000000e+00    0,000000000e+00    0,000000000e+00    0,000000000e+00
      240000000   -8,331435919e-02   -2,602513321e-02    6,471894383e-01   -4,666743279e-01    0,000000000e+00    0,000000000e+00    0,000000000e+00    0,000000000e+00
      254000000   -6,438024342e-02    1,745479368e-02    2,770809531e-01   -7,432266474e-01    0,000000000e+00    0,000000000e+00    0,000000000e+00    0,000000000e+00
      268000000   -2,407205664e-02    2,947235666e-02   -1,769005805e-01   -7,652217150e-01    0,000000000e+00    0,000000000e+00    0,000000000e+00    0,000000000e+00
      282000000    4,204523750e-03    1,209224015e-02   -5,624342561e-01   -5,372402072e-01    0,000000000e+00    0,000000000e+00    0,000000000e+00    0,000000000e+00
      296000000    9,567124769e-03   -7,709575351e-03   -7,607915401e-01   -1,396328807e-01    0,000000000e+00    0,000000000e+00    0,000000000e+00    0,000000000e+00
      310000000    1,101057883e-02   -1,613920927e-02   -7,138887048e-01    2,975167930e-01    0,000000000e+00    0,000000000e+00    0,000000000e+00    0,000000000e+00
      324000000    1,963821985e-02   -2,656583302e-02   -4,292114675e-01    6,384358406e-01    0,000000000e+00    0,000000000e+00    0,000000000e+00    0,000000000e+00
      338000000    2,530297451e-02   -5,223251879e-02   -1,057361066e-02    7,633622289e-01    0,000000000e+00    0,000000000e+00    0,000000000e+00    0,000000000e+00
      352000000    7,334365975e-03   -8,477537334e-02    4,057886899e-01    6,418862343e-01    0,000000000e+00    0,000000000e+00    0,000000000e+00    0,000000000e+00
      366000000   -3,483498469e-02   -9,602347016e-02    6,905895472e-01    3,120715916e-01    0,000000000e+00    0,000000000e+00    0,000000000e+00    0,000000000e+00
      380000000   -7,137154788e-02   -7,115717977e-02    7,486426830e-01   -1,245744601e-01    0,000000000e+00    0,000000000e+00    0,000000000e+00    0,000000000e+00
      394000000   -7,320022583e-02   -3,256895766e-02    5,480567813e-01   -5,207788348e-01    0,000000000e+00    0,000000000e+00    0,000000000e+00    0,000000000e+00
      408000000   -4,707049951e-02   -1,541557536e-02    1,638200730e-01   -7,322049737e-01    0,000000000e+00    0,000000000e+00    0,000000000e+00    0,000000000e+00
      422000000   -2,790572867e-02   -3,130917624e-02   -2,652386129e-01   -6,955750585e-01    0,000000000e+00    0,000000000e+00    0,000000000e+00    0,000000000e+00
      436000000   -3,988679871e-02   -5,189063773e-02   -6,021798253e-01   -4,339135885e-01    0,000000000e+00    0,000000000e+00    0,000000000e+00    0,000000000e+00
      450000000   -6,748796999e-02   -4,484016076e-02   -7,404277921e-01   -2,454126440e-02    0,000000000e+00    0,000000000e+00    0,000000000e+00    0,000000000e+00
      464000000   -7,397690415e-02   -1,240217872e-02   -6,211954951e-01    3,946154714e-01    0,000000000e+00    0,000000000e+00    0,000000000e+00    0,000000000e+00
      478000000   -4,922786728e-02    1,160608232e-02   -2,860738039e-01    6,669052839e-01    0,000000000e+00    0,000000000e+00    0,000000000e+00    0,000000000e+00
      492000000   -1,678669825e-02    6,811448373e-03    1,339560449e-01    7,040058970e-01    0,000000000e+00    0,000000000e+00    0,000000000e+00    0,000000000e+00
      506000000   -3,787235124e-03   -1,485863701e-02    4,975117147e-01    5,064772964e-01    0,000000000e+00    0,000000000e+00    0,000000000e+00    0,000000000e+00
      520000000   -5,807254929e-03   -2,972967923e-02    6,890137792e-01    1,424570233e-01    0,000000000e+00    0,000000000e+00    0,000000000e+00    0,000000000e+00
      534000000   -3,399210284e-03   -3,611882031e-02    6,445501447e-01   -2,598126531e-01    0,000000000e+00    0,000000000e+00    0,000000000e+00    0,000000000e+00
      548000000    8,167324588e-03   -5,308111757e-02    3,852832913e-01   -5,647023320e-01    0,000000000e+00    0,000000000e+00    0,000000000e+00    0,000000000e+00
      562000000    5,393151194e-03   -8,952408284e-02    8,269709535e-03   -6,716067195e-01    0,000000000e+00    0,000000000e+00    0,000000000e+00    0,000000000e+00
      576000000   -3,154768050e-02   -1,265881062e-01   -3,619209528e-01   -5,614838004e-01    0,000000000e+00    0,000000000e+00    0,000000000e+00    0,000000000e+00
      590000000   -9,482471645e-02   -1,278705895e-01   -6,167833805e-01   -2,738478780e-01    0,000000000e+00    0,000000000e+00    0,000000000e+00    0,000000000e+00
      604000000   -1,433099210e-01   -7,773575932e-02   -6,674348712e-01    1,263353974e-01    0,000000000e+00    0,000000000e+00    0,000000000e+00    0,000000000e+00
      618000000   -1,384011507e-01   -1,141286269e-02   -4,750049412e-01    4,849720299e-01    0,000000000e+00    0,000000000e+00    0,000000000e+00    0,000000000e+00
      632000000   -9,349637479e-02    2,137365192e-02   -1,141662672e-01    6,626902223e-01    0,000000000e+00    0,000000000e+00    0,000000000e+00    0,000000000e+00
      646000000   -5,514223874e-02    1,255743671e-02    2,738540769e-01    6,034689546e-01    0,000000000e+00    0,000000000e+00    0,000000000e+00    0,000000000e+00
      660000000   -4,764377698e-02   -9,394000284e-03    5,568226576e-01    3,402390778e-01    0,000000000e+00    0,000000000e+00    0,000000000e+00    0,000000000e+00
      674000000   -5,515961349e-02   -1,050988492e-02    6,441622972e-01   -3,954184428e-02    0,000000000e+00    0,000000000e+00    0,000000000e+00    0,000000000e+00
      688000000   -5,025580525e-02    3,529642941e-03    4,936945438e-01   -4,014950991e-01    0,000000000e+00    0,000000000e+00    0,000000000e+00    0,000000000e+00
      702000000   -2,599631809e-02    7,260342594e-03    1,599046141e-01   -6,047690511e-01    0,000000000e+00    0,000000000e+00    0,000000000e+00    0,000000000e+00
      716000000   -1,315222122e-03   -9,425604716e-03   -2,189266682e-01   -5,756639838e-01    0,000000000e+00    0,000000000e+00    0,000000000e+00    0,000000000e+00
      730000000    9,106938727e-03   -3,447767720e-02   -5,091058612e-01   -3,328927457e-01    0,000000000e+00    0,000000000e+00    0,000000000e+00    0,000000000e+00
      744000000    1,630969904e-02   -6,143527478e-02   -6,005070210e-01    3,345802426e-02    0,000000000e+00    0,000000000e+00    0,000000000e+00    0,000000000e+00
      758000000    2,170618996e-02   -1,031392515e-01   -4,539168179e-01    3,762861192e-01    0,000000000e+00    0,000000000e+00    0,000000000e+00    0,000000000e+00
      772000000   -5,165772513e-03   -1,735662073e-01   -1,389749795e-01    5,583012700e-01    0,000000000e+00    0,000000000e+00    0,000000000e+00    0,000000000e+00
      786000000   -1,052387208e-01   -2,327770442e-01    2,115523964e-01    5,192577243e-01    0,000000000e+00    0,000000000e+00    0,000000000e+00    0,000000000e+00
      800000000   -2,660803497e-01   -1,923239827e-01    4,715656936e-01    2,755082250e-01    0,000000000e+00    0,000000000e+00    0,000000000e+00    0,000000000e+00
      814000000   -3,638684452e-01    3,321370110e-03    5,076079369e-01   -8,835779876e-02    0,000000000e+00    0,000000000e+00    0,000000000e+00    0,000000000e+00
      828000000   -2,483319789e-01    2,325809002e-01    2,815957069e-01   -3,513314128e-01    0,000000000e+00    0,000000000e+00    0,000000000e+00    0,000000000e+00
      842000000    1,347670332e-02    2,776302695e-01   -1,601820998e-02   -3,634954989e-01    0,000000000e+00    0,000000000e+00    0,000000000e+00    0,000000000e+00
      856000000    2,122363895e-01    1,153304800e-01   -1,881194115e-01   -2,047745883e-01    0,000000000e+00    0,000000000e+00    0,000000000e+00    0,000000000e+00
      870000000    2,387977391e-01   -1,483832151e-01   -2,003801018e-01   -2,553790994e-02    0,000000000e+00    0,000000000e+00    0,000000000e+00    0,000000000e+00
      884000000    3,750487417e-02   -3,864088953e-01   -1,042762995e-01    7,114395499e-02    0,000000000e+00    0,000000000e+00    0,000000000e+00    0,000000000e+00
      898000000   -3,690712452e-01   -3,420782685e-01   -1,713888347e-02    2,731994353e-02    0,000000000e+00    0,000000000e+00    0,000000000e+00    0,000000000e+00
      912000000   -4,680551589e-01    1,376992613e-01   -1,127021238e-01    4,052712023e-02    0,000000000e+00    0,000000000e+00    0,000000000e+00    0,000000000e+00
      926000000   -9,499466419e-02    3,507938087e-01   -1,274997741e-01    1,332024336e-01    0,000000000e+00    0,000000000e+00    0,000000000e+00    0,000000000e+00
      940000000    1,822251976e-01    1,938267201e-01   -4,013103247e-02    2,156176865e-01    0,000000000e+00    0,000000000e+00    0,000000000e+00    0,000000000e+00
      954000000    2,571074963e-01   -4,594671726e-02    8,057422936e-02    2,287171036e-01    0,000000000e+00    0,000000000e+00    0,000000000e+00    0,000000000e+00
      968000000    1,773843318e-01   -2,640330493e-01    1,923402697e-01    1,802412719e-01    0,000000000e+00    0,000000000e+00    0,000000000e+00    0,000000000e+00
      982000000   -1,590552554e-02   -3,928643763e-01    2,798433304e-01    7,722955197e-02    0,000000000e+00    0,000000000e+00    0,000000000e+00    0,000000000e+00
      996000000   -2,724161744e-01   -3,744906187e-01    3,089745641e-01   -7,897766680e-02    0,000000000e+00    0,000000000e+00    0,000000000e+00    0,000000000e+00
     1010000000   -4,723664224e-01   -1,714981645e-01    2,226559222e-01   -2,538495362e-01    0,000000000e+00    0,000000000e+00    0,000000000e+00    0,000000000e+00
     1024000000   -4,561204910e-01    1,174280420e-01    2,112131752e-02   -3,306947649e-01    0,000000000e+00    0,000000000e+00    0,000000000e+00    0,000000000e+00
     1038000000   -2,637884915e-01    2,953853011e-01   -1,743535846e-01   -2,477971017e-01    0,000000000e+00    0,000000000e+00    0,000000000e+00    0,000000000e+00
     1052000000   -3,799235821e-02    3,108769357e-01   -2,578430772e-01   -7,744430751e-02    0,000000000e+00    0,000000000e+00    0,000000000e+00    0,000000000e+00
     1066000000    1,295756400e-01    2,042412758e-01   -2,256715298e-01    8,745861799e-02    0,000000000e+00    0,000000000e+00    0,000000000e+00    0,000000000e+00
     1080000000    2,061572224e-01    4,371101409e-02   -1,211093366e-01    1,928144395e-01    0,000000000e+00    0,000000000e+00    0,000000000e+00    0,000000000e+00
     1094000000    2,034129351e-01   -1,300742179e-01    1,676454023e-02    2,345953882e-01    0,000000000e+00    0,000000000e+00    0,000000000e+00    0,000000000e+00
     1108000000    1,015652046e-01   -2,891745269e-01    1,671240032e-01    2,071422189e-01    0,000000000e+00    0,000000000e+00    0,000000000e+00    0,000000000e+00
     1122000000   -1,037993059e-01   -3,691589236e-01    3,173386753e-01    8,799362928e-02    0,000000000e+00    0,000000000e+00    0,000000000e+00    0,000000000e+00
     1136000000   -3,496449590e-01   -2,719814181e-01    3,928964436e-01   -1,497964859e-01    0,000000000e+00    0,000000000e+00    0,000000000e+00    0,000000000e+00
     1150000000   -4,118589759e-01    4,077402875e-02    2,430764437e-01   -4,367355704e-01    0,000000000e+00    0,000000000e+00    0,000000000e+00    0,000000000e+00
     1164000000   -1,618388295e-01    2,216081917e-01   -9,321838617e-02   -5,151893497e-01    0,000000000e+00    0,000000000e+00    0,000000000e+00    0,000000000e+00
     1178000000    7,749847323e-02    8,589142561e-02   -3,566671312e-01   -3,485869765e-01    0,000000000e+00    0,000000000e+00    0,000000000e+00    0,000000000e+00
     1192000000    7,431937009e-02   -1,708511114e-01   -4,539811909e-01   -8,220981061e-02    0,000000000e+00    0,000000000e+00    0,000000000e+00    0,000000000e+00
     1206000000   -1,612454653e-01   -3,269454241e-01   -3,679494560e-01    1,862172037e-01    0,000000000e+00    0,000000000e+00    0,000000000e+00    0,000000000e+00
     1220000000   -4,548654854e-01   -1,759251505e-01   -1,024537906e-01    3,310910463e-01    0,000000000e+00    0,000000000e+00    0,000000000e+00    0,000000000e+00
     1234000000   -4,741191268e-01    1,648961902e-01    1,389367878e-01    2,235350609e-01    0,000000000e+00    0,000000000e+00    0,000000000e+00    0,000000000e+00
     1248000000   -2,382021099e-01    3,605998456e-01    1,942947507e-01    3,423919529e-02    0,000000000e+00    0,000000000e+00    0,000000000e+00    0,000000000e+00
     1262000000    1,103140600e-02    3,308827877e-01    1,300135851e-01   -6,990005076e-02    0,000000000e+00    0,000000000e+00    0,000000000e+00    0,000000000e+00
     1276000000    1,552750319e-01    2,042228729e-01    5,191493034e-02   -9,520001709e-02    0,000000000e+00    0,000000000e+00    0,000000000e+00    0,000000000e+00
     1290000000    2,177162021e-01    3,131210431e-02    1,680190326e-03   -7,488262653e-02    0,000000000e+00    0,000000000e+00    0,000000000e+00    0,000000000e+00
     1304000000    2,077056319e-01   -1,431952864e-01   -1,967917942e-02   -3,140603751e-02    0,000000000e+00    0,000000000e+00    0,000000000e+00    0,000000000e+00
     1318000000    1,151196435e-01   -3,107852638e-01   -2,895194804e-03    1,812813990e-02    0,000000000e+00    0,000000000e+00    0,000000000e+00    0,000000000e+00
     1332000000   -6,735464185e-02   -4,326031506e-01    4,984129965e-02    7,102613896e-02    0,000000000e+00    0,000000000e+00    0,000000000e+00    0,000000000e+00
     1346000000   -3,250316083e-01   -4,358637929e-01    1,469524652e-01    4,626931250e-02    0,000000000e+00    0,000000000e+00    0,000000000e+00    0,000000000e+00
     1360000000   -5,523269176e-01   -2,407725453e-01    1,159041151e-01   -7,045473158e-02    0,000000000e+00    0,000000000e+00    0,000000000e+00    0,000000000e+00
     1374000000   -6,313304305e-01    2,477968112e-02    9,761093557e-02    5,629204586e-02    0,000000000e+00    0,000000000e+00    0,000000000e+00    0,000000000e+00
     1388000000   -5,122954249e-01    2,871440351e-01    2,318481207e-01    1,444467343e-02    0,000000000e+00    0,000000000e+00    0,000000000e+00    0,000000000e+00
     1402000000   -3,040235937e-01    4,158335328e-01    2,240003198e-01   -9,062550217e-02    0,000000000e+00    0,000000000e+00    0,000000000e+00    0,000000000e+00
     1416000000   -9,052462131e-02    4,166649580e-01    1,962018609e-01   -1,257274896e-01    0,000000000e+00    0,000000000e+00    0,000000000e+00    0,000000000e+00
     1430000000    7,516929507e-02    3,396708667e-01    1,751370132e-01   -1,054107696e-01    0,000000000e+00    0,000000000e+00    0,000000000e+00    0,000000000e+00
     1444000000    1,742835790e-01    1,965443939e-01    1,571544856e-01   -1,088474020e-01    0,000000000e+00    0,000000000e+00    0,000000000e+00    0,000000000e+00
     1458000000    2,207493931e-01    3,682056442e-02    1,549305320e-01   -8,426900208e-02    0,000000000e+00    0,000000000e+00    0,000000000e+00    0,000000000e+00
     1472000000    2,091725618e-01   -1,488904804e-01    1,533112079e-01   -5,545962602e-02    0,000000000e+00    0,000000000e+00    0,000000000e+00    0,000000000e+00
     1486000000    1,059662551e-01   -3,149046898e-01    1,595876515e-01    8,000583388e-03    0,000000000e+00    0,000000000e+00    0,000000000e+00    0,000000000e+00
     1500000000   -9,074970335e-02   -4,623578191e-01    2,234944254e-01    5,502858013e-02    0,000000000e+00    0,000000000e+00    0,000000000e+00    0,000000000e+00
