! NanoVNA-App
! Date: 2025-09-25 14:26:48
! Start: 100MHz Stop: 1,5GHz Points: 101
! S-Parameter data: F S11 S21 S12 S22
# Hz S RI R 50
!     Frequency           S11_Real           S11_Imag           S21_Real           S21_Imag           S12_Real           S12_Imag           S22_Real           S22_Imag
      100000000   -2,909296751e-02   -4,124757834e-03    3,745338321e-01   -7,220081091e-01    0,000000000e+00    0,000000000e+00    0,000000000e+00    0,000000000e+00
      114000000   -1,661579683e-02    1,161566097e-02   -8,890673518e-02   -8,058985472e-01    0,000000000e+00    0,000000000e+00    0,000000000e+00    0,000000000e+00
      128000000    3,472160548e-03    1,051648334e-02   -5,146027803e-01   -6,212152839e-01    0,000000000e+00    0,000000000e+00    0,000000000e+00    0,000000000e+00
      142000000    1,444207225e-02   -3,079405054e-03   -7,675141692e-01   -2,369420975e-01    0,000000000e+00    0,000000000e+00    0,000000000e+00    0,000000000e+00
      156000000    1,440344658e-02   -1,498118229e-02   -7,647446394e-01    2,198753357e-01    0,000000000e+00    0,000000000e+00    0,000000000e+00    0,000000000e+00
      170000000    1,651121490e-02   -2,242317982e-02   -5,186517239e-01    6,048638225e-01    0,000000000e+00    0,000000000e+00    0,000000000e+00    0,000000000e+00
      184000000    2,098218352e-02   -3,695226461e-02   -1,018724889e-01    7,865812182e-01    0,000000000e+00    0,000000000e+00    0,000000000e+00    0,000000000e+00
      198000000    1,311487239e-02   -6,260667741e-02    3,429880738e-01    7,132035494e-01    0,000000000e+00    0,000000000e+00    0,000000000e+00    0,000000000e+00
      212000000   -1,866808347e-02   -8,169249445e-02    6,782966256e-01    4,105549753e-01    0,000000000e+00    0,000000000e+00    0,000000000e+00    0,000000000e+00
      226000000   -6,209176779e-02   -6,975006312e-02    7,961553931e-01   -2,960333414e-02    0,000000000e+00    0,000000000e+00    0,000000000e+00    0,000000000e+00
      240000000   -8,335281163e-02   -2,599397488e-02    6,472105384e-01   -4,668936729e-01    0,000000000e+00    0,000000000e+00    0,000000000e+00    0,000000000e+00
      254000000   -6,438040733e-02    1,748691127e-02    2,770745456e-01   -7,432909012e-01    0,000000000e+00    0,000000000e+00    0,000000000e+00    0,000000000e+00
      268000000   -2,397017553e-02    2,953885682e-02   -1,765998602e-01   -7,651934624e-01    0,000000000e+00    0,000000000e+00    0,000000000e+00    0,000000000e+00
      282000000    4,081214312e-03    1,212846581e-02   -5,626309514e-01   -5,371661782e-01    0,000000000e+00    0,000000000e+00    0,000000000e+00    0,000000000e+00
      296000000    9,630291723e-03   -7,637390401e-03   -7,608290911e-01   -1,394159943e-01    0,000000000e+00    0,000000000e+00    0,000000000e+00    0,000000000e+00
      310000000    1,090651378e-02   -1,590752229e-02   -7,138549089e-01    2,978960276e-01    0,000000000e+00    0,000000000e+00    0,000000000e+00    0,000000000e+00
      324000000    1,952903345e-02   -2,651282959e-02   -4,284537137e-01    6,379060745e-01    0,000000000e+00    0,000000000e+00    0,000000000e+00    0,000000000e+00
      338000000    2,535342239e-02   -5,207118019e-02   -8,198006079e-03    7,608937025e-01    0,000000000e+00    0,000000000e+00    0,000000000e+00    0,000000000e+00
      352000000    7,359126583e-03   -8,469969779e-02    4,049054682e-01    6,414290667e-01    0,000000000e+00    0,000000000e+00    0,000000000e+00    0,000000000e+00
      366000000   -3,497082368e-02   -9,594777226e-02    6,911288500e-01    3,121823370e-01    0,000000000e+00    0,000000000e+00    0,000000000e+00    0,000000000e+00
      380000000   -7,157607377e-02   -7,103650272e-02    7,479389310e-01   -1,244766414e-01    0,000000000e+00    0,000000000e+00    0,000000000e+00    0,000000000e+00
      394000000   -7,331530750e-02   -3,224815428e-02    5,495686531e-01   -5,203584433e-01    0,000000000e+00    0,000000000e+00    0,000000000e+00    0,000000000e+00
      408000000   -4,692668095e-02   -1,546461787e-02    1,618622988e-01   -7,313773036e-01    0,000000000e+00    0,000000000e+00    0,000000000e+00    0,000000000e+00
      422000000   -2,829045244e-02   -3,164365143e-02   -2,660456598e-01   -6,956744194e-01    0,000000000e+00    0,000000000e+00    0,000000000e+00    0,000000000e+00
      436000000   -3,997660428e-02   -5,221662298e-02   -6,022822857e-01   -4,338424504e-01    0,000000000e+00    0,000000000e+00    0,000000000e+00    0,000000000e+00
      450000000   -6,740160286e-02   -4,481943697e-02   -7,398006320e-01   -2,490873635e-02    0,000000000e+00    0,000000000e+00    0,000000000e+00    0,000000000e+00
      464000000   -7,425101101e-02   -1,216419693e-02   -6,216088533e-01    3,945201337e-01    0,000000000e+00    0,000000000e+00    0,000000000e+00    0,000000000e+00
      478000000   -4,927903786e-02    1,185144018e-02   -2,872689068e-01    6,678048968e-01    0,000000000e+00    0,000000000e+00    0,000000000e+00    0,000000000e+00
      492000000   -1,676843688e-02    6,719303317e-03    1,339864731e-01    7,036773562e-01    0,000000000e+00    0,000000000e+00    0,000000000e+00    0,000000000e+00
      506000000   -3,582604928e-03   -1,539289486e-02    4,975686371e-01    5,056753755e-01    0,000000000e+00    0,000000000e+00    0,000000000e+00    0,000000000e+00
      520000000   -5,639007781e-03   -2,963427454e-02    6,891415715e-01    1,430329680e-01    0,000000000e+00    0,000000000e+00    0,000000000e+00    0,000000000e+00
      534000000   -3,496822901e-03   -3,599917144e-02    6,445600390e-01   -2,599883080e-01    0,000000000e+00    0,000000000e+00    0,000000000e+00    0,000000000e+00
      548000000    8,162763901e-03   -5,283139646e-02    3,850573003e-01   -5,643060207e-01    0,000000000e+00    0,000000000e+00    0,000000000e+00    0,000000000e+00
      562000000    5,511703435e-03   -8,957435191e-02    8,868477307e-03   -6,715719700e-01    0,000000000e+00    0,000000000e+00    0,000000000e+00    0,000000000e+00
      576000000   -3,121116757e-02   -1,258796602e-01   -3,619804084e-01   -5,606693625e-01    0,000000000e+00    0,000000000e+00    0,000000000e+00    0,000000000e+00
      590000000   -9,508103132e-02   -1,278535426e-01   -6,182253361e-01   -2,720965743e-01    0,000000000e+00    0,000000000e+00    0,000000000e+00    0,000000000e+00
      604000000   -1,432763487e-01   -7,814507931e-02   -6,673339605e-01    1,256888211e-01    0,000000000e+00    0,000000000e+00    0,000000000e+00    0,000000000e+00
      618000000   -1,380379051e-01   -1,159429830e-02   -4,746397734e-01    4,851887226e-01    0,000000000e+00    0,000000000e+00    0,000000000e+00    0,000000000e+00
      632000000   -9,340514243e-02    2,159534208e-02   -1,146338731e-01    6,628196836e-01    0,000000000e+00    0,000000000e+00    0,000000000e+00    0,000000000e+00
      646000000   -5,504554883e-02    1,242064219e-02    2,723002732e-01    6,035745144e-01    0,000000000e+00    0,000000000e+00    0,000000000e+00    0,000000000e+00
      660000000   -4,741663486e-02   -9,073007852e-03    5,576253533e-01    3,396983147e-01    0,000000000e+00    0,000000000e+00    0,000000000e+00    0,000000000e+00
      674000000   -5,548191071e-02   -1,030148193e-02    6,444720626e-01   -3,987298906e-02    0,000000000e+00    0,000000000e+00    0,000000000e+00    0,000000000e+00
      688000000   -5,056032166e-02    2,411304507e-03    4,934204817e-01   -4,017643929e-01    0,000000000e+00    0,000000000e+00    0,000000000e+00    0,000000000e+00
      702000000   -2,610903047e-02    7,925072685e-03    1,618887633e-01   -6,045103073e-01    0,000000000e+00    0,000000000e+00    0,000000000e+00    0,000000000e+00
      716000000   -2,652696799e-03   -9,197083302e-03   -2,179823667e-01   -5,757716298e-01    0,000000000e+00    0,000000000e+00    0,000000000e+00    0,000000000e+00
      730000000    9,014052339e-03   -3,507804498e-02   -5,092627406e-01   -3,335867822e-01    0,000000000e+00    0,000000000e+00    0,000000000e+00    0,000000000e+00
      744000000    1,668674126e-02   -6,135275215e-02   -6,010475755e-01    3,332478181e-02    0,000000000e+00    0,000000000e+00    0,000000000e+00    0,000000000e+00
      758000000    2,156504057e-02   -1,035565734e-01   -4,541245103e-01    3,770906031e-01    0,000000000e+00    0,000000000e+00    0,000000000e+00    0,000000000e+00
      772000000   -5,272882991e-03   -1,741581708e-01   -1,403510123e-01    5,591635108e-01    0,000000000e+00    0,000000000e+00    0,000000000e+00    0,000000000e+00
      786000000   -1,049925238e-01   -2,327862233e-01    2,115765214e-01    5,189921856e-01    0,000000000e+00    0,000000000e+00    0,000000000e+00    0,000000000e+00
      800000000   -2,651636302e-01   -1,930179745e-01    4,714183509e-01    2,752918005e-01    0,000000000e+00    0,000000000e+00    0,000000000e+00    0,000000000e+00
      814000000   -3,652478755e-01    3,503121436e-03    5,083979964e-01   -8,880633116e-02    0,000000000e+00    0,000000000e+00    0,000000000e+00    0,000000000e+00
      828000000   -2,477578074e-01    2,328812033e-01    2,813327610e-01   -3,525218070e-01    0,000000000e+00    0,000000000e+00    0,000000000e+00    0,000000000e+00
      842000000    1,228258759e-02    2,776364386e-01   -1,533480082e-02   -3,630539477e-01    0,000000000e+00    0,000000000e+00    0,000000000e+00    0,000000000e+00
      856000000    2,127145827e-01    1,149259806e-01   -1,877086163e-01   -2,048578262e-01    0,000000000e+00    0,000000000e+00    0,000000000e+00    0,000000000e+00
      870000000    2,389908433e-01   -1,484128088e-01   -2,003956437e-01   -2,574651688e-02    0,000000000e+00    0,000000000e+00    0,000000000e+00    0,000000000e+00
      884000000    3,736148775e-02   -3,865153790e-01   -1,040389612e-01    7,045914978e-02    0,000000000e+00    0,000000000e+00    0,000000000e+00    0,000000000e+00
      898000000   -3,700971007e-01   -3,414784670e-01   -1,756256446e-02    2,793845534e-02    0,000000000e+00    0,000000000e+00    0,000000000e+00    0,000000000e+00
      912000000   -4,668349922e-01    1,389110833e-01   -1,043756679e-01    3,151243925e-02    0,000000000e+00    0,000000000e+00    0,000000000e+00    0,000000000e+00
      926000000   -9,596624225e-02    3,500957787e-01   -1,298464090e-01    1,316533685e-01    0,000000000e+00    0,000000000e+00    0,000000000e+00    0,000000000e+00
      940000000    1,840312034e-01    1,966150403e-01   -3,859499842e-02    2,163181156e-01    0,000000000e+00    0,000000000e+00    0,000000000e+00    0,000000000e+00
      954000000    2,522840500e-01   -4,788534343e-02    7,915692031e-02    2,282253057e-01    0,000000000e+00    0,000000000e+00    0,000000000e+00    0,000000000e+00
      968000000    1,755812764e-01   -2,603656352e-01    1,919586062e-01    1,801714599e-01    0,000000000e+00    0,000000000e+00    0,000000000e+00    0,000000000e+00
      982000000   -1,505163126e-02   -3,943890929e-01    2,797248960e-01    8,058306575e-02    0,000000000e+00    0,000000000e+00    0,000000000e+00    0,000000000e+00
      996000000   -2,747555971e-01   -3,781040013e-01    3,103480637e-01   -7,862799615e-02    0,000000000e+00    0,000000000e+00    0,000000000e+00    0,000000000e+00
     1010000000   -4,695762694e-01   -1,760306954e-01    2,198015153e-01   -2,517648637e-01    0,000000000e+00    0,000000000e+00    0,000000000e+00    0,000000000e+00
     1024000000   -4,555388093e-01    1,160983443e-01    1,938897371e-02   -3,302290142e-01    0,000000000e+00    0,000000000e+00    0,000000000e+00    0,000000000e+00
     1038000000   -2,676765919e-01    2,976979613e-01   -1,736431718e-01   -2,475913316e-01    0,000000000e+00    0,000000000e+00    0,000000000e+00    0,000000000e+00
     1052000000   -3,868157789e-02    3,071461320e-01   -2,567738891e-01   -7,694078982e-02    0,000000000e+00    0,000000000e+00    0,000000000e+00    0,000000000e+00
     1066000000    1,239346266e-01    2,070684731e-01   -2,240086794e-01    8,178689331e-02    0,000000000e+00    0,000000000e+00    0,000000000e+00    0,000000000e+00
     1080000000    2,074305713e-01    4,590158537e-02   -1,205600873e-01    1,948314160e-01    0,000000000e+00    0,000000000e+00    0,000000000e+00    0,000000000e+00
     1094000000    1,992010027e-01   -1,265293807e-01    1,679458842e-02    2,347993702e-01    0,000000000e+00    0,000000000e+00    0,000000000e+00    0,000000000e+00
     1108000000    1,036684066e-01   -2,872155905e-01    1,676760018e-01    2,048292607e-01    0,000000000e+00    0,000000000e+00    0,000000000e+00    0,000000000e+00
     1122000000   -1,009536833e-01   -3,728287518e-01    3,198046684e-01    8,830610663e-02    0,000000000e+00    0,000000000e+00    0,000000000e+00    0,000000000e+00
     1136000000   -3,447386920e-01   -2,722314000e-01    3,918443620e-01   -1,501295418e-01    0,000000000e+00    0,000000000e+00    0,000000000e+00    0,000000000e+00
     1150000000   -4,110502899e-01    3,615175933e-02    2,420276552e-01   -4,390821755e-01    0,000000000e+00    0,000000000e+00    0,000000000e+00    0,000000000e+00
     1164000000   -1,633969247e-01    2,159863710e-01   -9,223526716e-02   -5,120236874e-01    0,000000000e+00    0,000000000e+00    0,000000000e+00    0,000000000e+00
     1178000000    7,486376166e-02    8,569478244e-02   -3,544425964e-01   -3,476316631e-01    0,000000000e+00    0,000000000e+00    0,000000000e+00    0,000000000e+00
     1192000000    7,301995903e-02   -1,739608347e-01   -4,561466277e-01   -8,139161021e-02    0,000000000e+00    0,000000000e+00    0,000000000e+00    0,000000000e+00
     1206000000   -1,660763025e-01   -3,256928623e-01   -3,684424758e-01    1,867146790e-01    0,000000000e+00    0,000000000e+00    0,000000000e+00    0,000000000e+00
     1220000000   -4,524150789e-01   -1,737876534e-01   -1,042406783e-01    3,317967653e-01    0,000000000e+00    0,000000000e+00    0,000000000e+00    0,000000000e+00
     1234000000   -4,718742073e-01    1,707234234e-01    1,396709234e-01    2,250276804e-01    0,000000000e+00    0,000000000e+00    0,000000000e+00    0,000000000e+00
     1248000000   -2,356100231e-01    3,592078388e-01    1,865378469e-01    3,711294383e-02    0,000000000e+00    0,000000000e+00    0,000000000e+00    0,000000000e+00
     1262000000    2,848832708e-07    3,310191035e-01    1,250206232e-01   -7,089415938e-02    0,000000000e+00    0,000000000e+00    0,000000000e+00    0,000000000e+00
     1276000000    1,574466228e-01    2,022070587e-01    5,054064468e-02   -9,305536002e-02    0,000000000e+00    0,000000000e+00    0,000000000e+00    0,000000000e+00
     1290000000    2,209798396e-01    2,956990898e-02    1,531732501e-03   -7,692958415e-02    0,000000000e+00    0,000000000e+00    0,000000000e+00    0,000000000e+00
     1304000000    2,046087682e-01   -1,459122151e-01   -1,510218251e-02   -3,014188632e-02    0,000000000e+00    0,000000000e+00    0,000000000e+00    0,000000000e+00
     1318000000    1,135347933e-01   -3,094577789e-01   -9,096724913e-03    2,568753622e-02    0,000000000e+00    0,000000000e+00    0,000000000e+00    0,000000000e+00
     1332000000   -6,676715612e-02   -4,335045815e-01    4,555600882e-02    5,827258155e-02    0,000000000e+00    0,000000000e+00    0,000000000e+00    0,000000000e+00
     1346000000   -3,314025104e-01   -4,373256564e-01    1,459405273e-01    4,369088635e-02    0,000000000e+00    0,000000000e+00    0,000000000e+00    0,000000000e+00
     1360000000   -5,632470846e-01   -2,422076166e-01    1,068951637e-01   -7,053799927e-02    0,000000000e+00    0,000000000e+00    0,000000000e+00    0,000000000e+00
     1374000000   -6,237092614e-01    3,267824650e-02    1,035063192e-01    4,887659103e-02    0,000000000e+00    0,000000000e+00    0,000000000e+00    0,000000000e+00
     1388000000   -5,121003389e-01    2,856515944e-01    2,281862646e-01    2,469551982e-03    0,000000000e+00    0,000000000e+00    0,000000000e+00    0,000000000e+00
     1402000000   -3,066024780e-01    4,154633582e-01    2,215928286e-01   -8,903035522e-02    0,000000000e+00    0,000000000e+00    0,000000000e+00    0,000000000e+00
     1416000000   -9,759940207e-02    4,248527586e-01    1,825250536e-01   -1,065121293e-01    0,000000000e+00    0,000000000e+00    0,000000000e+00    0,000000000e+00
     1430000000    6,846227497e-02    3,287098408e-01    1,323686838e-01   -1,027381048e-01    0,000000000e+00    0,000000000e+00    0,000000000e+00    0,000000000e+00
     1444000000    1,798143834e-01    1,983642876e-01    1,552959085e-01   -9,120829403e-02    0,000000000e+00    0,000000000e+00    0,000000000e+00    0,000000000e+00
     1458000000    2,236311585e-01    3,807828575e-02    1,542425603e-01   -8,085573465e-02    0,000000000e+00    0,000000000e+00    0,000000000e+00    0,000000000e+00
     1472000000    2,070371807e-01   -1,430866718e-01    1,500968188e-01   -5,240789801e-02    0,000000000e+00    0,000000000e+00    0,000000000e+00    0,000000000e+00
     1486000000    1,039510816e-01   -3,284488916e-01    1,610414237e-01   -1,015175227e-02    0,000000000e+00    0,000000000e+00    0,000000000e+00    0,000000000e+00
     1500000000   -8,671984822e-02   -4,618632495e-01    2,305861413e-01    5,612669885e-02    0,000000000e+00    0,000000000e+00    0,000000000e+00    0,000000000e+00
