! NanoVNA-App
! Date: 2025-09-25 14:26:39
! Start: 100MHz Stop: 1,5GHz Points: 101
! S-Parameter data: F S11 S21 S12 S22
# Hz S RI R 50
!     Frequency           S11_Real           S11_Imag           S21_Real           S21_Imag           S12_Real           S12_Imag           S22_Real           S22_Imag
      100000000   -2,910284698e-02   -4,119246267e-03    3,745658398e-01   -7,220408916e-01    0,000000000e+00    0,000000000e+00    0,000000000e+00    0,000000000e+00
      114000000   -1,660649106e-02    1,161822863e-02   -8,889095485e-02   -8,058562875e-01    0,000000000e+00    0,000000000e+00    0,000000000e+00    0,000000000e+00
      128000000    3,456786042e-03    1,052502636e-02   -5,144516230e-01   -6,209434867e-01    0,000000000e+00    0,000000000e+00    0,000000000e+00    0,000000000e+00
      142000000    1,442664675e-02   -3,079955000e-03   -7,675717473e-01   -2,370325178e-01    0,000000000e+00    0,000000000e+00    0,000000000e+00    0,000000000e+00
      156000000    1,561178081e-02   -1,467843819e-02   -7,702889442e-01    2,237269133e-01    0,000000000e+00    0,000000000e+00    0,000000000e+00    0,000000000e+00
      170000000    1,654746942e-02   -2,244446799e-02   -5,186896920e-01    6,048535705e-01    0,000000000e+00    0,000000000e+00    0,000000000e+00    0,000000000e+00
      184000000    2,095799707e-02   -3,700474277e-02   -1,018076241e-01    7,864678502e-01    0,000000000e+00    0,000000000e+00    0,000000000e+00    0,000000000e+00
      198000000    1,313719805e-02   -6,262512505e-02    3,432210088e-01    7,131507993e-01    0,000000000e+00    0,000000000e+00    0,000000000e+00    0,000000000e+00
      212000000   -1,871320978e-02   -8,169417083e-02    6,783492565e-01    4,105589986e-01    0,000000000e+00    0,000000000e+00    0,000000000e+00    0,000000000e+00
      226000000   -6,211464107e-02   -6,969755888e-02    7,961404324e-01   -2,974938974e-02    0,000000000e+00    0,000000000e+00    0,000000000e+00    0,000000000e+00
      240000000   -8,331511170e-02   -2,606407367e-02    6,468257308e-01   -4,663597941e-01    0,000000000e+00    0,000000000e+00    0,000000000e+00    0,000000000e+00
      254000000   -6,432899088e-02    1,747618057e-02    2,770452797e-01   -7,431010604e-01    0,000000000e+00    0,000000000e+00    0,000000000e+00    0,000000000e+00
      268000000   -2,408897504e-02    2,943579666e-02   -1,766897291e-01   -7,652944326e-01    0,000000000e+00    0,000000000e+00    0,000000000e+00    0,000000000e+00
      282000000    4,072789568e-03    1,214281842e-02   -5,627099276e-01   -5,372747183e-01    0,000000000e+00    0,000000000e+00    0,000000000e+00    0,000000000e+00
      296000000    9,533512406e-03   -7,696620189e-03   -7,608966827e-01   -1,395271420e-01    0,000000000e+00    0,000000000e+00    0,000000000e+00    0,000000000e+00
      310000000    1,078517921e-02   -1,603298075e-02   -7,122964859e-01    2,972487211e-01    0,000000000e+00    0,000000000e+00    0,000000000e+00    0,000000000e+00
      324000000    1,952284016e-02   -2,661113255e-02   -4,277336895e-01    6,372722387e-01    0,000000000e+00    0,000000000e+00    0,000000000e+00    0,000000000e+00
      338000000    2,530099638e-02   -5,202414468e-02   -8,564337157e-03    7,603921294e-01    0,000000000e+00    0,000000000e+00    0,000000000e+00    0,000000000e+00
      352000000    7,308810018e-03   -8,469259739e-02    4,055552483e-01    6,408207417e-01    0,000000000e+00    0,000000000e+00    0,000000000e+00    0,000000000e+00
      366000000   -3,492415696e-02   -9,609134495e-02    6,905941963e-01    3,123455346e-01    0,000000000e+00    0,000000000e+00    0,000000000e+00    0,000000000e+00
      380000000   -7,143591344e-02   -7,118007541e-02    7,489539981e-01   -1,247598454e-01    0,000000000e+00    0,000000000e+00    0,000000000e+00    0,000000000e+00
      394000000   -7,290082425e-02   -3,227689862e-02    5,485661626e-01   -5,211027861e-01    0,000000000e+00    0,000000000e+00    0,000000000e+00    0,000000000e+00
      408000000   -4,680976272e-02   -1,556546427e-02    1,625927985e-01   -7,322548032e-01    0,000000000e+00    0,000000000e+00    0,000000000e+00    0,000000000e+00
      422000000   -2,824131958e-02   -3,155675903e-02   -2,660363615e-01   -6,963888407e-01    0,000000000e+00    0,000000000e+00    0,000000000e+00    0,000000000e+00
      436000000   -4,026726261e-02   -5,184498429e-02   -6,032719016e-01   -4,341021776e-01    0,000000000e+00    0,000000000e+00    0,000000000e+00    0,000000000e+00
      450000000   -6,787466258e-02   -4,478525743e-02   -7,404261231e-01   -2,528472617e-02    0,000000000e+00    0,000000000e+00    0,000000000e+00    0,000000000e+00
      464000000   -7,429789752e-02   -1,258181687e-02   -6,214551330e-01    3,942073286e-01    0,000000000e+00    0,000000000e+00    0,000000000e+00    0,000000000e+00
      478000000   -4,920712486e-02    1,149775833e-02   -2,869066894e-01    6,673235297e-01    0,000000000e+00    0,000000000e+00    0,000000000e+00    0,000000000e+00
      492000000   -1,685831137e-02    6,470982917e-03    1,351699382e-01    7,036101818e-01    0,000000000e+00    0,000000000e+00    0,000000000e+00    0,000000000e+00
      506000000   -3,942308482e-03   -1,509089302e-02    4,975212812e-01    5,062405467e-01    0,000000000e+00    0,000000000e+00    0,000000000e+00    0,000000000e+00
      520000000   -6,095609162e-03   -2,946647443e-02    6,891267300e-01    1,441329420e-01    0,000000000e+00    0,000000000e+00    0,000000000e+00    0,000000000e+00
      534000000   -3,388826968e-03   -3,591139987e-02    6,444635987e-01   -2,594592869e-01    0,000000000e+00    0,000000000e+00    0,000000000e+00    0,000000000e+00
      548000000    8,529471233e-03   -5,281357840e-02    3,852578104e-01   -5,640217662e-01    0,000000000e+00    0,000000000e+00    0,000000000e+00    0,000000000e+00
      562000000    5,472531542e-03   -8,993127197e-02    8,772096597e-03   -6,716428399e-01    0,000000000e+00    0,000000000e+00    0,000000000e+00    0,000000000e+00
      576000000   -3,144469485e-02   -1,264698654e-01   -3,615469337e-01   -5,614492893e-01    0,000000000e+00    0,000000000e+00    0,000000000e+00    0,000000000e+00
      590000000   -9,488920122e-02   -1,276593357e-01   -6,156995893e-01   -2,733464241e-01    0,000000000e+00    0,000000000e+00    0,000000000e+00    0,000000000e+00
      604000000   -1,430690140e-01   -7,816652954e-02   -6,670792699e-01    1,258104891e-01    0,000000000e+00    0,000000000e+00    0,000000000e+00    0,000000000e+00
      618000000   -1,383703053e-01   -1,135604735e-02   -4,758639634e-01    4,850982130e-01    0,000000000e+00    0,000000000e+00    0,000000000e+00    0,000000000e+00
      632000000   -9,303256869e-02    2,213801257e-02   -1,152239814e-01    6,630138755e-01    0,000000000e+00    0,000000000e+00    0,000000000e+00    0,000000000e+00
      646000000   -5,548109859e-02    1,242679451e-02    2,736157477e-01    6,038801670e-01    0,000000000e+00    0,000000000e+00    0,000000000e+00    0,000000000e+00
      660000000   -4,871140793e-02   -8,247083984e-03    5,581638217e-01    3,403490186e-01    0,000000000e+00    0,000000000e+00    0,000000000e+00    0,000000000e+00
      674000000   -5,615121499e-02   -1,028190274e-02    6,443812847e-01   -3,973346576e-02    0,000000000e+00    0,000000000e+00    0,000000000e+00    0,000000000e+00
      688000000   -5,060217530e-02    2,573503880e-03    4,937964678e-01   -4,018348753e-01    0,000000000e+00    0,000000000e+00    0,000000000e+00    0,000000000e+00
      702000000   -2,674286440e-02    7,865184918e-03    1,677778065e-01   -6,005282998e-01    0,000000000e+00    0,000000000e+00    0,000000000e+00    0,000000000e+00
      716000000   -2,643281361e-03   -8,413976990e-03   -2,196200490e-01   -5,750773549e-01    0,000000000e+00    0,000000000e+00    0,000000000e+00    0,000000000e+00
      730000000    9,206689894e-03   -3,483733535e-02   -5,092854500e-01   -3,333404362e-01    0,000000000e+00    0,000000000e+00    0,000000000e+00    0,000000000e+00
      744000000    1,641812362e-02   -6,037132069e-02   -6,006608009e-01    3,295098618e-02    0,000000000e+00    0,000000000e+00    0,000000000e+00    0,000000000e+00
      758000000    2,247557417e-02   -1,035213023e-01   -4,542415142e-01    3,768122494e-01    0,000000000e+00    0,000000000e+00    0,000000000e+00    0,000000000e+00
      772000000   -5,135178100e-03   -1,740875989e-01   -1,389486492e-01    5,574610233e-01    0,000000000e+00    0,000000000e+00    0,000000000e+00    0,000000000e+00
      786000000   -1,050136015e-01   -2,327269167e-01    2,110226750e-01    5,206614137e-01    0,000000000e+00    0,000000000e+00    0,000000000e+00    0,000000000e+00
      800000000   -2,663982511e-01   -1,922488362e-01    4,723022878e-01    2,751168907e-01    0,000000000e+00    0,000000000e+00    0,000000000e+00    0,000000000e+00
      814000000   -3,651273549e-01    3,552975832e-03    5,075391531e-01   -8,857151866e-02    0,000000000e+00    0,000000000e+00    0,000000000e+00    0,000000000e+00
      828000000   -2,482848167e-01    2,332033515e-01    2,815398276e-01   -3,530315757e-01    0,000000000e+00    0,000000000e+00    0,000000000e+00    0,000000000e+00
      842000000    1,278316882e-02    2,775954306e-01   -1,588087715e-02   -3,633711636e-01    0,000000000e+00    0,000000000e+00    0,000000000e+00    0,000000000e+00
      856000000    2,123386115e-01    1,157505661e-01   -1,881714165e-01   -2,044098675e-01    0,000000000e+00    0,000000000e+00    0,000000000e+00    0,000000000e+00
      870000000    2,389190048e-01   -1,487797499e-01   -2,010278255e-01   -2,591291256e-02    0,000000000e+00    0,000000000e+00    0,000000000e+00    0,000000000e+00
      884000000    3,697106987e-02   -3,871930242e-01   -1,039802209e-01    6,979148835e-02    0,000000000e+00    0,000000000e+00    0,000000000e+00    0,000000000e+00
      898000000   -3,698896766e-01   -3,417282999e-01   -1,708412357e-02    2,815672010e-02    0,000000000e+00    0,000000000e+00    0,000000000e+00    0,000000000e+00
      912000000   -4,675443769e-01    1,377758384e-01   -1,233771145e-01    3,357079998e-02    0,000000000e+00    0,000000000e+00    0,000000000e+00    0,000000000e+00
      926000000   -9,568030387e-02    3,503235579e-01   -1,292200387e-01    1,329827607e-01    0,000000000e+00    0,000000000e+00    0,000000000e+00    0,000000000e+00
      940000000    1,851014346e-01    1,927133650e-01   -3,886543214e-02    2,153864354e-01    0,000000000e+00    0,000000000e+00    0,000000000e+00    0,000000000e+00
      954000000    2,563628554e-01   -5,026826262e-02    8,006189764e-02    2,279409319e-01    0,000000000e+00    0,000000000e+00    0,000000000e+00    0,000000000e+00
      968000000    1,761268824e-01   -2,614727616e-01    1,913021505e-01    1,801140755e-01    0,000000000e+00    0,000000000e+00    0,000000000e+00    0,000000000e+00
      982000000   -1,716620289e-02   -3,919563890e-01    2,790373564e-01    7,924266905e-02    0,000000000e+00    0,000000000e+00    0,000000000e+00    0,000000000e+00
      996000000   -2,773044705e-01   -3,782457113e-01    3,090904653e-01   -7,929367572e-02    0,000000000e+00    0,000000000e+00    0,000000000e+00    0,000000000e+00
     1010000000   -4,669113457e-01   -1,694303155e-01    2,212203741e-01   -2,521218657e-01    0,000000000e+00    0,000000000e+00    0,000000000e+00    0,000000000e+00
     1024000000   -4,599952996e-01    1,209458783e-01    2,295842394e-02   -3,281447291e-01    0,000000000e+00    0,000000000e+00    0,000000000e+00    0,000000000e+00
     1038000000   -2,619710267e-01    2,974471450e-01   -1,748663783e-01   -2,462601513e-01    0,000000000e+00    0,000000000e+00    0,000000000e+00    0,000000000e+00
     1052000000   -3,563762084e-02    3,080576956e-01   -2,577741742e-01   -7,694338262e-02    0,000000000e+00    0,000000000e+00    0,000000000e+00    0,000000000e+00
     1066000000    1,264911890e-01    2,034387141e-01   -2,254917026e-01    8,520752192e-02    0,000000000e+00    0,000000000e+00    0,000000000e+00    0,000000000e+00
     1080000000    2,086770982e-01    4,993477836e-02   -1,190594509e-01    1,923241317e-01    0,000000000e+00    0,000000000e+00    0,000000000e+00    0,000000000e+00
     1094000000    2,031089514e-01   -1,305965334e-01    1,806906424e-02    2,353185713e-01    0,000000000e+00    0,000000000e+00    0,000000000e+00    0,000000000e+00
     1108000000    9,804119170e-02   -2,887608111e-01    1,704384089e-01    2,075498998e-01    0,000000000e+00    0,000000000e+00    0,000000000e+00    0,000000000e+00
     1122000000   -1,000402197e-01   -3,660233915e-01    3,166161478e-01    8,743557334e-02    0,000000000e+00    0,000000000e+00    0,000000000e+00    0,000000000e+00
     1136000000   -3,507862985e-01   -2,657134533e-01    3,920464218e-01   -1,504178792e-01    0,000000000e+00    0,000000000e+00    0,000000000e+00    0,000000000e+00
     1150000000   -4,051726460e-01    3,271377087e-02    2,453958988e-01   -4,353520870e-01    0,000000000e+00    0,000000000e+00    0,000000000e+00    0,000000000e+00
     1164000000   -1,631950289e-01    2,155556977e-01   -9,465583414e-02   -5,133084655e-01    0,000000000e+00    0,000000000e+00    0,000000000e+00    0,000000000e+00
     1178000000    7,501927018e-02    8,566121012e-02   -3,564913869e-01   -3,426152170e-01    0,000000000e+00    0,000000000e+00    0,000000000e+00    0,000000000e+00
     1192000000    7,079734653e-02   -1,741675884e-01   -4,547964334e-01   -8,280931413e-02    0,000000000e+00    0,000000000e+00    0,000000000e+00    0,000000000e+00
     1206000000   -1,643545479e-01   -3,300350010e-01   -3,711029589e-01    1,852501184e-01    0,000000000e+00    0,000000000e+00    0,000000000e+00    0,000000000e+00
     1220000000   -4,558453858e-01   -1,808622628e-01   -1,070526764e-01    3,304702044e-01    0,000000000e+00    0,000000000e+00    0,000000000e+00    0,000000000e+00
     1234000000   -4,683337510e-01    1,652993858e-01    1,422353536e-01    2,185587883e-01    0,000000000e+00    0,000000000e+00    0,000000000e+00    0,000000000e+00
     1248000000   -2,392201275e-01    3,527114689e-01    1,913572252e-01    3,519116342e-02    0,000000000e+00    0,000000000e+00    0,000000000e+00    0,000000000e+00
     1262000000    8,531295694e-03    3,272751868e-01    1,312825829e-01   -7,578781247e-02    0,000000000e+00    0,000000000e+00    0,000000000e+00    0,000000000e+00
     1276000000    1,582533270e-01    2,013388723e-01    5,547722057e-02   -9,308960289e-02    0,000000000e+00    0,000000000e+00    0,000000000e+00    0,000000000e+00
     1290000000    2,176918685e-01    3,335455060e-02    3,116296371e-03   -6,833340228e-02    0,000000000e+00    0,000000000e+00    0,000000000e+00    0,000000000e+00
     1304000000    2,069627345e-01   -1,451703012e-01   -1,955137402e-02   -3,087434918e-02    0,000000000e+00    0,000000000e+00    0,000000000e+00    0,000000000e+00
     1318000000    1,127497554e-01   -3,130474687e-01   -9,724278934e-03    1,316233259e-02    0,000000000e+00    0,000000000e+00    0,000000000e+00    0,000000000e+00
     1332000000   -6,589683145e-02   -4,372784793e-01    5,708509311e-02    5,755143985e-02    0,000000000e+00    0,000000000e+00    0,000000000e+00    0,000000000e+00
     1346000000   -3,236000240e-01   -4,351628721e-01    1,483786106e-01    5,125595257e-02    0,000000000e+00    0,000000000e+00    0,000000000e+00    0,000000000e+00
     1360000000   -5,611867905e-01   -2,415966094e-01    1,120138988e-01   -7,065967470e-02    0,000000000e+00    0,000000000e+00    0,000000000e+00    0,000000000e+00
     1374000000   -6,181862354e-01    2,901557274e-02    1,080763042e-01    6,069288775e-02    0,000000000e+00    0,000000000e+00    0,000000000e+00    0,000000000e+00
     1388000000   -5,106146932e-01    2,931368053e-01    2,228034288e-01    1,677961461e-02    0,000000000e+00    0,000000000e+00    0,000000000e+00    0,000000000e+00
     1402000000   -3,016646206e-01    4,226073325e-01    2,266208529e-01   -7,888182253e-02    0,000000000e+00    0,000000000e+00    0,000000000e+00    0,000000000e+00
     1416000000   -9,478225559e-02    4,209421873e-01    1,804033965e-01   -1,175754443e-01    0,000000000e+00    0,000000000e+00    0,000000000e+00    0,000000000e+00
     1430000000    7,490933686e-02    3,274652958e-01    1,608515233e-01   -1,456540674e-01    0,000000000e+00    0,000000000e+00    0,000000000e+00    0,000000000e+00
     1444000000    1,775827706e-01    1,998428553e-01    1,484785825e-01   -9,322732687e-02    0,000000000e+00    0,000000000e+00    0,000000000e+00    0,000000000e+00
     1458000000    2,241080105e-01    3,621271625e-02    1,564380676e-01   -7,934155315e-02    0,000000000e+00    0,000000000e+00    0,000000000e+00    0,000000000e+00
     1472000000    2,074822932e-01   -1,451870203e-01    1,483024657e-01   -4,243093729e-02    0,000000000e+00    0,000000000e+00    0,000000000e+00    0,000000000e+00
     1486000000    1,034965590e-01   -3,240349889e-01    1,688341051e-01    3,784259548e-03    0,000000000e+00    0,000000000e+00    0,000000000e+00    0,000000000e+00
     1500000000   -8,560448140e-02   -4,590701163e-01    2,131590545e-01    4,500127584e-02    0,000000000e+00    0,000000000e+00    0,000000000e+00    0,000000000e+00
