! NanoVNA-App
! Date: 2025-09-25 14:24:55
! Start: 100MHz Stop: 1,5GHz Points: 101
! S-Parameter data: F S11 S21 S12 S22
# Hz S RI R 50
!     Frequency           S11_Real           S11_Imag           S21_Real           S21_Imag           S12_Real           S12_Imag           S22_Real           S22_Imag
      100000000   -2,909047157e-02   -4,123145249e-03    3,745043874e-01   -7,220072150e-01    0,000000000e+00    0,000000000e+00    0,000000000e+00    0,000000000e+00
      114000000   -1,659832336e-02    1,159317605e-02   -8,891981095e-02   -8,057170510e-01    0,000000000e+00    0,000000000e+00    0,000000000e+00    0,000000000e+00
      128000000    3,436510684e-03    1,058059745e-02   -5,146152377e-01   -6,210058331e-01    0,000000000e+00    0,000000000e+00    0,000000000e+00    0,000000000e+00
      142000000    1,444879360e-02   -3,074692329e-03   -7,675155997e-01   -2,369316965e-01    0,000000000e+00    0,000000000e+00    0,000000000e+00    0,000000000e+00
      156000000    1,445181202e-02   -1,501222979e-02   -7,647292018e-01    2,199918181e-01    0,000000000e+00    0,000000000e+00    0,000000000e+00    0,000000000e+00
      170000000    1,647711918e-02   -2,248363383e-02   -5,186291933e-01    6,050410867e-01    0,000000000e+00    0,000000000e+00    0,000000000e+00    0,000000000e+00
      184000000    2,096959017e-02   -3,703965619e-02   -1,018672138e-01    7,864013314e-01    0,000000000e+00    0,000000000e+00    0,000000000e+00    0,000000000e+00
      198000000    1,312302612e-02   -6,265361607e-02    3,432036340e-01    7,131100297e-01    0,000000000e+00    0,000000000e+00    0,000000000e+00    0,000000000e+00
      212000000   -1,869268157e-02   -8,166851103e-02    6,783255935e-01    4,107356668e-01    0,000000000e+00    0,000000000e+00    0,000000000e+00    0,000000000e+00
      226000000   -6,209398061e-02   -6,974142045e-02    7,960582972e-01   -2,965796739e-02    0,000000000e+00    0,000000000e+00    0,000000000e+00    0,000000000e+00
      240000000   -8,331446350e-02   -2,602693625e-02    6,472286582e-01   -4,666850269e-01    0,000000000e+00    0,000000000e+00    0,000000000e+00    0,000000000e+00
      254000000   -6,433627754e-02    1,739009470e-02    2,770064175e-01   -7,432258725e-01    0,000000000e+00    0,000000000e+00    0,000000000e+00    0,000000000e+00
      268000000   -2,403098159e-02    2,942156047e-02   -1,769205630e-01   -7,650494576e-01    0,000000000e+00    0,000000000e+00    0,000000000e+00    0,000000000e+00
      282000000    4,069515970e-03    1,211066265e-02   -5,622769594e-01   -5,370576382e-01    0,000000000e+00    0,000000000e+00    0,000000000e+00    0,000000000e+00
      296000000    9,527756833e-03   -7,718918379e-03   -7,609357834e-01   -1,396660656e-01    0,000000000e+00    0,000000000e+00    0,000000000e+00    0,000000000e+00
      310000000    1,099144388e-02   -1,598408446e-02   -7,141047716e-01    2,968533933e-01    0,000000000e+00    0,000000000e+00    0,000000000e+00    0,000000000e+00
      324000000    1,954545081e-02   -2,641885169e-02   -4,282893538e-01    6,382771134e-01    0,000000000e+00    0,000000000e+00    0,000000000e+00    0,000000000e+00
      338000000    2,541239560e-02   -5,223980919e-02   -8,043362759e-03    7,606219649e-01    0,000000000e+00    0,000000000e+00    0,000000000e+00    0,000000000e+00
      352000000    7,187197451e-03   -8,465693146e-02    4,055224657e-01    6,412649751e-01    0,000000000e+00    0,000000000e+00    0,000000000e+00    0,000000000e+00
      366000000   -3,483282030e-02   -9,589509666e-02    6,910582781e-01    3,125663698e-01    0,000000000e+00    0,000000000e+00    0,000000000e+00    0,000000000e+00
      380000000   -7,160445303e-02   -7,127238065e-02    7,480149269e-01   -1,248563826e-01    0,000000000e+00    0,000000000e+00    0,000000000e+00    0,000000000e+00
      394000000   -7,350932807e-02   -3,245071694e-02    5,479570627e-01   -5,221585035e-01    0,000000000e+00    0,000000000e+00    0,000000000e+00    0,000000000e+00
      408000000   -4,726907611e-02   -1,539008226e-02    1,618746668e-01   -7,320184708e-01    0,000000000e+00    0,000000000e+00    0,000000000e+00    0,000000000e+00
      422000000   -2,828894556e-02   -3,165526316e-02   -2,657292187e-01   -6,967437267e-01    0,000000000e+00    0,000000000e+00    0,000000000e+00    0,000000000e+00
      436000000   -4,023866728e-02   -5,224617943e-02   -6,023507714e-01   -4,340426624e-01    0,000000000e+00    0,000000000e+00    0,000000000e+00    0,000000000e+00
      450000000   -6,720511615e-02   -4,487522691e-02   -7,404481769e-01   -2,501585148e-02    0,000000000e+00    0,000000000e+00    0,000000000e+00    0,000000000e+00
      464000000   -7,432957739e-02   -1,266102493e-02   -6,217283607e-01    3,940729499e-01    0,000000000e+00    0,000000000e+00    0,000000000e+00    0,000000000e+00
      478000000   -4,908628389e-02    1,161922980e-02   -2,868725657e-01    6,677054167e-01    0,000000000e+00    0,000000000e+00    0,000000000e+00    0,000000000e+00
      492000000   -1,692750864e-02    6,823199801e-03    1,340392232e-01    7,047314048e-01    0,000000000e+00    0,000000000e+00    0,000000000e+00    0,000000000e+00
      506000000   -3,448111704e-03   -1,503202878e-02    4,973036051e-01    5,064533949e-01    0,000000000e+00    0,000000000e+00    0,000000000e+00    0,000000000e+00
      520000000   -6,090267561e-03   -2,951268107e-02    6,878783703e-01    1,444709450e-01    0,000000000e+00    0,000000000e+00    0,000000000e+00    0,000000000e+00
      534000000   -3,332062624e-03   -3,584739193e-02    6,448478103e-01   -2,601846755e-01    0,000000000e+00    0,000000000e+00    0,000000000e+00    0,000000000e+00
      548000000    8,021334186e-03   -5,248916149e-02    3,852875829e-01   -5,641354918e-01    0,000000000e+00    0,000000000e+00    0,000000000e+00    0,000000000e+00
      562000000    5,923170131e-03   -8,978936821e-02    8,812681772e-03   -6,723054051e-01    0,000000000e+00    0,000000000e+00    0,000000000e+00    0,000000000e+00
      576000000   -3,145017847e-02   -1,257183552e-01   -3,623935878e-01   -5,610472560e-01    0,000000000e+00    0,000000000e+00    0,000000000e+00    0,000000000e+00
      590000000   -9,497269243e-02   -1,278000921e-01   -6,184799075e-01   -2,728734314e-01    0,000000000e+00    0,000000000e+00    0,000000000e+00    0,000000000e+00
      604000000   -1,429629028e-01   -7,795880735e-02   -6,671745777e-01    1,265946478e-01    0,000000000e+00    0,000000000e+00    0,000000000e+00    0,000000000e+00
      618000000   -1,383654624e-01   -1,167077571e-02   -4,745127261e-01    4,854865670e-01    0,000000000e+00    0,000000000e+00    0,000000000e+00    0,000000000e+00
      632000000   -9,333661199e-02    2,217894793e-02   -1,143367440e-01    6,638632417e-01    0,000000000e+00    0,000000000e+00    0,000000000e+00    0,000000000e+00
      646000000   -5,582758412e-02    1,204613410e-02    2,729882300e-01    6,034702063e-01    0,000000000e+00    0,000000000e+00    0,000000000e+00    0,000000000e+00
      660000000   -4,756447300e-02   -8,930695243e-03    5,577206016e-01    3,405655921e-01    0,000000000e+00    0,000000000e+00    0,000000000e+00    0,000000000e+00
      674000000   -5,619011074e-02   -1,062130462e-02    6,444304585e-01   -3,946887702e-02    0,000000000e+00    0,000000000e+00    0,000000000e+00    0,000000000e+00
      688000000   -5,083408207e-02    2,648790134e-03    4,933127761e-01   -4,027077556e-01    0,000000000e+00    0,000000000e+00    0,000000000e+00    0,000000000e+00
      702000000   -2,571774647e-02    7,979122922e-03    1,619110852e-01   -6,042853594e-01    0,000000000e+00    0,000000000e+00    0,000000000e+00    0,000000000e+00
      716000000   -1,758489874e-03   -9,605943225e-03   -2,193801850e-01   -5,755220056e-01    0,000000000e+00    0,000000000e+00    0,000000000e+00    0,000000000e+00
      730000000    9,296022356e-03   -3,419213742e-02   -5,094478726e-01   -3,339056671e-01    0,000000000e+00    0,000000000e+00    0,000000000e+00    0,000000000e+00
      744000000    1,629444584e-02   -6,122812256e-02   -6,007817984e-01    3,306867927e-02    0,000000000e+00    0,000000000e+00    0,000000000e+00    0,000000000e+00
      758000000    2,262313850e-02   -1,035572663e-01   -4,545722604e-01    3,774930835e-01    0,000000000e+00    0,000000000e+00    0,000000000e+00    0,000000000e+00
      772000000   -5,280696321e-03   -1,739321202e-01   -1,395608485e-01    5,573028326e-01    0,000000000e+00    0,000000000e+00    0,000000000e+00    0,000000000e+00
      786000000   -1,052772626e-01   -2,329034358e-01    2,112282962e-01    5,201216936e-01    0,000000000e+00    0,000000000e+00    0,000000000e+00    0,000000000e+00
      800000000   -2,657452226e-01   -1,933684200e-01    4,717921317e-01    2,757864296e-01    0,000000000e+00    0,000000000e+00    0,000000000e+00    0,000000000e+00
      814000000   -3,648921251e-01    3,772533033e-03    5,081799626e-01   -8,834123611e-02    0,000000000e+00    0,000000000e+00    0,000000000e+00    0,000000000e+00
      828000000   -2,487457395e-01    2,334555835e-01    2,809534371e-01   -3,524115086e-01    0,000000000e+00    0,000000000e+00    0,000000000e+00    0,000000000e+00
      842000000    1,284239348e-02    2,779946029e-01   -1,549929567e-02   -3,626722097e-01    0,000000000e+00    0,000000000e+00    0,000000000e+00    0,000000000e+00
      856000000    2,127449512e-01    1,151179597e-01   -1,877566874e-01   -2,048593462e-01    0,000000000e+00    0,000000000e+00    0,000000000e+00    0,000000000e+00
      870000000    2,390557975e-01   -1,485948414e-01   -2,003274411e-01   -2,595361695e-02    0,000000000e+00    0,000000000e+00    0,000000000e+00    0,000000000e+00
      884000000    3,794055060e-02   -3,871745765e-01   -1,037899405e-01    7,122573256e-02    0,000000000e+00    0,000000000e+00    0,000000000e+00    0,000000000e+00
      898000000   -3,695950806e-01   -3,425128758e-01   -1,652169786e-02    2,682209946e-02    0,000000000e+00    0,000000000e+00    0,000000000e+00    0,000000000e+00
      912000000   -4,673894346e-01    1,377956718e-01   -1,029212922e-01    2,922169864e-02    0,000000000e+00    0,000000000e+00    0,000000000e+00    0,000000000e+00
      926000000   -9,754764289e-02    3,504280150e-01   -1,306366473e-01    1,346609741e-01    0,000000000e+00    0,000000000e+00    0,000000000e+00    0,000000000e+00
      940000000    1,820366532e-01    1,921479851e-01   -3,918927535e-02    2,154359221e-01    0,000000000e+00    0,000000000e+00    0,000000000e+00    0,000000000e+00
      954000000    2,549151480e-01   -5,084570125e-02    7,985311747e-02    2,275182903e-01    0,000000000e+00    0,000000000e+00    0,000000000e+00    0,000000000e+00
      968000000    1,736959815e-01   -2,617097199e-01    1,922342777e-01    1,799328029e-01    0,000000000e+00    0,000000000e+00    0,000000000e+00    0,000000000e+00
      982000000   -2,003806084e-02   -3,935144246e-01    2,802529037e-01    7,807897031e-02    0,000000000e+00    0,000000000e+00    0,000000000e+00    0,000000000e+00
      996000000   -2,759267092e-01   -3,786497414e-01    3,104599416e-01   -7,918777317e-02    0,000000000e+00    0,000000000e+00    0,000000000e+00    0,000000000e+00
     1010000000   -4,677354395e-01   -1,708541363e-01    2,203043997e-01   -2,536392808e-01    0,000000000e+00    0,000000000e+00    0,000000000e+00    0,000000000e+00
     1024000000   -4,585480690e-01    1,207992658e-01    2,231475152e-02   -3,305585384e-01    0,000000000e+00    0,000000000e+00    0,000000000e+00    0,000000000e+00
     1038000000   -2,672590017e-01    2,998945117e-01   -1,736142188e-01   -2,482780367e-01    0,000000000e+00    0,000000000e+00    0,000000000e+00    0,000000000e+00
     1052000000   -3,491836414e-02    3,096279800e-01   -2,558833957e-01   -7,629641891e-02    0,000000000e+00    0,000000000e+00    0,000000000e+00    0,000000000e+00
     1066000000    1,287935525e-01    2,075233757e-01   -2,244376540e-01    8,318196982e-02    0,000000000e+00    0,000000000e+00    0,000000000e+00    0,000000000e+00
     1080000000    2,065048814e-01    4,602533579e-02   -1,217697561e-01    1,942861825e-01    0,000000000e+00    0,000000000e+00    0,000000000e+00    0,000000000e+00
     1094000000    2,021641731e-01   -1,258333176e-01    1,779090427e-02    2,343805730e-01    0,000000000e+00    0,000000000e+00    0,000000000e+00    0,000000000e+00
     1108000000    9,933432937e-02   -2,834391296e-01    1,695658714e-01    2,067474127e-01    0,000000000e+00    0,000000000e+00    0,000000000e+00    0,000000000e+00
     1122000000   -1,025079340e-01   -3,685191572e-01    3,191019297e-01    9,152209014e-02    0,000000000e+00    0,000000000e+00    0,000000000e+00    0,000000000e+00
     1136000000   -3,431783319e-01   -2,668366432e-01    3,909346759e-01   -1,524972916e-01    0,000000000e+00    0,000000000e+00    0,000000000e+00    0,000000000e+00
     1150000000   -4,076714218e-01    4,183229059e-02    2,459431291e-01   -4,370124936e-01    0,000000000e+00    0,000000000e+00    0,000000000e+00    0,000000000e+00
     1164000000   -1,607817411e-01    2,210731804e-01   -9,333619475e-02   -5,131549835e-01    0,000000000e+00    0,000000000e+00    0,000000000e+00    0,000000000e+00
     1178000000    7,277966291e-02    8,579456806e-02   -3,588091731e-01   -3,468716741e-01    0,000000000e+00    0,000000000e+00    0,000000000e+00    0,000000000e+00
     1192000000    7,786270231e-02   -1,738795489e-01   -4,495911598e-01   -8,508133888e-02    0,000000000e+00    0,000000000e+00    0,000000000e+00    0,000000000e+00
     1206000000   -1,630581170e-01   -3,289165497e-01   -3,734319508e-01    1,884498894e-01    0,000000000e+00    0,000000000e+00    0,000000000e+00    0,000000000e+00
     1220000000   -4,528923631e-01   -1,786262542e-01   -1,048417389e-01    3,237687349e-01    0,000000000e+00    0,000000000e+00    0,000000000e+00    0,000000000e+00
     1234000000   -4,720277190e-01    1,646957546e-01    1,400310397e-01    2,202692926e-01    0,000000000e+00    0,000000000e+00    0,000000000e+00    0,000000000e+00
     1248000000   -2,404506356e-01    3,500439525e-01    1,883399785e-01    3,485999256e-02    0,000000000e+00    0,000000000e+00    0,000000000e+00    0,000000000e+00
     1262000000    4,850550555e-03    3,332245946e-01    1,295341253e-01   -6,904674321e-02    0,000000000e+00    0,000000000e+00    0,000000000e+00    0,000000000e+00
     1276000000    1,582373381e-01    1,959967464e-01    5,372629315e-02   -9,886366129e-02    0,000000000e+00    0,000000000e+00    0,000000000e+00    0,000000000e+00
     1290000000    2,158136070e-01    2,844605781e-02   -2,244768257e-04   -7,382676005e-02    0,000000000e+00    0,000000000e+00    0,000000000e+00    0,000000000e+00
     1304000000    2,069487572e-01   -1,425956041e-01   -1,418128237e-02   -3,255774081e-02    0,000000000e+00    0,000000000e+00    0,000000000e+00    0,000000000e+00
     1318000000    1,153216735e-01   -3,119349182e-01   -6,637129467e-03    1,498106774e-02    0,000000000e+00    0,000000000e+00    0,000000000e+00    0,000000000e+00
     1332000000   -6,694272161e-02   -4,335837066e-01    4,644115642e-02    6,020322442e-02    0,000000000e+00    0,000000000e+00    0,000000000e+00    0,000000000e+00
     1346000000   -3,296948075e-01   -4,305556715e-01    1,393709928e-01    4,845028371e-02    0,000000000e+00    0,000000000e+00    0,000000000e+00    0,000000000e+00
     1360000000   -5,531520844e-01   -2,344546914e-01    1,274759322e-01   -7,389356941e-02    0,000000000e+00    0,000000000e+00    0,000000000e+00    0,000000000e+00
     1374000000   -6,214197874e-01    3,592862561e-02    1,007546559e-01    6,632234901e-02    0,000000000e+00    0,000000000e+00    0,000000000e+00    0,000000000e+00
     1388000000   -5,086311698e-01    2,828396857e-01    2,292989343e-01   -1,029320899e-02    0,000000000e+00    0,000000000e+00    0,000000000e+00    0,000000000e+00
     1402000000   -3,061975837e-01    4,136196077e-01    2,307358533e-01   -8,109429479e-02    0,000000000e+00    0,000000000e+00    0,000000000e+00    0,000000000e+00
     1416000000   -9,925265610e-02    4,212298989e-01    1,741548628e-01   -1,243821234e-01    0,000000000e+00    0,000000000e+00    0,000000000e+00    0,000000000e+00
     1430000000    7,007746398e-02    3,337275684e-01    1,604700089e-01   -8,641038835e-02    0,000000000e+00    0,000000000e+00    0,000000000e+00    0,000000000e+00
     1444000000    1,769122630e-01    2,005576491e-01    1,555915475e-01   -9,936465323e-02    0,000000000e+00    0,000000000e+00    0,000000000e+00    0,000000000e+00
     1458000000    2,201620042e-01    3,231885657e-02    1,459858567e-01   -8,529098332e-02    0,000000000e+00    0,000000000e+00    0,000000000e+00    0,000000000e+00
     1472000000    2,059561312e-01   -1,453559399e-01    1,558455378e-01   -5,455487221e-02    0,000000000e+00    0,000000000e+00    0,000000000e+00    0,000000000e+00
     1486000000    9,966467321e-02   -3,241696060e-01    1,629497558e-01   -1,098860707e-02    0,000000000e+00    0,000000000e+00    0,000000000e+00    0,000000000e+00
     1500000000   -9,233828634e-02   -4,613598287e-01    2,111454457e-01    5,385317281e-02    0,000000000e+00    0,000000000e+00    0,000000000e+00    0,000000000e+00
