! NanoVNA-App
! Date: 2025-09-25 14:21:03
! Start: 100MHz Stop: 1,5GHz Points: 101
! S-Parameter data: F S11 S21 S12 S22
# Hz S RI R 50
!     Frequency           S11_Real           S11_Imag           S21_Real           S21_Imag           S12_Real           S12_Imag           S22_Real           S22_Imag
      100000000   -2,908370271e-02   -4,118212964e-03    3,744266629e-01   -7,221317887e-01    0,000000000e+00    0,000000000e+00    0,000000000e+00    0,000000000e+00
      114000000   -1,661914214e-02    1,157872193e-02   -8,904325217e-02   -8,057654500e-01    0,000000000e+00    0,000000000e+00    0,000000000e+00    0,000000000e+00
      128000000    3,447705647e-03    1,057963166e-02   -5,147862434e-01   -6,211380363e-01    0,000000000e+00    0,000000000e+00    0,000000000e+00    0,000000000e+00
      142000000    1,446202490e-02   -3,075415036e-03   -7,676005363e-01   -2,368467599e-01    0,000000000e+00    0,000000000e+00    0,000000000e+00    0,000000000e+00
      156000000    1,576163992e-02   -1,467458718e-02   -7,706466913e-01    2,239456922e-01    0,000000000e+00    0,000000000e+00    0,000000000e+00    0,000000000e+00
      170000000    1,649629697e-02   -2,258204482e-02   -5,185886621e-01    6,051411629e-01    0,000000000e+00    0,000000000e+00    0,000000000e+00    0,000000000e+00
      184000000    2,092955075e-02   -3,704708070e-02   -1,019070894e-01    7,863829136e-01    0,000000000e+00    0,000000000e+00    0,000000000e+00    0,000000000e+00
      198000000    1,304907538e-02   -6,261388958e-02    3,429666460e-01    7,128936648e-01    0,000000000e+00    0,000000000e+00    0,000000000e+00    0,000000000e+00
      212000000   -1,876278035e-02   -8,163698763e-02    6,782108545e-01    4,107729495e-01    0,000000000e+00    0,000000000e+00    0,000000000e+00    0,000000000e+00
      226000000   -6,203941628e-02   -6,965756416e-02    7,961540222e-01   -2,972867340e-02    0,000000000e+00    0,000000000e+00    0,000000000e+00    0,000000000e+00
      240000000   -8,316333592e-02   -2,607000619e-02    6,469730139e-01   -4,665506482e-01    0,000000000e+00    0,000000000e+00    0,000000000e+00    0,000000000e+00
      254000000   -6,434004754e-02    1,731651835e-02    2,772828639e-01   -7,439571619e-01    0,000000000e+00    0,000000000e+00    0,000000000e+00    0,000000000e+00
      268000000   -2,414421365e-02    2,959366515e-02   -1,772543192e-01   -7,650043368e-01    0,000000000e+00    0,000000000e+00    0,000000000e+00    0,000000000e+00
      282000000    4,076079931e-03    1,206755545e-02   -5,623916388e-01   -5,374189019e-01    0,000000000e+00    0,000000000e+00    0,000000000e+00    0,000000000e+00
      296000000    9,564441629e-03   -7,621866185e-03   -7,609388232e-01   -1,395389736e-01    0,000000000e+00    0,000000000e+00    0,000000000e+00    0,000000000e+00
      310000000    1,096053235e-02   -1,598326489e-02   -7,139565945e-01    2,973862588e-01    0,000000000e+00    0,000000000e+00    0,000000000e+00    0,000000000e+00
      324000000    1,951641589e-02   -2,649407275e-02   -4,276511967e-01    6,369847655e-01    0,000000000e+00    0,000000000e+00    0,000000000e+00    0,000000000e+00
      338000000    2,543733828e-02   -5,199220031e-02   -8,427791297e-03    7,645169497e-01    0,000000000e+00    0,000000000e+00    0,000000000e+00    0,000000000e+00
      352000000    7,719113957e-03   -8,484445512e-02    4,063650668e-01    6,410331726e-01    0,000000000e+00    0,000000000e+00    0,000000000e+00    0,000000000e+00
      366000000   -3,466217592e-02   -9,579749405e-02    6,915168166e-01    3,118353784e-01    0,000000000e+00    0,000000000e+00    0,000000000e+00    0,000000000e+00
      380000000   -7,141222060e-02   -7,126150280e-02    7,485919595e-01   -1,246186942e-01    0,000000000e+00    0,000000000e+00    0,000000000e+00    0,000000000e+00
      394000000   -7,323408127e-02   -3,225474060e-02    5,480596423e-01   -5,214562416e-01    0,000000000e+00    0,000000000e+00    0,000000000e+00    0,000000000e+00
      408000000   -4,696623608e-02   -1,558699273e-02    1,629024595e-01   -7,332917452e-01    0,000000000e+00    0,000000000e+00    0,000000000e+00    0,000000000e+00
      422000000   -2,833244763e-02   -3,150343150e-02   -2,664654851e-01   -6,952408552e-01    0,000000000e+00    0,000000000e+00    0,000000000e+00    0,000000000e+00
      436000000   -4,017277807e-02   -5,202348158e-02   -6,032301188e-01   -4,340797365e-01    0,000000000e+00    0,000000000e+00    0,000000000e+00    0,000000000e+00
      450000000   -6,780695170e-02   -4,499520734e-02   -7,405383587e-01   -2,503031306e-02    0,000000000e+00    0,000000000e+00    0,000000000e+00    0,000000000e+00
      464000000   -7,415756583e-02   -1,190386061e-02   -6,209644675e-01    3,945116997e-01    0,000000000e+00    0,000000000e+00    0,000000000e+00    0,000000000e+00
      478000000   -4,930809140e-02    1,191296615e-02   -2,866515219e-01    6,676985025e-01    0,000000000e+00    0,000000000e+00    0,000000000e+00    0,000000000e+00
      492000000   -1,667545736e-02    6,700930651e-03    1,346817017e-01    7,044687271e-01    0,000000000e+00    0,000000000e+00    0,000000000e+00    0,000000000e+00
      506000000   -3,593321191e-03   -1,523548644e-02    4,980301857e-01    5,053293705e-01    0,000000000e+00    0,000000000e+00    0,000000000e+00    0,000000000e+00
      520000000   -5,964688957e-03   -2,957984433e-02    6,891619563e-01    1,449092180e-01    0,000000000e+00    0,000000000e+00    0,000000000e+00    0,000000000e+00
      534000000   -3,379760077e-03   -3,559807688e-02    6,453323364e-01   -2,592400610e-01    0,000000000e+00    0,000000000e+00    0,000000000e+00    0,000000000e+00
      548000000    8,335400373e-03   -5,246068165e-02    3,854601979e-01   -5,639143586e-01    0,000000000e+00    0,000000000e+00    0,000000000e+00    0,000000000e+00
      562000000    5,701120477e-03   -8,952699602e-02    7,705632597e-03   -6,720351577e-01    0,000000000e+00    0,000000000e+00    0,000000000e+00    0,000000000e+00
      576000000   -3,146509826e-02   -1,260662526e-01   -3,625908494e-01   -5,618302226e-01    0,000000000e+00    0,000000000e+00    0,000000000e+00    0,000000000e+00
      590000000   -9,508212656e-02   -1,278919131e-01   -6,153278947e-01   -2,714495063e-01    0,000000000e+00    0,000000000e+00    0,000000000e+00    0,000000000e+00
      604000000   -1,435607374e-01   -7,820714265e-02   -6,675333381e-01    1,261777133e-01    0,000000000e+00    0,000000000e+00    0,000000000e+00    0,000000000e+00
      618000000   -1,381443143e-01   -1,179048419e-02   -4,754983485e-01    4,853850901e-01    0,000000000e+00    0,000000000e+00    0,000000000e+00    0,000000000e+00
      632000000   -9,257914126e-02    2,180799283e-02   -1,137088984e-01    6,633799076e-01    0,000000000e+00    0,000000000e+00    0,000000000e+00    0,000000000e+00
      646000000   -5,503008887e-02    1,247128844e-02    2,738066614e-01    6,034633517e-01    0,000000000e+00    0,000000000e+00    0,000000000e+00    0,000000000e+00
      660000000   -4,769112170e-02   -9,145122953e-03    5,571827888e-01    3,391413391e-01    0,000000000e+00    0,000000000e+00    0,000000000e+00    0,000000000e+00
      674000000   -5,626498535e-02   -1,090771705e-02    6,443065405e-01   -4,011986032e-02    0,000000000e+00    0,000000000e+00    0,000000000e+00    0,000000000e+00
      688000000   -5,047798902e-02    2,626591362e-03    4,932469428e-01   -4,021151960e-01    0,000000000e+00    0,000000000e+00    0,000000000e+00    0,000000000e+00
      702000000   -2,579423226e-02    6,694004871e-03    1,618396640e-01   -6,001378298e-01    0,000000000e+00    0,000000000e+00    0,000000000e+00    0,000000000e+00
      716000000   -1,294388436e-03   -9,099364281e-03   -2,180569172e-01   -5,749884248e-01    0,000000000e+00    0,000000000e+00    0,000000000e+00    0,000000000e+00
      730000000    9,986652993e-03   -3,386214375e-02   -5,092571974e-01   -3,329292536e-01    0,000000000e+00    0,000000000e+00    0,000000000e+00    0,000000000e+00
      744000000    1,727511361e-02   -6,160682812e-02   -6,008615494e-01    3,282381594e-02    0,000000000e+00    0,000000000e+00    0,000000000e+00    0,000000000e+00
      758000000    2,174391039e-02   -1,033428162e-01   -4,539897442e-01    3,776438534e-01    0,000000000e+00    0,000000000e+00    0,000000000e+00    0,000000000e+00
      772000000   -4,274850246e-03   -1,733762473e-01   -1,398355067e-01    5,568889976e-01    0,000000000e+00    0,000000000e+00    0,000000000e+00    0,000000000e+00
      786000000   -1,054673418e-01   -2,320016623e-01    2,115057409e-01    5,190461874e-01    0,000000000e+00    0,000000000e+00    0,000000000e+00    0,000000000e+00
      800000000   -2,659849524e-01   -1,920128465e-01    4,713637233e-01    2,751995921e-01    0,000000000e+00    0,000000000e+00    0,000000000e+00    0,000000000e+00
      814000000   -3,648512065e-01    3,460033797e-03    5,079232454e-01   -8,844065666e-02    0,000000000e+00    0,000000000e+00    0,000000000e+00    0,000000000e+00
      828000000   -2,465877682e-01    2,338133305e-01    2,806307077e-01   -3,521113396e-01    0,000000000e+00    0,000000000e+00    0,000000000e+00    0,000000000e+00
      842000000    1,257310249e-02    2,784226239e-01   -1,605450176e-02   -3,629865050e-01    0,000000000e+00    0,000000000e+00    0,000000000e+00    0,000000000e+00
      856000000    2,125909179e-01    1,155598611e-01   -1,877755225e-01   -2,040547431e-01    0,000000000e+00    0,000000000e+00    0,000000000e+00    0,000000000e+00
      870000000    2,391519845e-01   -1,483574063e-01   -2,003697455e-01   -2,548415400e-02    0,000000000e+00    0,000000000e+00    0,000000000e+00    0,000000000e+00
      884000000    3,806927428e-02   -3,863325119e-01   -1,039021239e-01    7,056940347e-02    0,000000000e+00    0,000000000e+00    0,000000000e+00    0,000000000e+00
      898000000   -3,689938784e-01   -3,420360982e-01   -1,677362807e-02    2,684688754e-02    0,000000000e+00    0,000000000e+00    0,000000000e+00    0,000000000e+00
      912000000   -4,674899578e-01    1,383219212e-01   -1,126866490e-01    2,344137430e-02    0,000000000e+00    0,000000000e+00    0,000000000e+00    0,000000000e+00
      926000000   -9,507230669e-02    3,497004509e-01   -1,270396411e-01    1,332850605e-01    0,000000000e+00    0,000000000e+00    0,000000000e+00    0,000000000e+00
      940000000    1,846382171e-01    1,943941116e-01   -3,824035823e-02    2,163618952e-01    0,000000000e+00    0,000000000e+00    0,000000000e+00    0,000000000e+00
      954000000    2,545595467e-01   -4,930805787e-02    7,987667620e-02    2,282573283e-01    0,000000000e+00    0,000000000e+00    0,000000000e+00    0,000000000e+00
      968000000    1,742611229e-01   -2,606142759e-01    1,915159523e-01    1,796496660e-01    0,000000000e+00    0,000000000e+00    0,000000000e+00    0,000000000e+00
      982000000   -1,463471353e-02   -3,942630291e-01    2,794253826e-01    8,115604520e-02    0,000000000e+00    0,000000000e+00    0,000000000e+00    0,000000000e+00
      996000000   -2,710629702e-01   -3,743090630e-01    3,086942136e-01   -8,062065393e-02    0,000000000e+00    0,000000000e+00    0,000000000e+00    0,000000000e+00
     1010000000   -4,699994624e-01   -1,689268053e-01    2,227569968e-01   -2,531689107e-01    0,000000000e+00    0,000000000e+00    0,000000000e+00    0,000000000e+00
     1024000000   -4,639491439e-01    1,179655716e-01    2,197557315e-02   -3,286049962e-01    0,000000000e+00    0,000000000e+00    0,000000000e+00    0,000000000e+00
     1038000000   -2,668960690e-01    2,972646356e-01   -1,730466932e-01   -2,478761971e-01    0,000000000e+00    0,000000000e+00    0,000000000e+00    0,000000000e+00
     1052000000   -3,634802625e-02    3,106612861e-01   -2,565605044e-01   -7,715663314e-02    0,000000000e+00    0,000000000e+00    0,000000000e+00    0,000000000e+00
     1066000000    1,274798959e-01    2,032968551e-01   -2,219290286e-01    8,615867049e-02    0,000000000e+00    0,000000000e+00    0,000000000e+00    0,000000000e+00
     1080000000    2,042196989e-01    4,800781980e-02   -1,192155108e-01    1,926798970e-01    0,000000000e+00    0,000000000e+00    0,000000000e+00    0,000000000e+00
     1094000000    2,037888765e-01   -1,253480464e-01    1,799236797e-02    2,349619269e-01    0,000000000e+00    0,000000000e+00    0,000000000e+00    0,000000000e+00
     1108000000    1,001723409e-01   -2,838639617e-01    1,697295755e-01    2,058403790e-01    0,000000000e+00    0,000000000e+00    0,000000000e+00    0,000000000e+00
     1122000000   -9,782313555e-02   -3,688457608e-01    3,167706728e-01    9,034799039e-02    0,000000000e+00    0,000000000e+00    0,000000000e+00    0,000000000e+00
     1136000000   -3,438383937e-01   -2,648472190e-01    3,906625807e-01   -1,507303417e-01    0,000000000e+00    0,000000000e+00    0,000000000e+00    0,000000000e+00
     1150000000   -4,080512524e-01    3,894695267e-02    2,452561706e-01   -4,379297495e-01    0,000000000e+00    0,000000000e+00    0,000000000e+00    0,000000000e+00
     1164000000   -1,560907364e-01    2,171623111e-01   -9,211043268e-02   -5,123258829e-01    0,000000000e+00    0,000000000e+00    0,000000000e+00    0,000000000e+00
     1178000000    7,163443416e-02    8,428990841e-02   -3,599655926e-01   -3,452969193e-01    0,000000000e+00    0,000000000e+00    0,000000000e+00    0,000000000e+00
     1192000000    7,693644613e-02   -1,721574217e-01   -4,527574480e-01   -8,291392773e-02    0,000000000e+00    0,000000000e+00    0,000000000e+00    0,000000000e+00
     1206000000   -1,587324142e-01   -3,266402483e-01   -3,653159142e-01    1,865328103e-01    0,000000000e+00    0,000000000e+00    0,000000000e+00    0,000000000e+00
     1220000000   -4,543749392e-01   -1,771253943e-01   -1,061873510e-01    3,287317157e-01    0,000000000e+00    0,000000000e+00    0,000000000e+00    0,000000000e+00
     1234000000   -4,717532992e-01    1,675734222e-01    1,340811253e-01    2,273509800e-01    0,000000000e+00    0,000000000e+00    0,000000000e+00    0,000000000e+00
     1248000000   -2,406830937e-01    3,555387557e-01    1,939919293e-01    3,531201556e-02    0,000000000e+00    0,000000000e+00    0,000000000e+00    0,000000000e+00
     1262000000    2,815284301e-03    3,233465254e-01    1,271562427e-01   -7,552371174e-02    0,000000000e+00    0,000000000e+00    0,000000000e+00    0,000000000e+00
     1276000000    1,566054076e-01    1,981324553e-01    5,623713136e-02   -1,033552811e-01    0,000000000e+00    0,000000000e+00    0,000000000e+00    0,000000000e+00
     1290000000    2,148616910e-01    2,940758690e-02   -7,906091050e-04   -7,873736322e-02    0,000000000e+00    0,000000000e+00    0,000000000e+00    0,000000000e+00
     1304000000    2,060682774e-01   -1,478912979e-01   -1,789869927e-02   -3,310234100e-02    0,000000000e+00    0,000000000e+00    0,000000000e+00    0,000000000e+00
     1318000000    1,148886755e-01   -3,133975863e-01   -4,071873147e-03    2,082799561e-02    0,000000000e+00    0,000000000e+00    0,000000000e+00    0,000000000e+00
     1332000000   -6,816635281e-02   -4,336973131e-01    4,991537333e-02    6,797725707e-02    0,000000000e+00    0,000000000e+00    0,000000000e+00    0,000000000e+00
     1346000000   -3,314659595e-01   -4,317615032e-01    1,436647326e-01    5,362159386e-02    0,000000000e+00    0,000000000e+00    0,000000000e+00    0,000000000e+00
     1360000000   -5,587451458e-01   -2,413963825e-01    1,120018885e-01   -7,347655296e-02    0,000000000e+00    0,000000000e+00    0,000000000e+00    0,000000000e+00
     1374000000   -6,290525794e-01    2,841123939e-02    1,003189608e-01    5,099461600e-02    0,000000000e+00    0,000000000e+00    0,000000000e+00    0,000000000e+00
     1388000000   -5,128433704e-01    2,859450281e-01    2,158420682e-01   -6,846738514e-03    0,000000000e+00    0,000000000e+00    0,000000000e+00    0,000000000e+00
     1402000000   -3,002989292e-01    4,126580060e-01    2,333994359e-01   -8,699574322e-02    0,000000000e+00    0,000000000e+00    0,000000000e+00    0,000000000e+00
     1416000000   -8,967537433e-02    4,247581363e-01    1,973911971e-01   -1,106637418e-01    0,000000000e+00    0,000000000e+00    0,000000000e+00    0,000000000e+00
     1430000000    7,188642770e-02    3,453545868e-01    1,867046207e-01   -1,147092581e-01    0,000000000e+00    0,000000000e+00    0,000000000e+00    0,000000000e+00
     1444000000    1,827652007e-01    1,989709586e-01    1,537273526e-01   -1,073403582e-01    0,000000000e+00    0,000000000e+00    0,000000000e+00    0,000000000e+00
     1458000000    2,212023437e-01    3,591742367e-02    1,442329139e-01   -8,474311978e-02    0,000000000e+00    0,000000000e+00    0,000000000e+00    0,000000000e+00
     1472000000    2,042597085e-01   -1,469122171e-01    1,562246382e-01   -6,462352723e-02    0,000000000e+00    0,000000000e+00    0,000000000e+00    0,000000000e+00
     1486000000    1,070477217e-01   -3,270739913e-01    1,558924913e-01   -1,390010398e-02    0,000000000e+00    0,000000000e+00    0,000000000e+00    0,000000000e+00
     1500000000   -9,002960473e-02   -4,581570923e-01    2,146863937e-01    3,819575161e-02    0,000000000e+00    0,000000000e+00    0,000000000e+00    0,000000000e+00
