! NanoVNA-App
! Date: 2025-09-25 14:22:50
! Start: 100MHz Stop: 1,5GHz Points: 101
! S-Parameter data: F S11 S21 S12 S22
# Hz S RI R 50
!     Frequency           S11_Real           S11_Imag           S21_Real           S21_Imag           S12_Real           S12_Imag           S22_Real           S22_Imag
      100000000   -2,911382914e-02   -4,145799205e-03    3,744850457e-01   -7,221360207e-01    0,000000000e+00    0,000000000e+00    0,000000000e+00    0,000000000e+00
      114000000   -1,661807299e-02    1,161176991e-02   -8,905201405e-02   -8,057366610e-01    0,000000000e+00    0,000000000e+00    0,000000000e+00    0,000000000e+00
      128000000    3,409843659e-03    1,054470055e-02   -5,146394968e-01   -6,210131049e-01    0,000000000e+00    0,000000000e+00    0,000000000e+00    0,000000000e+00
      142000000    1,445664279e-02   -3,041659482e-03   -7,675186992e-01   -2,368948907e-01    0,000000000e+00    0,000000000e+00    0,000000000e+00    0,000000000e+00
      156000000    1,528722979e-02   -1,485865004e-02   -7,720777988e-01    2,215652168e-01    0,000000000e+00    0,000000000e+00    0,000000000e+00    0,000000000e+00
      170000000    1,651925780e-02   -2,251758054e-02   -5,185884833e-01    6,046718359e-01    0,000000000e+00    0,000000000e+00    0,000000000e+00    0,000000000e+00
      184000000    2,098826319e-02   -3,708157688e-02   -1,018863693e-01    7,866390944e-01    0,000000000e+00    0,000000000e+00    0,000000000e+00    0,000000000e+00
      198000000    1,302766334e-02   -6,258241832e-02    3,429185748e-01    7,133669853e-01    0,000000000e+00    0,000000000e+00    0,000000000e+00    0,000000000e+00
      212000000   -1,869626530e-02   -8,160305023e-02    6,784839630e-01    4,104752541e-01    0,000000000e+00    0,000000000e+00    0,000000000e+00    0,000000000e+00
      226000000   -6,197263300e-02   -6,962177157e-02    7,961246371e-01   -2,985991724e-02    0,000000000e+00    0,000000000e+00    0,000000000e+00    0,000000000e+00
      240000000   -8,317599446e-02   -2,608362399e-02    6,472125649e-01   -4,667068422e-01    0,000000000e+00    0,000000000e+00    0,000000000e+00    0,000000000e+00
      254000000   -6,437736005e-02    1,722368971e-02    2,771493793e-01   -7,437115312e-01    0,000000000e+00    0,000000000e+00    0,000000000e+00    0,000000000e+00
      268000000   -2,425372042e-02    2,954421751e-02   -1,770059317e-01   -7,651305795e-01    0,000000000e+00    0,000000000e+00    0,000000000e+00    0,000000000e+00
      282000000    4,192251712e-03    1,206398662e-02   -5,624564290e-01   -5,370208025e-01    0,000000000e+00    0,000000000e+00    0,000000000e+00    0,000000000e+00
      296000000    9,434130974e-03   -7,699029520e-03   -7,608095407e-01   -1,394671798e-01    0,000000000e+00    0,000000000e+00    0,000000000e+00    0,000000000e+00
      310000000    1,094464213e-02   -1,597634330e-02   -7,130006552e-01    2,969336510e-01    0,000000000e+00    0,000000000e+00    0,000000000e+00    0,000000000e+00
      324000000    1,960871927e-02   -2,662393264e-02   -4,272266626e-01    6,381760836e-01    0,000000000e+00    0,000000000e+00    0,000000000e+00    0,000000000e+00
      338000000    2,539086528e-02   -5,175593868e-02   -7,859068923e-03    7,607255578e-01    0,000000000e+00    0,000000000e+00    0,000000000e+00    0,000000000e+00
      352000000    7,431405596e-03   -8,498837054e-02    4,059929550e-01    6,400765181e-01    0,000000000e+00    0,000000000e+00    0,000000000e+00    0,000000000e+00
      366000000   -3,478722274e-02   -9,615901858e-02    6,911813021e-01    3,119580448e-01    0,000000000e+00    0,000000000e+00    0,000000000e+00    0,000000000e+00
      380000000   -7,158225775e-02   -7,129350305e-02    7,482711673e-01   -1,246115789e-01    0,000000000e+00    0,000000000e+00    0,000000000e+00    0,000000000e+00
      394000000   -7,308657467e-02   -3,251615167e-02    5,472648144e-01   -5,210430622e-01    0,000000000e+00    0,000000000e+00    0,000000000e+00    0,000000000e+00
      408000000   -4,710752890e-02   -1,539317705e-02    1,627080441e-01   -7,324764132e-01    0,000000000e+00    0,000000000e+00    0,000000000e+00    0,000000000e+00
      422000000   -2,840570360e-02   -3,147370368e-02   -2,677087784e-01   -6,964880824e-01    0,000000000e+00    0,000000000e+00    0,000000000e+00    0,000000000e+00
      436000000   -4,028617218e-02   -5,211989954e-02   -6,024765372e-01   -4,335508645e-01    0,000000000e+00    0,000000000e+00    0,000000000e+00    0,000000000e+00
      450000000   -6,771676242e-02   -4,468717426e-02   -7,398985028e-01   -2,488777973e-02    0,000000000e+00    0,000000000e+00    0,000000000e+00    0,000000000e+00
      464000000   -7,415809482e-02   -1,254273765e-02   -6,218573451e-01    3,945695758e-01    0,000000000e+00    0,000000000e+00    0,000000000e+00    0,000000000e+00
      478000000   -4,890980199e-02    1,155169774e-02   -2,862821221e-01    6,676023602e-01    0,000000000e+00    0,000000000e+00    0,000000000e+00    0,000000000e+00
      492000000   -1,689076051e-02    6,402853411e-03    1,345479637e-01    7,045462728e-01    0,000000000e+00    0,000000000e+00    0,000000000e+00    0,000000000e+00
      506000000   -3,647614270e-03   -1,503801253e-02    4,979138672e-01    5,069712400e-01    0,000000000e+00    0,000000000e+00    0,000000000e+00    0,000000000e+00
      520000000   -5,560424645e-03   -2,932953835e-02    6,891976595e-01    1,450160891e-01    0,000000000e+00    0,000000000e+00    0,000000000e+00    0,000000000e+00
      534000000   -3,120891517e-03   -3,602961451e-02    6,447908878e-01   -2,603202462e-01    0,000000000e+00    0,000000000e+00    0,000000000e+00    0,000000000e+00
      548000000    8,420237340e-03   -5,267894641e-02    3,856215477e-01   -5,641050935e-01    0,000000000e+00    0,000000000e+00    0,000000000e+00    0,000000000e+00
      562000000    5,640402902e-03   -8,960695565e-02    8,410493843e-03   -6,718446612e-01    0,000000000e+00    0,000000000e+00    0,000000000e+00    0,000000000e+00
      576000000   -3,096950427e-02   -1,261498034e-01   -3,615925908e-01   -5,612263680e-01    0,000000000e+00    0,000000000e+00    0,000000000e+00    0,000000000e+00
      590000000   -9,488546848e-02   -1,276809424e-01   -6,181576848e-01   -2,723653615e-01    0,000000000e+00    0,000000000e+00    0,000000000e+00    0,000000000e+00
      604000000   -1,433667541e-01   -7,787217200e-02   -6,675949097e-01    1,264278293e-01    0,000000000e+00    0,000000000e+00    0,000000000e+00    0,000000000e+00
      618000000   -1,375727803e-01   -1,157729980e-02   -4,756089747e-01    4,852677882e-01    0,000000000e+00    0,000000000e+00    0,000000000e+00    0,000000000e+00
      632000000   -9,360166639e-02    2,179432847e-02   -1,147335172e-01    6,629424095e-01    0,000000000e+00    0,000000000e+00    0,000000000e+00    0,000000000e+00
      646000000   -5,497844517e-02    1,250896510e-02    2,738679945e-01    6,028137207e-01    0,000000000e+00    0,000000000e+00    0,000000000e+00    0,000000000e+00
      660000000   -4,830499738e-02   -7,999086753e-03    5,580376983e-01    3,405032158e-01    0,000000000e+00    0,000000000e+00    0,000000000e+00    0,000000000e+00
      674000000   -5,547693372e-02   -1,059937198e-02    6,442744136e-01   -3,985120729e-02    0,000000000e+00    0,000000000e+00    0,000000000e+00    0,000000000e+00
      688000000   -5,019567907e-02    3,557775868e-03    4,933503568e-01   -4,018149376e-01    0,000000000e+00    0,000000000e+00    0,000000000e+00    0,000000000e+00
      702000000   -2,685737237e-02    7,518425584e-03    1,671251804e-01   -6,024468541e-01    0,000000000e+00    0,000000000e+00    0,000000000e+00    0,000000000e+00
      716000000   -2,703765174e-03   -9,486525320e-03   -2,182685435e-01   -5,756055713e-01    0,000000000e+00    0,000000000e+00    0,000000000e+00    0,000000000e+00
      730000000    9,376935661e-03   -3,410852700e-02   -5,090736151e-01   -3,337312341e-01    0,000000000e+00    0,000000000e+00    0,000000000e+00    0,000000000e+00
      744000000    1,622425392e-02   -6,100176647e-02   -6,007916927e-01    3,316810355e-02    0,000000000e+00    0,000000000e+00    0,000000000e+00    0,000000000e+00
      758000000    2,211383730e-02   -1,029737145e-01   -4,544941187e-01    3,770091236e-01    0,000000000e+00    0,000000000e+00    0,000000000e+00    0,000000000e+00
      772000000   -5,331124179e-03   -1,732355654e-01   -1,391783059e-01    5,575194359e-01    0,000000000e+00    0,000000000e+00    0,000000000e+00    0,000000000e+00
      786000000   -1,049726754e-01   -2,321299762e-01    2,109388113e-01    5,192683935e-01    0,000000000e+00    0,000000000e+00    0,000000000e+00    0,000000000e+00
      800000000   -2,661866844e-01   -1,921800673e-01    4,717563391e-01    2,750350237e-01    0,000000000e+00    0,000000000e+00    0,000000000e+00    0,000000000e+00
      814000000   -3,650077879e-01    3,865124658e-03    5,079118609e-01   -8,846883476e-02    0,000000000e+00    0,000000000e+00    0,000000000e+00    0,000000000e+00
      828000000   -2,472361922e-01    2,328759730e-01    2,808565795e-01   -3,530409038e-01    0,000000000e+00    0,000000000e+00    0,000000000e+00    0,000000000e+00
      842000000    1,236803550e-02    2,778374255e-01   -1,567143947e-02   -3,632211983e-01    0,000000000e+00    0,000000000e+00    0,000000000e+00    0,000000000e+00
      856000000    2,121481597e-01    1,153463349e-01   -1,881504208e-01   -2,046752721e-01    0,000000000e+00    0,000000000e+00    0,000000000e+00    0,000000000e+00
      870000000    2,393652797e-01   -1,486861408e-01   -2,005308568e-01   -2,545923553e-02    0,000000000e+00    0,000000000e+00    0,000000000e+00    0,000000000e+00
      884000000    3,766107187e-02   -3,867977262e-01   -1,037022322e-01    7,141990960e-02    0,000000000e+00    0,000000000e+00    0,000000000e+00    0,000000000e+00
      898000000   -3,702047765e-01   -3,409164846e-01   -1,711927913e-02    2,784164995e-02    0,000000000e+00    0,000000000e+00    0,000000000e+00    0,000000000e+00
      912000000   -4,666783810e-01    1,377399862e-01   -1,143392175e-01    2,136111259e-02    0,000000000e+00    0,000000000e+00    0,000000000e+00    0,000000000e+00
      926000000   -9,453122318e-02    3,502761424e-01   -1,276759356e-01    1,327322572e-01    0,000000000e+00    0,000000000e+00    0,000000000e+00    0,000000000e+00
      940000000    1,865602285e-01    1,944130957e-01   -3,828275204e-02    2,161852419e-01    0,000000000e+00    0,000000000e+00    0,000000000e+00    0,000000000e+00
      954000000    2,552236617e-01   -4,534566775e-02    8,018881828e-02    2,264569253e-01    0,000000000e+00    0,000000000e+00    0,000000000e+00    0,000000000e+00
      968000000    1,772130877e-01   -2,645440996e-01    1,920598745e-01    1,808830798e-01    0,000000000e+00    0,000000000e+00    0,000000000e+00    0,000000000e+00
      982000000   -1,385490783e-02   -3,940635324e-01    2,799880505e-01    7,940497994e-02    0,000000000e+00    0,000000000e+00    0,000000000e+00    0,000000000e+00
      996000000   -2,771194279e-01   -3,765445650e-01    3,098058105e-01   -8,092624694e-02    0,000000000e+00    0,000000000e+00    0,000000000e+00    0,000000000e+00
     1010000000   -4,682926238e-01   -1,703210920e-01    2,214287668e-01   -2,531417906e-01    0,000000000e+00    0,000000000e+00    0,000000000e+00    0,000000000e+00
     1024000000   -4,598776102e-01    1,206343845e-01    2,167199925e-02   -3,320574760e-01    0,000000000e+00    0,000000000e+00    0,000000000e+00    0,000000000e+00
     1038000000   -2,669061720e-01    3,015009165e-01   -1,749896705e-01   -2,473586351e-01    0,000000000e+00    0,000000000e+00    0,000000000e+00    0,000000000e+00
     1052000000   -3,409123048e-02    3,067305386e-01   -2,568306923e-01   -7,736722380e-02    0,000000000e+00    0,000000000e+00    0,000000000e+00    0,000000000e+00
     1066000000    1,239904240e-01    2,044878155e-01   -2,256565094e-01    8,310714364e-02    0,000000000e+00    0,000000000e+00    0,000000000e+00    0,000000000e+00
     1080000000    2,072461993e-01    4,881948978e-02   -1,232763380e-01    1,923105568e-01    0,000000000e+00    0,000000000e+00    0,000000000e+00    0,000000000e+00
     1094000000    2,003445476e-01   -1,247627884e-01    1,730966009e-02    2,335079461e-01    0,000000000e+00    0,000000000e+00    0,000000000e+00    0,000000000e+00
     1108000000    1,000753120e-01   -2,888116539e-01    1,692600846e-01    2,092874646e-01    0,000000000e+00    0,000000000e+00    0,000000000e+00    0,000000000e+00
     1122000000   -1,015565246e-01   -3,661634028e-01    3,153222799e-01    9,069582075e-02    0,000000000e+00    0,000000000e+00    0,000000000e+00    0,000000000e+00
     1136000000   -3,411299586e-01   -2,684182525e-01    3,932976425e-01   -1,516173780e-01    0,000000000e+00    0,000000000e+00    0,000000000e+00    0,000000000e+00
     1150000000   -4,093708694e-01    3,133810684e-02    2,441424876e-01   -4,357595146e-01    0,000000000e+00    0,000000000e+00    0,000000000e+00    0,000000000e+00
     1164000000   -1,566238254e-01    2,150800675e-01   -9,410425276e-02   -5,129015446e-01    0,000000000e+00    0,000000000e+00    0,000000000e+00    0,000000000e+00
     1178000000    7,486945391e-02    8,195744455e-02   -3,579104841e-01   -3,467259705e-01    0,000000000e+00    0,000000000e+00    0,000000000e+00    0,000000000e+00
     1192000000    7,664977014e-02   -1,752091497e-01   -4,521890581e-01   -8,480338007e-02    0,000000000e+00    0,000000000e+00    0,000000000e+00    0,000000000e+00
     1206000000   -1,641677916e-01   -3,289242387e-01   -3,684476316e-01    1,846418679e-01    0,000000000e+00    0,000000000e+00    0,000000000e+00    0,000000000e+00
     1220000000   -4,541763663e-01   -1,790312976e-01   -1,083083525e-01    3,273701370e-01    0,000000000e+00    0,000000000e+00    0,000000000e+00    0,000000000e+00
     1234000000   -4,658210576e-01    1,671428978e-01    1,406282634e-01    2,215491235e-01    0,000000000e+00    0,000000000e+00    0,000000000e+00    0,000000000e+00
     1248000000   -2,376611829e-01    3,570657372e-01    1,868445277e-01    3,502029926e-02    0,000000000e+00    0,000000000e+00    0,000000000e+00    0,000000000e+00
     1262000000    1,561562676e-04    3,225382566e-01    1,265232861e-01   -7,346725464e-02    0,000000000e+00    0,000000000e+00    0,000000000e+00    0,000000000e+00
     1276000000    1,566296220e-01    2,011911869e-01    5,426049232e-02   -9,403156489e-02    0,000000000e+00    0,000000000e+00    0,000000000e+00    0,000000000e+00
     1290000000    2,176308781e-01    2,819463052e-02    5,307729589e-04   -7,651960850e-02    0,000000000e+00    0,000000000e+00    0,000000000e+00    0,000000000e+00
     1304000000    2,041672021e-01   -1,452762783e-01   -1,917165704e-02   -3,214403987e-02    0,000000000e+00    0,000000000e+00    0,000000000e+00    0,000000000e+00
     1318000000    1,140816137e-01   -3,088037968e-01   -2,103891224e-03    2,501549572e-02    0,000000000e+00    0,000000000e+00    0,000000000e+00    0,000000000e+00
     1332000000   -6,882005930e-02   -4,318882525e-01    4,855339229e-02    5,564704537e-02    0,000000000e+00    0,000000000e+00    0,000000000e+00    0,000000000e+00
     1346000000   -3,292330801e-01   -4,347094595e-01    1,529017538e-01    3,752040863e-02    0,000000000e+00    0,000000000e+00    0,000000000e+00    0,000000000e+00
     1360000000   -5,562093258e-01   -2,401063740e-01    1,090011150e-01   -8,016826212e-02    0,000000000e+00    0,000000000e+00    0,000000000e+00    0,000000000e+00
     1374000000   -6,163600087e-01    3,489034623e-02    1,130145416e-01    6,124670431e-02    0,000000000e+00    0,000000000e+00    0,000000000e+00    0,000000000e+00
     1388000000   -5,159004927e-01    2,986455858e-01    2,197042406e-01    1,830550656e-02    0,000000000e+00    0,000000000e+00    0,000000000e+00    0,000000000e+00
     1402000000   -3,009287119e-01    4,179062247e-01    2,301050723e-01   -8,569434285e-02    0,000000000e+00    0,000000000e+00    0,000000000e+00    0,000000000e+00
     1416000000   -9,938213229e-02    4,182296991e-01    1,885568500e-01   -1,259839833e-01    0,000000000e+00    0,000000000e+00    0,000000000e+00    0,000000000e+00
     1430000000    6,676618010e-02    3,371145129e-01    1,852630973e-01   -9,794886410e-02    0,000000000e+00    0,000000000e+00    0,000000000e+00    0,000000000e+00
     1444000000    1,807262152e-01    2,049316168e-01    1,648189873e-01   -1,015259698e-01    0,000000000e+00    0,000000000e+00    0,000000000e+00    0,000000000e+00
     1458000000    2,228179872e-01    3,760379180e-02    1,476495266e-01   -7,750944048e-02    0,000000000e+00    0,000000000e+00    0,000000000e+00    0,000000000e+00
     1472000000    2,067616284e-01   -1,425246894e-01    1,478987038e-01   -5,666705966e-02    0,000000000e+00    0,000000000e+00    0,000000000e+00    0,000000000e+00
     1486000000    1,071643382e-01   -3,228549659e-01    1,695281118e-01   -1,457825769e-02    0,000000000e+00    0,000000000e+00    0,000000000e+00    0,000000000e+00
     1500000000   -9,187433124e-02   -4,553847611e-01    2,243617028e-01    6,524883211e-02    0,000000000e+00    0,000000000e+00    0,000000000e+00    0,000000000e+00
