! NanoVNA-App
! Date: 2025-09-25 14:27:33
! Start: 100MHz Stop: 1,5GHz Points: 101
! S-Parameter data: F S11 S21 S12 S22
# Hz S RI R 50
!     Frequency           S11_Real           S11_Imag           S21_Real           S21_Imag           S12_Real           S12_Imag           S22_Real           S22_Imag
      100000000   -2,910660207e-02   -4,138499964e-03    3,745736182e-01   -7,219852805e-01    0,000000000e+00    0,000000000e+00    0,000000000e+00    0,000000000e+00
      114000000   -1,661106385e-02    1,162425429e-02   -8,872953057e-02   -8,059653640e-01    0,000000000e+00    0,000000000e+00    0,000000000e+00    0,000000000e+00
      128000000    3,425651696e-03    1,052832697e-02   -5,146041512e-01   -6,210896373e-01    0,000000000e+00    0,000000000e+00    0,000000000e+00    0,000000000e+00
      142000000    1,443977375e-02   -3,081901697e-03   -7,673974633e-01   -2,369403988e-01    0,000000000e+00    0,000000000e+00    0,000000000e+00    0,000000000e+00
      156000000    1,491691917e-02   -1,498423796e-02   -7,698863745e-01    2,196074724e-01    0,000000000e+00    0,000000000e+00    0,000000000e+00    0,000000000e+00
      170000000    1,650007255e-02   -2,252591215e-02   -5,187902451e-01    6,050508022e-01    0,000000000e+00    0,000000000e+00    0,000000000e+00    0,000000000e+00
      184000000    2,099890448e-02   -3,706790134e-02   -1,019464210e-01    7,865901589e-01    0,000000000e+00    0,000000000e+00    0,000000000e+00    0,000000000e+00
      198000000    1,316245832e-02   -6,262286752e-02    3,428892791e-01    7,131603360e-01    0,000000000e+00    0,000000000e+00    0,000000000e+00    0,000000000e+00
      212000000   -1,874127798e-02   -8,170652390e-02    6,784714460e-01    4,106704295e-01    0,000000000e+00    0,000000000e+00    0,000000000e+00    0,000000000e+00
      226000000   -6,205299124e-02   -6,970025599e-02    7,960872054e-01   -2,968865633e-02    0,000000000e+00    0,000000000e+00    0,000000000e+00    0,000000000e+00
      240000000   -8,329413086e-02   -2,604866959e-02    6,471140385e-01   -4,668073952e-01    0,000000000e+00    0,000000000e+00    0,000000000e+00    0,000000000e+00
      254000000   -6,437655538e-02    1,750204340e-02    2,768620253e-01   -7,431963682e-01    0,000000000e+00    0,000000000e+00    0,000000000e+00    0,000000000e+00
      268000000   -2,403206192e-02    2,949554846e-02   -1,767557114e-01   -7,648559809e-01    0,000000000e+00    0,000000000e+00    0,000000000e+00    0,000000000e+00
      282000000    4,225950222e-03    1,206069998e-02   -5,624406338e-01   -5,372018814e-01    0,000000000e+00    0,000000000e+00    0,000000000e+00    0,000000000e+00
      296000000    9,633346461e-03   -7,761504967e-03   -7,607619762e-01   -1,394215524e-01    0,000000000e+00    0,000000000e+00    0,000000000e+00    0,000000000e+00
      310000000    1,084360387e-02   -1,602628082e-02   -7,131475806e-01    2,965590060e-01    0,000000000e+00    0,000000000e+00    0,000000000e+00    0,000000000e+00
      324000000    1,937237009e-02   -2,643586695e-02   -4,286693931e-01    6,378464103e-01    0,000000000e+00    0,000000000e+00    0,000000000e+00    0,000000000e+00
      338000000    2,542270720e-02   -5,205522478e-02   -7,894040085e-03    7,614204884e-01    0,000000000e+00    0,000000000e+00    0,000000000e+00    0,000000000e+00
      352000000    7,223333232e-03   -8,473785967e-02    4,055436552e-01    6,406686902e-01    0,000000000e+00    0,000000000e+00    0,000000000e+00    0,000000000e+00
      366000000   -3,485553339e-02   -9,601211548e-02    6,904538870e-01    3,128880262e-01    0,000000000e+00    0,000000000e+00    0,000000000e+00    0,000000000e+00
      380000000   -7,130625844e-02   -7,137823105e-02    7,486177087e-01   -1,250246763e-01    0,000000000e+00    0,000000000e+00    0,000000000e+00    0,000000000e+00
      394000000   -7,339992374e-02   -3,225057572e-02    5,470733643e-01   -5,208140612e-01    0,000000000e+00    0,000000000e+00    0,000000000e+00    0,000000000e+00
      408000000   -4,677329212e-02   -1,552825235e-02    1,640278399e-01   -7,323948145e-01    0,000000000e+00    0,000000000e+00    0,000000000e+00    0,000000000e+00
      422000000   -2,829067409e-02   -3,151560947e-02   -2,655142248e-01   -6,960411668e-01    0,000000000e+00    0,000000000e+00    0,000000000e+00    0,000000000e+00
      436000000   -4,029612616e-02   -5,179832503e-02   -6,030181646e-01   -4,340571463e-01    0,000000000e+00    0,000000000e+00    0,000000000e+00    0,000000000e+00
      450000000   -6,783705950e-02   -4,473453760e-02   -7,404799461e-01   -2,513907105e-02    0,000000000e+00    0,000000000e+00    0,000000000e+00    0,000000000e+00
      464000000   -7,457312196e-02   -1,236413606e-02   -6,214680076e-01    3,944060802e-01    0,000000000e+00    0,000000000e+00    0,000000000e+00    0,000000000e+00
      478000000   -4,955996946e-02    1,199146453e-02   -2,863316238e-01    6,668588519e-01    0,000000000e+00    0,000000000e+00    0,000000000e+00    0,000000000e+00
      492000000   -1,729379408e-02    6,341580302e-03    1,331115514e-01    7,038500905e-01    0,000000000e+00    0,000000000e+00    0,000000000e+00    0,000000000e+00
      506000000   -3,716209903e-03   -1,487353351e-02    4,978410304e-01    5,062332153e-01    0,000000000e+00    0,000000000e+00    0,000000000e+00    0,000000000e+00
      520000000   -5,911762826e-03   -2,961616591e-02    6,898475289e-01    1,441108733e-01    0,000000000e+00    0,000000000e+00    0,000000000e+00    0,000000000e+00
      534000000   -3,179214196e-03   -3,602458537e-02    6,454739571e-01   -2,600140572e-01    0,000000000e+00    0,000000000e+00    0,000000000e+00    0,000000000e+00
      548000000    7,913140580e-03   -5,243173987e-02    3,847772479e-01   -5,631398559e-01    0,000000000e+00    0,000000000e+00    0,000000000e+00    0,000000000e+00
      562000000    5,886670202e-03   -8,950749785e-02    8,804754354e-03   -6,725912094e-01    0,000000000e+00    0,000000000e+00    0,000000000e+00    0,000000000e+00
      576000000   -3,153166175e-02   -1,261505932e-01   -3,623941541e-01   -5,610946417e-01    0,000000000e+00    0,000000000e+00    0,000000000e+00    0,000000000e+00
      590000000   -9,502979368e-02   -1,276534200e-01   -6,151987314e-01   -2,727008164e-01    0,000000000e+00    0,000000000e+00    0,000000000e+00    0,000000000e+00
      604000000   -1,431421489e-01   -7,774025202e-02   -6,672567129e-01    1,264679581e-01    0,000000000e+00    0,000000000e+00    0,000000000e+00    0,000000000e+00
      618000000   -1,382984519e-01   -1,093488093e-02   -4,750546515e-01    4,862936139e-01    0,000000000e+00    0,000000000e+00    0,000000000e+00    0,000000000e+00
      632000000   -9,276144207e-02    2,172712609e-02   -1,143029109e-01    6,636650562e-01    0,000000000e+00    0,000000000e+00    0,000000000e+00    0,000000000e+00
      646000000   -5,465225130e-02    1,213499624e-02    2,735006511e-01    6,033778191e-01    0,000000000e+00    0,000000000e+00    0,000000000e+00    0,000000000e+00
      660000000   -4,807375744e-02   -9,638132527e-03    5,582414269e-01    3,396364152e-01    0,000000000e+00    0,000000000e+00    0,000000000e+00    0,000000000e+00
      674000000   -5,574216694e-02   -9,977691807e-03    6,445592642e-01   -3,971114382e-02    0,000000000e+00    0,000000000e+00    0,000000000e+00    0,000000000e+00
      688000000   -5,054530129e-02    3,392616287e-03    4,933062196e-01   -4,022686183e-01    0,000000000e+00    0,000000000e+00    0,000000000e+00    0,000000000e+00
      702000000   -2,667774074e-02    7,362597622e-03    1,655947119e-01   -6,001056433e-01    0,000000000e+00    0,000000000e+00    0,000000000e+00    0,000000000e+00
      716000000   -1,155458391e-03   -9,043406695e-03   -2,185759395e-01   -5,753277540e-01    0,000000000e+00    0,000000000e+00    0,000000000e+00    0,000000000e+00
      730000000    9,284946136e-03   -3,509647772e-02   -5,088083148e-01   -3,338119686e-01    0,000000000e+00    0,000000000e+00    0,000000000e+00    0,000000000e+00
      744000000    1,670386828e-02   -6,029918045e-02   -6,010755301e-01    3,300963715e-02    0,000000000e+00    0,000000000e+00    0,000000000e+00    0,000000000e+00
      758000000    2,258074284e-02   -1,032427698e-01   -4,544256628e-01    3,767067194e-01    0,000000000e+00    0,000000000e+00    0,000000000e+00    0,000000000e+00
      772000000   -4,434008617e-03   -1,734372079e-01   -1,397819370e-01    5,582487583e-01    0,000000000e+00    0,000000000e+00    0,000000000e+00    0,000000000e+00
      786000000   -1,055339053e-01   -2,331823260e-01    2,120429575e-01    5,196014047e-01    0,000000000e+00    0,000000000e+00    0,000000000e+00    0,000000000e+00
      800000000   -2,664859593e-01   -1,925562322e-01    4,715706110e-01    2,759296000e-01    0,000000000e+00    0,000000000e+00    0,000000000e+00    0,000000000e+00
      814000000   -3,650291264e-01    3,285978688e-03    5,084488988e-01   -8,822558820e-02    0,000000000e+00    0,000000000e+00    0,000000000e+00    0,000000000e+00
      828000000   -2,476131320e-01    2,338929027e-01    2,805608809e-01   -3,512033224e-01    0,000000000e+00    0,000000000e+00    0,000000000e+00    0,000000000e+00
      842000000    1,261559129e-02    2,783980370e-01   -1,596277021e-02   -3,626223207e-01    0,000000000e+00    0,000000000e+00    0,000000000e+00    0,000000000e+00
      856000000    2,129993886e-01    1,152403355e-01   -1,883268207e-01   -2,052025646e-01    0,000000000e+00    0,000000000e+00    0,000000000e+00    0,000000000e+00
      870000000    2,392273247e-01   -1,489241421e-01   -2,000693232e-01   -2,621268108e-02    0,000000000e+00    0,000000000e+00    0,000000000e+00    0,000000000e+00
      884000000    3,777337819e-02   -3,866948783e-01   -1,034012511e-01    7,107371837e-02    0,000000000e+00    0,000000000e+00    0,000000000e+00    0,000000000e+00
      898000000   -3,688307106e-01   -3,415997326e-01   -1,656862907e-02    2,795513161e-02    0,000000000e+00    0,000000000e+00    0,000000000e+00    0,000000000e+00
      912000000   -4,669746161e-01    1,373228878e-01   -1,100797802e-01    3,981566802e-02    0,000000000e+00    0,000000000e+00    0,000000000e+00    0,000000000e+00
      926000000   -9,588763118e-02    3,531982601e-01   -1,294724941e-01    1,355923265e-01    0,000000000e+00    0,000000000e+00    0,000000000e+00    0,000000000e+00
      940000000    1,858801693e-01    1,948986501e-01   -3,867273778e-02    2,158221453e-01    0,000000000e+00    0,000000000e+00    0,000000000e+00    0,000000000e+00
      954000000    2,550478578e-01   -5,035486445e-02    7,947827131e-02    2,271825224e-01    0,000000000e+00    0,000000000e+00    0,000000000e+00    0,000000000e+00
      968000000    1,736518592e-01   -2,618281841e-01    1,900331825e-01    1,804853231e-01    0,000000000e+00    0,000000000e+00    0,000000000e+00    0,000000000e+00
      982000000   -1,498017926e-02   -3,919754028e-01    2,792610228e-01    7,913023978e-02    0,000000000e+00    0,000000000e+00    0,000000000e+00    0,000000000e+00
      996000000   -2,741180956e-01   -3,789855242e-01    3,086881340e-01   -7,771030068e-02    0,000000000e+00    0,000000000e+00    0,000000000e+00    0,000000000e+00
     1010000000   -4,658612609e-01   -1,720050424e-01    2,207380682e-01   -2,524926662e-01    0,000000000e+00    0,000000000e+00    0,000000000e+00    0,000000000e+00
     1024000000   -4,632570148e-01    1,139996201e-01    2,135157958e-02   -3,290210664e-01    0,000000000e+00    0,000000000e+00    0,000000000e+00    0,000000000e+00
     1038000000   -2,642904222e-01    2,958590686e-01   -1,725107580e-01   -2,469921559e-01    0,000000000e+00    0,000000000e+00    0,000000000e+00    0,000000000e+00
     1052000000   -3,599113971e-02    3,049490750e-01   -2,569399774e-01   -7,727710158e-02    0,000000000e+00    0,000000000e+00    0,000000000e+00    0,000000000e+00
     1066000000    1,246104538e-01    2,079790533e-01   -2,268846780e-01    8,404398710e-02    0,000000000e+00    0,000000000e+00    0,000000000e+00    0,000000000e+00
     1080000000    2,062467337e-01    4,390206188e-02   -1,205656007e-01    1,953287870e-01    0,000000000e+00    0,000000000e+00    0,000000000e+00    0,000000000e+00
     1094000000    2,024356872e-01   -1,312974840e-01    1,944347844e-02    2,340398729e-01    0,000000000e+00    0,000000000e+00    0,000000000e+00    0,000000000e+00
     1108000000    9,758733213e-02   -2,877295613e-01    1,685480028e-01    2,069326639e-01    0,000000000e+00    0,000000000e+00    0,000000000e+00    0,000000000e+00
     1122000000   -9,726796299e-02   -3,667618632e-01    3,154962957e-01    8,949857950e-02    0,000000000e+00    0,000000000e+00    0,000000000e+00    0,000000000e+00
     1136000000   -3,433512151e-01   -2,648923993e-01    3,901076317e-01   -1,514252573e-01    0,000000000e+00    0,000000000e+00    0,000000000e+00    0,000000000e+00
     1150000000   -4,100330472e-01    4,055635259e-02    2,476365864e-01   -4,373950362e-01    0,000000000e+00    0,000000000e+00    0,000000000e+00    0,000000000e+00
     1164000000   -1,558668315e-01    2,161019892e-01   -9,524715692e-02   -5,121735930e-01    0,000000000e+00    0,000000000e+00    0,000000000e+00    0,000000000e+00
     1178000000    7,759552449e-02    8,592496812e-02   -3,540662229e-01   -3,457648456e-01    0,000000000e+00    0,000000000e+00    0,000000000e+00    0,000000000e+00
     1192000000    7,313304394e-02   -1,723667085e-01   -4,552462399e-01   -8,488661796e-02    0,000000000e+00    0,000000000e+00    0,000000000e+00    0,000000000e+00
     1206000000   -1,653317809e-01   -3,268399239e-01   -3,711690903e-01    1,874646842e-01    0,000000000e+00    0,000000000e+00    0,000000000e+00    0,000000000e+00
     1220000000   -4,579265416e-01   -1,769279093e-01   -1,082106307e-01    3,268181682e-01    0,000000000e+00    0,000000000e+00    0,000000000e+00    0,000000000e+00
     1234000000   -4,776571095e-01    1,639535278e-01    1,403928399e-01    2,204928696e-01    0,000000000e+00    0,000000000e+00    0,000000000e+00    0,000000000e+00
     1248000000   -2,336849123e-01    3,619199991e-01    1,918943375e-01    3,830189630e-02    0,000000000e+00    0,000000000e+00    0,000000000e+00    0,000000000e+00
     1262000000    8,178864606e-03    3,258752525e-01    1,300269067e-01   -7,460101694e-02    0,000000000e+00    0,000000000e+00    0,000000000e+00    0,000000000e+00
     1276000000    1,598168314e-01    2,010217458e-01    5,358472094e-02   -9,620608389e-02    0,000000000e+00    0,000000000e+00    0,000000000e+00    0,000000000e+00
     1290000000    2,176977545e-01    3,309255093e-02   -1,171135111e-03   -6,983012706e-02    0,000000000e+00    0,000000000e+00    0,000000000e+00    0,000000000e+00
     1304000000    2,084924728e-01   -1,456236839e-01   -1,626680419e-02   -3,408739343e-02    0,000000000e+00    0,000000000e+00    0,000000000e+00    0,000000000e+00
     1318000000    1,150772870e-01   -3,152281046e-01   -4,131653346e-03    1,711134054e-02    0,000000000e+00    0,000000000e+00    0,000000000e+00    0,000000000e+00
     1332000000   -6,670997292e-02   -4,354347587e-01    4,314537719e-02    6,447498500e-02    0,000000000e+00    0,000000000e+00    0,000000000e+00    0,000000000e+00
     1346000000   -3,282971680e-01   -4,396162033e-01    1,388763785e-01    4,166521132e-02    0,000000000e+00    0,000000000e+00    0,000000000e+00    0,000000000e+00
     1360000000   -5,498847961e-01   -2,446771562e-01    1,139582098e-01   -7,148206979e-02    0,000000000e+00    0,000000000e+00    0,000000000e+00    0,000000000e+00
     1374000000   -6,182734370e-01    3,567136452e-02    1,179947183e-01    6,371060014e-02    0,000000000e+00    0,000000000e+00    0,000000000e+00    0,000000000e+00
     1388000000   -5,106806159e-01    2,812970579e-01    2,243377715e-01   -1,109822001e-02    0,000000000e+00    0,000000000e+00    0,000000000e+00    0,000000000e+00
     1402000000   -3,043946028e-01    4,237936437e-01    2,242064774e-01   -8,546569943e-02    0,000000000e+00    0,000000000e+00    0,000000000e+00    0,000000000e+00
     1416000000   -9,019875526e-02    4,211104512e-01    1,971237361e-01   -1,122843921e-01    0,000000000e+00    0,000000000e+00    0,000000000e+00    0,000000000e+00
     1430000000    8,135508746e-02    3,438647985e-01    1,716338396e-01   -1,396145374e-01    0,000000000e+00    0,000000000e+00    0,000000000e+00    0,000000000e+00
     1444000000    1,735979766e-01    2,023878992e-01    1,457241476e-01   -9,896155447e-02    0,000000000e+00    0,000000000e+00    0,000000000e+00    0,000000000e+00
     1458000000    2,257864773e-01    3,911736235e-02    1,527273357e-01   -6,988585740e-02    0,000000000e+00    0,000000000e+00    0,000000000e+00    0,000000000e+00
     1472000000    2,068273723e-01   -1,476536542e-01    1,582614183e-01   -5,250184983e-02    0,000000000e+00    0,000000000e+00    0,000000000e+00    0,000000000e+00
     1486000000    9,998524934e-02   -3,306722343e-01    1,595876217e-01   -1,492494997e-02    0,000000000e+00    0,000000000e+00    0,000000000e+00    0,000000000e+00
     1500000000   -8,546167612e-02   -4,574022293e-01    2,181351930e-01    4,916699603e-02    0,000000000e+00    0,000000000e+00    0,000000000e+00    0,000000000e+00
