! NanoVNA-App
! Date: 2025-09-25 14:23:46
! Start: 100MHz Stop: 1,5GHz Points: 101
! S-Parameter data: F S11 S21 S12 S22
# Hz S RI R 50
!     Frequency           S11_Real           S11_Imag           S21_Real           S21_Imag           S12_Real           S12_Imag           S22_Real           S22_Imag
      100000000   -2,909140475e-02   -4,160141107e-03    3,744243085e-01   -7,219899297e-01    0,000000000e+00    0,000000000e+00    0,000000000e+00    0,000000000e+00
      114000000   -1,664450578e-02    1,160270069e-02   -8,901401609e-02   -8,057758808e-01    0,000000000e+00    0,000000000e+00    0,000000000e+00    0,000000000e+00
      128000000    3,437255509e-03    1,059554331e-02   -5,144741535e-01   -6,207628846e-01    0,000000000e+00    0,000000000e+00    0,000000000e+00    0,000000000e+00
      142000000    1,449213549e-02   -3,013032489e-03   -7,673693895e-01   -2,369047552e-01    0,000000000e+00    0,000000000e+00    0,000000000e+00    0,000000000e+00
      156000000    1,499989722e-02   -1,504526939e-02   -7,677154541e-01    2,224233001e-01    0,000000000e+00    0,000000000e+00    0,000000000e+00    0,000000000e+00
      170000000    1,659150422e-02   -2,252949402e-02   -5,187605023e-01    6,049658060e-01    0,000000000e+00    0,000000000e+00    0,000000000e+00    0,000000000e+00
      184000000    2,099018171e-02   -3,705395013e-02   -1,017770022e-01    7,868056893e-01    0,000000000e+00    0,000000000e+00    0,000000000e+00    0,000000000e+00
      198000000    1,309022121e-02   -6,261185557e-02    3,430233300e-01    7,131018639e-01    0,000000000e+00    0,000000000e+00    0,000000000e+00    0,000000000e+00
      212000000   -1,872638613e-02   -8,162321895e-02    6,785105467e-01    4,105115831e-01    0,000000000e+00    0,000000000e+00    0,000000000e+00    0,000000000e+00
      226000000   -6,204183027e-02   -6,974534690e-02    7,960530519e-01   -2,983590774e-02    0,000000000e+00    0,000000000e+00    0,000000000e+00    0,000000000e+00
      240000000   -8,318913728e-02   -2,612091415e-02    6,471843123e-01   -4,666994214e-01    0,000000000e+00    0,000000000e+00    0,000000000e+00    0,000000000e+00
      254000000   -6,437131017e-02    1,724547707e-02    2,771029472e-01   -7,435196638e-01    0,000000000e+00    0,000000000e+00    0,000000000e+00    0,000000000e+00
      268000000   -2,423313633e-02    2,951757796e-02   -1,773787141e-01   -7,648631930e-01    0,000000000e+00    0,000000000e+00    0,000000000e+00    0,000000000e+00
      282000000    4,092263989e-03    1,206821203e-02   -5,622250438e-01   -5,371432900e-01    0,000000000e+00    0,000000000e+00    0,000000000e+00    0,000000000e+00
      296000000    9,595341980e-03   -7,668850943e-03   -7,606730461e-01   -1,395793408e-01    0,000000000e+00    0,000000000e+00    0,000000000e+00    0,000000000e+00
      310000000    1,087590959e-02   -1,597633585e-02   -7,123073936e-01    2,966859937e-01    0,000000000e+00    0,000000000e+00    0,000000000e+00    0,000000000e+00
      324000000    1,938783377e-02   -2,651802264e-02   -4,286451340e-01    6,373049617e-01    0,000000000e+00    0,000000000e+00    0,000000000e+00    0,000000000e+00
      338000000    2,511900850e-02   -5,202089995e-02   -1,009922661e-02    7,602662444e-01    0,000000000e+00    0,000000000e+00    0,000000000e+00    0,000000000e+00
      352000000    7,402723655e-03   -8,475888520e-02    4,058438241e-01    6,404301524e-01    0,000000000e+00    0,000000000e+00    0,000000000e+00    0,000000000e+00
      366000000   -3,495673090e-02   -9,595942497e-02    6,904060841e-01    3,122103214e-01    0,000000000e+00    0,000000000e+00    0,000000000e+00    0,000000000e+00
      380000000   -7,137797773e-02   -7,105875760e-02    7,485768795e-01   -1,250078827e-01    0,000000000e+00    0,000000000e+00    0,000000000e+00    0,000000000e+00
      394000000   -7,341638207e-02   -3,252842650e-02    5,474272370e-01   -5,216473937e-01    0,000000000e+00    0,000000000e+00    0,000000000e+00    0,000000000e+00
      408000000   -4,683326557e-02   -1,577990502e-02    1,627825052e-01   -7,340989709e-01    0,000000000e+00    0,000000000e+00    0,000000000e+00    0,000000000e+00
      422000000   -2,842489071e-02   -3,120237216e-02   -2,663481534e-01   -6,954638958e-01    0,000000000e+00    0,000000000e+00    0,000000000e+00    0,000000000e+00
      436000000   -4,007970542e-02   -5,224126950e-02   -6,028578877e-01   -4,339472651e-01    0,000000000e+00    0,000000000e+00    0,000000000e+00    0,000000000e+00
      450000000   -6,757308543e-02   -4,459087923e-02   -7,402513623e-01   -2,477188036e-02    0,000000000e+00    0,000000000e+00    0,000000000e+00    0,000000000e+00
      464000000   -7,404275984e-02   -1,248740219e-02   -6,216927171e-01    3,943346441e-01    0,000000000e+00    0,000000000e+00    0,000000000e+00    0,000000000e+00
      478000000   -4,894702509e-02    1,164183300e-02   -2,861518860e-01    6,678926945e-01    0,000000000e+00    0,000000000e+00    0,000000000e+00    0,000000000e+00
      492000000   -1,703664102e-02    6,646891590e-03    1,349736601e-01    7,039073110e-01    0,000000000e+00    0,000000000e+00    0,000000000e+00    0,000000000e+00
      506000000   -3,700217931e-03   -1,465206966e-02    4,975402653e-01    5,059668422e-01    0,000000000e+00    0,000000000e+00    0,000000000e+00    0,000000000e+00
      520000000   -5,950408056e-03   -2,945201285e-02    6,889214516e-01    1,452432722e-01    0,000000000e+00    0,000000000e+00    0,000000000e+00    0,000000000e+00
      534000000   -3,276657546e-03   -3,563558310e-02    6,442048550e-01   -2,594251037e-01    0,000000000e+00    0,000000000e+00    0,000000000e+00    0,000000000e+00
      548000000    8,123234846e-03   -5,241182074e-02    3,850072324e-01   -5,631228685e-01    0,000000000e+00    0,000000000e+00    0,000000000e+00    0,000000000e+00
      562000000    5,626863334e-03   -8,974015713e-02    8,119956590e-03   -6,721194983e-01    0,000000000e+00    0,000000000e+00    0,000000000e+00    0,000000000e+00
      576000000   -3,141350672e-02   -1,264335960e-01   -3,625698388e-01   -5,604515672e-01    0,000000000e+00    0,000000000e+00    0,000000000e+00    0,000000000e+00
      590000000   -9,492254257e-02   -1,275417209e-01   -6,175150275e-01   -2,710079849e-01    0,000000000e+00    0,000000000e+00    0,000000000e+00    0,000000000e+00
      604000000   -1,427987814e-01   -7,812763751e-02   -6,668429971e-01    1,260642558e-01    0,000000000e+00    0,000000000e+00    0,000000000e+00    0,000000000e+00
      618000000   -1,378855109e-01   -1,120813005e-02   -4,751582146e-01    4,852074683e-01    0,000000000e+00    0,000000000e+00    0,000000000e+00    0,000000000e+00
      632000000   -9,339141101e-02    2,120989934e-02   -1,137022972e-01    6,630612612e-01    0,000000000e+00    0,000000000e+00    0,000000000e+00    0,000000000e+00
      646000000   -5,621952936e-02    1,212491747e-02    2,741358578e-01    6,035872102e-01    0,000000000e+00    0,000000000e+00    0,000000000e+00    0,000000000e+00
      660000000   -4,746663570e-02   -8,454301395e-03    5,582646728e-01    3,399558365e-01    0,000000000e+00    0,000000000e+00    0,000000000e+00    0,000000000e+00
      674000000   -5,601510778e-02   -1,052410714e-02    6,440995932e-01   -3,947011009e-02    0,000000000e+00    0,000000000e+00    0,000000000e+00    0,000000000e+00
      688000000   -4,978117347e-02    2,221175935e-03    4,936999679e-01   -4,019838572e-01    0,000000000e+00    0,000000000e+00    0,000000000e+00    0,000000000e+00
      702000000   -2,526217513e-02    7,170402445e-03    1,618489623e-01   -6,057129502e-01    0,000000000e+00    0,000000000e+00    0,000000000e+00    0,000000000e+00
      716000000   -1,414496684e-03   -8,874325082e-03   -2,186978012e-01   -5,746756196e-01    0,000000000e+00    0,000000000e+00    0,000000000e+00    0,000000000e+00
      730000000    9,951169603e-03   -3,396612778e-02   -5,095267296e-01   -3,333137631e-01    0,000000000e+00    0,000000000e+00    0,000000000e+00    0,000000000e+00
      744000000    1,712145656e-02   -6,149088219e-02   -6,009163857e-01    3,286581859e-02    0,000000000e+00    0,000000000e+00    0,000000000e+00    0,000000000e+00
      758000000    2,159593999e-02   -1,032746807e-01   -4,543839693e-01    3,770667315e-01    0,000000000e+00    0,000000000e+00    0,000000000e+00    0,000000000e+00
      772000000   -5,520830397e-03   -1,735670269e-01   -1,389508396e-01    5,578777194e-01    0,000000000e+00    0,000000000e+00    0,000000000e+00    0,000000000e+00
      786000000   -1,055455282e-01   -2,330144942e-01    2,116348445e-01    5,196124315e-01    0,000000000e+00    0,000000000e+00    0,000000000e+00    0,000000000e+00
      800000000   -2,655550838e-01   -1,920017600e-01    4,711295664e-01    2,748259604e-01    0,000000000e+00    0,000000000e+00    0,000000000e+00    0,000000000e+00
      814000000   -3,638004661e-01    2,729866887e-03    5,079271793e-01   -8,793856204e-02    0,000000000e+00    0,000000000e+00    0,000000000e+00    0,000000000e+00
      828000000   -2,482479811e-01    2,336050570e-01    2,819220126e-01   -3,531081676e-01    0,000000000e+00    0,000000000e+00    0,000000000e+00    0,000000000e+00
      842000000    1,277951151e-02    2,776577175e-01   -1,616879739e-02   -3,629678786e-01    0,000000000e+00    0,000000000e+00    0,000000000e+00    0,000000000e+00
      856000000    2,126014531e-01    1,152267084e-01   -1,879792213e-01   -2,051310539e-01    0,000000000e+00    0,000000000e+00    0,000000000e+00    0,000000000e+00
      870000000    2,387018949e-01   -1,483971924e-01   -2,007349879e-01   -2,595386468e-02    0,000000000e+00    0,000000000e+00    0,000000000e+00    0,000000000e+00
      884000000    3,721557558e-02   -3,860934079e-01   -1,033559516e-01    7,083576918e-02    0,000000000e+00    0,000000000e+00    0,000000000e+00    0,000000000e+00
      898000000   -3,697834313e-01   -3,414518535e-01   -1,680395566e-02    2,810551971e-02    0,000000000e+00    0,000000000e+00    0,000000000e+00    0,000000000e+00
      912000000   -4,668868780e-01    1,382348686e-01   -1,209601164e-01    2,941250056e-02    0,000000000e+00    0,000000000e+00    0,000000000e+00    0,000000000e+00
      926000000   -9,376197308e-02    3,510712087e-01   -1,264069080e-01    1,366847754e-01    0,000000000e+00    0,000000000e+00    0,000000000e+00    0,000000000e+00
      940000000    1,846238226e-01    1,966796517e-01   -3,792484477e-02    2,168622464e-01    0,000000000e+00    0,000000000e+00    0,000000000e+00    0,000000000e+00
      954000000    2,536978722e-01   -4,516132921e-02    8,040276915e-02    2,272876650e-01    0,000000000e+00    0,000000000e+00    0,000000000e+00    0,000000000e+00
      968000000    1,771422923e-01   -2,639096975e-01    1,916207671e-01    1,796705574e-01    0,000000000e+00    0,000000000e+00    0,000000000e+00    0,000000000e+00
      982000000   -1,858681999e-02   -3,924691975e-01    2,803910375e-01    7,943039387e-02    0,000000000e+00    0,000000000e+00    0,000000000e+00    0,000000000e+00
      996000000   -2,708404958e-01   -3,779608905e-01    3,091665208e-01   -8,026213199e-02    0,000000000e+00    0,000000000e+00    0,000000000e+00    0,000000000e+00
     1010000000   -4,708068967e-01   -1,757703424e-01    2,212943882e-01   -2,511000633e-01    0,000000000e+00    0,000000000e+00    0,000000000e+00    0,000000000e+00
     1024000000   -4,601367414e-01    1,139997989e-01    1,937516592e-02   -3,305134177e-01    0,000000000e+00    0,000000000e+00    0,000000000e+00    0,000000000e+00
     1038000000   -2,683545649e-01    3,022249341e-01   -1,720213741e-01   -2,476739436e-01    0,000000000e+00    0,000000000e+00    0,000000000e+00    0,000000000e+00
     1052000000   -3,495966643e-02    3,069792688e-01   -2,577655911e-01   -7,679994404e-02    0,000000000e+00    0,000000000e+00    0,000000000e+00    0,000000000e+00
     1066000000    1,265167892e-01    2,058603913e-01   -2,258438319e-01    8,533110470e-02    0,000000000e+00    0,000000000e+00    0,000000000e+00    0,000000000e+00
     1080000000    2,092988938e-01    4,666443914e-02   -1,221701279e-01    1,914865822e-01    0,000000000e+00    0,000000000e+00    0,000000000e+00    0,000000000e+00
     1094000000    2,005688101e-01   -1,291273832e-01    1,641570777e-02    2,348821163e-01    0,000000000e+00    0,000000000e+00    0,000000000e+00    0,000000000e+00
     1108000000    9,961083531e-02   -2,831724882e-01    1,699128449e-01    2,067091018e-01    0,000000000e+00    0,000000000e+00    0,000000000e+00    0,000000000e+00
     1122000000   -9,870976955e-02   -3,715344369e-01    3,153190315e-01    8,978869021e-02    0,000000000e+00    0,000000000e+00    0,000000000e+00    0,000000000e+00
     1136000000   -3,434277475e-01   -2,672644258e-01    3,897667825e-01   -1,493537128e-01    0,000000000e+00    0,000000000e+00    0,000000000e+00    0,000000000e+00
     1150000000   -4,073682725e-01    3,362133354e-02    2,451434582e-01   -4,356916845e-01    0,000000000e+00    0,000000000e+00    0,000000000e+00    0,000000000e+00
     1164000000   -1,612803787e-01    2,227470130e-01   -9,375075251e-02   -5,153230429e-01    0,000000000e+00    0,000000000e+00    0,000000000e+00    0,000000000e+00
     1178000000    7,303239405e-02    8,668977767e-02   -3,582838476e-01   -3,467963934e-01    0,000000000e+00    0,000000000e+00    0,000000000e+00    0,000000000e+00
     1192000000    7,342546433e-02   -1,741546243e-01   -4,563675821e-01   -8,332703263e-02    0,000000000e+00    0,000000000e+00    0,000000000e+00    0,000000000e+00
     1206000000   -1,620307118e-01   -3,249483407e-01   -3,649692535e-01    1,917488128e-01    0,000000000e+00    0,000000000e+00    0,000000000e+00    0,000000000e+00
     1220000000   -4,520711601e-01   -1,790021807e-01   -1,026853472e-01    3,256097436e-01    0,000000000e+00    0,000000000e+00    0,000000000e+00    0,000000000e+00
     1234000000   -4,722070992e-01    1,660265774e-01    1,410086304e-01    2,214201391e-01    0,000000000e+00    0,000000000e+00    0,000000000e+00    0,000000000e+00
     1248000000   -2,370277941e-01    3,489175141e-01    1,909668297e-01    3,015554696e-02    0,000000000e+00    0,000000000e+00    0,000000000e+00    0,000000000e+00
     1262000000    5,120237358e-03    3,257977962e-01    1,279768497e-01   -7,635677606e-02    0,000000000e+00    0,000000000e+00    0,000000000e+00    0,000000000e+00
     1276000000    1,579321474e-01    1,947324127e-01    5,508738011e-02   -9,803166986e-02    0,000000000e+00    0,000000000e+00    0,000000000e+00    0,000000000e+00
     1290000000    2,198675573e-01    3,406694531e-02    2,890520263e-03   -7,027518004e-02    0,000000000e+00    0,000000000e+00    0,000000000e+00    0,000000000e+00
     1304000000    2,072406709e-01   -1,449742913e-01   -1,900988631e-02   -2,956526540e-02    0,000000000e+00    0,000000000e+00    0,000000000e+00    0,000000000e+00
     1318000000    1,143772304e-01   -3,121834397e-01   -8,406832814e-03    1,736807637e-02    0,000000000e+00    0,000000000e+00    0,000000000e+00    0,000000000e+00
     1332000000   -6,275680661e-02   -4,330717921e-01    4,772736132e-02    6,153011322e-02    0,000000000e+00    0,000000000e+00    0,000000000e+00    0,000000000e+00
     1346000000   -3,255946636e-01   -4,326845109e-01    1,493243128e-01    4,747714847e-02    0,000000000e+00    0,000000000e+00    0,000000000e+00    0,000000000e+00
     1360000000   -5,508878827e-01   -2,429220229e-01    1,152241826e-01   -7,631900162e-02    0,000000000e+00    0,000000000e+00    0,000000000e+00    0,000000000e+00
     1374000000   -6,285924911e-01    3,224541619e-02    1,007420272e-01    6,046051905e-02    0,000000000e+00    0,000000000e+00    0,000000000e+00    0,000000000e+00
     1388000000   -5,181187987e-01    2,810885310e-01    2,247738093e-01   -2,435737755e-03    0,000000000e+00    0,000000000e+00    0,000000000e+00    0,000000000e+00
     1402000000   -3,055441976e-01    4,236157835e-01    2,251314372e-01   -8,002306521e-02    0,000000000e+00    0,000000000e+00    0,000000000e+00    0,000000000e+00
     1416000000   -9,704901278e-02    4,232240319e-01    1,893240511e-01   -1,071745530e-01    0,000000000e+00    0,000000000e+00    0,000000000e+00    0,000000000e+00
     1430000000    6,882343441e-02    3,279484808e-01    1,438628137e-01   -1,357281059e-01    0,000000000e+00    0,000000000e+00    0,000000000e+00    0,000000000e+00
     1444000000    1,768076122e-01    2,021258026e-01    1,544178277e-01   -9,382056445e-02    0,000000000e+00    0,000000000e+00    0,000000000e+00    0,000000000e+00
     1458000000    2,213961780e-01    3,977882862e-02    1,489806920e-01   -7,536693662e-02    0,000000000e+00    0,000000000e+00    0,000000000e+00    0,000000000e+00
     1472000000    2,055531293e-01   -1,437287927e-01    1,493846476e-01   -4,848418757e-02    0,000000000e+00    0,000000000e+00    0,000000000e+00    0,000000000e+00
     1486000000    1,043547541e-01   -3,296113908e-01    1,795780957e-01    3,681291360e-03    0,000000000e+00    0,000000000e+00    0,000000000e+00    0,000000000e+00
     1500000000   -8,922580630e-02   -4,528505504e-01    2,256789953e-01    7,311033458e-02    0,000000000e+00    0,000000000e+00    0,000000000e+00    0,000000000e+00
