! NanoVNA-App
! Date: 2025-09-25 14:22:21
! Start: 100MHz Stop: 1,5GHz Points: 101
! S-Parameter data: F S11 S21 S12 S22
# Hz S RI R 50
!     Frequency           S11_Real           S11_Imag           S21_Real           S21_Imag           S12_Real           S12_Imag           S22_Real           S22_Imag
      100000000   -2,909351513e-02   -4,140383564e-03    3,744669557e-01   -7,220879793e-01    0,000000000e+00    0,000000000e+00    0,000000000e+00    0,000000000e+00
      114000000   -1,663490012e-02    1,162079070e-02   -8,895378560e-02   -8,058660030e-01    0,000000000e+00    0,000000000e+00    0,000000000e+00    0,000000000e+00
      128000000    3,421304980e-03    1,058006566e-02   -5,146979094e-01   -6,211634278e-01    0,000000000e+00    0,000000000e+00    0,000000000e+00    0,000000000e+00
      142000000    1,445853803e-02   -3,047701670e-03   -7,675130367e-01   -2,369744629e-01    0,000000000e+00    0,000000000e+00    0,000000000e+00    0,000000000e+00
      156000000    1,573538594e-02   -1,461045723e-02   -7,704818845e-01    2,239465266e-01    0,000000000e+00    0,000000000e+00    0,000000000e+00    0,000000000e+00
      170000000    1,656251028e-02   -2,258744277e-02   -5,187312365e-01    6,049590111e-01    0,000000000e+00    0,000000000e+00    0,000000000e+00    0,000000000e+00
      184000000    2,097739466e-02   -3,708346561e-02   -1,017768607e-01    7,862681746e-01    0,000000000e+00    0,000000000e+00    0,000000000e+00    0,000000000e+00
      198000000    1,302815787e-02   -6,255684048e-02    3,431604505e-01    7,132601142e-01    0,000000000e+00    0,000000000e+00    0,000000000e+00    0,000000000e+00
      212000000   -1,874255762e-02   -8,162089437e-02    6,784870625e-01    4,105207622e-01    0,000000000e+00    0,000000000e+00    0,000000000e+00    0,000000000e+00
      226000000   -6,205992028e-02   -6,964296848e-02    7,961184978e-01   -2,977198362e-02    0,000000000e+00    0,000000000e+00    0,000000000e+00    0,000000000e+00
      240000000   -8,313246816e-02   -2,607600577e-02    6,472081542e-01   -4,667816460e-01    0,000000000e+00    0,000000000e+00    0,000000000e+00    0,000000000e+00
      254000000   -6,431373209e-02    1,723690517e-02    2,771752179e-01   -7,437967062e-01    0,000000000e+00    0,000000000e+00    0,000000000e+00    0,000000000e+00
      268000000   -2,431505546e-02    2,952922508e-02   -1,772966534e-01   -7,652614713e-01    0,000000000e+00    0,000000000e+00    0,000000000e+00    0,000000000e+00
      282000000    4,249350633e-03    1,216249261e-02   -5,624421239e-01   -5,369997025e-01    0,000000000e+00    0,000000000e+00    0,000000000e+00    0,000000000e+00
      296000000    9,548201226e-03   -7,678995375e-03   -7,607073784e-01   -1,395298243e-01    0,000000000e+00    0,000000000e+00    0,000000000e+00    0,000000000e+00
      310000000    1,100143790e-02   -1,603726484e-02   -7,122834921e-01    2,974559665e-01    0,000000000e+00    0,000000000e+00    0,000000000e+00    0,000000000e+00
      324000000    1,958484948e-02   -2,640377358e-02   -4,279119372e-01    6,367596388e-01    0,000000000e+00    0,000000000e+00    0,000000000e+00    0,000000000e+00
      338000000    2,573075704e-02   -5,205558985e-02   -1,109518297e-02    7,631896138e-01    0,000000000e+00    0,000000000e+00    0,000000000e+00    0,000000000e+00
      352000000    7,572885137e-03   -8,456213027e-02    4,063334167e-01    6,414443254e-01    0,000000000e+00    0,000000000e+00    0,000000000e+00    0,000000000e+00
      366000000   -3,473770246e-02   -9,598935395e-02    6,910838485e-01    3,118832409e-01    0,000000000e+00    0,000000000e+00    0,000000000e+00    0,000000000e+00
      380000000   -7,157091796e-02   -7,112656534e-02    7,481201887e-01   -1,243975610e-01    0,000000000e+00    0,000000000e+00    0,000000000e+00    0,000000000e+00
      394000000   -7,335855067e-02   -3,242598847e-02    5,472306013e-01   -5,217930675e-01    0,000000000e+00    0,000000000e+00    0,000000000e+00    0,000000000e+00
      408000000   -4,696912691e-02   -1,557149179e-02    1,625420004e-01   -7,327866554e-01    0,000000000e+00    0,000000000e+00    0,000000000e+00    0,000000000e+00
      422000000   -2,832293138e-02   -3,145147860e-02   -2,663488984e-01   -6,962373853e-01    0,000000000e+00    0,000000000e+00    0,000000000e+00    0,000000000e+00
      436000000   -4,033119231e-02   -5,203106999e-02   -6,032213569e-01   -4,341045916e-01    0,000000000e+00    0,000000000e+00    0,000000000e+00    0,000000000e+00
      450000000   -6,710387021e-02   -4,485273361e-02   -7,400864363e-01   -2,472872660e-02    0,000000000e+00    0,000000000e+00    0,000000000e+00    0,000000000e+00
      464000000   -7,426278293e-02   -1,202831976e-02   -6,215031147e-01    3,950951099e-01    0,000000000e+00    0,000000000e+00    0,000000000e+00    0,000000000e+00
      478000000   -4,901111871e-02    1,203245483e-02   -2,869573832e-01    6,676358581e-01    0,000000000e+00    0,000000000e+00    0,000000000e+00    0,000000000e+00
      492000000   -1,662822254e-02    6,481925491e-03    1,339058280e-01    7,031769753e-01    0,000000000e+00    0,000000000e+00    0,000000000e+00    0,000000000e+00
      506000000   -3,367737634e-03   -1,504601073e-02    4,979891777e-01    5,058211684e-01    0,000000000e+00    0,000000000e+00    0,000000000e+00    0,000000000e+00
      520000000   -5,634419620e-03   -2,958021872e-02    6,897042990e-01    1,441635340e-01    0,000000000e+00    0,000000000e+00    0,000000000e+00    0,000000000e+00
      534000000   -3,204529872e-03   -3,576245159e-02    6,442908645e-01   -2,594241202e-01    0,000000000e+00    0,000000000e+00    0,000000000e+00    0,000000000e+00
      548000000    8,057998493e-03   -5,300106108e-02    3,848048151e-01   -5,648136139e-01    0,000000000e+00    0,000000000e+00    0,000000000e+00    0,000000000e+00
      562000000    5,857892334e-03   -8,994968981e-02    8,008462377e-03   -6,729912162e-01    0,000000000e+00    0,000000000e+00    0,000000000e+00    0,000000000e+00
      576000000   -3,183661401e-02   -1,261787564e-01   -3,626483977e-01   -5,616340637e-01    0,000000000e+00    0,000000000e+00    0,000000000e+00    0,000000000e+00
      590000000   -9,492538869e-02   -1,275769174e-01   -6,157246828e-01   -2,736129463e-01    0,000000000e+00    0,000000000e+00    0,000000000e+00    0,000000000e+00
      604000000   -1,430203021e-01   -7,806851715e-02   -6,669977903e-01    1,262772232e-01    0,000000000e+00    0,000000000e+00    0,000000000e+00    0,000000000e+00
      618000000   -1,385410428e-01   -1,138872933e-02   -4,755167365e-01    4,854337871e-01    0,000000000e+00    0,000000000e+00    0,000000000e+00    0,000000000e+00
      632000000   -9,342608601e-02    2,130167000e-02   -1,138886064e-01    6,621811390e-01    0,000000000e+00    0,000000000e+00    0,000000000e+00    0,000000000e+00
      646000000   -5,543922260e-02    1,245407388e-02    2,732377946e-01    6,036286354e-01    0,000000000e+00    0,000000000e+00    0,000000000e+00    0,000000000e+00
      660000000   -4,856187105e-02   -8,368242532e-03    5,570278168e-01    3,396395147e-01    0,000000000e+00    0,000000000e+00    0,000000000e+00    0,000000000e+00
      674000000   -5,528231338e-02   -1,036142278e-02    6,441526413e-01   -3,963420540e-02    0,000000000e+00    0,000000000e+00    0,000000000e+00    0,000000000e+00
      688000000   -5,062850192e-02    2,649920993e-03    4,927386940e-01   -4,021269977e-01    0,000000000e+00    0,000000000e+00    0,000000000e+00    0,000000000e+00
      702000000   -2,589618228e-02    8,431328461e-03    1,604203880e-01   -6,058562994e-01    0,000000000e+00    0,000000000e+00    0,000000000e+00    0,000000000e+00
      716000000   -2,739646006e-03   -8,914409205e-03   -2,194301635e-01   -5,745611191e-01    0,000000000e+00    0,000000000e+00    0,000000000e+00    0,000000000e+00
      730000000    1,031237282e-02   -3,430038318e-02   -5,094491243e-01   -3,330093622e-01    0,000000000e+00    0,000000000e+00    0,000000000e+00    0,000000000e+00
      744000000    1,698890328e-02   -6,171150133e-02   -6,010298729e-01    3,319222480e-02    0,000000000e+00    0,000000000e+00    0,000000000e+00    0,000000000e+00
      758000000    2,279924974e-02   -1,037038490e-01   -4,542760551e-01    3,775936961e-01    0,000000000e+00    0,000000000e+00    0,000000000e+00    0,000000000e+00
      772000000   -4,443123937e-03   -1,739284396e-01   -1,387414634e-01    5,582624674e-01    0,000000000e+00    0,000000000e+00    0,000000000e+00    0,000000000e+00
      786000000   -1,059395671e-01   -2,330492139e-01    2,113572210e-01    5,196189880e-01    0,000000000e+00    0,000000000e+00    0,000000000e+00    0,000000000e+00
      800000000   -2,660405636e-01   -1,934049428e-01    4,718403220e-01    2,747877538e-01    0,000000000e+00    0,000000000e+00    0,000000000e+00    0,000000000e+00
      814000000   -3,638301492e-01    2,565035829e-03    5,086392760e-01   -8,819520473e-02    0,000000000e+00    0,000000000e+00    0,000000000e+00    0,000000000e+00
      828000000   -2,482999712e-01    2,333445698e-01    2,816120982e-01   -3,526065648e-01    0,000000000e+00    0,000000000e+00    0,000000000e+00    0,000000000e+00
      842000000    1,333352830e-02    2,789098620e-01   -1,645010896e-02   -3,629809320e-01    0,000000000e+00    0,000000000e+00    0,000000000e+00    0,000000000e+00
      856000000    2,127809674e-01    1,151840389e-01   -1,879031956e-01   -2,050410956e-01    0,000000000e+00    0,000000000e+00    0,000000000e+00    0,000000000e+00
      870000000    2,391885221e-01   -1,487804800e-01   -2,002209276e-01   -2,547130361e-02    0,000000000e+00    0,000000000e+00    0,000000000e+00    0,000000000e+00
      884000000    3,670731559e-02   -3,875879049e-01   -1,042143777e-01    7,076354325e-02    0,000000000e+00    0,000000000e+00    0,000000000e+00    0,000000000e+00
      898000000   -3,693216741e-01   -3,431904316e-01   -1,653161645e-02    2,720385604e-02    0,000000000e+00    0,000000000e+00    0,000000000e+00    0,000000000e+00
      912000000   -4,675431252e-01    1,381439716e-01   -1,168748066e-01    4,160894826e-02    0,000000000e+00    0,000000000e+00    0,000000000e+00    0,000000000e+00
      926000000   -9,490323067e-02    3,514686525e-01   -1,267809868e-01    1,345258057e-01    0,000000000e+00    0,000000000e+00    0,000000000e+00    0,000000000e+00
      940000000    1,840921342e-01    1,919971108e-01   -3,822780401e-02    2,149974257e-01    0,000000000e+00    0,000000000e+00    0,000000000e+00    0,000000000e+00
      954000000    2,545983195e-01   -4,614432529e-02    8,050632477e-02    2,281907797e-01    0,000000000e+00    0,000000000e+00    0,000000000e+00    0,000000000e+00
      968000000    1,741099805e-01   -2,625235021e-01    1,917798221e-01    1,813630462e-01    0,000000000e+00    0,000000000e+00    0,000000000e+00    0,000000000e+00
      982000000   -1,687670313e-02   -3,920519650e-01    2,801043689e-01    8,105639368e-02    0,000000000e+00    0,000000000e+00    0,000000000e+00    0,000000000e+00
      996000000   -2,755374908e-01   -3,793646395e-01    3,107874393e-01   -8,037133515e-02    0,000000000e+00    0,000000000e+00    0,000000000e+00    0,000000000e+00
     1010000000   -4,730255306e-01   -1,703537256e-01    2,204916030e-01   -2,533004880e-01    0,000000000e+00    0,000000000e+00    0,000000000e+00    0,000000000e+00
     1024000000   -4,558837116e-01    1,143089905e-01    2,094684727e-02   -3,287821412e-01    0,000000000e+00    0,000000000e+00    0,000000000e+00    0,000000000e+00
     1038000000   -2,679367363e-01    2,980425060e-01   -1,704161912e-01   -2,478340417e-01    0,000000000e+00    0,000000000e+00    0,000000000e+00    0,000000000e+00
     1052000000   -3,461011872e-02    3,108243644e-01   -2,562909126e-01   -7,801572233e-02    0,000000000e+00    0,000000000e+00    0,000000000e+00    0,000000000e+00
     1066000000    1,272920072e-01    2,067602724e-01   -2,230717689e-01    8,664315194e-02    0,000000000e+00    0,000000000e+00    0,000000000e+00    0,000000000e+00
     1080000000    2,062532455e-01    4,916623235e-02   -1,191471741e-01    1,927583963e-01    0,000000000e+00    0,000000000e+00    0,000000000e+00    0,000000000e+00
     1094000000    1,997237355e-01   -1,274934560e-01    1,828678884e-02    2,334781140e-01    0,000000000e+00    0,000000000e+00    0,000000000e+00    0,000000000e+00
     1108000000    1,012303084e-01   -2,894470692e-01    1,695024669e-01    2,089711875e-01    0,000000000e+00    0,000000000e+00    0,000000000e+00    0,000000000e+00
     1122000000   -1,023946404e-01   -3,671216667e-01    3,154498041e-01    8,860622346e-02    0,000000000e+00    0,000000000e+00    0,000000000e+00    0,000000000e+00
     1136000000   -3,416090906e-01   -2,693102062e-01    3,913898766e-01   -1,515725404e-01    0,000000000e+00    0,000000000e+00    0,000000000e+00    0,000000000e+00
     1150000000   -4,053645134e-01    4,135687649e-02    2,434670925e-01   -4,383726418e-01    0,000000000e+00    0,000000000e+00    0,000000000e+00    0,000000000e+00
     1164000000   -1,629112661e-01    2,197423279e-01   -9,850508720e-02   -5,136250854e-01    0,000000000e+00    0,000000000e+00    0,000000000e+00    0,000000000e+00
     1178000000    7,925078273e-02    8,590811491e-02   -3,550484478e-01   -3,455787003e-01    0,000000000e+00    0,000000000e+00    0,000000000e+00    0,000000000e+00
     1192000000    7,621636242e-02   -1,778409183e-01   -4,537008107e-01   -8,372423798e-02    0,000000000e+00    0,000000000e+00    0,000000000e+00    0,000000000e+00
     1206000000   -1,619754583e-01   -3,253095150e-01   -3,644950092e-01    1,880591214e-01    0,000000000e+00    0,000000000e+00    0,000000000e+00    0,000000000e+00
     1220000000   -4,500210583e-01   -1,787618250e-01   -1,041655391e-01    3,283089697e-01    0,000000000e+00    0,000000000e+00    0,000000000e+00    0,000000000e+00
     1234000000   -4,721153378e-01    1,696735024e-01    1,383848488e-01    2,214846611e-01    0,000000000e+00    0,000000000e+00    0,000000000e+00    0,000000000e+00
     1248000000   -2,333516777e-01    3,491117954e-01    1,888258159e-01    3,712273762e-02    0,000000000e+00    0,000000000e+00    0,000000000e+00    0,000000000e+00
     1262000000    6,000590045e-03    3,233586550e-01    1,303455681e-01   -7,279008627e-02    0,000000000e+00    0,000000000e+00    0,000000000e+00    0,000000000e+00
     1276000000    1,578374952e-01    2,007592171e-01    5,562506989e-02   -9,464587271e-02    0,000000000e+00    0,000000000e+00    0,000000000e+00    0,000000000e+00
     1290000000    2,178353220e-01    2,784984559e-02    3,622967517e-03   -7,787737250e-02    0,000000000e+00    0,000000000e+00    0,000000000e+00    0,000000000e+00
     1304000000    2,019920349e-01   -1,450149268e-01   -2,083711885e-02   -2,794388123e-02    0,000000000e+00    0,000000000e+00    0,000000000e+00    0,000000000e+00
     1318000000    1,137236655e-01   -3,086347282e-01   -6,176927593e-03    2,124306932e-02    0,000000000e+00    0,000000000e+00    0,000000000e+00    0,000000000e+00
     1332000000   -6,797374785e-02   -4,346979260e-01    4,676239192e-02    6,625798345e-02    0,000000000e+00    0,000000000e+00    0,000000000e+00    0,000000000e+00
     1346000000   -3,266550303e-01   -4,340349138e-01    1,442108303e-01    4,196996242e-02    0,000000000e+00    0,000000000e+00    0,000000000e+00    0,000000000e+00
     1360000000   -5,533876419e-01   -2,456545979e-01    1,235388890e-01   -8,550989628e-02    0,000000000e+00    0,000000000e+00    0,000000000e+00    0,000000000e+00
     1374000000   -6,164399981e-01    2,732752264e-02    1,078249887e-01    5,809729174e-02    0,000000000e+00    0,000000000e+00    0,000000000e+00    0,000000000e+00
     1388000000   -5,192038417e-01    2,924597561e-01    2,193837315e-01   -6,701121572e-03    0,000000000e+00    0,000000000e+00    0,000000000e+00    0,000000000e+00
     1402000000   -2,951523662e-01    4,302768111e-01    2,266614884e-01   -7,503689826e-02    0,000000000e+00    0,000000000e+00    0,000000000e+00    0,000000000e+00
     1416000000   -9,547711164e-02    4,206750691e-01    1,842249185e-01   -1,126411557e-01    0,000000000e+00    0,000000000e+00    0,000000000e+00    0,000000000e+00
     1430000000    7,012543082e-02    3,360868096e-01    1,613180935e-01   -8,942304552e-02    0,000000000e+00    0,000000000e+00    0,000000000e+00    0,000000000e+00
     1444000000    1,765313745e-01    2,012127191e-01    1,583769321e-01   -9,380784631e-02    0,000000000e+00    0,000000000e+00    0,000000000e+00    0,000000000e+00
     1458000000    2,274416536e-01    3,540858626e-02    1,598347276e-01   -8,902132511e-02    0,000000000e+00    0,000000000e+00    0,000000000e+00    0,000000000e+00
     1472000000    2,074920982e-01   -1,466349959e-01    1,473263055e-01   -6,165041402e-02    0,000000000e+00    0,000000000e+00    0,000000000e+00    0,000000000e+00
     1486000000    1,069817692e-01   -3,187675476e-01    1,580224931e-01   -1,227859466e-04    0,000000000e+00    0,000000000e+00    0,000000000e+00    0,000000000e+00
     1500000000   -8,880592138e-02   -4,541420341e-01    2,218766958e-01    5,046369508e-02    0,000000000e+00    0,000000000e+00    0,000000000e+00    0,000000000e+00
