! NanoVNA-App
! Date: 2025-09-25 14:25:08
! Start: 100MHz Stop: 1,5GHz Points: 101
! S-Parameter data: F S11 S21 S12 S22
# Hz S RI R 50
!     Frequency           S11_Real           S11_Imag           S21_Real           S21_Imag           S12_Real           S12_Imag           S22_Real           S22_Imag
      100000000   -2,910461463e-02   -4,117880948e-03    3,744935691e-01   -7,220903635e-01    0,000000000e+00    0,000000000e+00    0,000000000e+00    0,000000000e+00
      114000000   -1,660905033e-02    1,162517257e-02   -8,894920349e-02   -8,058913946e-01    0,000000000e+00    0,000000000e+00    0,000000000e+00    0,000000000e+00
      128000000    3,432738129e-03    1,048517972e-02   -5,147278905e-01   -6,211530566e-01    0,000000000e+00    0,000000000e+00    0,000000000e+00    0,000000000e+00
      142000000    1,443269849e-02   -3,080751048e-03   -7,675693035e-01   -2,369627506e-01    0,000000000e+00    0,000000000e+00    0,000000000e+00    0,000000000e+00
      156000000    1,569281891e-02   -1,440159045e-02   -7,729363441e-01    2,242190093e-01    0,000000000e+00    0,000000000e+00    0,000000000e+00    0,000000000e+00
      170000000    1,657558605e-02   -2,247240953e-02   -5,186008811e-01    6,050863862e-01    0,000000000e+00    0,000000000e+00    0,000000000e+00    0,000000000e+00
      184000000    2,097300626e-02   -3,698560968e-02   -1,020153537e-01    7,868953943e-01    0,000000000e+00    0,000000000e+00    0,000000000e+00    0,000000000e+00
      198000000    1,312274300e-02   -6,260068715e-02    3,432299197e-01    7,131698132e-01    0,000000000e+00    0,000000000e+00    0,000000000e+00    0,000000000e+00
      212000000   -1,873345114e-02   -8,165138215e-02    6,780930161e-01    4,104114771e-01    0,000000000e+00    0,000000000e+00    0,000000000e+00    0,000000000e+00
      226000000   -6,205180287e-02   -6,971584260e-02    7,961083651e-01   -2,973008715e-02    0,000000000e+00    0,000000000e+00    0,000000000e+00    0,000000000e+00
      240000000   -8,327952772e-02   -2,611279488e-02    6,469058990e-01   -4,666862488e-01    0,000000000e+00    0,000000000e+00    0,000000000e+00    0,000000000e+00
      254000000   -6,441053748e-02    1,744621806e-02    2,769173384e-01   -7,433863878e-01    0,000000000e+00    0,000000000e+00    0,000000000e+00    0,000000000e+00
      268000000   -2,401114255e-02    2,956331335e-02   -1,764585376e-01   -7,648224235e-01    0,000000000e+00    0,000000000e+00    0,000000000e+00    0,000000000e+00
      282000000    4,065575544e-03    1,200457290e-02   -5,624105334e-01   -5,374464393e-01    0,000000000e+00    0,000000000e+00    0,000000000e+00    0,000000000e+00
      296000000    9,418565780e-03   -7,719486486e-03   -7,606982589e-01   -1,396032274e-01    0,000000000e+00    0,000000000e+00    0,000000000e+00    0,000000000e+00
      310000000    1,081900299e-02   -1,604384556e-02   -7,133027911e-01    2,966763079e-01    0,000000000e+00    0,000000000e+00    0,000000000e+00    0,000000000e+00
      324000000    1,949730329e-02   -2,656051144e-02   -4,285379350e-01    6,375042200e-01    0,000000000e+00    0,000000000e+00    0,000000000e+00    0,000000000e+00
      338000000    2,553454041e-02   -5,217093229e-02   -1,079987176e-02    7,637588382e-01    0,000000000e+00    0,000000000e+00    0,000000000e+00    0,000000000e+00
      352000000    7,226883434e-03   -8,479321003e-02    4,053047597e-01    6,411125064e-01    0,000000000e+00    0,000000000e+00    0,000000000e+00    0,000000000e+00
      366000000   -3,488838673e-02   -9,616892040e-02    6,906034946e-01    3,122656643e-01    0,000000000e+00    0,000000000e+00    0,000000000e+00    0,000000000e+00
      380000000   -7,131125033e-02   -7,117464393e-02    7,486059070e-01   -1,244043708e-01    0,000000000e+00    0,000000000e+00    0,000000000e+00    0,000000000e+00
      394000000   -7,306405902e-02   -3,235829994e-02    5,470186472e-01   -5,217455029e-01    0,000000000e+00    0,000000000e+00    0,000000000e+00    0,000000000e+00
      408000000   -4,702393338e-02   -1,561917923e-02    1,639277786e-01   -7,328183651e-01    0,000000000e+00    0,000000000e+00    0,000000000e+00    0,000000000e+00
      422000000   -2,852443606e-02   -3,153473139e-02   -2,661513090e-01   -6,960086823e-01    0,000000000e+00    0,000000000e+00    0,000000000e+00    0,000000000e+00
      436000000   -3,992290422e-02   -5,194752291e-02   -6,026216745e-01   -4,335186779e-01    0,000000000e+00    0,000000000e+00    0,000000000e+00    0,000000000e+00
      450000000   -6,777449697e-02   -4,490495101e-02   -7,402976751e-01   -2,523974888e-02    0,000000000e+00    0,000000000e+00    0,000000000e+00    0,000000000e+00
      464000000   -7,426787168e-02   -1,251371298e-02   -6,213208437e-01    3,942454755e-01    0,000000000e+00    0,000000000e+00    0,000000000e+00    0,000000000e+00
      478000000   -4,943042621e-02    1,171667874e-02   -2,876010537e-01    6,677158475e-01    0,000000000e+00    0,000000000e+00    0,000000000e+00    0,000000000e+00
      492000000   -1,719530113e-02    6,446470041e-03    1,339095086e-01    7,033870816e-01    0,000000000e+00    0,000000000e+00    0,000000000e+00    0,000000000e+00
      506000000   -3,624644130e-03   -1,487204246e-02    4,977852106e-01    5,070905089e-01    0,000000000e+00    0,000000000e+00    0,000000000e+00    0,000000000e+00
      520000000   -5,978064612e-03   -2,976239100e-02    6,893878579e-01    1,446036547e-01    0,000000000e+00    0,000000000e+00    0,000000000e+00    0,000000000e+00
      534000000   -3,412723541e-03   -3,574388474e-02    6,450425386e-01   -2,596271634e-01    0,000000000e+00    0,000000000e+00    0,000000000e+00    0,000000000e+00
      548000000    7,907683961e-03   -5,292002112e-02    3,848824799e-01   -5,643438697e-01    0,000000000e+00    0,000000000e+00    0,000000000e+00    0,000000000e+00
      562000000    5,403792486e-03   -8,966030926e-02    8,753748611e-03   -6,724963784e-01    0,000000000e+00    0,000000000e+00    0,000000000e+00    0,000000000e+00
      576000000   -3,126538917e-02   -1,258953810e-01   -3,624029458e-01   -5,616021156e-01    0,000000000e+00    0,000000000e+00    0,000000000e+00    0,000000000e+00
      590000000   -9,480237216e-02   -1,277952343e-01   -6,154659986e-01   -2,720563114e-01    0,000000000e+00    0,000000000e+00    0,000000000e+00    0,000000000e+00
      604000000   -1,432342976e-01   -7,833968848e-02   -6,674761772e-01    1,258039474e-01    0,000000000e+00    0,000000000e+00    0,000000000e+00    0,000000000e+00
      618000000   -1,382053345e-01   -1,092125196e-02   -4,752914608e-01    4,859806895e-01    0,000000000e+00    0,000000000e+00    0,000000000e+00    0,000000000e+00
      632000000   -9,360260516e-02    2,189487405e-02   -1,146902964e-01    6,635442972e-01    0,000000000e+00    0,000000000e+00    0,000000000e+00    0,000000000e+00
      646000000   -5,464482680e-02    1,220879145e-02    2,736683488e-01    6,036800146e-01    0,000000000e+00    0,000000000e+00    0,000000000e+00    0,000000000e+00
      660000000   -4,784549400e-02   -8,280945942e-03    5,573697090e-01    3,399304450e-01    0,000000000e+00    0,000000000e+00    0,000000000e+00    0,000000000e+00
      674000000   -5,550245196e-02   -1,092196908e-02    6,444466114e-01   -3,959713504e-02    0,000000000e+00    0,000000000e+00    0,000000000e+00    0,000000000e+00
      688000000   -5,067032576e-02    3,567384556e-03    4,930016100e-01   -4,018879235e-01    0,000000000e+00    0,000000000e+00    0,000000000e+00    0,000000000e+00
      702000000   -2,570069954e-02    7,487021852e-03    1,609800458e-01   -6,083282828e-01    0,000000000e+00    0,000000000e+00    0,000000000e+00    0,000000000e+00
      716000000   -1,302390941e-03   -8,522266522e-03   -2,176581323e-01   -5,758920312e-01    0,000000000e+00    0,000000000e+00    0,000000000e+00    0,000000000e+00
      730000000    9,750908241e-03   -3,393149376e-02   -5,096656680e-01   -3,328191340e-01    0,000000000e+00    0,000000000e+00    0,000000000e+00    0,000000000e+00
      744000000    1,602179930e-02   -6,044803560e-02   -6,005718708e-01    3,249558434e-02    0,000000000e+00    0,000000000e+00    0,000000000e+00    0,000000000e+00
      758000000    2,168807387e-02   -1,034321785e-01   -4,544422925e-01    3,769635558e-01    0,000000000e+00    0,000000000e+00    0,000000000e+00    0,000000000e+00
      772000000   -5,260971375e-03   -1,738487035e-01   -1,392093152e-01    5,581191182e-01    0,000000000e+00    0,000000000e+00    0,000000000e+00    0,000000000e+00
      786000000   -1,050470024e-01   -2,333192974e-01    2,116754055e-01    5,190262794e-01    0,000000000e+00    0,000000000e+00    0,000000000e+00    0,000000000e+00
      800000000   -2,664951682e-01   -1,924512982e-01    4,718455672e-01    2,756131887e-01    0,000000000e+00    0,000000000e+00    0,000000000e+00    0,000000000e+00
      814000000   -3,634636402e-01    3,435898339e-03    5,075420141e-01   -8,857800066e-02    0,000000000e+00    0,000000000e+00    0,000000000e+00    0,000000000e+00
      828000000   -2,478674799e-01    2,324161679e-01    2,812613845e-01   -3,521785438e-01    0,000000000e+00    0,000000000e+00    0,000000000e+00    0,000000000e+00
      842000000    1,350863464e-02    2,784309089e-01   -1,600410976e-02   -3,628652692e-01    0,000000000e+00    0,000000000e+00    0,000000000e+00    0,000000000e+00
      856000000    2,127011567e-01    1,154317930e-01   -1,876286715e-01   -2,047068924e-01    0,000000000e+00    0,000000000e+00    0,000000000e+00    0,000000000e+00
      870000000    2,391000688e-01   -1,481805891e-01   -2,006156594e-01   -2,554736845e-02    0,000000000e+00    0,000000000e+00    0,000000000e+00    0,000000000e+00
      884000000    3,839119896e-02   -3,870542347e-01   -1,037851870e-01    7,009023428e-02    0,000000000e+00    0,000000000e+00    0,000000000e+00    0,000000000e+00
      898000000   -3,700297475e-01   -3,407744467e-01   -1,643745787e-02    2,795853838e-02    0,000000000e+00    0,000000000e+00    0,000000000e+00    0,000000000e+00
      912000000   -4,669972658e-01    1,382141113e-01   -1,071007699e-01    2,555833198e-02    0,000000000e+00    0,000000000e+00    0,000000000e+00    0,000000000e+00
      926000000   -9,359860420e-02    3,517560363e-01   -1,269485950e-01    1,342026144e-01    0,000000000e+00    0,000000000e+00    0,000000000e+00    0,000000000e+00
      940000000    1,842591316e-01    1,953445077e-01   -3,768990934e-02    2,158993483e-01    0,000000000e+00    0,000000000e+00    0,000000000e+00    0,000000000e+00
      954000000    2,553677559e-01   -4,635553434e-02    7,957405597e-02    2,266397327e-01    0,000000000e+00    0,000000000e+00    0,000000000e+00    0,000000000e+00
      968000000    1,747343242e-01   -2,597681582e-01    1,916465163e-01    1,805011034e-01    0,000000000e+00    0,000000000e+00    0,000000000e+00    0,000000000e+00
      982000000   -1,591805369e-02   -3,957664967e-01    2,780843079e-01    7,809542120e-02    0,000000000e+00    0,000000000e+00    0,000000000e+00    0,000000000e+00
      996000000   -2,769188583e-01   -3,750407696e-01    3,095299006e-01   -7,948543131e-02    0,000000000e+00    0,000000000e+00    0,000000000e+00    0,000000000e+00
     1010000000   -4,658459425e-01   -1,700896323e-01    2,192725390e-01   -2,516270876e-01    0,000000000e+00    0,000000000e+00    0,000000000e+00    0,000000000e+00
     1024000000   -4,616820812e-01    1,143435165e-01    2,054064721e-02   -3,285266161e-01    0,000000000e+00    0,000000000e+00    0,000000000e+00    0,000000000e+00
     1038000000   -2,658503652e-01    3,012264371e-01   -1,737487465e-01   -2,481261045e-01    0,000000000e+00    0,000000000e+00    0,000000000e+00    0,000000000e+00
     1052000000   -3,498607874e-02    3,090885878e-01   -2,582805157e-01   -7,685405016e-02    0,000000000e+00    0,000000000e+00    0,000000000e+00    0,000000000e+00
     1066000000    1,268362254e-01    2,022556514e-01   -2,282231152e-01    8,764111251e-02    0,000000000e+00    0,000000000e+00    0,000000000e+00    0,000000000e+00
     1080000000    2,051147074e-01    4,873922467e-02   -1,203243136e-01    1,932647526e-01    0,000000000e+00    0,000000000e+00    0,000000000e+00    0,000000000e+00
     1094000000    2,038356960e-01   -1,280866414e-01    1,642471924e-02    2,341945171e-01    0,000000000e+00    0,000000000e+00    0,000000000e+00    0,000000000e+00
     1108000000    1,001977697e-01   -2,832055092e-01    1,695835441e-01    2,053379864e-01    0,000000000e+00    0,000000000e+00    0,000000000e+00    0,000000000e+00
     1122000000   -1,051778868e-01   -3,675792813e-01    3,166676462e-01    8,988519013e-02    0,000000000e+00    0,000000000e+00    0,000000000e+00    0,000000000e+00
     1136000000   -3,501366377e-01   -2,695195377e-01    3,909105062e-01   -1,524176598e-01    0,000000000e+00    0,000000000e+00    0,000000000e+00    0,000000000e+00
     1150000000   -4,092172980e-01    4,062766209e-02    2,430904061e-01   -4,369032383e-01    0,000000000e+00    0,000000000e+00    0,000000000e+00    0,000000000e+00
     1164000000   -1,566923559e-01    2,164020687e-01   -9,299512953e-02   -5,140303969e-01    0,000000000e+00    0,000000000e+00    0,000000000e+00    0,000000000e+00
     1178000000    7,769576460e-02    8,423021436e-02   -3,561728895e-01   -3,441151381e-01    0,000000000e+00    0,000000000e+00    0,000000000e+00    0,000000000e+00
     1192000000    7,616432756e-02   -1,765124947e-01   -4,527471066e-01   -8,350759000e-02    0,000000000e+00    0,000000000e+00    0,000000000e+00    0,000000000e+00
     1206000000   -1,598290950e-01   -3,292367756e-01   -3,672415912e-01    1,850446910e-01    0,000000000e+00    0,000000000e+00    0,000000000e+00    0,000000000e+00
     1220000000   -4,584459364e-01   -1,773287952e-01   -1,093560979e-01    3,267715871e-01    0,000000000e+00    0,000000000e+00    0,000000000e+00    0,000000000e+00
     1234000000   -4,755653739e-01    1,725950837e-01    1,360957772e-01    2,250762135e-01    0,000000000e+00    0,000000000e+00    0,000000000e+00    0,000000000e+00
     1248000000   -2,347437739e-01    3,613499105e-01    1,889470220e-01    3,711906448e-02    0,000000000e+00    0,000000000e+00    0,000000000e+00    0,000000000e+00
     1262000000   -5,143843591e-04    3,285528719e-01    1,255850196e-01   -7,091782242e-02    0,000000000e+00    0,000000000e+00    0,000000000e+00    0,000000000e+00
     1276000000    1,524115205e-01    1,950412542e-01    5,464343354e-02   -9,512647241e-02    0,000000000e+00    0,000000000e+00    0,000000000e+00    0,000000000e+00
     1290000000    2,187429518e-01    2,997620963e-02    5,783058237e-03   -7,480108738e-02    0,000000000e+00    0,000000000e+00    0,000000000e+00    0,000000000e+00
     1304000000    2,026252747e-01   -1,437184364e-01   -2,205361985e-02   -2,809366584e-02    0,000000000e+00    0,000000000e+00    0,000000000e+00    0,000000000e+00
     1318000000    1,157969013e-01   -3,131217957e-01   -4,040660802e-03    1,929794811e-02    0,000000000e+00    0,000000000e+00    0,000000000e+00    0,000000000e+00
     1332000000   -6,463804096e-02   -4,307941198e-01    5,267326906e-02    7,040285319e-02    0,000000000e+00    0,000000000e+00    0,000000000e+00    0,000000000e+00
     1346000000   -3,264259398e-01   -4,348357320e-01    1,429216266e-01    4,377198219e-02    0,000000000e+00    0,000000000e+00    0,000000000e+00    0,000000000e+00
     1360000000   -5,556650162e-01   -2,381060421e-01    1,101075932e-01   -7,034295052e-02    0,000000000e+00    0,000000000e+00    0,000000000e+00    0,000000000e+00
     1374000000   -6,159930825e-01    2,931882814e-02    1,139523759e-01    5,204188451e-02    0,000000000e+00    0,000000000e+00    0,000000000e+00    0,000000000e+00
     1388000000   -5,223646164e-01    2,876375616e-01    2,259667814e-01   -5,765686277e-03    0,000000000e+00    0,000000000e+00    0,000000000e+00    0,000000000e+00
     1402000000   -3,019617498e-01    4,247285724e-01    2,259174287e-01   -7,005213201e-02    0,000000000e+00    0,000000000e+00    0,000000000e+00    0,000000000e+00
     1416000000   -8,749627322e-02    4,213275909e-01    1,963764578e-01   -1,147089824e-01    0,000000000e+00    0,000000000e+00    0,000000000e+00    0,000000000e+00
     1430000000    6,642129272e-02    3,352779448e-01    1,544116884e-01   -1,315756589e-01    0,000000000e+00    0,000000000e+00    0,000000000e+00    0,000000000e+00
     1444000000    1,746197790e-01    2,055974603e-01    1,486171931e-01   -9,855684638e-02    0,000000000e+00    0,000000000e+00    0,000000000e+00    0,000000000e+00
     1458000000    2,224779576e-01    3,488343954e-02    1,454186141e-01   -8,077200502e-02    0,000000000e+00    0,000000000e+00    0,000000000e+00    0,000000000e+00
     1472000000    2,071909159e-01   -1,456727684e-01    1,471510231e-01   -6,036470458e-02    0,000000000e+00    0,000000000e+00    0,000000000e+00    0,000000000e+00
     1486000000    1,070528105e-01   -3,205877244e-01    1,697926968e-01   -2,368863439e-03    0,000000000e+00    0,000000000e+00    0,000000000e+00    0,000000000e+00
     1500000000   -8,990636468e-02   -4,528606534e-01    2,142768055e-01    6,967907399e-02    0,000000000e+00    0,000000000e+00    0,000000000e+00    0,000000000e+00
