! NanoVNA-App
! Date: 2025-09-25 14:24:14
! Start: 100MHz Stop: 1,5GHz Points: 101
! S-Parameter data: F S11 S21 S12 S22
# Hz S RI R 50
!     Frequency           S11_Real           S11_Imag           S21_Real           S21_Imag           S12_Real           S12_Imag           S22_Real           S22_Imag
      100000000   -2,909779549e-02   -4,134354182e-03    3,744966686e-01   -7,220389247e-01    0,000000000e+00    0,000000000e+00    0,000000000e+00    0,000000000e+00
      114000000   -1,661247574e-02    1,162696257e-02   -8,894392103e-02   -8,058020473e-01    0,000000000e+00    0,000000000e+00    0,000000000e+00    0,000000000e+00
      128000000    3,388342680e-03    1,059600338e-02   -5,146812797e-01   -6,211783290e-01    0,000000000e+00    0,000000000e+00    0,000000000e+00    0,000000000e+00
      142000000    1,446240582e-02   -3,065787489e-03   -7,674922347e-01   -2,368744016e-01    0,000000000e+00    0,000000000e+00    0,000000000e+00    0,000000000e+00
      156000000    1,463979203e-02   -1,502422150e-02   -7,661150098e-01    2,213421911e-01    0,000000000e+00    0,000000000e+00    0,000000000e+00    0,000000000e+00
      170000000    1,656277105e-02   -2,245139517e-02   -5,186747909e-01    6,049140692e-01    0,000000000e+00    0,000000000e+00    0,000000000e+00    0,000000000e+00
      184000000    2,100785822e-02   -3,700535372e-02   -1,020305678e-01    7,871330380e-01    0,000000000e+00    0,000000000e+00    0,000000000e+00    0,000000000e+00
      198000000    1,312815305e-02   -6,256543845e-02    3,432354629e-01    7,130597830e-01    0,000000000e+00    0,000000000e+00    0,000000000e+00    0,000000000e+00
      212000000   -1,868262514e-02   -8,171967417e-02    6,782541871e-01    4,106182158e-01    0,000000000e+00    0,000000000e+00    0,000000000e+00    0,000000000e+00
      226000000   -6,209927052e-02   -6,972288340e-02    7,961357236e-01   -2,983147651e-02    0,000000000e+00    0,000000000e+00    0,000000000e+00    0,000000000e+00
      240000000   -8,328125626e-02   -2,606870234e-02    6,471293569e-01   -4,667452574e-01    0,000000000e+00    0,000000000e+00    0,000000000e+00    0,000000000e+00
      254000000   -6,433583051e-02    1,736604795e-02    2,770616412e-01   -7,434698343e-01    0,000000000e+00    0,000000000e+00    0,000000000e+00    0,000000000e+00
      268000000   -2,422463708e-02    2,953952365e-02   -1,773671955e-01   -7,650546432e-01    0,000000000e+00    0,000000000e+00    0,000000000e+00    0,000000000e+00
      282000000    4,152331036e-03    1,218154654e-02   -5,625835657e-01   -5,375405550e-01    0,000000000e+00    0,000000000e+00    0,000000000e+00    0,000000000e+00
      296000000    9,581706487e-03   -7,678293157e-03   -7,608358264e-01   -1,395822912e-01    0,000000000e+00    0,000000000e+00    0,000000000e+00    0,000000000e+00
      310000000    1,072918344e-02   -1,616584696e-02   -7,131365538e-01    2,962947488e-01    0,000000000e+00    0,000000000e+00    0,000000000e+00    0,000000000e+00
      324000000    1,963708922e-02   -2,643041499e-02   -4,285676777e-01    6,379021406e-01    0,000000000e+00    0,000000000e+00    0,000000000e+00    0,000000000e+00
      338000000    2,554511838e-02   -5,186740309e-02   -7,462261245e-03    7,615867853e-01    0,000000000e+00    0,000000000e+00    0,000000000e+00    0,000000000e+00
      352000000    7,634249050e-03   -8,477432281e-02    4,061303735e-01    6,402401328e-01    0,000000000e+00    0,000000000e+00    0,000000000e+00    0,000000000e+00
      366000000   -3,477242962e-02   -9,600272775e-02    6,906750798e-01    3,122548759e-01    0,000000000e+00    0,000000000e+00    0,000000000e+00    0,000000000e+00
      380000000   -7,115310431e-02   -7,091826946e-02    7,485627532e-01   -1,246580258e-01    0,000000000e+00    0,000000000e+00    0,000000000e+00    0,000000000e+00
      394000000   -7,310009748e-02   -3,236319497e-02    5,472310185e-01   -5,222697258e-01    0,000000000e+00    0,000000000e+00    0,000000000e+00    0,000000000e+00
      408000000   -4,682211578e-02   -1,552167255e-02    1,625168324e-01   -7,326799631e-01    0,000000000e+00    0,000000000e+00    0,000000000e+00    0,000000000e+00
      422000000   -2,828955278e-02   -3,170135617e-02   -2,658435702e-01   -6,968058348e-01    0,000000000e+00    0,000000000e+00    0,000000000e+00    0,000000000e+00
      436000000   -4,035210237e-02   -5,186419189e-02   -6,031973958e-01   -4,335373342e-01    0,000000000e+00    0,000000000e+00    0,000000000e+00    0,000000000e+00
      450000000   -6,742769480e-02   -4,461372271e-02   -7,398577332e-01   -2,501792647e-02    0,000000000e+00    0,000000000e+00    0,000000000e+00    0,000000000e+00
      464000000   -7,381557673e-02   -1,209275704e-02   -6,212685704e-01    3,948485255e-01    0,000000000e+00    0,000000000e+00    0,000000000e+00    0,000000000e+00
      478000000   -4,881238192e-02    1,201379206e-02   -2,862201929e-01    6,679573655e-01    0,000000000e+00    0,000000000e+00    0,000000000e+00    0,000000000e+00
      492000000   -1,725846529e-02    6,348756608e-03    1,341980696e-01    7,042877078e-01    0,000000000e+00    0,000000000e+00    0,000000000e+00    0,000000000e+00
      506000000   -3,693717299e-03   -1,511283871e-02    4,971245527e-01    5,052440763e-01    0,000000000e+00    0,000000000e+00    0,000000000e+00    0,000000000e+00
      520000000   -5,905086175e-03   -2,958530933e-02    6,891451478e-01    1,448535323e-01    0,000000000e+00    0,000000000e+00    0,000000000e+00    0,000000000e+00
      534000000   -3,596793395e-03   -3,562712297e-02    6,440365911e-01   -2,597411275e-01    0,000000000e+00    0,000000000e+00    0,000000000e+00    0,000000000e+00
      548000000    7,895958610e-03   -5,259907618e-02    3,851832151e-01   -5,639820695e-01    0,000000000e+00    0,000000000e+00    0,000000000e+00    0,000000000e+00
      562000000    5,672823172e-03   -8,961228281e-02    8,734134026e-03   -6,721978188e-01    0,000000000e+00    0,000000000e+00    0,000000000e+00    0,000000000e+00
      576000000   -3,156137466e-02   -1,263901740e-01   -3,624435663e-01   -5,614960790e-01    0,000000000e+00    0,000000000e+00    0,000000000e+00    0,000000000e+00
      590000000   -9,498245269e-02   -1,276988089e-01   -6,163218617e-01   -2,739722133e-01    0,000000000e+00    0,000000000e+00    0,000000000e+00    0,000000000e+00
      604000000   -1,430239081e-01   -7,790872455e-02   -6,671199203e-01    1,261985600e-01    0,000000000e+00    0,000000000e+00    0,000000000e+00    0,000000000e+00
      618000000   -1,385539323e-01   -1,145706140e-02   -4,754277468e-01    4,853605926e-01    0,000000000e+00    0,000000000e+00    0,000000000e+00    0,000000000e+00
      632000000   -9,365221858e-02    2,135818079e-02   -1,130907387e-01    6,633086205e-01    0,000000000e+00    0,000000000e+00    0,000000000e+00    0,000000000e+00
      646000000   -5,477770790e-02    1,155474130e-02    2,731197476e-01    6,038570404e-01    0,000000000e+00    0,000000000e+00    0,000000000e+00    0,000000000e+00
      660000000   -4,871015251e-02   -8,660351858e-03    5,572732687e-01    3,396665454e-01    0,000000000e+00    0,000000000e+00    0,000000000e+00    0,000000000e+00
      674000000   -5,513456464e-02   -1,061269548e-02    6,443289518e-01   -3,966661170e-02    0,000000000e+00    0,000000000e+00    0,000000000e+00    0,000000000e+00
      688000000   -5,004301295e-02    3,370141378e-03    4,936418235e-01   -4,016951919e-01    0,000000000e+00    0,000000000e+00    0,000000000e+00    0,000000000e+00
      702000000   -2,584736049e-02    8,617227897e-03    1,606264561e-01   -6,082512736e-01    0,000000000e+00    0,000000000e+00    0,000000000e+00    0,000000000e+00
      716000000   -2,307680901e-03   -8,158678189e-03   -2,194810659e-01   -5,763294101e-01    0,000000000e+00    0,000000000e+00    0,000000000e+00    0,000000000e+00
      730000000    9,097862057e-03   -3,521848470e-02   -5,088514686e-01   -3,330246806e-01    0,000000000e+00    0,000000000e+00    0,000000000e+00    0,000000000e+00
      744000000    1,648728177e-02   -6,150031462e-02   -6,008740664e-01    3,347738832e-02    0,000000000e+00    0,000000000e+00    0,000000000e+00    0,000000000e+00
      758000000    2,204982750e-02   -1,042423099e-01   -4,543528259e-01    3,774356246e-01    0,000000000e+00    0,000000000e+00    0,000000000e+00    0,000000000e+00
      772000000   -5,266533699e-03   -1,734246314e-01   -1,396866888e-01    5,580447912e-01    0,000000000e+00    0,000000000e+00    0,000000000e+00    0,000000000e+00
      786000000   -1,046247780e-01   -2,325589955e-01    2,117738724e-01    5,190952420e-01    0,000000000e+00    0,000000000e+00    0,000000000e+00    0,000000000e+00
      800000000   -2,661969960e-01   -1,931387782e-01    4,713592529e-01    2,757841349e-01    0,000000000e+00    0,000000000e+00    0,000000000e+00    0,000000000e+00
      814000000   -3,650006354e-01    3,652076935e-03    5,077876449e-01   -8,811801672e-02    0,000000000e+00    0,000000000e+00    0,000000000e+00    0,000000000e+00
      828000000   -2,470010966e-01    2,341256440e-01    2,809728682e-01   -3,526116014e-01    0,000000000e+00    0,000000000e+00    0,000000000e+00    0,000000000e+00
      842000000    1,263226476e-02    2,784593999e-01   -1,678436622e-02   -3,626140952e-01    0,000000000e+00    0,000000000e+00    0,000000000e+00    0,000000000e+00
      856000000    2,128231078e-01    1,154257208e-01   -1,874715090e-01   -2,047418207e-01    0,000000000e+00    0,000000000e+00    0,000000000e+00    0,000000000e+00
      870000000    2,385152131e-01   -1,484788954e-01   -2,004251629e-01   -2,586998791e-02    0,000000000e+00    0,000000000e+00    0,000000000e+00    0,000000000e+00
      884000000    3,871472925e-02   -3,870607316e-01   -1,036547348e-01    7,053499669e-02    0,000000000e+00    0,000000000e+00    0,000000000e+00    0,000000000e+00
      898000000   -3,695718944e-01   -3,409141898e-01   -1,660872065e-02    2,826941013e-02    0,000000000e+00    0,000000000e+00    0,000000000e+00    0,000000000e+00
      912000000   -4,665379226e-01    1,385881454e-01   -1,197808310e-01    2,484256215e-02    0,000000000e+00    0,000000000e+00    0,000000000e+00    0,000000000e+00
      926000000   -9,310518205e-02    3,507823646e-01   -1,264144480e-01    1,327880472e-01    0,000000000e+00    0,000000000e+00    0,000000000e+00    0,000000000e+00
      940000000    1,850689203e-01    1,951759607e-01   -3,830105439e-02    2,153510749e-01    0,000000000e+00    0,000000000e+00    0,000000000e+00    0,000000000e+00
      954000000    2,524894476e-01   -4,646163806e-02    8,108514547e-02    2,270649225e-01    0,000000000e+00    0,000000000e+00    0,000000000e+00    0,000000000e+00
      968000000    1,762182862e-01   -2,612649500e-01    1,909930259e-01    1,803053766e-01    0,000000000e+00    0,000000000e+00    0,000000000e+00    0,000000000e+00
      982000000   -1,759668253e-02   -3,946535885e-01    2,784604132e-01    7,934942842e-02    0,000000000e+00    0,000000000e+00    0,000000000e+00    0,000000000e+00
      996000000   -2,718748748e-01   -3,791218698e-01    3,087849617e-01   -8,067259192e-02    0,000000000e+00    0,000000000e+00    0,000000000e+00    0,000000000e+00
     1010000000   -4,674674273e-01   -1,728041023e-01    2,215519398e-01   -2,536066473e-01    0,000000000e+00    0,000000000e+00    0,000000000e+00    0,000000000e+00
     1024000000   -4,563437104e-01    1,193403080e-01    2,038436197e-02   -3,286140561e-01    0,000000000e+00    0,000000000e+00    0,000000000e+00    0,000000000e+00
     1038000000   -2,630551457e-01    2,973103821e-01   -1,721024215e-01   -2,505270243e-01    0,000000000e+00    0,000000000e+00    0,000000000e+00    0,000000000e+00
     1052000000   -3,660503775e-02    3,038567603e-01   -2,572147846e-01   -7,888556272e-02    0,000000000e+00    0,000000000e+00    0,000000000e+00    0,000000000e+00
     1066000000    1,293503046e-01    2,045011073e-01   -2,238383889e-01    8,807067573e-02    0,000000000e+00    0,000000000e+00    0,000000000e+00    0,000000000e+00
     1080000000    2,055191696e-01    4,666598514e-02   -1,212427616e-01    1,916710734e-01    0,000000000e+00    0,000000000e+00    0,000000000e+00    0,000000000e+00
     1094000000    2,040904909e-01   -1,262089759e-01    1,514298469e-02    2,336092442e-01    0,000000000e+00    0,000000000e+00    0,000000000e+00    0,000000000e+00
     1108000000    1,007219329e-01   -2,884139717e-01    1,674499810e-01    2,079523653e-01    0,000000000e+00    0,000000000e+00    0,000000000e+00    0,000000000e+00
     1122000000   -9,731098264e-02   -3,726421893e-01    3,165203631e-01    8,994756639e-02    0,000000000e+00    0,000000000e+00    0,000000000e+00    0,000000000e+00
     1136000000   -3,524331152e-01   -2,686067224e-01    3,898444772e-01   -1,490679979e-01    0,000000000e+00    0,000000000e+00    0,000000000e+00    0,000000000e+00
     1150000000   -4,057135284e-01    3,880643100e-02    2,437486947e-01   -4,362801909e-01    0,000000000e+00    0,000000000e+00    0,000000000e+00    0,000000000e+00
     1164000000   -1,594602168e-01    2,226539701e-01   -9,039096534e-02   -5,124508142e-01    0,000000000e+00    0,000000000e+00    0,000000000e+00    0,000000000e+00
     1178000000    7,706149668e-02    8,278012276e-02   -3,564629555e-01   -3,471407592e-01    0,000000000e+00    0,000000000e+00    0,000000000e+00    0,000000000e+00
     1192000000    7,858109474e-02   -1,760975420e-01   -4,534550309e-01   -8,283963799e-02    0,000000000e+00    0,000000000e+00    0,000000000e+00    0,000000000e+00
     1206000000   -1,584287584e-01   -3,258448243e-01   -3,659536541e-01    1,918484867e-01    0,000000000e+00    0,000000000e+00    0,000000000e+00    0,000000000e+00
     1220000000   -4,569172859e-01   -1,734844893e-01   -1,068677083e-01    3,317825198e-01    0,000000000e+00    0,000000000e+00    0,000000000e+00    0,000000000e+00
     1234000000   -4,693146050e-01    1,637146324e-01    1,438740790e-01    2,247658968e-01    0,000000000e+00    0,000000000e+00    0,000000000e+00    0,000000000e+00
     1248000000   -2,390459031e-01    3,549359441e-01    1,833585650e-01    3,821983561e-02    0,000000000e+00    0,000000000e+00    0,000000000e+00    0,000000000e+00
     1262000000    3,566422965e-04    3,277277648e-01    1,242531464e-01   -7,865134627e-02    0,000000000e+00    0,000000000e+00    0,000000000e+00    0,000000000e+00
     1276000000    1,553473175e-01    1,952128410e-01    4,957865924e-02   -9,817680717e-02    0,000000000e+00    0,000000000e+00    0,000000000e+00    0,000000000e+00
     1290000000    2,144657373e-01    3,127965331e-02    2,116091782e-03   -7,483946532e-02    0,000000000e+00    0,000000000e+00    0,000000000e+00    0,000000000e+00
     1304000000    2,051670402e-01   -1,485342681e-01   -1,913495734e-02   -3,354560584e-02    0,000000000e+00    0,000000000e+00    0,000000000e+00    0,000000000e+00
     1318000000    1,122939512e-01   -3,108521104e-01   -2,787078265e-03    1,856692694e-02    0,000000000e+00    0,000000000e+00    0,000000000e+00    0,000000000e+00
     1332000000   -6,719638407e-02   -4,302411079e-01    4,672527313e-02    6,452485174e-02    0,000000000e+00    0,000000000e+00    0,000000000e+00    0,000000000e+00
     1346000000   -3,267223537e-01   -4,339037836e-01    1,502788514e-01    4,826122150e-02    0,000000000e+00    0,000000000e+00    0,000000000e+00    0,000000000e+00
     1360000000   -5,542636514e-01   -2,367460132e-01    1,163908169e-01   -7,191579789e-02    0,000000000e+00    0,000000000e+00    0,000000000e+00    0,000000000e+00
     1374000000   -6,249870658e-01    3,230208158e-02    1,058306620e-01    6,189376861e-02    0,000000000e+00    0,000000000e+00    0,000000000e+00    0,000000000e+00
     1388000000   -5,227888227e-01    2,880971730e-01    2,186076790e-01   -3,838637494e-04    0,000000000e+00    0,000000000e+00    0,000000000e+00    0,000000000e+00
     1402000000   -3,025788665e-01    4,156229496e-01    2,183096856e-01   -8,557412773e-02    0,000000000e+00    0,000000000e+00    0,000000000e+00    0,000000000e+00
     1416000000   -9,152539819e-02    4,223825336e-01    1,895189732e-01   -1,133847535e-01    0,000000000e+00    0,000000000e+00    0,000000000e+00    0,000000000e+00
     1430000000    7,382068038e-02    3,425122797e-01    1,617672443e-01   -1,116397455e-01    0,000000000e+00    0,000000000e+00    0,000000000e+00    0,000000000e+00
     1444000000    1,768281162e-01    1,991890669e-01    1,478964686e-01   -1,108355746e-01    0,000000000e+00    0,000000000e+00    0,000000000e+00    0,000000000e+00
     1458000000    2,244623154e-01    4,024735838e-02    1,476279944e-01   -7,631515712e-02    0,000000000e+00    0,000000000e+00    0,000000000e+00    0,000000000e+00
     1472000000    2,047360241e-01   -1,488928199e-01    1,585336924e-01   -4,690404236e-02    0,000000000e+00    0,000000000e+00    0,000000000e+00    0,000000000e+00
     1486000000    1,063124686e-01   -3,163012564e-01    1,740467846e-01    7,066991180e-03    0,000000000e+00    0,000000000e+00    0,000000000e+00    0,000000000e+00
     1500000000   -8,885855973e-02   -4,553690255e-01    1,992759556e-01    6,604218483e-02    0,000000000e+00    0,000000000e+00    0,000000000e+00    0,000000000e+00
