! NanoVNA-App
! Date: 2025-09-25 14:28:04
! Start: 100MHz Stop: 1,5GHz Points: 101
! S-Parameter data: F S11 S21 S12 S22
# Hz S RI R 50
!     Frequency           S11_Real           S11_Imag           S21_Real           S21_Imag           S12_Real           S12_Imag           S22_Real           S22_Imag
      100000000   -2,910438925e-02   -4,144845996e-03    3,745439351e-01   -7,220159769e-01    0,000000000e+00    0,000000000e+00    0,000000000e+00    0,000000000e+00
      114000000   -1,660395227e-02    1,156750228e-02   -8,891129494e-02   -8,058747053e-01    0,000000000e+00    0,000000000e+00    0,000000000e+00    0,000000000e+00
      128000000    3,380906535e-03    1,054609474e-02   -5,143952370e-01   -6,210898757e-01    0,000000000e+00    0,000000000e+00    0,000000000e+00    0,000000000e+00
      142000000    1,443969645e-02   -3,074150765e-03   -7,674357295e-01   -2,370187044e-01    0,000000000e+00    0,000000000e+00    0,000000000e+00    0,000000000e+00
      156000000    1,570764929e-02   -1,462437492e-02   -7,705933452e-01    2,238556892e-01    0,000000000e+00    0,000000000e+00    0,000000000e+00    0,000000000e+00
      170000000    1,643766463e-02   -2,250892296e-02   -5,188381076e-01    6,050307751e-01    0,000000000e+00    0,000000000e+00    0,000000000e+00    0,000000000e+00
      184000000    2,097337507e-02   -3,699392453e-02   -1,019173637e-01    7,868940830e-01    0,000000000e+00    0,000000000e+00    0,000000000e+00    0,000000000e+00
      198000000    1,310706325e-02   -6,259451807e-02    3,429042697e-01    7,130351663e-01    0,000000000e+00    0,000000000e+00    0,000000000e+00    0,000000000e+00
      212000000   -1,869586110e-02   -8,169799298e-02    6,781569123e-01    4,105757177e-01    0,000000000e+00    0,000000000e+00    0,000000000e+00    0,000000000e+00
      226000000   -6,207847223e-02   -6,963921338e-02    7,961202264e-01   -2,963877469e-02    0,000000000e+00    0,000000000e+00    0,000000000e+00    0,000000000e+00
      240000000   -8,332911134e-02   -2,605292387e-02    6,471092105e-01   -4,662886560e-01    0,000000000e+00    0,000000000e+00    0,000000000e+00    0,000000000e+00
      254000000   -6,435947120e-02    1,745260693e-02    2,771292329e-01   -7,432832718e-01    0,000000000e+00    0,000000000e+00    0,000000000e+00    0,000000000e+00
      268000000   -2,400264330e-02    2,948396094e-02   -1,764485240e-01   -7,650201917e-01    0,000000000e+00    0,000000000e+00    0,000000000e+00    0,000000000e+00
      282000000    4,072577227e-03    1,204876136e-02   -5,623728037e-01   -5,376336575e-01    0,000000000e+00    0,000000000e+00    0,000000000e+00    0,000000000e+00
      296000000    9,411409497e-03   -7,823091000e-03   -7,608657479e-01   -1,396284997e-01    0,000000000e+00    0,000000000e+00    0,000000000e+00    0,000000000e+00
      310000000    1,096449606e-02   -1,606928930e-02   -7,134156227e-01    2,983928621e-01    0,000000000e+00    0,000000000e+00    0,000000000e+00    0,000000000e+00
      324000000    1,956394501e-02   -2,640812285e-02   -4,289212227e-01    6,377778649e-01    0,000000000e+00    0,000000000e+00    0,000000000e+00    0,000000000e+00
      338000000    2,542761713e-02   -5,208935216e-02   -1,055325568e-02    7,604056597e-01    0,000000000e+00    0,000000000e+00    0,000000000e+00    0,000000000e+00
      352000000    7,509682328e-03   -8,500232548e-02    4,056931436e-01    6,402815580e-01    0,000000000e+00    0,000000000e+00    0,000000000e+00    0,000000000e+00
      366000000   -3,468721732e-02   -9,593860805e-02    6,904905438e-01    3,124588728e-01    0,000000000e+00    0,000000000e+00    0,000000000e+00    0,000000000e+00
      380000000   -7,162996382e-02   -7,112955302e-02    7,478910685e-01   -1,246858239e-01    0,000000000e+00    0,000000000e+00    0,000000000e+00    0,000000000e+00
      394000000   -7,318948954e-02   -3,251892328e-02    5,477806926e-01   -5,217037797e-01    0,000000000e+00    0,000000000e+00    0,000000000e+00    0,000000000e+00
      408000000   -4,704981670e-02   -1,559001114e-02    1,626827717e-01   -7,315754294e-01    0,000000000e+00    0,000000000e+00    0,000000000e+00    0,000000000e+00
      422000000   -2,847557329e-02   -3,147626668e-02   -2,656641603e-01   -6,951135397e-01    0,000000000e+00    0,000000000e+00    0,000000000e+00    0,000000000e+00
      436000000   -4,031064734e-02   -5,202570930e-02   -6,030558348e-01   -4,342156351e-01    0,000000000e+00    0,000000000e+00    0,000000000e+00    0,000000000e+00
      450000000   -6,759721041e-02   -4,492261261e-02   -7,403877974e-01   -2,506600507e-02    0,000000000e+00    0,000000000e+00    0,000000000e+00    0,000000000e+00
      464000000   -7,419994473e-02   -1,220619306e-02   -6,217086315e-01    3,943643868e-01    0,000000000e+00    0,000000000e+00    0,000000000e+00    0,000000000e+00
      478000000   -4,925072938e-02    1,144464873e-02   -2,862781882e-01    6,669313908e-01    0,000000000e+00    0,000000000e+00    0,000000000e+00    0,000000000e+00
      492000000   -1,684651524e-02    6,339720450e-03    1,347628236e-01    7,030609250e-01    0,000000000e+00    0,000000000e+00    0,000000000e+00    0,000000000e+00
      506000000   -3,382570343e-03   -1,494924165e-02    4,977931380e-01    5,059656501e-01    0,000000000e+00    0,000000000e+00    0,000000000e+00    0,000000000e+00
      520000000   -6,306325551e-03   -3,002288751e-02    6,901034713e-01    1,433172971e-01    0,000000000e+00    0,000000000e+00    0,000000000e+00    0,000000000e+00
      534000000   -3,300901037e-03   -3,573679924e-02    6,447327733e-01   -2,589026093e-01    0,000000000e+00    0,000000000e+00    0,000000000e+00    0,000000000e+00
      548000000    8,492060006e-03   -5,273314193e-02    3,861642182e-01   -5,631555915e-01    0,000000000e+00    0,000000000e+00    0,000000000e+00    0,000000000e+00
      562000000    5,571174901e-03   -8,963461965e-02    8,254310116e-03   -6,723783612e-01    0,000000000e+00    0,000000000e+00    0,000000000e+00    0,000000000e+00
      576000000   -3,135166690e-02   -1,256998330e-01   -3,620191216e-01   -5,611155629e-01    0,000000000e+00    0,000000000e+00    0,000000000e+00    0,000000000e+00
      590000000   -9,519702196e-02   -1,278409362e-01   -6,145285368e-01   -2,713871896e-01    0,000000000e+00    0,000000000e+00    0,000000000e+00    0,000000000e+00
      604000000   -1,434032917e-01   -7,800749689e-02   -6,669473052e-01    1,259821653e-01    0,000000000e+00    0,000000000e+00    0,000000000e+00    0,000000000e+00
      618000000   -1,381112784e-01   -1,157894917e-02   -4,756001532e-01    4,853394032e-01    0,000000000e+00    0,000000000e+00    0,000000000e+00    0,000000000e+00
      632000000   -9,300570190e-02    2,148969099e-02   -1,135510504e-01    6,620858908e-01    0,000000000e+00    0,000000000e+00    0,000000000e+00    0,000000000e+00
      646000000   -5,460144579e-02    1,215835474e-02    2,739931345e-01    6,040782928e-01    0,000000000e+00    0,000000000e+00    0,000000000e+00    0,000000000e+00
      660000000   -4,740445316e-02   -8,210325614e-03    5,578804612e-01    3,408034146e-01    0,000000000e+00    0,000000000e+00    0,000000000e+00    0,000000000e+00
      674000000   -5,561578274e-02   -1,031279843e-02    6,442163587e-01   -3,943222016e-02    0,000000000e+00    0,000000000e+00    0,000000000e+00    0,000000000e+00
      688000000   -5,022209138e-02    2,497767797e-03    4,929923117e-01   -4,011890590e-01    0,000000000e+00    0,000000000e+00    0,000000000e+00    0,000000000e+00
      702000000   -2,625327371e-02    8,025906049e-03    1,607139111e-01   -6,059100032e-01    0,000000000e+00    0,000000000e+00    0,000000000e+00    0,000000000e+00
      716000000   -2,580580069e-03   -8,993863128e-03   -2,184064239e-01   -5,755596161e-01    0,000000000e+00    0,000000000e+00    0,000000000e+00    0,000000000e+00
      730000000    1,010955032e-02   -3,405060992e-02   -5,093476176e-01   -3,328362405e-01    0,000000000e+00    0,000000000e+00    0,000000000e+00    0,000000000e+00
      744000000    1,721918955e-02   -6,120070070e-02   -6,010326147e-01    3,305949643e-02    0,000000000e+00    0,000000000e+00    0,000000000e+00    0,000000000e+00
      758000000    2,265770175e-02   -1,032100469e-01   -4,550076127e-01    3,767232001e-01    0,000000000e+00    0,000000000e+00    0,000000000e+00    0,000000000e+00
      772000000   -5,421693902e-03   -1,738306880e-01   -1,399584413e-01    5,582265854e-01    0,000000000e+00    0,000000000e+00    0,000000000e+00    0,000000000e+00
      786000000   -1,050960943e-01   -2,331399620e-01    2,106028944e-01    5,206058025e-01    0,000000000e+00    0,000000000e+00    0,000000000e+00    0,000000000e+00
      800000000   -2,651340067e-01   -1,939625293e-01    4,715436697e-01    2,761307955e-01    0,000000000e+00    0,000000000e+00    0,000000000e+00    0,000000000e+00
      814000000   -3,651405275e-01    3,430412384e-03    5,077043772e-01   -8,899987489e-02    0,000000000e+00    0,000000000e+00    0,000000000e+00    0,000000000e+00
      828000000   -2,484136224e-01    2,322524041e-01    2,821717560e-01   -3,526356220e-01    0,000000000e+00    0,000000000e+00    0,000000000e+00    0,000000000e+00
      842000000    1,255605929e-02    2,787099779e-01   -1,591789164e-02   -3,628475964e-01    0,000000000e+00    0,000000000e+00    0,000000000e+00    0,000000000e+00
      856000000    2,122299522e-01    1,152943894e-01   -1,876344085e-01   -2,046859264e-01    0,000000000e+00    0,000000000e+00    0,000000000e+00    0,000000000e+00
      870000000    2,390572429e-01   -1,486155242e-01   -2,006822526e-01   -2,547099255e-02    0,000000000e+00    0,000000000e+00    0,000000000e+00    0,000000000e+00
      884000000    3,797023371e-02   -3,861807883e-01   -1,039317325e-01    7,010241598e-02    0,000000000e+00    0,000000000e+00    0,000000000e+00    0,000000000e+00
      898000000   -3,688474000e-01   -3,423486054e-01   -1,646016352e-02    2,740216441e-02    0,000000000e+00    0,000000000e+00    0,000000000e+00    0,000000000e+00
      912000000   -4,686320126e-01    1,380793005e-01   -1,076274514e-01    2,377111651e-02    0,000000000e+00    0,000000000e+00    0,000000000e+00    0,000000000e+00
      926000000   -9,741640836e-02    3,509939313e-01   -1,309870332e-01    1,345581114e-01    0,000000000e+00    0,000000000e+00    0,000000000e+00    0,000000000e+00
      940000000    1,846410185e-01    1,956873238e-01   -3,832839802e-02    2,162688076e-01    0,000000000e+00    0,000000000e+00    0,000000000e+00    0,000000000e+00
      954000000    2,553361654e-01   -5,082511902e-02    7,910668105e-02    2,260223031e-01    0,000000000e+00    0,000000000e+00    0,000000000e+00    0,000000000e+00
      968000000    1,775514036e-01   -2,628876269e-01    1,917009503e-01    1,810555011e-01    0,000000000e+00    0,000000000e+00    0,000000000e+00    0,000000000e+00
      982000000   -1,459836215e-02   -3,930886090e-01    2,796809375e-01    7,856936008e-02    0,000000000e+00    0,000000000e+00    0,000000000e+00    0,000000000e+00
      996000000   -2,761959732e-01   -3,769944906e-01    3,084226251e-01   -7,923478633e-02    0,000000000e+00    0,000000000e+00    0,000000000e+00    0,000000000e+00
     1010000000   -4,686024189e-01   -1,691979617e-01    2,208883762e-01   -2,518901825e-01    0,000000000e+00    0,000000000e+00    0,000000000e+00    0,000000000e+00
     1024000000   -4,621015787e-01    1,199936718e-01    2,232364193e-02   -3,293362260e-01    0,000000000e+00    0,000000000e+00    0,000000000e+00    0,000000000e+00
     1038000000   -2,680022717e-01    2,981424034e-01   -1,730379313e-01   -2,488536090e-01    0,000000000e+00    0,000000000e+00    0,000000000e+00    0,000000000e+00
     1052000000   -3,845039755e-02    3,120595217e-01   -2,568867207e-01   -7,912515104e-02    0,000000000e+00    0,000000000e+00    0,000000000e+00    0,000000000e+00
     1066000000    1,242211610e-01    2,069395930e-01   -2,245898843e-01    8,424999565e-02    0,000000000e+00    0,000000000e+00    0,000000000e+00    0,000000000e+00
     1080000000    2,058978081e-01    4,476041347e-02   -1,211251318e-01    1,941078752e-01    0,000000000e+00    0,000000000e+00    0,000000000e+00    0,000000000e+00
     1094000000    2,003448457e-01   -1,302339584e-01    1,728370599e-02    2,338804156e-01    0,000000000e+00    0,000000000e+00    0,000000000e+00    0,000000000e+00
     1108000000    9,777827561e-02   -2,856774032e-01    1,695346236e-01    2,057401836e-01    0,000000000e+00    0,000000000e+00    0,000000000e+00    0,000000000e+00
     1122000000   -1,040644944e-01   -3,692647219e-01    3,145983517e-01    9,052675217e-02    0,000000000e+00    0,000000000e+00    0,000000000e+00    0,000000000e+00
     1136000000   -3,448525965e-01   -2,645069659e-01    3,911346495e-01   -1,529643983e-01    0,000000000e+00    0,000000000e+00    0,000000000e+00    0,000000000e+00
     1150000000   -4,070221186e-01    3,214740381e-02    2,424386740e-01   -4,353689253e-01    0,000000000e+00    0,000000000e+00    0,000000000e+00    0,000000000e+00
     1164000000   -1,635088027e-01    2,197460383e-01   -9,355123341e-02   -5,133947730e-01    0,000000000e+00    0,000000000e+00    0,000000000e+00    0,000000000e+00
     1178000000    7,432981580e-02    8,075227588e-02   -3,602299988e-01   -3,466219902e-01    0,000000000e+00    0,000000000e+00    0,000000000e+00    0,000000000e+00
     1192000000    7,395002246e-02   -1,723866463e-01   -4,529048502e-01   -8,378890902e-02    0,000000000e+00    0,000000000e+00    0,000000000e+00    0,000000000e+00
     1206000000   -1,662276536e-01   -3,277183473e-01   -3,668087423e-01    1,902871281e-01    0,000000000e+00    0,000000000e+00    0,000000000e+00    0,000000000e+00
     1220000000   -4,598413706e-01   -1,793041378e-01   -1,082503870e-01    3,275552392e-01    0,000000000e+00    0,000000000e+00    0,000000000e+00    0,000000000e+00
     1234000000   -4,693744183e-01    1,640677899e-01    1,398176998e-01    2,189841121e-01    0,000000000e+00    0,000000000e+00    0,000000000e+00    0,000000000e+00
     1248000000   -2,417012900e-01    3,529384732e-01    1,878647953e-01    3,755816072e-02    0,000000000e+00    0,000000000e+00    0,000000000e+00    0,000000000e+00
     1262000000    6,226011086e-03    3,340876400e-01    1,304874420e-01   -7,091806084e-02    0,000000000e+00    0,000000000e+00    0,000000000e+00    0,000000000e+00
     1276000000    1,531051397e-01    2,032107860e-01    5,299494043e-02   -9,333477914e-02    0,000000000e+00    0,000000000e+00    0,000000000e+00    0,000000000e+00
     1290000000    2,211499065e-01    3,235411271e-02    5,895133596e-03   -7,460636646e-02    0,000000000e+00    0,000000000e+00    0,000000000e+00    0,000000000e+00
     1304000000    2,067631483e-01   -1,437067986e-01   -2,193502523e-02   -2,777154371e-02    0,000000000e+00    0,000000000e+00    0,000000000e+00    0,000000000e+00
     1318000000    1,159170941e-01   -3,137838840e-01   -4,338487051e-03    1,676909812e-02    0,000000000e+00    0,000000000e+00    0,000000000e+00    0,000000000e+00
     1332000000   -6,724315137e-02   -4,319275320e-01    4,752452299e-02    5,661829188e-02    0,000000000e+00    0,000000000e+00    0,000000000e+00    0,000000000e+00
     1346000000   -3,280824423e-01   -4,338377714e-01    1,489537954e-01    3,466224670e-02    0,000000000e+00    0,000000000e+00    0,000000000e+00    0,000000000e+00
     1360000000   -5,510998368e-01   -2,431731224e-01    1,240306944e-01   -7,974072546e-02    0,000000000e+00    0,000000000e+00    0,000000000e+00    0,000000000e+00
     1374000000   -6,244851947e-01    2,897546254e-02    1,057984680e-01    5,609958619e-02    0,000000000e+00    0,000000000e+00    0,000000000e+00    0,000000000e+00
     1388000000   -5,121544003e-01    2,867804468e-01    2,263762057e-01    4,569262965e-04    0,000000000e+00    0,000000000e+00    0,000000000e+00    0,000000000e+00
     1402000000   -3,083225787e-01    4,220901430e-01    2,154495120e-01   -7,895503938e-02    0,000000000e+00    0,000000000e+00    0,000000000e+00    0,000000000e+00
     1416000000   -9,850906581e-02    4,155862033e-01    1,858596504e-01   -1,201454327e-01    0,000000000e+00    0,000000000e+00    0,000000000e+00    0,000000000e+00
     1430000000    7,672353089e-02    3,281973600e-01    1,864416301e-01   -1,029395908e-01    0,000000000e+00    0,000000000e+00    0,000000000e+00    0,000000000e+00
     1444000000    1,749901474e-01    1,995613724e-01    1,587426662e-01   -9,845478833e-02    0,000000000e+00    0,000000000e+00    0,000000000e+00    0,000000000e+00
     1458000000    2,250943333e-01    3,042591736e-02    1,459428966e-01   -8,214890212e-02    0,000000000e+00    0,000000000e+00    0,000000000e+00    0,000000000e+00
     1472000000    2,039956003e-01   -1,507405937e-01    1,553521454e-01   -5,957184359e-02    0,000000000e+00    0,000000000e+00    0,000000000e+00    0,000000000e+00
     1486000000    1,037664711e-01   -3,241669536e-01    1,573684812e-01   -6,148185115e-03    0,000000000e+00    0,000000000e+00    0,000000000e+00    0,000000000e+00
     1500000000   -8,824695647e-02   -4,584464133e-01    2,249810398e-01    3,765366971e-02    0,000000000e+00    0,000000000e+00    0,000000000e+00    0,000000000e+00
