! NanoVNA-App
! Date: 2025-09-25 14:25:12
! Start: 100MHz Stop: 1,5GHz Points: 101
! S-Parameter data: F S11 S21 S12 S22
# Hz S RI R 50
!     Frequency           S11_Real           S11_Imag           S21_Real           S21_Imag           S12_Real           S12_Imag           S22_Real           S22_Imag
      100000000   -2,909415774e-02   -4,121964332e-03    3,745128810e-01   -7,220839262e-01    0,000000000e+00    0,000000000e+00    0,000000000e+00    0,000000000e+00
      114000000   -1,658736356e-02    1,162607595e-02   -8,895938098e-02   -8,059809804e-01    0,000000000e+00    0,000000000e+00    0,000000000e+00    0,000000000e+00
      128000000    3,376765875e-03    1,052453648e-02   -5,146410465e-01   -6,210961342e-01    0,000000000e+00    0,000000000e+00    0,000000000e+00    0,000000000e+00
      142000000    1,444527321e-02   -3,085549455e-03   -7,675704956e-01   -2,368315458e-01    0,000000000e+00    0,000000000e+00    0,000000000e+00    0,000000000e+00
      156000000    1,572067291e-02   -1,468390599e-02   -7,705700994e-01    2,238539308e-01    0,000000000e+00    0,000000000e+00    0,000000000e+00    0,000000000e+00
      170000000    1,654702798e-02   -2,249079198e-02   -5,189121962e-01    6,051922441e-01    0,000000000e+00    0,000000000e+00    0,000000000e+00    0,000000000e+00
      184000000    2,095374838e-02   -3,706917167e-02   -1,020114794e-01    7,865571976e-01    0,000000000e+00    0,000000000e+00    0,000000000e+00    0,000000000e+00
      198000000    1,310308371e-02   -6,259126216e-02    3,432371318e-01    7,130883336e-01    0,000000000e+00    0,000000000e+00    0,000000000e+00    0,000000000e+00
      212000000   -1,870409586e-02   -8,171845227e-02    6,784222126e-01    4,104693234e-01    0,000000000e+00    0,000000000e+00    0,000000000e+00    0,000000000e+00
      226000000   -6,205942482e-02   -6,973926723e-02    7,961464524e-01   -2,965953201e-02    0,000000000e+00    0,000000000e+00    0,000000000e+00    0,000000000e+00
      240000000   -8,332502097e-02   -2,606215887e-02    6,469840407e-01   -4,668657482e-01    0,000000000e+00    0,000000000e+00    0,000000000e+00    0,000000000e+00
      254000000   -6,437331438e-02    1,743897423e-02    2,772315145e-01   -7,430265546e-01    0,000000000e+00    0,000000000e+00    0,000000000e+00    0,000000000e+00
      268000000   -2,407245710e-02    2,936056070e-02   -1,764969230e-01   -7,649378777e-01    0,000000000e+00    0,000000000e+00    0,000000000e+00    0,000000000e+00
      282000000    4,155935254e-03    1,209226437e-02   -5,623784661e-01   -5,370032191e-01    0,000000000e+00    0,000000000e+00    0,000000000e+00    0,000000000e+00
      296000000    9,521582164e-03   -7,674229797e-03   -7,606986165e-01   -1,395133436e-01    0,000000000e+00    0,000000000e+00    0,000000000e+00    0,000000000e+00
      310000000    1,103663072e-02   -1,616391726e-02   -7,116670012e-01    2,976987958e-01    0,000000000e+00    0,000000000e+00    0,000000000e+00    0,000000000e+00
      324000000    1,962948591e-02   -2,629335038e-02   -4,283504784e-01    6,371346116e-01    0,000000000e+00    0,000000000e+00    0,000000000e+00    0,000000000e+00
      338000000    2,538084239e-02   -5,191764235e-02   -1,112546027e-02    7,609540820e-01    0,000000000e+00    0,000000000e+00    0,000000000e+00    0,000000000e+00
      352000000    7,172250655e-03   -8,467100561e-02    4,056039751e-01    6,408849955e-01    0,000000000e+00    0,000000000e+00    0,000000000e+00    0,000000000e+00
      366000000   -3,484569490e-02   -9,600780904e-02    6,903414130e-01    3,126125038e-01    0,000000000e+00    0,000000000e+00    0,000000000e+00    0,000000000e+00
      380000000   -7,130113244e-02   -7,116501778e-02    7,489644885e-01   -1,242364943e-01    0,000000000e+00    0,000000000e+00    0,000000000e+00    0,000000000e+00
      394000000   -7,320845872e-02   -3,244724870e-02    5,485878587e-01   -5,209310651e-01    0,000000000e+00    0,000000000e+00    0,000000000e+00    0,000000000e+00
      408000000   -4,698714986e-02   -1,561027858e-02    1,635372788e-01   -7,311692834e-01    0,000000000e+00    0,000000000e+00    0,000000000e+00    0,000000000e+00
      422000000   -2,830564044e-02   -3,165740147e-02   -2,655081153e-01   -6,968232393e-01    0,000000000e+00    0,000000000e+00    0,000000000e+00    0,000000000e+00
      436000000   -4,032218084e-02   -5,188027769e-02   -6,022463441e-01   -4,335267246e-01    0,000000000e+00    0,000000000e+00    0,000000000e+00    0,000000000e+00
      450000000   -6,738349050e-02   -4,471806809e-02   -7,400459051e-01   -2,518939972e-02    0,000000000e+00    0,000000000e+00    0,000000000e+00    0,000000000e+00
      464000000   -7,420144975e-02   -1,213731896e-02   -6,213830709e-01    3,949385881e-01    0,000000000e+00    0,000000000e+00    0,000000000e+00    0,000000000e+00
      478000000   -4,905242100e-02    1,191869844e-02   -2,861759961e-01    6,675987840e-01    0,000000000e+00    0,000000000e+00    0,000000000e+00    0,000000000e+00
      492000000   -1,670719869e-02    6,215085275e-03    1,343119740e-01    7,041327953e-01    0,000000000e+00    0,000000000e+00    0,000000000e+00    0,000000000e+00
      506000000   -4,092821386e-03   -1,510733459e-02    4,970863760e-01    5,055579543e-01    0,000000000e+00    0,000000000e+00    0,000000000e+00    0,000000000e+00
      520000000   -6,108628586e-03   -3,005740605e-02    6,887572408e-01    1,429875642e-01    0,000000000e+00    0,000000000e+00    0,000000000e+00    0,000000000e+00
      534000000   -3,540961072e-03   -3,559814021e-02    6,449431181e-01   -2,595078945e-01    0,000000000e+00    0,000000000e+00    0,000000000e+00    0,000000000e+00
      548000000    8,381960914e-03   -5,275192112e-02    3,849446177e-01   -5,639293790e-01    0,000000000e+00    0,000000000e+00    0,000000000e+00    0,000000000e+00
      562000000    5,689556710e-03   -8,932384104e-02    8,021498099e-03   -6,714290380e-01    0,000000000e+00    0,000000000e+00    0,000000000e+00    0,000000000e+00
      576000000   -3,144093603e-02   -1,263532788e-01   -3,619714975e-01   -5,612998009e-01    0,000000000e+00    0,000000000e+00    0,000000000e+00    0,000000000e+00
      590000000   -9,486202151e-02   -1,278851628e-01   -6,184920669e-01   -2,726835608e-01    0,000000000e+00    0,000000000e+00    0,000000000e+00    0,000000000e+00
      604000000   -1,433177441e-01   -7,806972414e-02   -6,678795218e-01    1,264590919e-01    0,000000000e+00    0,000000000e+00    0,000000000e+00    0,000000000e+00
      618000000   -1,380928159e-01   -1,089878380e-02   -4,749530256e-01    4,852427542e-01    0,000000000e+00    0,000000000e+00    0,000000000e+00    0,000000000e+00
      632000000   -9,347258508e-02    2,213277481e-02   -1,125872731e-01    6,622809768e-01    0,000000000e+00    0,000000000e+00    0,000000000e+00    0,000000000e+00
      646000000   -5,565739051e-02    1,167688612e-02    2,730626464e-01    6,037223339e-01    0,000000000e+00    0,000000000e+00    0,000000000e+00    0,000000000e+00
      660000000   -4,854637012e-02   -9,266085923e-03    5,577307940e-01    3,406865299e-01    0,000000000e+00    0,000000000e+00    0,000000000e+00    0,000000000e+00
      674000000   -5,565845966e-02   -1,107709482e-02    6,442204714e-01   -3,986477479e-02    0,000000000e+00    0,000000000e+00    0,000000000e+00    0,000000000e+00
      688000000   -4,984783009e-02    2,701090183e-03    4,926389754e-01   -4,019668996e-01    0,000000000e+00    0,000000000e+00    0,000000000e+00    0,000000000e+00
      702000000   -2,513254806e-02    7,543713320e-03    1,597363800e-01   -6,046229601e-01    0,000000000e+00    0,000000000e+00    0,000000000e+00    0,000000000e+00
      716000000   -1,435648883e-03   -8,578441106e-03   -2,187720835e-01   -5,757961869e-01    0,000000000e+00    0,000000000e+00    0,000000000e+00    0,000000000e+00
      730000000    9,639184922e-03   -3,539229184e-02   -5,093866587e-01   -3,333804011e-01    0,000000000e+00    0,000000000e+00    0,000000000e+00    0,000000000e+00
      744000000    1,625636406e-02   -6,045897678e-02   -6,010614634e-01    3,318475559e-02    0,000000000e+00    0,000000000e+00    0,000000000e+00    0,000000000e+00
      758000000    2,117119730e-02   -1,031506658e-01   -4,545584619e-01    3,776644766e-01    0,000000000e+00    0,000000000e+00    0,000000000e+00    0,000000000e+00
      772000000   -5,419030320e-03   -1,735271066e-01   -1,396944821e-01    5,586721301e-01    0,000000000e+00    0,000000000e+00    0,000000000e+00    0,000000000e+00
      786000000   -1,052754670e-01   -2,327969074e-01    2,118326724e-01    5,204606652e-01    0,000000000e+00    0,000000000e+00    0,000000000e+00    0,000000000e+00
      800000000   -2,654040158e-01   -1,931185871e-01    4,710520804e-01    2,756620646e-01    0,000000000e+00    0,000000000e+00    0,000000000e+00    0,000000000e+00
      814000000   -3,650715947e-01    3,496375633e-03    5,078334808e-01   -8,864575624e-02    0,000000000e+00    0,000000000e+00    0,000000000e+00    0,000000000e+00
      828000000   -2,474150956e-01    2,336301357e-01    2,813922465e-01   -3,522623479e-01    0,000000000e+00    0,000000000e+00    0,000000000e+00    0,000000000e+00
      842000000    1,316517498e-02    2,777526975e-01   -1,569243707e-02   -3,629547656e-01    0,000000000e+00    0,000000000e+00    0,000000000e+00    0,000000000e+00
      856000000    2,127362490e-01    1,156880483e-01   -1,875816733e-01   -2,048504949e-01    0,000000000e+00    0,000000000e+00    0,000000000e+00    0,000000000e+00
      870000000    2,393056303e-01   -1,483527571e-01   -2,002477944e-01   -2,561558783e-02    0,000000000e+00    0,000000000e+00    0,000000000e+00    0,000000000e+00
      884000000    3,802497312e-02   -3,863897622e-01   -1,040397063e-01    7,114025205e-02    0,000000000e+00    0,000000000e+00    0,000000000e+00    0,000000000e+00
      898000000   -3,686825633e-01   -3,417825997e-01   -1,623315550e-02    2,789985202e-02    0,000000000e+00    0,000000000e+00    0,000000000e+00    0,000000000e+00
      912000000   -4,667286873e-01    1,382720470e-01   -1,068889648e-01    3,600187227e-02    0,000000000e+00    0,000000000e+00    0,000000000e+00    0,000000000e+00
      926000000   -9,766907990e-02    3,501999378e-01   -1,278285086e-01    1,315743774e-01    0,000000000e+00    0,000000000e+00    0,000000000e+00    0,000000000e+00
      940000000    1,836854368e-01    1,963296831e-01   -3,935994953e-02    2,165511996e-01    0,000000000e+00    0,000000000e+00    0,000000000e+00    0,000000000e+00
      954000000    2,531703413e-01   -4,669098184e-02    7,977861911e-02    2,287430614e-01    0,000000000e+00    0,000000000e+00    0,000000000e+00    0,000000000e+00
      968000000    1,741875857e-01   -2,629575133e-01    1,910802871e-01    1,805181354e-01    0,000000000e+00    0,000000000e+00    0,000000000e+00    0,000000000e+00
      982000000   -1,669476740e-02   -3,927911818e-01    2,798395455e-01    7,991740853e-02    0,000000000e+00    0,000000000e+00    0,000000000e+00    0,000000000e+00
      996000000   -2,776225209e-01   -3,746130466e-01    3,098720610e-01   -7,918271422e-02    0,000000000e+00    0,000000000e+00    0,000000000e+00    0,000000000e+00
     1010000000   -4,656015933e-01   -1,721484214e-01    2,212609202e-01   -2,523968220e-01    0,000000000e+00    0,000000000e+00    0,000000000e+00    0,000000000e+00
     1024000000   -4,628923237e-01    1,144470647e-01    2,021302097e-02   -3,300655186e-01    0,000000000e+00    0,000000000e+00    0,000000000e+00    0,000000000e+00
     1038000000   -2,639614642e-01    2,949810922e-01   -1,745078564e-01   -2,466925681e-01    0,000000000e+00    0,000000000e+00    0,000000000e+00    0,000000000e+00
     1052000000   -3,997998685e-02    3,105694652e-01   -2,567702234e-01   -7,745597512e-02    0,000000000e+00    0,000000000e+00    0,000000000e+00    0,000000000e+00
     1066000000    1,313557327e-01    2,045355439e-01   -2,233802527e-01    8,571257442e-02    0,000000000e+00    0,000000000e+00    0,000000000e+00    0,000000000e+00
     1080000000    2,065517753e-01    4,513941705e-02   -1,215735674e-01    1,931721121e-01    0,000000000e+00    0,000000000e+00    0,000000000e+00    0,000000000e+00
     1094000000    2,035385221e-01   -1,296896040e-01    1,690088026e-02    2,358840555e-01    0,000000000e+00    0,000000000e+00    0,000000000e+00    0,000000000e+00
     1108000000    1,038709432e-01   -2,868990898e-01    1,687136889e-01    2,063869685e-01    0,000000000e+00    0,000000000e+00    0,000000000e+00    0,000000000e+00
     1122000000   -1,020864025e-01   -3,710156977e-01    3,160183430e-01    9,027105570e-02    0,000000000e+00    0,000000000e+00    0,000000000e+00    0,000000000e+00
     1136000000   -3,485939801e-01   -2,644209862e-01    3,915070891e-01   -1,504181474e-01    0,000000000e+00    0,000000000e+00    0,000000000e+00    0,000000000e+00
     1150000000   -4,104613066e-01    3,594761714e-02    2,409059852e-01   -4,378895164e-01    0,000000000e+00    0,000000000e+00    0,000000000e+00    0,000000000e+00
     1164000000   -1,604486108e-01    2,230437994e-01   -9,634274244e-02   -5,154623985e-01    0,000000000e+00    0,000000000e+00    0,000000000e+00    0,000000000e+00
     1178000000    7,358468324e-02    8,517492563e-02   -3,562633395e-01   -3,469491899e-01    0,000000000e+00    0,000000000e+00    0,000000000e+00    0,000000000e+00
     1192000000    7,397307456e-02   -1,744783372e-01   -4,535849392e-01   -8,103451133e-02    0,000000000e+00    0,000000000e+00    0,000000000e+00    0,000000000e+00
     1206000000   -1,617271006e-01   -3,235538006e-01   -3,691970706e-01    1,916637719e-01    0,000000000e+00    0,000000000e+00    0,000000000e+00    0,000000000e+00
     1220000000   -4,513678849e-01   -1,802069098e-01   -1,035195068e-01    3,282366693e-01    0,000000000e+00    0,000000000e+00    0,000000000e+00    0,000000000e+00
     1234000000   -4,763548076e-01    1,639723480e-01    1,334272176e-01    2,214167267e-01    0,000000000e+00    0,000000000e+00    0,000000000e+00    0,000000000e+00
     1248000000   -2,380694449e-01    3,503433168e-01    1,911139190e-01    2,607220039e-02    0,000000000e+00    0,000000000e+00    0,000000000e+00    0,000000000e+00
     1262000000    4,983835854e-03    3,254720271e-01    1,267393827e-01   -7,232743502e-02    0,000000000e+00    0,000000000e+00    0,000000000e+00    0,000000000e+00
     1276000000    1,557879150e-01    1,940546632e-01    5,496226624e-02   -9,358596057e-02    0,000000000e+00    0,000000000e+00    0,000000000e+00    0,000000000e+00
     1290000000    2,148361653e-01    3,202676773e-02   -2,526921453e-03   -7,196395844e-02    0,000000000e+00    0,000000000e+00    0,000000000e+00    0,000000000e+00
     1304000000    2,009772658e-01   -1,464985907e-01   -2,213477343e-02   -3,220384941e-02    0,000000000e+00    0,000000000e+00    0,000000000e+00    0,000000000e+00
     1318000000    1,140789464e-01   -3,126541674e-01   -8,611557074e-03    1,768325455e-02    0,000000000e+00    0,000000000e+00    0,000000000e+00    0,000000000e+00
     1332000000   -6,852720678e-02   -4,350256920e-01    5,117492005e-02    5,977213010e-02    0,000000000e+00    0,000000000e+00    0,000000000e+00    0,000000000e+00
     1346000000   -3,329622447e-01   -4,315374494e-01    1,439530551e-01    4,647777230e-02    0,000000000e+00    0,000000000e+00    0,000000000e+00    0,000000000e+00
     1360000000   -5,523438454e-01   -2,466053516e-01    1,185083836e-01   -8,205483854e-02    0,000000000e+00    0,000000000e+00    0,000000000e+00    0,000000000e+00
     1374000000   -6,180773377e-01    3,408982977e-02    1,158185452e-01    5,918285251e-02    0,000000000e+00    0,000000000e+00    0,000000000e+00    0,000000000e+00
     1388000000   -5,128447413e-01    2,845167220e-01    2,189540565e-01   -2,711911220e-03    0,000000000e+00    0,000000000e+00    0,000000000e+00    0,000000000e+00
     1402000000   -3,035110533e-01    4,172192514e-01    2,306471616e-01   -8,057285845e-02    0,000000000e+00    0,000000000e+00    0,000000000e+00    0,000000000e+00
     1416000000   -8,936288208e-02    4,193504453e-01    1,985650808e-01   -1,141265184e-01    0,000000000e+00    0,000000000e+00    0,000000000e+00    0,000000000e+00
     1430000000    6,469494849e-02    3,381573260e-01    1,558350921e-01   -1,144507751e-01    0,000000000e+00    0,000000000e+00    0,000000000e+00    0,000000000e+00
     1444000000    1,745549291e-01    2,025640011e-01    1,477430761e-01   -9,656205028e-02    0,000000000e+00    0,000000000e+00    0,000000000e+00    0,000000000e+00
     1458000000    2,230578363e-01    3,797712550e-02    1,514882445e-01   -7,297455519e-02    0,000000000e+00    0,000000000e+00    0,000000000e+00    0,000000000e+00
     1472000000    2,098914385e-01   -1,471291333e-01    1,459003240e-01   -4,608328268e-02    0,000000000e+00    0,000000000e+00    0,000000000e+00    0,000000000e+00
     1486000000    1,070967838e-01   -3,209090531e-01    1,722445935e-01   -6,684127729e-04    0,000000000e+00    0,000000000e+00    0,000000000e+00    0,000000000e+00
     1500000000   -9,319550544e-02   -4,615580440e-01    2,239795774e-01    4,646074027e-02    0,000000000e+00    0,000000000e+00    0,000000000e+00    0,000000000e+00
