! NanoVNA-App
! Date: 2025-09-25 14:23:05
! Start: 100MHz Stop: 1,5GHz Points: 101
! S-Parameter data: F S11 S21 S12 S22
# Hz S RI R 50
!     Frequency           S11_Real           S11_Imag           S21_Real           S21_Imag           S12_Real           S12_Imag           S22_Real           S22_Imag
      100000000   -2,908242680e-02   -4,135097843e-03    3,744529486e-01   -7,220987082e-01    0,000000000e+00    0,000000000e+00    0,000000000e+00    0,000000000e+00
      114000000   -1,664168015e-02    1,162539795e-02   -8,904448152e-02   -8,058611155e-01    0,000000000e+00    0,000000000e+00    0,000000000e+00    0,000000000e+00
      128000000    3,353141947e-03    1,055178978e-02   -5,145562887e-01   -6,209278107e-01    0,000000000e+00    0,000000000e+00    0,000000000e+00    0,000000000e+00
      142000000    1,446428522e-02   -3,024662146e-03   -7,674142718e-01   -2,367570549e-01    0,000000000e+00    0,000000000e+00    0,000000000e+00    0,000000000e+00
      156000000    1,533050369e-02   -1,483356301e-02   -7,691394091e-01    2,232802063e-01    0,000000000e+00    0,000000000e+00    0,000000000e+00    0,000000000e+00
      170000000    1,661042497e-02   -2,249571122e-02   -5,186633468e-01    6,051388383e-01    0,000000000e+00    0,000000000e+00    0,000000000e+00    0,000000000e+00
      184000000    2,094626054e-02   -3,710813820e-02   -1,020472050e-01    7,868005633e-01    0,000000000e+00    0,000000000e+00    0,000000000e+00    0,000000000e+00
      198000000    1,300583687e-02   -6,260121614e-02    3,432163596e-01    7,128075957e-01    0,000000000e+00    0,000000000e+00    0,000000000e+00    0,000000000e+00
      212000000   -1,872164197e-02   -8,167367429e-02    6,783769727e-01    4,105815887e-01    0,000000000e+00    0,000000000e+00    0,000000000e+00    0,000000000e+00
      226000000   -6,199481711e-02   -6,962514669e-02    7,961753011e-01   -2,980426140e-02    0,000000000e+00    0,000000000e+00    0,000000000e+00    0,000000000e+00
      240000000   -8,316061646e-02   -2,608566545e-02    6,474571824e-01   -4,668170810e-01    0,000000000e+00    0,000000000e+00    0,000000000e+00    0,000000000e+00
      254000000   -6,435829401e-02    1,721727476e-02    2,770883143e-01   -7,435696721e-01    0,000000000e+00    0,000000000e+00    0,000000000e+00    0,000000000e+00
      268000000   -2,432017028e-02    2,954777889e-02   -1,771198362e-01   -7,650915980e-01    0,000000000e+00    0,000000000e+00    0,000000000e+00    0,000000000e+00
      282000000    4,184168298e-03    1,217356231e-02   -5,625550151e-01   -5,376399159e-01    0,000000000e+00    0,000000000e+00    0,000000000e+00    0,000000000e+00
      296000000    9,605370462e-03   -7,705698255e-03   -7,608562708e-01   -1,395670474e-01    0,000000000e+00    0,000000000e+00    0,000000000e+00    0,000000000e+00
      310000000    1,101974957e-02   -1,611469314e-02   -7,121043801e-01    2,978035510e-01    0,000000000e+00    0,000000000e+00    0,000000000e+00    0,000000000e+00
      324000000    1,956694573e-02   -2,639468201e-02   -4,277825356e-01    6,369386911e-01    0,000000000e+00    0,000000000e+00    0,000000000e+00    0,000000000e+00
      338000000    2,514418215e-02   -5,203856155e-02   -1,148958318e-02    7,612364292e-01    0,000000000e+00    0,000000000e+00    0,000000000e+00    0,000000000e+00
      352000000    7,453956176e-03   -8,481211960e-02    4,049090445e-01    6,398693919e-01    0,000000000e+00    0,000000000e+00    0,000000000e+00    0,000000000e+00
      366000000   -3,479662910e-02   -9,589598328e-02    6,903861761e-01    3,134673238e-01    0,000000000e+00    0,000000000e+00    0,000000000e+00    0,000000000e+00
      380000000   -7,132722437e-02   -7,129435986e-02    7,486705184e-01   -1,250749081e-01    0,000000000e+00    0,000000000e+00    0,000000000e+00    0,000000000e+00
      394000000   -7,309249789e-02   -3,233278170e-02    5,472466350e-01   -5,209402442e-01    0,000000000e+00    0,000000000e+00    0,000000000e+00    0,000000000e+00
      408000000   -4,680943489e-02   -1,576596871e-02    1,633871049e-01   -7,321677208e-01    0,000000000e+00    0,000000000e+00    0,000000000e+00    0,000000000e+00
      422000000   -2,818673290e-02   -3,153106570e-02   -2,652505040e-01   -6,962487102e-01    0,000000000e+00    0,000000000e+00    0,000000000e+00    0,000000000e+00
      436000000   -4,012928903e-02   -5,174711719e-02   -6,026772261e-01   -4,333226383e-01    0,000000000e+00    0,000000000e+00    0,000000000e+00    0,000000000e+00
      450000000   -6,754798442e-02   -4,479146376e-02   -7,404740453e-01   -2,485223860e-02    0,000000000e+00    0,000000000e+00    0,000000000e+00    0,000000000e+00
      464000000   -7,448914647e-02   -1,219032891e-02   -6,217186451e-01    3,946940303e-01    0,000000000e+00    0,000000000e+00    0,000000000e+00    0,000000000e+00
      478000000   -4,935874417e-02    1,148594730e-02   -2,861433327e-01    6,668835878e-01    0,000000000e+00    0,000000000e+00    0,000000000e+00    0,000000000e+00
      492000000   -1,697302796e-02    6,297043059e-03    1,336001605e-01    7,033696175e-01    0,000000000e+00    0,000000000e+00    0,000000000e+00    0,000000000e+00
      506000000   -3,517577192e-03   -1,538155042e-02    4,977427125e-01    5,063263774e-01    0,000000000e+00    0,000000000e+00    0,000000000e+00    0,000000000e+00
      520000000   -6,086723413e-03   -2,986624464e-02    6,888070703e-01    1,432317644e-01    0,000000000e+00    0,000000000e+00    0,000000000e+00    0,000000000e+00
      534000000   -3,152505727e-03   -3,584748507e-02    6,449162960e-01   -2,600097358e-01    0,000000000e+00    0,000000000e+00    0,000000000e+00    0,000000000e+00
      548000000    8,038849570e-03   -5,238796771e-02    3,846715689e-01   -5,643571615e-01    0,000000000e+00    0,000000000e+00    0,000000000e+00    0,000000000e+00
      562000000    5,887572188e-03   -8,976132423e-02    8,136649616e-03   -6,715596914e-01    0,000000000e+00    0,000000000e+00    0,000000000e+00    0,000000000e+00
      576000000   -3,136267141e-02   -1,264029890e-01   -3,622629941e-01   -5,605521798e-01    0,000000000e+00    0,000000000e+00    0,000000000e+00    0,000000000e+00
      590000000   -9,480347484e-02   -1,277402490e-01   -6,186096668e-01   -2,718746364e-01    0,000000000e+00    0,000000000e+00    0,000000000e+00    0,000000000e+00
      604000000   -1,431000680e-01   -7,797719538e-02   -6,676365733e-01    1,263522059e-01    0,000000000e+00    0,000000000e+00    0,000000000e+00    0,000000000e+00
      618000000   -1,383452415e-01   -1,168214343e-02   -4,746481180e-01    4,866140187e-01    0,000000000e+00    0,000000000e+00    0,000000000e+00    0,000000000e+00
      632000000   -9,283270687e-02    2,143740281e-02   -1,127754971e-01    6,627599001e-01    0,000000000e+00    0,000000000e+00    0,000000000e+00    0,000000000e+00
      646000000   -5,599112809e-02    1,197492704e-02    2,734787464e-01    6,046437025e-01    0,000000000e+00    0,000000000e+00    0,000000000e+00    0,000000000e+00
      660000000   -4,882947728e-02   -8,901861496e-03    5,572866201e-01    3,402844071e-01    0,000000000e+00    0,000000000e+00    0,000000000e+00    0,000000000e+00
      674000000   -5,551547185e-02   -9,977239184e-03    6,440246105e-01   -3,980638832e-02    0,000000000e+00    0,000000000e+00    0,000000000e+00    0,000000000e+00
      688000000   -5,026105791e-02    2,538374159e-03    4,926891625e-01   -4,015246034e-01    0,000000000e+00    0,000000000e+00    0,000000000e+00    0,000000000e+00
      702000000   -2,522950806e-02    6,744849496e-03    1,608377695e-01   -6,053736806e-01    0,000000000e+00    0,000000000e+00    0,000000000e+00    0,000000000e+00
      716000000   -1,520952908e-03   -8,693447337e-03   -2,189930826e-01   -5,747394562e-01    0,000000000e+00    0,000000000e+00    0,000000000e+00    0,000000000e+00
      730000000    9,366955608e-03   -3,515515104e-02   -5,090255737e-01   -3,333209455e-01    0,000000000e+00    0,000000000e+00    0,000000000e+00    0,000000000e+00
      744000000    1,714541949e-02   -6,145244092e-02   -6,007981300e-01    3,330445290e-02    0,000000000e+00    0,000000000e+00    0,000000000e+00    0,000000000e+00
      758000000    2,142105252e-02   -1,034444943e-01   -4,548432529e-01    3,769808412e-01    0,000000000e+00    0,000000000e+00    0,000000000e+00    0,000000000e+00
      772000000   -5,151385907e-03   -1,738271862e-01   -1,383718252e-01    5,581770539e-01    0,000000000e+00    0,000000000e+00    0,000000000e+00    0,000000000e+00
      786000000   -1,049795523e-01   -2,323444635e-01    2,118677348e-01    5,191284418e-01    0,000000000e+00    0,000000000e+00    0,000000000e+00    0,000000000e+00
      800000000   -2,658571303e-01   -1,934708953e-01    4,721979797e-01    2,759430110e-01    0,000000000e+00    0,000000000e+00    0,000000000e+00    0,000000000e+00
      814000000   -3,635849357e-01    3,356548725e-03    5,078675747e-01   -8,870835602e-02    0,000000000e+00    0,000000000e+00    0,000000000e+00    0,000000000e+00
      828000000   -2,480479330e-01    2,326922864e-01    2,815784514e-01   -3,531793058e-01    0,000000000e+00    0,000000000e+00    0,000000000e+00    0,000000000e+00
      842000000    1,285237260e-02    2,777575254e-01   -1,667845063e-02   -3,629526198e-01    0,000000000e+00    0,000000000e+00    0,000000000e+00    0,000000000e+00
      856000000    2,128612846e-01    1,154018790e-01   -1,872513592e-01   -2,048081756e-01    0,000000000e+00    0,000000000e+00    0,000000000e+00    0,000000000e+00
      870000000    2,388758510e-01   -1,487985104e-01   -2,006734759e-01   -2,571466379e-02    0,000000000e+00    0,000000000e+00    0,000000000e+00    0,000000000e+00
      884000000    3,729098663e-02   -3,877946734e-01   -1,033409983e-01    7,134628296e-02    0,000000000e+00    0,000000000e+00    0,000000000e+00    0,000000000e+00
      898000000   -3,695613742e-01   -3,416883051e-01   -1,680103876e-02    2,709821984e-02    0,000000000e+00    0,000000000e+00    0,000000000e+00    0,000000000e+00
      912000000   -4,664567113e-01    1,377452314e-01   -1,108571887e-01    2,392285876e-02    0,000000000e+00    0,000000000e+00    0,000000000e+00    0,000000000e+00
      926000000   -9,405368567e-02    3,518620431e-01   -1,263500005e-01    1,356535405e-01    0,000000000e+00    0,000000000e+00    0,000000000e+00    0,000000000e+00
      940000000    1,847984344e-01    1,956264526e-01   -3,894839808e-02    2,167484164e-01    0,000000000e+00    0,000000000e+00    0,000000000e+00    0,000000000e+00
      954000000    2,526168525e-01   -4,645064473e-02    7,905774564e-02    2,282967418e-01    0,000000000e+00    0,000000000e+00    0,000000000e+00    0,000000000e+00
      968000000    1,776688546e-01   -2,616795897e-01    1,909791231e-01    1,805964410e-01    0,000000000e+00    0,000000000e+00    0,000000000e+00    0,000000000e+00
      982000000   -1,839045435e-02   -3,921797574e-01    2,800928354e-01    7,921142876e-02    0,000000000e+00    0,000000000e+00    0,000000000e+00    0,000000000e+00
      996000000   -2,721998692e-01   -3,788043261e-01    3,085984290e-01   -7,860645652e-02    0,000000000e+00    0,000000000e+00    0,000000000e+00    0,000000000e+00
     1010000000   -4,682733417e-01   -1,702456623e-01    2,222127616e-01   -2,532056868e-01    0,000000000e+00    0,000000000e+00    0,000000000e+00    0,000000000e+00
     1024000000   -4,558558762e-01    1,200707704e-01    1,963909529e-02   -3,296446502e-01    0,000000000e+00    0,000000000e+00    0,000000000e+00    0,000000000e+00
     1038000000   -2,657916248e-01    3,005537093e-01   -1,724260300e-01   -2,486274391e-01    0,000000000e+00    0,000000000e+00    0,000000000e+00    0,000000000e+00
     1052000000   -3,997695819e-02    3,082961142e-01   -2,562467754e-01   -7,716277987e-02    0,000000000e+00    0,000000000e+00    0,000000000e+00    0,000000000e+00
     1066000000    1,246911213e-01    2,032474577e-01   -2,228009105e-01    8,714985847e-02    0,000000000e+00    0,000000000e+00    0,000000000e+00    0,000000000e+00
     1080000000    2,072342783e-01    4,912257940e-02   -1,197908893e-01    1,927818805e-01    0,000000000e+00    0,000000000e+00    0,000000000e+00    0,000000000e+00
     1094000000    2,041945159e-01   -1,286407411e-01    1,703706570e-02    2,351960540e-01    0,000000000e+00    0,000000000e+00    0,000000000e+00    0,000000000e+00
     1108000000    1,019043624e-01   -2,903883755e-01    1,682671607e-01    2,075143307e-01    0,000000000e+00    0,000000000e+00    0,000000000e+00    0,000000000e+00
     1122000000   -9,727739543e-02   -3,686144352e-01    3,146215677e-01    9,076198936e-02    0,000000000e+00    0,000000000e+00    0,000000000e+00    0,000000000e+00
     1136000000   -3,433346450e-01   -2,671859562e-01    3,920773268e-01   -1,515468657e-01    0,000000000e+00    0,000000000e+00    0,000000000e+00    0,000000000e+00
     1150000000   -4,045971632e-01    3,830506653e-02    2,456281781e-01   -4,388626516e-01    0,000000000e+00    0,000000000e+00    0,000000000e+00    0,000000000e+00
     1164000000   -1,572476029e-01    2,133964598e-01   -9,792670608e-02   -5,128285885e-01    0,000000000e+00    0,000000000e+00    0,000000000e+00    0,000000000e+00
     1178000000    7,820316404e-02    8,335651457e-02   -3,540879190e-01   -3,462626338e-01    0,000000000e+00    0,000000000e+00    0,000000000e+00    0,000000000e+00
     1192000000    7,798747718e-02   -1,731606126e-01   -4,522620142e-01   -8,387536556e-02    0,000000000e+00    0,000000000e+00    0,000000000e+00    0,000000000e+00
     1206000000   -1,621857584e-01   -3,290915191e-01   -3,711203933e-01    1,840249896e-01    0,000000000e+00    0,000000000e+00    0,000000000e+00    0,000000000e+00
     1220000000   -4,492331445e-01   -1,778138429e-01   -1,020372584e-01    3,282538950e-01    0,000000000e+00    0,000000000e+00    0,000000000e+00    0,000000000e+00
     1234000000   -4,755308926e-01    1,644146442e-01    1,384557933e-01    2,212439626e-01    0,000000000e+00    0,000000000e+00    0,000000000e+00    0,000000000e+00
     1248000000   -2,388104051e-01    3,509518802e-01    1,859942675e-01    3,568758443e-02    0,000000000e+00    0,000000000e+00    0,000000000e+00    0,000000000e+00
     1262000000    6,183012389e-03    3,236111999e-01    1,281064004e-01   -7,482606173e-02    0,000000000e+00    0,000000000e+00    0,000000000e+00    0,000000000e+00
     1276000000    1,525985748e-01    2,003393769e-01    5,429083854e-02   -9,411296993e-02    0,000000000e+00    0,000000000e+00    0,000000000e+00    0,000000000e+00
     1290000000    2,186155915e-01    3,238109499e-02    1,254939241e-03   -7,060621679e-02    0,000000000e+00    0,000000000e+00    0,000000000e+00    0,000000000e+00
     1304000000    2,067857981e-01   -1,435123533e-01   -2,414412983e-02   -3,079965338e-02    0,000000000e+00    0,000000000e+00    0,000000000e+00    0,000000000e+00
     1318000000    1,150591448e-01   -3,141051531e-01   -5,303505808e-03    2,100842260e-02    0,000000000e+00    0,000000000e+00    0,000000000e+00    0,000000000e+00
     1332000000   -6,980463862e-02   -4,307039082e-01    5,205509812e-02    6,385196000e-02    0,000000000e+00    0,000000000e+00    0,000000000e+00    0,000000000e+00
     1346000000   -3,294007778e-01   -4,348973632e-01    1,481658369e-01    4,738387838e-02    0,000000000e+00    0,000000000e+00    0,000000000e+00    0,000000000e+00
     1360000000   -5,571308732e-01   -2,412122339e-01    1,057546288e-01   -8,263593912e-02    0,000000000e+00    0,000000000e+00    0,000000000e+00    0,000000000e+00
     1374000000   -6,288980246e-01    3,008235991e-02    1,082512215e-01    5,205283314e-02    0,000000000e+00    0,000000000e+00    0,000000000e+00    0,000000000e+00
     1388000000   -5,109027624e-01    2,868594527e-01    2,335670739e-01    3,071362386e-03    0,000000000e+00    0,000000000e+00    0,000000000e+00    0,000000000e+00
     1402000000   -3,030839860e-01    4,140385389e-01    2,211328745e-01   -7,997803390e-02    0,000000000e+00    0,000000000e+00    0,000000000e+00    0,000000000e+00
     1416000000   -9,648761153e-02    4,153299630e-01    1,852535605e-01   -1,269605756e-01    0,000000000e+00    0,000000000e+00    0,000000000e+00    0,000000000e+00
     1430000000    7,618785650e-02    3,390553296e-01    1,749994755e-01   -1,111752391e-01    0,000000000e+00    0,000000000e+00    0,000000000e+00    0,000000000e+00
     1444000000    1,695659161e-01    1,961013079e-01    1,502408236e-01   -1,055471823e-01    0,000000000e+00    0,000000000e+00    0,000000000e+00    0,000000000e+00
     1458000000    2,271415144e-01    3,774795309e-02    1,589726955e-01   -7,686170191e-02    0,000000000e+00    0,000000000e+00    0,000000000e+00    0,000000000e+00
     1472000000    2,052037865e-01   -1,389872879e-01    1,454301476e-01   -4,828912392e-02    0,000000000e+00    0,000000000e+00    0,000000000e+00    0,000000000e+00
     1486000000    1,037358269e-01   -3,252543211e-01    1,663386673e-01   -8,277329616e-03    0,000000000e+00    0,000000000e+00    0,000000000e+00    0,000000000e+00
     1500000000   -9,158645570e-02   -4,498588741e-01    2,258181572e-01    5,656829849e-02    0,000000000e+00    0,000000000e+00    0,000000000e+00    0,000000000e+00
