! NanoVNA-App
! Date: 2025-09-25 14:27:28
! Start: 100MHz Stop: 1,5GHz Points: 101
! S-Parameter data: F S11 S21 S12 S22
# Hz S RI R 50
!     Frequency           S11_Real           S11_Imag           S21_Real           S21_Imag           S12_Real           S12_Imag           S22_Real           S22_Imag
      100000000   -2,908224426e-02   -4,138923250e-03    3,745355606e-01   -7,219862342e-01    0,000000000e+00    0,000000000e+00    0,000000000e+00    0,000000000e+00
      114000000   -1,662337966e-02    1,158635132e-02   -8,890604973e-02   -8,058086038e-01    0,000000000e+00    0,000000000e+00    0,000000000e+00    0,000000000e+00
      128000000    3,359729657e-03    1,054382417e-02   -5,145426989e-01   -6,212172508e-01    0,000000000e+00    0,000000000e+00    0,000000000e+00    0,000000000e+00
      142000000    1,444460824e-02   -3,067308106e-03   -7,675777078e-01   -2,369356155e-01    0,000000000e+00    0,000000000e+00    0,000000000e+00    0,000000000e+00
      156000000    1,562706940e-02   -1,470948011e-02   -7,706018090e-01    2,238090485e-01    0,000000000e+00    0,000000000e+00    0,000000000e+00    0,000000000e+00
      170000000    1,653249562e-02   -2,243648656e-02   -5,187848210e-01    6,049682498e-01    0,000000000e+00    0,000000000e+00    0,000000000e+00    0,000000000e+00
      184000000    2,100778930e-02   -3,693569079e-02   -1,019234285e-01    7,865310907e-01    0,000000000e+00    0,000000000e+00    0,000000000e+00    0,000000000e+00
      198000000    1,313733123e-02   -6,260668486e-02    3,430587053e-01    7,131830454e-01    0,000000000e+00    0,000000000e+00    0,000000000e+00    0,000000000e+00
      212000000   -1,869705506e-02   -8,170767874e-02    6,783061028e-01    4,107508361e-01    0,000000000e+00    0,000000000e+00    0,000000000e+00    0,000000000e+00
      226000000   -6,208718941e-02   -6,974155456e-02    7,960554361e-01   -2,963210270e-02    0,000000000e+00    0,000000000e+00    0,000000000e+00    0,000000000e+00
      240000000   -8,326351643e-02   -2,602025308e-02    6,470029354e-01   -4,668547511e-01    0,000000000e+00    0,000000000e+00    0,000000000e+00    0,000000000e+00
      254000000   -6,433922797e-02    1,749575883e-02    2,771933973e-01   -7,431703210e-01    0,000000000e+00    0,000000000e+00    0,000000000e+00    0,000000000e+00
      268000000   -2,405096032e-02    2,947024815e-02   -1,767017096e-01   -7,650461197e-01    0,000000000e+00    0,000000000e+00    0,000000000e+00    0,000000000e+00
      282000000    4,063575063e-03    1,211757120e-02   -5,626000762e-01   -5,372671485e-01    0,000000000e+00    0,000000000e+00    0,000000000e+00    0,000000000e+00
      296000000    9,630597197e-03   -7,800483610e-03   -7,608387470e-01   -1,395148039e-01    0,000000000e+00    0,000000000e+00    0,000000000e+00    0,000000000e+00
      310000000    1,069463883e-02   -1,615664363e-02   -7,128392458e-01    2,986152172e-01    0,000000000e+00    0,000000000e+00    0,000000000e+00    0,000000000e+00
      324000000    1,949605159e-02   -2,641981468e-02   -4,295946062e-01    6,377699375e-01    0,000000000e+00    0,000000000e+00    0,000000000e+00    0,000000000e+00
      338000000    2,546728589e-02   -5,203581601e-02   -1,213417854e-02    7,633933425e-01    0,000000000e+00    0,000000000e+00    0,000000000e+00    0,000000000e+00
      352000000    7,452216931e-03   -8,495494723e-02    4,046894610e-01    6,403084993e-01    0,000000000e+00    0,000000000e+00    0,000000000e+00    0,000000000e+00
      366000000   -3,476227820e-02   -9,609396756e-02    6,909586191e-01    3,119215369e-01    0,000000000e+00    0,000000000e+00    0,000000000e+00    0,000000000e+00
      380000000   -7,146541029e-02   -7,123598456e-02    7,484322786e-01   -1,250396222e-01    0,000000000e+00    0,000000000e+00    0,000000000e+00    0,000000000e+00
      394000000   -7,343274355e-02   -3,223010898e-02    5,473774672e-01   -5,196115375e-01    0,000000000e+00    0,000000000e+00    0,000000000e+00    0,000000000e+00
      408000000   -4,671332613e-02   -1,555114705e-02    1,623238325e-01   -7,315270305e-01    0,000000000e+00    0,000000000e+00    0,000000000e+00    0,000000000e+00
      422000000   -2,830321528e-02   -3,135144338e-02   -2,659248412e-01   -6,955539584e-01    0,000000000e+00    0,000000000e+00    0,000000000e+00    0,000000000e+00
      436000000   -4,001824930e-02   -5,189025030e-02   -6,023904085e-01   -4,337897301e-01    0,000000000e+00    0,000000000e+00    0,000000000e+00    0,000000000e+00
      450000000   -6,726935506e-02   -4,490779713e-02   -7,402560115e-01   -2,532314509e-02    0,000000000e+00    0,000000000e+00    0,000000000e+00    0,000000000e+00
      464000000   -7,406809926e-02   -1,250080764e-02   -6,206053495e-01    3,947502971e-01    0,000000000e+00    0,000000000e+00    0,000000000e+00    0,000000000e+00
      478000000   -4,952675104e-02    1,159879100e-02   -2,867624164e-01    6,673891544e-01    0,000000000e+00    0,000000000e+00    0,000000000e+00    0,000000000e+00
      492000000   -1,717431284e-02    6,620523985e-03    1,343100518e-01    7,032079697e-01    0,000000000e+00    0,000000000e+00    0,000000000e+00    0,000000000e+00
      506000000   -3,821116639e-03   -1,488253847e-02    4,969916642e-01    5,062148571e-01    0,000000000e+00    0,000000000e+00    0,000000000e+00    0,000000000e+00
      520000000   -5,502297543e-03   -2,958321199e-02    6,911550164e-01    1,450617164e-01    0,000000000e+00    0,000000000e+00    0,000000000e+00    0,000000000e+00
      534000000   -3,247696208e-03   -3,552219272e-02    6,446519494e-01   -2,593379915e-01    0,000000000e+00    0,000000000e+00    0,000000000e+00    0,000000000e+00
      548000000    8,102698252e-03   -5,266677588e-02    3,856037259e-01   -5,638061762e-01    0,000000000e+00    0,000000000e+00    0,000000000e+00    0,000000000e+00
      562000000    5,996391643e-03   -8,918010443e-02    8,043561131e-03   -6,715533137e-01    0,000000000e+00    0,000000000e+00    0,000000000e+00    0,000000000e+00
      576000000   -3,162354603e-02   -1,259772182e-01   -3,623992503e-01   -5,607212782e-01    0,000000000e+00    0,000000000e+00    0,000000000e+00    0,000000000e+00
      590000000   -9,483182430e-02   -1,278713942e-01   -6,150342226e-01   -2,733073235e-01    0,000000000e+00    0,000000000e+00    0,000000000e+00    0,000000000e+00
      604000000   -1,431199908e-01   -7,758559287e-02   -6,672310829e-01    1,262395829e-01    0,000000000e+00    0,000000000e+00    0,000000000e+00    0,000000000e+00
      618000000   -1,379035711e-01   -1,171488129e-02   -4,755460620e-01    4,853846431e-01    0,000000000e+00    0,000000000e+00    0,000000000e+00    0,000000000e+00
      632000000   -9,274356067e-02    2,167021111e-02   -1,140342057e-01    6,639431119e-01    0,000000000e+00    0,000000000e+00    0,000000000e+00    0,000000000e+00
      646000000   -5,478202552e-02    1,242936496e-02    2,734247446e-01    6,038395762e-01    0,000000000e+00    0,000000000e+00    0,000000000e+00    0,000000000e+00
      660000000   -4,821247607e-02   -8,386135101e-03    5,572371483e-01    3,408607244e-01    0,000000000e+00    0,000000000e+00    0,000000000e+00    0,000000000e+00
      674000000   -5,526513234e-02   -1,026080549e-02    6,442184448e-01   -3,929897770e-02    0,000000000e+00    0,000000000e+00    0,000000000e+00    0,000000000e+00
      688000000   -4,999390990e-02    3,577983938e-03    4,932702780e-01   -4,019069374e-01    0,000000000e+00    0,000000000e+00    0,000000000e+00    0,000000000e+00
      702000000   -2,683659829e-02    7,493730169e-03    1,647730619e-01   -6,003502607e-01    0,000000000e+00    0,000000000e+00    0,000000000e+00    0,000000000e+00
      716000000   -2,756078262e-03   -9,412401356e-03   -2,195874155e-01   -5,764170289e-01    0,000000000e+00    0,000000000e+00    0,000000000e+00    0,000000000e+00
      730000000    9,669089690e-03   -3,509585187e-02   -5,093940496e-01   -3,335189521e-01    0,000000000e+00    0,000000000e+00    0,000000000e+00    0,000000000e+00
      744000000    1,602682285e-02   -6,055010855e-02   -6,004716754e-01    3,288009018e-02    0,000000000e+00    0,000000000e+00    0,000000000e+00    0,000000000e+00
      758000000    2,193423547e-02   -1,038070917e-01   -4,541271627e-01    3,771715164e-01    0,000000000e+00    0,000000000e+00    0,000000000e+00    0,000000000e+00
      772000000   -4,434756935e-03   -1,742056012e-01   -1,401247978e-01    5,579061508e-01    0,000000000e+00    0,000000000e+00    0,000000000e+00    0,000000000e+00
      786000000   -1,056374237e-01   -2,321905047e-01    2,119302452e-01    5,194971561e-01    0,000000000e+00    0,000000000e+00    0,000000000e+00    0,000000000e+00
      800000000   -2,658004463e-01   -1,936309040e-01    4,716220498e-01    2,763841152e-01    0,000000000e+00    0,000000000e+00    0,000000000e+00    0,000000000e+00
      814000000   -3,649177849e-01    4,284064285e-03    5,077815652e-01   -8,882065862e-02    0,000000000e+00    0,000000000e+00    0,000000000e+00    0,000000000e+00
      828000000   -2,481565624e-01    2,331164330e-01    2,816074193e-01   -3,515080214e-01    0,000000000e+00    0,000000000e+00    0,000000000e+00    0,000000000e+00
      842000000    1,263955235e-02    2,779266536e-01   -1,519555226e-02   -3,631619513e-01    0,000000000e+00    0,000000000e+00    0,000000000e+00    0,000000000e+00
      856000000    2,125774771e-01    1,153677106e-01   -1,879942268e-01   -2,049590349e-01    0,000000000e+00    0,000000000e+00    0,000000000e+00    0,000000000e+00
      870000000    2,387901992e-01   -1,487602443e-01   -2,004746646e-01   -2,655233815e-02    0,000000000e+00    0,000000000e+00    0,000000000e+00    0,000000000e+00
      884000000    3,819449991e-02   -3,867790997e-01   -1,044546589e-01    7,122172415e-02    0,000000000e+00    0,000000000e+00    0,000000000e+00    0,000000000e+00
      898000000   -3,683739305e-01   -3,417307734e-01   -1,646236517e-02    2,796737105e-02    0,000000000e+00    0,000000000e+00    0,000000000e+00    0,000000000e+00
      912000000   -4,662667513e-01    1,379139125e-01   -1,043349579e-01    3,362298384e-02    0,000000000e+00    0,000000000e+00    0,000000000e+00    0,000000000e+00
      926000000   -9,722390771e-02    3,500432074e-01   -1,286100447e-01    1,330354363e-01    0,000000000e+00    0,000000000e+00    0,000000000e+00    0,000000000e+00
      940000000    1,837088317e-01    1,963931173e-01   -3,870581463e-02    2,171292156e-01    0,000000000e+00    0,000000000e+00    0,000000000e+00    0,000000000e+00
      954000000    2,562041879e-01   -4,928376153e-02    8,015500009e-02    2,281518131e-01    0,000000000e+00    0,000000000e+00    0,000000000e+00    0,000000000e+00
      968000000    1,768119484e-01   -2,604881823e-01    1,928678304e-01    1,804627180e-01    0,000000000e+00    0,000000000e+00    0,000000000e+00    0,000000000e+00
      982000000   -1,899506152e-02   -3,958522975e-01    2,793727517e-01    7,972031832e-02    0,000000000e+00    0,000000000e+00    0,000000000e+00    0,000000000e+00
      996000000   -2,754106820e-01   -3,758417666e-01    3,087450266e-01   -7,798327506e-02    0,000000000e+00    0,000000000e+00    0,000000000e+00    0,000000000e+00
     1010000000   -4,674440026e-01   -1,714041978e-01    2,192628682e-01   -2,519924343e-01    0,000000000e+00    0,000000000e+00    0,000000000e+00    0,000000000e+00
     1024000000   -4,567988515e-01    1,144309118e-01    2,157687023e-02   -3,303560317e-01    0,000000000e+00    0,000000000e+00    0,000000000e+00    0,000000000e+00
     1038000000   -2,609464824e-01    2,989829481e-01   -1,732220203e-01   -2,481861562e-01    0,000000000e+00    0,000000000e+00    0,000000000e+00    0,000000000e+00
     1052000000   -4,090033472e-02    3,074218035e-01   -2,558629513e-01   -7,838860154e-02    0,000000000e+00    0,000000000e+00    0,000000000e+00    0,000000000e+00
     1066000000    1,280308217e-01    2,035785466e-01   -2,268341035e-01    8,601294458e-02    0,000000000e+00    0,000000000e+00    0,000000000e+00    0,000000000e+00
     1080000000    2,099216133e-01    4,469425604e-02   -1,207943782e-01    1,945513040e-01    0,000000000e+00    0,000000000e+00    0,000000000e+00    0,000000000e+00
     1094000000    1,984968334e-01   -1,299275905e-01    1,860105805e-02    2,355680317e-01    0,000000000e+00    0,000000000e+00    0,000000000e+00    0,000000000e+00
     1108000000    9,957181662e-02   -2,850168645e-01    1,699801683e-01    2,083316445e-01    0,000000000e+00    0,000000000e+00    0,000000000e+00    0,000000000e+00
     1122000000   -1,021428481e-01   -3,724288344e-01    3,157667220e-01    9,058651328e-02    0,000000000e+00    0,000000000e+00    0,000000000e+00    0,000000000e+00
     1136000000   -3,452138901e-01   -2,726670802e-01    3,923588991e-01   -1,521057039e-01    0,000000000e+00    0,000000000e+00    0,000000000e+00    0,000000000e+00
     1150000000   -4,136544466e-01    3,415514529e-02    2,435188144e-01   -4,365293384e-01    0,000000000e+00    0,000000000e+00    0,000000000e+00    0,000000000e+00
     1164000000   -1,604682803e-01    2,143180519e-01   -9,924919903e-02   -5,142344236e-01    0,000000000e+00    0,000000000e+00    0,000000000e+00    0,000000000e+00
     1178000000    7,354664057e-02    8,583796769e-02   -3,573012054e-01   -3,476468325e-01    0,000000000e+00    0,000000000e+00    0,000000000e+00    0,000000000e+00
     1192000000    7,529878616e-02   -1,744214147e-01   -4,540953338e-01   -8,577847481e-02    0,000000000e+00    0,000000000e+00    0,000000000e+00    0,000000000e+00
     1206000000   -1,636822522e-01   -3,302643299e-01   -3,691877723e-01    1,877953410e-01    0,000000000e+00    0,000000000e+00    0,000000000e+00    0,000000000e+00
     1220000000   -4,553377330e-01   -1,783772856e-01   -1,115924567e-01    3,272013962e-01    0,000000000e+00    0,000000000e+00    0,000000000e+00    0,000000000e+00
     1234000000   -4,740931988e-01    1,638649702e-01    1,388076544e-01    2,191377729e-01    0,000000000e+00    0,000000000e+00    0,000000000e+00    0,000000000e+00
     1248000000   -2,304319292e-01    3,517891467e-01    1,918338686e-01    3,245476261e-02    0,000000000e+00    0,000000000e+00    0,000000000e+00    0,000000000e+00
     1262000000    8,699342608e-03    3,296677470e-01    1,280670464e-01   -7,131584734e-02    0,000000000e+00    0,000000000e+00    0,000000000e+00    0,000000000e+00
     1276000000    1,546430737e-01    2,009189129e-01    5,134389922e-02   -9,127444029e-02    0,000000000e+00    0,000000000e+00    0,000000000e+00    0,000000000e+00
     1290000000    2,171386927e-01    3,290340304e-02   -1,496659475e-03   -7,269240916e-02    0,000000000e+00    0,000000000e+00    0,000000000e+00    0,000000000e+00
     1304000000    2,055382580e-01   -1,436500102e-01   -1,771012880e-02   -3,123309277e-02    0,000000000e+00    0,000000000e+00    0,000000000e+00    0,000000000e+00
     1318000000    1,153888926e-01   -3,131680489e-01   -1,025065407e-02    2,588095516e-02    0,000000000e+00    0,000000000e+00    0,000000000e+00    0,000000000e+00
     1332000000   -6,799300015e-02   -4,347839952e-01    4,412407801e-02    6,002060324e-02    0,000000000e+00    0,000000000e+00    0,000000000e+00    0,000000000e+00
     1346000000   -3,299317956e-01   -4,335684180e-01    1,402543634e-01    5,189028010e-02    0,000000000e+00    0,000000000e+00    0,000000000e+00    0,000000000e+00
     1360000000   -5,547384620e-01   -2,434237599e-01    1,102850884e-01   -8,270417899e-02    0,000000000e+00    0,000000000e+00    0,000000000e+00    0,000000000e+00
     1374000000   -6,258311272e-01    2,127403580e-02    1,045381948e-01    5,578106642e-02    0,000000000e+00    0,000000000e+00    0,000000000e+00    0,000000000e+00
     1388000000   -5,100962520e-01    2,887888253e-01    2,323075682e-01    2,942122985e-03    0,000000000e+00    0,000000000e+00    0,000000000e+00    0,000000000e+00
     1402000000   -3,003664613e-01    4,210318029e-01    2,289061993e-01   -8,425286412e-02    0,000000000e+00    0,000000000e+00    0,000000000e+00    0,000000000e+00
     1416000000   -9,476835281e-02    4,244398177e-01    1,858386099e-01   -1,096591130e-01    0,000000000e+00    0,000000000e+00    0,000000000e+00    0,000000000e+00
     1430000000    8,025665581e-02    3,421182632e-01    1,863932610e-01   -1,415079832e-01    0,000000000e+00    0,000000000e+00    0,000000000e+00    0,000000000e+00
     1444000000    1,776164621e-01    2,038525492e-01    1,513067335e-01   -9,350865334e-02    0,000000000e+00    0,000000000e+00    0,000000000e+00    0,000000000e+00
     1458000000    2,272603512e-01    3,514229506e-02    1,575290263e-01   -8,124615252e-02    0,000000000e+00    0,000000000e+00    0,000000000e+00    0,000000000e+00
     1472000000    2,067767978e-01   -1,450218856e-01    1,576296091e-01   -6,183496863e-02    0,000000000e+00    0,000000000e+00    0,000000000e+00    0,000000000e+00
     1486000000    1,043802425e-01   -3,261124492e-01    1,536770612e-01    2,937181853e-03    0,000000000e+00    0,000000000e+00    0,000000000e+00    0,000000000e+00
     1500000000   -9,653358907e-02   -4,643720090e-01    2,075641453e-01    5,165839940e-02    0,000000000e+00    0,000000000e+00    0,000000000e+00    0,000000000e+00
