! NanoVNA-App
! Date: 2025-09-25 14:28:44
! Start: 100MHz Stop: 1,5GHz Points: 101
! S-Parameter data: F S11 S21 S12 S22
# Hz S RI R 50
!     Frequency           S11_Real           S11_Imag           S21_Real           S21_Imag           S12_Real           S12_Imag           S22_Real           S22_Imag
      100000000   -2,909555100e-02   -4,131527618e-03    3,745462596e-01   -7,220755816e-01    0,000000000e+00    0,000000000e+00    0,000000000e+00    0,000000000e+00
      114000000   -1,661109738e-02    1,160734985e-02   -8,878929913e-02   -8,058474064e-01    0,000000000e+00    0,000000000e+00    0,000000000e+00    0,000000000e+00
      128000000    3,416458145e-03    1,050626952e-02   -5,145477057e-01   -6,209827065e-01    0,000000000e+00    0,000000000e+00    0,000000000e+00    0,000000000e+00
      142000000    1,443694346e-02   -3,085140139e-03   -7,674559355e-01   -2,369485050e-01    0,000000000e+00    0,000000000e+00    0,000000000e+00    0,000000000e+00
      156000000    1,491361577e-02   -1,498487499e-02   -7,698720098e-01    2,194141448e-01    0,000000000e+00    0,000000000e+00    0,000000000e+00    0,000000000e+00
      170000000    1,648984663e-02   -2,242235467e-02   -5,189482570e-01    6,050427556e-01    0,000000000e+00    0,000000000e+00    0,000000000e+00    0,000000000e+00
      184000000    2,098967135e-02   -3,700758517e-02   -1,018518955e-01    7,865242958e-01    0,000000000e+00    0,000000000e+00    0,000000000e+00    0,000000000e+00
      198000000    1,317585446e-02   -6,258466095e-02    3,432202935e-01    7,131584287e-01    0,000000000e+00    0,000000000e+00    0,000000000e+00    0,000000000e+00
      212000000   -1,870354079e-02   -8,171915263e-02    6,783717871e-01    4,105810523e-01    0,000000000e+00    0,000000000e+00    0,000000000e+00    0,000000000e+00
      226000000   -6,210337952e-02   -6,971342117e-02    7,961687446e-01   -2,968239784e-02    0,000000000e+00    0,000000000e+00    0,000000000e+00    0,000000000e+00
      240000000   -8,330696076e-02   -2,607780322e-02    6,470846534e-01   -4,663989246e-01    0,000000000e+00    0,000000000e+00    0,000000000e+00    0,000000000e+00
      254000000   -6,437773257e-02    1,752618328e-02    2,771070302e-01   -7,430920601e-01    0,000000000e+00    0,000000000e+00    0,000000000e+00    0,000000000e+00
      268000000   -2,399650030e-02    2,940815128e-02   -1,768890172e-01   -7,652434111e-01    0,000000000e+00    0,000000000e+00    0,000000000e+00    0,000000000e+00
      282000000    4,183855839e-03    1,210485864e-02   -5,624198318e-01   -5,370112062e-01    0,000000000e+00    0,000000000e+00    0,000000000e+00    0,000000000e+00
      296000000    9,517866187e-03   -7,742269896e-03   -7,608392239e-01   -1,395923197e-01    0,000000000e+00    0,000000000e+00    0,000000000e+00    0,000000000e+00
      310000000    1,078656316e-02   -1,613632962e-02   -7,123956680e-01    2,981754839e-01    0,000000000e+00    0,000000000e+00    0,000000000e+00    0,000000000e+00
      324000000    1,948730275e-02   -2,644883096e-02   -4,298968315e-01    6,380683184e-01    0,000000000e+00    0,000000000e+00    0,000000000e+00    0,000000000e+00
      338000000    2,558969520e-02   -5,180930719e-02   -8,778420277e-03    7,614107728e-01    0,000000000e+00    0,000000000e+00    0,000000000e+00    0,000000000e+00
      352000000    7,439608686e-03   -8,504608274e-02    4,058511257e-01    6,408864856e-01    0,000000000e+00    0,000000000e+00    0,000000000e+00    0,000000000e+00
      366000000   -3,492730111e-02   -9,602442384e-02    6,903384328e-01    3,123219311e-01    0,000000000e+00    0,000000000e+00    0,000000000e+00    0,000000000e+00
      380000000   -7,173021883e-02   -7,121087611e-02    7,482123375e-01   -1,245379373e-01    0,000000000e+00    0,000000000e+00    0,000000000e+00    0,000000000e+00
      394000000   -7,314304262e-02   -3,231336176e-02    5,492834449e-01   -5,212098360e-01    0,000000000e+00    0,000000000e+00    0,000000000e+00    0,000000000e+00
      408000000   -4,681045935e-02   -1,548134722e-02    1,634078473e-01   -7,318652868e-01    0,000000000e+00    0,000000000e+00    0,000000000e+00    0,000000000e+00
      422000000   -2,826517820e-02   -3,142778203e-02   -2,654452920e-01   -6,959403753e-01    0,000000000e+00    0,000000000e+00    0,000000000e+00    0,000000000e+00
      436000000   -4,016003758e-02   -5,182828382e-02   -6,028975844e-01   -4,332399368e-01    0,000000000e+00    0,000000000e+00    0,000000000e+00    0,000000000e+00
      450000000   -6,748447567e-02   -4,496210068e-02   -7,402412295e-01   -2,512959950e-02    0,000000000e+00    0,000000000e+00    0,000000000e+00    0,000000000e+00
      464000000   -7,449192554e-02   -1,255683042e-02   -6,219458580e-01    3,946867883e-01    0,000000000e+00    0,000000000e+00    0,000000000e+00    0,000000000e+00
      478000000   -4,942814633e-02    1,163021196e-02   -2,863615751e-01    6,673479676e-01    0,000000000e+00    0,000000000e+00    0,000000000e+00    0,000000000e+00
      492000000   -1,701917127e-02    6,432104856e-03    1,339403540e-01    7,037190199e-01    0,000000000e+00    0,000000000e+00    0,000000000e+00    0,000000000e+00
      506000000   -3,611161606e-03   -1,497886330e-02    4,980565310e-01    5,066624284e-01    0,000000000e+00    0,000000000e+00    0,000000000e+00    0,000000000e+00
      520000000   -5,562941078e-03   -2,967195585e-02    6,906902790e-01    1,447641551e-01    0,000000000e+00    0,000000000e+00    0,000000000e+00    0,000000000e+00
      534000000   -3,475572681e-03   -3,586573899e-02    6,446455717e-01   -2,594001293e-01    0,000000000e+00    0,000000000e+00    0,000000000e+00    0,000000000e+00
      548000000    7,882270962e-03   -5,276558921e-02    3,853401542e-01   -5,644517541e-01    0,000000000e+00    0,000000000e+00    0,000000000e+00    0,000000000e+00
      562000000    6,026286632e-03   -8,936565369e-02    9,098012000e-03   -6,715219617e-01    0,000000000e+00    0,000000000e+00    0,000000000e+00    0,000000000e+00
      576000000   -3,123279661e-02   -1,263437569e-01   -3,622100055e-01   -5,615100265e-01    0,000000000e+00    0,000000000e+00    0,000000000e+00    0,000000000e+00
      590000000   -9,504821151e-02   -1,279215515e-01   -6,182604432e-01   -2,713074386e-01    0,000000000e+00    0,000000000e+00    0,000000000e+00    0,000000000e+00
      604000000   -1,430869102e-01   -7,774392515e-02   -6,671085954e-01    1,266056597e-01    0,000000000e+00    0,000000000e+00    0,000000000e+00    0,000000000e+00
      618000000   -1,381269544e-01   -1,101172343e-02   -4,754620492e-01    4,858123064e-01    0,000000000e+00    0,000000000e+00    0,000000000e+00    0,000000000e+00
      632000000   -9,339210391e-02    2,217573114e-02   -1,134590134e-01    6,634815335e-01    0,000000000e+00    0,000000000e+00    0,000000000e+00    0,000000000e+00
      646000000   -5,566119775e-02    1,188811474e-02    2,731456459e-01    6,038396358e-01    0,000000000e+00    0,000000000e+00    0,000000000e+00    0,000000000e+00
      660000000   -4,834606498e-02   -9,022777900e-03    5,577504039e-01    3,410211205e-01    0,000000000e+00    0,000000000e+00    0,000000000e+00    0,000000000e+00
      674000000   -5,575667322e-02   -1,037663128e-02    6,442489624e-01   -3,955197334e-02    0,000000000e+00    0,000000000e+00    0,000000000e+00    0,000000000e+00
      688000000   -5,046207830e-02    3,610264976e-03    4,932566583e-01   -4,027605355e-01    0,000000000e+00    0,000000000e+00    0,000000000e+00    0,000000000e+00
      702000000   -2,577906661e-02    7,275863085e-03    1,659145802e-01   -6,040194035e-01    0,000000000e+00    0,000000000e+00    0,000000000e+00    0,000000000e+00
      716000000   -1,723315334e-03   -8,471140638e-03   -2,176640928e-01   -5,757728219e-01    0,000000000e+00    0,000000000e+00    0,000000000e+00    0,000000000e+00
      730000000    9,652293287e-03   -3,391681239e-02   -5,087878704e-01   -3,341173828e-01    0,000000000e+00    0,000000000e+00    0,000000000e+00    0,000000000e+00
      744000000    1,723066345e-02   -6,101107225e-02   -6,005461812e-01    3,312588483e-02    0,000000000e+00    0,000000000e+00    0,000000000e+00    0,000000000e+00
      758000000    2,167789452e-02   -1,033816040e-01   -4,543362260e-01    3,767337501e-01    0,000000000e+00    0,000000000e+00    0,000000000e+00    0,000000000e+00
      772000000   -5,078997929e-03   -1,737477630e-01   -1,392891556e-01    5,581682324e-01    0,000000000e+00    0,000000000e+00    0,000000000e+00    0,000000000e+00
      786000000   -1,053491458e-01   -2,329193950e-01    2,119948566e-01    5,202585459e-01    0,000000000e+00    0,000000000e+00    0,000000000e+00    0,000000000e+00
      800000000   -2,660268545e-01   -1,924719512e-01    4,714283645e-01    2,760696411e-01    0,000000000e+00    0,000000000e+00    0,000000000e+00    0,000000000e+00
      814000000   -3,652373254e-01    3,153547645e-03    5,078249574e-01   -8,788168430e-02    0,000000000e+00    0,000000000e+00    0,000000000e+00    0,000000000e+00
      828000000   -2,486300617e-01    2,326448411e-01    2,819332778e-01   -3,531484902e-01    0,000000000e+00    0,000000000e+00    0,000000000e+00    0,000000000e+00
      842000000    1,241269428e-02    2,788545191e-01   -1,520638447e-02   -3,626240492e-01    0,000000000e+00    0,000000000e+00    0,000000000e+00    0,000000000e+00
      856000000    2,125460058e-01    1,151363030e-01   -1,878991276e-01   -2,055605799e-01    0,000000000e+00    0,000000000e+00    0,000000000e+00    0,000000000e+00
      870000000    2,389200479e-01   -1,485267729e-01   -2,008112073e-01   -2,597106434e-02    0,000000000e+00    0,000000000e+00    0,000000000e+00    0,000000000e+00
      884000000    3,748494759e-02   -3,866255283e-01   -1,041862965e-01    7,035260648e-02    0,000000000e+00    0,000000000e+00    0,000000000e+00    0,000000000e+00
      898000000   -3,688713312e-01   -3,416999280e-01   -1,715544984e-02    2,782916836e-02    0,000000000e+00    0,000000000e+00    0,000000000e+00    0,000000000e+00
      912000000   -4,674697816e-01    1,373022944e-01   -1,109301299e-01    2,245385014e-02    0,000000000e+00    0,000000000e+00    0,000000000e+00    0,000000000e+00
      926000000   -9,408915043e-02    3,492243290e-01   -1,272515208e-01    1,337096989e-01    0,000000000e+00    0,000000000e+00    0,000000000e+00    0,000000000e+00
      940000000    1,823305488e-01    1,941009462e-01   -3,946020454e-02    2,158287913e-01    0,000000000e+00    0,000000000e+00    0,000000000e+00    0,000000000e+00
      954000000    2,549126148e-01   -5,031587556e-02    8,009552211e-02    2,261533290e-01    0,000000000e+00    0,000000000e+00    0,000000000e+00    0,000000000e+00
      968000000    1,740307361e-01   -2,609934807e-01    1,906516254e-01    1,814695895e-01    0,000000000e+00    0,000000000e+00    0,000000000e+00    0,000000000e+00
      982000000   -1,977829821e-02   -3,939355910e-01    2,775571942e-01    7,875741273e-02    0,000000000e+00    0,000000000e+00    0,000000000e+00    0,000000000e+00
      996000000   -2,759839296e-01   -3,785563707e-01    3,097898960e-01   -7,934913039e-02    0,000000000e+00    0,000000000e+00    0,000000000e+00    0,000000000e+00
     1010000000   -4,669711292e-01   -1,774695367e-01    2,206498682e-01   -2,535913587e-01    0,000000000e+00    0,000000000e+00    0,000000000e+00    0,000000000e+00
     1024000000   -4,549002647e-01    1,185240149e-01    1,983754337e-02   -3,294511735e-01    0,000000000e+00    0,000000000e+00    0,000000000e+00    0,000000000e+00
     1038000000   -2,639876008e-01    3,016022146e-01   -1,733068079e-01   -2,492883950e-01    0,000000000e+00    0,000000000e+00    0,000000000e+00    0,000000000e+00
     1052000000   -3,890801221e-02    3,116675317e-01   -2,554790080e-01   -7,842277735e-02    0,000000000e+00    0,000000000e+00    0,000000000e+00    0,000000000e+00
     1066000000    1,258091629e-01    2,077446282e-01   -2,276210785e-01    8,675254881e-02    0,000000000e+00    0,000000000e+00    0,000000000e+00    0,000000000e+00
     1080000000    2,055416405e-01    4,667603597e-02   -1,192040816e-01    1,937784404e-01    0,000000000e+00    0,000000000e+00    0,000000000e+00    0,000000000e+00
     1094000000    2,012012750e-01   -1,297522336e-01    1,738489233e-02    2,335314304e-01    0,000000000e+00    0,000000000e+00    0,000000000e+00    0,000000000e+00
     1108000000    9,893667698e-02   -2,838091850e-01    1,697346270e-01    2,064040750e-01    0,000000000e+00    0,000000000e+00    0,000000000e+00    0,000000000e+00
     1122000000   -1,018526331e-01   -3,673516810e-01    3,161654174e-01    8,801210672e-02    0,000000000e+00    0,000000000e+00    0,000000000e+00    0,000000000e+00
     1136000000   -3,420020938e-01   -2,706100941e-01    3,911437690e-01   -1,502463371e-01    0,000000000e+00    0,000000000e+00    0,000000000e+00    0,000000000e+00
     1150000000   -4,057743251e-01    3,818473965e-02    2,452571839e-01   -4,353328943e-01    0,000000000e+00    0,000000000e+00    0,000000000e+00    0,000000000e+00
     1164000000   -1,610829234e-01    2,201828361e-01   -9,638730437e-02   -5,169442892e-01    0,000000000e+00    0,000000000e+00    0,000000000e+00    0,000000000e+00
     1178000000    7,893375307e-02    8,342853189e-02   -3,544009626e-01   -3,501842022e-01    0,000000000e+00    0,000000000e+00    0,000000000e+00    0,000000000e+00
     1192000000    7,359808683e-02   -1,746456474e-01   -4,547446668e-01   -8,389343321e-02    0,000000000e+00    0,000000000e+00    0,000000000e+00    0,000000000e+00
     1206000000   -1,652162671e-01   -3,290113509e-01   -3,679916263e-01    1,873880029e-01    0,000000000e+00    0,000000000e+00    0,000000000e+00    0,000000000e+00
     1220000000   -4,531949162e-01   -1,805190295e-01   -1,030962616e-01    3,243357241e-01    0,000000000e+00    0,000000000e+00    0,000000000e+00    0,000000000e+00
     1234000000   -4,735563099e-01    1,633249074e-01    1,368276924e-01    2,222139090e-01    0,000000000e+00    0,000000000e+00    0,000000000e+00    0,000000000e+00
     1248000000   -2,393761873e-01    3,514786065e-01    1,919900924e-01    3,446409106e-02    0,000000000e+00    0,000000000e+00    0,000000000e+00    0,000000000e+00
     1262000000    9,416203946e-03    3,287651837e-01    1,313914210e-01   -7,535864413e-02    0,000000000e+00    0,000000000e+00    0,000000000e+00    0,000000000e+00
     1276000000    1,586216837e-01    1,995141953e-01    5,783401057e-02   -9,834507853e-02    0,000000000e+00    0,000000000e+00    0,000000000e+00    0,000000000e+00
     1290000000    2,187776715e-01    3,401017189e-02    5,274120253e-03   -7,426886261e-02    0,000000000e+00    0,000000000e+00    0,000000000e+00    0,000000000e+00
     1304000000    2,046274394e-01   -1,431624591e-01   -1,946218871e-02   -2,859754115e-02    0,000000000e+00    0,000000000e+00    0,000000000e+00    0,000000000e+00
     1318000000    1,164294183e-01   -3,160032332e-01   -1,197754522e-03    1,895780675e-02    0,000000000e+00    0,000000000e+00    0,000000000e+00    0,000000000e+00
     1332000000   -6,693294644e-02   -4,313737452e-01    4,540078714e-02    5,737557635e-02    0,000000000e+00    0,000000000e+00    0,000000000e+00    0,000000000e+00
     1346000000   -3,306697905e-01   -4,383994937e-01    1,425351501e-01    4,723622277e-02    0,000000000e+00    0,000000000e+00    0,000000000e+00    0,000000000e+00
     1360000000   -5,553992391e-01   -2,460241318e-01    1,303344369e-01   -8,258416504e-02    0,000000000e+00    0,000000000e+00    0,000000000e+00    0,000000000e+00
     1374000000   -6,264703274e-01    3,000358865e-02    1,025542095e-01    5,479303375e-02    0,000000000e+00    0,000000000e+00    0,000000000e+00    0,000000000e+00
     1388000000   -5,184454918e-01    2,873819172e-01    2,189256251e-01   -1,217723358e-02    0,000000000e+00    0,000000000e+00    0,000000000e+00    0,000000000e+00
     1402000000   -3,061152101e-01    4,267228544e-01    2,219503820e-01   -8,158927411e-02    0,000000000e+00    0,000000000e+00    0,000000000e+00    0,000000000e+00
     1416000000   -8,480001241e-02    4,181799889e-01    1,991041154e-01   -1,217495427e-01    0,000000000e+00    0,000000000e+00    0,000000000e+00    0,000000000e+00
     1430000000    7,131993026e-02    3,384552300e-01    1,884273887e-01   -9,699538350e-02    0,000000000e+00    0,000000000e+00    0,000000000e+00    0,000000000e+00
     1444000000    1,799822003e-01    1,971040964e-01    1,580716968e-01   -1,082589328e-01    0,000000000e+00    0,000000000e+00    0,000000000e+00    0,000000000e+00
     1458000000    2,262369841e-01    3,274972364e-02    1,577445418e-01   -7,481388003e-02    0,000000000e+00    0,000000000e+00    0,000000000e+00    0,000000000e+00
     1472000000    2,070604414e-01   -1,483433098e-01    1,531756073e-01   -6,116214395e-02    0,000000000e+00    0,000000000e+00    0,000000000e+00    0,000000000e+00
     1486000000    1,055663675e-01   -3,255558014e-01    1,561497748e-01   -4,608652554e-03    0,000000000e+00    0,000000000e+00    0,000000000e+00    0,000000000e+00
     1500000000   -9,647441655e-02   -4,614611864e-01    2,195768803e-01    4,738914594e-02    0,000000000e+00    0,000000000e+00    0,000000000e+00    0,000000000e+00
