! NanoVNA-App
! Date: 2025-09-25 14:22:39
! Start: 100MHz Stop: 1,5GHz Points: 101
! S-Parameter data: F S11 S21 S12 S22
# Hz S RI R 50
!     Frequency           S11_Real           S11_Imag           S21_Real           S21_Imag           S12_Real           S12_Imag           S22_Real           S22_Imag
      100000000   -2,908485942e-02   -4,147035070e-03    3,743971288e-01   -7,220283747e-01    0,000000000e+00    0,000000000e+00    0,000000000e+00    0,000000000e+00
      114000000   -1,663764007e-02    1,161190402e-02   -8,905053139e-02   -8,056364059e-01    0,000000000e+00    0,000000000e+00    0,000000000e+00    0,000000000e+00
      128000000    3,435802413e-03    1,056057587e-02   -5,144371986e-01   -6,210765243e-01    0,000000000e+00    0,000000000e+00    0,000000000e+00    0,000000000e+00
      142000000    1,445442159e-02   -3,013651120e-03   -7,673581839e-01   -2,369215041e-01    0,000000000e+00    0,000000000e+00    0,000000000e+00    0,000000000e+00
      156000000    1,575991511e-02   -1,463367324e-02   -7,704852819e-01    2,239324450e-01    0,000000000e+00    0,000000000e+00    0,000000000e+00    0,000000000e+00
      170000000    1,661154628e-02   -2,251997218e-02   -5,186572671e-01    6,049770117e-01    0,000000000e+00    0,000000000e+00    0,000000000e+00    0,000000000e+00
      184000000    2,102159895e-02   -3,709657118e-02   -1,017981395e-01    7,862812877e-01    0,000000000e+00    0,000000000e+00    0,000000000e+00    0,000000000e+00
      198000000    1,305118389e-02   -6,261426210e-02    3,430176079e-01    7,130230665e-01    0,000000000e+00    0,000000000e+00    0,000000000e+00    0,000000000e+00
      212000000   -1,869068667e-02   -8,163170516e-02    6,785480976e-01    4,105694592e-01    0,000000000e+00    0,000000000e+00    0,000000000e+00    0,000000000e+00
      226000000   -6,201428548e-02   -6,968306005e-02    7,961200476e-01   -2,975668944e-02    0,000000000e+00    0,000000000e+00    0,000000000e+00    0,000000000e+00
      240000000   -8,317398280e-02   -2,613924630e-02    6,471407413e-01   -4,665798843e-01    0,000000000e+00    0,000000000e+00    0,000000000e+00    0,000000000e+00
      254000000   -6,430835277e-02    1,720897295e-02    2,769520581e-01   -7,437359691e-01    0,000000000e+00    0,000000000e+00    0,000000000e+00    0,000000000e+00
      268000000   -2,429183945e-02    2,948867343e-02   -1,769009829e-01   -7,652763128e-01    0,000000000e+00    0,000000000e+00    0,000000000e+00    0,000000000e+00
      282000000    4,235362634e-03    1,220186707e-02   -5,627976656e-01   -5,371856093e-01    0,000000000e+00    0,000000000e+00    0,000000000e+00    0,000000000e+00
      296000000    9,577509947e-03   -7,718958426e-03   -7,607384324e-01   -1,394667029e-01    0,000000000e+00    0,000000000e+00    0,000000000e+00    0,000000000e+00
      310000000    1,082734112e-02   -1,626344770e-02   -7,120868564e-01    2,970515490e-01    0,000000000e+00    0,000000000e+00    0,000000000e+00    0,000000000e+00
      324000000    1,969214529e-02   -2,677864954e-02   -4,281872809e-01    6,374408007e-01    0,000000000e+00    0,000000000e+00    0,000000000e+00    0,000000000e+00
      338000000    2,527928539e-02   -5,193165317e-02   -8,202314377e-03    7,608044744e-01    0,000000000e+00    0,000000000e+00    0,000000000e+00    0,000000000e+00
      352000000    7,446395699e-03   -8,481484652e-02    4,059876800e-01    6,402120590e-01    0,000000000e+00    0,000000000e+00    0,000000000e+00    0,000000000e+00
      366000000   -3,498311341e-02   -9,584787488e-02    6,910091639e-01    3,123805821e-01    0,000000000e+00    0,000000000e+00    0,000000000e+00    0,000000000e+00
      380000000   -7,139027119e-02   -7,111073285e-02    7,482718229e-01   -1,249521226e-01    0,000000000e+00    0,000000000e+00    0,000000000e+00    0,000000000e+00
      394000000   -7,322726399e-02   -3,243440390e-02    5,475392938e-01   -5,222115517e-01    0,000000000e+00    0,000000000e+00    0,000000000e+00    0,000000000e+00
      408000000   -4,670130089e-02   -1,555546559e-02    1,637316644e-01   -7,313931584e-01    0,000000000e+00    0,000000000e+00    0,000000000e+00    0,000000000e+00
      422000000   -2,843380719e-02   -3,176533058e-02   -2,664577961e-01   -6,964087486e-01    0,000000000e+00    0,000000000e+00    0,000000000e+00    0,000000000e+00
      436000000   -4,021502659e-02   -5,189669132e-02   -6,030718684e-01   -4,333571792e-01    0,000000000e+00    0,000000000e+00    0,000000000e+00    0,000000000e+00
      450000000   -6,729208678e-02   -4,456748068e-02   -7,402972579e-01   -2,501071990e-02    0,000000000e+00    0,000000000e+00    0,000000000e+00    0,000000000e+00
      464000000   -7,443308830e-02   -1,267562807e-02   -6,219743490e-01    3,942797184e-01    0,000000000e+00    0,000000000e+00    0,000000000e+00    0,000000000e+00
      478000000   -4,906153679e-02    1,163161453e-02   -2,867220938e-01    6,678646803e-01    0,000000000e+00    0,000000000e+00    0,000000000e+00    0,000000000e+00
      492000000   -1,720428653e-02    6,540290080e-03    1,340707541e-01    7,031828165e-01    0,000000000e+00    0,000000000e+00    0,000000000e+00    0,000000000e+00
      506000000   -3,872212255e-03   -1,513410360e-02    4,975876212e-01    5,055462718e-01    0,000000000e+00    0,000000000e+00    0,000000000e+00    0,000000000e+00
      520000000   -5,800684448e-03   -2,955422923e-02    6,888453960e-01    1,435617507e-01    0,000000000e+00    0,000000000e+00    0,000000000e+00    0,000000000e+00
      534000000   -3,186522052e-03   -3,611863777e-02    6,445844173e-01   -2,600554824e-01    0,000000000e+00    0,000000000e+00    0,000000000e+00    0,000000000e+00
      548000000    7,727892138e-03   -5,259589106e-02    3,848373294e-01   -5,643124580e-01    0,000000000e+00    0,000000000e+00    0,000000000e+00    0,000000000e+00
      562000000    5,446724594e-03   -8,971813321e-02    7,736397441e-03   -6,725437641e-01    0,000000000e+00    0,000000000e+00    0,000000000e+00    0,000000000e+00
      576000000   -3,127894178e-02   -1,261772811e-01   -3,624823987e-01   -5,607576966e-01    0,000000000e+00    0,000000000e+00    0,000000000e+00    0,000000000e+00
      590000000   -9,481258690e-02   -1,277112365e-01   -6,183045506e-01   -2,715378702e-01    0,000000000e+00    0,000000000e+00    0,000000000e+00    0,000000000e+00
      604000000   -1,431821734e-01   -7,802855223e-02   -6,677162647e-01    1,264704913e-01    0,000000000e+00    0,000000000e+00    0,000000000e+00    0,000000000e+00
      618000000   -1,382615864e-01   -1,153265312e-02   -4,747338295e-01    4,861682951e-01    0,000000000e+00    0,000000000e+00    0,000000000e+00    0,000000000e+00
      632000000   -9,292937815e-02    2,128797397e-02   -1,134974808e-01    6,627697945e-01    0,000000000e+00    0,000000000e+00    0,000000000e+00    0,000000000e+00
      646000000   -5,471495166e-02    1,165293343e-02    2,736059427e-01    6,033511758e-01    0,000000000e+00    0,000000000e+00    0,000000000e+00    0,000000000e+00
      660000000   -4,802406207e-02   -8,246679790e-03    5,571793318e-01    3,401829600e-01    0,000000000e+00    0,000000000e+00    0,000000000e+00    0,000000000e+00
      674000000   -5,560367182e-02   -1,100953016e-02    6,445803046e-01   -3,950426728e-02    0,000000000e+00    0,000000000e+00    0,000000000e+00    0,000000000e+00
      688000000   -4,953183606e-02    2,934427932e-03    4,932476282e-01   -4,019972086e-01    0,000000000e+00    0,000000000e+00    0,000000000e+00    0,000000000e+00
      702000000   -2,590462565e-02    6,782093085e-03    1,607528627e-01   -6,048104763e-01    0,000000000e+00    0,000000000e+00    0,000000000e+00    0,000000000e+00
      716000000   -2,190732630e-03   -9,719815105e-03   -2,188158482e-01   -5,757992864e-01    0,000000000e+00    0,000000000e+00    0,000000000e+00    0,000000000e+00
      730000000    1,007801853e-02   -3,519039974e-02   -5,091608763e-01   -3,336070776e-01    0,000000000e+00    0,000000000e+00    0,000000000e+00    0,000000000e+00
      744000000    1,743966900e-02   -6,109797582e-02   -6,008231044e-01    3,310812637e-02    0,000000000e+00    0,000000000e+00    0,000000000e+00    0,000000000e+00
      758000000    2,161607891e-02   -1,040948182e-01   -4,545855224e-01    3,771333396e-01    0,000000000e+00    0,000000000e+00    0,000000000e+00    0,000000000e+00
      772000000   -4,837111104e-03   -1,742049307e-01   -1,409242451e-01    5,578430295e-01    0,000000000e+00    0,000000000e+00    0,000000000e+00    0,000000000e+00
      786000000   -1,057803631e-01   -2,324427068e-01    2,114590406e-01    5,195809603e-01    0,000000000e+00    0,000000000e+00    0,000000000e+00    0,000000000e+00
      800000000   -2,664262056e-01   -1,931067258e-01    4,718864262e-01    2,757974863e-01    0,000000000e+00    0,000000000e+00    0,000000000e+00    0,000000000e+00
      814000000   -3,643830717e-01    4,138468765e-03    5,076191425e-01   -8,881690353e-02    0,000000000e+00    0,000000000e+00    0,000000000e+00    0,000000000e+00
      828000000   -2,488517016e-01    2,333748639e-01    2,812193036e-01   -3,535601795e-01    0,000000000e+00    0,000000000e+00    0,000000000e+00    0,000000000e+00
      842000000    1,337355003e-02    2,788266838e-01   -1,649348810e-02   -3,622957766e-01    0,000000000e+00    0,000000000e+00    0,000000000e+00    0,000000000e+00
      856000000    2,123546451e-01    1,150743216e-01   -1,879884005e-01   -2,047407329e-01    0,000000000e+00    0,000000000e+00    0,000000000e+00    0,000000000e+00
      870000000    2,386693954e-01   -1,482387930e-01   -2,004555464e-01   -2,566434443e-02    0,000000000e+00    0,000000000e+00    0,000000000e+00    0,000000000e+00
      884000000    3,746030852e-02   -3,866886497e-01   -1,039218754e-01    7,117255777e-02    0,000000000e+00    0,000000000e+00    0,000000000e+00    0,000000000e+00
      898000000   -3,692283928e-01   -3,414540589e-01   -1,608963311e-02    2,756594867e-02    0,000000000e+00    0,000000000e+00    0,000000000e+00    0,000000000e+00
      912000000   -4,666010141e-01    1,381735057e-01   -1,152035668e-01    3,995076567e-02    0,000000000e+00    0,000000000e+00    0,000000000e+00    0,000000000e+00
      926000000   -9,447646141e-02    3,502668440e-01   -1,267451495e-01    1,327939630e-01    0,000000000e+00    0,000000000e+00    0,000000000e+00    0,000000000e+00
      940000000    1,859624237e-01    1,939670891e-01   -3,877670690e-02    2,156466544e-01    0,000000000e+00    0,000000000e+00    0,000000000e+00    0,000000000e+00
      954000000    2,571163774e-01   -4,643354192e-02    8,031549305e-02    2,276809365e-01    0,000000000e+00    0,000000000e+00    0,000000000e+00    0,000000000e+00
      968000000    1,737200171e-01   -2,600633204e-01    1,903253496e-01    1,806451529e-01    0,000000000e+00    0,000000000e+00    0,000000000e+00    0,000000000e+00
      982000000   -1,932528242e-02   -3,926530182e-01    2,797369361e-01    7,805385441e-02    0,000000000e+00    0,000000000e+00    0,000000000e+00    0,000000000e+00
      996000000   -2,724015713e-01   -3,731932342e-01    3,085158467e-01   -7,864589244e-02    0,000000000e+00    0,000000000e+00    0,000000000e+00    0,000000000e+00
     1010000000   -4,698713124e-01   -1,681923717e-01    2,227265239e-01   -2,530136704e-01    0,000000000e+00    0,000000000e+00    0,000000000e+00    0,000000000e+00
     1024000000   -4,567554891e-01    1,144428104e-01    2,107026614e-02   -3,292392194e-01    0,000000000e+00    0,000000000e+00    0,000000000e+00    0,000000000e+00
     1038000000   -2,670961916e-01    3,014303148e-01   -1,724050939e-01   -2,507199943e-01    0,000000000e+00    0,000000000e+00    0,000000000e+00    0,000000000e+00
     1052000000   -3,414085507e-02    3,090851307e-01   -2,570190430e-01   -7,703293860e-02    0,000000000e+00    0,000000000e+00    0,000000000e+00    0,000000000e+00
     1066000000    1,267688423e-01    2,081223279e-01   -2,234367281e-01    8,316122741e-02    0,000000000e+00    0,000000000e+00    0,000000000e+00    0,000000000e+00
     1080000000    2,090912014e-01    4,451649264e-02   -1,218756139e-01    1,952210069e-01    0,000000000e+00    0,000000000e+00    0,000000000e+00    0,000000000e+00
     1094000000    2,038612515e-01   -1,286834627e-01    1,604520343e-02    2,340743393e-01    0,000000000e+00    0,000000000e+00    0,000000000e+00    0,000000000e+00
     1108000000    1,032599956e-01   -2,859398425e-01    1,659793854e-01    2,044210583e-01    0,000000000e+00    0,000000000e+00    0,000000000e+00    0,000000000e+00
     1122000000   -9,858325869e-02   -3,667229116e-01    3,148182631e-01    8,965098858e-02    0,000000000e+00    0,000000000e+00    0,000000000e+00    0,000000000e+00
     1136000000   -3,446825147e-01   -2,713470459e-01    3,895492852e-01   -1,501681656e-01    0,000000000e+00    0,000000000e+00    0,000000000e+00    0,000000000e+00
     1150000000   -4,037809074e-01    3,729868308e-02    2,455646694e-01   -4,384705126e-01    0,000000000e+00    0,000000000e+00    0,000000000e+00    0,000000000e+00
     1164000000   -1,539998651e-01    2,179654092e-01   -9,305408597e-02   -5,155095458e-01    0,000000000e+00    0,000000000e+00    0,000000000e+00    0,000000000e+00
     1178000000    7,744400948e-02    8,634332567e-02   -3,549716771e-01   -3,472366929e-01    0,000000000e+00    0,000000000e+00    0,000000000e+00    0,000000000e+00
     1192000000    7,135485113e-02   -1,735819131e-01   -4,548375010e-01   -8,191725612e-02    0,000000000e+00    0,000000000e+00    0,000000000e+00    0,000000000e+00
     1206000000   -1,615568250e-01   -3,242253959e-01   -3,656387329e-01    1,836068779e-01    0,000000000e+00    0,000000000e+00    0,000000000e+00    0,000000000e+00
     1220000000   -4,562569261e-01   -1,767217368e-01   -1,073696837e-01    3,260774612e-01    0,000000000e+00    0,000000000e+00    0,000000000e+00    0,000000000e+00
     1234000000   -4,725986123e-01    1,710254997e-01    1,382358968e-01    2,257176936e-01    0,000000000e+00    0,000000000e+00    0,000000000e+00    0,000000000e+00
     1248000000   -2,384009659e-01    3,568447232e-01    1,905389726e-01    3,776871413e-02    0,000000000e+00    0,000000000e+00    0,000000000e+00    0,000000000e+00
     1262000000    8,092732169e-03    3,317298293e-01    1,294821799e-01   -6,892741472e-02    0,000000000e+00    0,000000000e+00    0,000000000e+00    0,000000000e+00
     1276000000    1,528210789e-01    2,026914805e-01    5,037173256e-02   -9,263293445e-02    0,000000000e+00    0,000000000e+00    0,000000000e+00    0,000000000e+00
     1290000000    2,202957124e-01    3,070132248e-02    2,214878565e-03   -7,201815397e-02    0,000000000e+00    0,000000000e+00    0,000000000e+00    0,000000000e+00
     1304000000    2,040456533e-01   -1,468154341e-01   -2,086090483e-02   -3,265105560e-02    0,000000000e+00    0,000000000e+00    0,000000000e+00    0,000000000e+00
     1318000000    1,131276190e-01   -3,143329024e-01   -1,628970611e-03    2,015149593e-02    0,000000000e+00    0,000000000e+00    0,000000000e+00    0,000000000e+00
     1332000000   -6,827345490e-02   -4,380716085e-01    4,935552925e-02    5,798334256e-02    0,000000000e+00    0,000000000e+00    0,000000000e+00    0,000000000e+00
     1346000000   -3,244959116e-01   -4,378102124e-01    1,460468322e-01    4,160439223e-02    0,000000000e+00    0,000000000e+00    0,000000000e+00    0,000000000e+00
     1360000000   -5,628365874e-01   -2,475270182e-01    1,129662916e-01   -7,425943017e-02    0,000000000e+00    0,000000000e+00    0,000000000e+00    0,000000000e+00
     1374000000   -6,118836999e-01    3,573930264e-02    1,100941971e-01    6,041899696e-02    0,000000000e+00    0,000000000e+00    0,000000000e+00    0,000000000e+00
     1388000000   -5,137167573e-01    2,878835499e-01    2,211196423e-01    6,681636907e-03    0,000000000e+00    0,000000000e+00    0,000000000e+00    0,000000000e+00
     1402000000   -3,072694242e-01    4,219270647e-01    2,276537120e-01   -7,635454088e-02    0,000000000e+00    0,000000000e+00    0,000000000e+00    0,000000000e+00
     1416000000   -9,658011049e-02    4,150794744e-01    1,991398185e-01   -1,206453219e-01    0,000000000e+00    0,000000000e+00    0,000000000e+00    0,000000000e+00
     1430000000    6,526453048e-02    3,374868333e-01    1,547635496e-01   -1,228301600e-01    0,000000000e+00    0,000000000e+00    0,000000000e+00    0,000000000e+00
     1444000000    1,741671115e-01    2,000706792e-01    1,513037533e-01   -1,060568020e-01    0,000000000e+00    0,000000000e+00    0,000000000e+00    0,000000000e+00
     1458000000    2,242077887e-01    2,980773896e-02    1,501972079e-01   -8,531901985e-02    0,000000000e+00    0,000000000e+00    0,000000000e+00    0,000000000e+00
     1472000000    2,068610191e-01   -1,470080912e-01    1,580757350e-01   -5,027926341e-02    0,000000000e+00    0,000000000e+00    0,000000000e+00    0,000000000e+00
     1486000000    1,027382910e-01   -3,207493424e-01    1,585334986e-01   -6,656030659e-03    0,000000000e+00    0,000000000e+00    0,000000000e+00    0,000000000e+00
     1500000000   -9,364607930e-02   -4,557514787e-01    2,019265592e-01    6,622134149e-02    0,000000000e+00    0,000000000e+00    0,000000000e+00    0,000000000e+00
