! NanoVNA-App
! Date: 2025-09-25 14:26:11
! Start: 100MHz Stop: 1,5GHz Points: 101
! S-Parameter data: F S11 S21 S12 S22
# Hz S RI R 50
!     Frequency           S11_Real           S11_Imag           S21_Real           S21_Imag           S12_Real           S12_Imag           S22_Real           S22_Imag
      100000000   -2,910544164e-02   -4,138131626e-03    3,745055199e-01   -7,220225334e-01    0,000000000e+00    0,000000000e+00    0,000000000e+00    0,000000000e+00
      114000000   -1,658992656e-02    1,161571406e-02   -8,882469684e-02   -8,059839606e-01    0,000000000e+00    0,000000000e+00    0,000000000e+00    0,000000000e+00
      128000000    3,431411693e-03    1,054492500e-02   -5,145537853e-01   -6,209453940e-01    0,000000000e+00    0,000000000e+00    0,000000000e+00    0,000000000e+00
      142000000    1,443962380e-02   -3,079091199e-03   -7,673562169e-01   -2,369995266e-01    0,000000000e+00    0,000000000e+00    0,000000000e+00    0,000000000e+00
      156000000    1,574074104e-02   -1,445853245e-02   -7,729578614e-01    2,240862250e-01    0,000000000e+00    0,000000000e+00    0,000000000e+00    0,000000000e+00
      170000000    1,652697101e-02   -2,252417244e-02   -5,185445547e-01    6,047033072e-01    0,000000000e+00    0,000000000e+00    0,000000000e+00    0,000000000e+00
      184000000    2,097381093e-02   -3,701616451e-02   -1,016254574e-01    7,865092158e-01    0,000000000e+00    0,000000000e+00    0,000000000e+00    0,000000000e+00
      198000000    1,311987452e-02   -6,260801852e-02    3,428969383e-01    7,131972313e-01    0,000000000e+00    0,000000000e+00    0,000000000e+00    0,000000000e+00
      212000000   -1,870242320e-02   -8,172894269e-02    6,783677936e-01    4,105477333e-01    0,000000000e+00    0,000000000e+00    0,000000000e+00    0,000000000e+00
      226000000   -6,213777885e-02   -6,974367797e-02    7,962358594e-01   -2,967707254e-02    0,000000000e+00    0,000000000e+00    0,000000000e+00    0,000000000e+00
      240000000   -8,328928053e-02   -2,599939518e-02    6,470960975e-01   -4,665814042e-01    0,000000000e+00    0,000000000e+00    0,000000000e+00    0,000000000e+00
      254000000   -6,437323987e-02    1,751132868e-02    2,769165635e-01   -7,433229685e-01    0,000000000e+00    0,000000000e+00    0,000000000e+00    0,000000000e+00
      268000000   -2,403265983e-02    2,946922556e-02   -1,762984693e-01   -7,649931312e-01    0,000000000e+00    0,000000000e+00    0,000000000e+00    0,000000000e+00
      282000000    4,055987112e-03    1,213844679e-02   -5,624310970e-01   -5,369201303e-01    0,000000000e+00    0,000000000e+00    0,000000000e+00    0,000000000e+00
      296000000    9,557300247e-03   -7,618594915e-03   -7,608974576e-01   -1,396139115e-01    0,000000000e+00    0,000000000e+00    0,000000000e+00    0,000000000e+00
      310000000    1,099108625e-02   -1,606270671e-02   -7,134229541e-01    2,982412279e-01    0,000000000e+00    0,000000000e+00    0,000000000e+00    0,000000000e+00
      324000000    1,975255087e-02   -2,618801221e-02   -4,280456007e-01    6,369810700e-01    0,000000000e+00    0,000000000e+00    0,000000000e+00    0,000000000e+00
      338000000    2,532313392e-02   -5,205337331e-02   -8,537042886e-03    7,603234053e-01    0,000000000e+00    0,000000000e+00    0,000000000e+00    0,000000000e+00
      352000000    7,429354358e-03   -8,459457010e-02    4,061028659e-01    6,410344839e-01    0,000000000e+00    0,000000000e+00    0,000000000e+00    0,000000000e+00
      366000000   -3,511603177e-02   -9,610761702e-02    6,910374761e-01    3,125970364e-01    0,000000000e+00    0,000000000e+00    0,000000000e+00    0,000000000e+00
      380000000   -7,127220929e-02   -7,118678838e-02    7,487370968e-01   -1,250120997e-01    0,000000000e+00    0,000000000e+00    0,000000000e+00    0,000000000e+00
      394000000   -7,330372930e-02   -3,245577589e-02    5,485581160e-01   -5,222393274e-01    0,000000000e+00    0,000000000e+00    0,000000000e+00    0,000000000e+00
      408000000   -4,705048725e-02   -1,578420959e-02    1,623775214e-01   -7,329618335e-01    0,000000000e+00    0,000000000e+00    0,000000000e+00    0,000000000e+00
      422000000   -2,846207656e-02   -3,119214997e-02   -2,655883729e-01   -6,954885125e-01    0,000000000e+00    0,000000000e+00    0,000000000e+00    0,000000000e+00
      436000000   -4,009373114e-02   -5,197721347e-02   -6,027437449e-01   -4,336331189e-01    0,000000000e+00    0,000000000e+00    0,000000000e+00    0,000000000e+00
      450000000   -6,730661541e-02   -4,433608800e-02   -7,404102683e-01   -2,470364794e-02    0,000000000e+00    0,000000000e+00    0,000000000e+00    0,000000000e+00
      464000000   -7,396352291e-02   -1,202128455e-02   -6,211078763e-01    3,940216601e-01    0,000000000e+00    0,000000000e+00    0,000000000e+00    0,000000000e+00
      478000000   -4,928297549e-02    1,145717315e-02   -2,872776389e-01    6,678842306e-01    0,000000000e+00    0,000000000e+00    0,000000000e+00    0,000000000e+00
      492000000   -1,716442406e-02    6,485077552e-03    1,339580268e-01    7,034779787e-01    0,000000000e+00    0,000000000e+00    0,000000000e+00    0,000000000e+00
      506000000   -3,780271858e-03   -1,507713553e-02    4,972735643e-01    5,057316422e-01    0,000000000e+00    0,000000000e+00    0,000000000e+00    0,000000000e+00
      520000000   -5,763703026e-03   -2,948443592e-02    6,898003221e-01    1,444398016e-01    0,000000000e+00    0,000000000e+00    0,000000000e+00    0,000000000e+00
      534000000   -3,474854399e-03   -3,585285693e-02    6,442000866e-01   -2,598178685e-01    0,000000000e+00    0,000000000e+00    0,000000000e+00    0,000000000e+00
      548000000    7,964333519e-03   -5,296416953e-02    3,848259449e-01   -5,640357733e-01    0,000000000e+00    0,000000000e+00    0,000000000e+00    0,000000000e+00
      562000000    5,575107411e-03   -8,920904249e-02    8,484634571e-03   -6,715714931e-01    0,000000000e+00    0,000000000e+00    0,000000000e+00    0,000000000e+00
      576000000   -3,165651485e-02   -1,260206848e-01   -3,628548384e-01   -5,603327751e-01    0,000000000e+00    0,000000000e+00    0,000000000e+00    0,000000000e+00
      590000000   -9,472355247e-02   -1,280095577e-01   -6,149055362e-01   -2,725665271e-01    0,000000000e+00    0,000000000e+00    0,000000000e+00    0,000000000e+00
      604000000   -1,428971291e-01   -7,793369889e-02   -6,673557758e-01    1,262345314e-01    0,000000000e+00    0,000000000e+00    0,000000000e+00    0,000000000e+00
      618000000   -1,380241811e-01   -1,092207339e-02   -4,738209248e-01    4,856812656e-01    0,000000000e+00    0,000000000e+00    0,000000000e+00    0,000000000e+00
      632000000   -9,322494268e-02    2,215229347e-02   -1,129461899e-01    6,632349491e-01    0,000000000e+00    0,000000000e+00    0,000000000e+00    0,000000000e+00
      646000000   -5,471053347e-02    1,160970237e-02    2,732207775e-01    6,037058830e-01    0,000000000e+00    0,000000000e+00    0,000000000e+00    0,000000000e+00
      660000000   -4,894316569e-02   -8,713000454e-03    5,586155653e-01    3,405379355e-01    0,000000000e+00    0,000000000e+00    0,000000000e+00    0,000000000e+00
      674000000   -5,608151481e-02   -1,119143888e-02    6,445573568e-01   -4,007814080e-02    0,000000000e+00    0,000000000e+00    0,000000000e+00    0,000000000e+00
      688000000   -5,028963834e-02    2,546351869e-03    4,933625162e-01   -4,022959769e-01    0,000000000e+00    0,000000000e+00    0,000000000e+00    0,000000000e+00
      702000000   -2,530909516e-02    7,584213745e-03    1,587198377e-01   -6,074915528e-01    0,000000000e+00    0,000000000e+00    0,000000000e+00    0,000000000e+00
      716000000   -1,283168909e-03   -9,046874009e-03   -2,180244923e-01   -5,752888322e-01    0,000000000e+00    0,000000000e+00    0,000000000e+00    0,000000000e+00
      730000000    9,547777474e-03   -3,508158028e-02   -5,092418194e-01   -3,335130811e-01    0,000000000e+00    0,000000000e+00    0,000000000e+00    0,000000000e+00
      744000000    1,609296352e-02   -6,046197191e-02   -6,009140015e-01    3,279107437e-02    0,000000000e+00    0,000000000e+00    0,000000000e+00    0,000000000e+00
      758000000    2,279808372e-02   -1,036619395e-01   -4,549333751e-01    3,766397536e-01    0,000000000e+00    0,000000000e+00    0,000000000e+00    0,000000000e+00
      772000000   -5,164149683e-03   -1,736925095e-01   -1,396730691e-01    5,576524734e-01    0,000000000e+00    0,000000000e+00    0,000000000e+00    0,000000000e+00
      786000000   -1,051588058e-01   -2,329072505e-01    2,109178603e-01    5,204202533e-01    0,000000000e+00    0,000000000e+00    0,000000000e+00    0,000000000e+00
      800000000   -2,653634548e-01   -1,926227063e-01    4,714500308e-01    2,753111124e-01    0,000000000e+00    0,000000000e+00    0,000000000e+00    0,000000000e+00
      814000000   -3,638167679e-01    3,777474165e-03    5,076768994e-01   -8,850979805e-02    0,000000000e+00    0,000000000e+00    0,000000000e+00    0,000000000e+00
      828000000   -2,473227382e-01    2,335392684e-01    2,815332115e-01   -3,521531820e-01    0,000000000e+00    0,000000000e+00    0,000000000e+00    0,000000000e+00
      842000000    1,333604846e-02    2,784610391e-01   -1,551169902e-02   -3,621844351e-01    0,000000000e+00    0,000000000e+00    0,000000000e+00    0,000000000e+00
      856000000    2,122337967e-01    1,152944639e-01   -1,875850260e-01   -2,053647637e-01    0,000000000e+00    0,000000000e+00    0,000000000e+00    0,000000000e+00
      870000000    2,388937622e-01   -1,485686153e-01   -2,005333453e-01   -2,595613897e-02    0,000000000e+00    0,000000000e+00    0,000000000e+00    0,000000000e+00
      884000000    3,741712496e-02   -3,867561221e-01   -1,040230095e-01    7,071741670e-02    0,000000000e+00    0,000000000e+00    0,000000000e+00    0,000000000e+00
      898000000   -3,703894317e-01   -3,419493139e-01   -1,704169065e-02    2,698289603e-02    0,000000000e+00    0,000000000e+00    0,000000000e+00    0,000000000e+00
      912000000   -4,678005576e-01    1,393253803e-01   -1,227237284e-01    3,825204074e-02    0,000000000e+00    0,000000000e+00    0,000000000e+00    0,000000000e+00
      926000000   -9,357816726e-02    3,523654640e-01   -1,263564825e-01    1,361222863e-01    0,000000000e+00    0,000000000e+00    0,000000000e+00    0,000000000e+00
      940000000    1,844442934e-01    1,959150732e-01   -3,797323629e-02    2,179960757e-01    0,000000000e+00    0,000000000e+00    0,000000000e+00    0,000000000e+00
      954000000    2,563427389e-01   -4,945629835e-02    7,924938947e-02    2,270503193e-01    0,000000000e+00    0,000000000e+00    0,000000000e+00    0,000000000e+00
      968000000    1,731035262e-01   -2,629183233e-01    1,913444847e-01    1,809701324e-01    0,000000000e+00    0,000000000e+00    0,000000000e+00    0,000000000e+00
      982000000   -1,810889877e-02   -3,954019547e-01    2,798182368e-01    7,833837718e-02    0,000000000e+00    0,000000000e+00    0,000000000e+00    0,000000000e+00
      996000000   -2,741461694e-01   -3,744909167e-01    3,088637292e-01   -8,103479445e-02    0,000000000e+00    0,000000000e+00    0,000000000e+00    0,000000000e+00
     1010000000   -4,667732120e-01   -1,741415411e-01    2,219568342e-01   -2,540863752e-01    0,000000000e+00    0,000000000e+00    0,000000000e+00    0,000000000e+00
     1024000000   -4,627154171e-01    1,144758463e-01    2,252550051e-02   -3,287955523e-01    0,000000000e+00    0,000000000e+00    0,000000000e+00    0,000000000e+00
     1038000000   -2,625646889e-01    3,029815853e-01   -1,730344594e-01   -2,484597117e-01    0,000000000e+00    0,000000000e+00    0,000000000e+00    0,000000000e+00
     1052000000   -3,625783697e-02    3,058726192e-01   -2,578116953e-01   -7,742667943e-02    0,000000000e+00    0,000000000e+00    0,000000000e+00    0,000000000e+00
     1066000000    1,232993677e-01    2,060482502e-01   -2,230819613e-01    8,680468798e-02    0,000000000e+00    0,000000000e+00    0,000000000e+00    0,000000000e+00
     1080000000    2,063751370e-01    4,483415559e-02   -1,207706258e-01    1,937371492e-01    0,000000000e+00    0,000000000e+00    0,000000000e+00    0,000000000e+00
     1094000000    2,040997297e-01   -1,308091283e-01    1,676915400e-02    2,347568274e-01    0,000000000e+00    0,000000000e+00    0,000000000e+00    0,000000000e+00
     1108000000    1,033332273e-01   -2,842265368e-01    1,673141569e-01    2,056417912e-01    0,000000000e+00    0,000000000e+00    0,000000000e+00    0,000000000e+00
     1122000000   -9,823102504e-02   -3,702930808e-01    3,166872859e-01    8,735291660e-02    0,000000000e+00    0,000000000e+00    0,000000000e+00    0,000000000e+00
     1136000000   -3,443693221e-01   -2,722464800e-01    3,915280402e-01   -1,504282355e-01    0,000000000e+00    0,000000000e+00    0,000000000e+00    0,000000000e+00
     1150000000   -4,113886952e-01    3,445101902e-02    2,433699369e-01   -4,381977618e-01    0,000000000e+00    0,000000000e+00    0,000000000e+00    0,000000000e+00
     1164000000   -1,571070105e-01    2,214184999e-01   -9,192052484e-02   -5,147245526e-01    0,000000000e+00    0,000000000e+00    0,000000000e+00    0,000000000e+00
     1178000000    7,729513943e-02    7,944558561e-02   -3,542844057e-01   -3,478556871e-01    0,000000000e+00    0,000000000e+00    0,000000000e+00    0,000000000e+00
     1192000000    7,195330411e-02   -1,725322157e-01   -4,565591514e-01   -8,140836656e-02    0,000000000e+00    0,000000000e+00    0,000000000e+00    0,000000000e+00
     1206000000   -1,617766470e-01   -3,233590424e-01   -3,674077690e-01    1,893669367e-01    0,000000000e+00    0,000000000e+00    0,000000000e+00    0,000000000e+00
     1220000000   -4,563865960e-01   -1,755318940e-01   -1,071889624e-01    3,284170926e-01    0,000000000e+00    0,000000000e+00    0,000000000e+00    0,000000000e+00
     1234000000   -4,755787253e-01    1,678805947e-01    1,365094185e-01    2,246102989e-01    0,000000000e+00    0,000000000e+00    0,000000000e+00    0,000000000e+00
     1248000000   -2,313886285e-01    3,592456877e-01    1,995180249e-01    3,741088882e-02    0,000000000e+00    0,000000000e+00    0,000000000e+00    0,000000000e+00
     1262000000    2,116385382e-03    3,329095840e-01    1,275604069e-01   -6,881979108e-02    0,000000000e+00    0,000000000e+00    0,000000000e+00    0,000000000e+00
     1276000000    1,608051956e-01    1,981955320e-01    5,605911463e-02   -9,658221155e-02    0,000000000e+00    0,000000000e+00    0,000000000e+00    0,000000000e+00
     1290000000    2,162863165e-01    3,086403757e-02    1,048365841e-03   -7,515031099e-02    0,000000000e+00    0,000000000e+00    0,000000000e+00    0,000000000e+00
     1304000000    2,044026107e-01   -1,486904621e-01   -1,864417642e-02   -3,302428871e-02    0,000000000e+00    0,000000000e+00    0,000000000e+00    0,000000000e+00
     1318000000    1,146570221e-01   -3,136065900e-01   -8,142356528e-04    1,979978196e-02    0,000000000e+00    0,000000000e+00    0,000000000e+00    0,000000000e+00
     1332000000   -6,791374832e-02   -4,321066439e-01    4,890302196e-02    7,358204573e-02    0,000000000e+00    0,000000000e+00    0,000000000e+00    0,000000000e+00
     1346000000   -3,296522498e-01   -4,384652376e-01    1,391174197e-01    4,238301516e-02    0,000000000e+00    0,000000000e+00    0,000000000e+00    0,000000000e+00
     1360000000   -5,615204573e-01   -2,448958457e-01    1,118379012e-01   -7,904975861e-02    0,000000000e+00    0,000000000e+00    0,000000000e+00    0,000000000e+00
     1374000000   -6,291387677e-01    3,062372282e-02    9,815086424e-02    6,733423471e-02    0,000000000e+00    0,000000000e+00    0,000000000e+00    0,000000000e+00
     1388000000   -5,107914805e-01    2,793319523e-01    2,306408882e-01    3,676354187e-03    0,000000000e+00    0,000000000e+00    0,000000000e+00    0,000000000e+00
     1402000000   -3,153116703e-01    4,214291871e-01    2,184149921e-01   -8,988250047e-02    0,000000000e+00    0,000000000e+00    0,000000000e+00    0,000000000e+00
     1416000000   -9,359059483e-02    4,221813083e-01    1,982452869e-01   -1,161136553e-01    0,000000000e+00    0,000000000e+00    0,000000000e+00    0,000000000e+00
     1430000000    6,955022365e-02    3,361600935e-01    1,746744961e-01   -1,151517034e-01    0,000000000e+00    0,000000000e+00    0,000000000e+00    0,000000000e+00
     1444000000    1,790148318e-01    1,971730590e-01    1,616104394e-01   -1,067725122e-01    0,000000000e+00    0,000000000e+00    0,000000000e+00    0,000000000e+00
     1458000000    2,261177152e-01    3,834715858e-02    1,480181664e-01   -7,244179398e-02    0,000000000e+00    0,000000000e+00    0,000000000e+00    0,000000000e+00
     1472000000    2,096098512e-01   -1,498151422e-01    1,571030915e-01   -4,969811067e-02    0,000000000e+00    0,000000000e+00    0,000000000e+00    0,000000000e+00
     1486000000    1,106110588e-01   -3,208900988e-01    1,697735190e-01   -6,686733104e-03    0,000000000e+00    0,000000000e+00    0,000000000e+00    0,000000000e+00
     1500000000   -9,693817049e-02   -4,589743316e-01    2,177553773e-01    4,386274144e-02    0,000000000e+00    0,000000000e+00    0,000000000e+00    0,000000000e+00
