! NanoVNA-App
! Date: 2025-09-25 14:24:58
! Start: 100MHz Stop: 1,5GHz Points: 101
! S-Parameter data: F S11 S21 S12 S22
# Hz S RI R 50
!     Frequency           S11_Real           S11_Imag           S21_Real           S21_Imag           S12_Real           S12_Imag           S22_Real           S22_Imag
      100000000   -2,910105884e-02   -4,114261363e-03    3,745320737e-01   -7,220351100e-01    0,000000000e+00    0,000000000e+00    0,000000000e+00    0,000000000e+00
      114000000   -1,660405286e-02    1,159866992e-02   -8,901505917e-02   -8,058390021e-01    0,000000000e+00    0,000000000e+00    0,000000000e+00    0,000000000e+00
      128000000    3,435607534e-03    1,056502387e-02   -5,147136450e-01   -6,212263107e-01    0,000000000e+00    0,000000000e+00    0,000000000e+00    0,000000000e+00
      142000000    1,445831172e-02   -3,076771740e-03   -7,673135996e-01   -2,369319499e-01    0,000000000e+00    0,000000000e+00    0,000000000e+00    0,000000000e+00
      156000000    1,427119598e-02   -1,500842441e-02   -7,643498182e-01    2,187500447e-01    0,000000000e+00    0,000000000e+00    0,000000000e+00    0,000000000e+00
      170000000    1,648013853e-02   -2,250563167e-02   -5,185901523e-01    6,049057245e-01    0,000000000e+00    0,000000000e+00    0,000000000e+00    0,000000000e+00
      184000000    2,098091319e-02   -3,703925014e-02   -1,017828211e-01    7,866191864e-01    0,000000000e+00    0,000000000e+00    0,000000000e+00    0,000000000e+00
      198000000    1,307215076e-02   -6,262756139e-02    3,430412114e-01    7,131305933e-01    0,000000000e+00    0,000000000e+00    0,000000000e+00    0,000000000e+00
      212000000   -1,868606173e-02   -8,167151362e-02    6,785435081e-01    4,106422067e-01    0,000000000e+00    0,000000000e+00    0,000000000e+00    0,000000000e+00
      226000000   -6,209124252e-02   -6,969359517e-02    7,961517572e-01   -2,977375686e-02    0,000000000e+00    0,000000000e+00    0,000000000e+00    0,000000000e+00
      240000000   -8,327011019e-02   -2,605212852e-02    6,469978690e-01   -4,666639566e-01    0,000000000e+00    0,000000000e+00    0,000000000e+00    0,000000000e+00
      254000000   -6,428308785e-02    1,740599610e-02    2,773239017e-01   -7,434459329e-01    0,000000000e+00    0,000000000e+00    0,000000000e+00    0,000000000e+00
      268000000   -2,409568988e-02    2,944732085e-02   -1,769251078e-01   -7,649597526e-01    0,000000000e+00    0,000000000e+00    0,000000000e+00    0,000000000e+00
      282000000    4,167568404e-03    1,212036423e-02   -5,625241995e-01   -5,373104215e-01    0,000000000e+00    0,000000000e+00    0,000000000e+00    0,000000000e+00
      296000000    9,465945885e-03   -7,694201078e-03   -7,608653903e-01   -1,395468563e-01    0,000000000e+00    0,000000000e+00    0,000000000e+00    0,000000000e+00
      310000000    1,104595605e-02   -1,594381407e-02   -7,125769258e-01    2,971169651e-01    0,000000000e+00    0,000000000e+00    0,000000000e+00    0,000000000e+00
      324000000    1,941532828e-02   -2,661176585e-02   -4,286870956e-01    6,379395127e-01    0,000000000e+00    0,000000000e+00    0,000000000e+00    0,000000000e+00
      338000000    2,521101385e-02   -5,173122138e-02   -9,508045390e-03    7,601740956e-01    0,000000000e+00    0,000000000e+00    0,000000000e+00    0,000000000e+00
      352000000    7,539758924e-03   -8,483209461e-02    4,062615335e-01    6,403695941e-01    0,000000000e+00    0,000000000e+00    0,000000000e+00    0,000000000e+00
      366000000   -3,476771712e-02   -9,597080201e-02    6,905630827e-01    3,132118285e-01    0,000000000e+00    0,000000000e+00    0,000000000e+00    0,000000000e+00
      380000000   -7,121457160e-02   -7,124105096e-02    7,487556934e-01   -1,247510016e-01    0,000000000e+00    0,000000000e+00    0,000000000e+00    0,000000000e+00
      394000000   -7,341594994e-02   -3,211595863e-02    5,485125780e-01   -5,210828781e-01    0,000000000e+00    0,000000000e+00    0,000000000e+00    0,000000000e+00
      408000000   -4,690869898e-02   -1,567742042e-02    1,621872932e-01   -7,327446938e-01    0,000000000e+00    0,000000000e+00    0,000000000e+00    0,000000000e+00
      422000000   -2,811118960e-02   -3,126958013e-02   -2,650240362e-01   -6,964291930e-01    0,000000000e+00    0,000000000e+00    0,000000000e+00    0,000000000e+00
      436000000   -4,019636661e-02   -5,216129497e-02   -6,031299829e-01   -4,343025088e-01    0,000000000e+00    0,000000000e+00    0,000000000e+00    0,000000000e+00
      450000000   -6,770151854e-02   -4,479652643e-02   -7,402043343e-01   -2,477662079e-02    0,000000000e+00    0,000000000e+00    0,000000000e+00    0,000000000e+00
      464000000   -7,417017221e-02   -1,242140029e-02   -6,215096116e-01    3,950060606e-01    0,000000000e+00    0,000000000e+00    0,000000000e+00    0,000000000e+00
      478000000   -4,937374592e-02    1,188883744e-02   -2,871281207e-01    6,673735380e-01    0,000000000e+00    0,000000000e+00    0,000000000e+00    0,000000000e+00
      492000000   -1,712140441e-02    6,567992736e-03    1,338714212e-01    7,037119865e-01    0,000000000e+00    0,000000000e+00    0,000000000e+00    0,000000000e+00
      506000000   -3,807089990e-03   -1,479283813e-02    4,982573092e-01    5,068569183e-01    0,000000000e+00    0,000000000e+00    0,000000000e+00    0,000000000e+00
      520000000   -5,890759639e-03   -2,959482372e-02    6,884008646e-01    1,438230276e-01    0,000000000e+00    0,000000000e+00    0,000000000e+00    0,000000000e+00
      534000000   -3,273819573e-03   -3,580033779e-02    6,454037428e-01   -2,600314319e-01    0,000000000e+00    0,000000000e+00    0,000000000e+00    0,000000000e+00
      548000000    8,281082846e-03   -5,246939510e-02    3,853891492e-01   -5,642987490e-01    0,000000000e+00    0,000000000e+00    0,000000000e+00    0,000000000e+00
      562000000    5,802900996e-03   -8,964260668e-02    8,265683427e-03   -6,720257401e-01    0,000000000e+00    0,000000000e+00    0,000000000e+00    0,000000000e+00
      576000000   -3,136294335e-02   -1,261302233e-01   -3,623478413e-01   -5,605728030e-01    0,000000000e+00    0,000000000e+00    0,000000000e+00    0,000000000e+00
      590000000   -9,513504803e-02   -1,276272833e-01   -6,165876389e-01   -2,708799839e-01    0,000000000e+00    0,000000000e+00    0,000000000e+00    0,000000000e+00
      604000000   -1,432512701e-01   -7,769398391e-02   -6,673884392e-01    1,267425865e-01    0,000000000e+00    0,000000000e+00    0,000000000e+00    0,000000000e+00
      618000000   -1,378803849e-01   -1,180083584e-02   -4,755961597e-01    4,852208495e-01    0,000000000e+00    0,000000000e+00    0,000000000e+00    0,000000000e+00
      632000000   -9,365825355e-02    2,174575813e-02   -1,140560433e-01    6,635996699e-01    0,000000000e+00    0,000000000e+00    0,000000000e+00    0,000000000e+00
      646000000   -5,486155301e-02    1,248850953e-02    2,741279304e-01    6,037617922e-01    0,000000000e+00    0,000000000e+00    0,000000000e+00    0,000000000e+00
      660000000   -4,799084738e-02   -9,204223752e-03    5,576875806e-01    3,397762775e-01    0,000000000e+00    0,000000000e+00    0,000000000e+00    0,000000000e+00
      674000000   -5,524344742e-02   -1,094974205e-02    6,444668174e-01   -3,972433880e-02    0,000000000e+00    0,000000000e+00    0,000000000e+00    0,000000000e+00
      688000000   -5,062846839e-02    2,757549286e-03    4,933551550e-01   -4,013614953e-01    0,000000000e+00    0,000000000e+00    0,000000000e+00    0,000000000e+00
      702000000   -2,630673721e-02    6,758132018e-03    1,620703489e-01   -6,053549051e-01    0,000000000e+00    0,000000000e+00    0,000000000e+00    0,000000000e+00
      716000000   -1,999099506e-03   -9,803513065e-03   -2,189374864e-01   -5,751531720e-01    0,000000000e+00    0,000000000e+00    0,000000000e+00    0,000000000e+00
      730000000    9,066467173e-03   -3,478254378e-02   -5,093319416e-01   -3,332432210e-01    0,000000000e+00    0,000000000e+00    0,000000000e+00    0,000000000e+00
      744000000    1,710256375e-02   -6,014343724e-02   -6,008809805e-01    3,259892762e-02    0,000000000e+00    0,000000000e+00    0,000000000e+00    0,000000000e+00
      758000000    2,181184292e-02   -1,029993668e-01   -4,543974698e-01    3,768837154e-01    0,000000000e+00    0,000000000e+00    0,000000000e+00    0,000000000e+00
      772000000   -4,538421053e-03   -1,737948656e-01   -1,402162611e-01    5,589646101e-01    0,000000000e+00    0,000000000e+00    0,000000000e+00    0,000000000e+00
      786000000   -1,064084098e-01   -2,326006591e-01    2,112871408e-01    5,200985670e-01    0,000000000e+00    0,000000000e+00    0,000000000e+00    0,000000000e+00
      800000000   -2,662293315e-01   -1,929563284e-01    4,716312289e-01    2,751793861e-01    0,000000000e+00    0,000000000e+00    0,000000000e+00    0,000000000e+00
      814000000   -3,646565080e-01    3,974127118e-03    5,080413222e-01   -8,829019219e-02    0,000000000e+00    0,000000000e+00    0,000000000e+00    0,000000000e+00
      828000000   -2,467457652e-01    2,330114543e-01    2,814404666e-01   -3,534957469e-01    0,000000000e+00    0,000000000e+00    0,000000000e+00    0,000000000e+00
      842000000    1,329972036e-02    2,787656486e-01   -1,619012840e-02   -3,624300659e-01    0,000000000e+00    0,000000000e+00    0,000000000e+00    0,000000000e+00
      856000000    2,124658823e-01    1,154966652e-01   -1,883976310e-01   -2,051975727e-01    0,000000000e+00    0,000000000e+00    0,000000000e+00    0,000000000e+00
      870000000    2,384442836e-01   -1,488627195e-01   -2,008632720e-01   -2,577761188e-02    0,000000000e+00    0,000000000e+00    0,000000000e+00    0,000000000e+00
      884000000    3,759534657e-02   -3,866299689e-01   -1,039847806e-01    7,123117894e-02    0,000000000e+00    0,000000000e+00    0,000000000e+00    0,000000000e+00
      898000000   -3,693476319e-01   -3,421238959e-01   -1,697150618e-02    2,711988799e-02    0,000000000e+00    0,000000000e+00    0,000000000e+00    0,000000000e+00
      912000000   -4,676146209e-01    1,377958357e-01   -1,154338941e-01    2,253608778e-02    0,000000000e+00    0,000000000e+00    0,000000000e+00    0,000000000e+00
      926000000   -9,388301522e-02    3,495191038e-01   -1,268773228e-01    1,330150962e-01    0,000000000e+00    0,000000000e+00    0,000000000e+00    0,000000000e+00
      940000000    1,860661060e-01    1,937570423e-01   -3,831923008e-02    2,172828317e-01    0,000000000e+00    0,000000000e+00    0,000000000e+00    0,000000000e+00
      954000000    2,553402483e-01   -4,557869956e-02    7,921753824e-02    2,278939337e-01    0,000000000e+00    0,000000000e+00    0,000000000e+00    0,000000000e+00
      968000000    1,734141111e-01   -2,622101903e-01    1,916274577e-01    1,803005785e-01    0,000000000e+00    0,000000000e+00    0,000000000e+00    0,000000000e+00
      982000000   -1,861977950e-02   -3,942804933e-01    2,801779509e-01    7,920908928e-02    0,000000000e+00    0,000000000e+00    0,000000000e+00    0,000000000e+00
      996000000   -2,748011649e-01   -3,772673607e-01    3,096487820e-01   -7,989089936e-02    0,000000000e+00    0,000000000e+00    0,000000000e+00    0,000000000e+00
     1010000000   -4,700527191e-01   -1,688394099e-01    2,218340337e-01   -2,540570199e-01    0,000000000e+00    0,000000000e+00    0,000000000e+00    0,000000000e+00
     1024000000   -4,617780447e-01    1,191204786e-01    2,250058763e-02   -3,291670084e-01    0,000000000e+00    0,000000000e+00    0,000000000e+00    0,000000000e+00
     1038000000   -2,603730559e-01    2,992060483e-01   -1,747859120e-01   -2,468605787e-01    0,000000000e+00    0,000000000e+00    0,000000000e+00    0,000000000e+00
     1052000000   -3,972009942e-02    3,057079911e-01   -2,580433190e-01   -7,685250789e-02    0,000000000e+00    0,000000000e+00    0,000000000e+00    0,000000000e+00
     1066000000    1,269879043e-01    2,072568238e-01   -2,240910679e-01    8,689504862e-02    0,000000000e+00    0,000000000e+00    0,000000000e+00    0,000000000e+00
     1080000000    2,102344930e-01    4,718225449e-02   -1,206750497e-01    1,933503449e-01    0,000000000e+00    0,000000000e+00    0,000000000e+00    0,000000000e+00
     1094000000    1,985895634e-01   -1,266747117e-01    1,721754856e-02    2,349494845e-01    0,000000000e+00    0,000000000e+00    0,000000000e+00    0,000000000e+00
     1108000000    9,999088198e-02   -2,896643281e-01    1,713514179e-01    2,075789422e-01    0,000000000e+00    0,000000000e+00    0,000000000e+00    0,000000000e+00
     1122000000   -9,930656105e-02   -3,733846545e-01    3,175429702e-01    8,920750022e-02    0,000000000e+00    0,000000000e+00    0,000000000e+00    0,000000000e+00
     1136000000   -3,438436985e-01   -2,704904675e-01    3,922432661e-01   -1,464092582e-01    0,000000000e+00    0,000000000e+00    0,000000000e+00    0,000000000e+00
     1150000000   -4,040205479e-01    3,648176417e-02    2,432298064e-01   -4,395459294e-01    0,000000000e+00    0,000000000e+00    0,000000000e+00    0,000000000e+00
     1164000000   -1,562877893e-01    2,206460685e-01   -9,365261346e-02   -5,144226551e-01    0,000000000e+00    0,000000000e+00    0,000000000e+00    0,000000000e+00
     1178000000    7,569795847e-02    8,641960472e-02   -3,571935296e-01   -3,472648263e-01    0,000000000e+00    0,000000000e+00    0,000000000e+00    0,000000000e+00
     1192000000    7,765562832e-02   -1,753204912e-01   -4,485021532e-01   -8,344998211e-02    0,000000000e+00    0,000000000e+00    0,000000000e+00    0,000000000e+00
     1206000000   -1,600543708e-01   -3,238150179e-01   -3,669826984e-01    1,866848469e-01    0,000000000e+00    0,000000000e+00    0,000000000e+00    0,000000000e+00
     1220000000   -4,543502331e-01   -1,828457266e-01   -1,038346663e-01    3,267506659e-01    0,000000000e+00    0,000000000e+00    0,000000000e+00    0,000000000e+00
     1234000000   -4,754061103e-01    1,686171889e-01    1,336887777e-01    2,239991277e-01    0,000000000e+00    0,000000000e+00    0,000000000e+00    0,000000000e+00
     1248000000   -2,435995489e-01    3,526486456e-01    1,963726133e-01    3,362659737e-02    0,000000000e+00    0,000000000e+00    0,000000000e+00    0,000000000e+00
     1262000000    5,664600525e-03    3,313435614e-01    1,308527887e-01   -7,393066585e-02    0,000000000e+00    0,000000000e+00    0,000000000e+00    0,000000000e+00
     1276000000    1,556865573e-01    2,039073706e-01    5,143554509e-02   -9,533894807e-02    0,000000000e+00    0,000000000e+00    0,000000000e+00    0,000000000e+00
     1290000000    2,198619097e-01    3,546477854e-02    2,398349345e-03   -7,247567922e-02    0,000000000e+00    0,000000000e+00    0,000000000e+00    0,000000000e+00
     1304000000    2,052776963e-01   -1,444555819e-01   -2,035810426e-02   -3,153781220e-02    0,000000000e+00    0,000000000e+00    0,000000000e+00    0,000000000e+00
     1318000000    1,160095185e-01   -3,148658276e-01   -3,898803843e-04    1,569975354e-02    0,000000000e+00    0,000000000e+00    0,000000000e+00    0,000000000e+00
     1332000000   -6,974355131e-02   -4,351950586e-01    4,138879105e-02    6,396660954e-02    0,000000000e+00    0,000000000e+00    0,000000000e+00    0,000000000e+00
     1346000000   -3,299947679e-01   -4,375550151e-01    1,399544030e-01    4,071350023e-02    0,000000000e+00    0,000000000e+00    0,000000000e+00    0,000000000e+00
     1360000000   -5,530194640e-01   -2,484792471e-01    1,158339530e-01   -7,754898071e-02    0,000000000e+00    0,000000000e+00    0,000000000e+00    0,000000000e+00
     1374000000   -6,261501312e-01    2,613469027e-02    1,006212905e-01    4,917706549e-02    0,000000000e+00    0,000000000e+00    0,000000000e+00    0,000000000e+00
     1388000000   -5,193198323e-01    2,937860787e-01    2,248912305e-01    4,690249916e-03    0,000000000e+00    0,000000000e+00    0,000000000e+00    0,000000000e+00
     1402000000   -3,113102615e-01    4,212130308e-01    2,144505680e-01   -8,010375500e-02    0,000000000e+00    0,000000000e+00    0,000000000e+00    0,000000000e+00
     1416000000   -9,380139410e-02    4,192994833e-01    1,961250901e-01   -1,129168943e-01    0,000000000e+00    0,000000000e+00    0,000000000e+00    0,000000000e+00
     1430000000    7,271121442e-02    3,342342973e-01    1,402190626e-01   -1,005266234e-01    0,000000000e+00    0,000000000e+00    0,000000000e+00    0,000000000e+00
     1444000000    1,736876518e-01    1,986685693e-01    1,462756544e-01   -1,085791513e-01    0,000000000e+00    0,000000000e+00    0,000000000e+00    0,000000000e+00
     1458000000    2,236568928e-01    3,471922129e-02    1,533853412e-01   -7,147408277e-02    0,000000000e+00    0,000000000e+00    0,000000000e+00    0,000000000e+00
     1472000000    2,043962479e-01   -1,437217593e-01    1,442660391e-01   -4,786471650e-02    0,000000000e+00    0,000000000e+00    0,000000000e+00    0,000000000e+00
     1486000000    1,069340482e-01   -3,187883198e-01    1,812805384e-01   -1,820025616e-03    0,000000000e+00    0,000000000e+00    0,000000000e+00    0,000000000e+00
     1500000000   -9,451802820e-02   -4,650777280e-01    2,176641822e-01    3,837859258e-02    0,000000000e+00    0,000000000e+00    0,000000000e+00    0,000000000e+00
