! NanoVNA-App
! Date: 2025-09-25 14:24:20
! Start: 100MHz Stop: 1,5GHz Points: 101
! S-Parameter data: F S11 S21 S12 S22
# Hz S RI R 50
!     Frequency           S11_Real           S11_Imag           S21_Real           S21_Imag           S12_Real           S12_Imag           S22_Real           S22_Imag
      100000000   -2,909189649e-02   -4,128023051e-03    3,744596243e-01   -7,220166922e-01    0,000000000e+00    0,000000000e+00    0,000000000e+00    0,000000000e+00
      114000000   -1,660148799e-02    1,163657196e-02   -8,902800083e-02   -8,058198690e-01    0,000000000e+00    0,000000000e+00    0,000000000e+00    0,000000000e+00
      128000000    3,468022449e-03    1,053653471e-02   -5,144780278e-01   -6,210996509e-01    0,000000000e+00    0,000000000e+00    0,000000000e+00    0,000000000e+00
      142000000    1,444947254e-02   -3,052727552e-03   -7,674984336e-01   -2,369187176e-01    0,000000000e+00    0,000000000e+00    0,000000000e+00    0,000000000e+00
      156000000    1,469471864e-02   -1,497730799e-02   -7,672936320e-01    2,184090614e-01    0,000000000e+00    0,000000000e+00    0,000000000e+00    0,000000000e+00
      170000000    1,648219116e-02   -2,253713273e-02   -5,188668370e-01    6,049407721e-01    0,000000000e+00    0,000000000e+00    0,000000000e+00    0,000000000e+00
      184000000    2,100732923e-02   -3,705543652e-02   -1,017545834e-01    7,864840031e-01    0,000000000e+00    0,000000000e+00    0,000000000e+00    0,000000000e+00
      198000000    1,313208509e-02   -6,257851422e-02    3,430269063e-01    7,130560279e-01    0,000000000e+00    0,000000000e+00    0,000000000e+00    0,000000000e+00
      212000000   -1,869682409e-02   -8,170599490e-02    6,781812906e-01    4,102962911e-01    0,000000000e+00    0,000000000e+00    0,000000000e+00    0,000000000e+00
      226000000   -6,208084524e-02   -6,975024939e-02    7,961434126e-01   -2,977703325e-02    0,000000000e+00    0,000000000e+00    0,000000000e+00    0,000000000e+00
      240000000   -8,327351511e-02   -2,609193698e-02    6,471676230e-01   -4,667851031e-01    0,000000000e+00    0,000000000e+00    0,000000000e+00    0,000000000e+00
      254000000   -6,433450431e-02    1,736424118e-02    2,771259248e-01   -7,429424524e-01    0,000000000e+00    0,000000000e+00    0,000000000e+00    0,000000000e+00
      268000000   -2,418041974e-02    2,955398336e-02   -1,772457957e-01   -7,652780414e-01    0,000000000e+00    0,000000000e+00    0,000000000e+00    0,000000000e+00
      282000000    4,139775410e-03    1,214955188e-02   -5,626756549e-01   -5,370734334e-01    0,000000000e+00    0,000000000e+00    0,000000000e+00    0,000000000e+00
      296000000    9,590905160e-03   -7,679875474e-03   -7,610414028e-01   -1,397731900e-01    0,000000000e+00    0,000000000e+00    0,000000000e+00    0,000000000e+00
      310000000    1,079001185e-02   -1,616093330e-02   -7,139320970e-01    2,975700498e-01    0,000000000e+00    0,000000000e+00    0,000000000e+00    0,000000000e+00
      324000000    1,960936747e-02   -2,658000216e-02   -4,295345247e-01    6,374374032e-01    0,000000000e+00    0,000000000e+00    0,000000000e+00    0,000000000e+00
      338000000    2,540376224e-02   -5,216813833e-02   -1,084802579e-02    7,639111280e-01    0,000000000e+00    0,000000000e+00    0,000000000e+00    0,000000000e+00
      352000000    7,560640574e-03   -8,483724296e-02    4,064569771e-01    6,408372521e-01    0,000000000e+00    0,000000000e+00    0,000000000e+00    0,000000000e+00
      366000000   -3,507843614e-02   -9,597121924e-02    6,905114651e-01    3,126072884e-01    0,000000000e+00    0,000000000e+00    0,000000000e+00    0,000000000e+00
      380000000   -7,142942399e-02   -7,136441022e-02    7,479167581e-01   -1,248489693e-01    0,000000000e+00    0,000000000e+00    0,000000000e+00    0,000000000e+00
      394000000   -7,292401046e-02   -3,259758279e-02    5,467588305e-01   -5,214201808e-01    0,000000000e+00    0,000000000e+00    0,000000000e+00    0,000000000e+00
      408000000   -4,691120237e-02   -1,546307839e-02    1,619360298e-01   -7,326004505e-01    0,000000000e+00    0,000000000e+00    0,000000000e+00    0,000000000e+00
      422000000   -2,838320844e-02   -3,177257255e-02   -2,663004100e-01   -6,968718171e-01    0,000000000e+00    0,000000000e+00    0,000000000e+00    0,000000000e+00
      436000000   -4,015155882e-02   -5,186125264e-02   -6,026210189e-01   -4,340946078e-01    0,000000000e+00    0,000000000e+00    0,000000000e+00    0,000000000e+00
      450000000   -6,723283231e-02   -4,496821389e-02   -7,404222488e-01   -2,484630980e-02    0,000000000e+00    0,000000000e+00    0,000000000e+00    0,000000000e+00
      464000000   -7,394803315e-02   -1,216882560e-02   -6,213420033e-01    3,950078189e-01    0,000000000e+00    0,000000000e+00    0,000000000e+00    0,000000000e+00
      478000000   -4,957338795e-02    1,183181163e-02   -2,866300046e-01    6,675399542e-01    0,000000000e+00    0,000000000e+00    0,000000000e+00    0,000000000e+00
      492000000   -1,695978269e-02    6,423369981e-03    1,338577718e-01    7,037361264e-01    0,000000000e+00    0,000000000e+00    0,000000000e+00    0,000000000e+00
      506000000   -3,525785170e-03   -1,505517401e-02    4,983732104e-01    5,060653090e-01    0,000000000e+00    0,000000000e+00    0,000000000e+00    0,000000000e+00
      520000000   -6,191350520e-03   -2,960049547e-02    6,894057393e-01    1,438284814e-01    0,000000000e+00    0,000000000e+00    0,000000000e+00    0,000000000e+00
      534000000   -3,518348094e-03   -3,563497588e-02    6,445701718e-01   -2,594359219e-01    0,000000000e+00    0,000000000e+00    0,000000000e+00    0,000000000e+00
      548000000    8,346564136e-03   -5,269739404e-02    3,851313591e-01   -5,643470883e-01    0,000000000e+00    0,000000000e+00    0,000000000e+00    0,000000000e+00
      562000000    5,461751949e-03   -8,949396014e-02    8,587081917e-03   -6,720565557e-01    0,000000000e+00    0,000000000e+00    0,000000000e+00    0,000000000e+00
      576000000   -3,128472343e-02   -1,265352070e-01   -3,629152775e-01   -5,612210035e-01    0,000000000e+00    0,000000000e+00    0,000000000e+00    0,000000000e+00
      590000000   -9,509748966e-02   -1,279131770e-01   -6,162602901e-01   -2,739028037e-01    0,000000000e+00    0,000000000e+00    0,000000000e+00    0,000000000e+00
      604000000   -1,433911622e-01   -7,803463936e-02   -6,676357985e-01    1,263520569e-01    0,000000000e+00    0,000000000e+00    0,000000000e+00    0,000000000e+00
      618000000   -1,377485693e-01   -1,127772871e-02   -4,755256772e-01    4,846087396e-01    0,000000000e+00    0,000000000e+00    0,000000000e+00    0,000000000e+00
      632000000   -9,274403751e-02    2,216651477e-02   -1,142923385e-01    6,625038981e-01    0,000000000e+00    0,000000000e+00    0,000000000e+00    0,000000000e+00
      646000000   -5,531053245e-02    1,263159979e-02    2,724040151e-01    6,038159728e-01    0,000000000e+00    0,000000000e+00    0,000000000e+00    0,000000000e+00
      660000000   -4,849654064e-02   -8,286316879e-03    5,575277209e-01    3,405676186e-01    0,000000000e+00    0,000000000e+00    0,000000000e+00    0,000000000e+00
      674000000   -5,514943972e-02   -1,061334368e-02    6,446623206e-01   -3,981646150e-02    0,000000000e+00    0,000000000e+00    0,000000000e+00    0,000000000e+00
      688000000   -5,097216368e-02    3,096050816e-03    4,937987328e-01   -4,015556574e-01    0,000000000e+00    0,000000000e+00    0,000000000e+00    0,000000000e+00
      702000000   -2,501534298e-02    7,212155499e-03    1,638093442e-01   -6,007658243e-01    0,000000000e+00    0,000000000e+00    0,000000000e+00    0,000000000e+00
      716000000   -2,631245181e-03   -9,446930140e-03   -2,186638266e-01   -5,752899051e-01    0,000000000e+00    0,000000000e+00    0,000000000e+00    0,000000000e+00
      730000000    1,012420561e-02   -3,507051244e-02   -5,093812943e-01   -3,335310817e-01    0,000000000e+00    0,000000000e+00    0,000000000e+00    0,000000000e+00
      744000000    1,608742774e-02   -6,065564230e-02   -6,006828547e-01    3,309399635e-02    0,000000000e+00    0,000000000e+00    0,000000000e+00    0,000000000e+00
      758000000    2,222498879e-02   -1,031034216e-01   -4,548710287e-01    3,770291209e-01    0,000000000e+00    0,000000000e+00    0,000000000e+00    0,000000000e+00
      772000000   -5,234672688e-03   -1,732812673e-01   -1,398719549e-01    5,575202107e-01    0,000000000e+00    0,000000000e+00    0,000000000e+00    0,000000000e+00
      786000000   -1,056579053e-01   -2,329257578e-01    2,115289420e-01    5,196560621e-01    0,000000000e+00    0,000000000e+00    0,000000000e+00    0,000000000e+00
      800000000   -2,661122978e-01   -1,931059211e-01    4,714264870e-01    2,748243511e-01    0,000000000e+00    0,000000000e+00    0,000000000e+00    0,000000000e+00
      814000000   -3,647086918e-01    2,740706783e-03    5,082932711e-01   -8,817545325e-02    0,000000000e+00    0,000000000e+00    0,000000000e+00    0,000000000e+00
      828000000   -2,474334836e-01    2,322028428e-01    2,809745073e-01   -3,524120450e-01    0,000000000e+00    0,000000000e+00    0,000000000e+00    0,000000000e+00
      842000000    1,226984710e-02    2,788416445e-01   -1,595351845e-02   -3,630760908e-01    0,000000000e+00    0,000000000e+00    0,000000000e+00    0,000000000e+00
      856000000    2,124681622e-01    1,150363758e-01   -1,880243868e-01   -2,046319097e-01    0,000000000e+00    0,000000000e+00    0,000000000e+00    0,000000000e+00
      870000000    2,392281592e-01   -1,488554776e-01   -2,003664672e-01   -2,606945299e-02    0,000000000e+00    0,000000000e+00    0,000000000e+00    0,000000000e+00
      884000000    3,755388409e-02   -3,869328797e-01   -1,033354923e-01    7,047054917e-02    0,000000000e+00    0,000000000e+00    0,000000000e+00    0,000000000e+00
      898000000   -3,694957197e-01   -3,422815204e-01   -1,676173322e-02    2,740582824e-02    0,000000000e+00    0,000000000e+00    0,000000000e+00    0,000000000e+00
      912000000   -4,669447839e-01    1,376528293e-01   -1,219538748e-01    2,605366707e-02    0,000000000e+00    0,000000000e+00    0,000000000e+00    0,000000000e+00
      926000000   -9,488499910e-02    3,526195288e-01   -1,285566390e-01    1,353046596e-01    0,000000000e+00    0,000000000e+00    0,000000000e+00    0,000000000e+00
      940000000    1,823616326e-01    1,944216788e-01   -3,904373571e-02    2,153841406e-01    0,000000000e+00    0,000000000e+00    0,000000000e+00    0,000000000e+00
      954000000    2,529066205e-01   -4,890950024e-02    7,806022465e-02    2,269614935e-01    0,000000000e+00    0,000000000e+00    0,000000000e+00    0,000000000e+00
      968000000    1,744152009e-01   -2,601020932e-01    1,922277063e-01    1,806713939e-01    0,000000000e+00    0,000000000e+00    0,000000000e+00    0,000000000e+00
      982000000   -1,535599306e-02   -3,944309354e-01    2,796516418e-01    8,043931425e-02    0,000000000e+00    0,000000000e+00    0,000000000e+00    0,000000000e+00
      996000000   -2,772746980e-01   -3,790072501e-01    3,100465238e-01   -8,095247298e-02    0,000000000e+00    0,000000000e+00    0,000000000e+00    0,000000000e+00
     1010000000   -4,687436521e-01   -1,751535982e-01    2,229510099e-01   -2,522289455e-01    0,000000000e+00    0,000000000e+00    0,000000000e+00    0,000000000e+00
     1024000000   -4,571439922e-01    1,147831380e-01    2,074207179e-02   -3,293639719e-01    0,000000000e+00    0,000000000e+00    0,000000000e+00    0,000000000e+00
     1038000000   -2,686529160e-01    2,986574769e-01   -1,736516505e-01   -2,476080060e-01    0,000000000e+00    0,000000000e+00    0,000000000e+00    0,000000000e+00
     1052000000   -3,923882917e-02    3,065036535e-01   -2,563959062e-01   -7,783555239e-02    0,000000000e+00    0,000000000e+00    0,000000000e+00    0,000000000e+00
     1066000000    1,271242648e-01    2,069573700e-01   -2,278809994e-01    8,567877114e-02    0,000000000e+00    0,000000000e+00    0,000000000e+00    0,000000000e+00
     1080000000    2,112408429e-01    4,592576995e-02   -1,216211542e-01    1,954845041e-01    0,000000000e+00    0,000000000e+00    0,000000000e+00    0,000000000e+00
     1094000000    2,035824209e-01   -1,262890399e-01    1,714170165e-02    2,331518084e-01    0,000000000e+00    0,000000000e+00    0,000000000e+00    0,000000000e+00
     1108000000    1,022685617e-01   -2,886645198e-01    1,658332944e-01    2,062960565e-01    0,000000000e+00    0,000000000e+00    0,000000000e+00    0,000000000e+00
     1122000000   -9,903228283e-02   -3,714717031e-01    3,158626258e-01    9,028484672e-02    0,000000000e+00    0,000000000e+00    0,000000000e+00    0,000000000e+00
     1136000000   -3,498678803e-01   -2,711056769e-01    3,927245438e-01   -1,508133560e-01    0,000000000e+00    0,000000000e+00    0,000000000e+00    0,000000000e+00
     1150000000   -4,057554901e-01    3,214924037e-02    2,425998747e-01   -4,365959167e-01    0,000000000e+00    0,000000000e+00    0,000000000e+00    0,000000000e+00
     1164000000   -1,573203355e-01    2,159720063e-01   -9,617212415e-02   -5,123066902e-01    0,000000000e+00    0,000000000e+00    0,000000000e+00    0,000000000e+00
     1178000000    7,322429121e-02    8,237386495e-02   -3,560375273e-01   -3,456590772e-01    0,000000000e+00    0,000000000e+00    0,000000000e+00    0,000000000e+00
     1192000000    7,528194785e-02   -1,776022017e-01   -4,544477761e-01   -8,528860658e-02    0,000000000e+00    0,000000000e+00    0,000000000e+00    0,000000000e+00
     1206000000   -1,637163162e-01   -3,255960345e-01   -3,691556454e-01    1,917617619e-01    0,000000000e+00    0,000000000e+00    0,000000000e+00    0,000000000e+00
     1220000000   -4,598517418e-01   -1,745284647e-01   -1,066581830e-01    3,301971853e-01    0,000000000e+00    0,000000000e+00    0,000000000e+00    0,000000000e+00
     1234000000   -4,710235596e-01    1,645406336e-01    1,404695064e-01    2,227500379e-01    0,000000000e+00    0,000000000e+00    0,000000000e+00    0,000000000e+00
     1248000000   -2,390870154e-01    3,510888517e-01    1,966096610e-01    3,464974090e-02    0,000000000e+00    0,000000000e+00    0,000000000e+00    0,000000000e+00
     1262000000    1,316080889e-04    3,290320039e-01    1,266977787e-01   -6,977532804e-02    0,000000000e+00    0,000000000e+00    0,000000000e+00    0,000000000e+00
     1276000000    1,583468169e-01    2,030181736e-01    5,215633288e-02   -9,395697713e-02    0,000000000e+00    0,000000000e+00    0,000000000e+00    0,000000000e+00
     1290000000    2,141550928e-01    3,531504795e-02   -1,484143315e-03   -7,154382765e-02    0,000000000e+00    0,000000000e+00    0,000000000e+00    0,000000000e+00
     1304000000    2,024022043e-01   -1,460242867e-01   -2,446682379e-02   -2,899048850e-02    0,000000000e+00    0,000000000e+00    0,000000000e+00    0,000000000e+00
     1318000000    1,130192578e-01   -3,107072115e-01   -1,016442757e-02    2,567114308e-02    0,000000000e+00    0,000000000e+00    0,000000000e+00    0,000000000e+00
     1332000000   -6,474500149e-02   -4,366749525e-01    5,056282878e-02    6,453292817e-02    0,000000000e+00    0,000000000e+00    0,000000000e+00    0,000000000e+00
     1346000000   -3,282154799e-01   -4,318695962e-01    1,480225027e-01    5,082759261e-02    0,000000000e+00    0,000000000e+00    0,000000000e+00    0,000000000e+00
     1360000000   -5,593962669e-01   -2,389487326e-01    1,182505414e-01   -6,661701202e-02    0,000000000e+00    0,000000000e+00    0,000000000e+00    0,000000000e+00
     1374000000   -6,250320673e-01    3,535541892e-02    1,115813032e-01    6,437551975e-02    0,000000000e+00    0,000000000e+00    0,000000000e+00    0,000000000e+00
     1388000000   -5,253334045e-01    2,898207903e-01    2,169616818e-01    8,312785067e-03    0,000000000e+00    0,000000000e+00    0,000000000e+00    0,000000000e+00
     1402000000   -3,081465662e-01    4,109966159e-01    2,163183391e-01   -8,601102233e-02    0,000000000e+00    0,000000000e+00    0,000000000e+00    0,000000000e+00
     1416000000   -9,430031478e-02    4,122609794e-01    1,905540824e-01   -1,266734451e-01    0,000000000e+00    0,000000000e+00    0,000000000e+00    0,000000000e+00
     1430000000    7,213142514e-02    3,309763074e-01    1,631269157e-01   -1,431788802e-01    0,000000000e+00    0,000000000e+00    0,000000000e+00    0,000000000e+00
     1444000000    1,719003618e-01    2,030525953e-01    1,469726562e-01   -9,548359364e-02    0,000000000e+00    0,000000000e+00    0,000000000e+00    0,000000000e+00
     1458000000    2,198399603e-01    3,203745931e-02    1,479038149e-01   -8,540780097e-02    0,000000000e+00    0,000000000e+00    0,000000000e+00    0,000000000e+00
     1472000000    2,075666487e-01   -1,459980756e-01    1,507889777e-01   -4,539841041e-02    0,000000000e+00    0,000000000e+00    0,000000000e+00    0,000000000e+00
     1486000000    1,015046239e-01   -3,218023777e-01    1,543165594e-01   -6,917770486e-03    0,000000000e+00    0,000000000e+00    0,000000000e+00    0,000000000e+00
     1500000000   -9,036165476e-02   -4,550168812e-01    2,162498683e-01    7,649112493e-02    0,000000000e+00    0,000000000e+00    0,000000000e+00    0,000000000e+00
