! NanoVNA-App
! Date: 2025-09-25 14:22:20
! Start: 100MHz Stop: 1,5GHz Points: 101
! S-Parameter data: F S11 S21 S12 S22
# Hz S RI R 50
!     Frequency           S11_Real           S11_Imag           S21_Real           S21_Imag           S12_Real           S12_Imag           S22_Real           S22_Imag
      100000000   -2,909208462e-02   -4,132919945e-03    3,744226098e-01   -7,220807672e-01    0,000000000e+00    0,000000000e+00    0,000000000e+00    0,000000000e+00
      114000000   -1,661172509e-02    1,161120180e-02   -8,881601691e-02   -8,058971167e-01    0,000000000e+00    0,000000000e+00    0,000000000e+00    0,000000000e+00
      128000000    3,415762447e-03    1,056157891e-02   -5,145662427e-01   -6,207911372e-01    0,000000000e+00    0,000000000e+00    0,000000000e+00    0,000000000e+00
      142000000    1,446710527e-02   -3,040087409e-03   -7,675690055e-01   -2,370107770e-01    0,000000000e+00    0,000000000e+00    0,000000000e+00    0,000000000e+00
      156000000    1,579725370e-02   -1,436823327e-02   -7,730161548e-01    2,241218388e-01    0,000000000e+00    0,000000000e+00    0,000000000e+00    0,000000000e+00
      170000000    1,657449268e-02   -2,248324081e-02   -5,185534954e-01    6,048688293e-01    0,000000000e+00    0,000000000e+00    0,000000000e+00    0,000000000e+00
      184000000    2,097718790e-02   -3,706909716e-02   -1,017275676e-01    7,864988446e-01    0,000000000e+00    0,000000000e+00    0,000000000e+00    0,000000000e+00
      198000000    1,298722625e-02   -6,254122406e-02    3,428144455e-01    7,131169438e-01    0,000000000e+00    0,000000000e+00    0,000000000e+00    0,000000000e+00
      212000000   -1,870596409e-02   -8,165022731e-02    6,781159639e-01    4,103704989e-01    0,000000000e+00    0,000000000e+00    0,000000000e+00    0,000000000e+00
      226000000   -6,205863878e-02   -6,968722492e-02    7,961720824e-01   -2,968619578e-02    0,000000000e+00    0,000000000e+00    0,000000000e+00    0,000000000e+00
      240000000   -8,317087591e-02   -2,609554678e-02    6,472489238e-01   -4,666347206e-01    0,000000000e+00    0,000000000e+00    0,000000000e+00    0,000000000e+00
      254000000   -6,435881555e-02    1,727444306e-02    2,770518661e-01   -7,436488271e-01    0,000000000e+00    0,000000000e+00    0,000000000e+00    0,000000000e+00
      268000000   -2,430423535e-02    2,954830974e-02   -1,774002314e-01   -7,651709318e-01    0,000000000e+00    0,000000000e+00    0,000000000e+00    0,000000000e+00
      282000000    4,081749357e-03    1,211166847e-02   -5,624362826e-01   -5,369727612e-01    0,000000000e+00    0,000000000e+00    0,000000000e+00    0,000000000e+00
      296000000    9,619400837e-03   -7,673377637e-03   -7,608360648e-01   -1,394390762e-01    0,000000000e+00    0,000000000e+00    0,000000000e+00    0,000000000e+00
      310000000    1,063862722e-02   -1,630513743e-02   -7,140263915e-01    2,977212965e-01    0,000000000e+00    0,000000000e+00    0,000000000e+00    0,000000000e+00
      324000000    1,956874318e-02   -2,625320107e-02   -4,291345775e-01    6,370235085e-01    0,000000000e+00    0,000000000e+00    0,000000000e+00    0,000000000e+00
      338000000    2,538818121e-02   -5,176310241e-02   -8,556267247e-03    7,618560791e-01    0,000000000e+00    0,000000000e+00    0,000000000e+00    0,000000000e+00
      352000000    7,477072068e-03   -8,455182612e-02    4,058381617e-01    6,414107084e-01    0,000000000e+00    0,000000000e+00    0,000000000e+00    0,000000000e+00
      366000000   -3,478541970e-02   -9,594696760e-02    6,909606457e-01    3,121615350e-01    0,000000000e+00    0,000000000e+00    0,000000000e+00    0,000000000e+00
      380000000   -7,147886604e-02   -7,105868310e-02    7,485405803e-01   -1,251031458e-01    0,000000000e+00    0,000000000e+00    0,000000000e+00    0,000000000e+00
      394000000   -7,324761897e-02   -3,233595192e-02    5,480258465e-01   -5,207399130e-01    0,000000000e+00    0,000000000e+00    0,000000000e+00    0,000000000e+00
      408000000   -4,708601534e-02   -1,590562426e-02    1,621319801e-01   -7,328998446e-01    0,000000000e+00    0,000000000e+00    0,000000000e+00    0,000000000e+00
      422000000   -2,855157666e-02   -3,168667108e-02   -2,666106820e-01   -6,962687969e-01    0,000000000e+00    0,000000000e+00    0,000000000e+00    0,000000000e+00
      436000000   -4,023335874e-02   -5,198310688e-02   -6,024520397e-01   -4,333524406e-01    0,000000000e+00    0,000000000e+00    0,000000000e+00    0,000000000e+00
      450000000   -6,746532023e-02   -4,500267655e-02   -7,403115630e-01   -2,530014515e-02    0,000000000e+00    0,000000000e+00    0,000000000e+00    0,000000000e+00
      464000000   -7,433982939e-02   -1,241464075e-02   -6,217741370e-01    3,947041631e-01    0,000000000e+00    0,000000000e+00    0,000000000e+00    0,000000000e+00
      478000000   -4,920055717e-02    1,175155398e-02   -2,869996727e-01    6,681200862e-01    0,000000000e+00    0,000000000e+00    0,000000000e+00    0,000000000e+00
      492000000   -1,714196242e-02    6,340612192e-03    1,343998015e-01    7,038667202e-01    0,000000000e+00    0,000000000e+00    0,000000000e+00    0,000000000e+00
      506000000   -3,495866898e-03   -1,523305010e-02    4,978193939e-01    5,055747628e-01    0,000000000e+00    0,000000000e+00    0,000000000e+00    0,000000000e+00
      520000000   -5,357725546e-03   -2,989646047e-02    6,911424398e-01    1,447325796e-01    0,000000000e+00    0,000000000e+00    0,000000000e+00    0,000000000e+00
      534000000   -3,504907712e-03   -3,585180268e-02    6,446759105e-01   -2,596422136e-01    0,000000000e+00    0,000000000e+00    0,000000000e+00    0,000000000e+00
      548000000    7,930462249e-03   -5,281570181e-02    3,845695555e-01   -5,640099049e-01    0,000000000e+00    0,000000000e+00    0,000000000e+00    0,000000000e+00
      562000000    5,569814704e-03   -8,923238516e-02    7,591333240e-03   -6,715927124e-01    0,000000000e+00    0,000000000e+00    0,000000000e+00    0,000000000e+00
      576000000   -3,166953847e-02   -1,258985698e-01   -3,627153337e-01   -5,608738661e-01    0,000000000e+00    0,000000000e+00    0,000000000e+00    0,000000000e+00
      590000000   -9,493967891e-02   -1,277499646e-01   -6,181127429e-01   -2,733984888e-01    0,000000000e+00    0,000000000e+00    0,000000000e+00    0,000000000e+00
      604000000   -1,430524737e-01   -7,808686048e-02   -6,676801443e-01    1,261100769e-01    0,000000000e+00    0,000000000e+00    0,000000000e+00    0,000000000e+00
      618000000   -1,383076757e-01   -1,130165998e-02   -4,760824442e-01    4,859583080e-01    0,000000000e+00    0,000000000e+00    0,000000000e+00    0,000000000e+00
      632000000   -9,353788942e-02    2,170052566e-02   -1,131383032e-01    6,627296209e-01    0,000000000e+00    0,000000000e+00    0,000000000e+00    0,000000000e+00
      646000000   -5,486325920e-02    1,224746369e-02    2,734854519e-01    6,037611365e-01    0,000000000e+00    0,000000000e+00    0,000000000e+00    0,000000000e+00
      660000000   -4,789784923e-02   -8,935564198e-03    5,575403571e-01    3,403410614e-01    0,000000000e+00    0,000000000e+00    0,000000000e+00    0,000000000e+00
      674000000   -5,533823371e-02   -1,105125807e-02    6,443072557e-01   -3,994976357e-02    0,000000000e+00    0,000000000e+00    0,000000000e+00    0,000000000e+00
      688000000   -5,101526901e-02    3,240368562e-03    4,936653376e-01   -4,013457298e-01    0,000000000e+00    0,000000000e+00    0,000000000e+00    0,000000000e+00
      702000000   -2,516375482e-02    7,894072682e-03    1,597336531e-01   -6,056923270e-01    0,000000000e+00    0,000000000e+00    0,000000000e+00    0,000000000e+00
      716000000   -2,482813317e-03   -9,589935653e-03   -2,181058377e-01   -5,759153366e-01    0,000000000e+00    0,000000000e+00    0,000000000e+00    0,000000000e+00
      730000000    1,029311959e-02   -3,492958844e-02   -5,091078877e-01   -3,328347504e-01    0,000000000e+00    0,000000000e+00    0,000000000e+00    0,000000000e+00
      744000000    1,740992069e-02   -6,057340279e-02   -6,004647613e-01    3,331720456e-02    0,000000000e+00    0,000000000e+00    0,000000000e+00    0,000000000e+00
      758000000    2,149403840e-02   -1,040005907e-01   -4,544103742e-01    3,775876760e-01    0,000000000e+00    0,000000000e+00    0,000000000e+00    0,000000000e+00
      772000000   -4,627862945e-03   -1,735707819e-01   -1,402748823e-01    5,579888821e-01    0,000000000e+00    0,000000000e+00    0,000000000e+00    0,000000000e+00
      786000000   -1,051627696e-01   -2,328538746e-01    2,117943317e-01    5,192518234e-01    0,000000000e+00    0,000000000e+00    0,000000000e+00    0,000000000e+00
      800000000   -2,663579285e-01   -1,932236403e-01    4,719340503e-01    2,751527131e-01    0,000000000e+00    0,000000000e+00    0,000000000e+00    0,000000000e+00
      814000000   -3,641909957e-01    2,597683342e-03    5,077982545e-01   -8,867440373e-02    0,000000000e+00    0,000000000e+00    0,000000000e+00    0,000000000e+00
      828000000   -2,470823377e-01    2,325398773e-01    2,810774744e-01   -3,528908789e-01    0,000000000e+00    0,000000000e+00    0,000000000e+00    0,000000000e+00
      842000000    1,188548841e-02    2,776472569e-01   -1,675946452e-02   -3,628959656e-01    0,000000000e+00    0,000000000e+00    0,000000000e+00    0,000000000e+00
      856000000    2,127336711e-01    1,157946810e-01   -1,876192987e-01   -2,043996006e-01    0,000000000e+00    0,000000000e+00    0,000000000e+00    0,000000000e+00
      870000000    2,391410321e-01   -1,487833261e-01   -2,000355422e-01   -2,594815567e-02    0,000000000e+00    0,000000000e+00    0,000000000e+00    0,000000000e+00
      884000000    3,775060177e-02   -3,870168626e-01   -1,036744565e-01    7,082024962e-02    0,000000000e+00    0,000000000e+00    0,000000000e+00    0,000000000e+00
      898000000   -3,689775169e-01   -3,419837356e-01   -1,649929956e-02    2,756037377e-02    0,000000000e+00    0,000000000e+00    0,000000000e+00    0,000000000e+00
      912000000   -4,677744806e-01    1,379136443e-01   -1,058490574e-01    3,386722133e-02    0,000000000e+00    0,000000000e+00    0,000000000e+00    0,000000000e+00
      926000000   -9,358080477e-02    3,531259298e-01   -1,277864277e-01    1,349850595e-01    0,000000000e+00    0,000000000e+00    0,000000000e+00    0,000000000e+00
      940000000    1,849173307e-01    1,962165982e-01   -3,893670812e-02    2,161968648e-01    0,000000000e+00    0,000000000e+00    0,000000000e+00    0,000000000e+00
      954000000    2,552667856e-01   -5,080812424e-02    8,008435369e-02    2,266441733e-01    0,000000000e+00    0,000000000e+00    0,000000000e+00    0,000000000e+00
      968000000    1,733668447e-01   -2,639538646e-01    1,907664537e-01    1,804720312e-01    0,000000000e+00    0,000000000e+00    0,000000000e+00    0,000000000e+00
      982000000   -1,781803742e-02   -3,919124007e-01    2,793886662e-01    7,992197573e-02    0,000000000e+00    0,000000000e+00    0,000000000e+00    0,000000000e+00
      996000000   -2,760534585e-01   -3,737914264e-01    3,086361587e-01   -8,024168015e-02    0,000000000e+00    0,000000000e+00    0,000000000e+00    0,000000000e+00
     1010000000   -4,727546573e-01   -1,733861566e-01    2,203795612e-01   -2,524795830e-01    0,000000000e+00    0,000000000e+00    0,000000000e+00    0,000000000e+00
     1024000000   -4,586331248e-01    1,202406809e-01    1,899372041e-02   -3,297308683e-01    0,000000000e+00    0,000000000e+00    0,000000000e+00    0,000000000e+00
     1038000000   -2,619661093e-01    2,972682416e-01   -1,750956476e-01   -2,497359812e-01    0,000000000e+00    0,000000000e+00    0,000000000e+00    0,000000000e+00
     1052000000   -3,357315809e-02    3,071591556e-01   -2,576770484e-01   -7,673513889e-02    0,000000000e+00    0,000000000e+00    0,000000000e+00    0,000000000e+00
     1066000000    1,305553615e-01    2,060704231e-01   -2,264785916e-01    8,613054454e-02    0,000000000e+00    0,000000000e+00    0,000000000e+00    0,000000000e+00
     1080000000    2,070564628e-01    4,923295230e-02   -1,220297292e-01    1,918113977e-01    0,000000000e+00    0,000000000e+00    0,000000000e+00    0,000000000e+00
     1094000000    1,990749985e-01   -1,275465339e-01    1,770615019e-02    2,331365645e-01    0,000000000e+00    0,000000000e+00    0,000000000e+00    0,000000000e+00
     1108000000    9,776885808e-02   -2,883402109e-01    1,698043793e-01    2,059771717e-01    0,000000000e+00    0,000000000e+00    0,000000000e+00    0,000000000e+00
     1122000000   -1,026651263e-01   -3,657675982e-01    3,164828420e-01    8,793909848e-02    0,000000000e+00    0,000000000e+00    0,000000000e+00    0,000000000e+00
     1136000000   -3,500298262e-01   -2,643269598e-01    3,913748860e-01   -1,491069049e-01    0,000000000e+00    0,000000000e+00    0,000000000e+00    0,000000000e+00
     1150000000   -4,111946821e-01    3,412887827e-02    2,429784983e-01   -4,404668808e-01    0,000000000e+00    0,000000000e+00    0,000000000e+00    0,000000000e+00
     1164000000   -1,603174806e-01    2,216084898e-01   -9,491300583e-02   -5,142788291e-01    0,000000000e+00    0,000000000e+00    0,000000000e+00    0,000000000e+00
     1178000000    7,373585552e-02    8,571675420e-02   -3,577397764e-01   -3,454482257e-01    0,000000000e+00    0,000000000e+00    0,000000000e+00    0,000000000e+00
     1192000000    7,365410775e-02   -1,746235937e-01   -4,516426921e-01   -8,325954527e-02    0,000000000e+00    0,000000000e+00    0,000000000e+00    0,000000000e+00
     1206000000   -1,624556035e-01   -3,222175539e-01   -3,704737425e-01    1,885056198e-01    0,000000000e+00    0,000000000e+00    0,000000000e+00    0,000000000e+00
     1220000000   -4,588868320e-01   -1,759960502e-01   -1,109753847e-01    3,295817971e-01    0,000000000e+00    0,000000000e+00    0,000000000e+00    0,000000000e+00
     1234000000   -4,758971632e-01    1,657765061e-01    1,394061595e-01    2,198789865e-01    0,000000000e+00    0,000000000e+00    0,000000000e+00    0,000000000e+00
     1248000000   -2,370347530e-01    3,490088582e-01    1,868742406e-01    3,658087552e-02    0,000000000e+00    0,000000000e+00    0,000000000e+00    0,000000000e+00
     1262000000    6,286677904e-03    3,279038966e-01    1,305759847e-01   -7,648170739e-02    0,000000000e+00    0,000000000e+00    0,000000000e+00    0,000000000e+00
     1276000000    1,495580524e-01    1,988853216e-01    5,081987008e-02   -9,726452082e-02    0,000000000e+00    0,000000000e+00    0,000000000e+00    0,000000000e+00
     1290000000    2,180473655e-01    2,892727219e-02   -4,434689472e-04   -7,683234662e-02    0,000000000e+00    0,000000000e+00    0,000000000e+00    0,000000000e+00
     1304000000    2,036765218e-01   -1,448999047e-01   -2,083102800e-02   -2,907889523e-02    0,000000000e+00    0,000000000e+00    0,000000000e+00    0,000000000e+00
     1318000000    1,123816893e-01   -3,130363524e-01   -9,856703691e-03    2,039846033e-02    0,000000000e+00    0,000000000e+00    0,000000000e+00    0,000000000e+00
     1332000000   -6,719606370e-02   -4,352839291e-01    4,285672680e-02    5,891592801e-02    0,000000000e+00    0,000000000e+00    0,000000000e+00    0,000000000e+00
     1346000000   -3,314129710e-01   -4,354411066e-01    1,385525465e-01    5,229659006e-02    0,000000000e+00    0,000000000e+00    0,000000000e+00    0,000000000e+00
     1360000000   -5,539759994e-01   -2,376651466e-01    1,201669201e-01   -6,819329411e-02    0,000000000e+00    0,000000000e+00    0,000000000e+00    0,000000000e+00
     1374000000   -6,215896010e-01    3,458292410e-02    1,076109931e-01    6,774646789e-02    0,000000000e+00    0,000000000e+00    0,000000000e+00    0,000000000e+00
     1388000000   -5,097815990e-01    2,875647545e-01    2,327160686e-01   -1,344202901e-04    0,000000000e+00    0,000000000e+00    0,000000000e+00    0,000000000e+00
     1402000000   -3,079926372e-01    4,165341258e-01    2,190963030e-01   -9,296241403e-02    0,000000000e+00    0,000000000e+00    0,000000000e+00    0,000000000e+00
     1416000000   -9,664554149e-02    4,197304249e-01    1,940677166e-01   -1,269615442e-01    0,000000000e+00    0,000000000e+00    0,000000000e+00    0,000000000e+00
     1430000000    6,734710932e-02    3,381358385e-01    1,569060981e-01   -8,791929483e-02    0,000000000e+00    0,000000000e+00    0,000000000e+00    0,000000000e+00
     1444000000    1,739109010e-01    1,979269683e-01    1,510833949e-01   -1,049914435e-01    0,000000000e+00    0,000000000e+00    0,000000000e+00    0,000000000e+00
     1458000000    2,240782380e-01    3,604733571e-02    1,539267600e-01   -8,816630393e-02    0,000000000e+00    0,000000000e+00    0,000000000e+00    0,000000000e+00
     1472000000    2,087124586e-01   -1,434494704e-01    1,572405994e-01   -5,448472500e-02    0,000000000e+00    0,000000000e+00    0,000000000e+00    0,000000000e+00
     1486000000    1,009487435e-01   -3,187504411e-01    1,553880125e-01    7,533484139e-03    0,000000000e+00    0,000000000e+00    0,000000000e+00    0,000000000e+00
     1500000000   -8,918713778e-02   -4,576170743e-01    2,178687304e-01    6,115961447e-02    0,000000000e+00    0,000000000e+00    0,000000000e+00    0,000000000e+00
