! NanoVNA-App
! Date: 2025-09-25 14:27:27
! Start: 100MHz Stop: 1,5GHz Points: 101
! S-Parameter data: F S11 S21 S12 S22
# Hz S RI R 50
!     Frequency           S11_Real           S11_Imag           S21_Real           S21_Imag           S12_Real           S12_Imag           S22_Real           S22_Imag
      100000000   -2,908706665e-02   -4,133664537e-03    3,745526075e-01   -7,219516635e-01    0,000000000e+00    0,000000000e+00    0,000000000e+00    0,000000000e+00
      114000000   -1,660814136e-02    1,162122097e-02   -8,870593458e-02   -8,059251904e-01    0,000000000e+00    0,000000000e+00    0,000000000e+00    0,000000000e+00
      128000000    3,416560823e-03    1,052698959e-02   -5,143353939e-01   -6,210387945e-01    0,000000000e+00    0,000000000e+00    0,000000000e+00    0,000000000e+00
      142000000    1,443270780e-02   -3,079231130e-03   -7,672885656e-01   -2,369748354e-01    0,000000000e+00    0,000000000e+00    0,000000000e+00    0,000000000e+00
      156000000    1,511036046e-02   -1,495249197e-02   -7,719712257e-01    2,213367075e-01    0,000000000e+00    0,000000000e+00    0,000000000e+00    0,000000000e+00
      170000000    1,653325558e-02   -2,250609174e-02   -5,185154676e-01    6,046036482e-01    0,000000000e+00    0,000000000e+00    0,000000000e+00    0,000000000e+00
      184000000    2,096274123e-02   -3,697660193e-02   -1,018195823e-01    7,862576842e-01    0,000000000e+00    0,000000000e+00    0,000000000e+00    0,000000000e+00
      198000000    1,311641932e-02   -6,256815791e-02    3,427475989e-01    7,129279971e-01    0,000000000e+00    0,000000000e+00    0,000000000e+00    0,000000000e+00
      212000000   -1,873371191e-02   -8,171837777e-02    6,782968044e-01    4,106699824e-01    0,000000000e+00    0,000000000e+00    0,000000000e+00    0,000000000e+00
      226000000   -6,210811436e-02   -6,969662011e-02    7,961276174e-01   -2,970108762e-02    0,000000000e+00    0,000000000e+00    0,000000000e+00    0,000000000e+00
      240000000   -8,326824754e-02   -2,599219233e-02    6,470164061e-01   -4,665322900e-01    0,000000000e+00    0,000000000e+00    0,000000000e+00    0,000000000e+00
      254000000   -6,437718868e-02    1,745741256e-02    2,770030499e-01   -7,430061698e-01    0,000000000e+00    0,000000000e+00    0,000000000e+00    0,000000000e+00
      268000000   -2,402594127e-02    2,951372415e-02   -1,767185479e-01   -7,647472620e-01    0,000000000e+00    0,000000000e+00    0,000000000e+00    0,000000000e+00
      282000000    4,091975279e-03    1,213240903e-02   -5,625839829e-01   -5,374858975e-01    0,000000000e+00    0,000000000e+00    0,000000000e+00    0,000000000e+00
      296000000    9,492442943e-03   -7,662417367e-03   -7,607694864e-01   -1,398201734e-01    0,000000000e+00    0,000000000e+00    0,000000000e+00    0,000000000e+00
      310000000    1,087620854e-02   -1,598495059e-02   -7,139364481e-01    2,981066108e-01    0,000000000e+00    0,000000000e+00    0,000000000e+00    0,000000000e+00
      324000000    1,938896626e-02   -2,662546560e-02   -4,300005436e-01    6,377522349e-01    0,000000000e+00    0,000000000e+00    0,000000000e+00    0,000000000e+00
      338000000    2,547964640e-02   -5,230892077e-02   -8,837714791e-03    7,634183168e-01    0,000000000e+00    0,000000000e+00    0,000000000e+00    0,000000000e+00
      352000000    7,372697815e-03   -8,488927037e-02    4,057308733e-01    6,402454972e-01    0,000000000e+00    0,000000000e+00    0,000000000e+00    0,000000000e+00
      366000000   -3,478231654e-02   -9,615519643e-02    6,905490160e-01    3,121395409e-01    0,000000000e+00    0,000000000e+00    0,000000000e+00    0,000000000e+00
      380000000   -7,128167152e-02   -7,136603445e-02    7,483611703e-01   -1,249050722e-01    0,000000000e+00    0,000000000e+00    0,000000000e+00    0,000000000e+00
      394000000   -7,330015302e-02   -3,227858245e-02    5,479074121e-01   -5,215255618e-01    0,000000000e+00    0,000000000e+00    0,000000000e+00    0,000000000e+00
      408000000   -4,696831480e-02   -1,550532039e-02    1,624888480e-01   -7,334493399e-01    0,000000000e+00    0,000000000e+00    0,000000000e+00    0,000000000e+00
      422000000   -2,840311080e-02   -3,168941662e-02   -2,660463750e-01   -6,970047951e-01    0,000000000e+00    0,000000000e+00    0,000000000e+00    0,000000000e+00
      436000000   -4,030768946e-02   -5,181902647e-02   -6,031037569e-01   -4,336191416e-01    0,000000000e+00    0,000000000e+00    0,000000000e+00    0,000000000e+00
      450000000   -6,771926582e-02   -4,474958032e-02   -7,406854630e-01   -2,507117949e-02    0,000000000e+00    0,000000000e+00    0,000000000e+00    0,000000000e+00
      464000000   -7,445760816e-02   -1,253630314e-02   -6,218944788e-01    3,944426179e-01    0,000000000e+00    0,000000000e+00    0,000000000e+00    0,000000000e+00
      478000000   -4,906096309e-02    1,188080665e-02   -2,870415449e-01    6,669844985e-01    0,000000000e+00    0,000000000e+00    0,000000000e+00    0,000000000e+00
      492000000   -1,701708324e-02    6,034074817e-03    1,350315213e-01    7,032669187e-01    0,000000000e+00    0,000000000e+00    0,000000000e+00    0,000000000e+00
      506000000   -3,540734993e-03   -1,523161680e-02    4,977805018e-01    5,060256720e-01    0,000000000e+00    0,000000000e+00    0,000000000e+00    0,000000000e+00
      520000000   -5,932794418e-03   -2,967246436e-02    6,901215315e-01    1,435016990e-01    0,000000000e+00    0,000000000e+00    0,000000000e+00    0,000000000e+00
      534000000   -3,558451077e-03   -3,612847626e-02    6,447048187e-01   -2,603972852e-01    0,000000000e+00    0,000000000e+00    0,000000000e+00    0,000000000e+00
      548000000    8,019188419e-03   -5,265484005e-02    3,844203651e-01   -5,641326308e-01    0,000000000e+00    0,000000000e+00    0,000000000e+00    0,000000000e+00
      562000000    5,775070749e-03   -8,989115804e-02    8,967060596e-03   -6,721398234e-01    0,000000000e+00    0,000000000e+00    0,000000000e+00    0,000000000e+00
      576000000   -3,139910474e-02   -1,259157509e-01   -3,628457189e-01   -5,605819821e-01    0,000000000e+00    0,000000000e+00    0,000000000e+00    0,000000000e+00
      590000000   -9,512154013e-02   -1,276922524e-01   -6,148678064e-01   -2,724659443e-01    0,000000000e+00    0,000000000e+00    0,000000000e+00    0,000000000e+00
      604000000   -1,434581429e-01   -7,805647701e-02   -6,673411727e-01    1,258456558e-01    0,000000000e+00    0,000000000e+00    0,000000000e+00    0,000000000e+00
      618000000   -1,381781995e-01   -1,099879202e-02   -4,754228592e-01    4,860722125e-01    0,000000000e+00    0,000000000e+00    0,000000000e+00    0,000000000e+00
      632000000   -9,367254376e-02    2,186492085e-02   -1,130756214e-01    6,628669500e-01    0,000000000e+00    0,000000000e+00    0,000000000e+00    0,000000000e+00
      646000000   -5,495638028e-02    1,244125050e-02    2,733482420e-01    6,026065350e-01    0,000000000e+00    0,000000000e+00    0,000000000e+00    0,000000000e+00
      660000000   -4,774133116e-02   -9,253731929e-03    5,578947663e-01    3,411602080e-01    0,000000000e+00    0,000000000e+00    0,000000000e+00    0,000000000e+00
      674000000   -5,526762828e-02   -1,099584810e-02    6,444222331e-01   -3,987592831e-02    0,000000000e+00    0,000000000e+00    0,000000000e+00    0,000000000e+00
      688000000   -4,976903647e-02    3,338352079e-03    4,927449524e-01   -4,015259743e-01    0,000000000e+00    0,000000000e+00    0,000000000e+00    0,000000000e+00
      702000000   -2,683427930e-02    6,718449760e-03    1,652599275e-01   -6,049169302e-01    0,000000000e+00    0,000000000e+00    0,000000000e+00    0,000000000e+00
      716000000   -2,300598659e-03   -8,582165465e-03   -2,188556641e-01   -5,763164163e-01    0,000000000e+00    0,000000000e+00    0,000000000e+00    0,000000000e+00
      730000000    9,073544294e-03   -3,472779319e-02   -5,097299814e-01   -3,335131407e-01    0,000000000e+00    0,000000000e+00    0,000000000e+00    0,000000000e+00
      744000000    1,695923507e-02   -6,022901088e-02   -6,007958651e-01    3,292135894e-02    0,000000000e+00    0,000000000e+00    0,000000000e+00    0,000000000e+00
      758000000    2,186976746e-02   -1,032156423e-01   -4,543578029e-01    3,768914044e-01    0,000000000e+00    0,000000000e+00    0,000000000e+00    0,000000000e+00
      772000000   -4,233484622e-03   -1,734063774e-01   -1,398486644e-01    5,570977926e-01    0,000000000e+00    0,000000000e+00    0,000000000e+00    0,000000000e+00
      786000000   -1,056943983e-01   -2,318590730e-01    2,121605575e-01    5,198978782e-01    0,000000000e+00    0,000000000e+00    0,000000000e+00    0,000000000e+00
      800000000   -2,648654580e-01   -1,927907467e-01    4,717011750e-01    2,752596140e-01    0,000000000e+00    0,000000000e+00    0,000000000e+00    0,000000000e+00
      814000000   -3,643637300e-01    4,000174347e-03    5,076403618e-01   -8,818537742e-02    0,000000000e+00    0,000000000e+00    0,000000000e+00    0,000000000e+00
      828000000   -2,470595390e-01    2,332354635e-01    2,816349864e-01   -3,523881137e-01    0,000000000e+00    0,000000000e+00    0,000000000e+00    0,000000000e+00
      842000000    1,307027787e-02    2,790783644e-01   -1,552733593e-02   -3,626113832e-01    0,000000000e+00    0,000000000e+00    0,000000000e+00    0,000000000e+00
      856000000    2,128657252e-01    1,154118478e-01   -1,875067800e-01   -2,052601427e-01    0,000000000e+00    0,000000000e+00    0,000000000e+00    0,000000000e+00
      870000000    2,387357205e-01   -1,483436525e-01   -2,000965327e-01   -2,606875636e-02    0,000000000e+00    0,000000000e+00    0,000000000e+00    0,000000000e+00
      884000000    3,760079294e-02   -3,870583475e-01   -1,045862809e-01    7,097102702e-02    0,000000000e+00    0,000000000e+00    0,000000000e+00    0,000000000e+00
      898000000   -3,684760034e-01   -3,414343297e-01   -1,682000235e-02    2,773787826e-02    0,000000000e+00    0,000000000e+00    0,000000000e+00    0,000000000e+00
      912000000   -4,685396552e-01    1,390003562e-01   -1,113141254e-01    2,353735641e-02    0,000000000e+00    0,000000000e+00    0,000000000e+00    0,000000000e+00
      926000000   -9,568408877e-02    3,490011394e-01   -1,288909614e-01    1,323590428e-01    0,000000000e+00    0,000000000e+00    0,000000000e+00    0,000000000e+00
      940000000    1,823586524e-01    1,943705231e-01   -3,888301924e-02    2,158923596e-01    0,000000000e+00    0,000000000e+00    0,000000000e+00    0,000000000e+00
      954000000    2,532237470e-01   -4,935826361e-02    7,984977961e-02    2,256400585e-01    0,000000000e+00    0,000000000e+00    0,000000000e+00    0,000000000e+00
      968000000    1,741017699e-01   -2,613643408e-01    1,912072301e-01    1,798722446e-01    0,000000000e+00    0,000000000e+00    0,000000000e+00    0,000000000e+00
      982000000   -1,717998274e-02   -3,956817091e-01    2,813161016e-01    7,872395217e-02    0,000000000e+00    0,000000000e+00    0,000000000e+00    0,000000000e+00
      996000000   -2,714671791e-01   -3,797114789e-01    3,099921346e-01   -8,116696030e-02    0,000000000e+00    0,000000000e+00    0,000000000e+00    0,000000000e+00
     1010000000   -4,666921496e-01   -1,737457067e-01    2,223651558e-01   -2,517514229e-01    0,000000000e+00    0,000000000e+00    0,000000000e+00    0,000000000e+00
     1024000000   -4,619548619e-01    1,141576692e-01    2,139765769e-02   -3,298089504e-01    0,000000000e+00    0,000000000e+00    0,000000000e+00    0,000000000e+00
     1038000000   -2,636589706e-01    2,954690456e-01   -1,750012934e-01   -2,473070174e-01    0,000000000e+00    0,000000000e+00    0,000000000e+00    0,000000000e+00
     1052000000   -4,153099284e-02    3,092791140e-01   -2,573386729e-01   -7,658541948e-02    0,000000000e+00    0,000000000e+00    0,000000000e+00    0,000000000e+00
     1066000000    1,256687045e-01    2,037625313e-01   -2,216174603e-01    8,422859013e-02    0,000000000e+00    0,000000000e+00    0,000000000e+00    0,000000000e+00
     1080000000    2,078669369e-01    4,956733063e-02   -1,215717420e-01    1,911216378e-01    0,000000000e+00    0,000000000e+00    0,000000000e+00    0,000000000e+00
     1094000000    2,044592798e-01   -1,285130531e-01    1,843361184e-02    2,362980247e-01    0,000000000e+00    0,000000000e+00    0,000000000e+00    0,000000000e+00
     1108000000    1,027493328e-01   -2,842678726e-01    1,671583354e-01    2,060667574e-01    0,000000000e+00    0,000000000e+00    0,000000000e+00    0,000000000e+00
     1122000000   -1,014900804e-01   -3,666895926e-01    3,166500032e-01    9,069260955e-02    0,000000000e+00    0,000000000e+00    0,000000000e+00    0,000000000e+00
     1136000000   -3,436317146e-01   -2,662574947e-01    3,905949891e-01   -1,526215523e-01    0,000000000e+00    0,000000000e+00    0,000000000e+00    0,000000000e+00
     1150000000   -4,079567194e-01    3,084071726e-02    2,449507564e-01   -4,390411973e-01    0,000000000e+00    0,000000000e+00    0,000000000e+00    0,000000000e+00
     1164000000   -1,560901552e-01    2,162864059e-01   -9,166438878e-02   -5,135240555e-01    0,000000000e+00    0,000000000e+00    0,000000000e+00    0,000000000e+00
     1178000000    7,311065495e-02    8,162523806e-02   -3,578642309e-01   -3,466753960e-01    0,000000000e+00    0,000000000e+00    0,000000000e+00    0,000000000e+00
     1192000000    7,228283584e-02   -1,736160964e-01   -4,559752345e-01   -8,083341271e-02    0,000000000e+00    0,000000000e+00    0,000000000e+00    0,000000000e+00
     1206000000   -1,642299891e-01   -3,279500902e-01   -3,732413650e-01    1,897475272e-01    0,000000000e+00    0,000000000e+00    0,000000000e+00    0,000000000e+00
     1220000000   -4,565483630e-01   -1,740270257e-01   -1,026828289e-01    3,300634921e-01    0,000000000e+00    0,000000000e+00    0,000000000e+00    0,000000000e+00
     1234000000   -4,695596695e-01    1,656067818e-01    1,379783303e-01    2,210789770e-01    0,000000000e+00    0,000000000e+00    0,000000000e+00    0,000000000e+00
     1248000000   -2,392881364e-01    3,498698771e-01    1,947110891e-01    3,467785567e-02    0,000000000e+00    0,000000000e+00    0,000000000e+00    0,000000000e+00
     1262000000    4,283143207e-03    3,326866031e-01    1,288443506e-01   -6,816577911e-02    0,000000000e+00    0,000000000e+00    0,000000000e+00    0,000000000e+00
     1276000000    1,598404646e-01    1,988570392e-01    5,665533245e-02   -9,375628084e-02    0,000000000e+00    0,000000000e+00    0,000000000e+00    0,000000000e+00
     1290000000    2,195398659e-01    3,228276968e-02    3,122858005e-03   -7,246435434e-02    0,000000000e+00    0,000000000e+00    0,000000000e+00    0,000000000e+00
     1304000000    2,066719383e-01   -1,493565440e-01   -1,577976532e-02   -3,025324270e-02    0,000000000e+00    0,000000000e+00    0,000000000e+00    0,000000000e+00
     1318000000    1,147034317e-01   -3,129626811e-01   -1,316105598e-03    2,140071243e-02    0,000000000e+00    0,000000000e+00    0,000000000e+00    0,000000000e+00
     1332000000   -6,504310668e-02   -4,360897243e-01    5,275839195e-02    5,817277730e-02    0,000000000e+00    0,000000000e+00    0,000000000e+00    0,000000000e+00
     1346000000   -3,327837288e-01   -4,367166460e-01    1,427535415e-01    5,203407258e-02    0,000000000e+00    0,000000000e+00    0,000000000e+00    0,000000000e+00
     1360000000   -5,557054281e-01   -2,482024431e-01    1,121693701e-01   -7,977790385e-02    0,000000000e+00    0,000000000e+00    0,000000000e+00    0,000000000e+00
     1374000000   -6,262049675e-01    3,068684042e-02    1,038573682e-01    5,815914646e-02    0,000000000e+00    0,000000000e+00    0,000000000e+00    0,000000000e+00
     1388000000   -5,122653842e-01    3,026892841e-01    2,208807915e-01    1,293457206e-02    0,000000000e+00    0,000000000e+00    0,000000000e+00    0,000000000e+00
     1402000000   -3,057069480e-01    4,279986918e-01    2,206456214e-01   -7,935364544e-02    0,000000000e+00    0,000000000e+00    0,000000000e+00    0,000000000e+00
     1416000000   -9,940043837e-02    4,143781662e-01    1,824284196e-01   -1,109335795e-01    0,000000000e+00    0,000000000e+00    0,000000000e+00    0,000000000e+00
     1430000000    7,269147038e-02    3,369221091e-01    1,874195486e-01   -1,371957660e-01    0,000000000e+00    0,000000000e+00    0,000000000e+00    0,000000000e+00
     1444000000    1,787663847e-01    1,995885074e-01    1,588163823e-01   -1,043939739e-01    0,000000000e+00    0,000000000e+00    0,000000000e+00    0,000000000e+00
     1458000000    2,210582793e-01    3,425636515e-02    1,432383806e-01   -8,376504481e-02    0,000000000e+00    0,000000000e+00    0,000000000e+00    0,000000000e+00
     1472000000    2,030290365e-01   -1,439461261e-01    1,433060765e-01   -5,799002573e-02    0,000000000e+00    0,000000000e+00    0,000000000e+00    0,000000000e+00
     1486000000    1,088504568e-01   -3,189396262e-01    1,746894568e-01    8,922480047e-03    0,000000000e+00    0,000000000e+00    0,000000000e+00    0,000000000e+00
     1500000000   -9,389903396e-02   -4,523496330e-01    2,027093321e-01    5,985327438e-02    0,000000000e+00    0,000000000e+00    0,000000000e+00    0,000000000e+00
