! NanoVNA-App
! Date: 2025-09-25 14:21:39
! Start: 100MHz Stop: 1,5GHz Points: 101
! S-Parameter data: F S11 S21 S12 S22
# Hz S RI R 50
!     Frequency           S11_Real           S11_Imag           S21_Real           S21_Imag           S12_Real           S12_Imag           S22_Real           S22_Imag
      100000000   -2,908871323e-02   -4,129588138e-03    3,744647801e-01   -7,220640779e-01    0,000000000e+00    0,000000000e+00    0,000000000e+00    0,000000000e+00
      114000000   -1,660466194e-02    1,159026101e-02   -8,903054893e-02   -8,057757020e-01    0,000000000e+00    0,000000000e+00    0,000000000e+00    0,000000000e+00
      128000000    3,460973036e-03    1,058376767e-02   -5,146922469e-01   -6,210104823e-01    0,000000000e+00    0,000000000e+00    0,000000000e+00    0,000000000e+00
      142000000    1,445921510e-02   -3,060965100e-03   -7,674791217e-01   -2,369026542e-01    0,000000000e+00    0,000000000e+00    0,000000000e+00    0,000000000e+00
      156000000    1,557892840e-02   -1,471690089e-02   -7,698981762e-01    2,237791866e-01    0,000000000e+00    0,000000000e+00    0,000000000e+00    0,000000000e+00
      170000000    1,649729908e-02   -2,253049985e-02   -5,184643269e-01    6,051021218e-01    0,000000000e+00    0,000000000e+00    0,000000000e+00    0,000000000e+00
      184000000    2,096326277e-02   -3,707278147e-02   -1,017498374e-01    7,864682078e-01    0,000000000e+00    0,000000000e+00    0,000000000e+00    0,000000000e+00
      198000000    1,312581543e-02   -6,261106580e-02    3,432727754e-01    7,131727934e-01    0,000000000e+00    0,000000000e+00    0,000000000e+00    0,000000000e+00
      212000000   -1,871569268e-02   -8,166864514e-02    6,783191562e-01    4,103125334e-01    0,000000000e+00    0,000000000e+00    0,000000000e+00    0,000000000e+00
      226000000   -6,208522990e-02   -6,964576244e-02    7,960813642e-01   -2,965815738e-02    0,000000000e+00    0,000000000e+00    0,000000000e+00    0,000000000e+00
      240000000   -8,314757049e-02   -2,610843629e-02    6,469155550e-01   -4,664885402e-01    0,000000000e+00    0,000000000e+00    0,000000000e+00    0,000000000e+00
      254000000   -6,436315924e-02    1,732538454e-02    2,770027518e-01   -7,433050871e-01    0,000000000e+00    0,000000000e+00    0,000000000e+00    0,000000000e+00
      268000000   -2,422483452e-02    2,957651392e-02   -1,770267338e-01   -7,650555968e-01    0,000000000e+00    0,000000000e+00    0,000000000e+00    0,000000000e+00
      282000000    4,208080471e-03    1,223176345e-02   -5,623112321e-01   -5,372027159e-01    0,000000000e+00    0,000000000e+00    0,000000000e+00    0,000000000e+00
      296000000    9,663664736e-03   -7,630218752e-03   -7,606415749e-01   -1,396445185e-01    0,000000000e+00    0,000000000e+00    0,000000000e+00    0,000000000e+00
      310000000    1,079871785e-02   -1,617168263e-02   -7,118869424e-01    2,976576686e-01    0,000000000e+00    0,000000000e+00    0,000000000e+00    0,000000000e+00
      324000000    1,984816045e-02   -2,630392648e-02   -4,276911914e-01    6,380283833e-01    0,000000000e+00    0,000000000e+00    0,000000000e+00    0,000000000e+00
      338000000    2,528800629e-02   -5,212083459e-02   -9,013568982e-03    7,642189860e-01    0,000000000e+00    0,000000000e+00    0,000000000e+00    0,000000000e+00
      352000000    7,523496635e-03   -8,487085253e-02    4,059575200e-01    6,408927441e-01    0,000000000e+00    0,000000000e+00    0,000000000e+00    0,000000000e+00
      366000000   -3,499248251e-02   -9,591529518e-02    6,903365254e-01    3,121249378e-01    0,000000000e+00    0,000000000e+00    0,000000000e+00    0,000000000e+00
      380000000   -7,122405618e-02   -7,109072059e-02    7,488594055e-01   -1,245159209e-01    0,000000000e+00    0,000000000e+00    0,000000000e+00    0,000000000e+00
      394000000   -7,331048697e-02   -3,249068186e-02    5,478951931e-01   -5,222747922e-01    0,000000000e+00    0,000000000e+00    0,000000000e+00    0,000000000e+00
      408000000   -4,674521834e-02   -1,569220982e-02    1,635532230e-01   -7,320175171e-01    0,000000000e+00    0,000000000e+00    0,000000000e+00    0,000000000e+00
      422000000   -2,847781964e-02   -3,167239204e-02   -2,665480673e-01   -6,963669062e-01    0,000000000e+00    0,000000000e+00    0,000000000e+00    0,000000000e+00
      436000000   -4,021716490e-02   -5,218546093e-02   -6,025598049e-01   -4,338664412e-01    0,000000000e+00    0,000000000e+00    0,000000000e+00    0,000000000e+00
      450000000   -6,741853058e-02   -4,488372058e-02   -7,401296496e-01   -2,518079616e-02    0,000000000e+00    0,000000000e+00    0,000000000e+00    0,000000000e+00
      464000000   -7,414291799e-02   -1,236070227e-02   -6,219561696e-01    3,944298923e-01    0,000000000e+00    0,000000000e+00    0,000000000e+00    0,000000000e+00
      478000000   -4,904615879e-02    1,161579043e-02   -2,865791619e-01    6,680751443e-01    0,000000000e+00    0,000000000e+00    0,000000000e+00    0,000000000e+00
      492000000   -1,697872579e-02    6,412597373e-03    1,342917979e-01    7,034604549e-01    0,000000000e+00    0,000000000e+00    0,000000000e+00    0,000000000e+00
      506000000   -3,941118252e-03   -1,487890258e-02    4,975106716e-01    5,061024427e-01    0,000000000e+00    0,000000000e+00    0,000000000e+00    0,000000000e+00
      520000000   -5,678975955e-03   -2,957141586e-02    6,890526414e-01    1,454201341e-01    0,000000000e+00    0,000000000e+00    0,000000000e+00    0,000000000e+00
      534000000   -3,208851675e-03   -3,589199856e-02    6,450597644e-01   -2,593007982e-01    0,000000000e+00    0,000000000e+00    0,000000000e+00    0,000000000e+00
      548000000    8,038142696e-03   -5,259230733e-02    3,849570155e-01   -5,636009574e-01    0,000000000e+00    0,000000000e+00    0,000000000e+00    0,000000000e+00
      562000000    6,084433291e-03   -8,972211927e-02    8,384722285e-03   -6,723588109e-01    0,000000000e+00    0,000000000e+00    0,000000000e+00    0,000000000e+00
      576000000   -3,119189851e-02   -1,256131381e-01   -3,616266549e-01   -5,614190102e-01    0,000000000e+00    0,000000000e+00    0,000000000e+00    0,000000000e+00
      590000000   -9,470733255e-02   -1,280164123e-01   -6,182765365e-01   -2,735584974e-01    0,000000000e+00    0,000000000e+00    0,000000000e+00    0,000000000e+00
      604000000   -1,430885196e-01   -7,773097605e-02   -6,674160361e-01    1,265488267e-01    0,000000000e+00    0,000000000e+00    0,000000000e+00    0,000000000e+00
      618000000   -1,383285075e-01   -1,157498825e-02   -4,751978517e-01    4,854268730e-01    0,000000000e+00    0,000000000e+00    0,000000000e+00    0,000000000e+00
      632000000   -9,272601455e-02    2,194511518e-02   -1,137956008e-01    6,633183956e-01    0,000000000e+00    0,000000000e+00    0,000000000e+00    0,000000000e+00
      646000000   -5,538352951e-02    1,244860794e-02    2,726421058e-01    6,033305526e-01    0,000000000e+00    0,000000000e+00    0,000000000e+00    0,000000000e+00
      660000000   -4,854586720e-02   -7,918629795e-03    5,580096841e-01    3,402601182e-01    0,000000000e+00    0,000000000e+00    0,000000000e+00    0,000000000e+00
      674000000   -5,513603613e-02   -1,044524275e-02    6,441924572e-01   -4,019631445e-02    0,000000000e+00    0,000000000e+00    0,000000000e+00    0,000000000e+00
      688000000   -5,049896613e-02    2,556087216e-03    4,932078123e-01   -4,025944769e-01    0,000000000e+00    0,000000000e+00    0,000000000e+00    0,000000000e+00
      702000000   -2,599525824e-02    6,898475811e-03    1,604937911e-01   -6,044702530e-01    0,000000000e+00    0,000000000e+00    0,000000000e+00    0,000000000e+00
      716000000   -1,799243153e-03   -9,627144784e-03   -2,197598219e-01   -5,761165023e-01    0,000000000e+00    0,000000000e+00    0,000000000e+00    0,000000000e+00
      730000000    8,931336924e-03   -3,455727547e-02   -5,103080869e-01   -3,335713446e-01    0,000000000e+00    0,000000000e+00    0,000000000e+00    0,000000000e+00
      744000000    1,701566949e-02   -6,068442017e-02   -6,009910107e-01    3,331888840e-02    0,000000000e+00    0,000000000e+00    0,000000000e+00    0,000000000e+00
      758000000    2,192163095e-02   -1,044314951e-01   -4,545512795e-01    3,777690232e-01    0,000000000e+00    0,000000000e+00    0,000000000e+00    0,000000000e+00
      772000000   -5,036941729e-03   -1,734828502e-01   -1,396258622e-01    5,585554242e-01    0,000000000e+00    0,000000000e+00    0,000000000e+00    0,000000000e+00
      786000000   -1,055417582e-01   -2,328747511e-01    2,115137279e-01    5,194804072e-01    0,000000000e+00    0,000000000e+00    0,000000000e+00    0,000000000e+00
      800000000   -2,655779123e-01   -1,931679398e-01    4,721325636e-01    2,750514448e-01    0,000000000e+00    0,000000000e+00    0,000000000e+00    0,000000000e+00
      814000000   -3,637791574e-01    2,941912506e-03    5,072326660e-01   -8,859229088e-02    0,000000000e+00    0,000000000e+00    0,000000000e+00    0,000000000e+00
      828000000   -2,470433563e-01    2,327636629e-01    2,811666131e-01   -3,518420160e-01    0,000000000e+00    0,000000000e+00    0,000000000e+00    0,000000000e+00
      842000000    1,243448071e-02    2,783381939e-01   -1,629142836e-02   -3,627068400e-01    0,000000000e+00    0,000000000e+00    0,000000000e+00    0,000000000e+00
      856000000    2,125622034e-01    1,151480377e-01   -1,885236800e-01   -2,049292326e-01    0,000000000e+00    0,000000000e+00    0,000000000e+00    0,000000000e+00
      870000000    2,389281392e-01   -1,486728638e-01   -2,001132965e-01   -2,581496537e-02    0,000000000e+00    0,000000000e+00    0,000000000e+00    0,000000000e+00
      884000000    3,829728812e-02   -3,869930506e-01   -1,040125266e-01    7,083740830e-02    0,000000000e+00    0,000000000e+00    0,000000000e+00    0,000000000e+00
      898000000   -3,698183894e-01   -3,414086699e-01   -1,671516150e-02    2,684980445e-02    0,000000000e+00    0,000000000e+00    0,000000000e+00    0,000000000e+00
      912000000   -4,671070576e-01    1,374186724e-01   -1,108771861e-01    2,334326878e-02    0,000000000e+00    0,000000000e+00    0,000000000e+00    0,000000000e+00
      926000000   -9,678684920e-02    3,511700034e-01   -1,301310807e-01    1,349733472e-01    0,000000000e+00    0,000000000e+00    0,000000000e+00    0,000000000e+00
      940000000    1,850266755e-01    1,950589269e-01   -3,993219137e-02    2,158332318e-01    0,000000000e+00    0,000000000e+00    0,000000000e+00    0,000000000e+00
      954000000    2,571628690e-01   -4,689263552e-02    8,022373915e-02    2,278665602e-01    0,000000000e+00    0,000000000e+00    0,000000000e+00    0,000000000e+00
      968000000    1,765603423e-01   -2,644826770e-01    1,923726648e-01    1,789679229e-01    0,000000000e+00    0,000000000e+00    0,000000000e+00    0,000000000e+00
      982000000   -1,820247062e-02   -3,923547268e-01    2,786203325e-01    7,983823121e-02    0,000000000e+00    0,000000000e+00    0,000000000e+00    0,000000000e+00
      996000000   -2,746333182e-01   -3,792588413e-01    3,096763790e-01   -8,068839461e-02    0,000000000e+00    0,000000000e+00    0,000000000e+00    0,000000000e+00
     1010000000   -4,708453715e-01   -1,695333272e-01    2,210588157e-01   -2,519709468e-01    0,000000000e+00    0,000000000e+00    0,000000000e+00    0,000000000e+00
     1024000000   -4,634913206e-01    1,184198260e-01    2,189646661e-02   -3,299591243e-01    0,000000000e+00    0,000000000e+00    0,000000000e+00    0,000000000e+00
     1038000000   -2,610109746e-01    2,995351255e-01   -1,730073392e-01   -2,480734438e-01    0,000000000e+00    0,000000000e+00    0,000000000e+00    0,000000000e+00
     1052000000   -3,943648562e-02    3,046286106e-01   -2,555444539e-01   -7,622127980e-02    0,000000000e+00    0,000000000e+00    0,000000000e+00    0,000000000e+00
     1066000000    1,251790673e-01    2,070781142e-01   -2,245210260e-01    8,499175310e-02    0,000000000e+00    0,000000000e+00    0,000000000e+00    0,000000000e+00
     1080000000    2,102837116e-01    4,702546075e-02   -1,233607903e-01    1,940340400e-01    0,000000000e+00    0,000000000e+00    0,000000000e+00    0,000000000e+00
     1094000000    1,999708414e-01   -1,300522238e-01    1,868508384e-02    2,354343832e-01    0,000000000e+00    0,000000000e+00    0,000000000e+00    0,000000000e+00
     1108000000    1,020861790e-01   -2,889304459e-01    1,694576144e-01    2,065655738e-01    0,000000000e+00    0,000000000e+00    0,000000000e+00    0,000000000e+00
     1122000000   -9,735166281e-02   -3,701149523e-01    3,165200949e-01    8,993312716e-02    0,000000000e+00    0,000000000e+00    0,000000000e+00    0,000000000e+00
     1136000000   -3,433884084e-01   -2,694885433e-01    3,917497694e-01   -1,496958733e-01    0,000000000e+00    0,000000000e+00    0,000000000e+00    0,000000000e+00
     1150000000   -4,036180675e-01    3,817942739e-02    2,394139171e-01   -4,369488955e-01    0,000000000e+00    0,000000000e+00    0,000000000e+00    0,000000000e+00
     1164000000   -1,601297259e-01    2,134478390e-01   -9,436859190e-02   -5,138521194e-01    0,000000000e+00    0,000000000e+00    0,000000000e+00    0,000000000e+00
     1178000000    7,629942894e-02    8,165166527e-02   -3,565502763e-01   -3,495702446e-01    0,000000000e+00    0,000000000e+00    0,000000000e+00    0,000000000e+00
     1192000000    7,223067433e-02   -1,751563847e-01   -4,544064701e-01   -8,336694539e-02    0,000000000e+00    0,000000000e+00    0,000000000e+00    0,000000000e+00
     1206000000   -1,624159962e-01   -3,235790431e-01   -3,684793115e-01    1,927443147e-01    0,000000000e+00    0,000000000e+00    0,000000000e+00    0,000000000e+00
     1220000000   -4,551032186e-01   -1,737293005e-01   -1,057452708e-01    3,300004303e-01    0,000000000e+00    0,000000000e+00    0,000000000e+00    0,000000000e+00
     1234000000   -4,760445952e-01    1,678726375e-01    1,376218051e-01    2,228068113e-01    0,000000000e+00    0,000000000e+00    0,000000000e+00    0,000000000e+00
     1248000000   -2,347967476e-01    3,557848930e-01    1,958639324e-01    4,076176137e-02    0,000000000e+00    0,000000000e+00    0,000000000e+00    0,000000000e+00
     1262000000    1,954555977e-03    3,303804100e-01    1,295192093e-01   -6,795688719e-02    0,000000000e+00    0,000000000e+00    0,000000000e+00    0,000000000e+00
     1276000000    1,557217985e-01    2,023808062e-01    5,483980477e-02   -9,530800581e-02    0,000000000e+00    0,000000000e+00    0,000000000e+00    0,000000000e+00
     1290000000    2,160661668e-01    3,364535421e-02    1,165692811e-03   -7,047685981e-02    0,000000000e+00    0,000000000e+00    0,000000000e+00    0,000000000e+00
     1304000000    2,052391917e-01   -1,490687877e-01   -2,276057564e-02   -3,483284265e-02    0,000000000e+00    0,000000000e+00    0,000000000e+00    0,000000000e+00
     1318000000    1,167578101e-01   -3,115244806e-01   -4,805330187e-03    2,625769936e-02    0,000000000e+00    0,000000000e+00    0,000000000e+00    0,000000000e+00
     1332000000   -6,598273665e-02   -4,340472221e-01    4,149896279e-02    6,386483461e-02    0,000000000e+00    0,000000000e+00    0,000000000e+00    0,000000000e+00
     1346000000   -3,234068155e-01   -4,355295897e-01    1,471563727e-01    4,435623065e-02    0,000000000e+00    0,000000000e+00    0,000000000e+00    0,000000000e+00
     1360000000   -5,499013066e-01   -2,510414124e-01    1,255540997e-01   -8,264207840e-02    0,000000000e+00    0,000000000e+00    0,000000000e+00    0,000000000e+00
     1374000000   -6,200723648e-01    3,064499609e-02    1,063593924e-01    6,471396983e-02    0,000000000e+00    0,000000000e+00    0,000000000e+00    0,000000000e+00
     1388000000   -5,053637028e-01    2,831655741e-01    2,338433415e-01    2,668736735e-03    0,000000000e+00    0,000000000e+00    0,000000000e+00    0,000000000e+00
     1402000000   -3,022379875e-01    4,135999084e-01    2,263650298e-01   -8,592886478e-02    0,000000000e+00    0,000000000e+00    0,000000000e+00    0,000000000e+00
     1416000000   -9,205719829e-02    4,229817986e-01    1,970380843e-01   -1,159491390e-01    0,000000000e+00    0,000000000e+00    0,000000000e+00    0,000000000e+00
     1430000000    7,018285245e-02    3,403122425e-01    1,820140183e-01   -1,102475598e-01    0,000000000e+00    0,000000000e+00    0,000000000e+00    0,000000000e+00
     1444000000    1,775153577e-01    2,008052617e-01    1,619226187e-01   -9,895080328e-02    0,000000000e+00    0,000000000e+00    0,000000000e+00    0,000000000e+00
     1458000000    2,260247618e-01    3,509361669e-02    1,523669958e-01   -8,444425464e-02    0,000000000e+00    0,000000000e+00    0,000000000e+00    0,000000000e+00
     1472000000    2,068597674e-01   -1,455189437e-01    1,574489772e-01   -4,646744952e-02    0,000000000e+00    0,000000000e+00    0,000000000e+00    0,000000000e+00
     1486000000    1,041138619e-01   -3,224627078e-01    1,658243537e-01    6,957250182e-03    0,000000000e+00    0,000000000e+00    0,000000000e+00    0,000000000e+00
     1500000000   -9,324708581e-02   -4,505471289e-01    2,085395604e-01    6,347067654e-02    0,000000000e+00    0,000000000e+00    0,000000000e+00    0,000000000e+00
