! NanoVNA-App
! Date: 2025-09-25 14:21:59
! Start: 100MHz Stop: 1,5GHz Points: 101
! S-Parameter data: F S11 S21 S12 S22
# Hz S RI R 50
!     Frequency           S11_Real           S11_Imag           S21_Real           S21_Imag           S12_Real           S12_Imag           S22_Real           S22_Imag
      100000000   -2,908805571e-02   -4,124498460e-03    3,744419813e-01   -7,220749259e-01    0,000000000e+00    0,000000000e+00    0,000000000e+00    0,000000000e+00
      114000000   -1,661842316e-02    1,162594371e-02   -8,900753409e-02   -8,059165478e-01    0,000000000e+00    0,000000000e+00    0,000000000e+00    0,000000000e+00
      128000000    3,393073333e-03    1,059302036e-02   -5,145376325e-01   -6,210150123e-01    0,000000000e+00    0,000000000e+00    0,000000000e+00    0,000000000e+00
      142000000    1,444970723e-02   -3,062997945e-03   -7,674298286e-01   -2,367727607e-01    0,000000000e+00    0,000000000e+00    0,000000000e+00    0,000000000e+00
      156000000    1,513781305e-02   -1,492395066e-02   -7,721005678e-01    2,216620892e-01    0,000000000e+00    0,000000000e+00    0,000000000e+00    0,000000000e+00
      170000000    1,651195437e-02   -2,256237157e-02   -5,186565518e-01    6,052372456e-01    0,000000000e+00    0,000000000e+00    0,000000000e+00    0,000000000e+00
      184000000    2,095935307e-02   -3,709190339e-02   -1,015855670e-01    7,866239548e-01    0,000000000e+00    0,000000000e+00    0,000000000e+00    0,000000000e+00
      198000000    1,308684703e-02   -6,257393211e-02    3,428821564e-01    7,131369114e-01    0,000000000e+00    0,000000000e+00    0,000000000e+00    0,000000000e+00
      212000000   -1,873480901e-02   -8,165620267e-02    6,784249544e-01    4,106759727e-01    0,000000000e+00    0,000000000e+00    0,000000000e+00    0,000000000e+00
      226000000   -6,206595898e-02   -6,958144903e-02    7,961876988e-01   -2,978945524e-02    0,000000000e+00    0,000000000e+00    0,000000000e+00    0,000000000e+00
      240000000   -8,319678903e-02   -2,608155087e-02    6,471156478e-01   -4,666844904e-01    0,000000000e+00    0,000000000e+00    0,000000000e+00    0,000000000e+00
      254000000   -6,439779699e-02    1,727121323e-02    2,770586014e-01   -7,436125875e-01    0,000000000e+00    0,000000000e+00    0,000000000e+00    0,000000000e+00
      268000000   -2,431693114e-02    2,957003005e-02   -1,773250252e-01   -7,650128007e-01    0,000000000e+00    0,000000000e+00    0,000000000e+00    0,000000000e+00
      282000000    4,332218785e-03    1,217964943e-02   -5,624157786e-01   -5,369940400e-01    0,000000000e+00    0,000000000e+00    0,000000000e+00    0,000000000e+00
      296000000    9,537718259e-03   -7,845964283e-03   -7,607842088e-01   -1,394896209e-01    0,000000000e+00    0,000000000e+00    0,000000000e+00    0,000000000e+00
      310000000    1,089501008e-02   -1,618205383e-02   -7,140821815e-01    2,972387969e-01    0,000000000e+00    0,000000000e+00    0,000000000e+00    0,000000000e+00
      324000000    1,961006969e-02   -2,644250728e-02   -4,287846386e-01    6,382952929e-01    0,000000000e+00    0,000000000e+00    0,000000000e+00    0,000000000e+00
      338000000    2,516117133e-02   -5,196626484e-02   -8,391665295e-03    7,604060173e-01    0,000000000e+00    0,000000000e+00    0,000000000e+00    0,000000000e+00
      352000000    7,469758857e-03   -8,479277045e-02    4,055823386e-01    6,412179470e-01    0,000000000e+00    0,000000000e+00    0,000000000e+00    0,000000000e+00
      366000000   -3,476691991e-02   -9,584263712e-02    6,907346249e-01    3,128064871e-01    0,000000000e+00    0,000000000e+00    0,000000000e+00    0,000000000e+00
      380000000   -7,149155438e-02   -7,136271894e-02    7,480463982e-01   -1,248890311e-01    0,000000000e+00    0,000000000e+00    0,000000000e+00    0,000000000e+00
      394000000   -7,315378636e-02   -3,243129700e-02    5,478224754e-01   -5,203323960e-01    0,000000000e+00    0,000000000e+00    0,000000000e+00    0,000000000e+00
      408000000   -4,685747251e-02   -1,598420925e-02    1,622145921e-01   -7,340714335e-01    0,000000000e+00    0,000000000e+00    0,000000000e+00    0,000000000e+00
      422000000   -2,847518958e-02   -3,142378852e-02   -2,661939561e-01   -6,962501407e-01    0,000000000e+00    0,000000000e+00    0,000000000e+00    0,000000000e+00
      436000000   -4,000767320e-02   -5,170841888e-02   -6,022464037e-01   -4,340223968e-01    0,000000000e+00    0,000000000e+00    0,000000000e+00    0,000000000e+00
      450000000   -6,757993996e-02   -4,464175552e-02   -7,401251197e-01   -2,509707399e-02    0,000000000e+00    0,000000000e+00    0,000000000e+00    0,000000000e+00
      464000000   -7,390061021e-02   -1,228346396e-02   -6,213306189e-01    3,951479793e-01    0,000000000e+00    0,000000000e+00    0,000000000e+00    0,000000000e+00
      478000000   -4,913647845e-02    1,162696164e-02   -2,862465382e-01    6,677064896e-01    0,000000000e+00    0,000000000e+00    0,000000000e+00    0,000000000e+00
      492000000   -1,705504395e-02    6,313963793e-03    1,338523775e-01    7,043853998e-01    0,000000000e+00    0,000000000e+00    0,000000000e+00    0,000000000e+00
      506000000   -3,766976297e-03   -1,519468147e-02    4,969174862e-01    5,057695508e-01    0,000000000e+00    0,000000000e+00    0,000000000e+00    0,000000000e+00
      520000000   -5,688391160e-03   -2,978410013e-02    6,885928512e-01    1,450441927e-01    0,000000000e+00    0,000000000e+00    0,000000000e+00    0,000000000e+00
      534000000   -3,246666631e-03   -3,589426354e-02    6,445463300e-01   -2,603633106e-01    0,000000000e+00    0,000000000e+00    0,000000000e+00    0,000000000e+00
      548000000    7,778015453e-03   -5,279273167e-02    3,848378360e-01   -5,645467639e-01    0,000000000e+00    0,000000000e+00    0,000000000e+00    0,000000000e+00
      562000000    5,506515969e-03   -8,976290375e-02    8,124490269e-03   -6,721042991e-01    0,000000000e+00    0,000000000e+00    0,000000000e+00    0,000000000e+00
      576000000   -3,102287464e-02   -1,266597509e-01   -3,626644611e-01   -5,609502792e-01    0,000000000e+00    0,000000000e+00    0,000000000e+00    0,000000000e+00
      590000000   -9,498067945e-02   -1,278903633e-01   -6,152348518e-01   -2,732097805e-01    0,000000000e+00    0,000000000e+00    0,000000000e+00    0,000000000e+00
      604000000   -1,435868591e-01   -7,817598432e-02   -6,675906181e-01    1,262121797e-01    0,000000000e+00    0,000000000e+00    0,000000000e+00    0,000000000e+00
      618000000   -1,383391470e-01   -1,169638894e-02   -4,751383662e-01    4,851763248e-01    0,000000000e+00    0,000000000e+00    0,000000000e+00    0,000000000e+00
      632000000   -9,296859056e-02    2,129604667e-02   -1,132498384e-01    6,640606523e-01    0,000000000e+00    0,000000000e+00    0,000000000e+00    0,000000000e+00
      646000000   -5,465300381e-02    1,176426653e-02    2,722366154e-01    6,028088927e-01    0,000000000e+00    0,000000000e+00    0,000000000e+00    0,000000000e+00
      660000000   -4,857571796e-02   -9,337686934e-03    5,575301647e-01    3,396574855e-01    0,000000000e+00    0,000000000e+00    0,000000000e+00    0,000000000e+00
      674000000   -5,609764531e-02   -9,860127233e-03    6,443083882e-01   -3,976801783e-02    0,000000000e+00    0,000000000e+00    0,000000000e+00    0,000000000e+00
      688000000   -5,084032565e-02    3,337559989e-03    4,927108288e-01   -4,017030299e-01    0,000000000e+00    0,000000000e+00    0,000000000e+00    0,000000000e+00
      702000000   -2,568115853e-02    7,625781465e-03    1,646903157e-01   -6,031664014e-01    0,000000000e+00    0,000000000e+00    0,000000000e+00    0,000000000e+00
      716000000   -2,248482779e-03   -9,870436974e-03   -2,184569091e-01   -5,750815272e-01    0,000000000e+00    0,000000000e+00    0,000000000e+00    0,000000000e+00
      730000000    9,307767265e-03   -3,418889642e-02   -5,088983774e-01   -3,330384195e-01    0,000000000e+00    0,000000000e+00    0,000000000e+00    0,000000000e+00
      744000000    1,712618396e-02   -6,049849838e-02   -6,004230380e-01    3,262704983e-02    0,000000000e+00    0,000000000e+00    0,000000000e+00    0,000000000e+00
      758000000    2,182858810e-02   -1,042828932e-01   -4,537073374e-01    3,777414262e-01    0,000000000e+00    0,000000000e+00    0,000000000e+00    0,000000000e+00
      772000000   -4,878821317e-03   -1,735439003e-01   -1,395999342e-01    5,593323112e-01    0,000000000e+00    0,000000000e+00    0,000000000e+00    0,000000000e+00
      786000000   -1,055834815e-01   -2,321480811e-01    2,123578340e-01    5,197623968e-01    0,000000000e+00    0,000000000e+00    0,000000000e+00    0,000000000e+00
      800000000   -2,657807171e-01   -1,918276101e-01    4,711175263e-01    2,745655179e-01    0,000000000e+00    0,000000000e+00    0,000000000e+00    0,000000000e+00
      814000000   -3,638069332e-01    2,942194697e-03    5,083105564e-01   -8,861371875e-02    0,000000000e+00    0,000000000e+00    0,000000000e+00    0,000000000e+00
      828000000   -2,466209978e-01    2,330577075e-01    2,814917564e-01   -3,525044024e-01    0,000000000e+00    0,000000000e+00    0,000000000e+00    0,000000000e+00
      842000000    1,344276499e-02    2,784740031e-01   -1,614354923e-02   -3,628528118e-01    0,000000000e+00    0,000000000e+00    0,000000000e+00    0,000000000e+00
      856000000    2,124686092e-01    1,150346398e-01   -1,881309003e-01   -2,047635913e-01    0,000000000e+00    0,000000000e+00    0,000000000e+00    0,000000000e+00
      870000000    2,390368432e-01   -1,488915086e-01   -2,002584040e-01   -2,589078620e-02    0,000000000e+00    0,000000000e+00    0,000000000e+00    0,000000000e+00
      884000000    3,704962507e-02   -3,871888220e-01   -1,045583189e-01    7,108838111e-02    0,000000000e+00    0,000000000e+00    0,000000000e+00    0,000000000e+00
      898000000   -3,704683185e-01   -3,420086503e-01   -1,676964946e-02    2,687477507e-02    0,000000000e+00    0,000000000e+00    0,000000000e+00    0,000000000e+00
      912000000   -4,673282504e-01    1,384941787e-01   -1,240476817e-01    3,571752459e-02    0,000000000e+00    0,000000000e+00    0,000000000e+00    0,000000000e+00
      926000000   -9,420572221e-02    3,522869945e-01   -1,273228228e-01    1,357605904e-01    0,000000000e+00    0,000000000e+00    0,000000000e+00    0,000000000e+00
      940000000    1,834834218e-01    1,953257471e-01   -3,821101040e-02    2,153261006e-01    0,000000000e+00    0,000000000e+00    0,000000000e+00    0,000000000e+00
      954000000    2,532758713e-01   -4,733484611e-02    7,953464240e-02    2,283488065e-01    0,000000000e+00    0,000000000e+00    0,000000000e+00    0,000000000e+00
      968000000    1,739475727e-01   -2,622806132e-01    1,904810965e-01    1,799857467e-01    0,000000000e+00    0,000000000e+00    0,000000000e+00    0,000000000e+00
      982000000   -1,690923795e-02   -3,927687407e-01    2,802157998e-01    8,033018559e-02    0,000000000e+00    0,000000000e+00    0,000000000e+00    0,000000000e+00
      996000000   -2,731553614e-01   -3,762079775e-01    3,094605803e-01   -8,132082224e-02    0,000000000e+00    0,000000000e+00    0,000000000e+00    0,000000000e+00
     1010000000   -4,690586030e-01   -1,760742813e-01    2,219378948e-01   -2,522561848e-01    0,000000000e+00    0,000000000e+00    0,000000000e+00    0,000000000e+00
     1024000000   -4,555284381e-01    1,155544966e-01    1,913651451e-02   -3,285944462e-01    0,000000000e+00    0,000000000e+00    0,000000000e+00    0,000000000e+00
     1038000000   -2,675893605e-01    2,955964804e-01   -1,733098775e-01   -2,464495748e-01    0,000000000e+00    0,000000000e+00    0,000000000e+00    0,000000000e+00
     1052000000   -3,824996948e-02    3,053081930e-01   -2,567233443e-01   -7,740388066e-02    0,000000000e+00    0,000000000e+00    0,000000000e+00    0,000000000e+00
     1066000000    1,308838725e-01    2,045142055e-01   -2,262696028e-01    8,656203747e-02    0,000000000e+00    0,000000000e+00    0,000000000e+00    0,000000000e+00
     1080000000    2,110565305e-01    4,768093303e-02   -1,213105991e-01    1,915362477e-01    0,000000000e+00    0,000000000e+00    0,000000000e+00    0,000000000e+00
     1094000000    1,997082084e-01   -1,311045289e-01    1,667628251e-02    2,340859622e-01    0,000000000e+00    0,000000000e+00    0,000000000e+00    0,000000000e+00
     1108000000    1,013344824e-01   -2,902836502e-01    1,690023392e-01    2,075016946e-01    0,000000000e+00    0,000000000e+00    0,000000000e+00    0,000000000e+00
     1122000000   -9,717927873e-02   -3,684456348e-01    3,174670339e-01    8,918140084e-02    0,000000000e+00    0,000000000e+00    0,000000000e+00    0,000000000e+00
     1136000000   -3,435430229e-01   -2,672909200e-01    3,930682838e-01   -1,493657827e-01    0,000000000e+00    0,000000000e+00    0,000000000e+00    0,000000000e+00
     1150000000   -4,066481888e-01    4,039871693e-02    2,431852520e-01   -4,389419258e-01    0,000000000e+00    0,000000000e+00    0,000000000e+00    0,000000000e+00
     1164000000   -1,577038318e-01    2,151091099e-01   -9,319783002e-02   -5,148392916e-01    0,000000000e+00    0,000000000e+00    0,000000000e+00    0,000000000e+00
     1178000000    7,263145596e-02    8,174502850e-02   -3,600675762e-01   -3,504898250e-01    0,000000000e+00    0,000000000e+00    0,000000000e+00    0,000000000e+00
     1192000000    7,532864064e-02   -1,722614914e-01   -4,535648227e-01   -8,126627654e-02    0,000000000e+00    0,000000000e+00    0,000000000e+00    0,000000000e+00
     1206000000   -1,588982642e-01   -3,267078400e-01   -3,675056100e-01    1,895051897e-01    0,000000000e+00    0,000000000e+00    0,000000000e+00    0,000000000e+00
     1220000000   -4,580400288e-01   -1,788175553e-01   -1,046374366e-01    3,263593912e-01    0,000000000e+00    0,000000000e+00    0,000000000e+00    0,000000000e+00
     1234000000   -4,725303352e-01    1,709743440e-01    1,356747001e-01    2,218575031e-01    0,000000000e+00    0,000000000e+00    0,000000000e+00    0,000000000e+00
     1248000000   -2,371063828e-01    3,482730091e-01    1,966502815e-01    3,446276113e-02    0,000000000e+00    0,000000000e+00    0,000000000e+00    0,000000000e+00
     1262000000    9,589978494e-03    3,306959271e-01    1,276467890e-01   -7,215683907e-02    0,000000000e+00    0,000000000e+00    0,000000000e+00    0,000000000e+00
     1276000000    1,598813534e-01    2,051794231e-01    5,517853424e-02   -9,195224196e-02    0,000000000e+00    0,000000000e+00    0,000000000e+00    0,000000000e+00
     1290000000    2,172739208e-01    3,136431798e-02    1,576389652e-03   -7,184715569e-02    0,000000000e+00    0,000000000e+00    0,000000000e+00    0,000000000e+00
     1304000000    2,069330961e-01   -1,487436146e-01   -1,599138416e-02   -3,147627786e-02    0,000000000e+00    0,000000000e+00    0,000000000e+00    0,000000000e+00
     1318000000    1,124947146e-01   -3,107765019e-01   -2,677075332e-03    2,652306296e-02    0,000000000e+00    0,000000000e+00    0,000000000e+00    0,000000000e+00
     1332000000   -6,872047484e-02   -4,307796359e-01    5,244083330e-02    6,936583668e-02    0,000000000e+00    0,000000000e+00    0,000000000e+00    0,000000000e+00
     1346000000   -3,284251690e-01   -4,330845773e-01    1,394204944e-01    5,225408077e-02    0,000000000e+00    0,000000000e+00    0,000000000e+00    0,000000000e+00
     1360000000   -5,512613058e-01   -2,456578016e-01    1,231418997e-01   -7,569242269e-02    0,000000000e+00    0,000000000e+00    0,000000000e+00    0,000000000e+00
     1374000000   -6,165058613e-01    3,919016942e-02    1,151414067e-01    6,800979376e-02    0,000000000e+00    0,000000000e+00    0,000000000e+00    0,000000000e+00
     1388000000   -5,164988637e-01    2,972992361e-01    2,182345390e-01    1,149451267e-02    0,000000000e+00    0,000000000e+00    0,000000000e+00    0,000000000e+00
     1402000000   -2,990055382e-01    4,186265767e-01    2,336155474e-01   -8,241362125e-02    0,000000000e+00    0,000000000e+00    0,000000000e+00    0,000000000e+00
     1416000000   -8,917739987e-02    4,226615429e-01    1,984382272e-01   -1,047226712e-01    0,000000000e+00    0,000000000e+00    0,000000000e+00    0,000000000e+00
     1430000000    6,755743921e-02    3,435523212e-01    1,776208580e-01   -1,084227040e-01    0,000000000e+00    0,000000000e+00    0,000000000e+00    0,000000000e+00
     1444000000    1,734577268e-01    1,998723447e-01    1,396218538e-01   -9,751351178e-02    0,000000000e+00    0,000000000e+00    0,000000000e+00    0,000000000e+00
     1458000000    2,260366976e-01    3,630740941e-02    1,542759389e-01   -6,944512576e-02    0,000000000e+00    0,000000000e+00    0,000000000e+00    0,000000000e+00
     1472000000    2,075446546e-01   -1,448581964e-01    1,551965773e-01   -5,722442269e-02    0,000000000e+00    0,000000000e+00    0,000000000e+00    0,000000000e+00
     1486000000    1,094248667e-01   -3,203992844e-01    1,784182191e-01   -1,353770774e-02    0,000000000e+00    0,000000000e+00    0,000000000e+00    0,000000000e+00
     1500000000   -1,030552685e-01   -4,605274200e-01    2,169643193e-01    4,560853168e-02    0,000000000e+00    0,000000000e+00    0,000000000e+00    0,000000000e+00
