! NanoVNA-App
! Date: 2025-09-25 14:22:58
! Start: 100MHz Stop: 1,5GHz Points: 101
! S-Parameter data: F S11 S21 S12 S22
# Hz S RI R 50
!     Frequency           S11_Real           S11_Imag           S21_Real           S21_Imag           S12_Real           S12_Imag           S22_Real           S22_Imag
      100000000   -2,910264209e-02   -4,136457574e-03    3,744690418e-01   -7,221541405e-01    0,000000000e+00    0,000000000e+00    0,000000000e+00    0,000000000e+00
      114000000   -1,666098647e-02    1,159705408e-02   -8,898336440e-02   -8,058339357e-01    0,000000000e+00    0,000000000e+00    0,000000000e+00    0,000000000e+00
      128000000    3,445640439e-03    1,053917315e-02   -5,145539045e-01   -6,209726334e-01    0,000000000e+00    0,000000000e+00    0,000000000e+00    0,000000000e+00
      142000000    1,445522811e-02   -3,027326893e-03   -7,672169805e-01   -2,368151098e-01    0,000000000e+00    0,000000000e+00    0,000000000e+00    0,000000000e+00
      156000000    1,555643789e-02   -1,455276180e-02   -7,729423046e-01    2,233055383e-01    0,000000000e+00    0,000000000e+00    0,000000000e+00    0,000000000e+00
      170000000    1,656626724e-02   -2,257617004e-02   -5,187180638e-01    6,050361395e-01    0,000000000e+00    0,000000000e+00    0,000000000e+00    0,000000000e+00
      184000000    2,098832838e-02   -3,710450232e-02   -1,017756909e-01    7,868727446e-01    0,000000000e+00    0,000000000e+00    0,000000000e+00    0,000000000e+00
      198000000    1,307513379e-02   -6,259858608e-02    3,430133462e-01    7,131164670e-01    0,000000000e+00    0,000000000e+00    0,000000000e+00    0,000000000e+00
      212000000   -1,871801354e-02   -8,162961900e-02    6,782527566e-01    4,105661213e-01    0,000000000e+00    0,000000000e+00    0,000000000e+00    0,000000000e+00
      226000000   -6,199954078e-02   -6,970097870e-02    7,960300446e-01   -2,972421236e-02    0,000000000e+00    0,000000000e+00    0,000000000e+00    0,000000000e+00
      240000000   -8,315107226e-02   -2,608849853e-02    6,474838853e-01   -4,667979181e-01    0,000000000e+00    0,000000000e+00    0,000000000e+00    0,000000000e+00
      254000000   -6,430525333e-02    1,721184328e-02    2,772307992e-01   -7,433154583e-01    0,000000000e+00    0,000000000e+00    0,000000000e+00    0,000000000e+00
      268000000   -2,431336790e-02    2,953895926e-02   -1,773718596e-01   -7,651940584e-01    0,000000000e+00    0,000000000e+00    0,000000000e+00    0,000000000e+00
      282000000    4,209885374e-03    1,218904462e-02   -5,625423789e-01   -5,373827219e-01    0,000000000e+00    0,000000000e+00    0,000000000e+00    0,000000000e+00
      296000000    9,531901218e-03   -7,678497117e-03   -7,607821226e-01   -1,396806687e-01    0,000000000e+00    0,000000000e+00    0,000000000e+00    0,000000000e+00
      310000000    1,092217211e-02   -1,587234437e-02   -7,121685147e-01    2,981788218e-01    0,000000000e+00    0,000000000e+00    0,000000000e+00    0,000000000e+00
      324000000    1,947764121e-02   -2,646300569e-02   -4,287753403e-01    6,391614079e-01    0,000000000e+00    0,000000000e+00    0,000000000e+00    0,000000000e+00
      338000000    2,518780529e-02   -5,209495500e-02   -7,647928316e-03    7,598369718e-01    0,000000000e+00    0,000000000e+00    0,000000000e+00    0,000000000e+00
      352000000    7,203741465e-03   -8,486951888e-02    4,060509801e-01    6,401686072e-01    0,000000000e+00    0,000000000e+00    0,000000000e+00    0,000000000e+00
      366000000   -3,476728126e-02   -9,576826543e-02    6,908745170e-01    3,123370111e-01    0,000000000e+00    0,000000000e+00    0,000000000e+00    0,000000000e+00
      380000000   -7,127990574e-02   -7,120750844e-02    7,486182451e-01   -1,245470494e-01    0,000000000e+00    0,000000000e+00    0,000000000e+00    0,000000000e+00
      394000000   -7,312985510e-02   -3,253430501e-02    5,477619171e-01   -5,203961134e-01    0,000000000e+00    0,000000000e+00    0,000000000e+00    0,000000000e+00
      408000000   -4,687990993e-02   -1,577053592e-02    1,630868763e-01   -7,315407395e-01    0,000000000e+00    0,000000000e+00    0,000000000e+00    0,000000000e+00
      422000000   -2,849394083e-02   -3,137873486e-02   -2,654911280e-01   -6,963062882e-01    0,000000000e+00    0,000000000e+00    0,000000000e+00    0,000000000e+00
      436000000   -3,987204656e-02   -5,197191238e-02   -6,020518541e-01   -4,336904883e-01    0,000000000e+00    0,000000000e+00    0,000000000e+00    0,000000000e+00
      450000000   -6,761187315e-02   -4,471815377e-02   -7,403597832e-01   -2,493452840e-02    0,000000000e+00    0,000000000e+00    0,000000000e+00    0,000000000e+00
      464000000   -7,400256395e-02   -1,233826298e-02   -6,210268736e-01    3,943806887e-01    0,000000000e+00    0,000000000e+00    0,000000000e+00    0,000000000e+00
      478000000   -4,891576990e-02    1,182356756e-02   -2,865914702e-01    6,678640842e-01    0,000000000e+00    0,000000000e+00    0,000000000e+00    0,000000000e+00
      492000000   -1,677987911e-02    6,491159089e-03    1,343964636e-01    7,044951916e-01    0,000000000e+00    0,000000000e+00    0,000000000e+00    0,000000000e+00
      506000000   -3,544415114e-03   -1,520188898e-02    4,976679385e-01    5,059103370e-01    0,000000000e+00    0,000000000e+00    0,000000000e+00    0,000000000e+00
      520000000   -5,687376484e-03   -2,983986773e-02    6,898840070e-01    1,427467316e-01    0,000000000e+00    0,000000000e+00    0,000000000e+00    0,000000000e+00
      534000000   -3,095181892e-03   -3,591132909e-02    6,447134018e-01   -2,597304881e-01    0,000000000e+00    0,000000000e+00    0,000000000e+00    0,000000000e+00
      548000000    8,290429600e-03   -5,287490413e-02    3,847711384e-01   -5,643942952e-01    0,000000000e+00    0,000000000e+00    0,000000000e+00    0,000000000e+00
      562000000    5,601910409e-03   -8,920190483e-02    7,613764144e-03   -6,717473865e-01    0,000000000e+00    0,000000000e+00    0,000000000e+00    0,000000000e+00
      576000000   -3,101504780e-02   -1,262035072e-01   -3,630271852e-01   -5,613712668e-01    0,000000000e+00    0,000000000e+00    0,000000000e+00    0,000000000e+00
      590000000   -9,483326972e-02   -1,277208328e-01   -6,180226207e-01   -2,723768055e-01    0,000000000e+00    0,000000000e+00    0,000000000e+00    0,000000000e+00
      604000000   -1,432274878e-01   -7,841096073e-02   -6,675165296e-01    1,259648353e-01    0,000000000e+00    0,000000000e+00    0,000000000e+00    0,000000000e+00
      618000000   -1,380377710e-01   -1,102926582e-02   -4,751896560e-01    4,858894348e-01    0,000000000e+00    0,000000000e+00    0,000000000e+00    0,000000000e+00
      632000000   -9,291148931e-02    2,143043093e-02   -1,133012101e-01    6,633906960e-01    0,000000000e+00    0,000000000e+00    0,000000000e+00    0,000000000e+00
      646000000   -5,466859043e-02    1,217770763e-02    2,728085220e-01    6,030545235e-01    0,000000000e+00    0,000000000e+00    0,000000000e+00    0,000000000e+00
      660000000   -4,834334552e-02   -9,366410784e-03    5,571663380e-01    3,402626216e-01    0,000000000e+00    0,000000000e+00    0,000000000e+00    0,000000000e+00
      674000000   -5,521957204e-02   -1,114748325e-02    6,440725327e-01   -3,940407187e-02    0,000000000e+00    0,000000000e+00    0,000000000e+00    0,000000000e+00
      688000000   -5,083654448e-02    2,510222374e-03    4,927581251e-01   -4,018687308e-01    0,000000000e+00    0,000000000e+00    0,000000000e+00    0,000000000e+00
      702000000   -2,601646446e-02    6,890434306e-03    1,687053740e-01   -6,045313478e-01    0,000000000e+00    0,000000000e+00    0,000000000e+00    0,000000000e+00
      716000000   -2,576133003e-03   -8,874531835e-03   -2,186278105e-01   -5,755274892e-01    0,000000000e+00    0,000000000e+00    0,000000000e+00    0,000000000e+00
      730000000    9,825166315e-03   -3,388087824e-02   -5,093790293e-01   -3,329789042e-01    0,000000000e+00    0,000000000e+00    0,000000000e+00    0,000000000e+00
      744000000    1,621193998e-02   -6,047574058e-02   -6,007900834e-01    3,341007605e-02    0,000000000e+00    0,000000000e+00    0,000000000e+00    0,000000000e+00
      758000000    2,137972601e-02   -1,039304137e-01   -4,543408155e-01    3,774124384e-01    0,000000000e+00    0,000000000e+00    0,000000000e+00    0,000000000e+00
      772000000   -4,907925613e-03   -1,733562052e-01   -1,395413131e-01    5,579004884e-01    0,000000000e+00    0,000000000e+00    0,000000000e+00    0,000000000e+00
      786000000   -1,048409268e-01   -2,332815230e-01    2,109747231e-01    5,196520090e-01    0,000000000e+00    0,000000000e+00    0,000000000e+00    0,000000000e+00
      800000000   -2,652026117e-01   -1,928220689e-01    4,713244438e-01    2,756872773e-01    0,000000000e+00    0,000000000e+00    0,000000000e+00    0,000000000e+00
      814000000   -3,639547527e-01    4,079726525e-03    5,080432892e-01   -8,873648942e-02    0,000000000e+00    0,000000000e+00    0,000000000e+00    0,000000000e+00
      828000000   -2,472213656e-01    2,328373194e-01    2,810047567e-01   -3,526844382e-01    0,000000000e+00    0,000000000e+00    0,000000000e+00    0,000000000e+00
      842000000    1,232079510e-02    2,785249352e-01   -1,594791934e-02   -3,629317582e-01    0,000000000e+00    0,000000000e+00    0,000000000e+00    0,000000000e+00
      856000000    2,126110643e-01    1,160071567e-01   -1,876041442e-01   -2,045597881e-01    0,000000000e+00    0,000000000e+00    0,000000000e+00    0,000000000e+00
      870000000    2,388157696e-01   -1,487965435e-01   -2,006281465e-01   -2,595082298e-02    0,000000000e+00    0,000000000e+00    0,000000000e+00    0,000000000e+00
      884000000    3,770680353e-02   -3,874000311e-01   -1,032324955e-01    7,066446543e-02    0,000000000e+00    0,000000000e+00    0,000000000e+00    0,000000000e+00
      898000000   -3,692449927e-01   -3,420110345e-01   -1,658350229e-02    2,748521976e-02    0,000000000e+00    0,000000000e+00    0,000000000e+00    0,000000000e+00
      912000000   -4,675269723e-01    1,382992119e-01   -1,054224595e-01    3,467018902e-02    0,000000000e+00    0,000000000e+00    0,000000000e+00    0,000000000e+00
      926000000   -9,630145133e-02    3,498403728e-01   -1,295673102e-01    1,325439513e-01    0,000000000e+00    0,000000000e+00    0,000000000e+00    0,000000000e+00
      940000000    1,833198071e-01    1,958512962e-01   -3,980662674e-02    2,177793682e-01    0,000000000e+00    0,000000000e+00    0,000000000e+00    0,000000000e+00
      954000000    2,527755797e-01   -4,748631641e-02    8,015659451e-02    2,281033844e-01    0,000000000e+00    0,000000000e+00    0,000000000e+00    0,000000000e+00
      968000000    1,727622002e-01   -2,640259564e-01    1,903974563e-01    1,797454357e-01    0,000000000e+00    0,000000000e+00    0,000000000e+00    0,000000000e+00
      982000000   -1,772701181e-02   -3,914068937e-01    2,811689377e-01    7,961770892e-02    0,000000000e+00    0,000000000e+00    0,000000000e+00    0,000000000e+00
      996000000   -2,726258636e-01   -3,771427572e-01    3,090535998e-01   -8,157621324e-02    0,000000000e+00    0,000000000e+00    0,000000000e+00    0,000000000e+00
     1010000000   -4,660978019e-01   -1,722278893e-01    2,218443900e-01   -2,531339824e-01    0,000000000e+00    0,000000000e+00    0,000000000e+00    0,000000000e+00
     1024000000   -4,581387937e-01    1,132783368e-01    2,388416231e-02   -3,279117644e-01    0,000000000e+00    0,000000000e+00    0,000000000e+00    0,000000000e+00
     1038000000   -2,618653476e-01    2,958812118e-01   -1,739004999e-01   -2,470776439e-01    0,000000000e+00    0,000000000e+00    0,000000000e+00    0,000000000e+00
     1052000000   -4,042763636e-02    3,082876205e-01   -2,548203468e-01   -7,699533552e-02    0,000000000e+00    0,000000000e+00    0,000000000e+00    0,000000000e+00
     1066000000    1,264062077e-01    2,037024200e-01   -2,231895775e-01    8,569815755e-02    0,000000000e+00    0,000000000e+00    0,000000000e+00    0,000000000e+00
     1080000000    2,094513476e-01    4,563064873e-02   -1,224939153e-01    1,933988184e-01    0,000000000e+00    0,000000000e+00    0,000000000e+00    0,000000000e+00
     1094000000    1,992076188e-01   -1,264629662e-01    1,815002598e-02    2,338234037e-01    0,000000000e+00    0,000000000e+00    0,000000000e+00    0,000000000e+00
     1108000000    9,937827289e-02   -2,881141007e-01    1,676882058e-01    2,056053579e-01    0,000000000e+00    0,000000000e+00    0,000000000e+00    0,000000000e+00
     1122000000   -1,006403118e-01   -3,732750714e-01    3,148482740e-01    9,135766327e-02    0,000000000e+00    0,000000000e+00    0,000000000e+00    0,000000000e+00
     1136000000   -3,502652049e-01   -2,685688436e-01    3,917950690e-01   -1,492395997e-01    0,000000000e+00    0,000000000e+00    0,000000000e+00    0,000000000e+00
     1150000000   -4,060940742e-01    3,299438581e-02    2,424019724e-01   -4,391443729e-01    0,000000000e+00    0,000000000e+00    0,000000000e+00    0,000000000e+00
     1164000000   -1,582669914e-01    2,150225192e-01   -9,269330651e-02   -5,148661733e-01    0,000000000e+00    0,000000000e+00    0,000000000e+00    0,000000000e+00
     1178000000    7,141039521e-02    8,321741968e-02   -3,571655154e-01   -3,490581214e-01    0,000000000e+00    0,000000000e+00    0,000000000e+00    0,000000000e+00
     1192000000    7,611034065e-02   -1,729111969e-01   -4,542485178e-01   -8,081442863e-02    0,000000000e+00    0,000000000e+00    0,000000000e+00    0,000000000e+00
     1206000000   -1,631910801e-01   -3,231683969e-01   -3,728373051e-01    1,893331707e-01    0,000000000e+00    0,000000000e+00    0,000000000e+00    0,000000000e+00
     1220000000   -4,565427899e-01   -1,787622124e-01   -1,090094149e-01    3,276031315e-01    0,000000000e+00    0,000000000e+00    0,000000000e+00    0,000000000e+00
     1234000000   -4,706574380e-01    1,735442132e-01    1,396499872e-01    2,268268317e-01    0,000000000e+00    0,000000000e+00    0,000000000e+00    0,000000000e+00
     1248000000   -2,326853573e-01    3,515013456e-01    2,013114840e-01    3,323276713e-02    0,000000000e+00    0,000000000e+00    0,000000000e+00    0,000000000e+00
     1262000000    7,111929357e-03    3,226821721e-01    1,296354234e-01   -7,308756560e-02    0,000000000e+00    0,000000000e+00    0,000000000e+00    0,000000000e+00
     1276000000    1,595348567e-01    1,988200247e-01    5,310492218e-02   -9,827186912e-02    0,000000000e+00    0,000000000e+00    0,000000000e+00    0,000000000e+00
     1290000000    2,202716768e-01    3,270558640e-02    4,014519509e-03   -7,152634114e-02    0,000000000e+00    0,000000000e+00    0,000000000e+00    0,000000000e+00
     1304000000    2,071611881e-01   -1,436573267e-01   -1,983278617e-02   -2,913705632e-02    0,000000000e+00    0,000000000e+00    0,000000000e+00    0,000000000e+00
     1318000000    1,161609665e-01   -3,111526966e-01   -7,948477753e-03    1,742389239e-02    0,000000000e+00    0,000000000e+00    0,000000000e+00    0,000000000e+00
     1332000000   -6,421203911e-02   -4,374161959e-01    4,714326933e-02    5,837430060e-02    0,000000000e+00    0,000000000e+00    0,000000000e+00    0,000000000e+00
     1346000000   -3,239679039e-01   -4,323140979e-01    1,418656558e-01    5,440591648e-02    0,000000000e+00    0,000000000e+00    0,000000000e+00    0,000000000e+00
     1360000000   -5,598520637e-01   -2,422174960e-01    1,002241820e-01   -7,900378108e-02    0,000000000e+00    0,000000000e+00    0,000000000e+00    0,000000000e+00
     1374000000   -6,289013624e-01    2,936615050e-02    9,828802943e-02    5,703610554e-02    0,000000000e+00    0,000000000e+00    0,000000000e+00    0,000000000e+00
     1388000000   -5,156202316e-01    2,847718298e-01    2,206806839e-01   -6,880727597e-03    0,000000000e+00    0,000000000e+00    0,000000000e+00    0,000000000e+00
     1402000000   -2,981749475e-01    4,106457531e-01    2,279478461e-01   -8,477162570e-02    0,000000000e+00    0,000000000e+00    0,000000000e+00    0,000000000e+00
     1416000000   -8,842567354e-02    4,254967868e-01    2,036432773e-01   -1,137972623e-01    0,000000000e+00    0,000000000e+00    0,000000000e+00    0,000000000e+00
     1430000000    6,505294889e-02    3,408788443e-01    1,575531512e-01   -1,025381312e-01    0,000000000e+00    0,000000000e+00    0,000000000e+00    0,000000000e+00
     1444000000    1,780443043e-01    1,986741126e-01    1,612803340e-01   -1,085930020e-01    0,000000000e+00    0,000000000e+00    0,000000000e+00    0,000000000e+00
     1458000000    2,234041542e-01    3,489140049e-02    1,442886740e-01   -8,975453675e-02    0,000000000e+00    0,000000000e+00    0,000000000e+00    0,000000000e+00
     1472000000    2,061818242e-01   -1,460654736e-01    1,441413611e-01   -5,081422254e-02    0,000000000e+00    0,000000000e+00    0,000000000e+00    0,000000000e+00
     1486000000    1,022180244e-01   -3,176693916e-01    1,673870534e-01    6,627167459e-04    0,000000000e+00    0,000000000e+00    0,000000000e+00    0,000000000e+00
     1500000000   -8,433478326e-02   -4,589990973e-01    2,162932158e-01    3,450372070e-02    0,000000000e+00    0,000000000e+00    0,000000000e+00    0,000000000e+00
