! NanoVNA-App
! Date: 2025-09-25 14:24:09
! Start: 100MHz Stop: 1,5GHz Points: 101
! S-Parameter data: F S11 S21 S12 S22
# Hz S RI R 50
!     Frequency           S11_Real           S11_Imag           S21_Real           S21_Imag           S12_Real           S12_Imag           S22_Real           S22_Imag
      100000000   -2,909692749e-02   -4,124416970e-03    3,745282888e-01   -7,220751047e-01    0,000000000e+00    0,000000000e+00    0,000000000e+00    0,000000000e+00
      114000000   -1,663514413e-02    1,157664042e-02   -8,895225823e-02   -8,057831526e-01    0,000000000e+00    0,000000000e+00    0,000000000e+00    0,000000000e+00
      128000000    3,475209000e-03    1,053059567e-02   -5,145624280e-01   -6,210131049e-01    0,000000000e+00    0,000000000e+00    0,000000000e+00    0,000000000e+00
      142000000    1,445969194e-02   -3,071221290e-03   -7,674164176e-01   -2,370604575e-01    0,000000000e+00    0,000000000e+00    0,000000000e+00    0,000000000e+00
      156000000    1,520048548e-02   -1,486928295e-02   -7,720299363e-01    2,215191722e-01    0,000000000e+00    0,000000000e+00    0,000000000e+00    0,000000000e+00
      170000000    1,657678187e-02   -2,243467607e-02   -5,188665986e-01    6,052318215e-01    0,000000000e+00    0,000000000e+00    0,000000000e+00    0,000000000e+00
      184000000    2,097510919e-02   -3,709076717e-02   -1,018701941e-01    7,862222791e-01    0,000000000e+00    0,000000000e+00    0,000000000e+00    0,000000000e+00
      198000000    1,314953342e-02   -6,257698685e-02    3,427835703e-01    7,129147053e-01    0,000000000e+00    0,000000000e+00    0,000000000e+00    0,000000000e+00
      212000000   -1,869674586e-02   -8,170421422e-02    6,783274412e-01    4,106213152e-01    0,000000000e+00    0,000000000e+00    0,000000000e+00    0,000000000e+00
      226000000   -6,209240481e-02   -6,969438493e-02    7,961301804e-01   -2,979230136e-02    0,000000000e+00    0,000000000e+00    0,000000000e+00    0,000000000e+00
      240000000   -8,325779438e-02   -2,610421740e-02    6,471081972e-01   -4,667747915e-01    0,000000000e+00    0,000000000e+00    0,000000000e+00    0,000000000e+00
      254000000   -6,430085003e-02    1,738676615e-02    2,769700587e-01   -7,434856296e-01    0,000000000e+00    0,000000000e+00    0,000000000e+00    0,000000000e+00
      268000000   -2,417917177e-02    2,953203022e-02   -1,770651340e-01   -7,647973299e-01    0,000000000e+00    0,000000000e+00    0,000000000e+00    0,000000000e+00
      282000000    4,030335695e-03    1,203046180e-02   -5,624304414e-01   -5,373933315e-01    0,000000000e+00    0,000000000e+00    0,000000000e+00    0,000000000e+00
      296000000    9,657496586e-03   -7,713314146e-03   -7,607903481e-01   -1,394071728e-01    0,000000000e+00    0,000000000e+00    0,000000000e+00    0,000000000e+00
      310000000    1,071610302e-02   -1,626440510e-02   -7,127364874e-01    2,982462645e-01    0,000000000e+00    0,000000000e+00    0,000000000e+00    0,000000000e+00
      324000000    1,932736672e-02   -2,642337047e-02   -4,287768006e-01    6,380863786e-01    0,000000000e+00    0,000000000e+00    0,000000000e+00    0,000000000e+00
      338000000    2,526448295e-02   -5,191272125e-02   -8,574314415e-03    7,611330748e-01    0,000000000e+00    0,000000000e+00    0,000000000e+00    0,000000000e+00
      352000000    7,727557793e-03   -8,472114056e-02    4,065640569e-01    6,412302852e-01    0,000000000e+00    0,000000000e+00    0,000000000e+00    0,000000000e+00
      366000000   -3,489699960e-02   -9,610813856e-02    6,912508607e-01    3,124307692e-01    0,000000000e+00    0,000000000e+00    0,000000000e+00    0,000000000e+00
      380000000   -7,140973210e-02   -7,105439156e-02    7,483167648e-01   -1,244265586e-01    0,000000000e+00    0,000000000e+00    0,000000000e+00    0,000000000e+00
      394000000   -7,310599089e-02   -3,229293600e-02    5,479556322e-01   -5,198228359e-01    0,000000000e+00    0,000000000e+00    0,000000000e+00    0,000000000e+00
      408000000   -4,683652520e-02   -1,571250521e-02    1,627965420e-01   -7,323298454e-01    0,000000000e+00    0,000000000e+00    0,000000000e+00    0,000000000e+00
      422000000   -2,829424851e-02   -3,139050677e-02   -2,654907107e-01   -6,960573792e-01    0,000000000e+00    0,000000000e+00    0,000000000e+00    0,000000000e+00
      436000000   -4,035187140e-02   -5,213722214e-02   -6,028748751e-01   -4,337156415e-01    0,000000000e+00    0,000000000e+00    0,000000000e+00    0,000000000e+00
      450000000   -6,725996733e-02   -4,484104365e-02   -7,402320504e-01   -2,490927652e-02    0,000000000e+00    0,000000000e+00    0,000000000e+00    0,000000000e+00
      464000000   -7,418686897e-02   -1,247388870e-02   -6,207557917e-01    3,947710991e-01    0,000000000e+00    0,000000000e+00    0,000000000e+00    0,000000000e+00
      478000000   -4,918072373e-02    1,155343372e-02   -2,867384851e-01    6,669819355e-01    0,000000000e+00    0,000000000e+00    0,000000000e+00    0,000000000e+00
      492000000   -1,691844687e-02    6,691184826e-03    1,337300092e-01    7,045381069e-01    0,000000000e+00    0,000000000e+00    0,000000000e+00    0,000000000e+00
      506000000   -3,857339965e-03   -1,499264501e-02    4,971375763e-01    5,064054728e-01    0,000000000e+00    0,000000000e+00    0,000000000e+00    0,000000000e+00
      520000000   -5,957833026e-03   -2,933442034e-02    6,898605227e-01    1,434066445e-01    0,000000000e+00    0,000000000e+00    0,000000000e+00    0,000000000e+00
      534000000   -3,294054884e-03   -3,571677580e-02    6,444436312e-01   -2,594801784e-01    0,000000000e+00    0,000000000e+00    0,000000000e+00    0,000000000e+00
      548000000    8,301416412e-03   -5,252687633e-02    3,858457208e-01   -5,637208819e-01    0,000000000e+00    0,000000000e+00    0,000000000e+00    0,000000000e+00
      562000000    5,576409400e-03   -8,965273201e-02    7,630489301e-03   -6,726700068e-01    0,000000000e+00    0,000000000e+00    0,000000000e+00    0,000000000e+00
      576000000   -3,159229457e-02   -1,267270446e-01   -3,626273572e-01   -5,610333085e-01    0,000000000e+00    0,000000000e+00    0,000000000e+00    0,000000000e+00
      590000000   -9,466326237e-02   -1,279054433e-01   -6,174262166e-01   -2,734834254e-01    0,000000000e+00    0,000000000e+00    0,000000000e+00    0,000000000e+00
      604000000   -1,430177242e-01   -7,776907086e-02   -6,671193838e-01    1,263756901e-01    0,000000000e+00    0,000000000e+00    0,000000000e+00    0,000000000e+00
      618000000   -1,385346353e-01   -1,114540920e-02   -4,748484790e-01    4,853721857e-01    0,000000000e+00    0,000000000e+00    0,000000000e+00    0,000000000e+00
      632000000   -9,359773993e-02    2,195099369e-02   -1,137447879e-01    6,643840671e-01    0,000000000e+00    0,000000000e+00    0,000000000e+00    0,000000000e+00
      646000000   -5,473443493e-02    1,218260266e-02    2,732079625e-01    6,034795642e-01    0,000000000e+00    0,000000000e+00    0,000000000e+00    0,000000000e+00
      660000000   -4,775965586e-02   -8,262855001e-03    5,576304793e-01    3,408516645e-01    0,000000000e+00    0,000000000e+00    0,000000000e+00    0,000000000e+00
      674000000   -5,520490929e-02   -1,108987629e-02    6,442043781e-01   -3,940812871e-02    0,000000000e+00    0,000000000e+00    0,000000000e+00    0,000000000e+00
      688000000   -4,948980361e-02    3,136561019e-03    4,928558171e-01   -4,020040035e-01    0,000000000e+00    0,000000000e+00    0,000000000e+00    0,000000000e+00
      702000000   -2,525260672e-02    8,026202209e-03    1,587137878e-01   -6,060341597e-01    0,000000000e+00    0,000000000e+00    0,000000000e+00    0,000000000e+00
      716000000   -2,292380668e-03   -9,453188628e-03   -2,189714313e-01   -5,748447776e-01    0,000000000e+00    0,000000000e+00    0,000000000e+00    0,000000000e+00
      730000000    9,186668321e-03   -3,386447951e-02   -5,084037185e-01   -3,329145014e-01    0,000000000e+00    0,000000000e+00    0,000000000e+00    0,000000000e+00
      744000000    1,760400459e-02   -6,105017290e-02   -6,007539630e-01    3,284943849e-02    0,000000000e+00    0,000000000e+00    0,000000000e+00    0,000000000e+00
      758000000    2,180739865e-02   -1,040662304e-01   -4,549333453e-01    3,772935867e-01    0,000000000e+00    0,000000000e+00    0,000000000e+00    0,000000000e+00
      772000000   -4,738679156e-03   -1,742026210e-01   -1,387030482e-01    5,576689839e-01    0,000000000e+00    0,000000000e+00    0,000000000e+00    0,000000000e+00
      786000000   -1,055305973e-01   -2,324384749e-01    2,112280577e-01    5,199011564e-01    0,000000000e+00    0,000000000e+00    0,000000000e+00    0,000000000e+00
      800000000   -2,665439844e-01   -1,928958297e-01    4,718138874e-01    2,752696574e-01    0,000000000e+00    0,000000000e+00    0,000000000e+00    0,000000000e+00
      814000000   -3,644681275e-01    4,217586014e-03    5,080081224e-01   -8,849813789e-02    0,000000000e+00    0,000000000e+00    0,000000000e+00    0,000000000e+00
      828000000   -2,487897575e-01    2,334614694e-01    2,816383243e-01   -3,537540734e-01    0,000000000e+00    0,000000000e+00    0,000000000e+00    0,000000000e+00
      842000000    1,298180223e-02    2,787157893e-01   -1,650970802e-02   -3,633794487e-01    0,000000000e+00    0,000000000e+00    0,000000000e+00    0,000000000e+00
      856000000    2,123887092e-01    1,147356257e-01   -1,876540333e-01   -2,051710635e-01    0,000000000e+00    0,000000000e+00    0,000000000e+00    0,000000000e+00
      870000000    2,390540093e-01   -1,485507935e-01   -2,001393884e-01   -2,592942305e-02    0,000000000e+00    0,000000000e+00    0,000000000e+00    0,000000000e+00
      884000000    3,840501234e-02   -3,865177929e-01   -1,035752520e-01    7,109884173e-02    0,000000000e+00    0,000000000e+00    0,000000000e+00    0,000000000e+00
      898000000   -3,701006472e-01   -3,412180543e-01   -1,737895049e-02    2,778090909e-02    0,000000000e+00    0,000000000e+00    0,000000000e+00    0,000000000e+00
      912000000   -4,677393436e-01    1,387596726e-01   -1,126123220e-01    4,072223604e-02    0,000000000e+00    0,000000000e+00    0,000000000e+00    0,000000000e+00
      926000000   -9,448068589e-02    3,485992849e-01   -1,279532760e-01    1,329942048e-01    0,000000000e+00    0,000000000e+00    0,000000000e+00    0,000000000e+00
      940000000    1,842435449e-01    1,919665188e-01   -3,884570673e-02    2,145667970e-01    0,000000000e+00    0,000000000e+00    0,000000000e+00    0,000000000e+00
      954000000    2,571078241e-01   -4,937496781e-02    8,070059866e-02    2,263953984e-01    0,000000000e+00    0,000000000e+00    0,000000000e+00    0,000000000e+00
      968000000    1,724673957e-01   -2,621761858e-01    1,916271001e-01    1,821752191e-01    0,000000000e+00    0,000000000e+00    0,000000000e+00    0,000000000e+00
      982000000   -1,842627674e-02   -3,940470219e-01    2,795411050e-01    7,985455543e-02    0,000000000e+00    0,000000000e+00    0,000000000e+00    0,000000000e+00
      996000000   -2,731360495e-01   -3,741059005e-01    3,120170534e-01   -7,909864932e-02    0,000000000e+00    0,000000000e+00    0,000000000e+00    0,000000000e+00
     1010000000   -4,716469347e-01   -1,679646075e-01    2,207963914e-01   -2,544257045e-01    0,000000000e+00    0,000000000e+00    0,000000000e+00    0,000000000e+00
     1024000000   -4,573740363e-01    1,127181426e-01    2,202897519e-02   -3,288874924e-01    0,000000000e+00    0,000000000e+00    0,000000000e+00    0,000000000e+00
     1038000000   -2,602608800e-01    2,977438867e-01   -1,753818095e-01   -2,478663325e-01    0,000000000e+00    0,000000000e+00    0,000000000e+00    0,000000000e+00
     1052000000   -3,907287121e-02    3,062091470e-01   -2,545753717e-01   -7,706954330e-02    0,000000000e+00    0,000000000e+00    0,000000000e+00    0,000000000e+00
     1066000000    1,261026710e-01    2,075815201e-01   -2,281019688e-01    8,726108074e-02    0,000000000e+00    0,000000000e+00    0,000000000e+00    0,000000000e+00
     1080000000    2,055986822e-01    4,730909690e-02   -1,194860637e-01    1,947235167e-01    0,000000000e+00    0,000000000e+00    0,000000000e+00    0,000000000e+00
     1094000000    1,994715482e-01   -1,300801188e-01    1,716042310e-02    2,346152216e-01    0,000000000e+00    0,000000000e+00    0,000000000e+00    0,000000000e+00
     1108000000    1,001633927e-01   -2,854444385e-01    1,664565057e-01    2,075906098e-01    0,000000000e+00    0,000000000e+00    0,000000000e+00    0,000000000e+00
     1122000000   -9,752350301e-02   -3,700258136e-01    3,166044056e-01    8,987314999e-02    0,000000000e+00    0,000000000e+00    0,000000000e+00    0,000000000e+00
     1136000000   -3,511585295e-01   -2,712587416e-01    3,914870918e-01   -1,505905092e-01    0,000000000e+00    0,000000000e+00    0,000000000e+00    0,000000000e+00
     1150000000   -4,063593447e-01    4,145887494e-02    2,434309423e-01   -4,366299510e-01    0,000000000e+00    0,000000000e+00    0,000000000e+00    0,000000000e+00
     1164000000   -1,628466845e-01    2,223596126e-01   -9,223390371e-02   -5,162233710e-01    0,000000000e+00    0,000000000e+00    0,000000000e+00    0,000000000e+00
     1178000000    7,176398486e-02    8,435475826e-02   -3,567710221e-01   -3,476454020e-01    0,000000000e+00    0,000000000e+00    0,000000000e+00    0,000000000e+00
     1192000000    7,186186314e-02   -1,751474142e-01   -4,536361098e-01   -8,269034326e-02    0,000000000e+00    0,000000000e+00    0,000000000e+00    0,000000000e+00
     1206000000   -1,632645130e-01   -3,246727288e-01   -3,654049039e-01    1,911491901e-01    0,000000000e+00    0,000000000e+00    0,000000000e+00    0,000000000e+00
     1220000000   -4,532661438e-01   -1,794693917e-01   -1,055236980e-01    3,255577683e-01    0,000000000e+00    0,000000000e+00    0,000000000e+00    0,000000000e+00
     1234000000   -4,695898294e-01    1,653067768e-01    1,371828765e-01    2,230519950e-01    0,000000000e+00    0,000000000e+00    0,000000000e+00    0,000000000e+00
     1248000000   -2,339790761e-01    3,595970571e-01    1,921644509e-01    3,670452908e-02    0,000000000e+00    0,000000000e+00    0,000000000e+00    0,000000000e+00
     1262000000    4,144673236e-03    3,266431391e-01    1,268900186e-01   -7,532040030e-02    0,000000000e+00    0,000000000e+00    0,000000000e+00    0,000000000e+00
     1276000000    1,549582779e-01    1,990824789e-01    5,400933698e-02   -9,595054388e-02    0,000000000e+00    0,000000000e+00    0,000000000e+00    0,000000000e+00
     1290000000    2,213820070e-01    2,918368764e-02    3,326687729e-03   -7,470328361e-02    0,000000000e+00    0,000000000e+00    0,000000000e+00    0,000000000e+00
     1304000000    2,066656649e-01   -1,456758678e-01   -1,510214247e-02   -2,836839296e-02    0,000000000e+00    0,000000000e+00    0,000000000e+00    0,000000000e+00
     1318000000    1,124394611e-01   -3,104467392e-01   -4,473157693e-03    2,355708368e-02    0,000000000e+00    0,000000000e+00    0,000000000e+00    0,000000000e+00
     1332000000   -6,726792455e-02   -4,365533888e-01    5,391287059e-02    6,367881596e-02    0,000000000e+00    0,000000000e+00    0,000000000e+00    0,000000000e+00
     1346000000   -3,301710486e-01   -4,312983751e-01    1,389738470e-01    4,898510873e-02    0,000000000e+00    0,000000000e+00    0,000000000e+00    0,000000000e+00
     1360000000   -5,593564510e-01   -2,451742589e-01    1,137847975e-01   -7,792978734e-02    0,000000000e+00    0,000000000e+00    0,000000000e+00    0,000000000e+00
     1374000000   -6,287193894e-01    1,885916479e-02    9,940504283e-02    4,803122953e-02    0,000000000e+00    0,000000000e+00    0,000000000e+00    0,000000000e+00
     1388000000   -5,107874274e-01    2,860678434e-01    2,283017635e-01   -8,125155233e-03    0,000000000e+00    0,000000000e+00    0,000000000e+00    0,000000000e+00
     1402000000   -2,997265458e-01    4,180381000e-01    2,344904095e-01   -7,642515004e-02    0,000000000e+00    0,000000000e+00    0,000000000e+00    0,000000000e+00
     1416000000   -9,700186551e-02    4,197436869e-01    1,796758622e-01   -1,205226630e-01    0,000000000e+00    0,000000000e+00    0,000000000e+00    0,000000000e+00
     1430000000    7,239315659e-02    3,337224424e-01    1,534505188e-01   -1,234847829e-01    0,000000000e+00    0,000000000e+00    0,000000000e+00    0,000000000e+00
     1444000000    1,740312725e-01    2,016231120e-01    1,543432027e-01   -1,027879268e-01    0,000000000e+00    0,000000000e+00    0,000000000e+00    0,000000000e+00
     1458000000    2,233135551e-01    3,752592951e-02    1,447368562e-01   -7,534855604e-02    0,000000000e+00    0,000000000e+00    0,000000000e+00    0,000000000e+00
     1472000000    2,069866657e-01   -1,434531659e-01    1,414744258e-01   -4,840677604e-02    0,000000000e+00    0,000000000e+00    0,000000000e+00    0,000000000e+00
     1486000000    1,084048375e-01   -3,222005665e-01    1,744321883e-01   -1,077055931e-03    0,000000000e+00    0,000000000e+00    0,000000000e+00    0,000000000e+00
     1500000000   -9,631768614e-02   -4,601899385e-01    2,034799457e-01    5,926998705e-02    0,000000000e+00    0,000000000e+00    0,000000000e+00    0,000000000e+00
