! NanoVNA-App
! Date: 2025-09-25 14:24:58
! Start: 100MHz Stop: 1,5GHz Points: 101
! S-Parameter data: F S11 S21 S12 S22
# Hz S RI R 50
!     Frequency           S11_Real           S11_Imag           S21_Real           S21_Imag           S12_Real           S12_Imag           S22_Real           S22_Imag
      100000000   -2,909024991e-02   -4,134486895e-03    3,745006621e-01   -7,219827175e-01    0,000000000e+00    0,000000000e+00    0,000000000e+00    0,000000000e+00
      114000000   -1,659526303e-02    1,160951238e-02   -8,894477785e-02   -8,056302667e-01    0,000000000e+00    0,000000000e+00    0,000000000e+00    0,000000000e+00
      128000000    3,445752198e-03    1,051345281e-02   -5,145588517e-01   -6,211259365e-01    0,000000000e+00    0,000000000e+00    0,000000000e+00    0,000000000e+00
      142000000    1,444606576e-02   -3,079842776e-03   -7,673331499e-01   -2,368976772e-01    0,000000000e+00    0,000000000e+00    0,000000000e+00    0,000000000e+00
      156000000    1,467599999e-02   -1,512278244e-02   -7,660818696e-01    2,213164419e-01    0,000000000e+00    0,000000000e+00    0,000000000e+00    0,000000000e+00
      170000000    1,647517271e-02   -2,247838303e-02   -5,188915730e-01    6,048712134e-01    0,000000000e+00    0,000000000e+00    0,000000000e+00    0,000000000e+00
      184000000    2,095897123e-02   -3,701401874e-02   -1,018133759e-01    7,866443396e-01    0,000000000e+00    0,000000000e+00    0,000000000e+00    0,000000000e+00
      198000000    1,310954988e-02   -6,257041544e-02    3,429033756e-01    7,130479217e-01    0,000000000e+00    0,000000000e+00    0,000000000e+00    0,000000000e+00
      212000000   -1,868623868e-02   -8,169371635e-02    6,781530976e-01    4,104411900e-01    0,000000000e+00    0,000000000e+00    0,000000000e+00    0,000000000e+00
      226000000   -6,214544922e-02   -6,969162077e-02    7,961651683e-01   -2,958676405e-02    0,000000000e+00    0,000000000e+00    0,000000000e+00    0,000000000e+00
      240000000   -8,328414708e-02   -2,595882490e-02    6,470674872e-01   -4,668419957e-01    0,000000000e+00    0,000000000e+00    0,000000000e+00    0,000000000e+00
      254000000   -6,433087587e-02    1,744149812e-02    2,769660354e-01   -7,436985970e-01    0,000000000e+00    0,000000000e+00    0,000000000e+00    0,000000000e+00
      268000000   -2,409096435e-02    2,944433503e-02   -1,768298149e-01   -7,654952407e-01    0,000000000e+00    0,000000000e+00    0,000000000e+00    0,000000000e+00
      282000000    4,148351029e-03    1,206708234e-02   -5,627970695e-01   -5,374609828e-01    0,000000000e+00    0,000000000e+00    0,000000000e+00    0,000000000e+00
      296000000    9,575720876e-03   -7,609349675e-03   -7,607403398e-01   -1,394832283e-01    0,000000000e+00    0,000000000e+00    0,000000000e+00    0,000000000e+00
      310000000    1,088013407e-02   -1,596385986e-02   -7,141609192e-01    2,981635928e-01    0,000000000e+00    0,000000000e+00    0,000000000e+00    0,000000000e+00
      324000000    1,965493150e-02   -2,654456161e-02   -4,283408225e-01    6,372369528e-01    0,000000000e+00    0,000000000e+00    0,000000000e+00    0,000000000e+00
      338000000    2,562272362e-02   -5,208391696e-02   -1,018575486e-02    7,635139227e-01    0,000000000e+00    0,000000000e+00    0,000000000e+00    0,000000000e+00
      352000000    7,538826205e-03   -8,488170058e-02    4,058175087e-01    6,400805116e-01    0,000000000e+00    0,000000000e+00    0,000000000e+00    0,000000000e+00
      366000000   -3,491065279e-02   -9,603384137e-02    6,903963089e-01    3,126514554e-01    0,000000000e+00    0,000000000e+00    0,000000000e+00    0,000000000e+00
      380000000   -7,171574980e-02   -7,112297416e-02    7,481637001e-01   -1,243063435e-01    0,000000000e+00    0,000000000e+00    0,000000000e+00    0,000000000e+00
      394000000   -7,340268791e-02   -3,230376542e-02    5,476872921e-01   -5,206056237e-01    0,000000000e+00    0,000000000e+00    0,000000000e+00    0,000000000e+00
      408000000   -4,696765915e-02   -1,552122179e-02    1,630306393e-01   -7,318783998e-01    0,000000000e+00    0,000000000e+00    0,000000000e+00    0,000000000e+00
      422000000   -2,845540084e-02   -3,159654513e-02   -2,662596107e-01   -6,964210272e-01    0,000000000e+00    0,000000000e+00    0,000000000e+00    0,000000000e+00
      436000000   -3,998120874e-02   -5,228517205e-02   -6,022369266e-01   -4,342529178e-01    0,000000000e+00    0,000000000e+00    0,000000000e+00    0,000000000e+00
      450000000   -6,762407720e-02   -4,460806400e-02   -7,405113578e-01   -2,497440018e-02    0,000000000e+00    0,000000000e+00    0,000000000e+00    0,000000000e+00
      464000000   -7,417372614e-02   -1,217733230e-02   -6,210078001e-01    3,949106634e-01    0,000000000e+00    0,000000000e+00    0,000000000e+00    0,000000000e+00
      478000000   -4,898789153e-02    1,188876294e-02   -2,863246799e-01    6,675819159e-01    0,000000000e+00    0,000000000e+00    0,000000000e+00    0,000000000e+00
      492000000   -1,698313840e-02    6,794864777e-03    1,341818124e-01    7,045503259e-01    0,000000000e+00    0,000000000e+00    0,000000000e+00    0,000000000e+00
      506000000   -3,952200525e-03   -1,490696147e-02    4,970865548e-01    5,058563948e-01    0,000000000e+00    0,000000000e+00    0,000000000e+00    0,000000000e+00
      520000000   -5,183937494e-03   -2,969545498e-02    6,905084252e-01    1,455674469e-01    0,000000000e+00    0,000000000e+00    0,000000000e+00    0,000000000e+00
      534000000   -3,507082816e-03   -3,565512598e-02    6,448770761e-01   -2,592086196e-01    0,000000000e+00    0,000000000e+00    0,000000000e+00    0,000000000e+00
      548000000    7,914874703e-03   -5,252371728e-02    3,845044672e-01   -5,637917519e-01    0,000000000e+00    0,000000000e+00    0,000000000e+00    0,000000000e+00
      562000000    5,752819125e-03   -8,925323188e-02    8,411914110e-03   -6,718831062e-01    0,000000000e+00    0,000000000e+00    0,000000000e+00    0,000000000e+00
      576000000   -3,172957897e-02   -1,265542656e-01   -3,629590273e-01   -5,605846047e-01    0,000000000e+00    0,000000000e+00    0,000000000e+00    0,000000000e+00
      590000000   -9,487655014e-02   -1,277515590e-01   -6,183479428e-01   -2,736944556e-01    0,000000000e+00    0,000000000e+00    0,000000000e+00    0,000000000e+00
      604000000   -1,429685801e-01   -7,765240967e-02   -6,671293974e-01    1,264773458e-01    0,000000000e+00    0,000000000e+00    0,000000000e+00    0,000000000e+00
      618000000   -1,380795836e-01   -1,191579457e-02   -4,745796919e-01    4,852419496e-01    0,000000000e+00    0,000000000e+00    0,000000000e+00    0,000000000e+00
      632000000   -9,295451641e-02    2,120476775e-02   -1,131529436e-01    6,620444059e-01    0,000000000e+00    0,000000000e+00    0,000000000e+00    0,000000000e+00
      646000000   -5,585680157e-02    1,218092348e-02    2,740973830e-01    6,030626297e-01    0,000000000e+00    0,000000000e+00    0,000000000e+00    0,000000000e+00
      660000000   -4,749583453e-02   -8,740555495e-03    5,578666925e-01    3,397513926e-01    0,000000000e+00    0,000000000e+00    0,000000000e+00    0,000000000e+00
      674000000   -5,623003095e-02   -1,092255581e-02    6,443044543e-01   -3,940859437e-02    0,000000000e+00    0,000000000e+00    0,000000000e+00    0,000000000e+00
      688000000   -4,970830679e-02    3,434951417e-03    4,936394691e-01   -4,011436105e-01    0,000000000e+00    0,000000000e+00    0,000000000e+00    0,000000000e+00
      702000000   -2,601359226e-02    7,474338170e-03    1,590855718e-01   -6,082819104e-01    0,000000000e+00    0,000000000e+00    0,000000000e+00    0,000000000e+00
      716000000   -1,890447224e-03   -9,631067514e-03   -2,187686116e-01   -5,756424665e-01    0,000000000e+00    0,000000000e+00    0,000000000e+00    0,000000000e+00
      730000000    1,010586787e-02   -3,521915525e-02   -5,090228915e-01   -3,333714902e-01    0,000000000e+00    0,000000000e+00    0,000000000e+00    0,000000000e+00
      744000000    1,595265046e-02   -6,084686890e-02   -6,007356644e-01    3,314292431e-02    0,000000000e+00    0,000000000e+00    0,000000000e+00    0,000000000e+00
      758000000    2,160239592e-02   -1,038233936e-01   -4,545449615e-01    3,766052723e-01    0,000000000e+00    0,000000000e+00    0,000000000e+00    0,000000000e+00
      772000000   -5,488443654e-03   -1,738611311e-01   -1,407876760e-01    5,583797097e-01    0,000000000e+00    0,000000000e+00    0,000000000e+00    0,000000000e+00
      786000000   -1,054336950e-01   -2,321990132e-01    2,108335644e-01    5,202462077e-01    0,000000000e+00    0,000000000e+00    0,000000000e+00    0,000000000e+00
      800000000   -2,653998137e-01   -1,925226301e-01    4,715952575e-01    2,759550810e-01    0,000000000e+00    0,000000000e+00    0,000000000e+00    0,000000000e+00
      814000000   -3,642912805e-01    2,738737501e-03    5,082253814e-01   -8,831834793e-02    0,000000000e+00    0,000000000e+00    0,000000000e+00    0,000000000e+00
      828000000   -2,473355532e-01    2,328011096e-01    2,814659476e-01   -3,527989984e-01    0,000000000e+00    0,000000000e+00    0,000000000e+00    0,000000000e+00
      842000000    1,263086125e-02    2,782257795e-01   -1,580665819e-02   -3,628922105e-01    0,000000000e+00    0,000000000e+00    0,000000000e+00    0,000000000e+00
      856000000    2,126474380e-01    1,155235693e-01   -1,877928525e-01   -2,048161328e-01    0,000000000e+00    0,000000000e+00    0,000000000e+00    0,000000000e+00
      870000000    2,390425503e-01   -1,485501230e-01   -2,001726180e-01   -2,602776513e-02    0,000000000e+00    0,000000000e+00    0,000000000e+00    0,000000000e+00
      884000000    3,757276013e-02   -3,857928216e-01   -1,033494100e-01    7,057438791e-02    0,000000000e+00    0,000000000e+00    0,000000000e+00    0,000000000e+00
      898000000   -3,702314794e-01   -3,418158591e-01   -1,712735556e-02    2,776693553e-02    0,000000000e+00    0,000000000e+00    0,000000000e+00    0,000000000e+00
      912000000   -4,670054317e-01    1,385109574e-01   -1,237938330e-01    3,427473828e-02    0,000000000e+00    0,000000000e+00    0,000000000e+00    0,000000000e+00
      926000000   -9,419136494e-02    3,509388268e-01   -1,261889189e-01    1,341112256e-01    0,000000000e+00    0,000000000e+00    0,000000000e+00    0,000000000e+00
      940000000    1,845144033e-01    1,962073445e-01   -3,824367747e-02    2,156975716e-01    0,000000000e+00    0,000000000e+00    0,000000000e+00    0,000000000e+00
      954000000    2,549370825e-01   -5,026007444e-02    8,117049932e-02    2,268482298e-01    0,000000000e+00    0,000000000e+00    0,000000000e+00    0,000000000e+00
      968000000    1,744439900e-01   -2,615856528e-01    1,908162981e-01    1,801592559e-01    0,000000000e+00    0,000000000e+00    0,000000000e+00    0,000000000e+00
      982000000   -1,851428859e-02   -3,936216235e-01    2,792737484e-01    8,048281074e-02    0,000000000e+00    0,000000000e+00    0,000000000e+00    0,000000000e+00
      996000000   -2,771208286e-01   -3,775051534e-01    3,106461167e-01   -7,824855298e-02    0,000000000e+00    0,000000000e+00    0,000000000e+00    0,000000000e+00
     1010000000   -4,655939639e-01   -1,708684862e-01    2,210480571e-01   -2,536106706e-01    0,000000000e+00    0,000000000e+00    0,000000000e+00    0,000000000e+00
     1024000000   -4,609257877e-01    1,140456572e-01    2,233837917e-02   -3,289433420e-01    0,000000000e+00    0,000000000e+00    0,000000000e+00    0,000000000e+00
     1038000000   -2,633751035e-01    3,028522432e-01   -1,738559753e-01   -2,500520945e-01    0,000000000e+00    0,000000000e+00    0,000000000e+00    0,000000000e+00
     1052000000   -3,890879452e-02    3,110097349e-01   -2,572048306e-01   -7,760617137e-02    0,000000000e+00    0,000000000e+00    0,000000000e+00    0,000000000e+00
     1066000000    1,282313317e-01    2,069247961e-01   -2,221894413e-01    8,191711456e-02    0,000000000e+00    0,000000000e+00    0,000000000e+00    0,000000000e+00
     1080000000    2,071152031e-01    4,529086500e-02   -1,219037324e-01    1,926452070e-01    0,000000000e+00    0,000000000e+00    0,000000000e+00    0,000000000e+00
     1094000000    2,001946419e-01   -1,261552721e-01    1,947598159e-02    2,336929888e-01    0,000000000e+00    0,000000000e+00    0,000000000e+00    0,000000000e+00
     1108000000    1,038897038e-01   -2,861773670e-01    1,698408127e-01    2,075050920e-01    0,000000000e+00    0,000000000e+00    0,000000000e+00    0,000000000e+00
     1122000000   -1,009686291e-01   -3,721635342e-01    3,185811043e-01    8,997771144e-02    0,000000000e+00    0,000000000e+00    0,000000000e+00    0,000000000e+00
     1136000000   -3,472754955e-01   -2,667245865e-01    3,923980594e-01   -1,527656317e-01    0,000000000e+00    0,000000000e+00    0,000000000e+00    0,000000000e+00
     1150000000   -4,099991620e-01    3,752128035e-02    2,417636961e-01   -4,362721741e-01    0,000000000e+00    0,000000000e+00    0,000000000e+00    0,000000000e+00
     1164000000   -1,546601951e-01    2,132868916e-01   -9,326898307e-02   -5,161430836e-01    0,000000000e+00    0,000000000e+00    0,000000000e+00    0,000000000e+00
     1178000000    7,355091721e-02    8,403886855e-02   -3,584092855e-01   -3,457157016e-01    0,000000000e+00    0,000000000e+00    0,000000000e+00    0,000000000e+00
     1192000000    7,256285101e-02   -1,761129051e-01   -4,541997612e-01   -8,553560078e-02    0,000000000e+00    0,000000000e+00    0,000000000e+00    0,000000000e+00
     1206000000   -1,628969312e-01   -3,286405504e-01   -3,698921502e-01    1,857001036e-01    0,000000000e+00    0,000000000e+00    0,000000000e+00    0,000000000e+00
     1220000000   -4,518599212e-01   -1,787530780e-01   -1,062654853e-01    3,292298913e-01    0,000000000e+00    0,000000000e+00    0,000000000e+00    0,000000000e+00
     1234000000   -4,694774747e-01    1,726087183e-01    1,377716511e-01    2,215844840e-01    0,000000000e+00    0,000000000e+00    0,000000000e+00    0,000000000e+00
     1248000000   -2,342420369e-01    3,561522961e-01    1,909671277e-01    3,774901107e-02    0,000000000e+00    0,000000000e+00    0,000000000e+00    0,000000000e+00
     1262000000    3,126781201e-03    3,309303820e-01    1,305709034e-01   -7,347119600e-02    0,000000000e+00    0,000000000e+00    0,000000000e+00    0,000000000e+00
     1276000000    1,574944705e-01    2,022346556e-01    5,268573016e-02   -9,840685129e-02    0,000000000e+00    0,000000000e+00    0,000000000e+00    0,000000000e+00
     1290000000    2,155127674e-01    2,987248264e-02    4,780584946e-03   -7,539102435e-02    0,000000000e+00    0,000000000e+00    0,000000000e+00    0,000000000e+00
     1304000000    2,041505873e-01   -1,450435966e-01   -2,016097493e-02   -2,971908264e-02    0,000000000e+00    0,000000000e+00    0,000000000e+00    0,000000000e+00
     1318000000    1,130279750e-01   -3,129200041e-01   -1,052984782e-02    1,700700819e-02    0,000000000e+00    0,000000000e+00    0,000000000e+00    0,000000000e+00
     1332000000   -7,001434267e-02   -4,333344102e-01    4,868724197e-02    6,965216249e-02    0,000000000e+00    0,000000000e+00    0,000000000e+00    0,000000000e+00
     1346000000   -3,317988515e-01   -4,341529906e-01    1,373884976e-01    5,717215315e-02    0,000000000e+00    0,000000000e+00    0,000000000e+00    0,000000000e+00
     1360000000   -5,503814816e-01   -2,491060793e-01    1,180040240e-01   -7,435916364e-02    0,000000000e+00    0,000000000e+00    0,000000000e+00    0,000000000e+00
     1374000000   -6,228677630e-01    3,669141605e-02    9,949743003e-02    6,332060695e-02    0,000000000e+00    0,000000000e+00    0,000000000e+00    0,000000000e+00
     1388000000   -5,106184483e-01    2,955741584e-01    2,331801951e-01    7,204325870e-03    0,000000000e+00    0,000000000e+00    0,000000000e+00    0,000000000e+00
     1402000000   -3,073025346e-01    4,109770358e-01    2,189168185e-01   -9,138583392e-02    0,000000000e+00    0,000000000e+00    0,000000000e+00    0,000000000e+00
     1416000000   -9,364945441e-02    4,246763289e-01    1,891804934e-01   -1,112344116e-01    0,000000000e+00    0,000000000e+00    0,000000000e+00    0,000000000e+00
     1430000000    5,974892154e-02    3,358127177e-01    1,388947815e-01   -1,160148606e-01    0,000000000e+00    0,000000000e+00    0,000000000e+00    0,000000000e+00
     1444000000    1,771126837e-01    2,012488544e-01    1,536206305e-01   -9,569184482e-02    0,000000000e+00    0,000000000e+00    0,000000000e+00    0,000000000e+00
     1458000000    2,250081599e-01    3,523680940e-02    1,452134401e-01   -7,547247410e-02    0,000000000e+00    0,000000000e+00    0,000000000e+00    0,000000000e+00
     1472000000    2,036362439e-01   -1,409331411e-01    1,617463976e-01   -5,348322913e-02    0,000000000e+00    0,000000000e+00    0,000000000e+00    0,000000000e+00
     1486000000    1,084472165e-01   -3,186789155e-01    1,689379513e-01   -9,067682549e-03    0,000000000e+00    0,000000000e+00    0,000000000e+00    0,000000000e+00
     1500000000   -9,333751351e-02   -4,590627253e-01    2,217810005e-01    4,779276624e-02    0,000000000e+00    0,000000000e+00    0,000000000e+00    0,000000000e+00
