! NanoVNA-App
! Date: 2025-09-25 14:27:59
! Start: 100MHz Stop: 1,5GHz Points: 101
! S-Parameter data: F S11 S21 S12 S22
# Hz S RI R 50
!     Frequency           S11_Real           S11_Imag           S21_Real           S21_Imag           S12_Real           S12_Imag           S22_Real           S22_Imag
      100000000   -2,908580564e-02   -4,143329803e-03    3,745503724e-01   -7,220497131e-01    0,000000000e+00    0,000000000e+00    0,000000000e+00    0,000000000e+00
      114000000   -1,661050133e-02    1,160920784e-02   -8,877558261e-02   -8,058243394e-01    0,000000000e+00    0,000000000e+00    0,000000000e+00    0,000000000e+00
      128000000    3,422127571e-03    1,052403450e-02   -5,146851540e-01   -6,212629676e-01    0,000000000e+00    0,000000000e+00    0,000000000e+00    0,000000000e+00
      142000000    1,444093417e-02   -3,091220511e-03   -7,675193548e-01   -2,369609028e-01    0,000000000e+00    0,000000000e+00    0,000000000e+00    0,000000000e+00
      156000000    1,573795453e-02   -1,446454879e-02   -7,728966475e-01    2,239417434e-01    0,000000000e+00    0,000000000e+00    0,000000000e+00    0,000000000e+00
      170000000    1,651158929e-02   -2,250110172e-02   -5,188120008e-01    6,050785780e-01    0,000000000e+00    0,000000000e+00    0,000000000e+00    0,000000000e+00
      184000000    2,098725736e-02   -3,698718548e-02   -1,019455642e-01    7,867240310e-01    0,000000000e+00    0,000000000e+00    0,000000000e+00    0,000000000e+00
      198000000    1,314355247e-02   -6,260615587e-02    3,430481255e-01    7,130677700e-01    0,000000000e+00    0,000000000e+00    0,000000000e+00    0,000000000e+00
      212000000   -1,870039292e-02   -8,177141100e-02    6,782817245e-01    4,105497301e-01    0,000000000e+00    0,000000000e+00    0,000000000e+00    0,000000000e+00
      226000000   -6,211901456e-02   -6,964710355e-02    7,961000800e-01   -2,969175577e-02    0,000000000e+00    0,000000000e+00    0,000000000e+00    0,000000000e+00
      240000000   -8,327870816e-02   -2,604281716e-02    6,470944881e-01   -4,665305912e-01    0,000000000e+00    0,000000000e+00    0,000000000e+00    0,000000000e+00
      254000000   -6,434284896e-02    1,749318838e-02    2,770639658e-01   -7,433009148e-01    0,000000000e+00    0,000000000e+00    0,000000000e+00    0,000000000e+00
      268000000   -2,402762882e-02    2,949647792e-02   -1,768052429e-01   -7,653068900e-01    0,000000000e+00    0,000000000e+00    0,000000000e+00    0,000000000e+00
      282000000    4,109640606e-03    1,212302782e-02   -5,622065067e-01   -5,372179151e-01    0,000000000e+00    0,000000000e+00    0,000000000e+00    0,000000000e+00
      296000000    9,552065283e-03   -7,812233642e-03   -7,606797814e-01   -1,395456344e-01    0,000000000e+00    0,000000000e+00    0,000000000e+00    0,000000000e+00
      310000000    1,085125748e-02   -1,623340137e-02   -7,123330235e-01    2,972349226e-01    0,000000000e+00    0,000000000e+00    0,000000000e+00    0,000000000e+00
      324000000    1,943947002e-02   -2,639375627e-02   -4,276877940e-01    6,378482580e-01    0,000000000e+00    0,000000000e+00    0,000000000e+00    0,000000000e+00
      338000000    2,535016648e-02   -5,209085718e-02   -8,011415601e-03    7,616130710e-01    0,000000000e+00    0,000000000e+00    0,000000000e+00    0,000000000e+00
      352000000    7,404838689e-03   -8,482278138e-02    4,054985344e-01    6,412572861e-01    0,000000000e+00    0,000000000e+00    0,000000000e+00    0,000000000e+00
      366000000   -3,514771163e-02   -9,613601118e-02    6,905531287e-01    3,129510581e-01    0,000000000e+00    0,000000000e+00    0,000000000e+00    0,000000000e+00
      380000000   -7,148852944e-02   -7,128719240e-02    7,486974597e-01   -1,251648813e-01    0,000000000e+00    0,000000000e+00    0,000000000e+00    0,000000000e+00
      394000000   -7,314749062e-02   -3,235874698e-02    5,484942198e-01   -5,205138922e-01    0,000000000e+00    0,000000000e+00    0,000000000e+00    0,000000000e+00
      408000000   -4,684513435e-02   -1,555866282e-02    1,636934876e-01   -7,324410081e-01    0,000000000e+00    0,000000000e+00    0,000000000e+00    0,000000000e+00
      422000000   -2,817927301e-02   -3,137585521e-02   -2,662286162e-01   -6,950374842e-01    0,000000000e+00    0,000000000e+00    0,000000000e+00    0,000000000e+00
      436000000   -4,001838341e-02   -5,206915364e-02   -6,030466557e-01   -4,343483150e-01    0,000000000e+00    0,000000000e+00    0,000000000e+00    0,000000000e+00
      450000000   -6,757433712e-02   -4,492527992e-02   -7,405499220e-01   -2,493689582e-02    0,000000000e+00    0,000000000e+00    0,000000000e+00    0,000000000e+00
      464000000   -7,456725091e-02   -1,242262963e-02   -6,219584942e-01    3,947689831e-01    0,000000000e+00    0,000000000e+00    0,000000000e+00    0,000000000e+00
      478000000   -4,893979430e-02    1,207102742e-02   -2,870801985e-01    6,672021747e-01    0,000000000e+00    0,000000000e+00    0,000000000e+00    0,000000000e+00
      492000000   -1,681448333e-02    6,200958509e-03    1,348650455e-01    7,043512464e-01    0,000000000e+00    0,000000000e+00    0,000000000e+00    0,000000000e+00
      506000000   -3,367248923e-03   -1,511167921e-02    4,976238310e-01    5,061181784e-01    0,000000000e+00    0,000000000e+00    0,000000000e+00    0,000000000e+00
      520000000   -6,163640879e-03   -2,996913902e-02    6,888242364e-01    1,429711878e-01    0,000000000e+00    0,000000000e+00    0,000000000e+00    0,000000000e+00
      534000000   -3,419356886e-03   -3,548478708e-02    6,446794868e-01   -2,592533827e-01    0,000000000e+00    0,000000000e+00    0,000000000e+00    0,000000000e+00
      548000000    7,845213637e-03   -5,262956768e-02    3,848514557e-01   -5,638240576e-01    0,000000000e+00    0,000000000e+00    0,000000000e+00    0,000000000e+00
      562000000    6,109698676e-03   -8,917544782e-02    8,444204926e-03   -6,719964147e-01    0,000000000e+00    0,000000000e+00    0,000000000e+00    0,000000000e+00
      576000000   -3,131013364e-02   -1,256215423e-01   -3,621457815e-01   -5,605623126e-01    0,000000000e+00    0,000000000e+00    0,000000000e+00    0,000000000e+00
      590000000   -9,481185675e-02   -1,276017725e-01   -6,175847054e-01   -2,738586366e-01    0,000000000e+00    0,000000000e+00    0,000000000e+00    0,000000000e+00
      604000000   -1,430674344e-01   -7,750044018e-02   -6,673923135e-01    1,267026067e-01    0,000000000e+00    0,000000000e+00    0,000000000e+00    0,000000000e+00
      618000000   -1,377612054e-01   -1,140591502e-02   -4,753331840e-01    4,863516986e-01    0,000000000e+00    0,000000000e+00    0,000000000e+00    0,000000000e+00
      632000000   -9,356261045e-02    2,176744491e-02   -1,133214980e-01    6,634508371e-01    0,000000000e+00    0,000000000e+00    0,000000000e+00    0,000000000e+00
      646000000   -5,477928743e-02    1,225676481e-02    2,737714052e-01    6,033736467e-01    0,000000000e+00    0,000000000e+00    0,000000000e+00    0,000000000e+00
      660000000   -4,815332592e-02   -8,108344860e-03    5,572646856e-01    3,406061232e-01    0,000000000e+00    0,000000000e+00    0,000000000e+00    0,000000000e+00
      674000000   -5,525588989e-02   -1,105075423e-02    6,443575025e-01   -3,986943141e-02    0,000000000e+00    0,000000000e+00    0,000000000e+00    0,000000000e+00
      688000000   -4,960360378e-02    3,079065355e-03    4,931057096e-01   -4,017181993e-01    0,000000000e+00    0,000000000e+00    0,000000000e+00    0,000000000e+00
      702000000   -2,558047697e-02    7,305223960e-03    1,617156565e-01   -6,014513373e-01    0,000000000e+00    0,000000000e+00    0,000000000e+00    0,000000000e+00
      716000000   -1,664754353e-03   -8,466532454e-03   -2,186333388e-01   -5,756154656e-01    0,000000000e+00    0,000000000e+00    0,000000000e+00    0,000000000e+00
      730000000    1,011134312e-02   -3,516566008e-02   -5,088714957e-01   -3,334504962e-01    0,000000000e+00    0,000000000e+00    0,000000000e+00    0,000000000e+00
      744000000    1,609479077e-02   -6,099209189e-02   -6,008899212e-01    3,293875605e-02    0,000000000e+00    0,000000000e+00    0,000000000e+00    0,000000000e+00
      758000000    2,235923894e-02   -1,029954627e-01   -4,541241527e-01    3,765434623e-01    0,000000000e+00    0,000000000e+00    0,000000000e+00    0,000000000e+00
      772000000   -4,163935315e-03   -1,741197854e-01   -1,397755444e-01    5,576657057e-01    0,000000000e+00    0,000000000e+00    0,000000000e+00    0,000000000e+00
      786000000   -1,057961956e-01   -2,334351391e-01    2,113768905e-01    5,198834538e-01    0,000000000e+00    0,000000000e+00    0,000000000e+00    0,000000000e+00
      800000000   -2,666562796e-01   -1,923662722e-01    4,715536237e-01    2,753959298e-01    0,000000000e+00    0,000000000e+00    0,000000000e+00    0,000000000e+00
      814000000   -3,635209203e-01    3,464300185e-03    5,079435706e-01   -8,869402856e-02    0,000000000e+00    0,000000000e+00    0,000000000e+00    0,000000000e+00
      828000000   -2,470970303e-01    2,336798161e-01    2,807869315e-01   -3,520167768e-01    0,000000000e+00    0,000000000e+00    0,000000000e+00    0,000000000e+00
      842000000    1,281532180e-02    2,788604200e-01   -1,603730768e-02   -3,622289300e-01    0,000000000e+00    0,000000000e+00    0,000000000e+00    0,000000000e+00
      856000000    2,127630115e-01    1,153026819e-01   -1,879812032e-01   -2,044919431e-01    0,000000000e+00    0,000000000e+00    0,000000000e+00    0,000000000e+00
      870000000    2,393506616e-01   -1,486855000e-01   -2,000270486e-01   -2,609017864e-02    0,000000000e+00    0,000000000e+00    0,000000000e+00    0,000000000e+00
      884000000    3,708920628e-02   -3,864897490e-01   -1,047305539e-01    7,080696523e-02    0,000000000e+00    0,000000000e+00    0,000000000e+00    0,000000000e+00
      898000000   -3,693904877e-01   -3,424800634e-01   -1,666466892e-02    2,700165100e-02    0,000000000e+00    0,000000000e+00    0,000000000e+00    0,000000000e+00
      912000000   -4,681572020e-01    1,384028643e-01   -1,209260374e-01    2,418923378e-02    0,000000000e+00    0,000000000e+00    0,000000000e+00    0,000000000e+00
      926000000   -9,528154880e-02    3,530917466e-01   -1,289171427e-01    1,354802996e-01    0,000000000e+00    0,000000000e+00    0,000000000e+00    0,000000000e+00
      940000000    1,860033721e-01    1,939814240e-01   -3,904538229e-02    2,166573256e-01    0,000000000e+00    0,000000000e+00    0,000000000e+00    0,000000000e+00
      954000000    2,535485923e-01   -4,904434085e-02    7,884413004e-02    2,279939204e-01    0,000000000e+00    0,000000000e+00    0,000000000e+00    0,000000000e+00
      968000000    1,742366105e-01   -2,595851421e-01    1,920775622e-01    1,801060587e-01    0,000000000e+00    0,000000000e+00    0,000000000e+00    0,000000000e+00
      982000000   -1,382735092e-02   -3,940472007e-01    2,805959284e-01    8,036915958e-02    0,000000000e+00    0,000000000e+00    0,000000000e+00    0,000000000e+00
      996000000   -2,730237246e-01   -3,737602830e-01    3,096159995e-01   -8,027359843e-02    0,000000000e+00    0,000000000e+00    0,000000000e+00    0,000000000e+00
     1010000000   -4,722152352e-01   -1,703870744e-01    2,225632519e-01   -2,526317537e-01    0,000000000e+00    0,000000000e+00    0,000000000e+00    0,000000000e+00
     1024000000   -4,625291824e-01    1,186868846e-01    1,807145029e-02   -3,291699886e-01    0,000000000e+00    0,000000000e+00    0,000000000e+00    0,000000000e+00
     1038000000   -2,611360848e-01    2,991750240e-01   -1,740555614e-01   -2,463914752e-01    0,000000000e+00    0,000000000e+00    0,000000000e+00    0,000000000e+00
     1052000000   -3,567742929e-02    3,122837842e-01   -2,567076385e-01   -7,644392550e-02    0,000000000e+00    0,000000000e+00    0,000000000e+00    0,000000000e+00
     1066000000    1,243013963e-01    2,069632560e-01   -2,215491682e-01    8,309914917e-02    0,000000000e+00    0,000000000e+00    0,000000000e+00    0,000000000e+00
     1080000000    2,079968452e-01    4,876857996e-02   -1,205505207e-01    1,926799417e-01    0,000000000e+00    0,000000000e+00    0,000000000e+00    0,000000000e+00
     1094000000    2,015212774e-01   -1,248749197e-01    1,916099526e-02    2,341242284e-01    0,000000000e+00    0,000000000e+00    0,000000000e+00    0,000000000e+00
     1108000000    9,836076200e-02   -2,847352326e-01    1,671719700e-01    2,056003809e-01    0,000000000e+00    0,000000000e+00    0,000000000e+00    0,000000000e+00
     1122000000   -9,728075564e-02   -3,682790995e-01    3,147009611e-01    8,847168088e-02    0,000000000e+00    0,000000000e+00    0,000000000e+00    0,000000000e+00
     1136000000   -3,463182151e-01   -2,648028433e-01    3,911567926e-01   -1,514085680e-01    0,000000000e+00    0,000000000e+00    0,000000000e+00    0,000000000e+00
     1150000000   -4,111807048e-01    3,980762139e-02    2,425524592e-01   -4,354203343e-01    0,000000000e+00    0,000000000e+00    0,000000000e+00    0,000000000e+00
     1164000000   -1,624441594e-01    2,167789787e-01   -9,376316518e-02   -5,137550235e-01    0,000000000e+00    0,000000000e+00    0,000000000e+00    0,000000000e+00
     1178000000    7,332760841e-02    8,352936804e-02   -3,577034771e-01   -3,498117030e-01    0,000000000e+00    0,000000000e+00    0,000000000e+00    0,000000000e+00
     1192000000    7,342846692e-02   -1,750814170e-01   -4,540925622e-01   -8,466556668e-02    0,000000000e+00    0,000000000e+00    0,000000000e+00    0,000000000e+00
     1206000000   -1,635831147e-01   -3,264133036e-01   -3,704710007e-01    1,881189495e-01    0,000000000e+00    0,000000000e+00    0,000000000e+00    0,000000000e+00
     1220000000   -4,507061243e-01   -1,756609529e-01   -1,083898544e-01    3,311614096e-01    0,000000000e+00    0,000000000e+00    0,000000000e+00    0,000000000e+00
     1234000000   -4,726363122e-01    1,635838598e-01    1,350407451e-01    2,229211479e-01    0,000000000e+00    0,000000000e+00    0,000000000e+00    0,000000000e+00
     1248000000   -2,403329611e-01    3,590640426e-01    1,903307438e-01    3,151809424e-02    0,000000000e+00    0,000000000e+00    0,000000000e+00    0,000000000e+00
     1262000000    8,281817660e-03    3,321612477e-01    1,314153522e-01   -7,102306187e-02    0,000000000e+00    0,000000000e+00    0,000000000e+00    0,000000000e+00
     1276000000    1,562476456e-01    1,938341111e-01    5,454584211e-02   -9,833215177e-02    0,000000000e+00    0,000000000e+00    0,000000000e+00    0,000000000e+00
     1290000000    2,207125425e-01    3,022878431e-02    1,937425579e-03   -7,562480867e-02    0,000000000e+00    0,000000000e+00    0,000000000e+00    0,000000000e+00
     1304000000    2,079496086e-01   -1,460128725e-01   -2,005432732e-02   -2,929122746e-02    0,000000000e+00    0,000000000e+00    0,000000000e+00    0,000000000e+00
     1318000000    1,175967306e-01   -3,099562824e-01   -4,087602720e-03    2,642867342e-02    0,000000000e+00    0,000000000e+00    0,000000000e+00    0,000000000e+00
     1332000000   -6,483429670e-02   -4,335764647e-01    4,447289556e-02    6,538166106e-02    0,000000000e+00    0,000000000e+00    0,000000000e+00    0,000000000e+00
     1346000000   -3,353841305e-01   -4,342965484e-01    1,434688121e-01    4,436716437e-02    0,000000000e+00    0,000000000e+00    0,000000000e+00    0,000000000e+00
     1360000000   -5,598674417e-01   -2,483640462e-01    1,080416366e-01   -7,761298120e-02    0,000000000e+00    0,000000000e+00    0,000000000e+00    0,000000000e+00
     1374000000   -6,236702800e-01    2,926171757e-02    1,099815369e-01    4,967758432e-02    0,000000000e+00    0,000000000e+00    0,000000000e+00    0,000000000e+00
     1388000000   -5,162250400e-01    2,974082232e-01    2,162752002e-01   -3,963449970e-03    0,000000000e+00    0,000000000e+00    0,000000000e+00    0,000000000e+00
     1402000000   -3,072345257e-01    4,131905437e-01    2,213041782e-01   -8,442914486e-02    0,000000000e+00    0,000000000e+00    0,000000000e+00    0,000000000e+00
     1416000000   -9,108104557e-02    4,206075072e-01    1,859332323e-01   -1,128101200e-01    0,000000000e+00    0,000000000e+00    0,000000000e+00    0,000000000e+00
     1430000000    6,928178668e-02    3,293271065e-01    1,658622921e-01   -1,310244799e-01    0,000000000e+00    0,000000000e+00    0,000000000e+00    0,000000000e+00
     1444000000    1,753163785e-01    1,978556365e-01    1,411980093e-01   -1,057028398e-01    0,000000000e+00    0,000000000e+00    0,000000000e+00    0,000000000e+00
     1458000000    2,238438427e-01    3,376221657e-02    1,511214525e-01   -8,862952143e-02    0,000000000e+00    0,000000000e+00    0,000000000e+00    0,000000000e+00
     1472000000    2,056006789e-01   -1,454851031e-01    1,603184789e-01   -4,810758680e-02    0,000000000e+00    0,000000000e+00    0,000000000e+00    0,000000000e+00
     1486000000    1,121889800e-01   -3,154834509e-01    1,678888798e-01   -1,130589377e-02    0,000000000e+00    0,000000000e+00    0,000000000e+00    0,000000000e+00
     1500000000   -9,567208588e-02   -4,581192136e-01    2,078838348e-01    6,081866473e-02    0,000000000e+00    0,000000000e+00    0,000000000e+00    0,000000000e+00
