! NanoVNA-App
! Date: 2025-09-25 14:22:57
! Start: 100MHz Stop: 1,5GHz Points: 101
! S-Parameter data: F S11 S21 S12 S22
# Hz S RI R 50
!     Frequency           S11_Real           S11_Imag           S21_Real           S21_Imag           S12_Real           S12_Imag           S22_Real           S22_Imag
      100000000   -2,909272909e-02   -4,136087373e-03    3,744438589e-01   -7,220170498e-01    0,000000000e+00    0,000000000e+00    0,000000000e+00    0,000000000e+00
      114000000   -1,663643122e-02    1,162229665e-02   -8,898422122e-02   -8,058513403e-01    0,000000000e+00    0,000000000e+00    0,000000000e+00    0,000000000e+00
      128000000    3,441438777e-03    1,058452856e-02   -5,148060918e-01   -6,210091710e-01    0,000000000e+00    0,000000000e+00    0,000000000e+00    0,000000000e+00
      142000000    1,445002388e-02   -3,043415723e-03   -7,674466968e-01   -2,368696034e-01    0,000000000e+00    0,000000000e+00    0,000000000e+00    0,000000000e+00
      156000000    1,501982287e-02   -1,500886679e-02   -7,698497176e-01    2,197636068e-01    0,000000000e+00    0,000000000e+00    0,000000000e+00    0,000000000e+00
      170000000    1,659240015e-02   -2,250826545e-02   -5,185258985e-01    6,049442887e-01    0,000000000e+00    0,000000000e+00    0,000000000e+00    0,000000000e+00
      184000000    2,096006833e-02   -3,707823530e-02   -1,019213498e-01    7,862284780e-01    0,000000000e+00    0,000000000e+00    0,000000000e+00    0,000000000e+00
      198000000    1,302409545e-02   -6,261517107e-02    3,430176377e-01    7,128930688e-01    0,000000000e+00    0,000000000e+00    0,000000000e+00    0,000000000e+00
      212000000   -1,871975884e-02   -8,165725321e-02    6,783980131e-01    4,105815291e-01    0,000000000e+00    0,000000000e+00    0,000000000e+00    0,000000000e+00
      226000000   -6,200782582e-02   -6,960298866e-02    7,961341739e-01   -2,973636240e-02    0,000000000e+00    0,000000000e+00    0,000000000e+00    0,000000000e+00
      240000000   -8,315668255e-02   -2,608355321e-02    6,470760107e-01   -4,665478468e-01    0,000000000e+00    0,000000000e+00    0,000000000e+00    0,000000000e+00
      254000000   -6,433146447e-02    1,718882099e-02    2,771853209e-01   -7,435884476e-01    0,000000000e+00    0,000000000e+00    0,000000000e+00    0,000000000e+00
      268000000   -2,435300685e-02    2,953419648e-02   -1,772312373e-01   -7,651634812e-01    0,000000000e+00    0,000000000e+00    0,000000000e+00    0,000000000e+00
      282000000    4,080328625e-03    1,207453571e-02   -5,621889234e-01   -5,369885564e-01    0,000000000e+00    0,000000000e+00    0,000000000e+00    0,000000000e+00
      296000000    9,684414603e-03   -7,742119022e-03   -7,609370947e-01   -1,395698488e-01    0,000000000e+00    0,000000000e+00    0,000000000e+00    0,000000000e+00
      310000000    1,098160446e-02   -1,622232981e-02   -7,119807601e-01    2,973291278e-01    0,000000000e+00    0,000000000e+00    0,000000000e+00    0,000000000e+00
      324000000    1,933971792e-02   -2,638714574e-02   -4,284000397e-01    6,373457313e-01    0,000000000e+00    0,000000000e+00    0,000000000e+00    0,000000000e+00
      338000000    2,554331161e-02   -5,214192718e-02   -1,059795730e-02    7,598228455e-01    0,000000000e+00    0,000000000e+00    0,000000000e+00    0,000000000e+00
      352000000    7,186574396e-03   -8,455254883e-02    4,063740969e-01    6,413905621e-01    0,000000000e+00    0,000000000e+00    0,000000000e+00    0,000000000e+00
      366000000   -3,464020044e-02   -9,617268294e-02    6,905152798e-01    3,120481372e-01    0,000000000e+00    0,000000000e+00    0,000000000e+00    0,000000000e+00
      380000000   -7,136917859e-02   -7,106090337e-02    7,480832338e-01   -1,246043593e-01    0,000000000e+00    0,000000000e+00    0,000000000e+00    0,000000000e+00
      394000000   -7,333160192e-02   -3,261835128e-02    5,471488237e-01   -5,216077566e-01    0,000000000e+00    0,000000000e+00    0,000000000e+00    0,000000000e+00
      408000000   -4,690727592e-02   -1,559766475e-02    1,632835567e-01   -7,315319180e-01    0,000000000e+00    0,000000000e+00    0,000000000e+00    0,000000000e+00
      422000000   -2,830586582e-02   -3,174738213e-02   -2,663118243e-01   -6,966603398e-01    0,000000000e+00    0,000000000e+00    0,000000000e+00    0,000000000e+00
      436000000   -4,036374390e-02   -5,192254484e-02   -6,027019620e-01   -4,337916970e-01    0,000000000e+00    0,000000000e+00    0,000000000e+00    0,000000000e+00
      450000000   -6,765687466e-02   -4,503034055e-02   -7,406706214e-01   -2,535400167e-02    0,000000000e+00    0,000000000e+00    0,000000000e+00    0,000000000e+00
      464000000   -7,433216274e-02   -1,245641056e-02   -6,211599112e-01    3,942750394e-01    0,000000000e+00    0,000000000e+00    0,000000000e+00    0,000000000e+00
      478000000   -4,895232618e-02    1,163500082e-02   -2,873833776e-01    6,676104665e-01    0,000000000e+00    0,000000000e+00    0,000000000e+00    0,000000000e+00
      492000000   -1,700736955e-02    6,675593555e-03    1,337400228e-01    7,038433552e-01    0,000000000e+00    0,000000000e+00    0,000000000e+00    0,000000000e+00
      506000000   -3,788109869e-03   -1,532877982e-02    4,971769452e-01    5,062357187e-01    0,000000000e+00    0,000000000e+00    0,000000000e+00    0,000000000e+00
      520000000   -5,956656300e-03   -2,953336388e-02    6,896558404e-01    1,441535205e-01    0,000000000e+00    0,000000000e+00    0,000000000e+00    0,000000000e+00
      534000000   -3,061096184e-03   -3,576884046e-02    6,450963616e-01   -2,599793077e-01    0,000000000e+00    0,000000000e+00    0,000000000e+00    0,000000000e+00
      548000000    8,236917667e-03   -5,261106044e-02    3,852085471e-01   -5,642580986e-01    0,000000000e+00    0,000000000e+00    0,000000000e+00    0,000000000e+00
      562000000    5,539226811e-03   -8,967681229e-02    7,839721628e-03   -6,721457839e-01    0,000000000e+00    0,000000000e+00    0,000000000e+00    0,000000000e+00
      576000000   -3,096324019e-02   -1,260922551e-01   -3,624265790e-01   -5,612240434e-01    0,000000000e+00    0,000000000e+00    0,000000000e+00    0,000000000e+00
      590000000   -9,482637048e-02   -1,276905686e-01   -6,159690619e-01   -2,706130743e-01    0,000000000e+00    0,000000000e+00    0,000000000e+00    0,000000000e+00
      604000000   -1,431694031e-01   -7,849421352e-02   -6,672229171e-01    1,258611828e-01    0,000000000e+00    0,000000000e+00    0,000000000e+00    0,000000000e+00
      618000000   -1,384433806e-01   -1,111690141e-02   -4,747595489e-01    4,860277176e-01    0,000000000e+00    0,000000000e+00    0,000000000e+00    0,000000000e+00
      632000000   -9,356683493e-02    2,204213291e-02   -1,138132513e-01    6,634846926e-01    0,000000000e+00    0,000000000e+00    0,000000000e+00    0,000000000e+00
      646000000   -5,477772653e-02    1,240255591e-02    2,733374238e-01    6,035515070e-01    0,000000000e+00    0,000000000e+00    0,000000000e+00    0,000000000e+00
      660000000   -4,845320433e-02   -8,098468184e-03    5,572538972e-01    3,398494124e-01    0,000000000e+00    0,000000000e+00    0,000000000e+00    0,000000000e+00
      674000000   -5,620560423e-02   -1,039545983e-02    6,439364552e-01   -3,956671059e-02    0,000000000e+00    0,000000000e+00    0,000000000e+00    0,000000000e+00
      688000000   -5,079777911e-02    2,848288510e-03    4,935119450e-01   -4,021528065e-01    0,000000000e+00    0,000000000e+00    0,000000000e+00    0,000000000e+00
      702000000   -2,526256628e-02    8,078262210e-03    1,566852927e-01   -6,012555361e-01    0,000000000e+00    0,000000000e+00    0,000000000e+00    0,000000000e+00
      716000000   -2,157218056e-03   -8,364074863e-03   -2,180844992e-01   -5,747687221e-01    0,000000000e+00    0,000000000e+00    0,000000000e+00    0,000000000e+00
      730000000    1,025522407e-02   -3,464846686e-02   -5,087829828e-01   -3,334001303e-01    0,000000000e+00    0,000000000e+00    0,000000000e+00    0,000000000e+00
      744000000    1,713647507e-02   -6,067694724e-02   -6,006050110e-01    3,304387629e-02    0,000000000e+00    0,000000000e+00    0,000000000e+00    0,000000000e+00
      758000000    2,209892310e-02   -1,044156477e-01   -4,547756314e-01    3,775292337e-01    0,000000000e+00    0,000000000e+00    0,000000000e+00    0,000000000e+00
      772000000   -5,229895934e-03   -1,730148643e-01   -1,396262497e-01    5,580716729e-01    0,000000000e+00    0,000000000e+00    0,000000000e+00    0,000000000e+00
      786000000   -1,046520099e-01   -2,323957384e-01    2,117631733e-01    5,197553039e-01    0,000000000e+00    0,000000000e+00    0,000000000e+00    0,000000000e+00
      800000000   -2,658554316e-01   -1,920589507e-01    4,712327421e-01    2,748217583e-01    0,000000000e+00    0,000000000e+00    0,000000000e+00    0,000000000e+00
      814000000   -3,645816743e-01    3,971992061e-03    5,079370141e-01   -8,877816051e-02    0,000000000e+00    0,000000000e+00    0,000000000e+00    0,000000000e+00
      828000000   -2,471126914e-01    2,334479243e-01    2,810015976e-01   -3,524102271e-01    0,000000000e+00    0,000000000e+00    0,000000000e+00    0,000000000e+00
      842000000    1,300430391e-02    2,779953480e-01   -1,633534953e-02   -3,630685508e-01    0,000000000e+00    0,000000000e+00    0,000000000e+00    0,000000000e+00
      856000000    2,125079334e-01    1,157614812e-01   -1,882226467e-01   -2,041128278e-01    0,000000000e+00    0,000000000e+00    0,000000000e+00    0,000000000e+00
      870000000    2,388258874e-01   -1,485488713e-01   -2,007239014e-01   -2,576519176e-02    0,000000000e+00    0,000000000e+00    0,000000000e+00    0,000000000e+00
      884000000    3,703303263e-02   -3,868566453e-01   -1,037775800e-01    7,069519162e-02    0,000000000e+00    0,000000000e+00    0,000000000e+00    0,000000000e+00
      898000000   -3,690780997e-01   -3,414155245e-01   -1,609970815e-02    2,747657150e-02    0,000000000e+00    0,000000000e+00    0,000000000e+00    0,000000000e+00
      912000000   -4,677724540e-01    1,382853091e-01   -1,047900021e-01    3,419942409e-02    0,000000000e+00    0,000000000e+00    0,000000000e+00    0,000000000e+00
      926000000   -9,321916848e-02    3,518862426e-01   -1,281805784e-01    1,362595260e-01    0,000000000e+00    0,000000000e+00    0,000000000e+00    0,000000000e+00
      940000000    1,824451834e-01    1,967514306e-01   -3,940184042e-02    2,169146240e-01    0,000000000e+00    0,000000000e+00    0,000000000e+00    0,000000000e+00
      954000000    2,560258806e-01   -4,968076944e-02    8,052121103e-02    2,273418158e-01    0,000000000e+00    0,000000000e+00    0,000000000e+00    0,000000000e+00
      968000000    1,733290851e-01   -2,608574033e-01    1,918126941e-01    1,796535254e-01    0,000000000e+00    0,000000000e+00    0,000000000e+00    0,000000000e+00
      982000000   -1,476878114e-02   -3,931369781e-01    2,803297937e-01    7,969145477e-02    0,000000000e+00    0,000000000e+00    0,000000000e+00    0,000000000e+00
      996000000   -2,758598924e-01   -3,802841008e-01    3,096114993e-01   -8,035805076e-02    0,000000000e+00    0,000000000e+00    0,000000000e+00    0,000000000e+00
     1010000000   -4,692867100e-01   -1,753656566e-01    2,242956460e-01   -2,543675005e-01    0,000000000e+00    0,000000000e+00    0,000000000e+00    0,000000000e+00
     1024000000   -4,549506605e-01    1,164221615e-01    2,051780187e-02   -3,315396309e-01    0,000000000e+00    0,000000000e+00    0,000000000e+00    0,000000000e+00
     1038000000   -2,668700218e-01    2,966778576e-01   -1,720118672e-01   -2,490703762e-01    0,000000000e+00    0,000000000e+00    0,000000000e+00    0,000000000e+00
     1052000000   -3,641094640e-02    3,112770617e-01   -2,586896718e-01   -7,889310271e-02    0,000000000e+00    0,000000000e+00    0,000000000e+00    0,000000000e+00
     1066000000    1,245839894e-01    2,071863860e-01   -2,219463885e-01    8,342555165e-02    0,000000000e+00    0,000000000e+00    0,000000000e+00    0,000000000e+00
     1080000000    2,111253887e-01    4,698614776e-02   -1,207864210e-01    1,929900199e-01    0,000000000e+00    0,000000000e+00    0,000000000e+00    0,000000000e+00
     1094000000    1,998497397e-01   -1,296640635e-01    1,696466282e-02    2,346480936e-01    0,000000000e+00    0,000000000e+00    0,000000000e+00    0,000000000e+00
     1108000000    1,005600914e-01   -2,831974924e-01    1,674053520e-01    2,069987208e-01    0,000000000e+00    0,000000000e+00    0,000000000e+00    0,000000000e+00
     1122000000   -1,040693000e-01   -3,665964305e-01    3,150370121e-01    8,880754560e-02    0,000000000e+00    0,000000000e+00    0,000000000e+00    0,000000000e+00
     1136000000   -3,513991535e-01   -2,718359828e-01    3,922517300e-01   -1,514655799e-01    0,000000000e+00    0,000000000e+00    0,000000000e+00    0,000000000e+00
     1150000000   -4,051596522e-01    4,052512348e-02    2,431145757e-01   -4,378280044e-01    0,000000000e+00    0,000000000e+00    0,000000000e+00    0,000000000e+00
     1164000000   -1,585591286e-01    2,137591094e-01   -9,314487129e-02   -5,165748596e-01    0,000000000e+00    0,000000000e+00    0,000000000e+00    0,000000000e+00
     1178000000    7,310295105e-02    8,561572433e-02   -3,577837944e-01   -3,483146429e-01    0,000000000e+00    0,000000000e+00    0,000000000e+00    0,000000000e+00
     1192000000    7,758941501e-02   -1,715840697e-01   -4,519662261e-01   -8,230199665e-02    0,000000000e+00    0,000000000e+00    0,000000000e+00    0,000000000e+00
     1206000000   -1,633957177e-01   -3,227933645e-01   -3,690827191e-01    1,918435246e-01    0,000000000e+00    0,000000000e+00    0,000000000e+00    0,000000000e+00
     1220000000   -4,578416049e-01   -1,780069768e-01   -1,096255109e-01    3,280169070e-01    0,000000000e+00    0,000000000e+00    0,000000000e+00    0,000000000e+00
     1234000000   -4,727715850e-01    1,615931392e-01    1,368953288e-01    2,194203138e-01    0,000000000e+00    0,000000000e+00    0,000000000e+00    0,000000000e+00
     1248000000   -2,329946905e-01    3,520479798e-01    1,937686205e-01    3,535009548e-02    0,000000000e+00    0,000000000e+00    0,000000000e+00    0,000000000e+00
     1262000000   -1,603837154e-04    3,315096796e-01    1,257656962e-01   -7,149452716e-02    0,000000000e+00    0,000000000e+00    0,000000000e+00    0,000000000e+00
     1276000000    1,529311985e-01    1,966149807e-01    5,010876805e-02   -9,976934642e-02    0,000000000e+00    0,000000000e+00    0,000000000e+00    0,000000000e+00
     1290000000    2,182112187e-01    2,812926099e-02    1,845862367e-03   -7,456357777e-02    0,000000000e+00    0,000000000e+00    0,000000000e+00    0,000000000e+00
     1304000000    2,053825706e-01   -1,488470733e-01   -1,733040810e-02   -3,266709298e-02    0,000000000e+00    0,000000000e+00    0,000000000e+00    0,000000000e+00
     1318000000    1,137154698e-01   -3,116684556e-01   -8,081020787e-03    2,112235501e-02    0,000000000e+00    0,000000000e+00    0,000000000e+00    0,000000000e+00
     1332000000   -6,872801483e-02   -4,343862832e-01    5,178036541e-02    5,995191261e-02    0,000000000e+00    0,000000000e+00    0,000000000e+00    0,000000000e+00
     1346000000   -3,300341070e-01   -4,330735803e-01    1,468117833e-01    3,695276752e-02    0,000000000e+00    0,000000000e+00    0,000000000e+00    0,000000000e+00
     1360000000   -5,490670204e-01   -2,465015352e-01    1,151805371e-01   -8,161694556e-02    0,000000000e+00    0,000000000e+00    0,000000000e+00    0,000000000e+00
     1374000000   -6,210696697e-01    3,746314719e-02    1,082560495e-01    5,515212938e-02    0,000000000e+00    0,000000000e+00    0,000000000e+00    0,000000000e+00
     1388000000   -5,153756738e-01    2,931146920e-01    2,236539721e-01    4,297919106e-03    0,000000000e+00    0,000000000e+00    0,000000000e+00    0,000000000e+00
     1402000000   -3,049388230e-01    4,273076653e-01    2,290858179e-01   -7,185655087e-02    0,000000000e+00    0,000000000e+00    0,000000000e+00    0,000000000e+00
     1416000000   -9,680763632e-02    4,228941500e-01    1,805410683e-01   -1,162742302e-01    0,000000000e+00    0,000000000e+00    0,000000000e+00    0,000000000e+00
     1430000000    7,384430617e-02    3,299593031e-01    1,595797688e-01   -1,460346878e-01    0,000000000e+00    0,000000000e+00    0,000000000e+00    0,000000000e+00
     1444000000    1,758981645e-01    1,973691583e-01    1,553346813e-01   -9,459662437e-02    0,000000000e+00    0,000000000e+00    0,000000000e+00    0,000000000e+00
     1458000000    2,212522179e-01    3,167119622e-02    1,544859111e-01   -8,289334923e-02    0,000000000e+00    0,000000000e+00    0,000000000e+00    0,000000000e+00
     1472000000    2,031183392e-01   -1,469637901e-01    1,525516659e-01   -4,617086798e-02    0,000000000e+00    0,000000000e+00    0,000000000e+00    0,000000000e+00
     1486000000    1,024934798e-01   -3,229633272e-01    1,599968225e-01   -2,078188118e-04    0,000000000e+00    0,000000000e+00    0,000000000e+00    0,000000000e+00
     1500000000   -8,578717709e-02   -4,579062164e-01    2,121265978e-01    4,523256049e-02    0,000000000e+00    0,000000000e+00    0,000000000e+00    0,000000000e+00
