! NanoVNA-App
! Date: 2025-09-25 14:27:58
! Start: 100MHz Stop: 1,5GHz Points: 101
! S-Parameter data: F S11 S21 S12 S22
# Hz S RI R 50
!     Frequency           S11_Real           S11_Imag           S21_Real           S21_Imag           S12_Real           S12_Imag           S22_Real           S22_Imag
      100000000   -2,908818424e-02   -4,135252442e-03    3,745554090e-01   -7,220254540e-01    0,000000000e+00    0,000000000e+00    0,000000000e+00    0,000000000e+00
      114000000   -1,659915596e-02    1,160042826e-02   -8,888076246e-02   -8,057067990e-01    0,000000000e+00    0,000000000e+00    0,000000000e+00    0,000000000e+00
      128000000    3,429826582e-03    1,054322906e-02   -5,147247910e-01   -6,210952401e-01    0,000000000e+00    0,000000000e+00    0,000000000e+00    0,000000000e+00
      142000000    1,443564054e-02   -3,065961413e-03   -7,672822475e-01   -2,369094044e-01    0,000000000e+00    0,000000000e+00    0,000000000e+00    0,000000000e+00
      156000000    1,484589372e-02   -1,508644223e-02   -7,698419690e-01    2,195725590e-01    0,000000000e+00    0,000000000e+00    0,000000000e+00    0,000000000e+00
      170000000    1,649994589e-02   -2,251370437e-02   -5,188531280e-01    6,049835086e-01    0,000000000e+00    0,000000000e+00    0,000000000e+00    0,000000000e+00
      184000000    2,098582312e-02   -3,700028360e-02   -1,019594893e-01    7,865175605e-01    0,000000000e+00    0,000000000e+00    0,000000000e+00    0,000000000e+00
      198000000    1,318857819e-02   -6,262212992e-02    3,426665366e-01    7,131518722e-01    0,000000000e+00    0,000000000e+00    0,000000000e+00    0,000000000e+00
      212000000   -1,868589781e-02   -8,172208071e-02    6,782004237e-01    4,104890823e-01    0,000000000e+00    0,000000000e+00    0,000000000e+00    0,000000000e+00
      226000000   -6,199624389e-02   -6,969773769e-02    7,959886789e-01   -2,969650924e-02    0,000000000e+00    0,000000000e+00    0,000000000e+00    0,000000000e+00
      240000000   -8,331614733e-02   -2,603298798e-02    6,472492218e-01   -4,664248824e-01    0,000000000e+00    0,000000000e+00    0,000000000e+00    0,000000000e+00
      254000000   -6,438707560e-02    1,748414151e-02    2,771785557e-01   -7,436097264e-01    0,000000000e+00    0,000000000e+00    0,000000000e+00    0,000000000e+00
      268000000   -2,398372442e-02    2,944220975e-02   -1,767414361e-01   -7,651048899e-01    0,000000000e+00    0,000000000e+00    0,000000000e+00    0,000000000e+00
      282000000    4,100145772e-03    1,207865216e-02   -5,625085235e-01   -5,373102427e-01    0,000000000e+00    0,000000000e+00    0,000000000e+00    0,000000000e+00
      296000000    9,442780167e-03   -7,833329029e-03   -7,607349157e-01   -1,396279037e-01    0,000000000e+00    0,000000000e+00    0,000000000e+00    0,000000000e+00
      310000000    1,082045492e-02   -1,612462476e-02   -7,143696547e-01    2,979132831e-01    0,000000000e+00    0,000000000e+00    0,000000000e+00    0,000000000e+00
      324000000    1,963034458e-02   -2,656980604e-02   -4,278978705e-01    6,373111010e-01    0,000000000e+00    0,000000000e+00    0,000000000e+00    0,000000000e+00
      338000000    2,528222278e-02   -5,194401368e-02   -1,147256605e-02    7,616780400e-01    0,000000000e+00    0,000000000e+00    0,000000000e+00    0,000000000e+00
      352000000    7,376710419e-03   -8,501082659e-02    4,056735337e-01    6,411246657e-01    0,000000000e+00    0,000000000e+00    0,000000000e+00    0,000000000e+00
      366000000   -3,514738753e-02   -9,628414363e-02    6,911376715e-01    3,121826053e-01    0,000000000e+00    0,000000000e+00    0,000000000e+00    0,000000000e+00
      380000000   -7,120800763e-02   -7,103381306e-02    7,489106059e-01   -1,247688755e-01    0,000000000e+00    0,000000000e+00    0,000000000e+00    0,000000000e+00
      394000000   -7,307945937e-02   -3,240572661e-02    5,472563505e-01   -5,207171440e-01    0,000000000e+00    0,000000000e+00    0,000000000e+00    0,000000000e+00
      408000000   -4,695305228e-02   -1,554519124e-02    1,632055193e-01   -7,323143482e-01    0,000000000e+00    0,000000000e+00    0,000000000e+00    0,000000000e+00
      422000000   -2,829403058e-02   -3,122816980e-02   -2,667658031e-01   -6,959626079e-01    0,000000000e+00    0,000000000e+00    0,000000000e+00    0,000000000e+00
      436000000   -4,004305974e-02   -5,189566314e-02   -6,026129723e-01   -4,341520965e-01    0,000000000e+00    0,000000000e+00    0,000000000e+00    0,000000000e+00
      450000000   -6,764699519e-02   -4,452783987e-02   -7,404996157e-01   -2,503935620e-02    0,000000000e+00    0,000000000e+00    0,000000000e+00    0,000000000e+00
      464000000   -7,431688905e-02   -1,215195004e-02   -6,214824915e-01    3,948275149e-01    0,000000000e+00    0,000000000e+00    0,000000000e+00    0,000000000e+00
      478000000   -4,897777364e-02    1,136610657e-02   -2,865594029e-01    6,680089235e-01    0,000000000e+00    0,000000000e+00    0,000000000e+00    0,000000000e+00
      492000000   -1,694440283e-02    6,202883553e-03    1,335813552e-01    7,040684223e-01    0,000000000e+00    0,000000000e+00    0,000000000e+00    0,000000000e+00
      506000000   -3,701807000e-03   -1,535995863e-02    4,974976778e-01    5,063709617e-01    0,000000000e+00    0,000000000e+00    0,000000000e+00    0,000000000e+00
      520000000   -6,078312639e-03   -2,971709706e-02    6,903898120e-01    1,431472749e-01    0,000000000e+00    0,000000000e+00    0,000000000e+00    0,000000000e+00
      534000000   -3,404766321e-03   -3,563529626e-02    6,449064612e-01   -2,593694329e-01    0,000000000e+00    0,000000000e+00    0,000000000e+00    0,000000000e+00
      548000000    8,181823418e-03   -5,253531039e-02    3,850896358e-01   -5,633912086e-01    0,000000000e+00    0,000000000e+00    0,000000000e+00    0,000000000e+00
      562000000    5,820808932e-03   -8,970835060e-02    8,159347810e-03   -6,721233726e-01    0,000000000e+00    0,000000000e+00    0,000000000e+00    0,000000000e+00
      576000000   -3,133923933e-02   -1,259541214e-01   -3,620416820e-01   -5,607774258e-01    0,000000000e+00    0,000000000e+00    0,000000000e+00    0,000000000e+00
      590000000   -9,490173310e-02   -1,277221590e-01   -6,145605445e-01   -2,720512748e-01    0,000000000e+00    0,000000000e+00    0,000000000e+00    0,000000000e+00
      604000000   -1,431395710e-01   -7,802912593e-02   -6,674990058e-01    1,255989373e-01    0,000000000e+00    0,000000000e+00    0,000000000e+00    0,000000000e+00
      618000000   -1,377935410e-01   -1,173381880e-02   -4,747704864e-01    4,856849909e-01    0,000000000e+00    0,000000000e+00    0,000000000e+00    0,000000000e+00
      632000000   -9,358709306e-02    2,179164253e-02   -1,144950613e-01    6,633416414e-01    0,000000000e+00    0,000000000e+00    0,000000000e+00    0,000000000e+00
      646000000   -5,553827807e-02    1,167066488e-02    2,725266516e-01    6,032010913e-01    0,000000000e+00    0,000000000e+00    0,000000000e+00    0,000000000e+00
      660000000   -4,852185026e-02   -9,061820805e-03    5,575696230e-01    3,400138021e-01    0,000000000e+00    0,000000000e+00    0,000000000e+00    0,000000000e+00
      674000000   -5,545433611e-02   -1,124179550e-02    6,443334818e-01   -3,967789188e-02    0,000000000e+00    0,000000000e+00    0,000000000e+00    0,000000000e+00
      688000000   -4,970075563e-02    2,628543181e-03    4,938459098e-01   -4,021183252e-01    0,000000000e+00    0,000000000e+00    0,000000000e+00    0,000000000e+00
      702000000   -2,684352733e-02    7,432305254e-03    1,606567651e-01   -6,085389256e-01    0,000000000e+00    0,000000000e+00    0,000000000e+00    0,000000000e+00
      716000000   -1,719073858e-03   -9,662231430e-03   -2,184810042e-01   -5,754070282e-01    0,000000000e+00    0,000000000e+00    0,000000000e+00    0,000000000e+00
      730000000    9,003672749e-03   -3,419142589e-02   -5,091899037e-01   -3,339087665e-01    0,000000000e+00    0,000000000e+00    0,000000000e+00    0,000000000e+00
      744000000    1,724422351e-02   -6,067549810e-02   -6,011502147e-01    3,294343129e-02    0,000000000e+00    0,000000000e+00    0,000000000e+00    0,000000000e+00
      758000000    2,175536565e-02   -1,039826721e-01   -4,543118775e-01    3,764400482e-01    0,000000000e+00    0,000000000e+00    0,000000000e+00    0,000000000e+00
      772000000   -5,109942053e-03   -1,738306284e-01   -1,393836886e-01    5,593189597e-01    0,000000000e+00    0,000000000e+00    0,000000000e+00    0,000000000e+00
      786000000   -1,049296260e-01   -2,330263257e-01    2,113900185e-01    5,191281438e-01    0,000000000e+00    0,000000000e+00    0,000000000e+00    0,000000000e+00
      800000000   -2,664982677e-01   -1,931817234e-01    4,718831778e-01    2,754714489e-01    0,000000000e+00    0,000000000e+00    0,000000000e+00    0,000000000e+00
      814000000   -3,641614020e-01    4,067789298e-03    5,081300735e-01   -8,850138634e-02    0,000000000e+00    0,000000000e+00    0,000000000e+00    0,000000000e+00
      828000000   -2,483279109e-01    2,334221601e-01    2,815676630e-01   -3,522683680e-01    0,000000000e+00    0,000000000e+00    0,000000000e+00    0,000000000e+00
      842000000    1,341865119e-02    2,780547440e-01   -1,592828520e-02   -3,632080257e-01    0,000000000e+00    0,000000000e+00    0,000000000e+00    0,000000000e+00
      856000000    2,125425190e-01    1,155371368e-01   -1,876816750e-01   -2,053685635e-01    0,000000000e+00    0,000000000e+00    0,000000000e+00    0,000000000e+00
      870000000    2,390316576e-01   -1,488498002e-01   -2,001366168e-01   -2,609193139e-02    0,000000000e+00    0,000000000e+00    0,000000000e+00    0,000000000e+00
      884000000    3,805955872e-02   -3,876604438e-01   -1,036944836e-01    7,063755393e-02    0,000000000e+00    0,000000000e+00    0,000000000e+00    0,000000000e+00
      898000000   -3,694858551e-01   -3,424913883e-01   -1,718253829e-02    2,730672434e-02    0,000000000e+00    0,000000000e+00    0,000000000e+00    0,000000000e+00
      912000000   -4,673881829e-01    1,384657323e-01   -1,068781838e-01    2,818674967e-02    0,000000000e+00    0,000000000e+00    0,000000000e+00    0,000000000e+00
      926000000   -9,593005478e-02    3,504642546e-01   -1,283851564e-01    1,324850321e-01    0,000000000e+00    0,000000000e+00    0,000000000e+00    0,000000000e+00
      940000000    1,835349947e-01    1,918309480e-01   -3,992136568e-02    2,149331272e-01    0,000000000e+00    0,000000000e+00    0,000000000e+00    0,000000000e+00
      954000000    2,522544563e-01   -4,867415503e-02    7,799370587e-02    2,278593481e-01    0,000000000e+00    0,000000000e+00    0,000000000e+00    0,000000000e+00
      968000000    1,756695658e-01   -2,642578781e-01    1,924019903e-01    1,798722595e-01    0,000000000e+00    0,000000000e+00    0,000000000e+00    0,000000000e+00
      982000000   -1,836040057e-02   -3,929328620e-01    2,811575830e-01    7,877933234e-02    0,000000000e+00    0,000000000e+00    0,000000000e+00    0,000000000e+00
      996000000   -2,760217786e-01   -3,762870729e-01    3,106456697e-01   -8,066254854e-02    0,000000000e+00    0,000000000e+00    0,000000000e+00    0,000000000e+00
     1010000000   -4,722552598e-01   -1,752291620e-01    2,207488120e-01   -2,522005439e-01    0,000000000e+00    0,000000000e+00    0,000000000e+00    0,000000000e+00
     1024000000   -4,561448097e-01    1,191413254e-01    2,074017562e-02   -3,289993107e-01    0,000000000e+00    0,000000000e+00    0,000000000e+00    0,000000000e+00
     1038000000   -2,650080323e-01    2,954556048e-01   -1,742900461e-01   -2,488312721e-01    0,000000000e+00    0,000000000e+00    0,000000000e+00    0,000000000e+00
     1052000000   -3,586378321e-02    3,069087267e-01   -2,570872903e-01   -7,943817973e-02    0,000000000e+00    0,000000000e+00    0,000000000e+00    0,000000000e+00
     1066000000    1,298003346e-01    2,043935806e-01   -2,299221903e-01    8,844500780e-02    0,000000000e+00    0,000000000e+00    0,000000000e+00    0,000000000e+00
     1080000000    2,088519037e-01    4,980532452e-02   -1,216972321e-01    1,920393258e-01    0,000000000e+00    0,000000000e+00    0,000000000e+00    0,000000000e+00
     1094000000    2,027949393e-01   -1,297782511e-01    1,753592305e-02    2,343979478e-01    0,000000000e+00    0,000000000e+00    0,000000000e+00    0,000000000e+00
     1108000000    9,864192456e-02   -2,858691216e-01    1,683052331e-01    2,072718740e-01    0,000000000e+00    0,000000000e+00    0,000000000e+00    0,000000000e+00
     1122000000   -1,006058529e-01   -3,711859882e-01    3,171713054e-01    9,041228145e-02    0,000000000e+00    0,000000000e+00    0,000000000e+00    0,000000000e+00
     1136000000   -3,445545435e-01   -2,722175717e-01    3,907991350e-01   -1,482666135e-01    0,000000000e+00    0,000000000e+00    0,000000000e+00    0,000000000e+00
     1150000000   -4,030708671e-01    3,948915005e-02    2,422284931e-01   -4,372195899e-01    0,000000000e+00    0,000000000e+00    0,000000000e+00    0,000000000e+00
     1164000000   -1,563135982e-01    2,204315662e-01   -9,142547101e-02   -5,144364238e-01    0,000000000e+00    0,000000000e+00    0,000000000e+00    0,000000000e+00
     1178000000    7,652486116e-02    8,050888777e-02   -3,564881384e-01   -3,488327265e-01    0,000000000e+00    0,000000000e+00    0,000000000e+00    0,000000000e+00
     1192000000    7,097222656e-02   -1,733014584e-01   -4,545267820e-01   -8,453235030e-02    0,000000000e+00    0,000000000e+00    0,000000000e+00    0,000000000e+00
     1206000000   -1,652527452e-01   -3,257851303e-01   -3,699091673e-01    1,860986203e-01    0,000000000e+00    0,000000000e+00    0,000000000e+00    0,000000000e+00
     1220000000   -4,566430748e-01   -1,804212928e-01   -1,053219661e-01    3,234348297e-01    0,000000000e+00    0,000000000e+00    0,000000000e+00    0,000000000e+00
     1234000000   -4,782789052e-01    1,645086855e-01    1,347305328e-01    2,206564099e-01    0,000000000e+00    0,000000000e+00    0,000000000e+00    0,000000000e+00
     1248000000   -2,323627919e-01    3,581601679e-01    1,980452538e-01    3,678897768e-02    0,000000000e+00    0,000000000e+00    0,000000000e+00    0,000000000e+00
     1262000000    8,466417901e-03    3,256052136e-01    1,268938482e-01   -7,617006451e-02    0,000000000e+00    0,000000000e+00    0,000000000e+00    0,000000000e+00
     1276000000    1,580448747e-01    1,994112432e-01    5,657091364e-02   -9,481579065e-02    0,000000000e+00    0,000000000e+00    0,000000000e+00    0,000000000e+00
     1290000000    2,184551358e-01    2,849846147e-02    5,232601427e-03   -7,171973586e-02    0,000000000e+00    0,000000000e+00    0,000000000e+00    0,000000000e+00
     1304000000    2,022040337e-01   -1,428972483e-01   -2,082820423e-02   -2,457477711e-02    0,000000000e+00    0,000000000e+00    0,000000000e+00    0,000000000e+00
     1318000000    1,156571507e-01   -3,131837845e-01   -7,247177884e-03    1,569421962e-02    0,000000000e+00    0,000000000e+00    0,000000000e+00    0,000000000e+00
     1332000000   -6,441070139e-02   -4,365047216e-01    4,993807524e-02    5,616322532e-02    0,000000000e+00    0,000000000e+00    0,000000000e+00    0,000000000e+00
     1346000000   -3,276845217e-01   -4,352279305e-01    1,457953155e-01    4,094967991e-02    0,000000000e+00    0,000000000e+00    0,000000000e+00    0,000000000e+00
     1360000000   -5,588318706e-01   -2,475276440e-01    1,183530465e-01   -8,480954170e-02    0,000000000e+00    0,000000000e+00    0,000000000e+00    0,000000000e+00
     1374000000   -6,216040850e-01    3,478249162e-02    9,536886215e-02    6,494825333e-02    0,000000000e+00    0,000000000e+00    0,000000000e+00    0,000000000e+00
     1388000000   -5,113152266e-01    2,913162112e-01    2,313157916e-01   -2,084042644e-03    0,000000000e+00    0,000000000e+00    0,000000000e+00    0,000000000e+00
     1402000000   -3,089064360e-01    4,173387289e-01    2,182442546e-01   -8,950896561e-02    0,000000000e+00    0,000000000e+00    0,000000000e+00    0,000000000e+00
     1416000000   -8,911842108e-02    4,249047935e-01    1,859710068e-01   -1,091943532e-01    0,000000000e+00    0,000000000e+00    0,000000000e+00    0,000000000e+00
     1430000000    6,798209250e-02    3,271063268e-01    1,436404139e-01   -1,102343053e-01    0,000000000e+00    0,000000000e+00    0,000000000e+00    0,000000000e+00
     1444000000    1,726899147e-01    1,972289383e-01    1,499322057e-01   -1,090048701e-01    0,000000000e+00    0,000000000e+00    0,000000000e+00    0,000000000e+00
     1458000000    2,252914608e-01    3,469038755e-02    1,420170963e-01   -7,232184708e-02    0,000000000e+00    0,000000000e+00    0,000000000e+00    0,000000000e+00
     1472000000    2,088465244e-01   -1,462376118e-01    1,558731347e-01   -4,704779387e-02    0,000000000e+00    0,000000000e+00    0,000000000e+00    0,000000000e+00
     1486000000    1,083010212e-01   -3,213322163e-01    1,698915958e-01    1,023145020e-02    0,000000000e+00    0,000000000e+00    0,000000000e+00    0,000000000e+00
     1500000000   -1,015746593e-01   -4,621609747e-01    2,160463482e-01    4,815074056e-02    0,000000000e+00    0,000000000e+00    0,000000000e+00    0,000000000e+00
