! NanoVNA-App
! Date: 2025-09-25 14:25:19
! Start: 100MHz Stop: 1,5GHz Points: 101
! S-Parameter data: F S11 S21 S12 S22
# Hz S RI R 50
!     Frequency           S11_Real           S11_Imag           S21_Real           S21_Imag           S12_Real           S12_Imag           S22_Real           S22_Imag
      100000000   -2,909382246e-02   -4,112575669e-03    3,745074868e-01   -7,220403552e-01    0,000000000e+00    0,000000000e+00    0,000000000e+00    0,000000000e+00
      114000000   -1,660490595e-02    1,161284838e-02   -8,887933195e-02   -8,056704998e-01    0,000000000e+00    0,000000000e+00    0,000000000e+00    0,000000000e+00
      128000000    3,450080054e-03    1,052638236e-02   -5,145701170e-01   -6,211356521e-01    0,000000000e+00    0,000000000e+00    0,000000000e+00    0,000000000e+00
      142000000    1,444318518e-02   -3,071712097e-03   -7,675013542e-01   -2,369190603e-01    0,000000000e+00    0,000000000e+00    0,000000000e+00    0,000000000e+00
      156000000    1,576919854e-02   -1,438162662e-02   -7,729285359e-01    2,241243422e-01    0,000000000e+00    0,000000000e+00    0,000000000e+00    0,000000000e+00
      170000000    1,655477472e-02   -2,250601910e-02   -5,185877681e-01    6,050482988e-01    0,000000000e+00    0,000000000e+00    0,000000000e+00    0,000000000e+00
      184000000    2,094691619e-02   -3,699859232e-02   -1,018815637e-01    7,866568565e-01    0,000000000e+00    0,000000000e+00    0,000000000e+00    0,000000000e+00
      198000000    1,305149682e-02   -6,257730722e-02    3,429040611e-01    7,130029202e-01    0,000000000e+00    0,000000000e+00    0,000000000e+00    0,000000000e+00
      212000000   -1,872027852e-02   -8,166714758e-02    6,781297326e-01    4,104798436e-01    0,000000000e+00    0,000000000e+00    0,000000000e+00    0,000000000e+00
      226000000   -6,209431216e-02   -6,965489686e-02    7,962015271e-01   -2,971898206e-02    0,000000000e+00    0,000000000e+00    0,000000000e+00    0,000000000e+00
      240000000   -8,324060589e-02   -2,609462850e-02    6,471446157e-01   -4,667496681e-01    0,000000000e+00    0,000000000e+00    0,000000000e+00    0,000000000e+00
      254000000   -6,433406472e-02    1,747640967e-02    2,773173749e-01   -7,432567477e-01    0,000000000e+00    0,000000000e+00    0,000000000e+00    0,000000000e+00
      268000000   -2,403260767e-02    2,943108790e-02   -1,767875999e-01   -7,653963566e-01    0,000000000e+00    0,000000000e+00    0,000000000e+00    0,000000000e+00
      282000000    4,082567524e-03    1,219535060e-02   -5,624692440e-01   -5,373588204e-01    0,000000000e+00    0,000000000e+00    0,000000000e+00    0,000000000e+00
      296000000    9,454638697e-03   -7,646504790e-03   -7,608886361e-01   -1,396310329e-01    0,000000000e+00    0,000000000e+00    0,000000000e+00    0,000000000e+00
      310000000    1,086259540e-02   -1,604350097e-02   -7,139201760e-01    2,980594337e-01    0,000000000e+00    0,000000000e+00    0,000000000e+00    0,000000000e+00
      324000000    1,958092116e-02   -2,647164278e-02   -4,280877113e-01    6,376380920e-01    0,000000000e+00    0,000000000e+00    0,000000000e+00    0,000000000e+00
      338000000    2,521924861e-02   -5,199082941e-02   -7,529099472e-03    7,617820501e-01    0,000000000e+00    0,000000000e+00    0,000000000e+00    0,000000000e+00
      352000000    7,329150103e-03   -8,487310261e-02    4,048008919e-01    6,401454806e-01    0,000000000e+00    0,000000000e+00    0,000000000e+00    0,000000000e+00
      366000000   -3,485490009e-02   -9,625873715e-02    6,908707023e-01    3,123978078e-01    0,000000000e+00    0,000000000e+00    0,000000000e+00    0,000000000e+00
      380000000   -7,140550017e-02   -7,117553800e-02    7,489399910e-01   -1,243692711e-01    0,000000000e+00    0,000000000e+00    0,000000000e+00    0,000000000e+00
      394000000   -7,329257578e-02   -3,259351104e-02    5,476600528e-01   -5,207204819e-01    0,000000000e+00    0,000000000e+00    0,000000000e+00    0,000000000e+00
      408000000   -4,678347707e-02   -1,583981514e-02    1,634953022e-01   -7,335247993e-01    0,000000000e+00    0,000000000e+00    0,000000000e+00    0,000000000e+00
      422000000   -2,829087898e-02   -3,164567053e-02   -2,665403485e-01   -6,959121227e-01    0,000000000e+00    0,000000000e+00    0,000000000e+00    0,000000000e+00
      436000000   -3,992000222e-02   -5,196290091e-02   -6,024745107e-01   -4,338554442e-01    0,000000000e+00    0,000000000e+00    0,000000000e+00    0,000000000e+00
      450000000   -6,753218174e-02   -4,490470886e-02   -7,403737307e-01   -2,511449344e-02    0,000000000e+00    0,000000000e+00    0,000000000e+00    0,000000000e+00
      464000000   -7,400117815e-02   -1,253750175e-02   -6,212249994e-01    3,947191834e-01    0,000000000e+00    0,000000000e+00    0,000000000e+00    0,000000000e+00
      478000000   -4,931969568e-02    1,179390866e-02   -2,864125669e-01    6,676978469e-01    0,000000000e+00    0,000000000e+00    0,000000000e+00    0,000000000e+00
      492000000   -1,709280536e-02    6,561235059e-03    1,341057718e-01    7,044106722e-01    0,000000000e+00    0,000000000e+00    0,000000000e+00    0,000000000e+00
      506000000   -3,502508858e-03   -1,497611310e-02    4,979281127e-01    5,063556433e-01    0,000000000e+00    0,000000000e+00    0,000000000e+00    0,000000000e+00
      520000000   -5,927657709e-03   -3,006079979e-02    6,911470294e-01    1,445494443e-01    0,000000000e+00    0,000000000e+00    0,000000000e+00    0,000000000e+00
      534000000   -3,687258111e-03   -3,582114354e-02    6,451847553e-01   -2,597000003e-01    0,000000000e+00    0,000000000e+00    0,000000000e+00    0,000000000e+00
      548000000    8,043454029e-03   -5,279828236e-02    3,848154843e-01   -5,635525584e-01    0,000000000e+00    0,000000000e+00    0,000000000e+00    0,000000000e+00
      562000000    5,812052637e-03   -8,942209929e-02    7,926385850e-03   -6,712016463e-01    0,000000000e+00    0,000000000e+00    0,000000000e+00    0,000000000e+00
      576000000   -3,143736720e-02   -1,264190823e-01   -3,628703654e-01   -5,612781644e-01    0,000000000e+00    0,000000000e+00    0,000000000e+00    0,000000000e+00
      590000000   -9,494224936e-02   -1,277967691e-01   -6,175398231e-01   -2,739428282e-01    0,000000000e+00    0,000000000e+00    0,000000000e+00    0,000000000e+00
      604000000   -1,429991126e-01   -7,826513052e-02   -6,671860218e-01    1,261621416e-01    0,000000000e+00    0,000000000e+00    0,000000000e+00    0,000000000e+00
      618000000   -1,380183250e-01   -1,191072352e-02   -4,752478600e-01    4,857884943e-01    0,000000000e+00    0,000000000e+00    0,000000000e+00    0,000000000e+00
      632000000   -9,295153618e-02    2,143687196e-02   -1,143586263e-01    6,636808515e-01    0,000000000e+00    0,000000000e+00    0,000000000e+00    0,000000000e+00
      646000000   -5,590628460e-02    1,190305874e-02    2,740717232e-01    6,034591198e-01    0,000000000e+00    0,000000000e+00    0,000000000e+00    0,000000000e+00
      660000000   -4,782113060e-02   -8,123825304e-03    5,578371286e-01    3,401136994e-01    0,000000000e+00    0,000000000e+00    0,000000000e+00    0,000000000e+00
      674000000   -5,577437952e-02   -1,113979891e-02    6,441631913e-01   -3,965623677e-02    0,000000000e+00    0,000000000e+00    0,000000000e+00    0,000000000e+00
      688000000   -5,055727065e-02    3,625210607e-03    4,927676022e-01   -4,020712674e-01    0,000000000e+00    0,000000000e+00    0,000000000e+00    0,000000000e+00
      702000000   -2,551119402e-02    8,016580716e-03    1,610013992e-01   -6,087790728e-01    0,000000000e+00    0,000000000e+00    0,000000000e+00    0,000000000e+00
      716000000   -1,400980866e-03   -8,689858951e-03   -2,181705087e-01   -5,755674243e-01    0,000000000e+00    0,000000000e+00    0,000000000e+00    0,000000000e+00
      730000000    9,484414943e-03   -3,400456160e-02   -5,095807314e-01   -3,333135247e-01    0,000000000e+00    0,000000000e+00    0,000000000e+00    0,000000000e+00
      744000000    1,729658432e-02   -6,123629957e-02   -6,012548804e-01    3,325468302e-02    0,000000000e+00    0,000000000e+00    0,000000000e+00    0,000000000e+00
      758000000    2,156263031e-02   -1,041118801e-01   -4,541735351e-01    3,769600093e-01    0,000000000e+00    0,000000000e+00    0,000000000e+00    0,000000000e+00
      772000000   -4,797091708e-03   -1,739102900e-01   -1,389576197e-01    5,576216578e-01    0,000000000e+00    0,000000000e+00    0,000000000e+00    0,000000000e+00
      786000000   -1,048106849e-01   -2,321627736e-01    2,120264471e-01    5,200684071e-01    0,000000000e+00    0,000000000e+00    0,000000000e+00    0,000000000e+00
      800000000   -2,655090094e-01   -1,921672672e-01    4,712837040e-01    2,756336331e-01    0,000000000e+00    0,000000000e+00    0,000000000e+00    0,000000000e+00
      814000000   -3,643914163e-01    2,904428402e-03    5,078306198e-01   -8,814363927e-02    0,000000000e+00    0,000000000e+00    0,000000000e+00    0,000000000e+00
      828000000   -2,482686043e-01    2,335457802e-01    2,810764015e-01   -3,522575200e-01    0,000000000e+00    0,000000000e+00    0,000000000e+00    0,000000000e+00
      842000000    1,296245027e-02    2,779222429e-01   -1,560258865e-02   -3,631382585e-01    0,000000000e+00    0,000000000e+00    0,000000000e+00    0,000000000e+00
      856000000    2,122093141e-01    1,153536513e-01   -1,881493628e-01   -2,047846913e-01    0,000000000e+00    0,000000000e+00    0,000000000e+00    0,000000000e+00
      870000000    2,392041385e-01   -1,483238041e-01   -2,000468969e-01   -2,543948404e-02    0,000000000e+00    0,000000000e+00    0,000000000e+00    0,000000000e+00
      884000000    3,763504326e-02   -3,868385255e-01   -1,036356091e-01    7,135123014e-02    0,000000000e+00    0,000000000e+00    0,000000000e+00    0,000000000e+00
      898000000   -3,686425388e-01   -3,408136368e-01   -1,651938260e-02    2,674990706e-02    0,000000000e+00    0,000000000e+00    0,000000000e+00    0,000000000e+00
      912000000   -4,662640989e-01    1,392968893e-01   -1,155568808e-01    4,122922197e-02    0,000000000e+00    0,000000000e+00    0,000000000e+00    0,000000000e+00
      926000000   -9,536950290e-02    3,525147438e-01   -1,289812475e-01    1,355055273e-01    0,000000000e+00    0,000000000e+00    0,000000000e+00    0,000000000e+00
      940000000    1,820062399e-01    1,941828281e-01   -3,935888410e-02    2,165432125e-01    0,000000000e+00    0,000000000e+00    0,000000000e+00    0,000000000e+00
      954000000    2,538639605e-01   -4,929624498e-02    7,943987101e-02    2,265252918e-01    0,000000000e+00    0,000000000e+00    0,000000000e+00    0,000000000e+00
      968000000    1,748155802e-01   -2,631823421e-01    1,914597005e-01    1,794579476e-01    0,000000000e+00    0,000000000e+00    0,000000000e+00    0,000000000e+00
      982000000   -1,684796438e-02   -3,949199617e-01    2,795377374e-01    7,717511058e-02    0,000000000e+00    0,000000000e+00    0,000000000e+00    0,000000000e+00
      996000000   -2,728656828e-01   -3,785028756e-01    3,088389039e-01   -8,100073785e-02    0,000000000e+00    0,000000000e+00    0,000000000e+00    0,000000000e+00
     1010000000   -4,725254774e-01   -1,755060703e-01    2,231147438e-01   -2,523750663e-01    0,000000000e+00    0,000000000e+00    0,000000000e+00    0,000000000e+00
     1024000000   -4,590631127e-01    1,209724918e-01    2,134582400e-02   -3,306761682e-01    0,000000000e+00    0,000000000e+00    0,000000000e+00    0,000000000e+00
     1038000000   -2,644905150e-01    2,947430313e-01   -1,727731973e-01   -2,464898676e-01    0,000000000e+00    0,000000000e+00    0,000000000e+00    0,000000000e+00
     1052000000   -3,744516522e-02    3,129965961e-01   -2,571148872e-01   -8,011608571e-02    0,000000000e+00    0,000000000e+00    0,000000000e+00    0,000000000e+00
     1066000000    1,266541630e-01    2,067583650e-01   -2,253457606e-01    8,967079967e-02    0,000000000e+00    0,000000000e+00    0,000000000e+00    0,000000000e+00
     1080000000    2,092116624e-01    4,643963650e-02   -1,198475361e-01    1,954507232e-01    0,000000000e+00    0,000000000e+00    0,000000000e+00    0,000000000e+00
     1094000000    2,041001618e-01   -1,285910904e-01    1,623278111e-02    2,339842618e-01    0,000000000e+00    0,000000000e+00    0,000000000e+00    0,000000000e+00
     1108000000    1,000419706e-01   -2,888934612e-01    1,681899875e-01    2,065860778e-01    0,000000000e+00    0,000000000e+00    0,000000000e+00    0,000000000e+00
     1122000000   -9,927349538e-02   -3,642990291e-01    3,179954290e-01    8,887444437e-02    0,000000000e+00    0,000000000e+00    0,000000000e+00    0,000000000e+00
     1136000000   -3,456850648e-01   -2,715851665e-01    3,908354044e-01   -1,506129801e-01    0,000000000e+00    0,000000000e+00    0,000000000e+00    0,000000000e+00
     1150000000   -4,132813215e-01    3,819400445e-02    2,434028834e-01   -4,366096258e-01    0,000000000e+00    0,000000000e+00    0,000000000e+00    0,000000000e+00
     1164000000   -1,624331027e-01    2,146158218e-01   -9,614436328e-02   -5,156453252e-01    0,000000000e+00    0,000000000e+00    0,000000000e+00    0,000000000e+00
     1178000000    7,597547024e-02    8,114844561e-02   -3,539166749e-01   -3,501622081e-01    0,000000000e+00    0,000000000e+00    0,000000000e+00    0,000000000e+00
     1192000000    7,303312421e-02   -1,715433300e-01   -4,534954131e-01   -8,248681575e-02    0,000000000e+00    0,000000000e+00    0,000000000e+00    0,000000000e+00
     1206000000   -1,659310907e-01   -3,271139562e-01   -3,710148931e-01    1,915646493e-01    0,000000000e+00    0,000000000e+00    0,000000000e+00    0,000000000e+00
     1220000000   -4,545175731e-01   -1,754083633e-01   -1,085028201e-01    3,320719600e-01    0,000000000e+00    0,000000000e+00    0,000000000e+00    0,000000000e+00
     1234000000   -4,780045748e-01    1,714530289e-01    1,353036463e-01    2,250847369e-01    0,000000000e+00    0,000000000e+00    0,000000000e+00    0,000000000e+00
     1248000000   -2,348238379e-01    3,549482226e-01    1,948914081e-01    3,887559101e-02    0,000000000e+00    0,000000000e+00    0,000000000e+00    0,000000000e+00
     1262000000    1,404329902e-03    3,261397183e-01    1,273450851e-01   -7,402157784e-02    0,000000000e+00    0,000000000e+00    0,000000000e+00    0,000000000e+00
     1276000000    1,562161744e-01    2,034483552e-01    5,291422084e-02   -8,922842890e-02    0,000000000e+00    0,000000000e+00    0,000000000e+00    0,000000000e+00
     1290000000    2,180274129e-01    3,064881265e-02   -1,894413253e-05   -7,390780747e-02    0,000000000e+00    0,000000000e+00    0,000000000e+00    0,000000000e+00
     1304000000    2,053074688e-01   -1,454264373e-01   -1,815030538e-02   -3,499553725e-02    0,000000000e+00    0,000000000e+00    0,000000000e+00    0,000000000e+00
     1318000000    1,143859029e-01   -3,138291538e-01   -1,655269531e-03    2,023763210e-02    0,000000000e+00    0,000000000e+00    0,000000000e+00    0,000000000e+00
     1332000000   -6,690246612e-02   -4,320698977e-01    4,047765955e-02    6,097277254e-02    0,000000000e+00    0,000000000e+00    0,000000000e+00    0,000000000e+00
     1346000000   -3,245082796e-01   -4,313409626e-01    1,460749805e-01    5,206166580e-02    0,000000000e+00    0,000000000e+00    0,000000000e+00    0,000000000e+00
     1360000000   -5,590022206e-01   -2,506623864e-01    1,136643663e-01   -8,197471499e-02    0,000000000e+00    0,000000000e+00    0,000000000e+00    0,000000000e+00
     1374000000   -6,184859276e-01    2,299807407e-02    1,040728614e-01    5,777021870e-02    0,000000000e+00    0,000000000e+00    0,000000000e+00    0,000000000e+00
     1388000000   -5,189834237e-01    2,899410427e-01    2,194287777e-01    4,794866312e-03    0,000000000e+00    0,000000000e+00    0,000000000e+00    0,000000000e+00
     1402000000   -3,144311011e-01    4,215757251e-01    2,151604295e-01   -8,509890735e-02    0,000000000e+00    0,000000000e+00    0,000000000e+00    0,000000000e+00
     1416000000   -9,702792764e-02    4,228008687e-01    1,893189549e-01   -1,229398251e-01    0,000000000e+00    0,000000000e+00    0,000000000e+00    0,000000000e+00
     1430000000    7,318361104e-02    3,408058584e-01    1,649252623e-01   -9,567856789e-02    0,000000000e+00    0,000000000e+00    0,000000000e+00    0,000000000e+00
     1444000000    1,751283556e-01    2,026819140e-01    1,551793069e-01   -9,818091244e-02    0,000000000e+00    0,000000000e+00    0,000000000e+00    0,000000000e+00
     1458000000    2,161248922e-01    3,584763408e-02    1,405066997e-01   -8,351213485e-02    0,000000000e+00    0,000000000e+00    0,000000000e+00    0,000000000e+00
     1472000000    2,056643218e-01   -1,428592503e-01    1,508304924e-01   -4,692727327e-02    0,000000000e+00    0,000000000e+00    0,000000000e+00    0,000000000e+00
     1486000000    1,083321273e-01   -3,254246712e-01    1,762119532e-01   -1,563918591e-02    0,000000000e+00    0,000000000e+00    0,000000000e+00    0,000000000e+00
     1500000000   -9,628523141e-02   -4,631274045e-01    1,999203712e-01    5,409434810e-02    0,000000000e+00    0,000000000e+00    0,000000000e+00    0,000000000e+00
