! NanoVNA-App
! Date: 2025-09-25 14:21:15
! Start: 100MHz Stop: 1,5GHz Points: 101
! S-Parameter data: F S11 S21 S12 S22
# Hz S RI R 50
!     Frequency           S11_Real           S11_Imag           S21_Real           S21_Imag           S12_Real           S12_Imag           S22_Real           S22_Imag
      100000000   -2,907947078e-02   -4,142755643e-03    3,744470477e-01   -7,220437527e-01    0,000000000e+00    0,000000000e+00    0,000000000e+00    0,000000000e+00
      114000000   -1,664477028e-02    1,159884222e-02   -8,902662992e-02   -8,058167100e-01    0,000000000e+00    0,000000000e+00    0,000000000e+00    0,000000000e+00
      128000000    3,368492238e-03    1,051327772e-02   -5,145523548e-01   -6,208397746e-01    0,000000000e+00    0,000000000e+00    0,000000000e+00    0,000000000e+00
      142000000    1,446558908e-02   -3,050844884e-03   -7,676249743e-01   -2,369533628e-01    0,000000000e+00    0,000000000e+00    0,000000000e+00    0,000000000e+00
      156000000    1,534695644e-02   -1,486924570e-02   -7,693471909e-01    2,233213186e-01    0,000000000e+00    0,000000000e+00    0,000000000e+00    0,000000000e+00
      170000000    1,659222506e-02   -2,251023240e-02   -5,186803341e-01    6,049641371e-01    0,000000000e+00    0,000000000e+00    0,000000000e+00    0,000000000e+00
      184000000    2,099642158e-02   -3,708787262e-02   -1,015994698e-01    7,863903642e-01    0,000000000e+00    0,000000000e+00    0,000000000e+00    0,000000000e+00
      198000000    1,302038785e-02   -6,260028481e-02    3,433214724e-01    7,129118443e-01    0,000000000e+00    0,000000000e+00    0,000000000e+00    0,000000000e+00
      212000000   -1,873831637e-02   -8,169160783e-02    6,783661246e-01    4,104075730e-01    0,000000000e+00    0,000000000e+00    0,000000000e+00    0,000000000e+00
      226000000   -6,207941845e-02   -6,966711581e-02    7,961280346e-01   -2,975661494e-02    0,000000000e+00    0,000000000e+00    0,000000000e+00    0,000000000e+00
      240000000   -8,317989856e-02   -2,597458474e-02    6,471344233e-01   -4,665838480e-01    0,000000000e+00    0,000000000e+00    0,000000000e+00    0,000000000e+00
      254000000   -6,431874633e-02    1,728765666e-02    2,771593928e-01   -7,434834838e-01    0,000000000e+00    0,000000000e+00    0,000000000e+00    0,000000000e+00
      268000000   -2,427014709e-02    2,946387231e-02   -1,770047247e-01   -7,654610276e-01    0,000000000e+00    0,000000000e+00    0,000000000e+00    0,000000000e+00
      282000000    4,161292221e-03    1,207325887e-02   -5,625742078e-01   -5,374299884e-01    0,000000000e+00    0,000000000e+00    0,000000000e+00    0,000000000e+00
      296000000    9,630436078e-03   -7,626209874e-03   -7,609140277e-01   -1,396870613e-01    0,000000000e+00    0,000000000e+00    0,000000000e+00    0,000000000e+00
      310000000    1,104716305e-02   -1,616394334e-02   -7,124951482e-01    2,972827554e-01    0,000000000e+00    0,000000000e+00    0,000000000e+00    0,000000000e+00
      324000000    1,973577589e-02   -2,642587014e-02   -4,281169772e-01    6,382089853e-01    0,000000000e+00    0,000000000e+00    0,000000000e+00    0,000000000e+00
      338000000    2,554972470e-02   -5,209666491e-02   -1,081287302e-02    7,638095617e-01    0,000000000e+00    0,000000000e+00    0,000000000e+00    0,000000000e+00
      352000000    7,291107439e-03   -8,496107906e-02    4,065320194e-01    6,410159469e-01    0,000000000e+00    0,000000000e+00    0,000000000e+00    0,000000000e+00
      366000000   -3,493458778e-02   -9,578119218e-02    6,911839247e-01    3,128063381e-01    0,000000000e+00    0,000000000e+00    0,000000000e+00    0,000000000e+00
      380000000   -7,137455791e-02   -7,115951180e-02    7,486536503e-01   -1,243453100e-01    0,000000000e+00    0,000000000e+00    0,000000000e+00    0,000000000e+00
      394000000   -7,339248061e-02   -3,231455758e-02    5,472611189e-01   -5,208663940e-01    0,000000000e+00    0,000000000e+00    0,000000000e+00    0,000000000e+00
      408000000   -4,692690447e-02   -1,544421818e-02    1,616238952e-01   -7,319051623e-01    0,000000000e+00    0,000000000e+00    0,000000000e+00    0,000000000e+00
      422000000   -2,854133211e-02   -3,159638494e-02   -2,661034465e-01   -6,957958341e-01    0,000000000e+00    0,000000000e+00    0,000000000e+00    0,000000000e+00
      436000000   -3,999883682e-02   -5,178929120e-02   -6,025540233e-01   -4,337671101e-01    0,000000000e+00    0,000000000e+00    0,000000000e+00    0,000000000e+00
      450000000   -6,745817512e-02   -4,456434399e-02   -7,405217290e-01   -2,477759868e-02    0,000000000e+00    0,000000000e+00    0,000000000e+00    0,000000000e+00
      464000000   -7,420245558e-02   -1,211658400e-02   -6,210991144e-01    3,953870237e-01    0,000000000e+00    0,000000000e+00    0,000000000e+00    0,000000000e+00
      478000000   -4,897221550e-02    1,178345550e-02   -2,869381607e-01    6,678801179e-01    0,000000000e+00    0,000000000e+00    0,000000000e+00    0,000000000e+00
      492000000   -1,705266349e-02    6,643691566e-03    1,346608996e-01    7,038684487e-01    0,000000000e+00    0,000000000e+00    0,000000000e+00    0,000000000e+00
      506000000   -3,761406057e-03   -1,513119414e-02    4,971990287e-01    5,059859753e-01    0,000000000e+00    0,000000000e+00    0,000000000e+00    0,000000000e+00
      520000000   -5,860962439e-03   -2,962721512e-02    6,898589730e-01    1,425827593e-01    0,000000000e+00    0,000000000e+00    0,000000000e+00    0,000000000e+00
      534000000   -3,424565773e-03   -3,624742106e-02    6,446825266e-01   -2,598093748e-01    0,000000000e+00    0,000000000e+00    0,000000000e+00    0,000000000e+00
      548000000    7,907502353e-03   -5,262130499e-02    3,847132921e-01   -5,641269088e-01    0,000000000e+00    0,000000000e+00    0,000000000e+00    0,000000000e+00
      562000000    5,606049206e-03   -8,948917687e-02    7,789579220e-03   -6,722115278e-01    0,000000000e+00    0,000000000e+00    0,000000000e+00    0,000000000e+00
      576000000   -3,111593798e-02   -1,259077042e-01   -3,628225327e-01   -5,608700514e-01    0,000000000e+00    0,000000000e+00    0,000000000e+00    0,000000000e+00
      590000000   -9,480325133e-02   -1,279895455e-01   -6,157623529e-01   -2,711206973e-01    0,000000000e+00    0,000000000e+00    0,000000000e+00    0,000000000e+00
      604000000   -1,428885460e-01   -7,828223705e-02   -6,672168970e-01    1,261245459e-01    0,000000000e+00    0,000000000e+00    0,000000000e+00    0,000000000e+00
      618000000   -1,377366632e-01   -1,159168966e-02   -4,747235477e-01    4,854547679e-01    0,000000000e+00    0,000000000e+00    0,000000000e+00    0,000000000e+00
      632000000   -9,274515510e-02    2,182450145e-02   -1,141598672e-01    6,632369757e-01    0,000000000e+00    0,000000000e+00    0,000000000e+00    0,000000000e+00
      646000000   -5,508159846e-02    1,248611696e-02    2,746750116e-01    6,046283245e-01    0,000000000e+00    0,000000000e+00    0,000000000e+00    0,000000000e+00
      660000000   -4,781950265e-02   -8,251370862e-03    5,576046109e-01    3,408835232e-01    0,000000000e+00    0,000000000e+00    0,000000000e+00    0,000000000e+00
      674000000   -5,625327304e-02   -1,019491721e-02    6,442288160e-01   -3,972056881e-02    0,000000000e+00    0,000000000e+00    0,000000000e+00    0,000000000e+00
      688000000   -5,096800625e-02    3,268421628e-03    4,925228357e-01   -4,021234810e-01    0,000000000e+00    0,000000000e+00    0,000000000e+00    0,000000000e+00
      702000000   -2,517667972e-02    7,483812980e-03    1,605891287e-01   -6,026730537e-01    0,000000000e+00    0,000000000e+00    0,000000000e+00    0,000000000e+00
      716000000   -2,370822942e-03   -9,856726974e-03   -2,184749544e-01   -5,761016607e-01    0,000000000e+00    0,000000000e+00    0,000000000e+00    0,000000000e+00
      730000000    9,205931798e-03   -3,413707018e-02   -5,094841719e-01   -3,325681090e-01    0,000000000e+00    0,000000000e+00    0,000000000e+00    0,000000000e+00
      744000000    1,722191460e-02   -6,093715504e-02   -6,008819938e-01    3,281055391e-02    0,000000000e+00    0,000000000e+00    0,000000000e+00    0,000000000e+00
      758000000    2,203898504e-02   -1,031702235e-01   -4,541622102e-01    3,771853745e-01    0,000000000e+00    0,000000000e+00    0,000000000e+00    0,000000000e+00
      772000000   -4,755477887e-03   -1,741517037e-01   -1,400207430e-01    5,589427948e-01    0,000000000e+00    0,000000000e+00    0,000000000e+00    0,000000000e+00
      786000000   -1,060553789e-01   -2,326333374e-01    2,112535685e-01    5,190011859e-01    0,000000000e+00    0,000000000e+00    0,000000000e+00    0,000000000e+00
      800000000   -2,659493089e-01   -1,932914704e-01    4,711615443e-01    2,758202851e-01    0,000000000e+00    0,000000000e+00    0,000000000e+00    0,000000000e+00
      814000000   -3,649981916e-01    3,744764719e-03    5,076379180e-01   -8,869802952e-02    0,000000000e+00    0,000000000e+00    0,000000000e+00    0,000000000e+00
      828000000   -2,481531948e-01    2,326517999e-01    2,809904516e-01   -3,522124290e-01    0,000000000e+00    0,000000000e+00    0,000000000e+00    0,000000000e+00
      842000000    1,295921486e-02    2,788377702e-01   -1,612249948e-02   -3,621368408e-01    0,000000000e+00    0,000000000e+00    0,000000000e+00    0,000000000e+00
      856000000    2,128349096e-01    1,156673208e-01   -1,876242012e-01   -2,047424465e-01    0,000000000e+00    0,000000000e+00    0,000000000e+00    0,000000000e+00
      870000000    2,390763462e-01   -1,490853280e-01   -2,002876103e-01   -2,581470087e-02    0,000000000e+00    0,000000000e+00    0,000000000e+00    0,000000000e+00
      884000000    3,705300763e-02   -3,860459626e-01   -1,044242233e-01    7,052912563e-02    0,000000000e+00    0,000000000e+00    0,000000000e+00    0,000000000e+00
      898000000   -3,685654104e-01   -3,417789042e-01   -1,685950719e-02    2,689363621e-02    0,000000000e+00    0,000000000e+00    0,000000000e+00    0,000000000e+00
      912000000   -4,673339427e-01    1,381935179e-01   -1,057409868e-01    3,209983930e-02    0,000000000e+00    0,000000000e+00    0,000000000e+00    0,000000000e+00
      926000000   -9,539534152e-02    3,507323265e-01   -1,282898784e-01    1,328407228e-01    0,000000000e+00    0,000000000e+00    0,000000000e+00    0,000000000e+00
      940000000    1,831345111e-01    1,950637102e-01   -3,629969805e-02    2,165009677e-01    0,000000000e+00    0,000000000e+00    0,000000000e+00    0,000000000e+00
      954000000    2,522536814e-01   -4,750509560e-02    7,943953574e-02    2,282139063e-01    0,000000000e+00    0,000000000e+00    0,000000000e+00    0,000000000e+00
      968000000    1,769275814e-01   -2,627524137e-01    1,920874417e-01    1,800173670e-01    0,000000000e+00    0,000000000e+00    0,000000000e+00    0,000000000e+00
      982000000   -1,524903439e-02   -3,915424943e-01    2,797704935e-01    7,900190353e-02    0,000000000e+00    0,000000000e+00    0,000000000e+00    0,000000000e+00
      996000000   -2,754972577e-01   -3,741644621e-01    3,101116419e-01   -7,730965316e-02    0,000000000e+00    0,000000000e+00    0,000000000e+00    0,000000000e+00
     1010000000   -4,690092802e-01   -1,742997915e-01    2,209985554e-01   -2,529923916e-01    0,000000000e+00    0,000000000e+00    0,000000000e+00    0,000000000e+00
     1024000000   -4,632763267e-01    1,174898446e-01    2,106190473e-02   -3,298785388e-01    0,000000000e+00    0,000000000e+00    0,000000000e+00    0,000000000e+00
     1038000000   -2,634112239e-01    3,014477491e-01   -1,738738567e-01   -2,472285032e-01    0,000000000e+00    0,000000000e+00    0,000000000e+00    0,000000000e+00
     1052000000   -3,832652420e-02    3,058762252e-01   -2,562929690e-01   -7,583267242e-02    0,000000000e+00    0,000000000e+00    0,000000000e+00    0,000000000e+00
     1066000000    1,287810057e-01    2,031197250e-01   -2,270417958e-01    8,787349612e-02    0,000000000e+00    0,000000000e+00    0,000000000e+00    0,000000000e+00
     1080000000    2,052414119e-01    4,923115298e-02   -1,199684888e-01    1,917395294e-01    0,000000000e+00    0,000000000e+00    0,000000000e+00    0,000000000e+00
     1094000000    1,995221972e-01   -1,276314259e-01    1,628550701e-02    2,342525274e-01    0,000000000e+00    0,000000000e+00    0,000000000e+00    0,000000000e+00
     1108000000    9,953526407e-02   -2,832053602e-01    1,664647311e-01    2,081927359e-01    0,000000000e+00    0,000000000e+00    0,000000000e+00    0,000000000e+00
     1122000000   -1,025198326e-01   -3,647101223e-01    3,151990771e-01    9,019999206e-02    0,000000000e+00    0,000000000e+00    0,000000000e+00    0,000000000e+00
     1136000000   -3,437237740e-01   -2,656538785e-01    3,938488662e-01   -1,516584754e-01    0,000000000e+00    0,000000000e+00    0,000000000e+00    0,000000000e+00
     1150000000   -4,127024710e-01    3,359698504e-02    2,440361828e-01   -4,381828606e-01    0,000000000e+00    0,000000000e+00    0,000000000e+00    0,000000000e+00
     1164000000   -1,610654593e-01    2,136763781e-01   -9,419455379e-02   -5,164980888e-01    0,000000000e+00    0,000000000e+00    0,000000000e+00    0,000000000e+00
     1178000000    7,210707664e-02    8,622435480e-02   -3,561266065e-01   -3,470640481e-01    0,000000000e+00    0,000000000e+00    0,000000000e+00    0,000000000e+00
     1192000000    7,629930973e-02   -1,740424484e-01   -4,531474113e-01   -8,434040844e-02    0,000000000e+00    0,000000000e+00    0,000000000e+00    0,000000000e+00
     1206000000   -1,622042805e-01   -3,252554238e-01   -3,681713641e-01    1,908465028e-01    0,000000000e+00    0,000000000e+00    0,000000000e+00    0,000000000e+00
     1220000000   -4,529855847e-01   -1,822858900e-01   -1,050679609e-01    3,263650239e-01    0,000000000e+00    0,000000000e+00    0,000000000e+00    0,000000000e+00
     1234000000   -4,708226621e-01    1,635952592e-01    1,414934844e-01    2,216157168e-01    0,000000000e+00    0,000000000e+00    0,000000000e+00    0,000000000e+00
     1248000000   -2,393903434e-01    3,572832346e-01    1,893363148e-01    3,434521332e-02    0,000000000e+00    0,000000000e+00    0,000000000e+00    0,000000000e+00
     1262000000    7,405882236e-03    3,257902861e-01    1,282400191e-01   -7,400739938e-02    0,000000000e+00    0,000000000e+00    0,000000000e+00    0,000000000e+00
     1276000000    1,524565816e-01    2,008884996e-01    5,274733156e-02   -9,467525780e-02    0,000000000e+00    0,000000000e+00    0,000000000e+00    0,000000000e+00
     1290000000    2,227694243e-01    3,104653209e-02    1,892459579e-03   -7,272832096e-02    0,000000000e+00    0,000000000e+00    0,000000000e+00    0,000000000e+00
     1304000000    2,042022496e-01   -1,483667195e-01   -1,866169088e-02   -3,247312829e-02    0,000000000e+00    0,000000000e+00    0,000000000e+00    0,000000000e+00
     1318000000    1,156119853e-01   -3,148773313e-01   -5,419507623e-03    1,718275808e-02    0,000000000e+00    0,000000000e+00    0,000000000e+00    0,000000000e+00
     1332000000   -6,932780892e-02   -4,295596480e-01    4,711519554e-02    6,954129040e-02    0,000000000e+00    0,000000000e+00    0,000000000e+00    0,000000000e+00
     1346000000   -3,267616034e-01   -4,373044670e-01    1,493847817e-01    5,120333284e-02    0,000000000e+00    0,000000000e+00    0,000000000e+00    0,000000000e+00
     1360000000   -5,503085256e-01   -2,331734896e-01    1,188541576e-01   -6,969526410e-02    0,000000000e+00    0,000000000e+00    0,000000000e+00    0,000000000e+00
     1374000000   -6,296495199e-01    3,603838012e-02    1,028689221e-01    5,769845471e-02    0,000000000e+00    0,000000000e+00    0,000000000e+00    0,000000000e+00
     1388000000   -5,212971568e-01    2,886123657e-01    2,129738778e-01    7,024766412e-03    0,000000000e+00    0,000000000e+00    0,000000000e+00    0,000000000e+00
     1402000000   -3,041114211e-01    4,179442823e-01    2,182862610e-01   -8,874038607e-02    0,000000000e+00    0,000000000e+00    0,000000000e+00    0,000000000e+00
     1416000000   -9,529934824e-02    4,145069122e-01    1,901016384e-01   -1,327228695e-01    0,000000000e+00    0,000000000e+00    0,000000000e+00    0,000000000e+00
     1430000000    6,119737402e-02    3,350211084e-01    1,494156718e-01   -9,880615026e-02    0,000000000e+00    0,000000000e+00    0,000000000e+00    0,000000000e+00
     1444000000    1,806084663e-01    1,968087107e-01    1,482884884e-01   -1,051791534e-01    0,000000000e+00    0,000000000e+00    0,000000000e+00    0,000000000e+00
     1458000000    2,212929577e-01    3,625413775e-02    1,441426426e-01   -8,485852182e-02    0,000000000e+00    0,000000000e+00    0,000000000e+00    0,000000000e+00
     1472000000    2,034062743e-01   -1,452693045e-01    1,433551908e-01   -4,286239296e-02    0,000000000e+00    0,000000000e+00    0,000000000e+00    0,000000000e+00
     1486000000    1,042230651e-01   -3,223030865e-01    1,647473574e-01   -1,261226647e-02    0,000000000e+00    0,000000000e+00    0,000000000e+00    0,000000000e+00
     1500000000   -8,118451387e-02   -4,589786530e-01    2,132679522e-01    4,393362254e-02    0,000000000e+00    0,000000000e+00    0,000000000e+00    0,000000000e+00
