! NanoVNA-App
! Date: 2025-09-25 14:21:14
! Start: 100MHz Stop: 1,5GHz Points: 101
! S-Parameter data: F S11 S21 S12 S22
# Hz S RI R 50
!     Frequency           S11_Real           S11_Imag           S21_Real           S21_Imag           S12_Real           S12_Imag           S22_Real           S22_Imag
      100000000   -2,908456139e-02   -4,148154985e-03    3,744211197e-01   -7,220753431e-01    0,000000000e+00    0,000000000e+00    0,000000000e+00    0,000000000e+00
      114000000   -1,665600576e-02    1,159157790e-02   -8,891218156e-02   -8,057936430e-01    0,000000000e+00    0,000000000e+00    0,000000000e+00    0,000000000e+00
      128000000    3,432534868e-03    1,048501767e-02   -5,147508383e-01   -6,210241914e-01    0,000000000e+00    0,000000000e+00    0,000000000e+00    0,000000000e+00
      142000000    1,446610875e-02   -3,050401574e-03   -7,674802542e-01   -2,368543893e-01    0,000000000e+00    0,000000000e+00    0,000000000e+00    0,000000000e+00
      156000000    1,468953863e-02   -1,499177702e-02   -7,672354579e-01    2,182848603e-01    0,000000000e+00    0,000000000e+00    0,000000000e+00    0,000000000e+00
      170000000    1,653442159e-02   -2,259116620e-02   -5,187610388e-01    6,051376462e-01    0,000000000e+00    0,000000000e+00    0,000000000e+00    0,000000000e+00
      184000000    2,097474784e-02   -3,716011345e-02   -1,019132063e-01    7,865407467e-01    0,000000000e+00    0,000000000e+00    0,000000000e+00    0,000000000e+00
      198000000    1,303785760e-02   -6,263656914e-02    3,431016505e-01    7,134550214e-01    0,000000000e+00    0,000000000e+00    0,000000000e+00    0,000000000e+00
      212000000   -1,876851171e-02   -8,170116693e-02    6,783001423e-01    4,104192853e-01    0,000000000e+00    0,000000000e+00    0,000000000e+00    0,000000000e+00
      226000000   -6,214120239e-02   -6,958876550e-02    7,961069942e-01   -2,979027107e-02    0,000000000e+00    0,000000000e+00    0,000000000e+00    0,000000000e+00
      240000000   -8,317273110e-02   -2,606625855e-02    6,472086310e-01   -4,666682184e-01    0,000000000e+00    0,000000000e+00    0,000000000e+00    0,000000000e+00
      254000000   -6,428626180e-02    1,732962579e-02    2,770873010e-01   -7,435052991e-01    0,000000000e+00    0,000000000e+00    0,000000000e+00    0,000000000e+00
      268000000   -2,425358072e-02    2,946250141e-02   -1,771073788e-01   -7,653956413e-01    0,000000000e+00    0,000000000e+00    0,000000000e+00    0,000000000e+00
      282000000    4,055570345e-03    1,214724593e-02   -5,624998212e-01   -5,372885466e-01    0,000000000e+00    0,000000000e+00    0,000000000e+00    0,000000000e+00
      296000000    9,662423283e-03   -7,550282869e-03   -7,607827187e-01   -1,392750144e-01    0,000000000e+00    0,000000000e+00    0,000000000e+00    0,000000000e+00
      310000000    1,084851474e-02   -1,617289707e-02   -7,131052613e-01    2,965140045e-01    0,000000000e+00    0,000000000e+00    0,000000000e+00    0,000000000e+00
      324000000    1,945833303e-02   -2,656270191e-02   -4,278509915e-01    6,366734505e-01    0,000000000e+00    0,000000000e+00    0,000000000e+00    0,000000000e+00
      338000000    2,565456927e-02   -5,200887099e-02   -1,017893013e-02    7,628067136e-01    0,000000000e+00    0,000000000e+00    0,000000000e+00    0,000000000e+00
      352000000    7,468854543e-03   -8,489394188e-02    4,052125514e-01    6,406828761e-01    0,000000000e+00    0,000000000e+00    0,000000000e+00    0,000000000e+00
      366000000   -3,519369662e-02   -9,612517804e-02    6,906152964e-01    3,126772642e-01    0,000000000e+00    0,000000000e+00    0,000000000e+00    0,000000000e+00
      380000000   -7,138131559e-02   -7,127195597e-02    7,482370734e-01   -1,252854913e-01    0,000000000e+00    0,000000000e+00    0,000000000e+00    0,000000000e+00
      394000000   -7,317121327e-02   -3,245029971e-02    5,479525328e-01   -5,219411254e-01    0,000000000e+00    0,000000000e+00    0,000000000e+00    0,000000000e+00
      408000000   -4,710705951e-02   -1,571488567e-02    1,615124196e-01   -7,327205539e-01    0,000000000e+00    0,000000000e+00    0,000000000e+00    0,000000000e+00
      422000000   -2,834521048e-02   -3,152384609e-02   -2,664308250e-01   -6,961421967e-01    0,000000000e+00    0,000000000e+00    0,000000000e+00    0,000000000e+00
      436000000   -4,035815224e-02   -5,188303068e-02   -6,025132537e-01   -4,339459538e-01    0,000000000e+00    0,000000000e+00    0,000000000e+00    0,000000000e+00
      450000000   -6,740718335e-02   -4,448906332e-02   -7,398506999e-01   -2,478519641e-02    0,000000000e+00    0,000000000e+00    0,000000000e+00    0,000000000e+00
      464000000   -7,422268391e-02   -1,208754070e-02   -6,214813590e-01    3,956341743e-01    0,000000000e+00    0,000000000e+00    0,000000000e+00    0,000000000e+00
      478000000   -4,942931235e-02    1,169122010e-02   -2,867101729e-01    6,676923037e-01    0,000000000e+00    0,000000000e+00    0,000000000e+00    0,000000000e+00
      492000000   -1,690182276e-02    6,424847525e-03    1,344591081e-01    7,042607665e-01    0,000000000e+00    0,000000000e+00    0,000000000e+00    0,000000000e+00
      506000000   -3,906412981e-03   -1,526867691e-02    4,980172515e-01    5,059499741e-01    0,000000000e+00    0,000000000e+00    0,000000000e+00    0,000000000e+00
      520000000   -5,723727867e-03   -2,985544875e-02    6,911613941e-01    1,447519958e-01    0,000000000e+00    0,000000000e+00    0,000000000e+00    0,000000000e+00
      534000000   -3,005537903e-03   -3,559236228e-02    6,447712779e-01   -2,595307827e-01    0,000000000e+00    0,000000000e+00    0,000000000e+00    0,000000000e+00
      548000000    8,158684708e-03   -5,242707208e-02    3,853127658e-01   -5,635228157e-01    0,000000000e+00    0,000000000e+00    0,000000000e+00    0,000000000e+00
      562000000    5,586973391e-03   -8,949956298e-02    8,086043410e-03   -6,709282994e-01    0,000000000e+00    0,000000000e+00    0,000000000e+00    0,000000000e+00
      576000000   -3,161580116e-02   -1,261791438e-01   -3,626293540e-01   -5,613241792e-01    0,000000000e+00    0,000000000e+00    0,000000000e+00    0,000000000e+00
      590000000   -9,487801045e-02   -1,277040541e-01   -6,154757142e-01   -2,727516294e-01    0,000000000e+00    0,000000000e+00    0,000000000e+00    0,000000000e+00
      604000000   -1,426462531e-01   -7,814696431e-02   -6,669775844e-01    1,262431294e-01    0,000000000e+00    0,000000000e+00    0,000000000e+00    0,000000000e+00
      618000000   -1,378342807e-01   -1,168970391e-02   -4,754950404e-01    4,855508208e-01    0,000000000e+00    0,000000000e+00    0,000000000e+00    0,000000000e+00
      632000000   -9,348895401e-02    2,130290121e-02   -1,136684120e-01    6,627121568e-01    0,000000000e+00    0,000000000e+00    0,000000000e+00    0,000000000e+00
      646000000   -5,543837696e-02    1,249658410e-02    2,738174796e-01    6,038017869e-01    0,000000000e+00    0,000000000e+00    0,000000000e+00    0,000000000e+00
      660000000   -4,742533714e-02   -8,768644184e-03    5,581309795e-01    3,401881158e-01    0,000000000e+00    0,000000000e+00    0,000000000e+00    0,000000000e+00
      674000000   -5,537077785e-02   -1,039300021e-02    6,442595720e-01   -3,959798440e-02    0,000000000e+00    0,000000000e+00    0,000000000e+00    0,000000000e+00
      688000000   -5,026166141e-02    2,377279336e-03    4,925817251e-01   -4,018632472e-01    0,000000000e+00    0,000000000e+00    0,000000000e+00    0,000000000e+00
      702000000   -2,604404837e-02    7,957723923e-03    1,593043059e-01   -6,037465930e-01    0,000000000e+00    0,000000000e+00    0,000000000e+00    0,000000000e+00
      716000000   -2,620908897e-03   -8,906905539e-03   -2,183217406e-01   -5,750377178e-01    0,000000000e+00    0,000000000e+00    0,000000000e+00    0,000000000e+00
      730000000    1,022775006e-02   -3,398483619e-02   -5,089927912e-01   -3,336851299e-01    0,000000000e+00    0,000000000e+00    0,000000000e+00    0,000000000e+00
      744000000    1,685521565e-02   -6,040051952e-02   -6,005142927e-01    3,298064694e-02    0,000000000e+00    0,000000000e+00    0,000000000e+00    0,000000000e+00
      758000000    2,159566991e-02   -1,038598642e-01   -4,538692534e-01    3,772360981e-01    0,000000000e+00    0,000000000e+00    0,000000000e+00    0,000000000e+00
      772000000   -5,243391264e-03   -1,740531474e-01   -1,391734779e-01    5,577063560e-01    0,000000000e+00    0,000000000e+00    0,000000000e+00    0,000000000e+00
      786000000   -1,055854931e-01   -2,318666577e-01    2,111895233e-01    5,194835067e-01    0,000000000e+00    0,000000000e+00    0,000000000e+00    0,000000000e+00
      800000000   -2,652198076e-01   -1,927532107e-01    4,714196622e-01    2,753753960e-01    0,000000000e+00    0,000000000e+00    0,000000000e+00    0,000000000e+00
      814000000   -3,647225797e-01    2,969555091e-03    5,077282190e-01   -8,865121007e-02    0,000000000e+00    0,000000000e+00    0,000000000e+00    0,000000000e+00
      828000000   -2,477097958e-01    2,333543152e-01    2,820709050e-01   -3,518712521e-01    0,000000000e+00    0,000000000e+00    0,000000000e+00    0,000000000e+00
      842000000    1,175010484e-02    2,783198357e-01   -1,633253880e-02   -3,633028567e-01    0,000000000e+00    0,000000000e+00    0,000000000e+00    0,000000000e+00
      856000000    2,125017792e-01    1,148960441e-01   -1,877690554e-01   -2,054942697e-01    0,000000000e+00    0,000000000e+00    0,000000000e+00    0,000000000e+00
      870000000    2,384897470e-01   -1,481914222e-01   -2,006755769e-01   -2,538997121e-02    0,000000000e+00    0,000000000e+00    0,000000000e+00    0,000000000e+00
      884000000    3,752259910e-02   -3,865054250e-01   -1,031356454e-01    7,096557319e-02    0,000000000e+00    0,000000000e+00    0,000000000e+00    0,000000000e+00
      898000000   -3,696007729e-01   -3,411984444e-01   -1,726896688e-02    2,787973359e-02    0,000000000e+00    0,000000000e+00    0,000000000e+00    0,000000000e+00
      912000000   -4,666581750e-01    1,385422945e-01   -1,129442081e-01    2,160218172e-02    0,000000000e+00    0,000000000e+00    0,000000000e+00    0,000000000e+00
      926000000   -9,699556977e-02    3,501563966e-01   -1,293320507e-01    1,331795603e-01    0,000000000e+00    0,000000000e+00    0,000000000e+00    0,000000000e+00
      940000000    1,855161786e-01    1,958793104e-01   -3,974001482e-02    2,173645347e-01    0,000000000e+00    0,000000000e+00    0,000000000e+00    0,000000000e+00
      954000000    2,541051209e-01   -4,727652669e-02    7,902494073e-02    2,281155735e-01    0,000000000e+00    0,000000000e+00    0,000000000e+00    0,000000000e+00
      968000000    1,781711727e-01   -2,623868287e-01    1,909633428e-01    1,805860400e-01    0,000000000e+00    0,000000000e+00    0,000000000e+00    0,000000000e+00
      982000000   -1,500575244e-02   -3,917799294e-01    2,813751698e-01    7,812345773e-02    0,000000000e+00    0,000000000e+00    0,000000000e+00    0,000000000e+00
      996000000   -2,754524946e-01   -3,794226646e-01    3,077333272e-01   -8,011206985e-02    0,000000000e+00    0,000000000e+00    0,000000000e+00    0,000000000e+00
     1010000000   -4,677608013e-01   -1,761055887e-01    2,212827355e-01   -2,527799904e-01    0,000000000e+00    0,000000000e+00    0,000000000e+00    0,000000000e+00
     1024000000   -4,612332284e-01    1,203325391e-01    2,116353810e-02   -3,303017616e-01    0,000000000e+00    0,000000000e+00    0,000000000e+00    0,000000000e+00
     1038000000   -2,693123221e-01    2,989343107e-01   -1,733879894e-01   -2,461878359e-01    0,000000000e+00    0,000000000e+00    0,000000000e+00    0,000000000e+00
     1052000000   -3,468968347e-02    3,085187078e-01   -2,590311766e-01   -7,744152099e-02    0,000000000e+00    0,000000000e+00    0,000000000e+00    0,000000000e+00
     1066000000    1,248050034e-01    2,026432902e-01   -2,238654643e-01    8,564088494e-02    0,000000000e+00    0,000000000e+00    0,000000000e+00    0,000000000e+00
     1080000000    2,072637081e-01    4,866404831e-02   -1,212075576e-01    1,941657066e-01    0,000000000e+00    0,000000000e+00    0,000000000e+00    0,000000000e+00
     1094000000    1,987995058e-01   -1,263858825e-01    1,947395876e-02    2,341461033e-01    0,000000000e+00    0,000000000e+00    0,000000000e+00    0,000000000e+00
     1108000000    9,790011495e-02   -2,861405909e-01    1,706228256e-01    2,086891681e-01    0,000000000e+00    0,000000000e+00    0,000000000e+00    0,000000000e+00
     1122000000   -9,705614299e-02   -3,648028374e-01    3,151586056e-01    8,785011619e-02    0,000000000e+00    0,000000000e+00    0,000000000e+00    0,000000000e+00
     1136000000   -3,466390669e-01   -2,727469802e-01    3,917131126e-01   -1,494804323e-01    0,000000000e+00    0,000000000e+00    0,000000000e+00    0,000000000e+00
     1150000000   -4,118525386e-01    3,882222250e-02    2,431767434e-01   -4,361090362e-01    0,000000000e+00    0,000000000e+00    0,000000000e+00    0,000000000e+00
     1164000000   -1,607134044e-01    2,146414816e-01   -9,025303274e-02   -5,149725080e-01    0,000000000e+00    0,000000000e+00    0,000000000e+00    0,000000000e+00
     1178000000    7,740519941e-02    8,027550578e-02   -3,564325571e-01   -3,470882773e-01    0,000000000e+00    0,000000000e+00    0,000000000e+00    0,000000000e+00
     1192000000    7,693338394e-02   -1,759670526e-01   -4,518761635e-01   -8,534442633e-02    0,000000000e+00    0,000000000e+00    0,000000000e+00    0,000000000e+00
     1206000000   -1,641376615e-01   -3,292622864e-01   -3,681503236e-01    1,854312122e-01    0,000000000e+00    0,000000000e+00    0,000000000e+00    0,000000000e+00
     1220000000   -4,583102763e-01   -1,784874797e-01   -1,097928360e-01    3,306508064e-01    0,000000000e+00    0,000000000e+00    0,000000000e+00    0,000000000e+00
     1234000000   -4,775234461e-01    1,651699990e-01    1,363896728e-01    2,169667184e-01    0,000000000e+00    0,000000000e+00    0,000000000e+00    0,000000000e+00
     1248000000   -2,355625629e-01    3,514264822e-01    1,964050978e-01    3,665493056e-02    0,000000000e+00    0,000000000e+00    0,000000000e+00    0,000000000e+00
     1262000000    3,505695495e-04    3,334842324e-01    1,239735633e-01   -7,177726179e-02    0,000000000e+00    0,000000000e+00    0,000000000e+00    0,000000000e+00
     1276000000    1,572331339e-01    1,977984160e-01    5,874055997e-02   -9,416005015e-02    0,000000000e+00    0,000000000e+00    0,000000000e+00    0,000000000e+00
     1290000000    2,132376581e-01    3,084288724e-02   -1,229366404e-03   -7,484096289e-02    0,000000000e+00    0,000000000e+00    0,000000000e+00    0,000000000e+00
     1304000000    2,056688815e-01   -1,429875344e-01   -2,045433782e-02   -2,714591846e-02    0,000000000e+00    0,000000000e+00    0,000000000e+00    0,000000000e+00
     1318000000    1,150089428e-01   -3,117552400e-01   -2,069971524e-03    1,877289452e-02    0,000000000e+00    0,000000000e+00    0,000000000e+00    0,000000000e+00
     1332000000   -6,603013724e-02   -4,320185781e-01    4,327844083e-02    6,318815798e-02    0,000000000e+00    0,000000000e+00    0,000000000e+00    0,000000000e+00
     1346000000   -3,267469108e-01   -4,320655167e-01    1,497474015e-01    5,576199666e-02    0,000000000e+00    0,000000000e+00    0,000000000e+00    0,000000000e+00
     1360000000   -5,536073446e-01   -2,479970157e-01    1,157078892e-01   -8,487721533e-02    0,000000000e+00    0,000000000e+00    0,000000000e+00    0,000000000e+00
     1374000000   -6,145564914e-01    2,540140599e-02    1,036776826e-01    5,067956448e-02    0,000000000e+00    0,000000000e+00    0,000000000e+00    0,000000000e+00
     1388000000   -5,195301771e-01    2,953136265e-01    2,214003652e-01    2,323928289e-03    0,000000000e+00    0,000000000e+00    0,000000000e+00    0,000000000e+00
     1402000000   -3,001106083e-01    4,229311645e-01    2,189311832e-01   -7,750636339e-02    0,000000000e+00    0,000000000e+00    0,000000000e+00    0,000000000e+00
     1416000000   -8,912417293e-02    4,188438058e-01    1,880241632e-01   -1,189546138e-01    0,000000000e+00    0,000000000e+00    0,000000000e+00    0,000000000e+00
     1430000000    6,208040938e-02    3,347769082e-01    1,458673626e-01   -1,190167814e-01    0,000000000e+00    0,000000000e+00    0,000000000e+00    0,000000000e+00
     1444000000    1,752942353e-01    2,009060234e-01    1,564246863e-01   -9,725441039e-02    0,000000000e+00    0,000000000e+00    0,000000000e+00    0,000000000e+00
     1458000000    2,243552655e-01    3,938722610e-02    1,459404528e-01   -7,403448969e-02    0,000000000e+00    0,000000000e+00    0,000000000e+00    0,000000000e+00
     1472000000    2,047603875e-01   -1,439079493e-01    1,587812752e-01   -5,072843283e-02    0,000000000e+00    0,000000000e+00    0,000000000e+00    0,000000000e+00
     1486000000    1,061156690e-01   -3,209677339e-01    1,641477495e-01   -1,300490275e-02    0,000000000e+00    0,000000000e+00    0,000000000e+00    0,000000000e+00
     1500000000   -8,462179452e-02   -4,697263539e-01    2,210640609e-01    5,790845677e-02    0,000000000e+00    0,000000000e+00    0,000000000e+00    0,000000000e+00
