! NanoVNA-App
! Date: 2025-09-25 14:27:38
! Start: 100MHz Stop: 1,5GHz Points: 101
! S-Parameter data: F S11 S21 S12 S22
# Hz S RI R 50
!     Frequency           S11_Real           S11_Imag           S21_Real           S21_Imag           S12_Real           S12_Imag           S22_Real           S22_Imag
      100000000   -2,909466065e-02   -4,139801487e-03    3,745068312e-01   -7,220182419e-01    0,000000000e+00    0,000000000e+00    0,000000000e+00    0,000000000e+00
      114000000   -1,663172059e-02    1,157868747e-02   -8,883903176e-02   -8,058068156e-01    0,000000000e+00    0,000000000e+00    0,000000000e+00    0,000000000e+00
      128000000    3,397017252e-03    1,057608053e-02   -5,145181417e-01   -6,211165190e-01    0,000000000e+00    0,000000000e+00    0,000000000e+00    0,000000000e+00
      142000000    1,442802697e-02   -3,067160957e-03   -7,674850225e-01   -2,370269448e-01    0,000000000e+00    0,000000000e+00    0,000000000e+00    0,000000000e+00
      156000000    1,463777293e-02   -1,498491503e-02   -7,673419714e-01    2,182476372e-01    0,000000000e+00    0,000000000e+00    0,000000000e+00    0,000000000e+00
      170000000    1,646774635e-02   -2,251143567e-02   -5,186294317e-01    6,048978567e-01    0,000000000e+00    0,000000000e+00    0,000000000e+00    0,000000000e+00
      184000000    2,096934989e-02   -3,700253740e-02   -1,017154828e-01    7,865658998e-01    0,000000000e+00    0,000000000e+00    0,000000000e+00    0,000000000e+00
      198000000    1,314636040e-02   -6,261660904e-02    3,430520594e-01    7,129572034e-01    0,000000000e+00    0,000000000e+00    0,000000000e+00    0,000000000e+00
      212000000   -1,874573901e-02   -8,169963956e-02    6,782632470e-01    4,104963839e-01    0,000000000e+00    0,000000000e+00    0,000000000e+00    0,000000000e+00
      226000000   -6,203429401e-02   -6,962832808e-02    7,960913777e-01   -2,968959510e-02    0,000000000e+00    0,000000000e+00    0,000000000e+00    0,000000000e+00
      240000000   -8,332680911e-02   -2,604861185e-02    6,470865607e-01   -4,665168822e-01    0,000000000e+00    0,000000000e+00    0,000000000e+00    0,000000000e+00
      254000000   -6,438238919e-02    1,746419445e-02    2,771724164e-01   -7,439693809e-01    0,000000000e+00    0,000000000e+00    0,000000000e+00    0,000000000e+00
      268000000   -2,399444208e-02    2,942742035e-02   -1,766797602e-01   -7,652746439e-01    0,000000000e+00    0,000000000e+00    0,000000000e+00    0,000000000e+00
      282000000    4,040868953e-03    1,211686619e-02   -5,624349713e-01   -5,371715426e-01    0,000000000e+00    0,000000000e+00    0,000000000e+00    0,000000000e+00
      296000000    9,494271129e-03   -7,697245572e-03   -7,605866194e-01   -1,396054775e-01    0,000000000e+00    0,000000000e+00    0,000000000e+00    0,000000000e+00
      310000000    1,081017498e-02   -1,607968844e-02   -7,141711116e-01    2,980078459e-01    0,000000000e+00    0,000000000e+00    0,000000000e+00    0,000000000e+00
      324000000    1,969924010e-02   -2,646257356e-02   -4,272646308e-01    6,381664276e-01    0,000000000e+00    0,000000000e+00    0,000000000e+00    0,000000000e+00
      338000000    2,554132231e-02   -5,200609192e-02   -1,044327766e-02    7,603392601e-01    0,000000000e+00    0,000000000e+00    0,000000000e+00    0,000000000e+00
      352000000    7,305007894e-03   -8,488630503e-02    4,057094157e-01    6,406049728e-01    0,000000000e+00    0,000000000e+00    0,000000000e+00    0,000000000e+00
      366000000   -3,478990123e-02   -9,616144747e-02    6,906710863e-01    3,124727905e-01    0,000000000e+00    0,000000000e+00    0,000000000e+00    0,000000000e+00
      380000000   -7,156657428e-02   -7,107303292e-02    7,484353185e-01   -1,242594868e-01    0,000000000e+00    0,000000000e+00    0,000000000e+00    0,000000000e+00
      394000000   -7,317779213e-02   -3,247116879e-02    5,484154820e-01   -5,216915607e-01    0,000000000e+00    0,000000000e+00    0,000000000e+00    0,000000000e+00
      408000000   -4,719940200e-02   -1,567473449e-02    1,626380980e-01   -7,319552898e-01    0,000000000e+00    0,000000000e+00    0,000000000e+00    0,000000000e+00
      422000000   -2,855930477e-02   -3,163086250e-02   -2,661649883e-01   -6,964863539e-01    0,000000000e+00    0,000000000e+00    0,000000000e+00    0,000000000e+00
      436000000   -4,010317102e-02   -5,191047117e-02   -6,021344662e-01   -4,338686764e-01    0,000000000e+00    0,000000000e+00    0,000000000e+00    0,000000000e+00
      450000000   -6,760036200e-02   -4,458328336e-02   -7,403422594e-01   -2,510412037e-02    0,000000000e+00    0,000000000e+00    0,000000000e+00    0,000000000e+00
      464000000   -7,418500632e-02   -1,256922260e-02   -6,216735244e-01    3,947458267e-01    0,000000000e+00    0,000000000e+00    0,000000000e+00    0,000000000e+00
      478000000   -4,938209802e-02    1,190644037e-02   -2,869684994e-01    6,677799821e-01    0,000000000e+00    0,000000000e+00    0,000000000e+00    0,000000000e+00
      492000000   -1,717674918e-02    6,409915164e-03    1,339074075e-01    7,035233378e-01    0,000000000e+00    0,000000000e+00    0,000000000e+00    0,000000000e+00
      506000000   -3,844588529e-03   -1,492961589e-02    4,977154136e-01    5,064075589e-01    0,000000000e+00    0,000000000e+00    0,000000000e+00    0,000000000e+00
      520000000   -6,054189987e-03   -2,964474447e-02    6,896955371e-01    1,441285312e-01    0,000000000e+00    0,000000000e+00    0,000000000e+00    0,000000000e+00
      534000000   -3,206024878e-03   -3,585791215e-02    6,454029083e-01   -2,595089078e-01    0,000000000e+00    0,000000000e+00    0,000000000e+00    0,000000000e+00
      548000000    8,021416143e-03   -5,298789218e-02    3,851887584e-01   -5,645340085e-01    0,000000000e+00    0,000000000e+00    0,000000000e+00    0,000000000e+00
      562000000    5,954730324e-03   -8,968943357e-02    8,851661347e-03   -6,719900370e-01    0,000000000e+00    0,000000000e+00    0,000000000e+00    0,000000000e+00
      576000000   -3,081865236e-02   -1,261746734e-01   -3,629084527e-01   -5,609474778e-01    0,000000000e+00    0,000000000e+00    0,000000000e+00    0,000000000e+00
      590000000   -9,501528740e-02   -1,275311857e-01   -6,156809330e-01   -2,732495964e-01    0,000000000e+00    0,000000000e+00    0,000000000e+00    0,000000000e+00
      604000000   -1,427658051e-01   -7,759025693e-02   -6,670524478e-01    1,263518929e-01    0,000000000e+00    0,000000000e+00    0,000000000e+00    0,000000000e+00
      618000000   -1,378075480e-01   -1,098591369e-02   -4,750744700e-01    4,856896698e-01    0,000000000e+00    0,000000000e+00    0,000000000e+00    0,000000000e+00
      632000000   -9,290232509e-02    2,225481719e-02   -1,126386523e-01    6,627381444e-01    0,000000000e+00    0,000000000e+00    0,000000000e+00    0,000000000e+00
      646000000   -5,537943915e-02    1,234460529e-02    2,731388211e-01    6,040142775e-01    0,000000000e+00    0,000000000e+00    0,000000000e+00    0,000000000e+00
      660000000   -4,848894849e-02   -8,593227714e-03    5,584667325e-01    3,407633305e-01    0,000000000e+00    0,000000000e+00    0,000000000e+00    0,000000000e+00
      674000000   -5,518935993e-02   -1,025250833e-02    6,443027854e-01   -3,967690468e-02    0,000000000e+00    0,000000000e+00    0,000000000e+00    0,000000000e+00
      688000000   -5,073919520e-02    2,602546476e-03    4,934009910e-01   -4,017940462e-01    0,000000000e+00    0,000000000e+00    0,000000000e+00    0,000000000e+00
      702000000   -2,586591803e-02    8,071347140e-03    1,622462720e-01   -6,052160263e-01    0,000000000e+00    0,000000000e+00    0,000000000e+00    0,000000000e+00
      716000000   -1,764774905e-03   -9,699012153e-03   -2,184114158e-01   -5,749101043e-01    0,000000000e+00    0,000000000e+00    0,000000000e+00    0,000000000e+00
      730000000    1,005843747e-02   -3,499548137e-02   -5,092443228e-01   -3,331796527e-01    0,000000000e+00    0,000000000e+00    0,000000000e+00    0,000000000e+00
      744000000    1,704790257e-02   -6,124264374e-02   -6,007953286e-01    3,282759339e-02    0,000000000e+00    0,000000000e+00    0,000000000e+00    0,000000000e+00
      758000000    2,266352437e-02   -1,031828895e-01   -4,544433355e-01    3,769935369e-01    0,000000000e+00    0,000000000e+00    0,000000000e+00    0,000000000e+00
      772000000   -5,149445031e-03   -1,741916239e-01   -1,399872452e-01    5,586040616e-01    0,000000000e+00    0,000000000e+00    0,000000000e+00    0,000000000e+00
      786000000   -1,049363762e-01   -2,329862714e-01    2,113508582e-01    5,197719336e-01    0,000000000e+00    0,000000000e+00    0,000000000e+00    0,000000000e+00
      800000000   -2,663627267e-01   -1,927371919e-01    4,716831148e-01    2,747945189e-01    0,000000000e+00    0,000000000e+00    0,000000000e+00    0,000000000e+00
      814000000   -3,636531532e-01    3,630857682e-03    5,076143742e-01   -8,838828653e-02    0,000000000e+00    0,000000000e+00    0,000000000e+00    0,000000000e+00
      828000000   -2,474355996e-01    2,341888845e-01    2,811520994e-01   -3,525565863e-01    0,000000000e+00    0,000000000e+00    0,000000000e+00    0,000000000e+00
      842000000    1,316040009e-02    2,780103981e-01   -1,554867066e-02   -3,630291522e-01    0,000000000e+00    0,000000000e+00    0,000000000e+00    0,000000000e+00
      856000000    2,124295980e-01    1,154310629e-01   -1,879694760e-01   -2,047385722e-01    0,000000000e+00    0,000000000e+00    0,000000000e+00    0,000000000e+00
      870000000    2,388895750e-01   -1,487496346e-01   -2,005458623e-01   -2,590633370e-02    0,000000000e+00    0,000000000e+00    0,000000000e+00    0,000000000e+00
      884000000    3,743841872e-02   -3,865303397e-01   -1,039093733e-01    7,083703578e-02    0,000000000e+00    0,000000000e+00    0,000000000e+00    0,000000000e+00
      898000000   -3,699664772e-01   -3,414310515e-01   -1,729809679e-02    2,768664993e-02    0,000000000e+00    0,000000000e+00    0,000000000e+00    0,000000000e+00
      912000000   -4,680593014e-01    1,374086738e-01   -1,195725575e-01    3,736456484e-02    0,000000000e+00    0,000000000e+00    0,000000000e+00    0,000000000e+00
      926000000   -9,593112767e-02    3,519649804e-01   -1,293569952e-01    1,342958659e-01    0,000000000e+00    0,000000000e+00    0,000000000e+00    0,000000000e+00
      940000000    1,855202019e-01    1,951237470e-01   -3,779299930e-02    2,162520736e-01    0,000000000e+00    0,000000000e+00    0,000000000e+00    0,000000000e+00
      954000000    2,546510994e-01   -4,994183779e-02    7,858178765e-02    2,278308719e-01    0,000000000e+00    0,000000000e+00    0,000000000e+00    0,000000000e+00
      968000000    1,741798371e-01   -2,608688474e-01    1,922299415e-01    1,793521196e-01    0,000000000e+00    0,000000000e+00    0,000000000e+00    0,000000000e+00
      982000000   -2,111413144e-02   -3,936167955e-01    2,813819349e-01    7,896314561e-02    0,000000000e+00    0,000000000e+00    0,000000000e+00    0,000000000e+00
      996000000   -2,741718292e-01   -3,791094124e-01    3,104135096e-01   -8,164002001e-02    0,000000000e+00    0,000000000e+00    0,000000000e+00    0,000000000e+00
     1010000000   -4,703935683e-01   -1,704452932e-01    2,208675593e-01   -2,534729540e-01    0,000000000e+00    0,000000000e+00    0,000000000e+00    0,000000000e+00
     1024000000   -4,618418515e-01    1,208550185e-01    2,093732171e-02   -3,293429017e-01    0,000000000e+00    0,000000000e+00    0,000000000e+00    0,000000000e+00
     1038000000   -2,598561049e-01    2,992154062e-01   -1,728681922e-01   -2,458468974e-01    0,000000000e+00    0,000000000e+00    0,000000000e+00    0,000000000e+00
     1052000000   -3,977940232e-02    3,082306087e-01   -2,581479251e-01   -7,717789710e-02    0,000000000e+00    0,000000000e+00    0,000000000e+00    0,000000000e+00
     1066000000    1,279986799e-01    2,023472786e-01   -2,274611741e-01    8,475931734e-02    0,000000000e+00    0,000000000e+00    0,000000000e+00    0,000000000e+00
     1080000000    2,102479786e-01    4,535419121e-02   -1,214222088e-01    1,928162128e-01    0,000000000e+00    0,000000000e+00    0,000000000e+00    0,000000000e+00
     1094000000    2,051252723e-01   -1,271508336e-01    1,774561778e-02    2,345395684e-01    0,000000000e+00    0,000000000e+00    0,000000000e+00    0,000000000e+00
     1108000000    9,715531021e-02   -2,893961966e-01    1,704773605e-01    2,045474350e-01    0,000000000e+00    0,000000000e+00    0,000000000e+00    0,000000000e+00
     1122000000   -1,009133384e-01   -3,727309406e-01    3,174034357e-01    8,776802570e-02    0,000000000e+00    0,000000000e+00    0,000000000e+00    0,000000000e+00
     1136000000   -3,435504436e-01   -2,717478275e-01    3,895744979e-01   -1,522768885e-01    0,000000000e+00    0,000000000e+00    0,000000000e+00    0,000000000e+00
     1150000000   -4,039855599e-01    3,665100783e-02    2,453669310e-01   -4,387493432e-01    0,000000000e+00    0,000000000e+00    0,000000000e+00    0,000000000e+00
     1164000000   -1,561618000e-01    2,210886329e-01   -9,904304892e-02   -5,145271420e-01    0,000000000e+00    0,000000000e+00    0,000000000e+00    0,000000000e+00
     1178000000    7,639656216e-02    8,203751594e-02   -3,557033837e-01   -3,505271971e-01    0,000000000e+00    0,000000000e+00    0,000000000e+00    0,000000000e+00
     1192000000    7,891295850e-02   -1,723254770e-01   -4,500332773e-01   -8,355603367e-02    0,000000000e+00    0,000000000e+00    0,000000000e+00    0,000000000e+00
     1206000000   -1,652428508e-01   -3,286469579e-01   -3,707262874e-01    1,882902831e-01    0,000000000e+00    0,000000000e+00    0,000000000e+00    0,000000000e+00
     1220000000   -4,588892162e-01   -1,717816889e-01   -1,076361313e-01    3,312828839e-01    0,000000000e+00    0,000000000e+00    0,000000000e+00    0,000000000e+00
     1234000000   -4,763483703e-01    1,699375212e-01    1,366433054e-01    2,168461680e-01    0,000000000e+00    0,000000000e+00    0,000000000e+00    0,000000000e+00
     1248000000   -2,356600463e-01    3,583945632e-01    1,936189085e-01    4,016127065e-02    0,000000000e+00    0,000000000e+00    0,000000000e+00    0,000000000e+00
     1262000000    7,534003351e-03    3,279799521e-01    1,281256825e-01   -7,262255251e-02    0,000000000e+00    0,000000000e+00    0,000000000e+00    0,000000000e+00
     1276000000    1,554984748e-01    2,023462057e-01    5,458741263e-02   -9,554333985e-02    0,000000000e+00    0,000000000e+00    0,000000000e+00    0,000000000e+00
     1290000000    2,182219774e-01    3,464019671e-02    1,529839239e-03   -7,084876299e-02    0,000000000e+00    0,000000000e+00    0,000000000e+00    0,000000000e+00
     1304000000    2,017783821e-01   -1,438777447e-01   -2,335283719e-02   -3,392238170e-02    0,000000000e+00    0,000000000e+00    0,000000000e+00    0,000000000e+00
     1318000000    1,131885052e-01   -3,114395440e-01   -6,432666909e-03    2,137640864e-02    0,000000000e+00    0,000000000e+00    0,000000000e+00    0,000000000e+00
     1332000000   -6,922751665e-02   -4,313087761e-01    4,442594200e-02    6,137521937e-02    0,000000000e+00    0,000000000e+00    0,000000000e+00    0,000000000e+00
     1346000000   -3,273931146e-01   -4,317680597e-01    1,431278735e-01    5,303654075e-02    0,000000000e+00    0,000000000e+00    0,000000000e+00    0,000000000e+00
     1360000000   -5,607835054e-01   -2,447297424e-01    1,117139608e-01   -8,332673460e-02    0,000000000e+00    0,000000000e+00    0,000000000e+00    0,000000000e+00
     1374000000   -6,224003434e-01    2,442606352e-02    1,055354103e-01    5,936644226e-02    0,000000000e+00    0,000000000e+00    0,000000000e+00    0,000000000e+00
     1388000000   -5,170386434e-01    2,981070578e-01    2,272209525e-01    3,080013441e-03    0,000000000e+00    0,000000000e+00    0,000000000e+00    0,000000000e+00
     1402000000   -3,082273304e-01    4,254483581e-01    2,206405252e-01   -7,759843767e-02    0,000000000e+00    0,000000000e+00    0,000000000e+00    0,000000000e+00
     1416000000   -8,876904845e-02    4,171450138e-01    2,034538984e-01   -1,221386120e-01    0,000000000e+00    0,000000000e+00    0,000000000e+00    0,000000000e+00
     1430000000    5,821030959e-02    3,360018730e-01    1,466154009e-01   -1,100502238e-01    0,000000000e+00    0,000000000e+00    0,000000000e+00    0,000000000e+00
     1444000000    1,760722399e-01    1,978450716e-01    1,473345757e-01   -1,035717875e-01    0,000000000e+00    0,000000000e+00    0,000000000e+00    0,000000000e+00
     1458000000    2,234383672e-01    3,550177068e-02    1,473499537e-01   -8,909801394e-02    0,000000000e+00    0,000000000e+00    0,000000000e+00    0,000000000e+00
     1472000000    2,052056938e-01   -1,464255005e-01    1,498122960e-01   -5,913919583e-02    0,000000000e+00    0,000000000e+00    0,000000000e+00    0,000000000e+00
     1486000000    1,032115594e-01   -3,251712024e-01    1,658326536e-01    2,223605523e-03    0,000000000e+00    0,000000000e+00    0,000000000e+00    0,000000000e+00
     1500000000   -8,969508111e-02   -4,592507482e-01    2,181187570e-01    3,771947697e-02    0,000000000e+00    0,000000000e+00    0,000000000e+00    0,000000000e+00
