! NanoVNA-App
! Date: 2025-09-25 14:24:20
! Start: 100MHz Stop: 1,5GHz Points: 101
! S-Parameter data: F S11 S21 S12 S22
# Hz S RI R 50
!     Frequency           S11_Real           S11_Imag           S21_Real           S21_Imag           S12_Real           S12_Imag           S22_Real           S22_Imag
      100000000   -2,909963764e-02   -4,130038898e-03    3,745055497e-01   -7,220661044e-01    0,000000000e+00    0,000000000e+00    0,000000000e+00    0,000000000e+00
      114000000   -1,661366969e-02    1,162700914e-02   -8,873177320e-02   -8,058081865e-01    0,000000000e+00    0,000000000e+00    0,000000000e+00    0,000000000e+00
      128000000    3,405792871e-03    1,054465584e-02   -5,145674348e-01   -6,209723353e-01    0,000000000e+00    0,000000000e+00    0,000000000e+00    0,000000000e+00
      142000000    1,445237081e-02   -3,063149517e-03   -7,675251365e-01   -2,368976921e-01    0,000000000e+00    0,000000000e+00    0,000000000e+00    0,000000000e+00
      156000000    1,444498450e-02   -1,498271711e-02   -7,648104429e-01    2,200321853e-01    0,000000000e+00    0,000000000e+00    0,000000000e+00    0,000000000e+00
      170000000    1,649382152e-02   -2,254561149e-02   -5,185210705e-01    6,049888134e-01    0,000000000e+00    0,000000000e+00    0,000000000e+00    0,000000000e+00
      184000000    2,099220268e-02   -3,703214228e-02   -1,016739458e-01    7,864621282e-01    0,000000000e+00    0,000000000e+00    0,000000000e+00    0,000000000e+00
      198000000    1,309584174e-02   -6,261657923e-02    3,430760801e-01    7,131496072e-01    0,000000000e+00    0,000000000e+00    0,000000000e+00    0,000000000e+00
      212000000   -1,868323423e-02   -8,172182739e-02    6,782237291e-01    4,103688300e-01    0,000000000e+00    0,000000000e+00    0,000000000e+00    0,000000000e+00
      226000000   -6,209672242e-02   -6,975617260e-02    7,961458564e-01   -2,979818918e-02    0,000000000e+00    0,000000000e+00    0,000000000e+00    0,000000000e+00
      240000000   -8,325964212e-02   -2,609387971e-02    6,472436190e-01   -4,666001797e-01    0,000000000e+00    0,000000000e+00    0,000000000e+00    0,000000000e+00
      254000000   -6,432417780e-02    1,734697074e-02    2,770342827e-01   -7,432354689e-01    0,000000000e+00    0,000000000e+00    0,000000000e+00    0,000000000e+00
      268000000   -2,415981889e-02    2,950050123e-02   -1,770493388e-01   -7,653506398e-01    0,000000000e+00    0,000000000e+00    0,000000000e+00    0,000000000e+00
      282000000    4,205006175e-03    1,206913777e-02   -5,625593662e-01   -5,371413827e-01    0,000000000e+00    0,000000000e+00    0,000000000e+00    0,000000000e+00
      296000000    9,575695731e-03   -7,665999234e-03   -7,607013583e-01   -1,395911425e-01    0,000000000e+00    0,000000000e+00    0,000000000e+00    0,000000000e+00
      310000000    1,065542549e-02   -1,600068808e-02   -7,138872147e-01    2,976799011e-01    0,000000000e+00    0,000000000e+00    0,000000000e+00    0,000000000e+00
      324000000    1,937479340e-02   -2,645600773e-02   -4,288684726e-01    6,369374394e-01    0,000000000e+00    0,000000000e+00    0,000000000e+00    0,000000000e+00
      338000000    2,568011358e-02   -5,244872719e-02   -9,777648374e-03    7,637476921e-01    0,000000000e+00    0,000000000e+00    0,000000000e+00    0,000000000e+00
      352000000    7,214392070e-03   -8,483088017e-02    4,059218764e-01    6,403456926e-01    0,000000000e+00    0,000000000e+00    0,000000000e+00    0,000000000e+00
      366000000   -3,472368419e-02   -9,600806236e-02    6,912025213e-01    3,127127886e-01    0,000000000e+00    0,000000000e+00    0,000000000e+00    0,000000000e+00
      380000000   -7,139582187e-02   -7,103811204e-02    7,483298779e-01   -1,245607808e-01    0,000000000e+00    0,000000000e+00    0,000000000e+00    0,000000000e+00
      394000000   -7,310247421e-02   -3,227851540e-02    5,481420159e-01   -5,218057036e-01    0,000000000e+00    0,000000000e+00    0,000000000e+00    0,000000000e+00
      408000000   -4,691415653e-02   -1,570840925e-02    1,641307473e-01   -7,327023149e-01    0,000000000e+00    0,000000000e+00    0,000000000e+00    0,000000000e+00
      422000000   -2,851506136e-02   -3,149320558e-02   -2,661214769e-01   -6,955027580e-01    0,000000000e+00    0,000000000e+00    0,000000000e+00    0,000000000e+00
      436000000   -4,022416100e-02   -5,180910975e-02   -6,020467877e-01   -4,337409437e-01    0,000000000e+00    0,000000000e+00    0,000000000e+00    0,000000000e+00
      450000000   -6,760357320e-02   -4,459661618e-02   -7,405654192e-01   -2,510488406e-02    0,000000000e+00    0,000000000e+00    0,000000000e+00    0,000000000e+00
      464000000   -7,406779379e-02   -1,214173064e-02   -6,216157079e-01    3,949515522e-01    0,000000000e+00    0,000000000e+00    0,000000000e+00    0,000000000e+00
      478000000   -4,937262088e-02    1,196897123e-02   -2,872548401e-01    6,668207049e-01    0,000000000e+00    0,000000000e+00    0,000000000e+00    0,000000000e+00
      492000000   -1,715383865e-02    6,573508028e-03    1,336804330e-01    7,042593956e-01    0,000000000e+00    0,000000000e+00    0,000000000e+00    0,000000000e+00
      506000000   -3,484796267e-03   -1,506170165e-02    4,976823330e-01    5,056283474e-01    0,000000000e+00    0,000000000e+00    0,000000000e+00    0,000000000e+00
      520000000   -5,717922468e-03   -2,945790440e-02    6,898662448e-01    1,444694549e-01    0,000000000e+00    0,000000000e+00    0,000000000e+00    0,000000000e+00
      534000000   -3,415853949e-03   -3,580241650e-02    6,443724632e-01   -2,596775591e-01    0,000000000e+00    0,000000000e+00    0,000000000e+00    0,000000000e+00
      548000000    7,832597010e-03   -5,278815702e-02    3,846524656e-01   -5,637628436e-01    0,000000000e+00    0,000000000e+00    0,000000000e+00    0,000000000e+00
      562000000    6,020436063e-03   -8,920650929e-02    8,218503557e-03   -6,707906723e-01    0,000000000e+00    0,000000000e+00    0,000000000e+00    0,000000000e+00
      576000000   -3,138513863e-02   -1,266100258e-01   -3,623180091e-01   -5,606088042e-01    0,000000000e+00    0,000000000e+00    0,000000000e+00    0,000000000e+00
      590000000   -9,502103925e-02   -1,277263612e-01   -6,152591705e-01   -2,725636065e-01    0,000000000e+00    0,000000000e+00    0,000000000e+00    0,000000000e+00
      604000000   -1,429777145e-01   -7,808499038e-02   -6,668872237e-01    1,266614199e-01    0,000000000e+00    0,000000000e+00    0,000000000e+00    0,000000000e+00
      618000000   -1,379236877e-01   -1,095105149e-02   -4,747524261e-01    4,858847558e-01    0,000000000e+00    0,000000000e+00    0,000000000e+00    0,000000000e+00
      632000000   -9,273505956e-02    2,151317894e-02   -1,135389358e-01    6,629744172e-01    0,000000000e+00    0,000000000e+00    0,000000000e+00    0,000000000e+00
      646000000   -5,462085828e-02    1,169107761e-02    2,728058696e-01    6,034485102e-01    0,000000000e+00    0,000000000e+00    0,000000000e+00    0,000000000e+00
      660000000   -4,732446000e-02   -8,670998737e-03    5,570333004e-01    3,403463960e-01    0,000000000e+00    0,000000000e+00    0,000000000e+00    0,000000000e+00
      674000000   -5,594281480e-02   -1,103291754e-02    6,445596218e-01   -3,937895969e-02    0,000000000e+00    0,000000000e+00    0,000000000e+00    0,000000000e+00
      688000000   -5,028135329e-02    2,486901823e-03    4,931330383e-01   -4,015247524e-01    0,000000000e+00    0,000000000e+00    0,000000000e+00    0,000000000e+00
      702000000   -2,681750990e-02    8,360474370e-03    1,658335775e-01   -6,085632443e-01    0,000000000e+00    0,000000000e+00    0,000000000e+00    0,000000000e+00
      716000000   -2,772426698e-03   -8,834619075e-03   -2,188416868e-01   -5,760509372e-01    0,000000000e+00    0,000000000e+00    0,000000000e+00    0,000000000e+00
      730000000    8,973228745e-03   -3,468375653e-02   -5,096533298e-01   -3,334460258e-01    0,000000000e+00    0,000000000e+00    0,000000000e+00    0,000000000e+00
      744000000    1,693187281e-02   -6,032438576e-02   -6,008961797e-01    3,286354616e-02    0,000000000e+00    0,000000000e+00    0,000000000e+00    0,000000000e+00
      758000000    2,167702653e-02   -1,031566709e-01   -4,542804360e-01    3,772311807e-01    0,000000000e+00    0,000000000e+00    0,000000000e+00    0,000000000e+00
      772000000   -5,120520480e-03   -1,736445278e-01   -1,397170424e-01    5,573910475e-01    0,000000000e+00    0,000000000e+00    0,000000000e+00    0,000000000e+00
      786000000   -1,053070500e-01   -2,326808721e-01    2,107254416e-01    5,195015669e-01    0,000000000e+00    0,000000000e+00    0,000000000e+00    0,000000000e+00
      800000000   -2,654630542e-01   -1,933719069e-01    4,711342454e-01    2,760335803e-01    0,000000000e+00    0,000000000e+00    0,000000000e+00    0,000000000e+00
      814000000   -3,649978340e-01    3,560764017e-03    5,078434348e-01   -8,816076070e-02    0,000000000e+00    0,000000000e+00    0,000000000e+00    0,000000000e+00
      828000000   -2,475112826e-01    2,336791307e-01    2,819303274e-01   -3,528967798e-01    0,000000000e+00    0,000000000e+00    0,000000000e+00    0,000000000e+00
      842000000    1,272501238e-02    2,787174582e-01   -1,552214939e-02   -3,629818559e-01    0,000000000e+00    0,000000000e+00    0,000000000e+00    0,000000000e+00
      856000000    2,122032195e-01    1,157879457e-01   -1,879529506e-01   -2,048199624e-01    0,000000000e+00    0,000000000e+00    0,000000000e+00    0,000000000e+00
      870000000    2,394056469e-01   -1,485073715e-01   -2,001731098e-01   -2,541193366e-02    0,000000000e+00    0,000000000e+00    0,000000000e+00    0,000000000e+00
      884000000    3,723215312e-02   -3,871432245e-01   -1,037845314e-01    7,067774236e-02    0,000000000e+00    0,000000000e+00    0,000000000e+00    0,000000000e+00
      898000000   -3,691829741e-01   -3,427543342e-01   -1,701591350e-02    2,734705992e-02    0,000000000e+00    0,000000000e+00    0,000000000e+00    0,000000000e+00
      912000000   -4,653090537e-01    1,382387578e-01   -1,164410412e-01    2,301078290e-02    0,000000000e+00    0,000000000e+00    0,000000000e+00    0,000000000e+00
      926000000   -9,490655363e-02    3,518374264e-01   -1,288495213e-01    1,350878924e-01    0,000000000e+00    0,000000000e+00    0,000000000e+00    0,000000000e+00
      940000000    1,856711060e-01    1,938166171e-01   -3,770748898e-02    2,162684053e-01    0,000000000e+00    0,000000000e+00    0,000000000e+00    0,000000000e+00
      954000000    2,565832138e-01   -4,664116353e-02    7,959331572e-02    2,295567691e-01    0,000000000e+00    0,000000000e+00    0,000000000e+00    0,000000000e+00
      968000000    1,759786904e-01   -2,593530118e-01    1,920256168e-01    1,814424992e-01    0,000000000e+00    0,000000000e+00    0,000000000e+00    0,000000000e+00
      982000000   -2,002887055e-02   -3,935619295e-01    2,794051170e-01    8,015409857e-02    0,000000000e+00    0,000000000e+00    0,000000000e+00    0,000000000e+00
      996000000   -2,705191672e-01   -3,757447600e-01    3,087792993e-01   -8,048760891e-02    0,000000000e+00    0,000000000e+00    0,000000000e+00    0,000000000e+00
     1010000000   -4,709404409e-01   -1,695604026e-01    2,195679098e-01   -2,528873086e-01    0,000000000e+00    0,000000000e+00    0,000000000e+00    0,000000000e+00
     1024000000   -4,615899622e-01    1,201915443e-01    2,097320929e-02   -3,302942216e-01    0,000000000e+00    0,000000000e+00    0,000000000e+00    0,000000000e+00
     1038000000   -2,673745751e-01    2,978630364e-01   -1,723623276e-01   -2,476259321e-01    0,000000000e+00    0,000000000e+00    0,000000000e+00    0,000000000e+00
     1052000000   -3,577036411e-02    3,082604706e-01   -2,570399940e-01   -7,820276916e-02    0,000000000e+00    0,000000000e+00    0,000000000e+00    0,000000000e+00
     1066000000    1,284998506e-01    2,075524777e-01   -2,292391807e-01    8,699306101e-02    0,000000000e+00    0,000000000e+00    0,000000000e+00    0,000000000e+00
     1080000000    2,058349699e-01    4,968542233e-02   -1,187445745e-01    1,922295839e-01    0,000000000e+00    0,000000000e+00    0,000000000e+00    0,000000000e+00
     1094000000    2,037325054e-01   -1,308258027e-01    1,801159605e-02    2,342634350e-01    0,000000000e+00    0,000000000e+00    0,000000000e+00    0,000000000e+00
     1108000000    1,022878811e-01   -2,862322927e-01    1,677173823e-01    2,067487389e-01    0,000000000e+00    0,000000000e+00    0,000000000e+00    0,000000000e+00
     1122000000   -1,020895764e-01   -3,738720119e-01    3,168692887e-01    8,877243847e-02    0,000000000e+00    0,000000000e+00    0,000000000e+00    0,000000000e+00
     1136000000   -3,502418995e-01   -2,668476105e-01    3,929299414e-01   -1,518280655e-01    0,000000000e+00    0,000000000e+00    0,000000000e+00    0,000000000e+00
     1150000000   -4,108789563e-01    3,442683816e-02    2,445812076e-01   -4,356560111e-01    0,000000000e+00    0,000000000e+00    0,000000000e+00    0,000000000e+00
     1164000000   -1,573890895e-01    2,211980969e-01   -9,398497641e-02   -5,123007894e-01    0,000000000e+00    0,000000000e+00    0,000000000e+00    0,000000000e+00
     1178000000    7,470564544e-02    8,611218631e-02   -3,603469431e-01   -3,438243866e-01    0,000000000e+00    0,000000000e+00    0,000000000e+00    0,000000000e+00
     1192000000    7,879956812e-02   -1,731283516e-01   -4,510622621e-01   -8,040942252e-02    0,000000000e+00    0,000000000e+00    0,000000000e+00    0,000000000e+00
     1206000000   -1,604522020e-01   -3,249100745e-01   -3,679278493e-01    1,874127090e-01    0,000000000e+00    0,000000000e+00    0,000000000e+00    0,000000000e+00
     1220000000   -4,559236467e-01   -1,760253012e-01   -1,057946160e-01    3,301036358e-01    0,000000000e+00    0,000000000e+00    0,000000000e+00    0,000000000e+00
     1234000000   -4,783858061e-01    1,685169190e-01    1,389877796e-01    2,210646272e-01    0,000000000e+00    0,000000000e+00    0,000000000e+00    0,000000000e+00
     1248000000   -2,325188965e-01    3,576864302e-01    1,916803718e-01    3,603380919e-02    0,000000000e+00    0,000000000e+00    0,000000000e+00    0,000000000e+00
     1262000000    5,223850254e-03    3,248078227e-01    1,302058697e-01   -7,479161769e-02    0,000000000e+00    0,000000000e+00    0,000000000e+00    0,000000000e+00
     1276000000    1,527240276e-01    2,024007142e-01    4,941628128e-02   -9,697127342e-02    0,000000000e+00    0,000000000e+00    0,000000000e+00    0,000000000e+00
     1290000000    2,175936252e-01    3,441347182e-02    7,229239680e-03   -7,109491527e-02    0,000000000e+00    0,000000000e+00    0,000000000e+00    0,000000000e+00
     1304000000    2,052180022e-01   -1,464220881e-01   -2,135031670e-02   -2,720984630e-02    0,000000000e+00    0,000000000e+00    0,000000000e+00    0,000000000e+00
     1318000000    1,164379865e-01   -3,128984571e-01   -6,919431966e-03    1,834570244e-02    0,000000000e+00    0,000000000e+00    0,000000000e+00    0,000000000e+00
     1332000000   -6,736430526e-02   -4,333060980e-01    4,833921418e-02    6,698874384e-02    0,000000000e+00    0,000000000e+00    0,000000000e+00    0,000000000e+00
     1346000000   -3,238315582e-01   -4,345594943e-01    1,563099623e-01    4,468363151e-02    0,000000000e+00    0,000000000e+00    0,000000000e+00    0,000000000e+00
     1360000000   -5,600056648e-01   -2,517037690e-01    1,111936420e-01   -7,963849604e-02    0,000000000e+00    0,000000000e+00    0,000000000e+00    0,000000000e+00
     1374000000   -6,270549893e-01    3,368038684e-02    1,038474366e-01    6,666644663e-02    0,000000000e+00    0,000000000e+00    0,000000000e+00    0,000000000e+00
     1388000000   -5,074991584e-01    2,953874767e-01    2,304480076e-01    7,532894146e-03    0,000000000e+00    0,000000000e+00    0,000000000e+00    0,000000000e+00
     1402000000   -3,010919392e-01    4,240081608e-01    2,243696600e-01   -7,425075024e-02    0,000000000e+00    0,000000000e+00    0,000000000e+00    0,000000000e+00
     1416000000   -9,685326368e-02    4,248346984e-01    1,822937429e-01   -1,134854853e-01    0,000000000e+00    0,000000000e+00    0,000000000e+00    0,000000000e+00
     1430000000    7,313226163e-02    3,358480930e-01    1,844855547e-01   -9,665351361e-02    0,000000000e+00    0,000000000e+00    0,000000000e+00    0,000000000e+00
     1444000000    1,766810268e-01    1,965811849e-01    1,502788216e-01   -1,152482256e-01    0,000000000e+00    0,000000000e+00    0,000000000e+00    0,000000000e+00
     1458000000    2,241742164e-01    3,635810316e-02    1,496282965e-01   -7,732517272e-02    0,000000000e+00    0,000000000e+00    0,000000000e+00    0,000000000e+00
     1472000000    2,056286335e-01   -1,455185115e-01    1,609207839e-01   -4,512885958e-02    0,000000000e+00    0,000000000e+00    0,000000000e+00    0,000000000e+00
     1486000000    1,062685475e-01   -3,267996609e-01    1,630939394e-01   -1,153265499e-02    0,000000000e+00    0,000000000e+00    0,000000000e+00    0,000000000e+00
     1500000000   -1,008900031e-01   -4,603320956e-01    2,049722970e-01    5,934453011e-02    0,000000000e+00    0,000000000e+00    0,000000000e+00    0,000000000e+00
