! NanoVNA-App
! Date: 2025-09-25 14:24:50
! Start: 100MHz Stop: 1,5GHz Points: 101
! S-Parameter data: F S11 S21 S12 S22
# Hz S RI R 50
!     Frequency           S11_Real           S11_Imag           S21_Real           S21_Imag           S12_Real           S12_Imag           S22_Real           S22_Imag
      100000000   -2,908739448e-02   -4,132199101e-03    3,745166659e-01   -7,220167518e-01    0,000000000e+00    0,000000000e+00    0,000000000e+00    0,000000000e+00
      114000000   -1,660000905e-02    1,160859223e-02   -8,868896216e-02   -8,057466745e-01    0,000000000e+00    0,000000000e+00    0,000000000e+00    0,000000000e+00
      128000000    3,440535627e-03    1,054417342e-02   -5,145793557e-01   -6,209323406e-01    0,000000000e+00    0,000000000e+00    0,000000000e+00    0,000000000e+00
      142000000    1,445899997e-02   -3,078722861e-03   -7,674971223e-01   -2,370660305e-01    0,000000000e+00    0,000000000e+00    0,000000000e+00    0,000000000e+00
      156000000    1,531507261e-02   -1,489421539e-02   -7,694466710e-01    2,233791500e-01    0,000000000e+00    0,000000000e+00    0,000000000e+00    0,000000000e+00
      170000000    1,651484892e-02   -2,252209745e-02   -5,188934207e-01    6,052553058e-01    0,000000000e+00    0,000000000e+00    0,000000000e+00    0,000000000e+00
      184000000    2,096872590e-02   -3,703457862e-02   -1,019357592e-01    7,863268256e-01    0,000000000e+00    0,000000000e+00    0,000000000e+00    0,000000000e+00
      198000000    1,311852317e-02   -6,260792911e-02    3,430439830e-01    7,130391598e-01    0,000000000e+00    0,000000000e+00    0,000000000e+00    0,000000000e+00
      212000000   -1,875358634e-02   -8,168905973e-02    6,782670617e-01    4,105165005e-01    0,000000000e+00    0,000000000e+00    0,000000000e+00    0,000000000e+00
      226000000   -6,210208684e-02   -6,970111281e-02    7,961009741e-01   -2,975855023e-02    0,000000000e+00    0,000000000e+00    0,000000000e+00    0,000000000e+00
      240000000   -8,329478651e-02   -2,602675371e-02    6,471455693e-01   -4,666798115e-01    0,000000000e+00    0,000000000e+00    0,000000000e+00    0,000000000e+00
      254000000   -6,430200487e-02    1,741252653e-02    2,773574889e-01   -7,434575558e-01    0,000000000e+00    0,000000000e+00    0,000000000e+00    0,000000000e+00
      268000000   -2,414447628e-02    2,938426100e-02   -1,766148806e-01   -7,651178241e-01    0,000000000e+00    0,000000000e+00    0,000000000e+00    0,000000000e+00
      282000000    4,057997372e-03    1,207811479e-02   -5,630392432e-01   -5,374091864e-01    0,000000000e+00    0,000000000e+00    0,000000000e+00    0,000000000e+00
      296000000    9,565532207e-03   -7,616246119e-03   -7,610568404e-01   -1,396029592e-01    0,000000000e+00    0,000000000e+00    0,000000000e+00    0,000000000e+00
      310000000    1,088578906e-02   -1,603106223e-02   -7,143453956e-01    2,980888784e-01    0,000000000e+00    0,000000000e+00    0,000000000e+00    0,000000000e+00
      324000000    1,957532391e-02   -2,631640993e-02   -4,289813340e-01    6,376245618e-01    0,000000000e+00    0,000000000e+00    0,000000000e+00    0,000000000e+00
      338000000    2,548130602e-02   -5,218261853e-02   -1,176928263e-02    7,630053759e-01    0,000000000e+00    0,000000000e+00    0,000000000e+00    0,000000000e+00
      352000000    7,406734396e-03   -8,485335857e-02    4,057995379e-01    6,402119994e-01    0,000000000e+00    0,000000000e+00    0,000000000e+00    0,000000000e+00
      366000000   -3,488824889e-02   -9,621119499e-02    6,908215880e-01    3,116564155e-01    0,000000000e+00    0,000000000e+00    0,000000000e+00    0,000000000e+00
      380000000   -7,141146809e-02   -7,115865499e-02    7,489699125e-01   -1,249711812e-01    0,000000000e+00    0,000000000e+00    0,000000000e+00    0,000000000e+00
      394000000   -7,318992168e-02   -3,248216957e-02    5,471612811e-01   -5,197072625e-01    0,000000000e+00    0,000000000e+00    0,000000000e+00    0,000000000e+00
      408000000   -4,698984697e-02   -1,557558402e-02    1,626063287e-01   -7,322459221e-01    0,000000000e+00    0,000000000e+00    0,000000000e+00    0,000000000e+00
      422000000   -2,805256099e-02   -3,145941719e-02   -2,663160563e-01   -6,960624456e-01    0,000000000e+00    0,000000000e+00    0,000000000e+00    0,000000000e+00
      436000000   -4,002824426e-02   -5,196688697e-02   -6,028090119e-01   -4,341887236e-01    0,000000000e+00    0,000000000e+00    0,000000000e+00    0,000000000e+00
      450000000   -6,726326793e-02   -4,493808746e-02   -7,398831844e-01   -2,539730817e-02    0,000000000e+00    0,000000000e+00    0,000000000e+00    0,000000000e+00
      464000000   -7,451063395e-02   -1,247638837e-02   -6,211697459e-01    3,943020105e-01    0,000000000e+00    0,000000000e+00    0,000000000e+00    0,000000000e+00
      478000000   -4,928726330e-02    1,171718724e-02   -2,863050997e-01    6,670526266e-01    0,000000000e+00    0,000000000e+00    0,000000000e+00    0,000000000e+00
      492000000   -1,696898788e-02    6,556069944e-03    1,335027814e-01    7,039432526e-01    0,000000000e+00    0,000000000e+00    0,000000000e+00    0,000000000e+00
      506000000   -3,574445611e-03   -1,496690139e-02    4,978390038e-01    5,064707398e-01    0,000000000e+00    0,000000000e+00    0,000000000e+00    0,000000000e+00
      520000000   -5,537288263e-03   -2,951451577e-02    6,893008947e-01    1,449389011e-01    0,000000000e+00    0,000000000e+00    0,000000000e+00    0,000000000e+00
      534000000   -3,392034909e-03   -3,565063700e-02    6,452559233e-01   -2,595856190e-01    0,000000000e+00    0,000000000e+00    0,000000000e+00    0,000000000e+00
      548000000    7,851300761e-03   -5,256571248e-02    3,850970566e-01   -5,645349026e-01    0,000000000e+00    0,000000000e+00    0,000000000e+00    0,000000000e+00
      562000000    5,652605556e-03   -8,973630518e-02    8,767453954e-03   -6,723746061e-01    0,000000000e+00    0,000000000e+00    0,000000000e+00    0,000000000e+00
      576000000   -3,068998456e-02   -1,258013994e-01   -3,619208336e-01   -5,602240562e-01    0,000000000e+00    0,000000000e+00    0,000000000e+00    0,000000000e+00
      590000000   -9,495073557e-02   -1,275313050e-01   -6,173759699e-01   -2,708886266e-01    0,000000000e+00    0,000000000e+00    0,000000000e+00    0,000000000e+00
      604000000   -1,427754909e-01   -7,795621455e-02   -6,672896743e-01    1,263201684e-01    0,000000000e+00    0,000000000e+00    0,000000000e+00    0,000000000e+00
      618000000   -1,383611560e-01   -1,180072967e-02   -4,751153886e-01    4,852027893e-01    0,000000000e+00    0,000000000e+00    0,000000000e+00    0,000000000e+00
      632000000   -9,341137856e-02    2,132557705e-02   -1,145557165e-01    6,624906659e-01    0,000000000e+00    0,000000000e+00    0,000000000e+00    0,000000000e+00
      646000000   -5,528460816e-02    1,253971085e-02    2,738476396e-01    6,041327715e-01    0,000000000e+00    0,000000000e+00    0,000000000e+00    0,000000000e+00
      660000000   -4,725880176e-02   -8,934031241e-03    5,574349761e-01    3,400449157e-01    0,000000000e+00    0,000000000e+00    0,000000000e+00    0,000000000e+00
      674000000   -5,516373366e-02   -1,024830434e-02    6,444228888e-01   -3,948907182e-02    0,000000000e+00    0,000000000e+00    0,000000000e+00    0,000000000e+00
      688000000   -5,053932965e-02    3,723972011e-03    4,932307005e-01   -4,019416869e-01    0,000000000e+00    0,000000000e+00    0,000000000e+00    0,000000000e+00
      702000000   -2,623699047e-02    8,538394235e-03    1,610253900e-01   -6,067188978e-01    0,000000000e+00    0,000000000e+00    0,000000000e+00    0,000000000e+00
      716000000   -1,373554929e-03   -9,069203399e-03   -2,175190598e-01   -5,749056935e-01    0,000000000e+00    0,000000000e+00    0,000000000e+00    0,000000000e+00
      730000000    9,069274180e-03   -3,504555300e-02   -5,095176101e-01   -3,333591223e-01    0,000000000e+00    0,000000000e+00    0,000000000e+00    0,000000000e+00
      744000000    1,690195873e-02   -6,152927130e-02   -6,008134484e-01    3,250670433e-02    0,000000000e+00    0,000000000e+00    0,000000000e+00    0,000000000e+00
      758000000    2,229778841e-02   -1,042359322e-01   -4,546690285e-01    3,770128489e-01    0,000000000e+00    0,000000000e+00    0,000000000e+00    0,000000000e+00
      772000000   -5,577190313e-03   -1,729508787e-01   -1,395544410e-01    5,584082007e-01    0,000000000e+00    0,000000000e+00    0,000000000e+00    0,000000000e+00
      786000000   -1,054763421e-01   -2,326012254e-01    2,123930305e-01    5,193955898e-01    0,000000000e+00    0,000000000e+00    0,000000000e+00    0,000000000e+00
      800000000   -2,663294375e-01   -1,929581761e-01    4,721030295e-01    2,760957778e-01    0,000000000e+00    0,000000000e+00    0,000000000e+00    0,000000000e+00
      814000000   -3,647727370e-01    3,895257832e-03    5,081195235e-01   -8,861779422e-02    0,000000000e+00    0,000000000e+00    0,000000000e+00    0,000000000e+00
      828000000   -2,487145960e-01    2,329929620e-01    2,814178169e-01   -3,529228866e-01    0,000000000e+00    0,000000000e+00    0,000000000e+00    0,000000000e+00
      842000000    1,317077968e-02    2,784209549e-01   -1,524505764e-02   -3,630456626e-01    0,000000000e+00    0,000000000e+00    0,000000000e+00    0,000000000e+00
      856000000    2,122374028e-01    1,151338518e-01   -1,878358126e-01   -2,054073662e-01    0,000000000e+00    0,000000000e+00    0,000000000e+00    0,000000000e+00
      870000000    2,392087877e-01   -1,485599577e-01   -2,001975030e-01   -2,610160783e-02    0,000000000e+00    0,000000000e+00    0,000000000e+00    0,000000000e+00
      884000000    3,820021078e-02   -3,863547146e-01   -1,045285761e-01    7,045490295e-02    0,000000000e+00    0,000000000e+00    0,000000000e+00    0,000000000e+00
      898000000   -3,696331680e-01   -3,417274654e-01   -1,691385917e-02    2,793963440e-02    0,000000000e+00    0,000000000e+00    0,000000000e+00    0,000000000e+00
      912000000   -4,680582285e-01    1,381840110e-01   -1,192619652e-01    4,007044435e-02    0,000000000e+00    0,000000000e+00    0,000000000e+00    0,000000000e+00
      926000000   -9,718040377e-02    3,507548869e-01   -1,314278990e-01    1,343524158e-01    0,000000000e+00    0,000000000e+00    0,000000000e+00    0,000000000e+00
      940000000    1,814895719e-01    1,940366626e-01   -3,915376216e-02    2,162181884e-01    0,000000000e+00    0,000000000e+00    0,000000000e+00    0,000000000e+00
      954000000    2,562017739e-01   -5,017149821e-02    7,952791452e-02    2,272417545e-01    0,000000000e+00    0,000000000e+00    0,000000000e+00    0,000000000e+00
      968000000    1,734452695e-01   -2,630371153e-01    1,903186888e-01    1,802587211e-01    0,000000000e+00    0,000000000e+00    0,000000000e+00    0,000000000e+00
      982000000   -1,649714634e-02   -3,921629190e-01    2,809498012e-01    7,952776551e-02    0,000000000e+00    0,000000000e+00    0,000000000e+00    0,000000000e+00
      996000000   -2,756312490e-01   -3,748134375e-01    3,100990057e-01   -7,963883132e-02    0,000000000e+00    0,000000000e+00    0,000000000e+00    0,000000000e+00
     1010000000   -4,659706354e-01   -1,755289286e-01    2,214478254e-01   -2,537947297e-01    0,000000000e+00    0,000000000e+00    0,000000000e+00    0,000000000e+00
     1024000000   -4,560780227e-01    1,175427362e-01    2,066488191e-02   -3,317799866e-01    0,000000000e+00    0,000000000e+00    0,000000000e+00    0,000000000e+00
     1038000000   -2,649351954e-01    3,021255732e-01   -1,735471338e-01   -2,471620440e-01    0,000000000e+00    0,000000000e+00    0,000000000e+00    0,000000000e+00
     1052000000   -3,979238868e-02    3,114972115e-01   -2,562159896e-01   -7,647447288e-02    0,000000000e+00    0,000000000e+00    0,000000000e+00    0,000000000e+00
     1066000000    1,282997876e-01    2,076093405e-01   -2,243557572e-01    8,314941078e-02    0,000000000e+00    0,000000000e+00    0,000000000e+00    0,000000000e+00
     1080000000    2,064576149e-01    4,904008657e-02   -1,194133535e-01    1,920873970e-01    0,000000000e+00    0,000000000e+00    0,000000000e+00    0,000000000e+00
     1094000000    1,993612349e-01   -1,269254237e-01    1,737269014e-02    2,335978895e-01    0,000000000e+00    0,000000000e+00    0,000000000e+00    0,000000000e+00
     1108000000    9,956828505e-02   -2,888135016e-01    1,714531630e-01    2,068985105e-01    0,000000000e+00    0,000000000e+00    0,000000000e+00    0,000000000e+00
     1122000000   -9,871439636e-02   -3,707686067e-01    3,162280917e-01    8,821339160e-02    0,000000000e+00    0,000000000e+00    0,000000000e+00    0,000000000e+00
     1136000000   -3,439966142e-01   -2,707777619e-01    3,910545707e-01   -1,498241127e-01    0,000000000e+00    0,000000000e+00    0,000000000e+00    0,000000000e+00
     1150000000   -4,037054479e-01    3,703845665e-02    2,427380234e-01   -4,391257167e-01    0,000000000e+00    0,000000000e+00    0,000000000e+00    0,000000000e+00
     1164000000   -1,574470848e-01    2,206232995e-01   -9,599944204e-02   -5,122184157e-01    0,000000000e+00    0,000000000e+00    0,000000000e+00    0,000000000e+00
     1178000000    7,530930638e-02    8,514734358e-02   -3,584339619e-01   -3,447974622e-01    0,000000000e+00    0,000000000e+00    0,000000000e+00    0,000000000e+00
     1192000000    7,960951328e-02   -1,743020713e-01   -4,508436322e-01   -8,510553837e-02    0,000000000e+00    0,000000000e+00    0,000000000e+00    0,000000000e+00
     1206000000   -1,655632257e-01   -3,288254440e-01   -3,700263798e-01    1,846192330e-01    0,000000000e+00    0,000000000e+00    0,000000000e+00    0,000000000e+00
     1220000000   -4,559735060e-01   -1,737669259e-01   -1,074268967e-01    3,279384673e-01    0,000000000e+00    0,000000000e+00    0,000000000e+00    0,000000000e+00
     1234000000   -4,749257565e-01    1,668645293e-01    1,342889518e-01    2,234995067e-01    0,000000000e+00    0,000000000e+00    0,000000000e+00    0,000000000e+00
     1248000000   -2,318594307e-01    3,566627204e-01    1,888128221e-01    3,320412338e-02    0,000000000e+00    0,000000000e+00    0,000000000e+00    0,000000000e+00
     1262000000    3,550481750e-03    3,221939802e-01    1,300590932e-01   -7,417860627e-02    0,000000000e+00    0,000000000e+00    0,000000000e+00    0,000000000e+00
     1276000000    1,564332992e-01    1,965065598e-01    5,685256422e-02   -9,907679260e-02    0,000000000e+00    0,000000000e+00    0,000000000e+00    0,000000000e+00
     1290000000    2,178052664e-01    3,210978210e-02    5,434893072e-03   -6,998208165e-02    0,000000000e+00    0,000000000e+00    0,000000000e+00    0,000000000e+00
     1304000000    2,059166431e-01   -1,467398703e-01   -1,682577468e-02   -2,877911180e-02    0,000000000e+00    0,000000000e+00    0,000000000e+00    0,000000000e+00
     1318000000    1,126656681e-01   -3,140524030e-01   -7,271466777e-03    2,707719244e-02    0,000000000e+00    0,000000000e+00    0,000000000e+00    0,000000000e+00
     1332000000   -6,972476095e-02   -4,355579913e-01    4,847818986e-02    6,543902308e-02    0,000000000e+00    0,000000000e+00    0,000000000e+00    0,000000000e+00
     1346000000   -3,300902843e-01   -4,299073517e-01    1,492481679e-01    4,738160223e-02    0,000000000e+00    0,000000000e+00    0,000000000e+00    0,000000000e+00
     1360000000   -5,547357798e-01   -2,376596630e-01    1,150240973e-01   -6,694787741e-02    0,000000000e+00    0,000000000e+00    0,000000000e+00    0,000000000e+00
     1374000000   -6,205512881e-01    2,756008878e-02    1,048273444e-01    5,737426504e-02    0,000000000e+00    0,000000000e+00    0,000000000e+00    0,000000000e+00
     1388000000   -5,103620291e-01    2,902319729e-01    2,346598208e-01   -5,452064943e-05    0,000000000e+00    0,000000000e+00    0,000000000e+00    0,000000000e+00
     1402000000   -3,012318015e-01    4,265791476e-01    2,336816788e-01   -7,466537505e-02    0,000000000e+00    0,000000000e+00    0,000000000e+00    0,000000000e+00
     1416000000   -9,275483340e-02    4,214723408e-01    1,925156265e-01   -1,286164373e-01    0,000000000e+00    0,000000000e+00    0,000000000e+00    0,000000000e+00
     1430000000    8,033525199e-02    3,327714801e-01    1,586226523e-01   -1,473463923e-01    0,000000000e+00    0,000000000e+00    0,000000000e+00    0,000000000e+00
     1444000000    1,731456518e-01    1,996246129e-01    1,497772187e-01   -1,102988645e-01    0,000000000e+00    0,000000000e+00    0,000000000e+00    0,000000000e+00
     1458000000    2,254256010e-01    3,518725932e-02    1,546534598e-01   -9,146641195e-02    0,000000000e+00    0,000000000e+00    0,000000000e+00    0,000000000e+00
     1472000000    2,032785267e-01   -1,426755488e-01    1,441012323e-01   -5,077415332e-02    0,000000000e+00    0,000000000e+00    0,000000000e+00    0,000000000e+00
     1486000000    1,074470282e-01   -3,291296363e-01    1,718410701e-01   -4,245863762e-03    0,000000000e+00    0,000000000e+00    0,000000000e+00    0,000000000e+00
     1500000000   -9,610731900e-02   -4,555515349e-01    2,065781355e-01    7,260241359e-02    0,000000000e+00    0,000000000e+00    0,000000000e+00    0,000000000e+00
