! NanoVNA-App
! Date: 2025-09-25 14:24:34
! Start: 100MHz Stop: 1,5GHz Points: 101
! S-Parameter data: F S11 S21 S12 S22
# Hz S RI R 50
!     Frequency           S11_Real           S11_Imag           S21_Real           S21_Imag           S12_Real           S12_Imag           S22_Real           S22_Imag
      100000000   -2,908577770e-02   -4,125879612e-03    3,744833469e-01   -7,220787406e-01    0,000000000e+00    0,000000000e+00    0,000000000e+00    0,000000000e+00
      114000000   -1,659941114e-02    1,160121616e-02   -8,895639330e-02   -8,057053089e-01    0,000000000e+00    0,000000000e+00    0,000000000e+00    0,000000000e+00
      128000000    3,467116039e-03    1,053203922e-02   -5,146655440e-01   -6,211069226e-01    0,000000000e+00    0,000000000e+00    0,000000000e+00    0,000000000e+00
      142000000    1,445836294e-02   -3,076906316e-03   -7,674456239e-01   -2,368819416e-01    0,000000000e+00    0,000000000e+00    0,000000000e+00    0,000000000e+00
      156000000    1,444008108e-02   -1,490084454e-02   -7,654090524e-01    2,181812525e-01    0,000000000e+00    0,000000000e+00    0,000000000e+00    0,000000000e+00
      170000000    1,654963009e-02   -2,256418392e-02   -5,188258886e-01    6,051656604e-01    0,000000000e+00    0,000000000e+00    0,000000000e+00    0,000000000e+00
      184000000    2,098391205e-02   -3,700200468e-02   -1,017373577e-01    7,863743305e-01    0,000000000e+00    0,000000000e+00    0,000000000e+00    0,000000000e+00
      198000000    1,306557283e-02   -6,256391108e-02    3,431205750e-01    7,130368948e-01    0,000000000e+00    0,000000000e+00    0,000000000e+00    0,000000000e+00
      212000000   -1,867844537e-02   -8,172808588e-02    6,784008741e-01    4,105006754e-01    0,000000000e+00    0,000000000e+00    0,000000000e+00    0,000000000e+00
      226000000   -6,209896132e-02   -6,970985979e-02    7,961189151e-01   -2,975803986e-02    0,000000000e+00    0,000000000e+00    0,000000000e+00    0,000000000e+00
      240000000   -8,329029381e-02   -2,608934790e-02    6,470917463e-01   -4,665908217e-01    0,000000000e+00    0,000000000e+00    0,000000000e+00    0,000000000e+00
      254000000   -6,432299316e-02    1,740186848e-02    2,770279944e-01   -7,432832718e-01    0,000000000e+00    0,000000000e+00    0,000000000e+00    0,000000000e+00
      268000000   -2,409831062e-02    2,943771891e-02   -1,767947376e-01   -7,648707032e-01    0,000000000e+00    0,000000000e+00    0,000000000e+00    0,000000000e+00
      282000000    4,182653502e-03    1,212978084e-02   -5,626956820e-01   -5,372267962e-01    0,000000000e+00    0,000000000e+00    0,000000000e+00    0,000000000e+00
      296000000    9,488579817e-03   -7,668628357e-03   -7,609198093e-01   -1,395360976e-01    0,000000000e+00    0,000000000e+00    0,000000000e+00    0,000000000e+00
      310000000    1,093313843e-02   -1,597714983e-02   -7,126454711e-01    2,985769808e-01    0,000000000e+00    0,000000000e+00    0,000000000e+00    0,000000000e+00
      324000000    1,939045638e-02   -2,660979331e-02   -4,282672107e-01    6,366431117e-01    0,000000000e+00    0,000000000e+00    0,000000000e+00    0,000000000e+00
      338000000    2,545188181e-02   -5,209466815e-02   -7,588176522e-03    7,616522908e-01    0,000000000e+00    0,000000000e+00    0,000000000e+00    0,000000000e+00
      352000000    7,622619160e-03   -8,498215675e-02    4,055900574e-01    6,410066485e-01    0,000000000e+00    0,000000000e+00    0,000000000e+00    0,000000000e+00
      366000000   -3,483691067e-02   -9,595310688e-02    6,909801960e-01    3,118254840e-01    0,000000000e+00    0,000000000e+00    0,000000000e+00    0,000000000e+00
      380000000   -7,136499882e-02   -7,131256908e-02    7,481631041e-01   -1,246804222e-01    0,000000000e+00    0,000000000e+00    0,000000000e+00    0,000000000e+00
      394000000   -7,285988331e-02   -3,205082193e-02    5,483185053e-01   -5,214681625e-01    0,000000000e+00    0,000000000e+00    0,000000000e+00    0,000000000e+00
      408000000   -4,693622887e-02   -1,544301212e-02    1,620354652e-01   -7,323465943e-01    0,000000000e+00    0,000000000e+00    0,000000000e+00    0,000000000e+00
      422000000   -2,830647863e-02   -3,152592480e-02   -2,659709156e-01   -6,955940127e-01    0,000000000e+00    0,000000000e+00    0,000000000e+00    0,000000000e+00
      436000000   -4,015512019e-02   -5,190310627e-02   -6,025695205e-01   -4,338459373e-01    0,000000000e+00    0,000000000e+00    0,000000000e+00    0,000000000e+00
      450000000   -6,737398356e-02   -4,499949142e-02   -7,399467826e-01   -2,556862496e-02    0,000000000e+00    0,000000000e+00    0,000000000e+00    0,000000000e+00
      464000000   -7,438939065e-02   -1,211215742e-02   -6,211820245e-01    3,944656551e-01    0,000000000e+00    0,000000000e+00    0,000000000e+00    0,000000000e+00
      478000000   -4,931124300e-02    1,171931438e-02   -2,873746455e-01    6,675013304e-01    0,000000000e+00    0,000000000e+00    0,000000000e+00    0,000000000e+00
      492000000   -1,694879122e-02    6,720134988e-03    1,344529539e-01    7,031486034e-01    0,000000000e+00    0,000000000e+00    0,000000000e+00    0,000000000e+00
      506000000   -3,550490364e-03   -1,532192528e-02    4,971257448e-01    5,062381625e-01    0,000000000e+00    0,000000000e+00    0,000000000e+00    0,000000000e+00
      520000000   -5,982506555e-03   -2,922005206e-02    6,884313822e-01    1,452768445e-01    0,000000000e+00    0,000000000e+00    0,000000000e+00    0,000000000e+00
      534000000   -3,434213111e-03   -3,608377278e-02    6,442314982e-01   -2,598670125e-01    0,000000000e+00    0,000000000e+00    0,000000000e+00    0,000000000e+00
      548000000    8,129411377e-03   -5,304545909e-02    3,849164844e-01   -5,646434426e-01    0,000000000e+00    0,000000000e+00    0,000000000e+00    0,000000000e+00
      562000000    6,108565722e-03   -8,973998576e-02    8,228575811e-03   -6,721134782e-01    0,000000000e+00    0,000000000e+00    0,000000000e+00    0,000000000e+00
      576000000   -3,079244494e-02   -1,260686517e-01   -3,630828261e-01   -5,611268878e-01    0,000000000e+00    0,000000000e+00    0,000000000e+00    0,000000000e+00
      590000000   -9,505931288e-02   -1,277739406e-01   -6,168988347e-01   -2,703184187e-01    0,000000000e+00    0,000000000e+00    0,000000000e+00    0,000000000e+00
      604000000   -1,432268471e-01   -7,785737514e-02   -6,677482128e-01    1,263167262e-01    0,000000000e+00    0,000000000e+00    0,000000000e+00    0,000000000e+00
      618000000   -1,376546472e-01   -1,132805366e-02   -4,759537578e-01    4,854837358e-01    0,000000000e+00    0,000000000e+00    0,000000000e+00    0,000000000e+00
      632000000   -9,323275089e-02    2,119917609e-02   -1,143410653e-01    6,626753211e-01    0,000000000e+00    0,000000000e+00    0,000000000e+00    0,000000000e+00
      646000000   -5,475288630e-02    1,140277553e-02    2,740077674e-01    6,032844186e-01    0,000000000e+00    0,000000000e+00    0,000000000e+00    0,000000000e+00
      660000000   -4,763319716e-02   -8,083005436e-03    5,583389401e-01    3,399762511e-01    0,000000000e+00    0,000000000e+00    0,000000000e+00    0,000000000e+00
      674000000   -5,600675195e-02   -1,127473544e-02    6,444090009e-01   -3,964403644e-02    0,000000000e+00    0,000000000e+00    0,000000000e+00    0,000000000e+00
      688000000   -5,017358065e-02    2,543785609e-03    4,938061535e-01   -4,011927247e-01    0,000000000e+00    0,000000000e+00    0,000000000e+00    0,000000000e+00
      702000000   -2,634509280e-02    8,081372827e-03    1,646181941e-01   -6,036222577e-01    0,000000000e+00    0,000000000e+00    0,000000000e+00    0,000000000e+00
      716000000   -1,639169059e-03   -9,597361088e-03   -2,189755589e-01   -5,759118795e-01    0,000000000e+00    0,000000000e+00    0,000000000e+00    0,000000000e+00
      730000000    8,953227662e-03   -3,438638523e-02   -5,094207525e-01   -3,336024880e-01    0,000000000e+00    0,000000000e+00    0,000000000e+00    0,000000000e+00
      744000000    1,657964662e-02   -6,137682870e-02   -6,009032130e-01    3,285849467e-02    0,000000000e+00    0,000000000e+00    0,000000000e+00    0,000000000e+00
      758000000    2,178643830e-02   -1,032485366e-01   -4,539339542e-01    3,775402606e-01    0,000000000e+00    0,000000000e+00    0,000000000e+00    0,000000000e+00
      772000000   -4,379954655e-03   -1,733152419e-01   -1,394530237e-01    5,578430295e-01    0,000000000e+00    0,000000000e+00    0,000000000e+00    0,000000000e+00
      786000000   -1,050516963e-01   -2,319232374e-01    2,109667361e-01    5,191218853e-01    0,000000000e+00    0,000000000e+00    0,000000000e+00    0,000000000e+00
      800000000   -2,661795020e-01   -1,919760406e-01    4,718055129e-01    2,758113444e-01    0,000000000e+00    0,000000000e+00    0,000000000e+00    0,000000000e+00
      814000000   -3,635244668e-01    3,204781096e-03    5,076987147e-01   -8,831542730e-02    0,000000000e+00    0,000000000e+00    0,000000000e+00    0,000000000e+00
      828000000   -2,471884042e-01    2,339760214e-01    2,807689905e-01   -3,529191017e-01    0,000000000e+00    0,000000000e+00    0,000000000e+00    0,000000000e+00
      842000000    1,269490365e-02    2,787269056e-01   -1,622988842e-02   -3,626326323e-01    0,000000000e+00    0,000000000e+00    0,000000000e+00    0,000000000e+00
      856000000    2,129534036e-01    1,151879057e-01   -1,877560467e-01   -2,051972449e-01    0,000000000e+00    0,000000000e+00    0,000000000e+00    0,000000000e+00
      870000000    2,391370833e-01   -1,489312053e-01   -2,003404498e-01   -2,582972497e-02    0,000000000e+00    0,000000000e+00    0,000000000e+00    0,000000000e+00
      884000000    3,794737160e-02   -3,861301243e-01   -1,041710079e-01    7,094634324e-02    0,000000000e+00    0,000000000e+00    0,000000000e+00    0,000000000e+00
      898000000   -3,699094355e-01   -3,419124186e-01   -1,731364429e-02    2,770633809e-02    0,000000000e+00    0,000000000e+00    0,000000000e+00    0,000000000e+00
      912000000   -4,677011967e-01    1,377296299e-01   -1,096948013e-01    2,271346934e-02    0,000000000e+00    0,000000000e+00    0,000000000e+00    0,000000000e+00
      926000000   -9,414836764e-02    3,510330915e-01   -1,266930699e-01    1,345824450e-01    0,000000000e+00    0,000000000e+00    0,000000000e+00    0,000000000e+00
      940000000    1,862938106e-01    1,944239438e-01   -3,817566112e-02    2,161836475e-01    0,000000000e+00    0,000000000e+00    0,000000000e+00    0,000000000e+00
      954000000    2,570201755e-01   -4,759106785e-02    8,033983409e-02    2,273030281e-01    0,000000000e+00    0,000000000e+00    0,000000000e+00    0,000000000e+00
      968000000    1,744341254e-01   -2,631589472e-01    1,913590133e-01    1,807085276e-01    0,000000000e+00    0,000000000e+00    0,000000000e+00    0,000000000e+00
      982000000   -1,439719088e-02   -3,924969733e-01    2,796220481e-01    7,923018932e-02    0,000000000e+00    0,000000000e+00    0,000000000e+00    0,000000000e+00
      996000000   -2,741957605e-01   -3,803307414e-01    3,082356155e-01   -7,957805693e-02    0,000000000e+00    0,000000000e+00    0,000000000e+00    0,000000000e+00
     1010000000   -4,681532383e-01   -1,754295379e-01    2,217758745e-01   -2,544451952e-01    0,000000000e+00    0,000000000e+00    0,000000000e+00    0,000000000e+00
     1024000000   -4,618664384e-01    1,198740155e-01    1,680460759e-02   -3,281486928e-01    0,000000000e+00    0,000000000e+00    0,000000000e+00    0,000000000e+00
     1038000000   -2,653828859e-01    2,961165011e-01   -1,734572649e-01   -2,484127283e-01    0,000000000e+00    0,000000000e+00    0,000000000e+00    0,000000000e+00
     1052000000   -3,868454695e-02    3,119881153e-01   -2,579429150e-01   -7,783007622e-02    0,000000000e+00    0,000000000e+00    0,000000000e+00    0,000000000e+00
     1066000000    1,292313188e-01    2,037905604e-01   -2,229628265e-01    8,682259172e-02    0,000000000e+00    0,000000000e+00    0,000000000e+00    0,000000000e+00
     1080000000    2,062551826e-01    4,626999423e-02   -1,204197928e-01    1,946190894e-01    0,000000000e+00    0,000000000e+00    0,000000000e+00    0,000000000e+00
     1094000000    2,012838870e-01   -1,293632239e-01    1,827930100e-02    2,362596840e-01    0,000000000e+00    0,000000000e+00    0,000000000e+00    0,000000000e+00
     1108000000    1,035575047e-01   -2,886496782e-01    1,669991016e-01    2,066151649e-01    0,000000000e+00    0,000000000e+00    0,000000000e+00    0,000000000e+00
     1122000000   -1,032547578e-01   -3,696842790e-01    3,167259097e-01    9,014441073e-02    0,000000000e+00    0,000000000e+00    0,000000000e+00    0,000000000e+00
     1136000000   -3,517630398e-01   -2,706570923e-01    3,911833465e-01   -1,486789733e-01    0,000000000e+00    0,000000000e+00    0,000000000e+00    0,000000000e+00
     1150000000   -4,048044384e-01    3,997079283e-02    2,450795770e-01   -4,367751181e-01    0,000000000e+00    0,000000000e+00    0,000000000e+00    0,000000000e+00
     1164000000   -1,644453406e-01    2,157835066e-01   -9,501894563e-02   -5,103793740e-01    0,000000000e+00    0,000000000e+00    0,000000000e+00    0,000000000e+00
     1178000000    7,488762587e-02    8,802188188e-02   -3,557235897e-01   -3,488629758e-01    0,000000000e+00    0,000000000e+00    0,000000000e+00    0,000000000e+00
     1192000000    7,332345098e-02   -1,716631651e-01   -4,554046690e-01   -8,186529577e-02    0,000000000e+00    0,000000000e+00    0,000000000e+00    0,000000000e+00
     1206000000   -1,601319164e-01   -3,271738291e-01   -3,683828413e-01    1,905049384e-01    0,000000000e+00    0,000000000e+00    0,000000000e+00    0,000000000e+00
     1220000000   -4,544319510e-01   -1,806579083e-01   -1,065474600e-01    3,274270892e-01    0,000000000e+00    0,000000000e+00    0,000000000e+00    0,000000000e+00
     1234000000   -4,687039554e-01    1,683355272e-01    1,404349804e-01    2,238438576e-01    0,000000000e+00    0,000000000e+00    0,000000000e+00    0,000000000e+00
     1248000000   -2,397143245e-01    3,574716449e-01    1,878657937e-01    3,815470636e-02    0,000000000e+00    0,000000000e+00    0,000000000e+00    0,000000000e+00
     1262000000    7,390196901e-03    3,284214437e-01    1,301261783e-01   -7,323536277e-02    0,000000000e+00    0,000000000e+00    0,000000000e+00    0,000000000e+00
     1276000000    1,521480829e-01    1,984475255e-01    5,163534358e-02   -9,798076004e-02    0,000000000e+00    0,000000000e+00    0,000000000e+00    0,000000000e+00
     1290000000    2,143161148e-01    2,828670852e-02   -1,725867973e-03   -7,511823624e-02    0,000000000e+00    0,000000000e+00    0,000000000e+00    0,000000000e+00
     1304000000    2,069725692e-01   -1,469175667e-01   -1,978061348e-02   -3,360526636e-02    0,000000000e+00    0,000000000e+00    0,000000000e+00    0,000000000e+00
     1318000000    1,155534014e-01   -3,109681010e-01   -1,144740451e-02    1,726828888e-02    0,000000000e+00    0,000000000e+00    0,000000000e+00    0,000000000e+00
     1332000000   -6,576679647e-02   -4,358151257e-01    4,622999206e-02    5,877307430e-02    0,000000000e+00    0,000000000e+00    0,000000000e+00    0,000000000e+00
     1346000000   -3,261444271e-01   -4,301255345e-01    1,505462378e-01    5,138989910e-02    0,000000000e+00    0,000000000e+00    0,000000000e+00    0,000000000e+00
     1360000000   -5,567371249e-01   -2,416794151e-01    1,110408455e-01   -7,090634108e-02    0,000000000e+00    0,000000000e+00    0,000000000e+00    0,000000000e+00
     1374000000   -6,304935217e-01    3,049665131e-02    9,304131567e-02    5,570571125e-02    0,000000000e+00    0,000000000e+00    0,000000000e+00    0,000000000e+00
     1388000000   -5,108963847e-01    2,960803807e-01    2,287085801e-01    4,093681928e-03    0,000000000e+00    0,000000000e+00    0,000000000e+00    0,000000000e+00
     1402000000   -3,074687123e-01    4,165416360e-01    2,188601345e-01   -8,415492624e-02    0,000000000e+00    0,000000000e+00    0,000000000e+00    0,000000000e+00
     1416000000   -9,468299896e-02    4,274978042e-01    1,929486096e-01   -1,130886972e-01    0,000000000e+00    0,000000000e+00    0,000000000e+00    0,000000000e+00
     1430000000    6,534112990e-02    3,372271359e-01    1,591705233e-01   -1,045245379e-01    0,000000000e+00    0,000000000e+00    0,000000000e+00    0,000000000e+00
     1444000000    1,738114506e-01    2,015850097e-01    1,531229168e-01   -9,900502861e-02    0,000000000e+00    0,000000000e+00    0,000000000e+00    0,000000000e+00
     1458000000    2,264096737e-01    3,793073446e-02    1,501154602e-01   -7,278256863e-02    0,000000000e+00    0,000000000e+00    0,000000000e+00    0,000000000e+00
     1472000000    2,099067271e-01   -1,443583965e-01    1,655140668e-01   -5,410069227e-02    0,000000000e+00    0,000000000e+00    0,000000000e+00    0,000000000e+00
     1486000000    1,089776754e-01   -3,205408752e-01    1,626301408e-01   -1,452178229e-02    0,000000000e+00    0,000000000e+00    0,000000000e+00    0,000000000e+00
     1500000000   -9,418915212e-02   -4,589355290e-01    2,202925086e-01    5,395468324e-02    0,000000000e+00    0,000000000e+00    0,000000000e+00    0,000000000e+00
