! NanoVNA-App
! Date: 2025-09-25 14:22:56
! Start: 100MHz Stop: 1,5GHz Points: 101
! S-Parameter data: F S11 S21 S12 S22
# Hz S RI R 50
!     Frequency           S11_Real           S11_Imag           S21_Real           S21_Imag           S12_Real           S12_Imag           S22_Real           S22_Imag
      100000000   -2,910007909e-02   -4,125891719e-03    3,744682670e-01   -7,220590711e-01    0,000000000e+00    0,000000000e+00    0,000000000e+00    0,000000000e+00
      114000000   -1,662123576e-02    1,161280461e-02   -8,906569332e-02   -8,059187531e-01    0,000000000e+00    0,000000000e+00    0,000000000e+00    0,000000000e+00
      128000000    3,424780909e-03    1,057833992e-02   -5,147379637e-01   -6,211226583e-01    0,000000000e+00    0,000000000e+00    0,000000000e+00    0,000000000e+00
      142000000    1,446649991e-02   -3,050849773e-03   -7,674157023e-01   -2,369028628e-01    0,000000000e+00    0,000000000e+00    0,000000000e+00    0,000000000e+00
      156000000    1,561537944e-02   -1,466345228e-02   -7,700707316e-01    2,238381803e-01    0,000000000e+00    0,000000000e+00    0,000000000e+00    0,000000000e+00
      170000000    1,662876830e-02   -2,254402079e-02   -5,185834169e-01    6,050043702e-01    0,000000000e+00    0,000000000e+00    0,000000000e+00    0,000000000e+00
      184000000    2,096694894e-02   -3,704177216e-02   -1,021541581e-01    7,866358161e-01    0,000000000e+00    0,000000000e+00    0,000000000e+00    0,000000000e+00
      198000000    1,303485502e-02   -6,257900596e-02    3,429205716e-01    7,130613923e-01    0,000000000e+00    0,000000000e+00    0,000000000e+00    0,000000000e+00
      212000000   -1,874721237e-02   -8,166494220e-02    6,782394052e-01    4,104900062e-01    0,000000000e+00    0,000000000e+00    0,000000000e+00    0,000000000e+00
      226000000   -6,203670800e-02   -6,968037784e-02    7,961065173e-01   -2,978545986e-02    0,000000000e+00    0,000000000e+00    0,000000000e+00    0,000000000e+00
      240000000   -8,311778307e-02   -2,606480010e-02    6,472077370e-01   -4,667219818e-01    0,000000000e+00    0,000000000e+00    0,000000000e+00    0,000000000e+00
      254000000   -6,434440613e-02    1,718835533e-02    2,770473361e-01   -7,435632348e-01    0,000000000e+00    0,000000000e+00    0,000000000e+00    0,000000000e+00
      268000000   -2,435017005e-02    2,951516025e-02   -1,772427708e-01   -7,646817565e-01    0,000000000e+00    0,000000000e+00    0,000000000e+00    0,000000000e+00
      282000000    4,294884857e-03    1,211753115e-02   -5,624589920e-01   -5,367934704e-01    0,000000000e+00    0,000000000e+00    0,000000000e+00    0,000000000e+00
      296000000    9,584529325e-03   -7,602165919e-03   -7,608098984e-01   -1,395501047e-01    0,000000000e+00    0,000000000e+00    0,000000000e+00    0,000000000e+00
      310000000    1,090796571e-02   -1,610174030e-02   -7,140866518e-01    2,971989214e-01    0,000000000e+00    0,000000000e+00    0,000000000e+00    0,000000000e+00
      324000000    1,972656697e-02   -2,645714022e-02   -4,279415607e-01    6,380442977e-01    0,000000000e+00    0,000000000e+00    0,000000000e+00    0,000000000e+00
      338000000    2,514533699e-02   -5,197882280e-02   -1,179082599e-02    7,626700997e-01    0,000000000e+00    0,000000000e+00    0,000000000e+00    0,000000000e+00
      352000000    7,505969610e-03   -8,486279100e-02    4,053941965e-01    6,409570575e-01    0,000000000e+00    0,000000000e+00    0,000000000e+00    0,000000000e+00
      366000000   -3,499355912e-02   -9,591867030e-02    6,898798943e-01    3,127949834e-01    0,000000000e+00    0,000000000e+00    0,000000000e+00    0,000000000e+00
      380000000   -7,146240771e-02   -7,126842439e-02    7,477344275e-01   -1,250617802e-01    0,000000000e+00    0,000000000e+00    0,000000000e+00    0,000000000e+00
      394000000   -7,316568494e-02   -3,247899190e-02    5,471935272e-01   -5,205512047e-01    0,000000000e+00    0,000000000e+00    0,000000000e+00    0,000000000e+00
      408000000   -4,702094197e-02   -1,542871259e-02    1,628349274e-01   -7,317909598e-01    0,000000000e+00    0,000000000e+00    0,000000000e+00    0,000000000e+00
      422000000   -2,843079530e-02   -3,158520535e-02   -2,658487260e-01   -6,963757277e-01    0,000000000e+00    0,000000000e+00    0,000000000e+00    0,000000000e+00
      436000000   -4,001072422e-02   -5,202890188e-02   -6,023716927e-01   -4,338396490e-01    0,000000000e+00    0,000000000e+00    0,000000000e+00    0,000000000e+00
      450000000   -6,737872958e-02   -4,491430148e-02   -7,400330305e-01   -2,514608391e-02    0,000000000e+00    0,000000000e+00    0,000000000e+00    0,000000000e+00
      464000000   -7,406834513e-02   -1,233002450e-02   -6,209440231e-01    3,947011530e-01    0,000000000e+00    0,000000000e+00    0,000000000e+00    0,000000000e+00
      478000000   -4,890395701e-02    1,165176649e-02   -2,873040736e-01    6,664306521e-01    0,000000000e+00    0,000000000e+00    0,000000000e+00    0,000000000e+00
      492000000   -1,681985334e-02    6,795678753e-03    1,345777810e-01    7,043117881e-01    0,000000000e+00    0,000000000e+00    0,000000000e+00    0,000000000e+00
      506000000   -3,787321504e-03   -1,475837827e-02    4,970685840e-01    5,059047937e-01    0,000000000e+00    0,000000000e+00    0,000000000e+00    0,000000000e+00
      520000000   -5,719653331e-03   -2,957819216e-02    6,876909733e-01    1,459207982e-01    0,000000000e+00    0,000000000e+00    0,000000000e+00    0,000000000e+00
      534000000   -2,966891974e-03   -3,576609492e-02    6,450411081e-01   -2,599602342e-01    0,000000000e+00    0,000000000e+00    0,000000000e+00    0,000000000e+00
      548000000    8,468718268e-03   -5,263056234e-02    3,849139214e-01   -5,632826090e-01    0,000000000e+00    0,000000000e+00    0,000000000e+00    0,000000000e+00
      562000000    5,215004086e-03   -8,966577053e-02    8,279923350e-03   -6,721136570e-01    0,000000000e+00    0,000000000e+00    0,000000000e+00    0,000000000e+00
      576000000   -3,133781999e-02   -1,267076582e-01   -3,629289865e-01   -5,610361695e-01    0,000000000e+00    0,000000000e+00    0,000000000e+00    0,000000000e+00
      590000000   -9,480235726e-02   -1,277895719e-01   -6,180564761e-01   -2,713469267e-01    0,000000000e+00    0,000000000e+00    0,000000000e+00    0,000000000e+00
      604000000   -1,429358870e-01   -7,817403227e-02   -6,671649814e-01    1,261520535e-01    0,000000000e+00    0,000000000e+00    0,000000000e+00    0,000000000e+00
      618000000   -1,387108713e-01   -1,147116628e-02   -4,752503335e-01    4,860385656e-01    0,000000000e+00    0,000000000e+00    0,000000000e+00    0,000000000e+00
      632000000   -9,343393892e-02    2,144045196e-02   -1,126221642e-01    6,637368798e-01    0,000000000e+00    0,000000000e+00    0,000000000e+00    0,000000000e+00
      646000000   -5,497898534e-02    1,126031671e-02    2,735906541e-01    6,034549475e-01    0,000000000e+00    0,000000000e+00    0,000000000e+00    0,000000000e+00
      660000000   -4,761687666e-02   -8,864924312e-03    5,576021671e-01    3,407203257e-01    0,000000000e+00    0,000000000e+00    0,000000000e+00    0,000000000e+00
      674000000   -5,511608720e-02   -1,068660803e-02    6,439548731e-01   -3,990212828e-02    0,000000000e+00    0,000000000e+00    0,000000000e+00    0,000000000e+00
      688000000   -5,086778477e-02    2,767578233e-03    4,925237298e-01   -4,017692506e-01    0,000000000e+00    0,000000000e+00    0,000000000e+00    0,000000000e+00
      702000000   -2,609531395e-02    6,626252085e-03    1,625496149e-01   -6,006003618e-01    0,000000000e+00    0,000000000e+00    0,000000000e+00    0,000000000e+00
      716000000   -2,171622124e-03   -8,456805721e-03   -2,188995928e-01   -5,746635199e-01    0,000000000e+00    0,000000000e+00    0,000000000e+00    0,000000000e+00
      730000000    1,002366003e-02   -3,523879498e-02   -5,091664791e-01   -3,335589170e-01    0,000000000e+00    0,000000000e+00    0,000000000e+00    0,000000000e+00
      744000000    1,623609290e-02   -6,119990721e-02   -6,003940105e-01    3,329400346e-02    0,000000000e+00    0,000000000e+00    0,000000000e+00    0,000000000e+00
      758000000    2,221346460e-02   -1,029878557e-01   -4,542723298e-01    3,770023882e-01    0,000000000e+00    0,000000000e+00    0,000000000e+00    0,000000000e+00
      772000000   -4,452880472e-03   -1,740133762e-01   -1,397839487e-01    5,575036407e-01    0,000000000e+00    0,000000000e+00    0,000000000e+00    0,000000000e+00
      786000000   -1,048581302e-01   -2,323144674e-01    2,114165574e-01    5,189690590e-01    0,000000000e+00    0,000000000e+00    0,000000000e+00    0,000000000e+00
      800000000   -2,659717798e-01   -1,931603104e-01    4,714491069e-01    2,758830190e-01    0,000000000e+00    0,000000000e+00    0,000000000e+00    0,000000000e+00
      814000000   -3,651786745e-01    3,666833276e-03    5,083549619e-01   -8,857826144e-02    0,000000000e+00    0,000000000e+00    0,000000000e+00    0,000000000e+00
      828000000   -2,471011728e-01    2,343797684e-01    2,820319235e-01   -3,526853919e-01    0,000000000e+00    0,000000000e+00    0,000000000e+00    0,000000000e+00
      842000000    1,264324691e-02    2,779674530e-01   -1,585555822e-02   -3,634645045e-01    0,000000000e+00    0,000000000e+00    0,000000000e+00    0,000000000e+00
      856000000    2,128307968e-01    1,154105589e-01   -1,881449372e-01   -2,045381367e-01    0,000000000e+00    0,000000000e+00    0,000000000e+00    0,000000000e+00
      870000000    2,385573089e-01   -1,487034410e-01   -2,007739246e-01   -2,579684556e-02    0,000000000e+00    0,000000000e+00    0,000000000e+00    0,000000000e+00
      884000000    3,690310940e-02   -3,870246112e-01   -1,033095941e-01    7,135045528e-02    0,000000000e+00    0,000000000e+00    0,000000000e+00    0,000000000e+00
      898000000   -3,697739244e-01   -3,423486650e-01   -1,640043221e-02    2,740547806e-02    0,000000000e+00    0,000000000e+00    0,000000000e+00    0,000000000e+00
      912000000   -4,675585926e-01    1,384935230e-01   -1,044770181e-01    2,864729799e-02    0,000000000e+00    0,000000000e+00    0,000000000e+00    0,000000000e+00
      926000000   -9,675308317e-02    3,505295515e-01   -1,308925748e-01    1,329100132e-01    0,000000000e+00    0,000000000e+00    0,000000000e+00    0,000000000e+00
      940000000    1,846421510e-01    1,951590627e-01   -3,732214123e-02    2,172788084e-01    0,000000000e+00    0,000000000e+00    0,000000000e+00    0,000000000e+00
      954000000    2,557837665e-01   -4,949714616e-02    7,927583903e-02    2,266049236e-01    0,000000000e+00    0,000000000e+00    0,000000000e+00    0,000000000e+00
      968000000    1,734743267e-01   -2,629305124e-01    1,903836876e-01    1,810576618e-01    0,000000000e+00    0,000000000e+00    0,000000000e+00    0,000000000e+00
      982000000   -1,639522053e-02   -3,920946121e-01    2,815734446e-01    7,991699874e-02    0,000000000e+00    0,000000000e+00    0,000000000e+00    0,000000000e+00
      996000000   -2,724883854e-01   -3,732329309e-01    3,094120920e-01   -7,940386236e-02    0,000000000e+00    0,000000000e+00    0,000000000e+00    0,000000000e+00
     1010000000   -4,675657153e-01   -1,749769300e-01    2,213686109e-01   -2,510742247e-01    0,000000000e+00    0,000000000e+00    0,000000000e+00    0,000000000e+00
     1024000000   -4,633462727e-01    1,174739078e-01    1,870421506e-02   -3,300530910e-01    0,000000000e+00    0,000000000e+00    0,000000000e+00    0,000000000e+00
     1038000000   -2,678058743e-01    2,958180308e-01   -1,728555113e-01   -2,471209466e-01    0,000000000e+00    0,000000000e+00    0,000000000e+00    0,000000000e+00
     1052000000   -3,577025607e-02    3,072180450e-01   -2,572433949e-01   -7,558415830e-02    0,000000000e+00    0,000000000e+00    0,000000000e+00    0,000000000e+00
     1066000000    1,256839484e-01    2,055782974e-01   -2,279915661e-01    8,530317247e-02    0,000000000e+00    0,000000000e+00    0,000000000e+00    0,000000000e+00
     1080000000    2,049123645e-01    4,583506286e-02   -1,196308360e-01    1,925884187e-01    0,000000000e+00    0,000000000e+00    0,000000000e+00    0,000000000e+00
     1094000000    2,034905702e-01   -1,294700652e-01    1,738170907e-02    2,364273220e-01    0,000000000e+00    0,000000000e+00    0,000000000e+00    0,000000000e+00
     1108000000    9,746120870e-02   -2,880523503e-01    1,697467864e-01    2,069671750e-01    0,000000000e+00    0,000000000e+00    0,000000000e+00    0,000000000e+00
     1122000000   -1,039204672e-01   -3,715798557e-01    3,166087866e-01    8,883717656e-02    0,000000000e+00    0,000000000e+00    0,000000000e+00    0,000000000e+00
     1136000000   -3,472369015e-01   -2,682629824e-01    3,888715506e-01   -1,486398429e-01    0,000000000e+00    0,000000000e+00    0,000000000e+00    0,000000000e+00
     1150000000   -4,034532607e-01    3,919148445e-02    2,424989343e-01   -4,377051294e-01    0,000000000e+00    0,000000000e+00    0,000000000e+00    0,000000000e+00
     1164000000   -1,636374444e-01    2,150655240e-01   -9,466841072e-02   -5,139951706e-01    0,000000000e+00    0,000000000e+00    0,000000000e+00    0,000000000e+00
     1178000000    7,234497368e-02    8,548159897e-02   -3,553042412e-01   -3,447815776e-01    0,000000000e+00    0,000000000e+00    0,000000000e+00    0,000000000e+00
     1192000000    7,221201807e-02   -1,753781140e-01   -4,563806057e-01   -8,298165351e-02    0,000000000e+00    0,000000000e+00    0,000000000e+00    0,000000000e+00
     1206000000   -1,647228003e-01   -3,265255392e-01   -3,710768819e-01    1,878787279e-01    0,000000000e+00    0,000000000e+00    0,000000000e+00    0,000000000e+00
     1220000000   -4,526756406e-01   -1,760732681e-01   -1,082951352e-01    3,328333497e-01    0,000000000e+00    0,000000000e+00    0,000000000e+00    0,000000000e+00
     1234000000   -4,763535559e-01    1,700670570e-01    1,365941167e-01    2,255777121e-01    0,000000000e+00    0,000000000e+00    0,000000000e+00    0,000000000e+00
     1248000000   -2,320390046e-01    3,582762778e-01    1,959848702e-01    3,804207966e-02    0,000000000e+00    0,000000000e+00    0,000000000e+00    0,000000000e+00
     1262000000    2,738424577e-03    3,269576430e-01    1,296761632e-01   -7,051789016e-02    0,000000000e+00    0,000000000e+00    0,000000000e+00    0,000000000e+00
     1276000000    1,510371417e-01    2,043559998e-01    5,404309556e-02   -9,465482831e-02    0,000000000e+00    0,000000000e+00    0,000000000e+00    0,000000000e+00
     1290000000    2,207089514e-01    3,102914989e-02    4,195756745e-03   -7,614169270e-02    0,000000000e+00    0,000000000e+00    0,000000000e+00    0,000000000e+00
     1304000000    2,068459690e-01   -1,451284438e-01   -1,702154055e-02   -3,334388882e-02    0,000000000e+00    0,000000000e+00    0,000000000e+00    0,000000000e+00
     1318000000    1,132022217e-01   -3,136335015e-01   -6,221276708e-03    2,138441801e-02    0,000000000e+00    0,000000000e+00    0,000000000e+00    0,000000000e+00
     1332000000   -6,368322670e-02   -4,331936538e-01    4,975201190e-02    6,371583045e-02    0,000000000e+00    0,000000000e+00    0,000000000e+00    0,000000000e+00
     1346000000   -3,286073804e-01   -4,332514405e-01    1,433314234e-01    5,528176576e-02    0,000000000e+00    0,000000000e+00    0,000000000e+00    0,000000000e+00
     1360000000   -5,577383041e-01   -2,393765748e-01    1,180180758e-01   -7,359720767e-02    0,000000000e+00    0,000000000e+00    0,000000000e+00    0,000000000e+00
     1374000000   -6,188293099e-01    2,905133180e-02    1,188691631e-01    6,334662437e-02    0,000000000e+00    0,000000000e+00    0,000000000e+00    0,000000000e+00
     1388000000   -5,164981484e-01    2,889198065e-01    2,073053867e-01   -2,443816513e-03    0,000000000e+00    0,000000000e+00    0,000000000e+00    0,000000000e+00
     1402000000   -3,035431802e-01    4,226911664e-01    2,338724285e-01   -7,483452559e-02    0,000000000e+00    0,000000000e+00    0,000000000e+00    0,000000000e+00
     1416000000   -9,582625329e-02    4,210701287e-01    1,800913364e-01   -1,157188937e-01    0,000000000e+00    0,000000000e+00    0,000000000e+00    0,000000000e+00
     1430000000    6,715308875e-02    3,421588242e-01    1,566681564e-01   -1,093601286e-01    0,000000000e+00    0,000000000e+00    0,000000000e+00    0,000000000e+00
     1444000000    1,733716577e-01    2,000046521e-01    1,541441679e-01   -9,181317687e-02    0,000000000e+00    0,000000000e+00    0,000000000e+00    0,000000000e+00
     1458000000    2,287258506e-01    3,551566601e-02    1,581356972e-01   -9,432254732e-02    0,000000000e+00    0,000000000e+00    0,000000000e+00    0,000000000e+00
     1472000000    2,063516229e-01   -1,445336491e-01    1,493897736e-01   -5,603044853e-02    0,000000000e+00    0,000000000e+00    0,000000000e+00    0,000000000e+00
     1486000000    1,031263247e-01   -3,179388642e-01    1,547219306e-01    5,870153545e-04    0,000000000e+00    0,000000000e+00    0,000000000e+00    0,000000000e+00
     1500000000   -8,911571652e-02   -4,599525630e-01    2,218103260e-01    7,217642665e-02    0,000000000e+00    0,000000000e+00    0,000000000e+00    0,000000000e+00
