! NanoVNA-App
! Date: 2025-09-25 14:25:48
! Start: 100MHz Stop: 1,5GHz Points: 101
! S-Parameter data: F S11 S21 S12 S22
# Hz S RI R 50
!     Frequency           S11_Real           S11_Imag           S21_Real           S21_Imag           S12_Real           S12_Imag           S22_Real           S22_Imag
      100000000   -2,908687107e-02   -4,115778022e-03    3,744570315e-01   -7,220335007e-01    0,000000000e+00    0,000000000e+00    0,000000000e+00    0,000000000e+00
      114000000   -1,660375483e-02    1,161059365e-02   -8,892555535e-02   -8,056951165e-01    0,000000000e+00    0,000000000e+00    0,000000000e+00    0,000000000e+00
      128000000    3,442169400e-03    1,054223254e-02   -5,147299170e-01   -6,209557652e-01    0,000000000e+00    0,000000000e+00    0,000000000e+00    0,000000000e+00
      142000000    1,444157120e-02   -3,099942114e-03   -7,674743533e-01   -2,369579077e-01    0,000000000e+00    0,000000000e+00    0,000000000e+00    0,000000000e+00
      156000000    1,445219014e-02   -1,493944693e-02   -7,654218674e-01    2,180995643e-01    0,000000000e+00    0,000000000e+00    0,000000000e+00    0,000000000e+00
      170000000    1,655741967e-02   -2,246079035e-02   -5,188858509e-01    6,048293114e-01    0,000000000e+00    0,000000000e+00    0,000000000e+00    0,000000000e+00
      184000000    2,092091367e-02   -3,704566881e-02   -1,018723994e-01    7,863262296e-01    0,000000000e+00    0,000000000e+00    0,000000000e+00    0,000000000e+00
      198000000    1,310523599e-02   -6,263571233e-02    3,431404233e-01    7,128828764e-01    0,000000000e+00    0,000000000e+00    0,000000000e+00    0,000000000e+00
      212000000   -1,866551675e-02   -8,169984072e-02    6,783663630e-01    4,106318653e-01    0,000000000e+00    0,000000000e+00    0,000000000e+00    0,000000000e+00
      226000000   -6,207095087e-02   -6,964453310e-02    7,961671948e-01   -2,977548167e-02    0,000000000e+00    0,000000000e+00    0,000000000e+00    0,000000000e+00
      240000000   -8,331847191e-02   -2,604240738e-02    6,470086575e-01   -4,668117166e-01    0,000000000e+00    0,000000000e+00    0,000000000e+00    0,000000000e+00
      254000000   -6,439322978e-02    1,746310852e-02    2,771273851e-01   -7,435281873e-01    0,000000000e+00    0,000000000e+00    0,000000000e+00    0,000000000e+00
      268000000   -2,396976389e-02    2,949348278e-02   -1,766856909e-01   -7,652022243e-01    0,000000000e+00    0,000000000e+00    0,000000000e+00    0,000000000e+00
      282000000    4,119796678e-03    1,209206693e-02   -5,627962351e-01   -5,376477242e-01    0,000000000e+00    0,000000000e+00    0,000000000e+00    0,000000000e+00
      296000000    9,610998444e-03   -7,741836365e-03   -7,606539726e-01   -1,394624412e-01    0,000000000e+00    0,000000000e+00    0,000000000e+00    0,000000000e+00
      310000000    1,100510824e-02   -1,607949845e-02   -7,127532363e-01    2,962694168e-01    0,000000000e+00    0,000000000e+00    0,000000000e+00    0,000000000e+00
      324000000    1,980917528e-02   -2,649924904e-02   -4,284307659e-01    6,377876997e-01    0,000000000e+00    0,000000000e+00    0,000000000e+00    0,000000000e+00
      338000000    2,573004179e-02   -5,240258574e-02   -9,625446051e-03    7,636811733e-01    0,000000000e+00    0,000000000e+00    0,000000000e+00    0,000000000e+00
      352000000    7,323059719e-03   -8,479873836e-02    4,047380388e-01    6,399986744e-01    0,000000000e+00    0,000000000e+00    0,000000000e+00    0,000000000e+00
      366000000   -3,475278616e-02   -9,607197344e-02    6,906089187e-01    3,120577037e-01    0,000000000e+00    0,000000000e+00    0,000000000e+00    0,000000000e+00
      380000000   -7,153093070e-02   -7,120911032e-02    7,483735085e-01   -1,248769462e-01    0,000000000e+00    0,000000000e+00    0,000000000e+00    0,000000000e+00
      394000000   -7,336766273e-02   -3,231129423e-02    5,482840538e-01   -5,210088491e-01    0,000000000e+00    0,000000000e+00    0,000000000e+00    0,000000000e+00
      408000000   -4,707441106e-02   -1,544893626e-02    1,615812182e-01   -7,321142554e-01    0,000000000e+00    0,000000000e+00    0,000000000e+00    0,000000000e+00
      422000000   -2,831661142e-02   -3,160680085e-02   -2,661213279e-01   -6,966792345e-01    0,000000000e+00    0,000000000e+00    0,000000000e+00    0,000000000e+00
      436000000   -4,001703486e-02   -5,188068748e-02   -6,028481722e-01   -4,340086579e-01    0,000000000e+00    0,000000000e+00    0,000000000e+00    0,000000000e+00
      450000000   -6,724812835e-02   -4,474159330e-02   -7,404521108e-01   -2,495023981e-02    0,000000000e+00    0,000000000e+00    0,000000000e+00    0,000000000e+00
      464000000   -7,418813556e-02   -1,230491791e-02   -6,211009026e-01    3,949060142e-01    0,000000000e+00    0,000000000e+00    0,000000000e+00    0,000000000e+00
      478000000   -4,918783531e-02    1,183037646e-02   -2,863473594e-01    6,678934097e-01    0,000000000e+00    0,000000000e+00    0,000000000e+00    0,000000000e+00
      492000000   -1,677486300e-02    6,378593855e-03    1,339065135e-01    7,033872008e-01    0,000000000e+00    0,000000000e+00    0,000000000e+00    0,000000000e+00
      506000000   -3,292835783e-03   -1,487890352e-02    4,973742962e-01    5,065106153e-01    0,000000000e+00    0,000000000e+00    0,000000000e+00    0,000000000e+00
      520000000   -5,735664628e-03   -3,020506911e-02    6,901124716e-01    1,446634680e-01    0,000000000e+00    0,000000000e+00    0,000000000e+00    0,000000000e+00
      534000000   -3,404519288e-03   -3,561611474e-02    6,443941593e-01   -2,596023083e-01    0,000000000e+00    0,000000000e+00    0,000000000e+00    0,000000000e+00
      548000000    8,041677997e-03   -5,276393518e-02    3,845406771e-01   -5,645899773e-01    0,000000000e+00    0,000000000e+00    0,000000000e+00    0,000000000e+00
      562000000    5,712836049e-03   -8,934734017e-02    7,694920059e-03   -6,717208028e-01    0,000000000e+00    0,000000000e+00    0,000000000e+00    0,000000000e+00
      576000000   -3,170077130e-02   -1,259383559e-01   -3,621975482e-01   -5,601676106e-01    0,000000000e+00    0,000000000e+00    0,000000000e+00    0,000000000e+00
      590000000   -9,497351199e-02   -1,279499531e-01   -6,171740294e-01   -2,743457854e-01    0,000000000e+00    0,000000000e+00    0,000000000e+00    0,000000000e+00
      604000000   -1,431210786e-01   -7,807442546e-02   -6,669731140e-01    1,261805296e-01    0,000000000e+00    0,000000000e+00    0,000000000e+00    0,000000000e+00
      618000000   -1,377345324e-01   -1,113902591e-02   -4,748145342e-01    4,855028987e-01    0,000000000e+00    0,000000000e+00    0,000000000e+00    0,000000000e+00
      632000000   -9,326629341e-02    2,130244114e-02   -1,142018214e-01    6,641676426e-01    0,000000000e+00    0,000000000e+00    0,000000000e+00    0,000000000e+00
      646000000   -5,581022799e-02    1,229100768e-02    2,733404338e-01    6,038383842e-01    0,000000000e+00    0,000000000e+00    0,000000000e+00    0,000000000e+00
      660000000   -4,750247672e-02   -8,699659258e-03    5,570582747e-01    3,393180966e-01    0,000000000e+00    0,000000000e+00    0,000000000e+00    0,000000000e+00
      674000000   -5,623345077e-02   -1,073655114e-02    6,441374421e-01   -3,932549059e-02    0,000000000e+00    0,000000000e+00    0,000000000e+00    0,000000000e+00
      688000000   -4,967634007e-02    3,226966830e-03    4,932488203e-01   -4,017637074e-01    0,000000000e+00    0,000000000e+00    0,000000000e+00    0,000000000e+00
      702000000   -2,535146289e-02    8,245995268e-03    1,598539948e-01   -6,053106189e-01    0,000000000e+00    0,000000000e+00    0,000000000e+00    0,000000000e+00
      716000000   -1,819996047e-03   -9,787229821e-03   -2,189967632e-01   -5,749723911e-01    0,000000000e+00    0,000000000e+00    0,000000000e+00    0,000000000e+00
      730000000    1,021681819e-02   -3,449985757e-02   -5,092794299e-01   -3,333375454e-01    0,000000000e+00    0,000000000e+00    0,000000000e+00    0,000000000e+00
      744000000    1,637617871e-02   -6,149803102e-02   -6,008065343e-01    3,305577114e-02    0,000000000e+00    0,000000000e+00    0,000000000e+00    0,000000000e+00
      758000000    2,181846835e-02   -1,028799862e-01   -4,547729492e-01    3,770701885e-01    0,000000000e+00    0,000000000e+00    0,000000000e+00    0,000000000e+00
      772000000   -5,283703096e-03   -1,734601855e-01   -1,388620138e-01    5,580450296e-01    0,000000000e+00    0,000000000e+00    0,000000000e+00    0,000000000e+00
      786000000   -1,046287715e-01   -2,324505597e-01    2,110953629e-01    5,197650790e-01    0,000000000e+00    0,000000000e+00    0,000000000e+00    0,000000000e+00
      800000000   -2,654223144e-01   -1,919710785e-01    4,713488519e-01    2,752119601e-01    0,000000000e+00    0,000000000e+00    0,000000000e+00    0,000000000e+00
      814000000   -3,640334606e-01    2,895311220e-03    5,075868964e-01   -8,866801858e-02    0,000000000e+00    0,000000000e+00    0,000000000e+00    0,000000000e+00
      828000000   -2,472816259e-01    2,334127575e-01    2,813096642e-01   -3,529361784e-01    0,000000000e+00    0,000000000e+00    0,000000000e+00    0,000000000e+00
      842000000    1,321672462e-02    2,784789205e-01   -1,564252563e-02   -3,633430600e-01    0,000000000e+00    0,000000000e+00    0,000000000e+00    0,000000000e+00
      856000000    2,126684487e-01    1,157773435e-01   -1,880756766e-01   -2,045789063e-01    0,000000000e+00    0,000000000e+00    0,000000000e+00    0,000000000e+00
      870000000    2,384967506e-01   -1,485981345e-01   -2,010551244e-01   -2,554988861e-02    0,000000000e+00    0,000000000e+00    0,000000000e+00    0,000000000e+00
      884000000    3,762844950e-02   -3,866199255e-01   -1,040037572e-01    7,130939513e-02    0,000000000e+00    0,000000000e+00    0,000000000e+00    0,000000000e+00
      898000000   -3,684715629e-01   -3,416268826e-01   -1,683173142e-02    2,747147344e-02    0,000000000e+00    0,000000000e+00    0,000000000e+00    0,000000000e+00
      912000000   -4,665989578e-01    1,386696994e-01   -1,165964156e-01    3,930814937e-02    0,000000000e+00    0,000000000e+00    0,000000000e+00    0,000000000e+00
      926000000   -9,684754163e-02    3,516694009e-01   -1,298944354e-01    1,329910457e-01    0,000000000e+00    0,000000000e+00    0,000000000e+00    0,000000000e+00
      940000000    1,831341386e-01    1,933996975e-01   -3,999808431e-02    2,163666040e-01    0,000000000e+00    0,000000000e+00    0,000000000e+00    0,000000000e+00
      954000000    2,552124560e-01   -4,955373704e-02    7,888916135e-02    2,269766033e-01    0,000000000e+00    0,000000000e+00    0,000000000e+00    0,000000000e+00
      968000000    1,742522418e-01   -2,623978853e-01    1,900562793e-01    1,801829785e-01    0,000000000e+00    0,000000000e+00    0,000000000e+00    0,000000000e+00
      982000000   -1,928274520e-02   -3,925543129e-01    2,801312506e-01    7,916957140e-02    0,000000000e+00    0,000000000e+00    0,000000000e+00    0,000000000e+00
      996000000   -2,723977566e-01   -3,746312261e-01    3,097885549e-01   -7,970044762e-02    0,000000000e+00    0,000000000e+00    0,000000000e+00    0,000000000e+00
     1010000000   -4,711133838e-01   -1,694566756e-01    2,224950939e-01   -2,540227473e-01    0,000000000e+00    0,000000000e+00    0,000000000e+00    0,000000000e+00
     1024000000   -4,625993073e-01    1,180332229e-01    2,004623786e-02   -3,296769261e-01    0,000000000e+00    0,000000000e+00    0,000000000e+00    0,000000000e+00
     1038000000   -2,623754144e-01    3,041162491e-01   -1,736033410e-01   -2,478236407e-01    0,000000000e+00    0,000000000e+00    0,000000000e+00    0,000000000e+00
     1052000000   -3,381894901e-02    3,063220084e-01   -2,582230270e-01   -7,729338855e-02    0,000000000e+00    0,000000000e+00    0,000000000e+00    0,000000000e+00
     1066000000    1,295434535e-01    2,035934478e-01   -2,250569761e-01    8,534086496e-02    0,000000000e+00    0,000000000e+00    0,000000000e+00    0,000000000e+00
     1080000000    2,052061856e-01    4,573478550e-02   -1,190612838e-01    1,920403838e-01    0,000000000e+00    0,000000000e+00    0,000000000e+00    0,000000000e+00
     1094000000    2,011899352e-01   -1,242277846e-01    1,711972244e-02    2,345619202e-01    0,000000000e+00    0,000000000e+00    0,000000000e+00    0,000000000e+00
     1108000000    9,868452698e-02   -2,871364951e-01    1,703147888e-01    2,056342959e-01    0,000000000e+00    0,000000000e+00    0,000000000e+00    0,000000000e+00
     1122000000   -1,025952920e-01   -3,703350425e-01    3,176590800e-01    9,045258164e-02    0,000000000e+00    0,000000000e+00    0,000000000e+00    0,000000000e+00
     1136000000   -3,490145504e-01   -2,656274438e-01    3,921398520e-01   -1,517418176e-01    0,000000000e+00    0,000000000e+00    0,000000000e+00    0,000000000e+00
     1150000000   -4,044781625e-01    3,391260654e-02    2,424955815e-01   -4,381453395e-01    0,000000000e+00    0,000000000e+00    0,000000000e+00    0,000000000e+00
     1164000000   -1,635494530e-01    2,172888070e-01   -9,709245712e-02   -5,141844153e-01    0,000000000e+00    0,000000000e+00    0,000000000e+00    0,000000000e+00
     1178000000    7,717074454e-02    8,577220142e-02   -3,548292816e-01   -3,473173976e-01    0,000000000e+00    0,000000000e+00    0,000000000e+00    0,000000000e+00
     1192000000    7,496251911e-02   -1,779179126e-01   -4,552207589e-01   -8,538778871e-02    0,000000000e+00    0,000000000e+00    0,000000000e+00    0,000000000e+00
     1206000000   -1,615465879e-01   -3,268614709e-01   -3,659257889e-01    1,852674186e-01    0,000000000e+00    0,000000000e+00    0,000000000e+00    0,000000000e+00
     1220000000   -4,592282474e-01   -1,795179248e-01   -1,066345125e-01    3,299615979e-01    0,000000000e+00    0,000000000e+00    0,000000000e+00    0,000000000e+00
     1234000000   -4,700538218e-01    1,723476350e-01    1,399851441e-01    2,265501320e-01    0,000000000e+00    0,000000000e+00    0,000000000e+00    0,000000000e+00
     1248000000   -2,363988906e-01    3,604927063e-01    1,912518442e-01    4,016454890e-02    0,000000000e+00    0,000000000e+00    0,000000000e+00    0,000000000e+00
     1262000000   -4,658410617e-04    3,288600147e-01    1,280706823e-01   -7,635065168e-02    0,000000000e+00    0,000000000e+00    0,000000000e+00    0,000000000e+00
     1276000000    1,545877606e-01    1,974572688e-01    5,119431391e-02   -9,591037035e-02    0,000000000e+00    0,000000000e+00    0,000000000e+00    0,000000000e+00
     1290000000    2,206093818e-01    2,971322089e-02    1,572267647e-04   -7,651258260e-02    0,000000000e+00    0,000000000e+00    0,000000000e+00    0,000000000e+00
     1304000000    2,054012716e-01   -1,447388530e-01   -1,722030155e-02   -2,679563500e-02    0,000000000e+00    0,000000000e+00    0,000000000e+00    0,000000000e+00
     1318000000    1,134582162e-01   -3,104959428e-01   -8,146669716e-03    2,406472713e-02    0,000000000e+00    0,000000000e+00    0,000000000e+00    0,000000000e+00
     1332000000   -6,853044033e-02   -4,326241910e-01    4,075493291e-02    5,847535282e-02    0,000000000e+00    0,000000000e+00    0,000000000e+00    0,000000000e+00
     1346000000   -3,252935112e-01   -4,370196760e-01    1,410074085e-01    5,232617632e-02    0,000000000e+00    0,000000000e+00    0,000000000e+00    0,000000000e+00
     1360000000   -5,605102777e-01   -2,386844158e-01    1,089775190e-01   -7,767983526e-02    0,000000000e+00    0,000000000e+00    0,000000000e+00    0,000000000e+00
     1374000000   -6,160845160e-01    2,865172178e-02    1,082464978e-01    5,651243776e-02    0,000000000e+00    0,000000000e+00    0,000000000e+00    0,000000000e+00
     1388000000   -5,110927820e-01    2,951444387e-01    2,237420678e-01    1,109082717e-02    0,000000000e+00    0,000000000e+00    0,000000000e+00    0,000000000e+00
     1402000000   -3,101666570e-01    4,225100577e-01    2,143213153e-01   -8,119338006e-02    0,000000000e+00    0,000000000e+00    0,000000000e+00    0,000000000e+00
     1416000000   -9,618321806e-02    4,146399200e-01    1,828246862e-01   -1,213542372e-01    0,000000000e+00    0,000000000e+00    0,000000000e+00    0,000000000e+00
     1430000000    6,720810384e-02    3,332808018e-01    1,682661176e-01   -1,063491479e-01    0,000000000e+00    0,000000000e+00    0,000000000e+00    0,000000000e+00
     1444000000    1,718503535e-01    2,000782043e-01    1,482663155e-01   -1,055408865e-01    0,000000000e+00    0,000000000e+00    0,000000000e+00    0,000000000e+00
     1458000000    2,252169549e-01    3,634220734e-02    1,537422687e-01   -8,254253119e-02    0,000000000e+00    0,000000000e+00    0,000000000e+00    0,000000000e+00
     1472000000    2,024145275e-01   -1,497871876e-01    1,416223198e-01   -5,744817480e-02    0,000000000e+00    0,000000000e+00    0,000000000e+00    0,000000000e+00
     1486000000    1,039686203e-01   -3,243892789e-01    1,631540507e-01   -2,890020842e-03    0,000000000e+00    0,000000000e+00    0,000000000e+00    0,000000000e+00
     1500000000   -9,102904797e-02   -4,585700035e-01    2,236990184e-01    6,536705792e-02    0,000000000e+00    0,000000000e+00    0,000000000e+00    0,000000000e+00
