! NanoVNA-App
! Date: 2025-09-25 14:28:16
! Start: 100MHz Stop: 1,5GHz Points: 101
! S-Parameter data: F S11 S21 S12 S22
# Hz S RI R 50
!     Frequency           S11_Real           S11_Imag           S21_Real           S21_Imag           S12_Real           S12_Imag           S22_Real           S22_Imag
      100000000   -2,910258248e-02   -4,136147909e-03    3,745352328e-01   -7,220397592e-01    0,000000000e+00    0,000000000e+00    0,000000000e+00    0,000000000e+00
      114000000   -1,661056280e-02    1,158649847e-02   -8,890084922e-02   -8,056605458e-01    0,000000000e+00    0,000000000e+00    0,000000000e+00    0,000000000e+00
      128000000    3,387674224e-03    1,054416131e-02   -5,145143867e-01   -6,210300326e-01    0,000000000e+00    0,000000000e+00    0,000000000e+00    0,000000000e+00
      142000000    1,443371549e-02   -3,082900308e-03   -7,674161792e-01   -2,369858325e-01    0,000000000e+00    0,000000000e+00    0,000000000e+00    0,000000000e+00
      156000000    1,484155655e-02   -1,496636309e-02   -7,697794437e-01    2,195099741e-01    0,000000000e+00    0,000000000e+00    0,000000000e+00    0,000000000e+00
      170000000    1,656445861e-02   -2,249817736e-02   -5,187692642e-01    6,050259471e-01    0,000000000e+00    0,000000000e+00    0,000000000e+00    0,000000000e+00
      184000000    2,099168673e-02   -3,702628613e-02   -1,019205302e-01    7,866336703e-01    0,000000000e+00    0,000000000e+00    0,000000000e+00    0,000000000e+00
      198000000    1,313745789e-02   -6,260062754e-02    3,429361582e-01    7,130961418e-01    0,000000000e+00    0,000000000e+00    0,000000000e+00    0,000000000e+00
      212000000   -1,867161319e-02   -8,172013611e-02    6,784757972e-01    4,106443226e-01    0,000000000e+00    0,000000000e+00    0,000000000e+00    0,000000000e+00
      226000000   -6,208802760e-02   -6,974420696e-02    7,961851358e-01   -2,963969670e-02    0,000000000e+00    0,000000000e+00    0,000000000e+00    0,000000000e+00
      240000000   -8,328759670e-02   -2,599603496e-02    6,469865441e-01   -4,665548205e-01    0,000000000e+00    0,000000000e+00    0,000000000e+00    0,000000000e+00
      254000000   -6,439886987e-02    1,747154631e-02    2,769316435e-01   -7,430108190e-01    0,000000000e+00    0,000000000e+00    0,000000000e+00    0,000000000e+00
      268000000   -2,404178865e-02    2,950069308e-02   -1,766713411e-01   -7,648132443e-01    0,000000000e+00    0,000000000e+00    0,000000000e+00    0,000000000e+00
      282000000    4,142922815e-03    1,200523786e-02   -5,623301268e-01   -5,373450518e-01    0,000000000e+00    0,000000000e+00    0,000000000e+00    0,000000000e+00
      296000000    9,485618211e-03   -7,736215834e-03   -7,609493136e-01   -1,395689994e-01    0,000000000e+00    0,000000000e+00    0,000000000e+00    0,000000000e+00
      310000000    1,088190358e-02   -1,606213488e-02   -7,136447430e-01    2,980974913e-01    0,000000000e+00    0,000000000e+00    0,000000000e+00    0,000000000e+00
      324000000    1,942661032e-02   -2,636604011e-02   -4,287496805e-01    6,376155019e-01    0,000000000e+00    0,000000000e+00    0,000000000e+00    0,000000000e+00
      338000000    2,536754124e-02   -5,211378261e-02   -1,236862876e-02    7,604529262e-01    0,000000000e+00    0,000000000e+00    0,000000000e+00    0,000000000e+00
      352000000    7,680461742e-03   -8,488963544e-02    4,051154554e-01    6,410985589e-01    0,000000000e+00    0,000000000e+00    0,000000000e+00    0,000000000e+00
      366000000   -3,487426788e-02   -9,620433301e-02    6,906569004e-01    3,128175735e-01    0,000000000e+00    0,000000000e+00    0,000000000e+00    0,000000000e+00
      380000000   -7,149251550e-02   -7,113239914e-02    7,480631471e-01   -1,248250455e-01    0,000000000e+00    0,000000000e+00    0,000000000e+00    0,000000000e+00
      394000000   -7,314251363e-02   -3,230474517e-02    5,486174822e-01   -5,211227536e-01    0,000000000e+00    0,000000000e+00    0,000000000e+00    0,000000000e+00
      408000000   -4,709601402e-02   -1,552116964e-02    1,621818393e-01   -7,326388955e-01    0,000000000e+00    0,000000000e+00    0,000000000e+00    0,000000000e+00
      422000000   -2,824256010e-02   -3,150688484e-02   -2,658671141e-01   -6,952267885e-01    0,000000000e+00    0,000000000e+00    0,000000000e+00    0,000000000e+00
      436000000   -4,027496278e-02   -5,228616670e-02   -6,035240889e-01   -4,343088567e-01    0,000000000e+00    0,000000000e+00    0,000000000e+00    0,000000000e+00
      450000000   -6,746203452e-02   -4,471565783e-02   -7,406267524e-01   -2,489434741e-02    0,000000000e+00    0,000000000e+00    0,000000000e+00    0,000000000e+00
      464000000   -7,457485795e-02   -1,236629114e-02   -6,217643023e-01    3,945367932e-01    0,000000000e+00    0,000000000e+00    0,000000000e+00    0,000000000e+00
      478000000   -4,944603145e-02    1,184661500e-02   -2,865329981e-01    6,671829820e-01    0,000000000e+00    0,000000000e+00    0,000000000e+00    0,000000000e+00
      492000000   -1,683948748e-02    6,442552432e-03    1,350915432e-01    7,035246491e-01    0,000000000e+00    0,000000000e+00    0,000000000e+00    0,000000000e+00
      506000000   -3,448133124e-03   -1,486899983e-02    4,977980256e-01    5,055440664e-01    0,000000000e+00    0,000000000e+00    0,000000000e+00    0,000000000e+00
      520000000   -5,593909416e-03   -2,957214415e-02    6,895467639e-01    1,450103521e-01    0,000000000e+00    0,000000000e+00    0,000000000e+00    0,000000000e+00
      534000000   -3,418638604e-03   -3,604828194e-02    6,445969343e-01   -2,596806884e-01    0,000000000e+00    0,000000000e+00    0,000000000e+00    0,000000000e+00
      548000000    8,039995097e-03   -5,268102139e-02    3,844791353e-01   -5,637570024e-01    0,000000000e+00    0,000000000e+00    0,000000000e+00    0,000000000e+00
      562000000    5,491804332e-03   -9,017043561e-02    7,157457527e-03   -6,726680994e-01    0,000000000e+00    0,000000000e+00    0,000000000e+00    0,000000000e+00
      576000000   -3,131768480e-02   -1,259792000e-01   -3,620463908e-01   -5,608766675e-01    0,000000000e+00    0,000000000e+00    0,000000000e+00    0,000000000e+00
      590000000   -9,494612366e-02   -1,278777570e-01   -6,179110408e-01   -2,708405852e-01    0,000000000e+00    0,000000000e+00    0,000000000e+00    0,000000000e+00
      604000000   -1,432950944e-01   -7,773435116e-02   -6,674481034e-01    1,265158355e-01    0,000000000e+00    0,000000000e+00    0,000000000e+00    0,000000000e+00
      618000000   -1,378191262e-01   -1,116640680e-02   -4,754053354e-01    4,850784540e-01    0,000000000e+00    0,000000000e+00    0,000000000e+00    0,000000000e+00
      632000000   -9,348864108e-02    2,152254432e-02   -1,139309406e-01    6,632848382e-01    0,000000000e+00    0,000000000e+00    0,000000000e+00    0,000000000e+00
      646000000   -5,540252104e-02    1,241630409e-02    2,733313739e-01    6,028613448e-01    0,000000000e+00    0,000000000e+00    0,000000000e+00    0,000000000e+00
      660000000   -4,859929532e-02   -8,438410237e-03    5,573453903e-01    3,411220014e-01    0,000000000e+00    0,000000000e+00    0,000000000e+00    0,000000000e+00
      674000000   -5,633756146e-02   -1,079736277e-02    6,443839073e-01   -3,943968192e-02    0,000000000e+00    0,000000000e+00    0,000000000e+00    0,000000000e+00
      688000000   -5,002449825e-02    3,581916448e-03    4,931616485e-01   -4,012058079e-01    0,000000000e+00    0,000000000e+00    0,000000000e+00    0,000000000e+00
      702000000   -2,645761892e-02    8,395916782e-03    1,588990688e-01   -6,018567681e-01    0,000000000e+00    0,000000000e+00    0,000000000e+00    0,000000000e+00
      716000000   -1,456803759e-03   -9,241605178e-03   -2,191273421e-01   -5,754177570e-01    0,000000000e+00    0,000000000e+00    0,000000000e+00    0,000000000e+00
      730000000    1,020171959e-02   -3,452475742e-02   -5,096774101e-01   -3,334859312e-01    0,000000000e+00    0,000000000e+00    0,000000000e+00    0,000000000e+00
      744000000    1,646602526e-02   -6,126129627e-02   -6,008015871e-01    3,266844898e-02    0,000000000e+00    0,000000000e+00    0,000000000e+00    0,000000000e+00
      758000000    2,176191285e-02   -1,039649099e-01   -4,541061223e-01    3,770621717e-01    0,000000000e+00    0,000000000e+00    0,000000000e+00    0,000000000e+00
      772000000   -4,801650997e-03   -1,742546260e-01   -1,396816671e-01    5,588121414e-01    0,000000000e+00    0,000000000e+00    0,000000000e+00    0,000000000e+00
      786000000   -1,056937873e-01   -2,321535796e-01    2,113579214e-01    5,195822716e-01    0,000000000e+00    0,000000000e+00    0,000000000e+00    0,000000000e+00
      800000000   -2,652283907e-01   -1,926715821e-01    4,714192152e-01    2,752031386e-01    0,000000000e+00    0,000000000e+00    0,000000000e+00    0,000000000e+00
      814000000   -3,647667170e-01    3,217597725e-03    5,080634952e-01   -8,824923635e-02    0,000000000e+00    0,000000000e+00    0,000000000e+00    0,000000000e+00
      828000000   -2,476964593e-01    2,324585915e-01    2,820512652e-01   -3,526517451e-01    0,000000000e+00    0,000000000e+00    0,000000000e+00    0,000000000e+00
      842000000    1,339625753e-02    2,783531547e-01   -1,577383280e-02   -3,631336093e-01    0,000000000e+00    0,000000000e+00    0,000000000e+00    0,000000000e+00
      856000000    2,122920454e-01    1,153025106e-01   -1,880109757e-01   -2,046688497e-01    0,000000000e+00    0,000000000e+00    0,000000000e+00    0,000000000e+00
      870000000    2,386338860e-01   -1,490977407e-01   -2,004579008e-01   -2,650951035e-02    0,000000000e+00    0,000000000e+00    0,000000000e+00    0,000000000e+00
      884000000    3,732110560e-02   -3,860050142e-01   -1,047839671e-01    7,081273198e-02    0,000000000e+00    0,000000000e+00    0,000000000e+00    0,000000000e+00
      898000000   -3,695281744e-01   -3,412943780e-01   -1,680644229e-02    2,798339166e-02    0,000000000e+00    0,000000000e+00    0,000000000e+00    0,000000000e+00
      912000000   -4,663349986e-01    1,376931369e-01   -1,198151931e-01    3,938492015e-02    0,000000000e+00    0,000000000e+00    0,000000000e+00    0,000000000e+00
      926000000   -9,531441331e-02    3,492378592e-01   -1,289666146e-01    1,318476498e-01    0,000000000e+00    0,000000000e+00    0,000000000e+00    0,000000000e+00
      940000000    1,860478222e-01    1,940505356e-01   -3,732109815e-02    2,161166519e-01    0,000000000e+00    0,000000000e+00    0,000000000e+00    0,000000000e+00
      954000000    2,563951313e-01   -4,550194368e-02    8,051359653e-02    2,280961573e-01    0,000000000e+00    0,000000000e+00    0,000000000e+00    0,000000000e+00
      968000000    1,746974438e-01   -2,589644194e-01    1,921945214e-01    1,811827570e-01    0,000000000e+00    0,000000000e+00    0,000000000e+00    0,000000000e+00
      982000000   -1,441878639e-02   -3,954700530e-01    2,814319730e-01    7,876241952e-02    0,000000000e+00    0,000000000e+00    0,000000000e+00    0,000000000e+00
      996000000   -2,753014266e-01   -3,775225878e-01    3,091394901e-01   -8,131635934e-02    0,000000000e+00    0,000000000e+00    0,000000000e+00    0,000000000e+00
     1010000000   -4,703430235e-01   -1,757614166e-01    2,219795287e-01   -2,524780333e-01    0,000000000e+00    0,000000000e+00    0,000000000e+00    0,000000000e+00
     1024000000   -4,603665769e-01    1,199543625e-01    2,201025002e-02   -3,311987817e-01    0,000000000e+00    0,000000000e+00    0,000000000e+00    0,000000000e+00
     1038000000   -2,642127275e-01    2,942668498e-01   -1,741257161e-01   -2,466639876e-01    0,000000000e+00    0,000000000e+00    0,000000000e+00    0,000000000e+00
     1052000000   -3,452239931e-02    3,071067333e-01   -2,560168505e-01   -7,657656819e-02    0,000000000e+00    0,000000000e+00    0,000000000e+00    0,000000000e+00
     1066000000    1,283011287e-01    2,074329555e-01   -2,246000469e-01    8,554520458e-02    0,000000000e+00    0,000000000e+00    0,000000000e+00    0,000000000e+00
     1080000000    2,098012120e-01    4,483528063e-02   -1,216582656e-01    1,939871311e-01    0,000000000e+00    0,000000000e+00    0,000000000e+00    0,000000000e+00
     1094000000    2,049533874e-01   -1,275554597e-01    1,746529527e-02    2,360247970e-01    0,000000000e+00    0,000000000e+00    0,000000000e+00    0,000000000e+00
     1108000000    1,006028801e-01   -2,893687785e-01    1,677107662e-01    2,070110440e-01    0,000000000e+00    0,000000000e+00    0,000000000e+00    0,000000000e+00
     1122000000   -1,025067344e-01   -3,692286909e-01    3,187856376e-01    9,159408510e-02    0,000000000e+00    0,000000000e+00    0,000000000e+00    0,000000000e+00
     1136000000   -3,433693051e-01   -2,671588659e-01    3,931801319e-01   -1,507866681e-01    0,000000000e+00    0,000000000e+00    0,000000000e+00    0,000000000e+00
     1150000000   -4,117033780e-01    3,318371996e-02    2,449149340e-01   -4,365930557e-01    0,000000000e+00    0,000000000e+00    0,000000000e+00    0,000000000e+00
     1164000000   -1,585281640e-01    2,144956738e-01   -9,445771575e-02   -5,124422908e-01    0,000000000e+00    0,000000000e+00    0,000000000e+00    0,000000000e+00
     1178000000    7,270264626e-02    8,513092995e-02   -3,579635620e-01   -3,462463915e-01    0,000000000e+00    0,000000000e+00    0,000000000e+00    0,000000000e+00
     1192000000    7,432436198e-02   -1,750646532e-01   -4,559286237e-01   -8,398523927e-02    0,000000000e+00    0,000000000e+00    0,000000000e+00    0,000000000e+00
     1206000000   -1,640434265e-01   -3,289810121e-01   -3,707481325e-01    1,872799546e-01    0,000000000e+00    0,000000000e+00    0,000000000e+00    0,000000000e+00
     1220000000   -4,542270899e-01   -1,819293201e-01   -1,063532680e-01    3,248755038e-01    0,000000000e+00    0,000000000e+00    0,000000000e+00    0,000000000e+00
     1234000000   -4,778129160e-01    1,684948504e-01    1,374243945e-01    2,248335183e-01    0,000000000e+00    0,000000000e+00    0,000000000e+00    0,000000000e+00
     1248000000   -2,320404649e-01    3,584873974e-01    1,969304383e-01    3,405763209e-02    0,000000000e+00    0,000000000e+00    0,000000000e+00    0,000000000e+00
     1262000000    3,392386949e-03    3,254664242e-01    1,273424625e-01   -7,080932707e-02    0,000000000e+00    0,000000000e+00    0,000000000e+00    0,000000000e+00
     1276000000    1,514318287e-01    1,999711394e-01    5,132944882e-02   -9,584937245e-02    0,000000000e+00    0,000000000e+00    0,000000000e+00    0,000000000e+00
     1290000000    2,147334963e-01    2,927332371e-02   -1,671443228e-03   -7,525755465e-02    0,000000000e+00    0,000000000e+00    0,000000000e+00    0,000000000e+00
     1304000000    2,071418315e-01   -1,452700794e-01   -1,891545020e-02   -2,837288752e-02    0,000000000e+00    0,000000000e+00    0,000000000e+00    0,000000000e+00
     1318000000    1,177199259e-01   -3,094076812e-01   -3,882726887e-03    2,443095669e-02    0,000000000e+00    0,000000000e+00    0,000000000e+00    0,000000000e+00
     1332000000   -6,575029343e-02   -4,332129359e-01    4,178933799e-02    6,321228296e-02    0,000000000e+00    0,000000000e+00    0,000000000e+00    0,000000000e+00
     1346000000   -3,295838535e-01   -4,320153594e-01    1,578327119e-01    4,529327899e-02    0,000000000e+00    0,000000000e+00    0,000000000e+00    0,000000000e+00
     1360000000   -5,562112927e-01   -2,441528589e-01    1,118260399e-01   -8,661317825e-02    0,000000000e+00    0,000000000e+00    0,000000000e+00    0,000000000e+00
     1374000000   -6,289297938e-01    3,459214419e-02    9,926366061e-02    6,807563454e-02    0,000000000e+00    0,000000000e+00    0,000000000e+00    0,000000000e+00
     1388000000   -5,065587759e-01    2,941914499e-01    2,309013009e-01    1,113323309e-02    0,000000000e+00    0,000000000e+00    0,000000000e+00    0,000000000e+00
     1402000000   -2,990799844e-01    4,159534872e-01    2,243556678e-01   -8,319547027e-02    0,000000000e+00    0,000000000e+00    0,000000000e+00    0,000000000e+00
     1416000000   -9,100665152e-02    4,220520258e-01    1,931255609e-01   -1,202343628e-01    0,000000000e+00    0,000000000e+00    0,000000000e+00    0,000000000e+00
     1430000000    6,438422948e-02    3,379306495e-01    1,530410945e-01   -1,020839289e-01    0,000000000e+00    0,000000000e+00    0,000000000e+00    0,000000000e+00
     1444000000    1,732125282e-01    2,017153203e-01    1,521112919e-01   -8,994415402e-02    0,000000000e+00    0,000000000e+00    0,000000000e+00    0,000000000e+00
     1458000000    2,296996266e-01    3,452610597e-02    1,668855548e-01   -8,516240865e-02    0,000000000e+00    0,000000000e+00    0,000000000e+00    0,000000000e+00
     1472000000    2,067472935e-01   -1,460849941e-01    1,591609567e-01   -4,018745199e-02    0,000000000e+00    0,000000000e+00    0,000000000e+00    0,000000000e+00
     1486000000    1,070140302e-01   -3,225623667e-01    1,747655123e-01    1,048222184e-03    0,000000000e+00    0,000000000e+00    0,000000000e+00    0,000000000e+00
     1500000000   -8,633332700e-02   -4,612282813e-01    2,172358781e-01    4,839643091e-02    0,000000000e+00    0,000000000e+00    0,000000000e+00    0,000000000e+00
