! NanoVNA-App
! Date: 2025-09-25 14:25:10
! Start: 100MHz Stop: 1,5GHz Points: 101
! S-Parameter data: F S11 S21 S12 S22
# Hz S RI R 50
!     Frequency           S11_Real           S11_Imag           S21_Real           S21_Imag           S12_Real           S12_Imag           S22_Real           S22_Imag
      100000000   -2,910486050e-02   -4,123437684e-03    3,744719028e-01   -7,220452428e-01    0,000000000e+00    0,000000000e+00    0,000000000e+00    0,000000000e+00
      114000000   -1,658854447e-02    1,163696684e-02   -8,902464807e-02   -8,058289289e-01    0,000000000e+00    0,000000000e+00    0,000000000e+00    0,000000000e+00
      128000000    3,372706240e-03    1,053500362e-02   -5,146694779e-01   -6,211288571e-01    0,000000000e+00    0,000000000e+00    0,000000000e+00    0,000000000e+00
      142000000    1,444325224e-02   -3,078887006e-03   -7,675940394e-01   -2,369681150e-01    0,000000000e+00    0,000000000e+00    0,000000000e+00    0,000000000e+00
      156000000    1,539021451e-02   -1,485061925e-02   -7,694343328e-01    2,232683599e-01    0,000000000e+00    0,000000000e+00    0,000000000e+00    0,000000000e+00
      170000000    1,656919532e-02   -2,248395234e-02   -5,187274218e-01    6,049579382e-01    0,000000000e+00    0,000000000e+00    0,000000000e+00    0,000000000e+00
      184000000    2,091965266e-02   -3,705145791e-02   -1,017666087e-01    7,865518928e-01    0,000000000e+00    0,000000000e+00    0,000000000e+00    0,000000000e+00
      198000000    1,307804231e-02   -6,258720160e-02    3,432175815e-01    7,131457925e-01    0,000000000e+00    0,000000000e+00    0,000000000e+00    0,000000000e+00
      212000000   -1,870911010e-02   -8,171331882e-02    6,783842444e-01    4,105919003e-01    0,000000000e+00    0,000000000e+00    0,000000000e+00    0,000000000e+00
      226000000   -6,205508485e-02   -6,965626031e-02    7,961700559e-01   -2,978346311e-02    0,000000000e+00    0,000000000e+00    0,000000000e+00    0,000000000e+00
      240000000   -8,331368119e-02   -2,606881224e-02    6,471716762e-01   -4,665342569e-01    0,000000000e+00    0,000000000e+00    0,000000000e+00    0,000000000e+00
      254000000   -6,439445168e-02    1,751292311e-02    2,770495117e-01   -7,435138822e-01    0,000000000e+00    0,000000000e+00    0,000000000e+00    0,000000000e+00
      268000000   -2,405800857e-02    2,950648405e-02   -1,767965257e-01   -7,650574446e-01    0,000000000e+00    0,000000000e+00    0,000000000e+00    0,000000000e+00
      282000000    4,077554680e-03    1,210104767e-02   -5,625625253e-01   -5,373747945e-01    0,000000000e+00    0,000000000e+00    0,000000000e+00    0,000000000e+00
      296000000    9,513110854e-03   -7,747849915e-03   -7,610678077e-01   -1,396323293e-01    0,000000000e+00    0,000000000e+00    0,000000000e+00    0,000000000e+00
      310000000    1,088523492e-02   -1,602646150e-02   -7,125259638e-01    2,987045050e-01    0,000000000e+00    0,000000000e+00    0,000000000e+00    0,000000000e+00
      324000000    1,946982928e-02   -2,643735148e-02   -4,285467863e-01    6,379686594e-01    0,000000000e+00    0,000000000e+00    0,000000000e+00    0,000000000e+00
      338000000    2,561628073e-02   -5,197551101e-02   -9,654871188e-03    7,631313801e-01    0,000000000e+00    0,000000000e+00    0,000000000e+00    0,000000000e+00
      352000000    7,474191021e-03   -8,520772308e-02    4,063484073e-01    6,406488419e-01    0,000000000e+00    0,000000000e+00    0,000000000e+00    0,000000000e+00
      366000000   -3,480006382e-02   -9,601347148e-02    6,906579733e-01    3,120258152e-01    0,000000000e+00    0,000000000e+00    0,000000000e+00    0,000000000e+00
      380000000   -7,131936401e-02   -7,136172056e-02    7,486357093e-01   -1,247456744e-01    0,000000000e+00    0,000000000e+00    0,000000000e+00    0,000000000e+00
      394000000   -7,301037014e-02   -3,243415430e-02    5,482533574e-01   -5,223559737e-01    0,000000000e+00    0,000000000e+00    0,000000000e+00    0,000000000e+00
      408000000   -4,713911191e-02   -1,557992585e-02    1,636251062e-01   -7,329093218e-01    0,000000000e+00    0,000000000e+00    0,000000000e+00    0,000000000e+00
      422000000   -2,816673554e-02   -3,153151646e-02   -2,663309872e-01   -6,953325868e-01    0,000000000e+00    0,000000000e+00    0,000000000e+00    0,000000000e+00
      436000000   -4,020944610e-02   -5,229811370e-02   -6,025740504e-01   -4,339087009e-01    0,000000000e+00    0,000000000e+00    0,000000000e+00    0,000000000e+00
      450000000   -6,763126701e-02   -4,480610043e-02   -7,406234145e-01   -2,581611834e-02    0,000000000e+00    0,000000000e+00    0,000000000e+00    0,000000000e+00
      464000000   -7,412077487e-02   -1,233796217e-02   -6,213996410e-01    3,945836425e-01    0,000000000e+00    0,000000000e+00    0,000000000e+00    0,000000000e+00
      478000000   -4,908481613e-02    1,168670878e-02   -2,867917120e-01    6,673776507e-01    0,000000000e+00    0,000000000e+00    0,000000000e+00    0,000000000e+00
      492000000   -1,657766663e-02    6,726928987e-03    1,343127787e-01    7,042438388e-01    0,000000000e+00    0,000000000e+00    0,000000000e+00    0,000000000e+00
      506000000   -3,481414868e-03   -1,479371078e-02    4,978751540e-01    5,062566400e-01    0,000000000e+00    0,000000000e+00    0,000000000e+00    0,000000000e+00
      520000000   -5,930918735e-03   -2,957203798e-02    6,884509921e-01    1,443547457e-01    0,000000000e+00    0,000000000e+00    0,000000000e+00    0,000000000e+00
      534000000   -3,700544359e-03   -3,557225317e-02    6,443825364e-01   -2,596909404e-01    0,000000000e+00    0,000000000e+00    0,000000000e+00    0,000000000e+00
      548000000    8,029898629e-03   -5,262272805e-02    3,847931325e-01   -5,637052655e-01    0,000000000e+00    0,000000000e+00    0,000000000e+00    0,000000000e+00
      562000000    5,798058119e-03   -8,908662200e-02    8,528907783e-03   -6,716955304e-01    0,000000000e+00    0,000000000e+00    0,000000000e+00    0,000000000e+00
      576000000   -3,130275756e-02   -1,263361871e-01   -3,623681962e-01   -5,609900355e-01    0,000000000e+00    0,000000000e+00    0,000000000e+00    0,000000000e+00
      590000000   -9,477712959e-02   -1,276441216e-01   -6,154918075e-01   -2,710595429e-01    0,000000000e+00    0,000000000e+00    0,000000000e+00    0,000000000e+00
      604000000   -1,430839002e-01   -7,770779729e-02   -6,672639847e-01    1,269103885e-01    0,000000000e+00    0,000000000e+00    0,000000000e+00    0,000000000e+00
      618000000   -1,377646923e-01   -1,160164084e-02   -4,746407270e-01    4,858655930e-01    0,000000000e+00    0,000000000e+00    0,000000000e+00    0,000000000e+00
      632000000   -9,280505031e-02    2,156897262e-02   -1,139131263e-01    6,640312672e-01    0,000000000e+00    0,000000000e+00    0,000000000e+00    0,000000000e+00
      646000000   -5,459714308e-02    1,223425753e-02    2,740701735e-01    6,035835743e-01    0,000000000e+00    0,000000000e+00    0,000000000e+00    0,000000000e+00
      660000000   -4,802830890e-02   -9,117287584e-03    5,574746132e-01    3,405772448e-01    0,000000000e+00    0,000000000e+00    0,000000000e+00    0,000000000e+00
      674000000   -5,610174686e-02   -1,115078200e-02    6,442179084e-01   -3,994211555e-02    0,000000000e+00    0,000000000e+00    0,000000000e+00    0,000000000e+00
      688000000   -5,050170049e-02    2,587250201e-03    4,936869442e-01   -4,015880227e-01    0,000000000e+00    0,000000000e+00    0,000000000e+00    0,000000000e+00
      702000000   -2,591888234e-02    6,975593977e-03    1,604048908e-01   -6,029612422e-01    0,000000000e+00    0,000000000e+00    0,000000000e+00    0,000000000e+00
      716000000   -1,498270198e-03   -9,708091617e-03   -2,186317444e-01   -5,749468207e-01    0,000000000e+00    0,000000000e+00    0,000000000e+00    0,000000000e+00
      730000000    9,000190534e-03   -3,441126272e-02   -5,089334249e-01   -3,336348832e-01    0,000000000e+00    0,000000000e+00    0,000000000e+00    0,000000000e+00
      744000000    1,723704115e-02   -6,030040979e-02   -6,010887027e-01    3,308535740e-02    0,000000000e+00    0,000000000e+00    0,000000000e+00    0,000000000e+00
      758000000    2,192954719e-02   -1,040872261e-01   -4,543980062e-01    3,777274489e-01    0,000000000e+00    0,000000000e+00    0,000000000e+00    0,000000000e+00
      772000000   -4,471934866e-03   -1,737977117e-01   -1,398701966e-01    5,586378574e-01    0,000000000e+00    0,000000000e+00    0,000000000e+00    0,000000000e+00
      786000000   -1,058434546e-01   -2,324905843e-01    2,113081515e-01    5,192921162e-01    0,000000000e+00    0,000000000e+00    0,000000000e+00    0,000000000e+00
      800000000   -2,663171589e-01   -1,929212064e-01    4,718627036e-01    2,757067978e-01    0,000000000e+00    0,000000000e+00    0,000000000e+00    0,000000000e+00
      814000000   -3,638381362e-01    4,253713414e-03    5,077515841e-01   -8,852061629e-02    0,000000000e+00    0,000000000e+00    0,000000000e+00    0,000000000e+00
      828000000   -2,472677678e-01    2,332683504e-01    2,811342180e-01   -3,525289297e-01    0,000000000e+00    0,000000000e+00    0,000000000e+00    0,000000000e+00
      842000000    1,290800236e-02    2,788712978e-01   -1,483292598e-02   -3,621758223e-01    0,000000000e+00    0,000000000e+00    0,000000000e+00    0,000000000e+00
      856000000    2,128104120e-01    1,151804402e-01   -1,875206381e-01   -2,049768120e-01    0,000000000e+00    0,000000000e+00    0,000000000e+00    0,000000000e+00
      870000000    2,388118654e-01   -1,484349370e-01   -2,001453787e-01   -2,566146292e-02    0,000000000e+00    0,000000000e+00    0,000000000e+00    0,000000000e+00
      884000000    3,804574907e-02   -3,858412504e-01   -1,043786258e-01    7,084760070e-02    0,000000000e+00    0,000000000e+00    0,000000000e+00    0,000000000e+00
      898000000   -3,694198728e-01   -3,415918946e-01   -1,668301038e-02    2,747801691e-02    0,000000000e+00    0,000000000e+00    0,000000000e+00    0,000000000e+00
      912000000   -4,677877426e-01    1,387994587e-01   -1,104228720e-01    3,944829479e-02    0,000000000e+00    0,000000000e+00    0,000000000e+00    0,000000000e+00
      926000000   -9,554743767e-02    3,503405154e-01   -1,297536492e-01    1,338767856e-01    0,000000000e+00    0,000000000e+00    0,000000000e+00    0,000000000e+00
      940000000    1,821754128e-01    1,945516914e-01   -3,831928223e-02    2,165129781e-01    0,000000000e+00    0,000000000e+00    0,000000000e+00    0,000000000e+00
      954000000    2,532021999e-01   -4,886019975e-02    7,984895259e-02    2,293863147e-01    0,000000000e+00    0,000000000e+00    0,000000000e+00    0,000000000e+00
      968000000    1,784021407e-01   -2,618177235e-01    1,930504292e-01    1,808512956e-01    0,000000000e+00    0,000000000e+00    0,000000000e+00    0,000000000e+00
      982000000   -1,698607579e-02   -3,950033486e-01    2,808738053e-01    7,857474685e-02    0,000000000e+00    0,000000000e+00    0,000000000e+00    0,000000000e+00
      996000000   -2,717503607e-01   -3,787400126e-01    3,085626662e-01   -8,028060943e-02    0,000000000e+00    0,000000000e+00    0,000000000e+00    0,000000000e+00
     1010000000   -4,721046090e-01   -1,698392034e-01    2,208606303e-01   -2,555068135e-01    0,000000000e+00    0,000000000e+00    0,000000000e+00    0,000000000e+00
     1024000000   -4,623926282e-01    1,179638356e-01    2,196656540e-02   -3,301990628e-01    0,000000000e+00    0,000000000e+00    0,000000000e+00    0,000000000e+00
     1038000000   -2,677390277e-01    2,972463369e-01   -1,728617251e-01   -2,480160445e-01    0,000000000e+00    0,000000000e+00    0,000000000e+00    0,000000000e+00
     1052000000   -3,870593011e-02    3,127846420e-01   -2,578289211e-01   -8,020176739e-02    0,000000000e+00    0,000000000e+00    0,000000000e+00    0,000000000e+00
     1066000000    1,309165508e-01    2,053017169e-01   -2,278224230e-01    8,889790624e-02    0,000000000e+00    0,000000000e+00    0,000000000e+00    0,000000000e+00
     1080000000    2,096143514e-01    4,674657434e-02   -1,222837418e-01    1,924975365e-01    0,000000000e+00    0,000000000e+00    0,000000000e+00    0,000000000e+00
     1094000000    1,992027611e-01   -1,297693104e-01    1,972467825e-02    2,341450006e-01    0,000000000e+00    0,000000000e+00    0,000000000e+00    0,000000000e+00
     1108000000    1,005289480e-01   -2,843483388e-01    1,688054651e-01    2,061821371e-01    0,000000000e+00    0,000000000e+00    0,000000000e+00    0,000000000e+00
     1122000000   -1,033916399e-01   -3,706124723e-01    3,146114349e-01    8,972827345e-02    0,000000000e+00    0,000000000e+00    0,000000000e+00    0,000000000e+00
     1136000000   -3,438935876e-01   -2,662362158e-01    3,897810280e-01   -1,514549851e-01    0,000000000e+00    0,000000000e+00    0,000000000e+00    0,000000000e+00
     1150000000   -4,086028337e-01    4,008815810e-02    2,466347665e-01   -4,364754856e-01    0,000000000e+00    0,000000000e+00    0,000000000e+00    0,000000000e+00
     1164000000   -1,631857306e-01    2,221478522e-01   -9,240590036e-02   -5,130627155e-01    0,000000000e+00    0,000000000e+00    0,000000000e+00    0,000000000e+00
     1178000000    7,918917388e-02    8,225453645e-02   -3,569186032e-01   -3,509463668e-01    0,000000000e+00    0,000000000e+00    0,000000000e+00    0,000000000e+00
     1192000000    7,351073623e-02   -1,739173830e-01   -4,542417228e-01   -8,504910022e-02    0,000000000e+00    0,000000000e+00    0,000000000e+00    0,000000000e+00
     1206000000   -1,628429890e-01   -3,230312169e-01   -3,703847528e-01    1,913981289e-01    0,000000000e+00    0,000000000e+00    0,000000000e+00    0,000000000e+00
     1220000000   -4,599816501e-01   -1,733890921e-01   -1,064292192e-01    3,267693818e-01    0,000000000e+00    0,000000000e+00    0,000000000e+00    0,000000000e+00
     1234000000   -4,800136685e-01    1,648249477e-01    1,377464086e-01    2,154832780e-01    0,000000000e+00    0,000000000e+00    0,000000000e+00    0,000000000e+00
     1248000000   -2,381113470e-01    3,502898216e-01    1,868716478e-01    3,381641954e-02    0,000000000e+00    0,000000000e+00    0,000000000e+00    0,000000000e+00
     1262000000    3,113128711e-03    3,248417675e-01    1,243520603e-01   -7,494456321e-02    0,000000000e+00    0,000000000e+00    0,000000000e+00    0,000000000e+00
     1276000000    1,538423449e-01    2,029788941e-01    5,279637873e-02   -9,530305117e-02    0,000000000e+00    0,000000000e+00    0,000000000e+00    0,000000000e+00
     1290000000    2,157304138e-01    3,249368817e-02    3,247250570e-03   -7,479928434e-02    0,000000000e+00    0,000000000e+00    0,000000000e+00    0,000000000e+00
     1304000000    2,083446980e-01   -1,427749842e-01   -2,048538812e-02   -2,779281884e-02    0,000000000e+00    0,000000000e+00    0,000000000e+00    0,000000000e+00
     1318000000    1,097705886e-01   -3,117676973e-01   -2,462126315e-03    1,957282238e-02    0,000000000e+00    0,000000000e+00    0,000000000e+00    0,000000000e+00
     1332000000   -6,430280954e-02   -4,351804256e-01    5,588666350e-02    6,867472082e-02    0,000000000e+00    0,000000000e+00    0,000000000e+00    0,000000000e+00
     1346000000   -3,272140622e-01   -4,317470789e-01    1,499916613e-01    5,355515331e-02    0,000000000e+00    0,000000000e+00    0,000000000e+00    0,000000000e+00
     1360000000   -5,528007150e-01   -2,404780835e-01    1,226947829e-01   -6,672781706e-02    0,000000000e+00    0,000000000e+00    0,000000000e+00    0,000000000e+00
     1374000000   -6,246210933e-01    3,674748912e-02    1,041686013e-01    6,190708280e-02    0,000000000e+00    0,000000000e+00    0,000000000e+00    0,000000000e+00
     1388000000   -5,188451409e-01    2,934726179e-01    2,122919559e-01    4,471288063e-03    0,000000000e+00    0,000000000e+00    0,000000000e+00    0,000000000e+00
     1402000000   -3,105677366e-01    4,122282863e-01    2,256336659e-01   -8,726835996e-02    0,000000000e+00    0,000000000e+00    0,000000000e+00    0,000000000e+00
     1416000000   -8,921638131e-02    4,151087701e-01    1,881347448e-01   -1,222550794e-01    0,000000000e+00    0,000000000e+00    0,000000000e+00    0,000000000e+00
     1430000000    7,778994739e-02    3,368237913e-01    1,674884260e-01   -1,164197400e-01    0,000000000e+00    0,000000000e+00    0,000000000e+00    0,000000000e+00
     1444000000    1,733907312e-01    2,037548572e-01    1,561647952e-01   -9,835092723e-02    0,000000000e+00    0,000000000e+00    0,000000000e+00    0,000000000e+00
     1458000000    2,268127352e-01    3,683670610e-02    1,508055776e-01   -8,275588602e-02    0,000000000e+00    0,000000000e+00    0,000000000e+00    0,000000000e+00
     1472000000    2,022671551e-01   -1,439414173e-01    1,572867632e-01   -4,606127366e-02    0,000000000e+00    0,000000000e+00    0,000000000e+00    0,000000000e+00
     1486000000    1,021219343e-01   -3,207851052e-01    1,628123224e-01    5,187357892e-04    0,000000000e+00    0,000000000e+00    0,000000000e+00    0,000000000e+00
     1500000000   -9,909923375e-02   -4,600737393e-01    2,003401518e-01    5,430343002e-02    0,000000000e+00    0,000000000e+00    0,000000000e+00    0,000000000e+00
