! NanoVNA-App
! Date: 2025-09-25 14:22:35
! Start: 100MHz Stop: 1,5GHz Points: 101
! S-Parameter data: F S11 S21 S12 S22
# Hz S RI R 50
!     Frequency           S11_Real           S11_Imag           S21_Real           S21_Imag           S12_Real           S12_Imag           S22_Real           S22_Imag
      100000000   -2,909256890e-02   -4,138963297e-03    3,744847178e-01   -7,220857739e-01    0,000000000e+00    0,000000000e+00    0,000000000e+00    0,000000000e+00
      114000000   -1,661005802e-02    1,159342751e-02   -8,895392716e-02   -8,056649566e-01    0,000000000e+00    0,000000000e+00    0,000000000e+00    0,000000000e+00
      128000000    3,418178530e-03    1,056611445e-02   -5,144144297e-01   -6,209772825e-01    0,000000000e+00    0,000000000e+00    0,000000000e+00    0,000000000e+00
      142000000    1,445568353e-02   -3,041870892e-03   -7,674929500e-01   -2,369289994e-01    0,000000000e+00    0,000000000e+00    0,000000000e+00    0,000000000e+00
      156000000    1,561326720e-02   -1,474321447e-02   -7,702171803e-01    2,239165753e-01    0,000000000e+00    0,000000000e+00    0,000000000e+00    0,000000000e+00
      170000000    1,658570021e-02   -2,250770479e-02   -5,187069178e-01    6,050755978e-01    0,000000000e+00    0,000000000e+00    0,000000000e+00    0,000000000e+00
      184000000    2,099050023e-02   -3,708807752e-02   -1,017688662e-01    7,868735194e-01    0,000000000e+00    0,000000000e+00    0,000000000e+00    0,000000000e+00
      198000000    1,305964123e-02   -6,258664280e-02    3,428610265e-01    7,132266164e-01    0,000000000e+00    0,000000000e+00    0,000000000e+00    0,000000000e+00
      212000000   -1,871795021e-02   -8,161846548e-02    6,783726811e-01    4,104788303e-01    0,000000000e+00    0,000000000e+00    0,000000000e+00    0,000000000e+00
      226000000   -6,201866642e-02   -6,968808174e-02    7,960488796e-01   -2,977668308e-02    0,000000000e+00    0,000000000e+00    0,000000000e+00    0,000000000e+00
      240000000   -8,313200623e-02   -2,611934766e-02    6,469742060e-01   -4,666156173e-01    0,000000000e+00    0,000000000e+00    0,000000000e+00    0,000000000e+00
      254000000   -6,434367597e-02    1,724759303e-02    2,773255408e-01   -7,433777452e-01    0,000000000e+00    0,000000000e+00    0,000000000e+00    0,000000000e+00
      268000000   -2,430946194e-02    2,951416932e-02   -1,772057563e-01   -7,651299238e-01    0,000000000e+00    0,000000000e+00    0,000000000e+00    0,000000000e+00
      282000000    4,150387365e-03    1,219626609e-02   -5,624923706e-01   -5,370323062e-01    0,000000000e+00    0,000000000e+00    0,000000000e+00    0,000000000e+00
      296000000    9,592241608e-03   -7,683066651e-03   -7,606172562e-01   -1,395635605e-01    0,000000000e+00    0,000000000e+00    0,000000000e+00    0,000000000e+00
      310000000    1,090776548e-02   -1,607354917e-02   -7,129014730e-01    2,961190939e-01    0,000000000e+00    0,000000000e+00    0,000000000e+00    0,000000000e+00
      324000000    1,953913458e-02   -2,635039389e-02   -4,294289351e-01    6,379281282e-01    0,000000000e+00    0,000000000e+00    0,000000000e+00    0,000000000e+00
      338000000    2,541797422e-02   -5,197539181e-02   -8,339787833e-03    7,621673942e-01    0,000000000e+00    0,000000000e+00    0,000000000e+00    0,000000000e+00
      352000000    7,544792257e-03   -8,474106342e-02    4,054503143e-01    6,401762962e-01    0,000000000e+00    0,000000000e+00    0,000000000e+00    0,000000000e+00
      366000000   -3,475131094e-02   -9,603007883e-02    6,904818416e-01    3,120805919e-01    0,000000000e+00    0,000000000e+00    0,000000000e+00    0,000000000e+00
      380000000   -7,131329179e-02   -7,106576115e-02    7,478610873e-01   -1,242339313e-01    0,000000000e+00    0,000000000e+00    0,000000000e+00    0,000000000e+00
      394000000   -7,322227955e-02   -3,241198510e-02    5,489690900e-01   -5,202487111e-01    0,000000000e+00    0,000000000e+00    0,000000000e+00    0,000000000e+00
      408000000   -4,682902992e-02   -1,581444405e-02    1,637256891e-01   -7,322002649e-01    0,000000000e+00    0,000000000e+00    0,000000000e+00    0,000000000e+00
      422000000   -2,831713483e-02   -3,148176149e-02   -2,655987740e-01   -6,957304478e-01    0,000000000e+00    0,000000000e+00    0,000000000e+00    0,000000000e+00
      436000000   -4,016496986e-02   -5,182124674e-02   -6,020914316e-01   -4,340259731e-01    0,000000000e+00    0,000000000e+00    0,000000000e+00    0,000000000e+00
      450000000   -6,760048866e-02   -4,485663772e-02   -7,401749492e-01   -2,504161932e-02    0,000000000e+00    0,000000000e+00    0,000000000e+00    0,000000000e+00
      464000000   -7,405345887e-02   -1,265545003e-02   -6,212791204e-01    3,945754468e-01    0,000000000e+00    0,000000000e+00    0,000000000e+00    0,000000000e+00
      478000000   -4,930413514e-02    1,160246693e-02   -2,871615887e-01    6,676254869e-01    0,000000000e+00    0,000000000e+00    0,000000000e+00    0,000000000e+00
      492000000   -1,690938696e-02    6,690705195e-03    1,343315095e-01    7,040270567e-01    0,000000000e+00    0,000000000e+00    0,000000000e+00    0,000000000e+00
      506000000   -3,250997514e-03   -1,525643934e-02    4,978903234e-01    5,061818957e-01    0,000000000e+00    0,000000000e+00    0,000000000e+00    0,000000000e+00
      520000000   -6,041011773e-03   -2,960233763e-02    6,891391873e-01    1,435979307e-01    0,000000000e+00    0,000000000e+00    0,000000000e+00    0,000000000e+00
      534000000   -3,502914216e-03   -3,578450903e-02    6,446889639e-01   -2,595744431e-01    0,000000000e+00    0,000000000e+00    0,000000000e+00    0,000000000e+00
      548000000    8,183105849e-03   -5,278131366e-02    3,852671981e-01   -5,643104315e-01    0,000000000e+00    0,000000000e+00    0,000000000e+00    0,000000000e+00
      562000000    6,001048721e-03   -8,916069567e-02    9,049213491e-03   -6,721974611e-01    0,000000000e+00    0,000000000e+00    0,000000000e+00    0,000000000e+00
      576000000   -3,093895316e-02   -1,263699085e-01   -3,622241020e-01   -5,606089830e-01    0,000000000e+00    0,000000000e+00    0,000000000e+00    0,000000000e+00
      590000000   -9,483283013e-02   -1,276609749e-01   -6,162634492e-01   -2,708995044e-01    0,000000000e+00    0,000000000e+00    0,000000000e+00    0,000000000e+00
      604000000   -1,430661976e-01   -7,815992832e-02   -6,672769189e-01    1,259007603e-01    0,000000000e+00    0,000000000e+00    0,000000000e+00    0,000000000e+00
      618000000   -1,385157108e-01   -1,127663627e-02   -4,754966497e-01    4,847970307e-01    0,000000000e+00    0,000000000e+00    0,000000000e+00    0,000000000e+00
      632000000   -9,274797887e-02    2,170219831e-02   -1,137069166e-01    6,631577015e-01    0,000000000e+00    0,000000000e+00    0,000000000e+00    0,000000000e+00
      646000000   -5,578951165e-02    1,146650221e-02    2,742850482e-01    6,044120789e-01    0,000000000e+00    0,000000000e+00    0,000000000e+00    0,000000000e+00
      660000000   -4,842084274e-02   -9,441321716e-03    5,566063523e-01    3,412289619e-01    0,000000000e+00    0,000000000e+00    0,000000000e+00    0,000000000e+00
      674000000   -5,550685897e-02   -1,103708055e-02    6,445488334e-01   -4,021081328e-02    0,000000000e+00    0,000000000e+00    0,000000000e+00    0,000000000e+00
      688000000   -4,969523475e-02    2,812691033e-03    4,931547046e-01   -4,014964104e-01    0,000000000e+00    0,000000000e+00    0,000000000e+00    0,000000000e+00
      702000000   -2,551192790e-02    6,936769001e-03    1,611290127e-01   -6,005412340e-01    0,000000000e+00    0,000000000e+00    0,000000000e+00    0,000000000e+00
      716000000   -2,330223797e-03   -9,462177753e-03   -2,187493443e-01   -5,747752190e-01    0,000000000e+00    0,000000000e+00    0,000000000e+00    0,000000000e+00
      730000000    1,008535456e-02   -3,497112542e-02   -5,092878342e-01   -3,333573341e-01    0,000000000e+00    0,000000000e+00    0,000000000e+00    0,000000000e+00
      744000000    1,593816467e-02   -6,117243320e-02   -6,006366611e-01    3,329665959e-02    0,000000000e+00    0,000000000e+00    0,000000000e+00    0,000000000e+00
      758000000    2,174443379e-02   -1,040091068e-01   -4,544699192e-01    3,769095838e-01    0,000000000e+00    0,000000000e+00    0,000000000e+00    0,000000000e+00
      772000000   -4,694042262e-03   -1,731669605e-01   -1,402833164e-01    5,577405691e-01    0,000000000e+00    0,000000000e+00    0,000000000e+00    0,000000000e+00
      786000000   -1,051199511e-01   -2,320491672e-01    2,114257216e-01    5,193696618e-01    0,000000000e+00    0,000000000e+00    0,000000000e+00    0,000000000e+00
      800000000   -2,660779953e-01   -1,919598579e-01    4,714036882e-01    2,754913867e-01    0,000000000e+00    0,000000000e+00    0,000000000e+00    0,000000000e+00
      814000000   -3,639391363e-01    2,942134626e-03    5,076571703e-01   -8,867190033e-02    0,000000000e+00    0,000000000e+00    0,000000000e+00    0,000000000e+00
      828000000   -2,478182912e-01    2,331544310e-01    2,818403244e-01   -3,520352542e-01    0,000000000e+00    0,000000000e+00    0,000000000e+00    0,000000000e+00
      842000000    1,318934280e-02    2,788257599e-01   -1,620389335e-02   -3,626843393e-01    0,000000000e+00    0,000000000e+00    0,000000000e+00    0,000000000e+00
      856000000    2,123296261e-01    1,155984327e-01   -1,885933578e-01   -2,042419016e-01    0,000000000e+00    0,000000000e+00    0,000000000e+00    0,000000000e+00
      870000000    2,390277982e-01   -1,485640705e-01   -2,007388175e-01   -2,627383731e-02    0,000000000e+00    0,000000000e+00    0,000000000e+00    0,000000000e+00
      884000000    3,801240027e-02   -3,869529963e-01   -1,040036231e-01    7,102162391e-02    0,000000000e+00    0,000000000e+00    0,000000000e+00    0,000000000e+00
      898000000   -3,697609305e-01   -3,419614732e-01   -1,653072052e-02    2,760247327e-02    0,000000000e+00    0,000000000e+00    0,000000000e+00    0,000000000e+00
      912000000   -4,684443474e-01    1,386576891e-01   -1,115628630e-01    3,880182654e-02    0,000000000e+00    0,000000000e+00    0,000000000e+00    0,000000000e+00
      926000000   -9,451726079e-02    3,506993353e-01   -1,273469031e-01    1,322450936e-01    0,000000000e+00    0,000000000e+00    0,000000000e+00    0,000000000e+00
      940000000    1,818152815e-01    1,945951432e-01   -4,079695046e-02    2,153327763e-01    0,000000000e+00    0,000000000e+00    0,000000000e+00    0,000000000e+00
      954000000    2,528029978e-01   -4,826685041e-02    7,855723798e-02    2,277231216e-01    0,000000000e+00    0,000000000e+00    0,000000000e+00    0,000000000e+00
      968000000    1,766077280e-01   -2,602484226e-01    1,924789697e-01    1,796004772e-01    0,000000000e+00    0,000000000e+00    0,000000000e+00    0,000000000e+00
      982000000   -1,688127220e-02   -3,964625597e-01    2,807156742e-01    8,119764179e-02    0,000000000e+00    0,000000000e+00    0,000000000e+00    0,000000000e+00
      996000000   -2,765072584e-01   -3,746632040e-01    3,085777164e-01   -7,771603018e-02    0,000000000e+00    0,000000000e+00    0,000000000e+00    0,000000000e+00
     1010000000   -4,717744887e-01   -1,748052239e-01    2,200985849e-01   -2,530952990e-01    0,000000000e+00    0,000000000e+00    0,000000000e+00    0,000000000e+00
     1024000000   -4,607267082e-01    1,197637171e-01    2,266703174e-02   -3,313245177e-01    0,000000000e+00    0,000000000e+00    0,000000000e+00    0,000000000e+00
     1038000000   -2,684003115e-01    2,991878688e-01   -1,704219729e-01   -2,469249219e-01    0,000000000e+00    0,000000000e+00    0,000000000e+00    0,000000000e+00
     1052000000   -3,450993821e-02    3,071377277e-01   -2,557044625e-01   -7,830586284e-02    0,000000000e+00    0,000000000e+00    0,000000000e+00    0,000000000e+00
     1066000000    1,253614575e-01    2,054997832e-01   -2,236273140e-01    8,450123668e-02    0,000000000e+00    0,000000000e+00    0,000000000e+00    0,000000000e+00
     1080000000    2,065994292e-01    4,900706187e-02   -1,215918809e-01    1,932416409e-01    0,000000000e+00    0,000000000e+00    0,000000000e+00    0,000000000e+00
     1094000000    1,984513551e-01   -1,280099303e-01    1,748270541e-02    2,355186939e-01    0,000000000e+00    0,000000000e+00    0,000000000e+00    0,000000000e+00
     1108000000    9,892360121e-02   -2,872217894e-01    1,692287773e-01    2,097093612e-01    0,000000000e+00    0,000000000e+00    0,000000000e+00    0,000000000e+00
     1122000000   -9,960325807e-02   -3,675149679e-01    3,143121004e-01    8,938048035e-02    0,000000000e+00    0,000000000e+00    0,000000000e+00    0,000000000e+00
     1136000000   -3,501303792e-01   -2,665651441e-01    3,896176219e-01   -1,496592611e-01    0,000000000e+00    0,000000000e+00    0,000000000e+00    0,000000000e+00
     1150000000   -4,027609229e-01    3,511530533e-02    2,438421994e-01   -4,347502589e-01    0,000000000e+00    0,000000000e+00    0,000000000e+00    0,000000000e+00
     1164000000   -1,560323089e-01    2,165593803e-01   -9,147825092e-02   -5,125026703e-01    0,000000000e+00    0,000000000e+00    0,000000000e+00    0,000000000e+00
     1178000000    7,283730060e-02    8,187339455e-02   -3,560104966e-01   -3,483309746e-01    0,000000000e+00    0,000000000e+00    0,000000000e+00    0,000000000e+00
     1192000000    7,351839542e-02   -1,710843891e-01   -4,537766874e-01   -8,359644562e-02    0,000000000e+00    0,000000000e+00    0,000000000e+00    0,000000000e+00
     1206000000   -1,646232754e-01   -3,257054687e-01   -3,706932962e-01    1,901149154e-01    0,000000000e+00    0,000000000e+00    0,000000000e+00    0,000000000e+00
     1220000000   -4,577935040e-01   -1,783112288e-01   -1,085579619e-01    3,263722956e-01    0,000000000e+00    0,000000000e+00    0,000000000e+00    0,000000000e+00
     1234000000   -4,698918462e-01    1,706696302e-01    1,383217722e-01    2,232434750e-01    0,000000000e+00    0,000000000e+00    0,000000000e+00    0,000000000e+00
     1248000000   -2,368722558e-01    3,534325063e-01    1,889339834e-01    3,383002058e-02    0,000000000e+00    0,000000000e+00    0,000000000e+00    0,000000000e+00
     1262000000    6,090824492e-03    3,250192404e-01    1,310037971e-01   -7,266860455e-02    0,000000000e+00    0,000000000e+00    0,000000000e+00    0,000000000e+00
     1276000000    1,494582891e-01    2,014143765e-01    4,958380759e-02   -9,812839329e-02    0,000000000e+00    0,000000000e+00    0,000000000e+00    0,000000000e+00
     1290000000    2,200694084e-01    2,933029830e-02    1,226385473e-03   -7,174270600e-02    0,000000000e+00    0,000000000e+00    0,000000000e+00    0,000000000e+00
     1304000000    2,082430720e-01   -1,454845667e-01   -1,440348104e-02   -2,522695437e-02    0,000000000e+00    0,000000000e+00    0,000000000e+00    0,000000000e+00
     1318000000    1,173515245e-01   -3,112225831e-01   -8,257728070e-03    2,404570766e-02    0,000000000e+00    0,000000000e+00    0,000000000e+00    0,000000000e+00
     1332000000   -6,425352395e-02   -4,378298521e-01    5,333359540e-02    6,271889806e-02    0,000000000e+00    0,000000000e+00    0,000000000e+00    0,000000000e+00
     1346000000   -3,258318007e-01   -4,339533150e-01    1,413668841e-01    4,078730941e-02    0,000000000e+00    0,000000000e+00    0,000000000e+00    0,000000000e+00
     1360000000   -5,486997962e-01   -2,410518527e-01    1,193753034e-01   -6,580161303e-02    0,000000000e+00    0,000000000e+00    0,000000000e+00    0,000000000e+00
     1374000000   -6,258141398e-01    3,672742844e-02    9,671511501e-02    6,816913933e-02    0,000000000e+00    0,000000000e+00    0,000000000e+00    0,000000000e+00
     1388000000   -5,206162333e-01    2,895867527e-01    2,151570916e-01    4,201928619e-03    0,000000000e+00    0,000000000e+00    0,000000000e+00    0,000000000e+00
     1402000000   -3,043788075e-01    4,168828726e-01    2,210071683e-01   -6,461605430e-02    0,000000000e+00    0,000000000e+00    0,000000000e+00    0,000000000e+00
     1416000000   -9,041587263e-02    4,184787273e-01    1,865696162e-01   -1,262572110e-01    0,000000000e+00    0,000000000e+00    0,000000000e+00    0,000000000e+00
     1430000000    7,132294774e-02    3,283314407e-01    1,568189263e-01   -1,074557602e-01    0,000000000e+00    0,000000000e+00    0,000000000e+00    0,000000000e+00
     1444000000    1,723093688e-01    1,940909773e-01    1,483350694e-01   -1,073194221e-01    0,000000000e+00    0,000000000e+00    0,000000000e+00    0,000000000e+00
     1458000000    2,224501073e-01    3,703789786e-02    1,527618915e-01   -8,466845751e-02    0,000000000e+00    0,000000000e+00    0,000000000e+00    0,000000000e+00
     1472000000    2,060640454e-01   -1,436251849e-01    1,661354601e-01   -4,932757095e-02    0,000000000e+00    0,000000000e+00    0,000000000e+00    0,000000000e+00
     1486000000    1,068692878e-01   -3,233788311e-01    1,648381799e-01   -3,001285018e-03    0,000000000e+00    0,000000000e+00    0,000000000e+00    0,000000000e+00
     1500000000   -9,184046835e-02   -4,582464099e-01    2,092640102e-01    6,703068316e-02    0,000000000e+00    0,000000000e+00    0,000000000e+00    0,000000000e+00
