! NanoVNA-App
! Date: 2025-09-25 14:27:51
! Start: 100MHz Stop: 1,5GHz Points: 101
! S-Parameter data: F S11 S21 S12 S22
# Hz S RI R 50
!     Frequency           S11_Real           S11_Imag           S21_Real           S21_Imag           S12_Real           S12_Imag           S22_Real           S22_Imag
      100000000   -2,910144441e-02   -4,121121485e-03    3,745355606e-01   -7,219802737e-01    0,000000000e+00    0,000000000e+00    0,000000000e+00    0,000000000e+00
      114000000   -1,659232564e-02    1,160145178e-02   -8,897398412e-02   -8,056676388e-01    0,000000000e+00    0,000000000e+00    0,000000000e+00    0,000000000e+00
      128000000    3,446053015e-03    1,050978340e-02   -5,144102573e-01   -6,212033629e-01    0,000000000e+00    0,000000000e+00    0,000000000e+00    0,000000000e+00
      142000000    1,441879291e-02   -3,083785297e-03   -7,675727606e-01   -2,370184362e-01    0,000000000e+00    0,000000000e+00    0,000000000e+00    0,000000000e+00
      156000000    1,431821845e-02   -1,503135916e-02   -7,646871209e-01    2,200233489e-01    0,000000000e+00    0,000000000e+00    0,000000000e+00    0,000000000e+00
      170000000    1,654073969e-02   -2,245361730e-02   -5,189307332e-01    6,049980521e-01    0,000000000e+00    0,000000000e+00    0,000000000e+00    0,000000000e+00
      184000000    2,101317048e-02   -3,698826581e-02   -1,019910425e-01    7,866440415e-01    0,000000000e+00    0,000000000e+00    0,000000000e+00    0,000000000e+00
      198000000    1,314345747e-02   -6,259439886e-02    3,426670134e-01    7,131483555e-01    0,000000000e+00    0,000000000e+00    0,000000000e+00    0,000000000e+00
      212000000   -1,870816946e-02   -8,169645816e-02    6,785082221e-01    4,104512632e-01    0,000000000e+00    0,000000000e+00    0,000000000e+00    0,000000000e+00
      226000000   -6,211085990e-02   -6,973699480e-02    7,961682081e-01   -2,969489619e-02    0,000000000e+00    0,000000000e+00    0,000000000e+00    0,000000000e+00
      240000000   -8,331198990e-02   -2,606898360e-02    6,471886635e-01   -4,667241573e-01    0,000000000e+00    0,000000000e+00    0,000000000e+00    0,000000000e+00
      254000000   -6,437676400e-02    1,747654751e-02    2,772536874e-01   -7,432297468e-01    0,000000000e+00    0,000000000e+00    0,000000000e+00    0,000000000e+00
      268000000   -2,403890900e-02    2,944595926e-02   -1,771184802e-01   -7,650462389e-01    0,000000000e+00    0,000000000e+00    0,000000000e+00    0,000000000e+00
      282000000    4,106417764e-03    1,213028375e-02   -5,626639724e-01   -5,374407172e-01    0,000000000e+00    0,000000000e+00    0,000000000e+00    0,000000000e+00
      296000000    9,548450820e-03   -7,803005166e-03   -7,608435154e-01   -1,397205442e-01    0,000000000e+00    0,000000000e+00    0,000000000e+00    0,000000000e+00
      310000000    1,086124685e-02   -1,630031876e-02   -7,136458158e-01    2,966126204e-01    0,000000000e+00    0,000000000e+00    0,000000000e+00    0,000000000e+00
      324000000    1,946898550e-02   -2,643259801e-02   -4,286060333e-01    6,368095875e-01    0,000000000e+00    0,000000000e+00    0,000000000e+00    0,000000000e+00
      338000000    2,562318742e-02   -5,203739554e-02   -1,245753001e-02    7,625163198e-01    0,000000000e+00    0,000000000e+00    0,000000000e+00    0,000000000e+00
      352000000    7,551993709e-03   -8,484856039e-02    4,062995911e-01    6,406912208e-01    0,000000000e+00    0,000000000e+00    0,000000000e+00    0,000000000e+00
      366000000   -3,500413150e-02   -9,617226571e-02    6,907328963e-01    3,128965795e-01    0,000000000e+00    0,000000000e+00    0,000000000e+00    0,000000000e+00
      380000000   -7,142139971e-02   -7,139030844e-02    7,485257387e-01   -1,247333288e-01    0,000000000e+00    0,000000000e+00    0,000000000e+00    0,000000000e+00
      394000000   -7,311016321e-02   -3,237450495e-02    5,482816100e-01   -5,198197961e-01    0,000000000e+00    0,000000000e+00    0,000000000e+00    0,000000000e+00
      408000000   -4,707221314e-02   -1,560988370e-02    1,620088369e-01   -7,319644690e-01    0,000000000e+00    0,000000000e+00    0,000000000e+00    0,000000000e+00
      422000000   -2,840748243e-02   -3,153760731e-02   -2,654868960e-01   -6,966493130e-01    0,000000000e+00    0,000000000e+00    0,000000000e+00    0,000000000e+00
      436000000   -4,032152146e-02   -5,198517442e-02   -6,026713848e-01   -4,345852733e-01    0,000000000e+00    0,000000000e+00    0,000000000e+00    0,000000000e+00
      450000000   -6,763096154e-02   -4,450296611e-02   -7,406597733e-01   -2,504152432e-02    0,000000000e+00    0,000000000e+00    0,000000000e+00    0,000000000e+00
      464000000   -7,399170846e-02   -1,235946734e-02   -6,214534044e-01    3,945659399e-01    0,000000000e+00    0,000000000e+00    0,000000000e+00    0,000000000e+00
      478000000   -4,909063131e-02    1,148200408e-02   -2,867944539e-01    6,681038737e-01    0,000000000e+00    0,000000000e+00    0,000000000e+00    0,000000000e+00
      492000000   -1,690783724e-02    6,212176289e-03    1,349548548e-01    7,042415142e-01    0,000000000e+00    0,000000000e+00    0,000000000e+00    0,000000000e+00
      506000000   -3,935696557e-03   -1,499960013e-02    4,977437556e-01    5,061991215e-01    0,000000000e+00    0,000000000e+00    0,000000000e+00    0,000000000e+00
      520000000   -5,616322160e-03   -2,945338376e-02    6,897832751e-01    1,442957073e-01    0,000000000e+00    0,000000000e+00    0,000000000e+00    0,000000000e+00
      534000000   -3,318474628e-03   -3,569458053e-02    6,449424624e-01   -2,593945265e-01    0,000000000e+00    0,000000000e+00    0,000000000e+00    0,000000000e+00
      548000000    8,122830652e-03   -5,262511596e-02    3,853751421e-01   -5,631269217e-01    0,000000000e+00    0,000000000e+00    0,000000000e+00    0,000000000e+00
      562000000    5,623465404e-03   -8,926923573e-02    9,242761880e-03   -6,721330285e-01    0,000000000e+00    0,000000000e+00    0,000000000e+00    0,000000000e+00
      576000000   -3,186256811e-02   -1,262815446e-01   -3,624868393e-01   -5,602420568e-01    0,000000000e+00    0,000000000e+00    0,000000000e+00    0,000000000e+00
      590000000   -9,519164264e-02   -1,277892292e-01   -6,159048080e-01   -2,735953927e-01    0,000000000e+00    0,000000000e+00    0,000000000e+00    0,000000000e+00
      604000000   -1,432860196e-01   -7,772247493e-02   -6,676011682e-01    1,260739118e-01    0,000000000e+00    0,000000000e+00    0,000000000e+00    0,000000000e+00
      618000000   -1,384086758e-01   -1,147828251e-02   -4,750986397e-01    4,853390753e-01    0,000000000e+00    0,000000000e+00    0,000000000e+00    0,000000000e+00
      632000000   -9,339701384e-02    2,149216644e-02   -1,133322865e-01    6,623739004e-01    0,000000000e+00    0,000000000e+00    0,000000000e+00    0,000000000e+00
      646000000   -5,536407605e-02    1,242318936e-02    2,730739415e-01    6,037257314e-01    0,000000000e+00    0,000000000e+00    0,000000000e+00    0,000000000e+00
      660000000   -4,844240472e-02   -8,225657046e-03    5,566803217e-01    3,398648202e-01    0,000000000e+00    0,000000000e+00    0,000000000e+00    0,000000000e+00
      674000000   -5,644796416e-02   -1,090481225e-02    6,441887617e-01   -3,932483494e-02    0,000000000e+00    0,000000000e+00    0,000000000e+00    0,000000000e+00
      688000000   -5,016243830e-02    3,604936646e-03    4,929522276e-01   -4,023719132e-01    0,000000000e+00    0,000000000e+00    0,000000000e+00    0,000000000e+00
      702000000   -2,600654028e-02    8,342869580e-03    1,607838571e-01   -6,046001911e-01    0,000000000e+00    0,000000000e+00    0,000000000e+00    0,000000000e+00
      716000000   -2,655665856e-03   -8,626871742e-03   -2,186629325e-01   -5,748724341e-01    0,000000000e+00    0,000000000e+00    0,000000000e+00    0,000000000e+00
      730000000    9,310358204e-03   -3,499494120e-02   -5,094355345e-01   -3,338408768e-01    0,000000000e+00    0,000000000e+00    0,000000000e+00    0,000000000e+00
      744000000    1,697350107e-02   -6,161928922e-02   -6,008750200e-01    3,315333277e-02    0,000000000e+00    0,000000000e+00    0,000000000e+00    0,000000000e+00
      758000000    2,277691662e-02   -1,034613997e-01   -4,543179572e-01    3,768545985e-01    0,000000000e+00    0,000000000e+00    0,000000000e+00    0,000000000e+00
      772000000   -4,517460242e-03   -1,733158529e-01   -1,397554278e-01    5,583575964e-01    0,000000000e+00    0,000000000e+00    0,000000000e+00    0,000000000e+00
      786000000   -1,056380123e-01   -2,328154743e-01    2,116846144e-01    5,197893977e-01    0,000000000e+00    0,000000000e+00    0,000000000e+00    0,000000000e+00
      800000000   -2,663583755e-01   -1,922088563e-01    4,712034166e-01    2,756761909e-01    0,000000000e+00    0,000000000e+00    0,000000000e+00    0,000000000e+00
      814000000   -3,637013137e-01    3,171508899e-03    5,078706145e-01   -8,811946213e-02    0,000000000e+00    0,000000000e+00    0,000000000e+00    0,000000000e+00
      828000000   -2,474351078e-01    2,340400666e-01    2,811616957e-01   -3,519798815e-01    0,000000000e+00    0,000000000e+00    0,000000000e+00    0,000000000e+00
      842000000    1,298801880e-02    2,776936889e-01   -1,552901417e-02   -3,629152179e-01    0,000000000e+00    0,000000000e+00    0,000000000e+00    0,000000000e+00
      856000000    2,124870121e-01    1,153696105e-01   -1,877619475e-01   -2,049993277e-01    0,000000000e+00    0,000000000e+00    0,000000000e+00    0,000000000e+00
      870000000    2,387492210e-01   -1,488711536e-01   -2,006082833e-01   -2,670710906e-02    0,000000000e+00    0,000000000e+00    0,000000000e+00    0,000000000e+00
      884000000    3,764652461e-02   -3,865969479e-01   -1,044532433e-01    7,069347799e-02    0,000000000e+00    0,000000000e+00    0,000000000e+00    0,000000000e+00
      898000000   -3,706768155e-01   -3,428567946e-01   -1,723400131e-02    2,775770240e-02    0,000000000e+00    0,000000000e+00    0,000000000e+00    0,000000000e+00
      912000000   -4,682764709e-01    1,370915323e-01   -1,073752493e-01    3,858726099e-02    0,000000000e+00    0,000000000e+00    0,000000000e+00    0,000000000e+00
      926000000   -9,450826049e-02    3,522060215e-01   -1,275975108e-01    1,360344440e-01    0,000000000e+00    0,000000000e+00    0,000000000e+00    0,000000000e+00
      940000000    1,846385300e-01    1,913617551e-01   -3,918415308e-02    2,156096846e-01    0,000000000e+00    0,000000000e+00    0,000000000e+00    0,000000000e+00
      954000000    2,523432076e-01   -4,709823430e-02    7,976429909e-02    2,273037881e-01    0,000000000e+00    0,000000000e+00    0,000000000e+00    0,000000000e+00
      968000000    1,740620136e-01   -2,631799579e-01    1,915479153e-01    1,806457639e-01    0,000000000e+00    0,000000000e+00    0,000000000e+00    0,000000000e+00
      982000000   -1,979984902e-02   -3,930832744e-01    2,803241611e-01    7,995001972e-02    0,000000000e+00    0,000000000e+00    0,000000000e+00    0,000000000e+00
      996000000   -2,719211876e-01   -3,733295202e-01    3,086346090e-01   -7,878561318e-02    0,000000000e+00    0,000000000e+00    0,000000000e+00    0,000000000e+00
     1010000000   -4,709483087e-01   -1,687240303e-01    2,217886448e-01   -2,521772087e-01    0,000000000e+00    0,000000000e+00    0,000000000e+00    0,000000000e+00
     1024000000   -4,574733078e-01    1,146851778e-01    2,045350336e-02   -3,275931776e-01    0,000000000e+00    0,000000000e+00    0,000000000e+00    0,000000000e+00
     1038000000   -2,660122514e-01    2,971100211e-01   -1,750533283e-01   -2,466587722e-01    0,000000000e+00    0,000000000e+00    0,000000000e+00    0,000000000e+00
     1052000000   -3,846051916e-02    3,066934645e-01   -2,563819289e-01   -7,570312172e-02    0,000000000e+00    0,000000000e+00    0,000000000e+00    0,000000000e+00
     1066000000    1,287963241e-01    2,029740512e-01   -2,236699462e-01    8,462265134e-02    0,000000000e+00    0,000000000e+00    0,000000000e+00    0,000000000e+00
     1080000000    2,048543990e-01    4,955016822e-02   -1,212135926e-01    1,933270693e-01    0,000000000e+00    0,000000000e+00    0,000000000e+00    0,000000000e+00
     1094000000    1,996375024e-01   -1,281239539e-01    1,851424575e-02    2,339046597e-01    0,000000000e+00    0,000000000e+00    0,000000000e+00    0,000000000e+00
     1108000000    1,012609527e-01   -2,892983556e-01    1,678070724e-01    2,051508725e-01    0,000000000e+00    0,000000000e+00    0,000000000e+00    0,000000000e+00
     1122000000   -9,866435081e-02   -3,718874753e-01    3,168050051e-01    9,052669257e-02    0,000000000e+00    0,000000000e+00    0,000000000e+00    0,000000000e+00
     1136000000   -3,422025144e-01   -2,683598101e-01    3,919093013e-01   -1,496587545e-01    0,000000000e+00    0,000000000e+00    0,000000000e+00    0,000000000e+00
     1150000000   -4,047695696e-01    3,868944198e-02    2,416254133e-01   -4,358279407e-01    0,000000000e+00    0,000000000e+00    0,000000000e+00    0,000000000e+00
     1164000000   -1,575031728e-01    2,166238576e-01   -9,356161207e-02   -5,140373111e-01    0,000000000e+00    0,000000000e+00    0,000000000e+00    0,000000000e+00
     1178000000    7,224112004e-02    8,422935754e-02   -3,587205112e-01   -3,437708616e-01    0,000000000e+00    0,000000000e+00    0,000000000e+00    0,000000000e+00
     1192000000    7,528037578e-02   -1,721599549e-01   -4,517976940e-01   -8,194899559e-02    0,000000000e+00    0,000000000e+00    0,000000000e+00    0,000000000e+00
     1206000000   -1,644135863e-01   -3,236922324e-01   -3,717817068e-01    1,921968758e-01    0,000000000e+00    0,000000000e+00    0,000000000e+00    0,000000000e+00
     1220000000   -4,530165792e-01   -1,798032224e-01   -1,039118916e-01    3,308126926e-01    0,000000000e+00    0,000000000e+00    0,000000000e+00    0,000000000e+00
     1234000000   -4,690554440e-01    1,660760194e-01    1,373424381e-01    2,176935673e-01    0,000000000e+00    0,000000000e+00    0,000000000e+00    0,000000000e+00
     1248000000   -2,376624942e-01    3,518427908e-01    1,883476675e-01    2,642230503e-02    0,000000000e+00    0,000000000e+00    0,000000000e+00    0,000000000e+00
     1262000000    8,701948449e-03    3,257578909e-01    1,305438280e-01   -7,109314948e-02    0,000000000e+00    0,000000000e+00    0,000000000e+00    0,000000000e+00
     1276000000    1,561441422e-01    2,015715688e-01    5,219940469e-02   -9,567601979e-02    0,000000000e+00    0,000000000e+00    0,000000000e+00    0,000000000e+00
     1290000000    2,175270915e-01    2,875117026e-02    1,576596405e-03   -7,577302307e-02    0,000000000e+00    0,000000000e+00    0,000000000e+00    0,000000000e+00
     1304000000    2,093391269e-01   -1,466262192e-01   -1,921884157e-02   -3,632483631e-02    0,000000000e+00    0,000000000e+00    0,000000000e+00    0,000000000e+00
     1318000000    1,126294658e-01   -3,147269189e-01   -1,063028630e-02    1,662314124e-02    0,000000000e+00    0,000000000e+00    0,000000000e+00    0,000000000e+00
     1332000000   -6,792719662e-02   -4,380503893e-01    4,459336400e-02    5,924911052e-02    0,000000000e+00    0,000000000e+00    0,000000000e+00    0,000000000e+00
     1346000000   -3,345738947e-01   -4,333387613e-01    1,398754716e-01    5,357982591e-02    0,000000000e+00    0,000000000e+00    0,000000000e+00    0,000000000e+00
     1360000000   -5,617651343e-01   -2,502122521e-01    1,165952757e-01   -8,417218179e-02    0,000000000e+00    0,000000000e+00    0,000000000e+00    0,000000000e+00
     1374000000   -6,306269169e-01    3,704478219e-02    1,006841362e-01    6,996846944e-02    0,000000000e+00    0,000000000e+00    0,000000000e+00    0,000000000e+00
     1388000000   -5,100411177e-01    2,915902734e-01    2,331812084e-01    4,771474283e-03    0,000000000e+00    0,000000000e+00    0,000000000e+00    0,000000000e+00
     1402000000   -3,056473434e-01    4,194186032e-01    2,214558274e-01   -7,508647442e-02    0,000000000e+00    0,000000000e+00    0,000000000e+00    0,000000000e+00
     1416000000   -9,967931360e-02    4,181923568e-01    1,859284192e-01   -1,164304614e-01    0,000000000e+00    0,000000000e+00    0,000000000e+00    0,000000000e+00
     1430000000    7,394355536e-02    3,307080865e-01    1,436328143e-01   -1,269518733e-01    0,000000000e+00    0,000000000e+00    0,000000000e+00    0,000000000e+00
     1444000000    1,709757894e-01    2,006118596e-01    1,515558362e-01   -9,620930254e-02    0,000000000e+00    0,000000000e+00    0,000000000e+00    0,000000000e+00
     1458000000    2,283612490e-01    3,666830435e-02    1,544694006e-01   -7,193157822e-02    0,000000000e+00    0,000000000e+00    0,000000000e+00    0,000000000e+00
     1472000000    2,013300359e-01   -1,468750983e-01    1,424849927e-01   -4,329223931e-02    0,000000000e+00    0,000000000e+00    0,000000000e+00    0,000000000e+00
     1486000000    1,051434651e-01   -3,237448037e-01    1,585275829e-01   -7,619025651e-03    0,000000000e+00    0,000000000e+00    0,000000000e+00    0,000000000e+00
     1500000000   -9,175623208e-02   -4,575810730e-01    2,091015577e-01    6,363323331e-02    0,000000000e+00    0,000000000e+00    0,000000000e+00    0,000000000e+00
