! NanoVNA-App
! Date: 2025-09-25 14:24:02
! Start: 100MHz Stop: 1,5GHz Points: 101
! S-Parameter data: F S11 S21 S12 S22
# Hz S RI R 50
!     Frequency           S11_Real           S11_Imag           S21_Real           S21_Imag           S12_Real           S12_Imag           S22_Real           S22_Imag
      100000000   -2,910573967e-02   -4,124362487e-03    3,744513690e-01   -7,220917344e-01    0,000000000e+00    0,000000000e+00    0,000000000e+00    0,000000000e+00
      114000000   -1,659367979e-02    1,162821613e-02   -8,880299330e-02   -8,058575392e-01    0,000000000e+00    0,000000000e+00    0,000000000e+00    0,000000000e+00
      128000000    3,428306431e-03    1,054568868e-02   -5,146292448e-01   -6,212383509e-01    0,000000000e+00    0,000000000e+00    0,000000000e+00    0,000000000e+00
      142000000    1,445645560e-02   -3,056823974e-03   -7,676020265e-01   -2,370471358e-01    0,000000000e+00    0,000000000e+00    0,000000000e+00    0,000000000e+00
      156000000    1,442431565e-02   -1,502426248e-02   -7,653062940e-01    2,180770040e-01    0,000000000e+00    0,000000000e+00    0,000000000e+00    0,000000000e+00
      170000000    1,654190384e-02   -2,244467102e-02   -5,185746551e-01    6,049258709e-01    0,000000000e+00    0,000000000e+00    0,000000000e+00    0,000000000e+00
      184000000    2,098365687e-02   -3,706946597e-02   -1,016698405e-01    7,868974209e-01    0,000000000e+00    0,000000000e+00    0,000000000e+00    0,000000000e+00
      198000000    1,311900467e-02   -6,258512288e-02    3,431581855e-01    7,132309675e-01    0,000000000e+00    0,000000000e+00    0,000000000e+00    0,000000000e+00
      212000000   -1,870344579e-02   -8,168449998e-02    6,783720851e-01    4,105720520e-01    0,000000000e+00    0,000000000e+00    0,000000000e+00    0,000000000e+00
      226000000   -6,204774231e-02   -6,978102028e-02    7,960408926e-01   -2,972263098e-02    0,000000000e+00    0,000000000e+00    0,000000000e+00    0,000000000e+00
      240000000   -8,324868232e-02   -2,599408664e-02    6,473929286e-01   -4,668255150e-01    0,000000000e+00    0,000000000e+00    0,000000000e+00    0,000000000e+00
      254000000   -6,436669827e-02    1,735780016e-02    2,772286832e-01   -7,433141470e-01    0,000000000e+00    0,000000000e+00    0,000000000e+00    0,000000000e+00
      268000000   -2,413927577e-02    2,952927910e-02   -1,769974083e-01   -7,646994591e-01    0,000000000e+00    0,000000000e+00    0,000000000e+00    0,000000000e+00
      282000000    4,153102636e-03    1,210901141e-02   -5,622270107e-01   -5,369495749e-01    0,000000000e+00    0,000000000e+00    0,000000000e+00    0,000000000e+00
      296000000    9,558320045e-03   -7,765589748e-03   -7,610411644e-01   -1,398022175e-01    0,000000000e+00    0,000000000e+00    0,000000000e+00    0,000000000e+00
      310000000    1,086602919e-02   -1,622907072e-02   -7,133875489e-01    2,970712483e-01    0,000000000e+00    0,000000000e+00    0,000000000e+00    0,000000000e+00
      324000000    1,961334050e-02   -2,630248293e-02   -4,286797643e-01    6,379516721e-01    0,000000000e+00    0,000000000e+00    0,000000000e+00    0,000000000e+00
      338000000    2,558851801e-02   -5,201336369e-02   -1,059269719e-02    7,628167868e-01    0,000000000e+00    0,000000000e+00    0,000000000e+00    0,000000000e+00
      352000000    7,379363291e-03   -8,455739170e-02    4,059593081e-01    6,403992176e-01    0,000000000e+00    0,000000000e+00    0,000000000e+00    0,000000000e+00
      366000000   -3,455723077e-02   -9,599887580e-02    6,910527349e-01    3,121383786e-01    0,000000000e+00    0,000000000e+00    0,000000000e+00    0,000000000e+00
      380000000   -7,112445682e-02   -7,118265331e-02    7,486858368e-01   -1,246373430e-01    0,000000000e+00    0,000000000e+00    0,000000000e+00    0,000000000e+00
      394000000   -7,325946540e-02   -3,259519860e-02    5,472670794e-01   -5,222105980e-01    0,000000000e+00    0,000000000e+00    0,000000000e+00    0,000000000e+00
      408000000   -4,692038521e-02   -1,594738662e-02    1,642417908e-01   -7,327751517e-01    0,000000000e+00    0,000000000e+00    0,000000000e+00    0,000000000e+00
      422000000   -2,829571813e-02   -3,167778254e-02   -2,664163113e-01   -6,959814429e-01    0,000000000e+00    0,000000000e+00    0,000000000e+00    0,000000000e+00
      436000000   -4,021111131e-02   -5,181854218e-02   -6,026520133e-01   -4,338083863e-01    0,000000000e+00    0,000000000e+00    0,000000000e+00    0,000000000e+00
      450000000   -6,742101908e-02   -4,500953481e-02   -7,405211926e-01   -2,518573962e-02    0,000000000e+00    0,000000000e+00    0,000000000e+00    0,000000000e+00
      464000000   -7,404594868e-02   -1,252508350e-02   -6,215407848e-01    3,948700428e-01    0,000000000e+00    0,000000000e+00    0,000000000e+00    0,000000000e+00
      478000000   -4,933922738e-02    1,161027886e-02   -2,866728902e-01    6,676092744e-01    0,000000000e+00    0,000000000e+00    0,000000000e+00    0,000000000e+00
      492000000   -1,691631228e-02    6,500208285e-03    1,346839666e-01    7,038860917e-01    0,000000000e+00    0,000000000e+00    0,000000000e+00    0,000000000e+00
      506000000   -3,622418037e-03   -1,526661962e-02    4,982854724e-01    5,064029098e-01    0,000000000e+00    0,000000000e+00    0,000000000e+00    0,000000000e+00
      520000000   -5,892103072e-03   -2,932563983e-02    6,882331967e-01    1,435817033e-01    0,000000000e+00    0,000000000e+00    0,000000000e+00    0,000000000e+00
      534000000   -3,645827295e-03   -3,596962243e-02    6,445062757e-01   -2,598386109e-01    0,000000000e+00    0,000000000e+00    0,000000000e+00    0,000000000e+00
      548000000    8,172489703e-03   -5,239360034e-02    3,844007850e-01   -5,643457174e-01    0,000000000e+00    0,000000000e+00    0,000000000e+00    0,000000000e+00
      562000000    5,582821090e-03   -8,927168697e-02    8,508476429e-03   -6,718356609e-01    0,000000000e+00    0,000000000e+00    0,000000000e+00    0,000000000e+00
      576000000   -3,132754192e-02   -1,257440001e-01   -3,621902466e-01   -5,609109402e-01    0,000000000e+00    0,000000000e+00    0,000000000e+00    0,000000000e+00
      590000000   -9,491897374e-02   -1,277422309e-01   -6,151664257e-01   -2,716024816e-01    0,000000000e+00    0,000000000e+00    0,000000000e+00    0,000000000e+00
      604000000   -1,429730356e-01   -7,788655907e-02   -6,673445702e-01    1,263402700e-01    0,000000000e+00    0,000000000e+00    0,000000000e+00    0,000000000e+00
      618000000   -1,382491589e-01   -1,098305918e-02   -4,749988317e-01    4,853561521e-01    0,000000000e+00    0,000000000e+00    0,000000000e+00    0,000000000e+00
      632000000   -9,273350239e-02    2,159492113e-02   -1,137532592e-01    6,639997363e-01    0,000000000e+00    0,000000000e+00    0,000000000e+00    0,000000000e+00
      646000000   -5,475563556e-02    1,211950369e-02    2,735843956e-01    6,036913395e-01    0,000000000e+00    0,000000000e+00    0,000000000e+00    0,000000000e+00
      660000000   -4,830744490e-02   -8,035803214e-03    5,582907796e-01    3,407290876e-01    0,000000000e+00    0,000000000e+00    0,000000000e+00    0,000000000e+00
      674000000   -5,632457510e-02   -1,021538302e-02    6,440117955e-01   -3,990052268e-02    0,000000000e+00    0,000000000e+00    0,000000000e+00    0,000000000e+00
      688000000   -5,090632290e-02    3,143029055e-03    4,928292036e-01   -4,016050696e-01    0,000000000e+00    0,000000000e+00    0,000000000e+00    0,000000000e+00
      702000000   -2,526776865e-02    8,526706137e-03    1,573510766e-01   -6,058756709e-01    0,000000000e+00    0,000000000e+00    0,000000000e+00    0,000000000e+00
      716000000   -2,098878846e-03   -9,558001533e-03   -2,190044373e-01   -5,761510730e-01    0,000000000e+00    0,000000000e+00    0,000000000e+00    0,000000000e+00
      730000000    1,021454390e-02   -3,513551503e-02   -5,095337629e-01   -3,330471218e-01    0,000000000e+00    0,000000000e+00    0,000000000e+00    0,000000000e+00
      744000000    1,603432558e-02   -6,088073924e-02   -6,006625295e-01    3,287587315e-02    0,000000000e+00    0,000000000e+00    0,000000000e+00    0,000000000e+00
      758000000    2,274268679e-02   -1,034176499e-01   -4,540805221e-01    3,766751587e-01    0,000000000e+00    0,000000000e+00    0,000000000e+00    0,000000000e+00
      772000000   -4,792842548e-03   -1,740834117e-01   -1,394371390e-01    5,576680899e-01    0,000000000e+00    0,000000000e+00    0,000000000e+00    0,000000000e+00
      786000000   -1,057585627e-01   -2,322027534e-01    2,118129134e-01    5,190108418e-01    0,000000000e+00    0,000000000e+00    0,000000000e+00    0,000000000e+00
      800000000   -2,658737302e-01   -1,919263452e-01    4,711502790e-01    2,751980424e-01    0,000000000e+00    0,000000000e+00    0,000000000e+00    0,000000000e+00
      814000000   -3,643806875e-01    4,222070333e-03    5,078790784e-01   -8,901471645e-02    0,000000000e+00    0,000000000e+00    0,000000000e+00    0,000000000e+00
      828000000   -2,482046187e-01    2,337692976e-01    2,815471590e-01   -3,522447050e-01    0,000000000e+00    0,000000000e+00    0,000000000e+00    0,000000000e+00
      842000000    1,334186364e-02    2,784994543e-01   -1,529613510e-02   -3,625800610e-01    0,000000000e+00    0,000000000e+00    0,000000000e+00    0,000000000e+00
      856000000    2,126139402e-01    1,156105846e-01   -1,877824515e-01   -2,043142617e-01    0,000000000e+00    0,000000000e+00    0,000000000e+00    0,000000000e+00
      870000000    2,388521731e-01   -1,489041150e-01   -2,001157403e-01   -2,606447972e-02    0,000000000e+00    0,000000000e+00    0,000000000e+00    0,000000000e+00
      884000000    3,643208370e-02   -3,862701356e-01   -1,048593894e-01    7,067208737e-02    0,000000000e+00    0,000000000e+00    0,000000000e+00    0,000000000e+00
      898000000   -3,693147004e-01   -3,407660425e-01   -1,703935862e-02    2,817811072e-02    0,000000000e+00    0,000000000e+00    0,000000000e+00    0,000000000e+00
      912000000   -4,685257971e-01    1,383929998e-01   -1,189997122e-01    4,105189070e-02    0,000000000e+00    0,000000000e+00    0,000000000e+00    0,000000000e+00
      926000000   -9,742692858e-02    3,525813222e-01   -1,303575188e-01    1,352820992e-01    0,000000000e+00    0,000000000e+00    0,000000000e+00    0,000000000e+00
      940000000    1,838538796e-01    1,945864260e-01   -3,891372308e-02    2,175863385e-01    0,000000000e+00    0,000000000e+00    0,000000000e+00    0,000000000e+00
      954000000    2,563217282e-01   -5,017711967e-02    7,986962795e-02    2,280885577e-01    0,000000000e+00    0,000000000e+00    0,000000000e+00    0,000000000e+00
      968000000    1,728588343e-01   -2,620588541e-01    1,912017465e-01    1,809969693e-01    0,000000000e+00    0,000000000e+00    0,000000000e+00    0,000000000e+00
      982000000   -1,574976183e-02   -3,931651413e-01    2,805556357e-01    7,883029431e-02    0,000000000e+00    0,000000000e+00    0,000000000e+00    0,000000000e+00
      996000000   -2,760302126e-01   -3,794255853e-01    3,094193935e-01   -7,878001034e-02    0,000000000e+00    0,000000000e+00    0,000000000e+00    0,000000000e+00
     1010000000   -4,708270729e-01   -1,696939617e-01    2,223200649e-01   -2,530434728e-01    0,000000000e+00    0,000000000e+00    0,000000000e+00    0,000000000e+00
     1024000000   -4,564038515e-01    1,132701412e-01    2,194213308e-02   -3,294949830e-01    0,000000000e+00    0,000000000e+00    0,000000000e+00    0,000000000e+00
     1038000000   -2,665981650e-01    2,974508405e-01   -1,734358519e-01   -2,467948794e-01    0,000000000e+00    0,000000000e+00    0,000000000e+00    0,000000000e+00
     1052000000   -3,561861813e-02    3,095942736e-01   -2,560668588e-01   -7,717165351e-02    0,000000000e+00    0,000000000e+00    0,000000000e+00    0,000000000e+00
     1066000000    1,250710487e-01    2,026531398e-01   -2,265841812e-01    8,758451045e-02    0,000000000e+00    0,000000000e+00    0,000000000e+00    0,000000000e+00
     1080000000    2,097656727e-01    4,608713835e-02   -1,177338883e-01    1,928034723e-01    0,000000000e+00    0,000000000e+00    0,000000000e+00    0,000000000e+00
     1094000000    1,982340664e-01   -1,288927495e-01    1,803958416e-02    2,323768437e-01    0,000000000e+00    0,000000000e+00    0,000000000e+00    0,000000000e+00
     1108000000    1,013355255e-01   -2,840582132e-01    1,681112200e-01    2,062143236e-01    0,000000000e+00    0,000000000e+00    0,000000000e+00    0,000000000e+00
     1122000000   -9,626716375e-02   -3,729827106e-01    3,174180388e-01    8,763810247e-02    0,000000000e+00    0,000000000e+00    0,000000000e+00    0,000000000e+00
     1136000000   -3,444537520e-01   -2,695519030e-01    3,920513391e-01   -1,505520046e-01    0,000000000e+00    0,000000000e+00    0,000000000e+00    0,000000000e+00
     1150000000   -4,024224579e-01    3,650642931e-02    2,443231791e-01   -4,367378950e-01    0,000000000e+00    0,000000000e+00    0,000000000e+00    0,000000000e+00
     1164000000   -1,560328156e-01    2,196462452e-01   -9,221528471e-02   -5,111445785e-01    0,000000000e+00    0,000000000e+00    0,000000000e+00    0,000000000e+00
     1178000000    7,707650959e-02    8,083862811e-02   -3,581885993e-01   -3,486918807e-01    0,000000000e+00    0,000000000e+00    0,000000000e+00    0,000000000e+00
     1192000000    7,212388515e-02   -1,737097055e-01   -4,571524858e-01   -8,370979130e-02    0,000000000e+00    0,000000000e+00    0,000000000e+00    0,000000000e+00
     1206000000   -1,596158892e-01   -3,242823482e-01   -3,673788905e-01    1,885407567e-01    0,000000000e+00    0,000000000e+00    0,000000000e+00    0,000000000e+00
     1220000000   -4,544749558e-01   -1,789896190e-01   -1,062584445e-01    3,294812739e-01    0,000000000e+00    0,000000000e+00    0,000000000e+00    0,000000000e+00
     1234000000   -4,692652524e-01    1,625420004e-01    1,406842321e-01    2,203067094e-01    0,000000000e+00    0,000000000e+00    0,000000000e+00    0,000000000e+00
     1248000000   -2,320126593e-01    3,501675427e-01    1,970285624e-01    3,596328944e-02    0,000000000e+00    0,000000000e+00    0,000000000e+00    0,000000000e+00
     1262000000    1,067986712e-02    3,302263021e-01    1,311078817e-01   -7,049603015e-02    0,000000000e+00    0,000000000e+00    0,000000000e+00    0,000000000e+00
     1276000000    1,565690190e-01    2,036361545e-01    5,400904641e-02   -9,438093007e-02    0,000000000e+00    0,000000000e+00    0,000000000e+00    0,000000000e+00
     1290000000    2,169665396e-01    2,819828875e-02    2,072904492e-03   -7,588271052e-02    0,000000000e+00    0,000000000e+00    0,000000000e+00    0,000000000e+00
     1304000000    2,077194750e-01   -1,464417875e-01   -1,818554103e-02   -3,142163530e-02    0,000000000e+00    0,000000000e+00    0,000000000e+00    0,000000000e+00
     1318000000    1,171734855e-01   -3,118658662e-01   -4,434993025e-03    2,362553589e-02    0,000000000e+00    0,000000000e+00    0,000000000e+00    0,000000000e+00
     1332000000   -6,731466204e-02   -4,311395288e-01    4,574656487e-02    6,722761691e-02    0,000000000e+00    0,000000000e+00    0,000000000e+00    0,000000000e+00
     1346000000   -3,249608278e-01   -4,333892763e-01    1,501322687e-01    5,163051561e-02    0,000000000e+00    0,000000000e+00    0,000000000e+00    0,000000000e+00
     1360000000   -5,585777164e-01   -2,504546940e-01    1,156932637e-01   -8,080402017e-02    0,000000000e+00    0,000000000e+00    0,000000000e+00    0,000000000e+00
     1374000000   -6,191681027e-01    2,825548872e-02    1,135250628e-01    5,195233598e-02    0,000000000e+00    0,000000000e+00    0,000000000e+00    0,000000000e+00
     1388000000   -5,127103925e-01    2,900046110e-01    2,195791155e-01   -5,745934322e-03    0,000000000e+00    0,000000000e+00    0,000000000e+00    0,000000000e+00
     1402000000   -3,092047572e-01    4,146980941e-01    2,217954248e-01   -8,417394012e-02    0,000000000e+00    0,000000000e+00    0,000000000e+00    0,000000000e+00
     1416000000   -9,480665624e-02    4,238426387e-01    1,850756407e-01   -1,125653908e-01    0,000000000e+00    0,000000000e+00    0,000000000e+00    0,000000000e+00
     1430000000    7,008212805e-02    3,397888243e-01    1,855385453e-01   -9,620572627e-02    0,000000000e+00    0,000000000e+00    0,000000000e+00    0,000000000e+00
     1444000000    1,758643091e-01    2,041862011e-01    1,524078101e-01   -9,397945553e-02    0,000000000e+00    0,000000000e+00    0,000000000e+00    0,000000000e+00
     1458000000    2,225799561e-01    3,487521783e-02    1,399009526e-01   -7,852950692e-02    0,000000000e+00    0,000000000e+00    0,000000000e+00    0,000000000e+00
     1472000000    2,055945694e-01   -1,419106573e-01    1,541205794e-01   -5,183702335e-02    0,000000000e+00    0,000000000e+00    0,000000000e+00    0,000000000e+00
     1486000000    1,015788838e-01   -3,195501268e-01    1,605262160e-01   -6,664108485e-03    0,000000000e+00    0,000000000e+00    0,000000000e+00    0,000000000e+00
     1500000000   -8,994658291e-02   -4,584136009e-01    2,132063955e-01    6,002043560e-02    0,000000000e+00    0,000000000e+00    0,000000000e+00    0,000000000e+00
