! NanoVNA-App
! Date: 2025-09-25 14:21:09
! Start: 100MHz Stop: 1,5GHz Points: 101
! S-Parameter data: F S11 S21 S12 S22
# Hz S RI R 50
!     Frequency           S11_Real           S11_Imag           S21_Real           S21_Imag           S12_Real           S12_Imag           S22_Real           S22_Imag
      100000000   -2,908635698e-02   -4,124837462e-03    3,744846284e-01   -7,221560478e-01    0,000000000e+00    0,000000000e+00    0,000000000e+00    0,000000000e+00
      114000000   -1,660035923e-02    1,161012333e-02   -8,892970532e-02   -8,058105111e-01    0,000000000e+00    0,000000000e+00    0,000000000e+00    0,000000000e+00
      128000000    3,444828326e-03    1,052940264e-02   -5,145956874e-01   -6,207851171e-01    0,000000000e+00    0,000000000e+00    0,000000000e+00    0,000000000e+00
      142000000    1,447427738e-02   -3,071465297e-03   -7,676553726e-01   -2,369320840e-01    0,000000000e+00    0,000000000e+00    0,000000000e+00    0,000000000e+00
      156000000    1,504175272e-02   -1,510401908e-02   -7,678172588e-01    2,223825604e-01    0,000000000e+00    0,000000000e+00    0,000000000e+00    0,000000000e+00
      170000000    1,656910405e-02   -2,256532945e-02   -5,186911821e-01    6,050451994e-01    0,000000000e+00    0,000000000e+00    0,000000000e+00    0,000000000e+00
      184000000    2,096176520e-02   -3,706793860e-02   -1,017776132e-01    7,870120406e-01    0,000000000e+00    0,000000000e+00    0,000000000e+00    0,000000000e+00
      198000000    1,297734026e-02   -6,261031330e-02    3,428628147e-01    7,128592730e-01    0,000000000e+00    0,000000000e+00    0,000000000e+00    0,000000000e+00
      212000000   -1,876356825e-02   -8,170927316e-02    6,783450842e-01    4,103963077e-01    0,000000000e+00    0,000000000e+00    0,000000000e+00    0,000000000e+00
      226000000   -6,205224991e-02   -6,961272657e-02    7,961109877e-01   -2,983961999e-02    0,000000000e+00    0,000000000e+00    0,000000000e+00    0,000000000e+00
      240000000   -8,320897073e-02   -2,603546903e-02    6,470452547e-01   -4,667229056e-01    0,000000000e+00    0,000000000e+00    0,000000000e+00    0,000000000e+00
      254000000   -6,430391967e-02    1,733406447e-02    2,772176862e-01   -7,430711985e-01    0,000000000e+00    0,000000000e+00    0,000000000e+00    0,000000000e+00
      268000000   -2,426850051e-02    2,952804230e-02   -1,773327738e-01   -7,650015354e-01    0,000000000e+00    0,000000000e+00    0,000000000e+00    0,000000000e+00
      282000000    4,122630693e-03    1,205740683e-02   -5,625658631e-01   -5,370871425e-01    0,000000000e+00    0,000000000e+00    0,000000000e+00    0,000000000e+00
      296000000    9,715056978e-03   -7,658268325e-03   -7,608831525e-01   -1,394915432e-01    0,000000000e+00    0,000000000e+00    0,000000000e+00    0,000000000e+00
      310000000    1,090532634e-02   -1,606157981e-02   -7,123724222e-01    2,988924980e-01    0,000000000e+00    0,000000000e+00    0,000000000e+00    0,000000000e+00
      324000000    1,945067197e-02   -2,656381205e-02   -4,285066426e-01    6,386702061e-01    0,000000000e+00    0,000000000e+00    0,000000000e+00    0,000000000e+00
      338000000    2,550092153e-02   -5,219604820e-02   -1,197529864e-02    7,607825398e-01    0,000000000e+00    0,000000000e+00    0,000000000e+00    0,000000000e+00
      352000000    7,766041905e-03   -8,496504277e-02    4,060920179e-01    6,397911310e-01    0,000000000e+00    0,000000000e+00    0,000000000e+00    0,000000000e+00
      366000000   -3,471479192e-02   -9,607083350e-02    6,910246015e-01    3,122158945e-01    0,000000000e+00    0,000000000e+00    0,000000000e+00    0,000000000e+00
      380000000   -7,134598494e-02   -7,126702368e-02    7,489965558e-01   -1,245599315e-01    0,000000000e+00    0,000000000e+00    0,000000000e+00    0,000000000e+00
      394000000   -7,317398489e-02   -3,248982504e-02    5,485786796e-01   -5,212821364e-01    0,000000000e+00    0,000000000e+00    0,000000000e+00    0,000000000e+00
      408000000   -4,684773088e-02   -1,584646292e-02    1,633598357e-01   -7,318897843e-01    0,000000000e+00    0,000000000e+00    0,000000000e+00    0,000000000e+00
      422000000   -2,839128114e-02   -3,171520308e-02   -2,657974064e-01   -6,966811419e-01    0,000000000e+00    0,000000000e+00    0,000000000e+00    0,000000000e+00
      436000000   -3,998623788e-02   -5,176930875e-02   -6,026869416e-01   -4,341393411e-01    0,000000000e+00    0,000000000e+00    0,000000000e+00    0,000000000e+00
      450000000   -6,770140678e-02   -4,466440156e-02   -7,404854894e-01   -2,475547977e-02    0,000000000e+00    0,000000000e+00    0,000000000e+00    0,000000000e+00
      464000000   -7,446280122e-02   -1,231996901e-02   -6,217144728e-01    3,946132064e-01    0,000000000e+00    0,000000000e+00    0,000000000e+00    0,000000000e+00
      478000000   -4,939721897e-02    1,167668961e-02   -2,869084477e-01    6,683610678e-01    0,000000000e+00    0,000000000e+00    0,000000000e+00    0,000000000e+00
      492000000   -1,696294174e-02    6,371794268e-03    1,343735904e-01    7,035526037e-01    0,000000000e+00    0,000000000e+00    0,000000000e+00    0,000000000e+00
      506000000   -3,772143042e-03   -1,494091004e-02    4,976208508e-01    5,063201785e-01    0,000000000e+00    0,000000000e+00    0,000000000e+00    0,000000000e+00
      520000000   -5,736336112e-03   -2,970905788e-02    6,890848875e-01    1,445352733e-01    0,000000000e+00    0,000000000e+00    0,000000000e+00    0,000000000e+00
      534000000   -3,269882407e-03   -3,574257717e-02    6,446602941e-01   -2,593700290e-01    0,000000000e+00    0,000000000e+00    0,000000000e+00    0,000000000e+00
      548000000    8,161812089e-03   -5,257179961e-02    3,849175572e-01   -5,647408366e-01    0,000000000e+00    0,000000000e+00    0,000000000e+00    0,000000000e+00
      562000000    5,612827837e-03   -8,949828148e-02    8,242840879e-03   -6,719160676e-01    0,000000000e+00    0,000000000e+00    0,000000000e+00    0,000000000e+00
      576000000   -3,137509897e-02   -1,258723289e-01   -3,622544110e-01   -5,607540011e-01    0,000000000e+00    0,000000000e+00    0,000000000e+00    0,000000000e+00
      590000000   -9,488417953e-02   -1,275524199e-01   -6,172683239e-01   -2,712021470e-01    0,000000000e+00    0,000000000e+00    0,000000000e+00    0,000000000e+00
      604000000   -1,434772462e-01   -7,785968482e-02   -6,675370336e-01    1,265871674e-01    0,000000000e+00    0,000000000e+00    0,000000000e+00    0,000000000e+00
      618000000   -1,387926191e-01   -1,145588048e-02   -4,756540060e-01    4,866419733e-01    0,000000000e+00    0,000000000e+00    0,000000000e+00    0,000000000e+00
      632000000   -9,338816255e-02    2,211799100e-02   -1,128962189e-01    6,628769040e-01    0,000000000e+00    0,000000000e+00    0,000000000e+00    0,000000000e+00
      646000000   -5,485111848e-02    1,179134566e-02    2,738672793e-01    6,038007140e-01    0,000000000e+00    0,000000000e+00    0,000000000e+00    0,000000000e+00
      660000000   -4,853310809e-02   -8,982688189e-03    5,580016971e-01    3,403985500e-01    0,000000000e+00    0,000000000e+00    0,000000000e+00    0,000000000e+00
      674000000   -5,586443841e-02   -1,004222035e-02    6,445763707e-01   -3,964219987e-02    0,000000000e+00    0,000000000e+00    0,000000000e+00    0,000000000e+00
      688000000   -5,073078349e-02    3,057961818e-03    4,931644201e-01   -4,025391638e-01    0,000000000e+00    0,000000000e+00    0,000000000e+00    0,000000000e+00
      702000000   -2,606237866e-02    7,290090900e-03    1,599411070e-01   -6,042488217e-01    0,000000000e+00    0,000000000e+00    0,000000000e+00    0,000000000e+00
      716000000   -2,047927817e-03   -9,575007483e-03   -2,187202275e-01   -5,747409463e-01    0,000000000e+00    0,000000000e+00    0,000000000e+00    0,000000000e+00
      730000000    1,016041916e-02   -3,506452590e-02   -5,091239810e-01   -3,330134451e-01    0,000000000e+00    0,000000000e+00    0,000000000e+00    0,000000000e+00
      744000000    1,620511711e-02   -6,102767214e-02   -6,006733179e-01    3,337585926e-02    0,000000000e+00    0,000000000e+00    0,000000000e+00    0,000000000e+00
      758000000    2,196940221e-02   -1,030411869e-01   -4,543003738e-01    3,771147728e-01    0,000000000e+00    0,000000000e+00    0,000000000e+00    0,000000000e+00
      772000000   -4,812453408e-03   -1,731839776e-01   -1,396348923e-01    5,579062104e-01    0,000000000e+00    0,000000000e+00    0,000000000e+00    0,000000000e+00
      786000000   -1,060300767e-01   -2,321776599e-01    2,119705826e-01    5,194495320e-01    0,000000000e+00    0,000000000e+00    0,000000000e+00    0,000000000e+00
      800000000   -2,651302814e-01   -1,921239793e-01    4,708356559e-01    2,751749754e-01    0,000000000e+00    0,000000000e+00    0,000000000e+00    0,000000000e+00
      814000000   -3,637119234e-01    3,952225670e-03    5,079851151e-01   -8,900906891e-02    0,000000000e+00    0,000000000e+00    0,000000000e+00    0,000000000e+00
      828000000   -2,475966960e-01    2,325191498e-01    2,807605267e-01   -3,523109257e-01    0,000000000e+00    0,000000000e+00    0,000000000e+00    0,000000000e+00
      842000000    1,325512677e-02    2,779670656e-01   -1,538042910e-02   -3,621103764e-01    0,000000000e+00    0,000000000e+00    0,000000000e+00    0,000000000e+00
      856000000    2,122325301e-01    1,152923778e-01   -1,882850826e-01   -2,048166394e-01    0,000000000e+00    0,000000000e+00    0,000000000e+00    0,000000000e+00
      870000000    2,390221506e-01   -1,488660574e-01   -2,005528212e-01   -2,625247091e-02    0,000000000e+00    0,000000000e+00    0,000000000e+00    0,000000000e+00
      884000000    3,751192614e-02   -3,858312666e-01   -1,043110192e-01    7,129350305e-02    0,000000000e+00    0,000000000e+00    0,000000000e+00    0,000000000e+00
      898000000   -3,689828813e-01   -3,408598304e-01   -1,698218472e-02    2,777965739e-02    0,000000000e+00    0,000000000e+00    0,000000000e+00    0,000000000e+00
      912000000   -4,667266309e-01    1,377802491e-01   -1,049437672e-01    3,528454900e-02    0,000000000e+00    0,000000000e+00    0,000000000e+00    0,000000000e+00
      926000000   -9,589343518e-02    3,495644033e-01   -1,291986108e-01    1,320476234e-01    0,000000000e+00    0,000000000e+00    0,000000000e+00    0,000000000e+00
      940000000    1,855883151e-01    1,921917051e-01   -3,916328028e-02    2,156743705e-01    0,000000000e+00    0,000000000e+00    0,000000000e+00    0,000000000e+00
      954000000    2,539305389e-01   -4,759107903e-02    7,969357818e-02    2,278174609e-01    0,000000000e+00    0,000000000e+00    0,000000000e+00    0,000000000e+00
      968000000    1,732902527e-01   -2,633597553e-01    1,916910708e-01    1,797340065e-01    0,000000000e+00    0,000000000e+00    0,000000000e+00    0,000000000e+00
      982000000   -1,568809524e-02   -3,971997201e-01    2,784827054e-01    8,060215414e-02    0,000000000e+00    0,000000000e+00    0,000000000e+00    0,000000000e+00
      996000000   -2,708910108e-01   -3,751346469e-01    3,101849556e-01   -8,016283810e-02    0,000000000e+00    0,000000000e+00    0,000000000e+00    0,000000000e+00
     1010000000   -4,665744305e-01   -1,691851020e-01    2,214690000e-01   -2,540768683e-01    0,000000000e+00    0,000000000e+00    0,000000000e+00    0,000000000e+00
     1024000000   -4,601005614e-01    1,142658517e-01    1,875405945e-02   -3,295599818e-01    0,000000000e+00    0,000000000e+00    0,000000000e+00    0,000000000e+00
     1038000000   -2,668219507e-01    2,998571992e-01   -1,744315475e-01   -2,496147752e-01    0,000000000e+00    0,000000000e+00    0,000000000e+00    0,000000000e+00
     1052000000   -3,564802930e-02    3,073788881e-01   -2,575010955e-01   -7,737041265e-02    0,000000000e+00    0,000000000e+00    0,000000000e+00    0,000000000e+00
     1066000000    1,279850304e-01    2,047825307e-01   -2,239581347e-01    8,813384920e-02    0,000000000e+00    0,000000000e+00    0,000000000e+00    0,000000000e+00
     1080000000    2,055111527e-01    4,528452083e-02   -1,190235093e-01    1,929669529e-01    0,000000000e+00    0,000000000e+00    0,000000000e+00    0,000000000e+00
     1094000000    2,002904117e-01   -1,260406375e-01    1,657830365e-02    2,322932333e-01    0,000000000e+00    0,000000000e+00    0,000000000e+00    0,000000000e+00
     1108000000    9,757187963e-02   -2,870763838e-01    1,704408526e-01    2,076411098e-01    0,000000000e+00    0,000000000e+00    0,000000000e+00    0,000000000e+00
     1122000000   -9,881310910e-02   -3,651013672e-01    3,153194785e-01    9,004832059e-02    0,000000000e+00    0,000000000e+00    0,000000000e+00    0,000000000e+00
     1136000000   -3,452962339e-01   -2,742397785e-01    3,922489285e-01   -1,515761167e-01    0,000000000e+00    0,000000000e+00    0,000000000e+00    0,000000000e+00
     1150000000   -4,115951359e-01    3,615632281e-02    2,456647307e-01   -4,363276660e-01    0,000000000e+00    0,000000000e+00    0,000000000e+00    0,000000000e+00
     1164000000   -1,580737233e-01    2,213753164e-01   -9,734974056e-02   -5,143111348e-01    0,000000000e+00    0,000000000e+00    0,000000000e+00    0,000000000e+00
     1178000000    7,627564669e-02    8,212827146e-02   -3,568461537e-01   -3,482016623e-01    0,000000000e+00    0,000000000e+00    0,000000000e+00    0,000000000e+00
     1192000000    7,700255513e-02   -1,736074686e-01   -4,540063739e-01   -8,166234940e-02    0,000000000e+00    0,000000000e+00    0,000000000e+00    0,000000000e+00
     1206000000   -1,619115323e-01   -3,293445706e-01   -3,691571653e-01    1,882347465e-01    0,000000000e+00    0,000000000e+00    0,000000000e+00    0,000000000e+00
     1220000000   -4,566025138e-01   -1,721773744e-01   -1,018263623e-01    3,306626976e-01    0,000000000e+00    0,000000000e+00    0,000000000e+00    0,000000000e+00
     1234000000   -4,733368158e-01    1,677669436e-01    1,351620704e-01    2,245847732e-01    0,000000000e+00    0,000000000e+00    0,000000000e+00    0,000000000e+00
     1248000000   -2,267029434e-01    3,567676246e-01    1,964959502e-01    3,199834377e-02    0,000000000e+00    0,000000000e+00    0,000000000e+00    0,000000000e+00
     1262000000    5,997037981e-03    3,249208331e-01    1,295948178e-01   -7,575271279e-02    0,000000000e+00    0,000000000e+00    0,000000000e+00    0,000000000e+00
     1276000000    1,497938931e-01    1,985967010e-01    5,080699548e-02   -9,635655582e-02    0,000000000e+00    0,000000000e+00    0,000000000e+00    0,000000000e+00
     1290000000    2,179985344e-01    3,442852199e-02    2,654231386e-03   -6,950566173e-02    0,000000000e+00    0,000000000e+00    0,000000000e+00    0,000000000e+00
     1304000000    2,047318667e-01   -1,508700699e-01   -1,976681687e-02   -3,078903258e-02    0,000000000e+00    0,000000000e+00    0,000000000e+00    0,000000000e+00
     1318000000    1,159528419e-01   -3,152361512e-01   -2,956797136e-03    1,929781213e-02    0,000000000e+00    0,000000000e+00    0,000000000e+00    0,000000000e+00
     1332000000   -6,614416838e-02   -4,320251346e-01    5,279465020e-02    6,832130998e-02    0,000000000e+00    0,000000000e+00    0,000000000e+00    0,000000000e+00
     1346000000   -3,286333978e-01   -4,346300066e-01    1,453813612e-01    3,965584189e-02    0,000000000e+00    0,000000000e+00    0,000000000e+00    0,000000000e+00
     1360000000   -5,555915833e-01   -2,478139400e-01    1,086771935e-01   -8,463691920e-02    0,000000000e+00    0,000000000e+00    0,000000000e+00    0,000000000e+00
     1374000000   -6,265815496e-01    2,765517309e-02    1,073891297e-01    6,979361176e-02    0,000000000e+00    0,000000000e+00    0,000000000e+00    0,000000000e+00
     1388000000   -5,116714239e-01    2,883392572e-01    2,335479110e-01   -6,875008810e-03    0,000000000e+00    0,000000000e+00    0,000000000e+00    0,000000000e+00
     1402000000   -3,017028272e-01    4,258433878e-01    2,298555672e-01   -7,773090154e-02    0,000000000e+00    0,000000000e+00    0,000000000e+00    0,000000000e+00
     1416000000   -9,107547998e-02    4,229688346e-01    1,898037791e-01   -1,104994491e-01    0,000000000e+00    0,000000000e+00    0,000000000e+00    0,000000000e+00
     1430000000    7,266790420e-02    3,366867602e-01    1,629231274e-01   -1,241504475e-01    0,000000000e+00    0,000000000e+00    0,000000000e+00    0,000000000e+00
     1444000000    1,710533053e-01    1,937021464e-01    1,470997781e-01   -1,094650105e-01    0,000000000e+00    0,000000000e+00    0,000000000e+00    0,000000000e+00
     1458000000    2,241440415e-01    3,551704437e-02    1,592578739e-01   -8,748703450e-02    0,000000000e+00    0,000000000e+00    0,000000000e+00    0,000000000e+00
     1472000000    2,056842297e-01   -1,437967122e-01    1,535419375e-01   -4,820857570e-02    0,000000000e+00    0,000000000e+00    0,000000000e+00    0,000000000e+00
     1486000000    1,098923683e-01   -3,210297227e-01    1,613951623e-01    8,548337966e-03    0,000000000e+00    0,000000000e+00    0,000000000e+00    0,000000000e+00
     1500000000   -9,144936502e-02   -4,592356980e-01    2,057919353e-01    6,547200680e-02    0,000000000e+00    0,000000000e+00    0,000000000e+00    0,000000000e+00
