! NanoVNA-App
! Date: 2025-09-25 14:25:04
! Start: 100MHz Stop: 1,5GHz Points: 101
! S-Parameter data: F S11 S21 S12 S22
# Hz S RI R 50
!     Frequency           S11_Real           S11_Imag           S21_Real           S21_Imag           S12_Real           S12_Imag           S22_Real           S22_Imag
      100000000   -2,910069190e-02   -4,128547851e-03    3,745060861e-01   -7,220540643e-01    0,000000000e+00    0,000000000e+00    0,000000000e+00    0,000000000e+00
      114000000   -1,658758894e-02    1,162187476e-02   -8,895463496e-02   -8,056887388e-01    0,000000000e+00    0,000000000e+00    0,000000000e+00    0,000000000e+00
      128000000    3,419643501e-03    1,050205436e-02   -5,145915747e-01   -6,210026741e-01    0,000000000e+00    0,000000000e+00    0,000000000e+00    0,000000000e+00
      142000000    1,445325837e-02   -3,085644683e-03   -7,675436735e-01   -2,371119261e-01    0,000000000e+00    0,000000000e+00    0,000000000e+00    0,000000000e+00
      156000000    1,438288018e-02   -1,500524394e-02   -7,647681236e-01    2,200460583e-01    0,000000000e+00    0,000000000e+00    0,000000000e+00    0,000000000e+00
      170000000    1,648354903e-02   -2,245409228e-02   -5,189160109e-01    6,050838828e-01    0,000000000e+00    0,000000000e+00    0,000000000e+00    0,000000000e+00
      184000000    2,097437344e-02   -3,705446422e-02   -1,017418280e-01    7,865486741e-01    0,000000000e+00    0,000000000e+00    0,000000000e+00    0,000000000e+00
      198000000    1,310732402e-02   -6,259233505e-02    3,430840671e-01    7,130666971e-01    0,000000000e+00    0,000000000e+00    0,000000000e+00    0,000000000e+00
      212000000   -1,871353388e-02   -8,171737939e-02    6,783455014e-01    4,106583893e-01    0,000000000e+00    0,000000000e+00    0,000000000e+00    0,000000000e+00
      226000000   -6,204576418e-02   -6,969835609e-02    7,961070538e-01   -2,969759703e-02    0,000000000e+00    0,000000000e+00    0,000000000e+00    0,000000000e+00
      240000000   -8,326652646e-02   -2,605916560e-02    6,470117569e-01   -4,666599631e-01    0,000000000e+00    0,000000000e+00    0,000000000e+00    0,000000000e+00
      254000000   -6,432283670e-02    1,742384769e-02    2,771880627e-01   -7,432571054e-01    0,000000000e+00    0,000000000e+00    0,000000000e+00    0,000000000e+00
      268000000   -2,407670021e-02    2,939259261e-02   -1,769981831e-01   -7,650936842e-01    0,000000000e+00    0,000000000e+00    0,000000000e+00    0,000000000e+00
      282000000    4,054224119e-03    1,209666580e-02   -5,625735521e-01   -5,373126864e-01    0,000000000e+00    0,000000000e+00    0,000000000e+00    0,000000000e+00
      296000000    9,518871084e-03   -7,696671411e-03   -7,608353496e-01   -1,394682080e-01    0,000000000e+00    0,000000000e+00    0,000000000e+00    0,000000000e+00
      310000000    1,070838887e-02   -1,625439152e-02   -7,129323483e-01    2,982567847e-01    0,000000000e+00    0,000000000e+00    0,000000000e+00    0,000000000e+00
      324000000    1,963581890e-02   -2,653198317e-02   -4,283139706e-01    6,383336782e-01    0,000000000e+00    0,000000000e+00    0,000000000e+00    0,000000000e+00
      338000000    2,548286319e-02   -5,191570893e-02   -1,055553090e-02    7,613608837e-01    0,000000000e+00    0,000000000e+00    0,000000000e+00    0,000000000e+00
      352000000    7,409992162e-03   -8,498984575e-02    4,049824178e-01    6,409709454e-01    0,000000000e+00    0,000000000e+00    0,000000000e+00    0,000000000e+00
      366000000   -3,495571390e-02   -9,600325674e-02    6,900926828e-01    3,122838736e-01    0,000000000e+00    0,000000000e+00    0,000000000e+00    0,000000000e+00
      380000000   -7,151924074e-02   -7,138802856e-02    7,479726076e-01   -1,245924681e-01    0,000000000e+00    0,000000000e+00    0,000000000e+00    0,000000000e+00
      394000000   -7,331343740e-02   -3,221553937e-02    5,468197465e-01   -5,202686191e-01    0,000000000e+00    0,000000000e+00    0,000000000e+00    0,000000000e+00
      408000000   -4,672189057e-02   -1,558611728e-02    1,625038236e-01   -7,319487929e-01    0,000000000e+00    0,000000000e+00    0,000000000e+00    0,000000000e+00
      422000000   -2,833357640e-02   -3,126612678e-02   -2,658863366e-01   -6,960256100e-01    0,000000000e+00    0,000000000e+00    0,000000000e+00    0,000000000e+00
      436000000   -3,995394334e-02   -5,166539177e-02   -6,021327972e-01   -4,338106811e-01    0,000000000e+00    0,000000000e+00    0,000000000e+00    0,000000000e+00
      450000000   -6,750293076e-02   -4,443939775e-02   -7,404727340e-01   -2,496445552e-02    0,000000000e+00    0,000000000e+00    0,000000000e+00    0,000000000e+00
      464000000   -7,449203730e-02   -1,214862056e-02   -6,215183139e-01    3,945128620e-01    0,000000000e+00    0,000000000e+00    0,000000000e+00    0,000000000e+00
      478000000   -4,940178245e-02    1,190228388e-02   -2,871485054e-01    6,671943069e-01    0,000000000e+00    0,000000000e+00    0,000000000e+00    0,000000000e+00
      492000000   -1,699488796e-02    6,476352457e-03    1,343123913e-01    7,037507296e-01    0,000000000e+00    0,000000000e+00    0,000000000e+00    0,000000000e+00
      506000000   -3,422276350e-03   -1,507433597e-02    4,979009628e-01    5,064298511e-01    0,000000000e+00    0,000000000e+00    0,000000000e+00    0,000000000e+00
      520000000   -6,017799024e-03   -2,988609485e-02    6,891337633e-01    1,429357678e-01    0,000000000e+00    0,000000000e+00    0,000000000e+00    0,000000000e+00
      534000000   -3,367186524e-03   -3,614291549e-02    6,448965669e-01   -2,598090172e-01    0,000000000e+00    0,000000000e+00    0,000000000e+00    0,000000000e+00
      548000000    7,835022174e-03   -5,246840045e-02    3,846563995e-01   -5,640071630e-01    0,000000000e+00    0,000000000e+00    0,000000000e+00    0,000000000e+00
      562000000    5,828087684e-03   -8,937928826e-02    8,753119037e-03   -6,721242666e-01    0,000000000e+00    0,000000000e+00    0,000000000e+00    0,000000000e+00
      576000000   -3,129895031e-02   -1,264042854e-01   -3,623133898e-01   -5,614843369e-01    0,000000000e+00    0,000000000e+00    0,000000000e+00    0,000000000e+00
      590000000   -9,479319304e-02   -1,279145330e-01   -6,184874177e-01   -2,730811536e-01    0,000000000e+00    0,000000000e+00    0,000000000e+00    0,000000000e+00
      604000000   -1,431779563e-01   -7,788103819e-02   -6,673662066e-01    1,263291091e-01    0,000000000e+00    0,000000000e+00    0,000000000e+00    0,000000000e+00
      618000000   -1,380808800e-01   -1,184781268e-02   -4,750907123e-01    4,852372110e-01    0,000000000e+00    0,000000000e+00    0,000000000e+00    0,000000000e+00
      632000000   -9,367780387e-02    2,189060859e-02   -1,135253236e-01    6,632634401e-01    0,000000000e+00    0,000000000e+00    0,000000000e+00    0,000000000e+00
      646000000   -5,580298975e-02    1,178930979e-02    2,731020749e-01    6,045062542e-01    0,000000000e+00    0,000000000e+00    0,000000000e+00    0,000000000e+00
      660000000   -4,837505519e-02   -8,948421106e-03    5,578792691e-01    3,413719535e-01    0,000000000e+00    0,000000000e+00    0,000000000e+00    0,000000000e+00
      674000000   -5,595938489e-02   -1,005665772e-02    6,439654231e-01   -3,961650655e-02    0,000000000e+00    0,000000000e+00    0,000000000e+00    0,000000000e+00
      688000000   -4,989498854e-02    2,919855295e-03    4,931164682e-01   -4,013094902e-01    0,000000000e+00    0,000000000e+00    0,000000000e+00    0,000000000e+00
      702000000   -2,680099756e-02    7,309930399e-03    1,613822877e-01   -6,062445641e-01    0,000000000e+00    0,000000000e+00    0,000000000e+00    0,000000000e+00
      716000000   -1,821222017e-03   -9,658553638e-03   -2,190534025e-01   -5,762062669e-01    0,000000000e+00    0,000000000e+00    0,000000000e+00    0,000000000e+00
      730000000    9,163865820e-03   -3,405217826e-02   -5,089156032e-01   -3,337553144e-01    0,000000000e+00    0,000000000e+00    0,000000000e+00    0,000000000e+00
      744000000    1,599917375e-02   -6,132072210e-02   -6,009636521e-01    3,355142474e-02    0,000000000e+00    0,000000000e+00    0,000000000e+00    0,000000000e+00
      758000000    2,176825143e-02   -1,039252505e-01   -4,543355107e-01    3,765279949e-01    0,000000000e+00    0,000000000e+00    0,000000000e+00    0,000000000e+00
      772000000   -4,499744158e-03   -1,741743833e-01   -1,400986463e-01    5,579740405e-01    0,000000000e+00    0,000000000e+00    0,000000000e+00    0,000000000e+00
      786000000   -1,045360342e-01   -2,327329963e-01    2,115334570e-01    5,196411014e-01    0,000000000e+00    0,000000000e+00    0,000000000e+00    0,000000000e+00
      800000000   -2,651824057e-01   -1,925600469e-01    4,711046517e-01    2,752674520e-01    0,000000000e+00    0,000000000e+00    0,000000000e+00    0,000000000e+00
      814000000   -3,647080660e-01    2,818535548e-03    5,078939199e-01   -8,885091543e-02    0,000000000e+00    0,000000000e+00    0,000000000e+00    0,000000000e+00
      828000000   -2,477722317e-01    2,343352288e-01    2,815503478e-01   -3,527342081e-01    0,000000000e+00    0,000000000e+00    0,000000000e+00    0,000000000e+00
      842000000    1,327064354e-02    2,783292532e-01   -1,571300440e-02   -3,628592789e-01    0,000000000e+00    0,000000000e+00    0,000000000e+00    0,000000000e+00
      856000000    2,122947723e-01    1,151615456e-01   -1,881869584e-01   -2,056994885e-01    0,000000000e+00    0,000000000e+00    0,000000000e+00    0,000000000e+00
      870000000    2,385563552e-01   -1,485484838e-01   -2,002127767e-01   -2,613553219e-02    0,000000000e+00    0,000000000e+00    0,000000000e+00    0,000000000e+00
      884000000    3,770705685e-02   -3,860456347e-01   -1,043214202e-01    7,064718753e-02    0,000000000e+00    0,000000000e+00    0,000000000e+00    0,000000000e+00
      898000000   -3,686949313e-01   -3,424897790e-01   -1,635694131e-02    2,781395987e-02    0,000000000e+00    0,000000000e+00    0,000000000e+00    0,000000000e+00
      912000000   -4,681516290e-01    1,382513046e-01   -1,073331907e-01    3,874794021e-02    0,000000000e+00    0,000000000e+00    0,000000000e+00    0,000000000e+00
      926000000   -9,438503534e-02    3,490522802e-01   -1,295463592e-01    1,323186308e-01    0,000000000e+00    0,000000000e+00    0,000000000e+00    0,000000000e+00
      940000000    1,828041524e-01    1,962951273e-01   -3,845138103e-02    2,147257775e-01    0,000000000e+00    0,000000000e+00    0,000000000e+00    0,000000000e+00
      954000000    2,553540170e-01   -5,003222078e-02    8,045485616e-02    2,268164605e-01    0,000000000e+00    0,000000000e+00    0,000000000e+00    0,000000000e+00
      968000000    1,767937541e-01   -2,612786889e-01    1,916175932e-01    1,810599715e-01    0,000000000e+00    0,000000000e+00    0,000000000e+00    0,000000000e+00
      982000000   -1,606710441e-02   -3,913950622e-01    2,802953720e-01    7,824899256e-02    0,000000000e+00    0,000000000e+00    0,000000000e+00    0,000000000e+00
      996000000   -2,746221423e-01   -3,801170588e-01    3,102710545e-01   -7,962664217e-02    0,000000000e+00    0,000000000e+00    0,000000000e+00    0,000000000e+00
     1010000000   -4,729266465e-01   -1,698086560e-01    2,201918811e-01   -2,543451488e-01    0,000000000e+00    0,000000000e+00    0,000000000e+00    0,000000000e+00
     1024000000   -4,633132219e-01    1,141579971e-01    2,208368666e-02   -3,279328346e-01    0,000000000e+00    0,000000000e+00    0,000000000e+00    0,000000000e+00
     1038000000   -2,627209425e-01    3,012798727e-01   -1,756887585e-01   -2,478131205e-01    0,000000000e+00    0,000000000e+00    0,000000000e+00    0,000000000e+00
     1052000000   -3,663708642e-02    3,119061589e-01   -2,589023411e-01   -7,746107876e-02    0,000000000e+00    0,000000000e+00    0,000000000e+00    0,000000000e+00
     1066000000    1,270187497e-01    2,079079896e-01   -2,259784043e-01    8,461213857e-02    0,000000000e+00    0,000000000e+00    0,000000000e+00    0,000000000e+00
     1080000000    2,052469254e-01    4,831061885e-02   -1,209584400e-01    1,937419176e-01    0,000000000e+00    0,000000000e+00    0,000000000e+00    0,000000000e+00
     1094000000    1,987799704e-01   -1,298978031e-01    1,827883534e-02    2,339503616e-01    0,000000000e+00    0,000000000e+00    0,000000000e+00    0,000000000e+00
     1108000000    1,008829027e-01   -2,844593823e-01    1,693194211e-01    2,061220407e-01    0,000000000e+00    0,000000000e+00    0,000000000e+00    0,000000000e+00
     1122000000   -9,693944454e-02   -3,683452904e-01    3,154461086e-01    9,042236954e-02    0,000000000e+00    0,000000000e+00    0,000000000e+00    0,000000000e+00
     1136000000   -3,486655056e-01   -2,728455067e-01    3,913321495e-01   -1,514698267e-01    0,000000000e+00    0,000000000e+00    0,000000000e+00    0,000000000e+00
     1150000000   -4,097397029e-01    3,171067685e-02    2,419884652e-01   -4,363254309e-01    0,000000000e+00    0,000000000e+00    0,000000000e+00    0,000000000e+00
     1164000000   -1,616037190e-01    2,216449827e-01   -9,689010680e-02   -5,150374174e-01    0,000000000e+00    0,000000000e+00    0,000000000e+00    0,000000000e+00
     1178000000    7,759878039e-02    8,550455421e-02   -3,542742431e-01   -3,452670872e-01    0,000000000e+00    0,000000000e+00    0,000000000e+00    0,000000000e+00
     1192000000    7,313669473e-02   -1,769233346e-01   -4,530103803e-01   -8,547835797e-02    0,000000000e+00    0,000000000e+00    0,000000000e+00    0,000000000e+00
     1206000000   -1,624218225e-01   -3,225606084e-01   -3,685659170e-01    1,888624430e-01    0,000000000e+00    0,000000000e+00    0,000000000e+00    0,000000000e+00
     1220000000   -4,507976770e-01   -1,792151779e-01   -1,033993363e-01    3,288245201e-01    0,000000000e+00    0,000000000e+00    0,000000000e+00    0,000000000e+00
     1234000000   -4,706117809e-01    1,681069434e-01    1,429077834e-01    2,218908966e-01    0,000000000e+00    0,000000000e+00    0,000000000e+00    0,000000000e+00
     1248000000   -2,374826819e-01    3,514429629e-01    1,864691377e-01    3,508046269e-02    0,000000000e+00    0,000000000e+00    0,000000000e+00    0,000000000e+00
     1262000000    7,108069491e-03    3,246986866e-01    1,259704530e-01   -7,659997046e-02    0,000000000e+00    0,000000000e+00    0,000000000e+00    0,000000000e+00
     1276000000    1,537655443e-01    2,027003616e-01    5,342100188e-02   -9,316813201e-02    0,000000000e+00    0,000000000e+00    0,000000000e+00    0,000000000e+00
     1290000000    2,155591249e-01    3,075642139e-02   -3,988600802e-04   -7,385133207e-02    0,000000000e+00    0,000000000e+00    0,000000000e+00    0,000000000e+00
     1304000000    2,061269134e-01   -1,434385180e-01   -1,644438878e-02   -2,615708113e-02    0,000000000e+00    0,000000000e+00    0,000000000e+00    0,000000000e+00
     1318000000    1,144318357e-01   -3,126234114e-01   -9,969429113e-03    2,235768735e-02    0,000000000e+00    0,000000000e+00    0,000000000e+00    0,000000000e+00
     1332000000   -6,643133610e-02   -4,329314828e-01    4,887953028e-02    6,628179550e-02    0,000000000e+00    0,000000000e+00    0,000000000e+00    0,000000000e+00
     1346000000   -3,332326710e-01   -4,366602302e-01    1,477049291e-01    3,690934926e-02    0,000000000e+00    0,000000000e+00    0,000000000e+00    0,000000000e+00
     1360000000   -5,584479570e-01   -2,483579069e-01    1,163385585e-01   -8,858668059e-02    0,000000000e+00    0,000000000e+00    0,000000000e+00    0,000000000e+00
     1374000000   -6,255353093e-01    3,513971716e-02    1,015060097e-01    6,658065319e-02    0,000000000e+00    0,000000000e+00    0,000000000e+00    0,000000000e+00
     1388000000   -5,198365450e-01    2,936927974e-01    2,159667015e-01    8,344304748e-03    0,000000000e+00    0,000000000e+00    0,000000000e+00    0,000000000e+00
     1402000000   -3,022738993e-01    4,134567380e-01    2,332081646e-01   -8,832156658e-02    0,000000000e+00    0,000000000e+00    0,000000000e+00    0,000000000e+00
     1416000000   -9,745658189e-02    4,143166542e-01    1,846531928e-01   -1,130590066e-01    0,000000000e+00    0,000000000e+00    0,000000000e+00    0,000000000e+00
     1430000000    7,221983373e-02    3,294766545e-01    1,476750374e-01   -1,077797562e-01    0,000000000e+00    0,000000000e+00    0,000000000e+00    0,000000000e+00
     1444000000    1,727017611e-01    1,964828968e-01    1,529894322e-01   -1,059254184e-01    0,000000000e+00    0,000000000e+00    0,000000000e+00    0,000000000e+00
     1458000000    2,231733650e-01    3,916058689e-02    1,417957693e-01   -7,768921554e-02    0,000000000e+00    0,000000000e+00    0,000000000e+00    0,000000000e+00
     1472000000    2,040302902e-01   -1,502286345e-01    1,534738243e-01   -4,595853761e-02    0,000000000e+00    0,000000000e+00    0,000000000e+00    0,000000000e+00
     1486000000    1,037564799e-01   -3,205660582e-01    1,619418114e-01    4,920285195e-03    0,000000000e+00    0,000000000e+00    0,000000000e+00    0,000000000e+00
     1500000000   -8,609805256e-02   -4,581786990e-01    2,212995291e-01    4,992954433e-02    0,000000000e+00    0,000000000e+00    0,000000000e+00    0,000000000e+00
