! NanoVNA-App
! Date: 2025-09-25 14:22:24
! Start: 100MHz Stop: 1,5GHz Points: 101
! S-Parameter data: F S11 S21 S12 S22
# Hz S RI R 50
!     Frequency           S11_Real           S11_Imag           S21_Real           S21_Imag           S12_Real           S12_Imag           S22_Real           S22_Imag
      100000000   -2,909626067e-02   -4,133874085e-03    3,744178712e-01   -7,220668197e-01    0,000000000e+00    0,000000000e+00    0,000000000e+00    0,000000000e+00
      114000000   -1,662285067e-02    1,159758680e-02   -8,905492723e-02   -8,058101535e-01    0,000000000e+00    0,000000000e+00    0,000000000e+00    0,000000000e+00
      128000000    3,422091249e-03    1,056247670e-02   -5,147274733e-01   -6,210801005e-01    0,000000000e+00    0,000000000e+00    0,000000000e+00    0,000000000e+00
      142000000    1,445688866e-02   -3,043864854e-03   -7,674632072e-01   -2,369069904e-01    0,000000000e+00    0,000000000e+00    0,000000000e+00    0,000000000e+00
      156000000    1,567883417e-02   -1,469904743e-02   -7,705238461e-01    2,239395082e-01    0,000000000e+00    0,000000000e+00    0,000000000e+00    0,000000000e+00
      170000000    1,653997228e-02   -2,256441675e-02   -5,185734630e-01    6,050454974e-01    0,000000000e+00    0,000000000e+00    0,000000000e+00    0,000000000e+00
      184000000    2,099292539e-02   -3,706564382e-02   -1,017188132e-01    7,866264582e-01    0,000000000e+00    0,000000000e+00    0,000000000e+00    0,000000000e+00
      198000000    1,303526200e-02   -6,257639825e-02    3,430981338e-01    7,127011418e-01    0,000000000e+00    0,000000000e+00    0,000000000e+00    0,000000000e+00
      212000000   -1,870535873e-02   -8,165790141e-02    6,783892512e-01    4,106347263e-01    0,000000000e+00    0,000000000e+00    0,000000000e+00    0,000000000e+00
      226000000   -6,196507066e-02   -6,969369948e-02    7,960084081e-01   -2,976180799e-02    0,000000000e+00    0,000000000e+00    0,000000000e+00    0,000000000e+00
      240000000   -8,314243704e-02   -2,609429508e-02    6,470742226e-01   -4,668988883e-01    0,000000000e+00    0,000000000e+00    0,000000000e+00    0,000000000e+00
      254000000   -6,433851272e-02    1,724134386e-02    2,770750225e-01   -7,435486913e-01    0,000000000e+00    0,000000000e+00    0,000000000e+00    0,000000000e+00
      268000000   -2,429043129e-02    2,956038900e-02   -1,773888320e-01   -7,650425434e-01    0,000000000e+00    0,000000000e+00    0,000000000e+00    0,000000000e+00
      282000000    4,225124139e-03    1,217574440e-02   -5,624020696e-01   -5,369650126e-01    0,000000000e+00    0,000000000e+00    0,000000000e+00    0,000000000e+00
      296000000    9,652712382e-03   -7,744797971e-03   -7,607482672e-01   -1,394217014e-01    0,000000000e+00    0,000000000e+00    0,000000000e+00    0,000000000e+00
      310000000    1,094958466e-02   -1,609979570e-02   -7,137319446e-01    2,969824374e-01    0,000000000e+00    0,000000000e+00    0,000000000e+00    0,000000000e+00
      324000000    1,944294944e-02   -2,614482120e-02   -4,284239709e-01    6,377456188e-01    0,000000000e+00    0,000000000e+00    0,000000000e+00    0,000000000e+00
      338000000    2,561157197e-02   -5,172011629e-02   -1,071140636e-02    7,608668804e-01    0,000000000e+00    0,000000000e+00    0,000000000e+00    0,000000000e+00
      352000000    7,383601740e-03   -8,464349806e-02    4,057598114e-01    6,406621337e-01    0,000000000e+00    0,000000000e+00    0,000000000e+00    0,000000000e+00
      366000000   -3,473023325e-02   -9,620317817e-02    6,908981800e-01    3,123652637e-01    0,000000000e+00    0,000000000e+00    0,000000000e+00    0,000000000e+00
      380000000   -7,164309919e-02   -7,107436657e-02    7,479951382e-01   -1,249534860e-01    0,000000000e+00    0,000000000e+00    0,000000000e+00    0,000000000e+00
      394000000   -7,307144254e-02   -3,238367289e-02    5,491111279e-01   -5,204383135e-01    0,000000000e+00    0,000000000e+00    0,000000000e+00    0,000000000e+00
      408000000   -4,710571095e-02   -1,558721438e-02    1,614879668e-01   -7,315434217e-01    0,000000000e+00    0,000000000e+00    0,000000000e+00    0,000000000e+00
      422000000   -2,813045867e-02   -3,134442493e-02   -2,660952210e-01   -6,956346631e-01    0,000000000e+00    0,000000000e+00    0,000000000e+00    0,000000000e+00
      436000000   -4,018195346e-02   -5,193735659e-02   -6,029940844e-01   -4,342799783e-01    0,000000000e+00    0,000000000e+00    0,000000000e+00    0,000000000e+00
      450000000   -6,734310836e-02   -4,491402954e-02   -7,404568195e-01   -2,504624426e-02    0,000000000e+00    0,000000000e+00    0,000000000e+00    0,000000000e+00
      464000000   -7,400289178e-02   -1,241071988e-02   -6,209613681e-01    3,948971331e-01    0,000000000e+00    0,000000000e+00    0,000000000e+00    0,000000000e+00
      478000000   -4,905273393e-02    1,172964182e-02   -2,872173190e-01    6,675501466e-01    0,000000000e+00    0,000000000e+00    0,000000000e+00    0,000000000e+00
      492000000   -1,709880494e-02    6,250620820e-03    1,339992136e-01    7,032197714e-01    0,000000000e+00    0,000000000e+00    0,000000000e+00    0,000000000e+00
      506000000   -3,602807177e-03   -1,505088527e-02    4,970021844e-01    5,059093833e-01    0,000000000e+00    0,000000000e+00    0,000000000e+00    0,000000000e+00
      520000000   -6,045437418e-03   -3,008912317e-02    6,902666688e-01    1,432623714e-01    0,000000000e+00    0,000000000e+00    0,000000000e+00    0,000000000e+00
      534000000   -3,586971434e-03   -3,571656346e-02    6,442830563e-01   -2,598026991e-01    0,000000000e+00    0,000000000e+00    0,000000000e+00    0,000000000e+00
      548000000    8,458397351e-03   -5,255008116e-02    3,852543235e-01   -5,640261173e-01    0,000000000e+00    0,000000000e+00    0,000000000e+00    0,000000000e+00
      562000000    5,978175905e-03   -8,945371956e-02    8,580593392e-03   -6,718279123e-01    0,000000000e+00    0,000000000e+00    0,000000000e+00    0,000000000e+00
      576000000   -3,116479516e-02   -1,263723224e-01   -3,620729446e-01   -5,615994930e-01    0,000000000e+00    0,000000000e+00    0,000000000e+00    0,000000000e+00
      590000000   -9,505059570e-02   -1,276631504e-01   -6,177340746e-01   -2,717707753e-01    0,000000000e+00    0,000000000e+00    0,000000000e+00    0,000000000e+00
      604000000   -1,428382695e-01   -7,767463475e-02   -6,672433615e-01    1,263518780e-01    0,000000000e+00    0,000000000e+00    0,000000000e+00    0,000000000e+00
      618000000   -1,383887976e-01   -1,169863716e-02   -4,746871889e-01    4,854400754e-01    0,000000000e+00    0,000000000e+00    0,000000000e+00    0,000000000e+00
      632000000   -9,320859611e-02    2,216033451e-02   -1,146982834e-01    6,639409065e-01    0,000000000e+00    0,000000000e+00    0,000000000e+00    0,000000000e+00
      646000000   -5,485773459e-02    1,175652724e-02    2,740800381e-01    6,036158204e-01    0,000000000e+00    0,000000000e+00    0,000000000e+00    0,000000000e+00
      660000000   -4,752522334e-02   -8,899389766e-03    5,571858883e-01    3,397888243e-01    0,000000000e+00    0,000000000e+00    0,000000000e+00    0,000000000e+00
      674000000   -5,540464073e-02   -1,058645360e-02    6,442321539e-01   -3,968560323e-02    0,000000000e+00    0,000000000e+00    0,000000000e+00    0,000000000e+00
      688000000   -5,066658184e-02    2,607547212e-03    4,930863678e-01   -4,018264711e-01    0,000000000e+00    0,000000000e+00    0,000000000e+00    0,000000000e+00
      702000000   -2,608240396e-02    6,741569843e-03    1,595916450e-01   -6,017364860e-01    0,000000000e+00    0,000000000e+00    0,000000000e+00    0,000000000e+00
      716000000   -2,529693767e-03   -8,557816036e-03   -2,197263688e-01   -5,756430030e-01    0,000000000e+00    0,000000000e+00    0,000000000e+00    0,000000000e+00
      730000000    1,030248217e-02   -3,422008827e-02   -5,090382695e-01   -3,331263363e-01    0,000000000e+00    0,000000000e+00    0,000000000e+00    0,000000000e+00
      744000000    1,631486230e-02   -6,142133474e-02   -6,006554961e-01    3,315248340e-02    0,000000000e+00    0,000000000e+00    0,000000000e+00    0,000000000e+00
      758000000    2,224256471e-02   -1,041605994e-01   -4,540940821e-01    3,780668974e-01    0,000000000e+00    0,000000000e+00    0,000000000e+00    0,000000000e+00
      772000000   -5,429107230e-03   -1,735400110e-01   -1,393451095e-01    5,580326319e-01    0,000000000e+00    0,000000000e+00    0,000000000e+00    0,000000000e+00
      786000000   -1,054251194e-01   -2,330195755e-01    2,122873962e-01    5,193951130e-01    0,000000000e+00    0,000000000e+00    0,000000000e+00    0,000000000e+00
      800000000   -2,656515241e-01   -1,932994425e-01    4,717986584e-01    2,747352719e-01    0,000000000e+00    0,000000000e+00    0,000000000e+00    0,000000000e+00
      814000000   -3,651798069e-01    3,764752997e-03    5,079120398e-01   -8,856399357e-02    0,000000000e+00    0,000000000e+00    0,000000000e+00    0,000000000e+00
      828000000   -2,469290793e-01    2,331109792e-01    2,819609046e-01   -3,522191346e-01    0,000000000e+00    0,000000000e+00    0,000000000e+00    0,000000000e+00
      842000000    1,298225019e-02    2,787256539e-01   -1,545176934e-02   -3,634030521e-01    0,000000000e+00    0,000000000e+00    0,000000000e+00    0,000000000e+00
      856000000    2,124283910e-01    1,152909771e-01   -1,883014739e-01   -2,043365389e-01    0,000000000e+00    0,000000000e+00    0,000000000e+00    0,000000000e+00
      870000000    2,391260415e-01   -1,489049494e-01   -2,002928853e-01   -2,565593086e-02    0,000000000e+00    0,000000000e+00    0,000000000e+00    0,000000000e+00
      884000000    3,762822226e-02   -3,870972097e-01   -1,042985991e-01    7,043359429e-02    0,000000000e+00    0,000000000e+00    0,000000000e+00    0,000000000e+00
      898000000   -3,696715534e-01   -3,409040570e-01   -1,675290428e-02    2,817557380e-02    0,000000000e+00    0,000000000e+00    0,000000000e+00    0,000000000e+00
      912000000   -4,667143226e-01    1,374535859e-01   -1,220054626e-01    2,787989378e-02    0,000000000e+00    0,000000000e+00    0,000000000e+00    0,000000000e+00
      926000000   -9,367688745e-02    3,523527086e-01   -1,268617958e-01    1,357126683e-01    0,000000000e+00    0,000000000e+00    0,000000000e+00    0,000000000e+00
      940000000    1,839169562e-01    1,929447204e-01   -3,828426078e-02    2,153201699e-01    0,000000000e+00    0,000000000e+00    0,000000000e+00    0,000000000e+00
      954000000    2,569438517e-01   -5,025694519e-02    8,024604619e-02    2,266982496e-01    0,000000000e+00    0,000000000e+00    0,000000000e+00    0,000000000e+00
      968000000    1,734377891e-01   -2,614651322e-01    1,907915771e-01    1,811509728e-01    0,000000000e+00    0,000000000e+00    0,000000000e+00    0,000000000e+00
      982000000   -1,540806238e-02   -3,936033249e-01    2,797540724e-01    7,826538384e-02    0,000000000e+00    0,000000000e+00    0,000000000e+00    0,000000000e+00
      996000000   -2,752220929e-01   -3,802424669e-01    3,087706864e-01   -8,198258281e-02    0,000000000e+00    0,000000000e+00    0,000000000e+00    0,000000000e+00
     1010000000   -4,719870985e-01   -1,707903147e-01    2,214723378e-01   -2,539153993e-01    0,000000000e+00    0,000000000e+00    0,000000000e+00    0,000000000e+00
     1024000000   -4,562615156e-01    1,178434268e-01    2,055265196e-02   -3,288976550e-01    0,000000000e+00    0,000000000e+00    0,000000000e+00    0,000000000e+00
     1038000000   -2,628976703e-01    3,016394973e-01   -1,732696444e-01   -2,476175874e-01    0,000000000e+00    0,000000000e+00    0,000000000e+00    0,000000000e+00
     1052000000   -3,466961905e-02    3,061398268e-01   -2,582429349e-01   -7,835160196e-02    0,000000000e+00    0,000000000e+00    0,000000000e+00    0,000000000e+00
     1066000000    1,256013364e-01    2,065186501e-01   -2,260052562e-01    8,228270710e-02    0,000000000e+00    0,000000000e+00    0,000000000e+00    0,000000000e+00
     1080000000    2,104764283e-01    4,939037561e-02   -1,229614839e-01    1,918800920e-01    0,000000000e+00    0,000000000e+00    0,000000000e+00    0,000000000e+00
     1094000000    1,995730698e-01   -1,264643222e-01    1,801247150e-02    2,356342971e-01    0,000000000e+00    0,000000000e+00    0,000000000e+00    0,000000000e+00
     1108000000    9,838221967e-02   -2,869554460e-01    1,680435389e-01    2,049389035e-01    0,000000000e+00    0,000000000e+00    0,000000000e+00    0,000000000e+00
     1122000000   -9,862980992e-02   -3,673408031e-01    3,151965737e-01    8,834651858e-02    0,000000000e+00    0,000000000e+00    0,000000000e+00    0,000000000e+00
     1136000000   -3,467025161e-01   -2,657891512e-01    3,932815194e-01   -1,467923969e-01    0,000000000e+00    0,000000000e+00    0,000000000e+00    0,000000000e+00
     1150000000   -4,109583795e-01    3,747669980e-02    2,435688823e-01   -4,371843040e-01    0,000000000e+00    0,000000000e+00    0,000000000e+00    0,000000000e+00
     1164000000   -1,566773951e-01    2,179727256e-01   -9,348852187e-02   -5,155380368e-01    0,000000000e+00    0,000000000e+00    0,000000000e+00    0,000000000e+00
     1178000000    7,631987333e-02    8,643616736e-02   -3,579119146e-01   -3,467098176e-01    0,000000000e+00    0,000000000e+00    0,000000000e+00    0,000000000e+00
     1192000000    7,486265153e-02   -1,728166938e-01   -4,531755745e-01   -7,975845039e-02    0,000000000e+00    0,000000000e+00    0,000000000e+00    0,000000000e+00
     1206000000   -1,599639952e-01   -3,279899955e-01   -3,702048361e-01    1,876121461e-01    0,000000000e+00    0,000000000e+00    0,000000000e+00    0,000000000e+00
     1220000000   -4,502892792e-01   -1,758282185e-01   -1,013745070e-01    3,306897879e-01    0,000000000e+00    0,000000000e+00    0,000000000e+00    0,000000000e+00
     1234000000   -4,756772220e-01    1,651903093e-01    1,360590458e-01    2,213378996e-01    0,000000000e+00    0,000000000e+00    0,000000000e+00    0,000000000e+00
     1248000000   -2,304614633e-01    3,507386148e-01    1,924294531e-01    3,428360820e-02    0,000000000e+00    0,000000000e+00    0,000000000e+00    0,000000000e+00
     1262000000    1,130664954e-03    3,276658356e-01    1,269591600e-01   -7,286580652e-02    0,000000000e+00    0,000000000e+00    0,000000000e+00    0,000000000e+00
     1276000000    1,546514481e-01    1,967036128e-01    5,199466646e-02   -9,733489901e-02    0,000000000e+00    0,000000000e+00    0,000000000e+00    0,000000000e+00
     1290000000    2,157898545e-01    3,417608142e-02    9,227559785e-04   -7,046283036e-02    0,000000000e+00    0,000000000e+00    0,000000000e+00    0,000000000e+00
     1304000000    2,036510557e-01   -1,469008178e-01   -2,362212166e-02   -3,171434999e-02    0,000000000e+00    0,000000000e+00    0,000000000e+00    0,000000000e+00
     1318000000    1,115442663e-01   -3,110935092e-01   -4,823398776e-03    2,455878258e-02    0,000000000e+00    0,000000000e+00    0,000000000e+00    0,000000000e+00
     1332000000   -6,604882330e-02   -4,341031015e-01    4,634469748e-02    6,758214533e-02    0,000000000e+00    0,000000000e+00    0,000000000e+00    0,000000000e+00
     1346000000   -3,263061941e-01   -4,293927252e-01    1,527556479e-01    4,955290258e-02    0,000000000e+00    0,000000000e+00    0,000000000e+00    0,000000000e+00
     1360000000   -5,511117578e-01   -2,330750823e-01    1,253672093e-01   -6,922509521e-02    0,000000000e+00    0,000000000e+00    0,000000000e+00    0,000000000e+00
     1374000000   -6,271176338e-01    3,790039569e-02    1,002356187e-01    6,420855224e-02    0,000000000e+00    0,000000000e+00    0,000000000e+00    0,000000000e+00
     1388000000   -5,104892254e-01    2,941136062e-01    2,295726687e-01    9,875748074e-04    0,000000000e+00    0,000000000e+00    0,000000000e+00    0,000000000e+00
     1402000000   -3,073765934e-01    4,254596531e-01    2,164787650e-01   -7,083608955e-02    0,000000000e+00    0,000000000e+00    0,000000000e+00    0,000000000e+00
     1416000000   -8,978065103e-02    4,163982570e-01    2,007933855e-01   -1,213185266e-01    0,000000000e+00    0,000000000e+00    0,000000000e+00    0,000000000e+00
     1430000000    7,979425788e-02    3,364219666e-01    1,715071648e-01   -1,408692449e-01    0,000000000e+00    0,000000000e+00    0,000000000e+00    0,000000000e+00
     1444000000    1,738513857e-01    1,955487281e-01    1,428834647e-01   -1,062414870e-01    0,000000000e+00    0,000000000e+00    0,000000000e+00    0,000000000e+00
     1458000000    2,242070287e-01    3,771576658e-02    1,549286395e-01   -8,200678229e-02    0,000000000e+00    0,000000000e+00    0,000000000e+00    0,000000000e+00
     1472000000    2,058795691e-01   -1,441823989e-01    1,611796468e-01   -4,971892014e-02    0,000000000e+00    0,000000000e+00    0,000000000e+00    0,000000000e+00
     1486000000    1,047986895e-01   -3,187007308e-01    1,669781208e-01   -1,684229239e-03    0,000000000e+00    0,000000000e+00    0,000000000e+00    0,000000000e+00
     1500000000   -9,197898209e-02   -4,561645389e-01    2,001313567e-01    6,019807607e-02    0,000000000e+00    0,000000000e+00    0,000000000e+00    0,000000000e+00
