! NanoVNA-App
! Date: 2025-09-25 14:26:25
! Start: 100MHz Stop: 1,5GHz Points: 101
! S-Parameter data: F S11 S21 S12 S22
# Hz S RI R 50
!     Frequency           S11_Real           S11_Imag           S21_Real           S21_Imag           S12_Real           S12_Imag           S22_Real           S22_Imag
      100000000   -2,910007723e-02   -4,126949236e-03    3,744776547e-01   -7,220286131e-01    0,000000000e+00    0,000000000e+00    0,000000000e+00    0,000000000e+00
      114000000   -1,659664139e-02    1,162082423e-02   -8,871002495e-02   -8,058793545e-01    0,000000000e+00    0,000000000e+00    0,000000000e+00    0,000000000e+00
      128000000    3,434087383e-03    1,051698346e-02   -5,145566463e-01   -6,209377050e-01    0,000000000e+00    0,000000000e+00    0,000000000e+00    0,000000000e+00
      142000000    1,444952842e-02   -3,093249863e-03   -7,676885724e-01   -2,371684164e-01    0,000000000e+00    0,000000000e+00    0,000000000e+00    0,000000000e+00
      156000000    1,436612010e-02   -1,499612443e-02   -7,653327584e-01    2,181633413e-01    0,000000000e+00    0,000000000e+00    0,000000000e+00    0,000000000e+00
      170000000    1,650048979e-02   -2,253166214e-02   -5,187755227e-01    6,052367091e-01    0,000000000e+00    0,000000000e+00    0,000000000e+00    0,000000000e+00
      184000000    2,101076208e-02   -3,702820837e-02   -1,018178165e-01    7,864657640e-01    0,000000000e+00    0,000000000e+00    0,000000000e+00    0,000000000e+00
      198000000    1,310292911e-02   -6,262467802e-02    3,429953158e-01    7,129697800e-01    0,000000000e+00    0,000000000e+00    0,000000000e+00    0,000000000e+00
      212000000   -1,869939826e-02   -8,169884980e-02    6,783933043e-01    4,106069207e-01    0,000000000e+00    0,000000000e+00    0,000000000e+00    0,000000000e+00
      226000000   -6,206863001e-02   -6,963546574e-02    7,961712480e-01   -2,978741750e-02    0,000000000e+00    0,000000000e+00    0,000000000e+00    0,000000000e+00
      240000000   -8,331684023e-02   -2,603127249e-02    6,470543146e-01   -4,666715860e-01    0,000000000e+00    0,000000000e+00    0,000000000e+00    0,000000000e+00
      254000000   -6,435208768e-02    1,751643233e-02    2,770881951e-01   -7,431757450e-01    0,000000000e+00    0,000000000e+00    0,000000000e+00    0,000000000e+00
      268000000   -2,404650301e-02    2,941640280e-02   -1,766593158e-01   -7,651264071e-01    0,000000000e+00    0,000000000e+00    0,000000000e+00    0,000000000e+00
      282000000    4,057458602e-03    1,211483404e-02   -5,626679659e-01   -5,372901559e-01    0,000000000e+00    0,000000000e+00    0,000000000e+00    0,000000000e+00
      296000000    9,588024579e-03   -7,711251266e-03   -7,607668042e-01   -1,396668702e-01    0,000000000e+00    0,000000000e+00    0,000000000e+00    0,000000000e+00
      310000000    1,086292136e-02   -1,609301567e-02   -7,124987841e-01    2,973968685e-01    0,000000000e+00    0,000000000e+00    0,000000000e+00    0,000000000e+00
      324000000    1,966369711e-02   -2,642909251e-02   -4,274519682e-01    6,369898915e-01    0,000000000e+00    0,000000000e+00    0,000000000e+00    0,000000000e+00
      338000000    2,541153319e-02   -5,228989571e-02   -1,194614917e-02    7,603267431e-01    0,000000000e+00    0,000000000e+00    0,000000000e+00    0,000000000e+00
      352000000    7,619140670e-03   -8,452959359e-02    4,057209492e-01    6,411541104e-01    0,000000000e+00    0,000000000e+00    0,000000000e+00    0,000000000e+00
      366000000   -3,494079411e-02   -9,608753026e-02    6,903182268e-01    3,120656312e-01    0,000000000e+00    0,000000000e+00    0,000000000e+00    0,000000000e+00
      380000000   -7,122714818e-02   -7,114277780e-02    7,486435175e-01   -1,241254061e-01    0,000000000e+00    0,000000000e+00    0,000000000e+00    0,000000000e+00
      394000000   -7,340479642e-02   -3,231936693e-02    5,478380322e-01   -5,204213262e-01    0,000000000e+00    0,000000000e+00    0,000000000e+00    0,000000000e+00
      408000000   -4,701029509e-02   -1,568502001e-02    1,633540839e-01   -7,313382626e-01    0,000000000e+00    0,000000000e+00    0,000000000e+00    0,000000000e+00
      422000000   -2,829768881e-02   -3,151970729e-02   -2,663339674e-01   -6,959770918e-01    0,000000000e+00    0,000000000e+00    0,000000000e+00    0,000000000e+00
      436000000   -4,006499052e-02   -5,195371062e-02   -6,022749543e-01   -4,336387217e-01    0,000000000e+00    0,000000000e+00    0,000000000e+00    0,000000000e+00
      450000000   -6,744862348e-02   -4,494883493e-02   -7,406210899e-01   -2,512828819e-02    0,000000000e+00    0,000000000e+00    0,000000000e+00    0,000000000e+00
      464000000   -7,432892174e-02   -1,252562366e-02   -6,217028499e-01    3,942139447e-01    0,000000000e+00    0,000000000e+00    0,000000000e+00    0,000000000e+00
      478000000   -4,923777282e-02    1,152141392e-02   -2,871589959e-01    6,676918268e-01    0,000000000e+00    0,000000000e+00    0,000000000e+00    0,000000000e+00
      492000000   -1,689023338e-02    6,580825895e-03    1,342845112e-01    7,036281228e-01    0,000000000e+00    0,000000000e+00    0,000000000e+00    0,000000000e+00
      506000000   -3,437260399e-03   -1,515976712e-02    4,971264005e-01    5,057564378e-01    0,000000000e+00    0,000000000e+00    0,000000000e+00    0,000000000e+00
      520000000   -6,076022983e-03   -2,962657809e-02    6,881524324e-01    1,438569278e-01    0,000000000e+00    0,000000000e+00    0,000000000e+00    0,000000000e+00
      534000000   -3,377933055e-03   -3,565859422e-02    6,453881264e-01   -2,589738071e-01    0,000000000e+00    0,000000000e+00    0,000000000e+00    0,000000000e+00
      548000000    8,399784565e-03   -5,276095122e-02    3,858011663e-01   -5,640387535e-01    0,000000000e+00    0,000000000e+00    0,000000000e+00    0,000000000e+00
      562000000    5,984332878e-03   -8,968775719e-02    8,114594035e-03   -6,724533439e-01    0,000000000e+00    0,000000000e+00    0,000000000e+00    0,000000000e+00
      576000000   -3,149164841e-02   -1,262581795e-01   -3,623772562e-01   -5,606039762e-01    0,000000000e+00    0,000000000e+00    0,000000000e+00    0,000000000e+00
      590000000   -9,481571615e-02   -1,278183311e-01   -6,147559285e-01   -2,728208899e-01    0,000000000e+00    0,000000000e+00    0,000000000e+00    0,000000000e+00
      604000000   -1,431146860e-01   -7,788419724e-02   -6,672109365e-01    1,263035387e-01    0,000000000e+00    0,000000000e+00    0,000000000e+00    0,000000000e+00
      618000000   -1,381271631e-01   -1,084927656e-02   -4,757977724e-01    4,857002497e-01    0,000000000e+00    0,000000000e+00    0,000000000e+00    0,000000000e+00
      632000000   -9,271462262e-02    2,170473337e-02   -1,137605235e-01    6,635284424e-01    0,000000000e+00    0,000000000e+00    0,000000000e+00    0,000000000e+00
      646000000   -5,573214963e-02    1,187061425e-02    2,735835612e-01    6,042093039e-01    0,000000000e+00    0,000000000e+00    0,000000000e+00    0,000000000e+00
      660000000   -4,802808166e-02   -8,067279123e-03    5,572855473e-01    3,408349454e-01    0,000000000e+00    0,000000000e+00    0,000000000e+00    0,000000000e+00
      674000000   -5,595275387e-02   -1,022025943e-02    6,441988945e-01   -3,950651735e-02    0,000000000e+00    0,000000000e+00    0,000000000e+00    0,000000000e+00
      688000000   -5,056178942e-02    3,379241331e-03    4,937311411e-01   -4,010323882e-01    0,000000000e+00    0,000000000e+00    0,000000000e+00    0,000000000e+00
      702000000   -2,699946612e-02    7,493238896e-03    1,660288572e-01   -5,994923115e-01    0,000000000e+00    0,000000000e+00    0,000000000e+00    0,000000000e+00
      716000000   -1,503495383e-03   -8,929025382e-03   -2,176137120e-01   -5,755610466e-01    0,000000000e+00    0,000000000e+00    0,000000000e+00    0,000000000e+00
      730000000    9,600920603e-03   -3,534125537e-02   -5,092368126e-01   -3,330514431e-01    0,000000000e+00    0,000000000e+00    0,000000000e+00    0,000000000e+00
      744000000    1,669702865e-02   -6,019136682e-02   -6,008872986e-01    3,279735893e-02    0,000000000e+00    0,000000000e+00    0,000000000e+00    0,000000000e+00
      758000000    2,188665606e-02   -1,028038114e-01   -4,546431303e-01    3,769949973e-01    0,000000000e+00    0,000000000e+00    0,000000000e+00    0,000000000e+00
      772000000   -4,070874769e-03   -1,735583693e-01   -1,392921060e-01    5,581086278e-01    0,000000000e+00    0,000000000e+00    0,000000000e+00    0,000000000e+00
      786000000   -1,055788845e-01   -2,323706001e-01    2,116808891e-01    5,195957422e-01    0,000000000e+00    0,000000000e+00    0,000000000e+00    0,000000000e+00
      800000000   -2,651257515e-01   -1,935829818e-01    4,713771343e-01    2,759205103e-01    0,000000000e+00    0,000000000e+00    0,000000000e+00    0,000000000e+00
      814000000   -3,636567295e-01    3,615602851e-03    5,076943636e-01   -8,823874593e-02    0,000000000e+00    0,000000000e+00    0,000000000e+00    0,000000000e+00
      828000000   -2,475146949e-01    2,340999544e-01    2,811563015e-01   -3,514294922e-01    0,000000000e+00    0,000000000e+00    0,000000000e+00    0,000000000e+00
      842000000    1,183286868e-02    2,783876657e-01   -1,514740381e-02   -3,633003235e-01    0,000000000e+00    0,000000000e+00    0,000000000e+00    0,000000000e+00
      856000000    2,122380883e-01    1,153227761e-01   -1,878029257e-01   -2,050711066e-01    0,000000000e+00    0,000000000e+00    0,000000000e+00    0,000000000e+00
      870000000    2,387005836e-01   -1,489205211e-01   -2,000068873e-01   -2,630138025e-02    0,000000000e+00    0,000000000e+00    0,000000000e+00    0,000000000e+00
      884000000    3,805192560e-02   -3,865981698e-01   -1,046827734e-01    7,093386352e-02    0,000000000e+00    0,000000000e+00    0,000000000e+00    0,000000000e+00
      898000000   -3,687259853e-01   -3,424225748e-01   -1,728712954e-02    2,716775611e-02    0,000000000e+00    0,000000000e+00    0,000000000e+00    0,000000000e+00
      912000000   -4,671230912e-01    1,375911832e-01   -1,164707989e-01    4,374053329e-02    0,000000000e+00    0,000000000e+00    0,000000000e+00    0,000000000e+00
      926000000   -9,727533907e-02    3,511599004e-01   -1,298774034e-01    1,336635053e-01    0,000000000e+00    0,000000000e+00    0,000000000e+00    0,000000000e+00
      940000000    1,851290315e-01    1,962522268e-01   -3,901731223e-02    2,161459476e-01    0,000000000e+00    0,000000000e+00    0,000000000e+00    0,000000000e+00
      954000000    2,564412057e-01   -5,039950460e-02    7,992220670e-02    2,257881165e-01    0,000000000e+00    0,000000000e+00    0,000000000e+00    0,000000000e+00
      968000000    1,780073047e-01   -2,616637647e-01    1,923051775e-01    1,804028749e-01    0,000000000e+00    0,000000000e+00    0,000000000e+00    0,000000000e+00
      982000000   -1,711352170e-02   -3,902417421e-01    2,798881829e-01    7,942984998e-02    0,000000000e+00    0,000000000e+00    0,000000000e+00    0,000000000e+00
      996000000   -2,716854513e-01   -3,785801530e-01    3,092712760e-01   -7,937861979e-02    0,000000000e+00    0,000000000e+00    0,000000000e+00    0,000000000e+00
     1010000000   -4,730981886e-01   -1,717106998e-01    2,231286466e-01   -2,519961596e-01    0,000000000e+00    0,000000000e+00    0,000000000e+00    0,000000000e+00
     1024000000   -4,570713341e-01    1,197415292e-01    2,137628570e-02   -3,295030296e-01    0,000000000e+00    0,000000000e+00    0,000000000e+00    0,000000000e+00
     1038000000   -2,635824680e-01    2,949790061e-01   -1,740545481e-01   -2,500535548e-01    0,000000000e+00    0,000000000e+00    0,000000000e+00    0,000000000e+00
     1052000000   -3,399180621e-02    3,070881069e-01   -2,545902133e-01   -7,659237832e-02    0,000000000e+00    0,000000000e+00    0,000000000e+00    0,000000000e+00
     1066000000    1,256626397e-01    2,028071135e-01   -2,235696763e-01    8,645140380e-02    0,000000000e+00    0,000000000e+00    0,000000000e+00    0,000000000e+00
     1080000000    2,084905207e-01    4,422362149e-02   -1,204138398e-01    1,964524239e-01    0,000000000e+00    0,000000000e+00    0,000000000e+00    0,000000000e+00
     1094000000    1,984136701e-01   -1,278137118e-01    1,703599095e-02    2,366410196e-01    0,000000000e+00    0,000000000e+00    0,000000000e+00    0,000000000e+00
     1108000000    1,002968103e-01   -2,882538140e-01    1,685927808e-01    2,068392634e-01    0,000000000e+00    0,000000000e+00    0,000000000e+00    0,000000000e+00
     1122000000   -9,719183296e-02   -3,705576658e-01    3,190279007e-01    9,216643870e-02    0,000000000e+00    0,000000000e+00    0,000000000e+00    0,000000000e+00
     1136000000   -3,460989594e-01   -2,653973699e-01    3,911935687e-01   -1,469811201e-01    0,000000000e+00    0,000000000e+00    0,000000000e+00    0,000000000e+00
     1150000000   -4,049980938e-01    3,189896047e-02    2,418098301e-01   -4,353703856e-01    0,000000000e+00    0,000000000e+00    0,000000000e+00    0,000000000e+00
     1164000000   -1,636063606e-01    2,178821862e-01   -9,775227308e-02   -5,170771480e-01    0,000000000e+00    0,000000000e+00    0,000000000e+00    0,000000000e+00
     1178000000    7,346200943e-02    8,158753067e-02   -3,588513136e-01   -3,496713340e-01    0,000000000e+00    0,000000000e+00    0,000000000e+00    0,000000000e+00
     1192000000    7,532541454e-02   -1,760240495e-01   -4,537577331e-01   -8,326565474e-02    0,000000000e+00    0,000000000e+00    0,000000000e+00    0,000000000e+00
     1206000000   -1,645069420e-01   -3,271753490e-01   -3,708427250e-01    1,895936280e-01    0,000000000e+00    0,000000000e+00    0,000000000e+00    0,000000000e+00
     1220000000   -4,525005519e-01   -1,717925668e-01   -1,021071598e-01    3,284940124e-01    0,000000000e+00    0,000000000e+00    0,000000000e+00    0,000000000e+00
     1234000000   -4,716802537e-01    1,706920415e-01    1,370786875e-01    2,225685716e-01    0,000000000e+00    0,000000000e+00    0,000000000e+00    0,000000000e+00
     1248000000   -2,335865945e-01    3,537849188e-01    2,028912008e-01    3,567303717e-02    0,000000000e+00    0,000000000e+00    0,000000000e+00    0,000000000e+00
     1262000000    9,839470498e-03    3,304207623e-01    1,310925633e-01   -7,133401185e-02    0,000000000e+00    0,000000000e+00    0,000000000e+00    0,000000000e+00
     1276000000    1,546268165e-01    2,034188509e-01    5,150451511e-02   -9,517721087e-02    0,000000000e+00    0,000000000e+00    0,000000000e+00    0,000000000e+00
     1290000000    2,178135067e-01    3,009098396e-02    2,422833582e-03   -7,549214363e-02    0,000000000e+00    0,000000000e+00    0,000000000e+00    0,000000000e+00
     1304000000    2,030737698e-01   -1,449125856e-01   -2,140161954e-02   -3,692804277e-02    0,000000000e+00    0,000000000e+00    0,000000000e+00    0,000000000e+00
     1318000000    1,104345471e-01   -3,136657476e-01   -1,041149721e-02    1,771246456e-02    0,000000000e+00    0,000000000e+00    0,000000000e+00    0,000000000e+00
     1332000000   -7,017720491e-02   -4,378760159e-01    4,911121354e-02    6,350473315e-02    0,000000000e+00    0,000000000e+00    0,000000000e+00    0,000000000e+00
     1346000000   -3,247788250e-01   -4,354211092e-01    1,472571790e-01    4,022122547e-02    0,000000000e+00    0,000000000e+00    0,000000000e+00    0,000000000e+00
     1360000000   -5,533793569e-01   -2,422417849e-01    1,246045828e-01   -7,713913918e-02    0,000000000e+00    0,000000000e+00    0,000000000e+00    0,000000000e+00
     1374000000   -6,305381656e-01    2,340677381e-02    1,029994786e-01    5,520356819e-02    0,000000000e+00    0,000000000e+00    0,000000000e+00    0,000000000e+00
     1388000000   -5,123999715e-01    2,820826173e-01    2,274200469e-01   -1,095735468e-02    0,000000000e+00    0,000000000e+00    0,000000000e+00    0,000000000e+00
     1402000000   -3,077151477e-01    4,113760293e-01    2,217403948e-01   -8,761708438e-02    0,000000000e+00    0,000000000e+00    0,000000000e+00    0,000000000e+00
     1416000000   -9,315986931e-02    4,173816144e-01    1,918532252e-01   -1,179632172e-01    0,000000000e+00    0,000000000e+00    0,000000000e+00    0,000000000e+00
     1430000000    7,300888747e-02    3,272958994e-01    1,487693638e-01   -1,148672104e-01    0,000000000e+00    0,000000000e+00    0,000000000e+00    0,000000000e+00
     1444000000    1,707558036e-01    1,943153888e-01    1,475326419e-01   -1,042283624e-01    0,000000000e+00    0,000000000e+00    0,000000000e+00    0,000000000e+00
     1458000000    2,255321741e-01    3,431169316e-02    1,504302025e-01   -7,406277955e-02    0,000000000e+00    0,000000000e+00    0,000000000e+00    0,000000000e+00
     1472000000    2,085868865e-01   -1,444233656e-01    1,473120153e-01   -5,515097082e-02    0,000000000e+00    0,000000000e+00    0,000000000e+00    0,000000000e+00
     1486000000    1,048025787e-01   -3,232761025e-01    1,724920720e-01    4,216542933e-03    0,000000000e+00    0,000000000e+00    0,000000000e+00    0,000000000e+00
     1500000000   -1,027559862e-01   -4,612081051e-01    2,000262737e-01    6,352848560e-02    0,000000000e+00    0,000000000e+00    0,000000000e+00    0,000000000e+00
