! NanoVNA-App
! Date: 2025-09-25 14:27:09
! Start: 100MHz Stop: 1,5GHz Points: 101
! S-Parameter data: F S11 S21 S12 S22
# Hz S RI R 50
!     Frequency           S11_Real           S11_Imag           S21_Real           S21_Imag           S12_Real           S12_Imag           S22_Real           S22_Imag
      100000000   -2,910083532e-02   -4,124878440e-03    3,745415211e-01   -7,220037580e-01    0,000000000e+00    0,000000000e+00    0,000000000e+00    0,000000000e+00
      114000000   -1,661658473e-02    1,161561813e-02   -8,867610246e-02   -8,058232665e-01    0,000000000e+00    0,000000000e+00    0,000000000e+00    0,000000000e+00
      128000000    3,409556113e-03    1,050858665e-02   -5,144363046e-01   -6,208804846e-01    0,000000000e+00    0,000000000e+00    0,000000000e+00    0,000000000e+00
      142000000    1,442538016e-02   -3,097239882e-03   -7,673740983e-01   -2,371279299e-01    0,000000000e+00    0,000000000e+00    0,000000000e+00    0,000000000e+00
      156000000    1,485454198e-02   -1,498111337e-02   -7,699767351e-01    2,195561677e-01    0,000000000e+00    0,000000000e+00    0,000000000e+00    0,000000000e+00
      170000000    1,646023616e-02   -2,243641578e-02   -5,187416673e-01    6,050808430e-01    0,000000000e+00    0,000000000e+00    0,000000000e+00    0,000000000e+00
      184000000    2,099803649e-02   -3,700456768e-02   -1,017726585e-01    7,862576246e-01    0,000000000e+00    0,000000000e+00    0,000000000e+00    0,000000000e+00
      198000000    1,315114554e-02   -6,261415780e-02    3,430509865e-01    7,132051587e-01    0,000000000e+00    0,000000000e+00    0,000000000e+00    0,000000000e+00
      212000000   -1,874519512e-02   -8,170779049e-02    6,781659722e-01    4,104610682e-01    0,000000000e+00    0,000000000e+00    0,000000000e+00    0,000000000e+00
      226000000   -6,207850575e-02   -6,968253851e-02    7,961417437e-01   -2,969305404e-02    0,000000000e+00    0,000000000e+00    0,000000000e+00    0,000000000e+00
      240000000   -8,331272006e-02   -2,600958198e-02    6,470399499e-01   -4,667617977e-01    0,000000000e+00    0,000000000e+00    0,000000000e+00    0,000000000e+00
      254000000   -6,434616446e-02    1,747092791e-02    2,770941556e-01   -7,433351278e-01    0,000000000e+00    0,000000000e+00    0,000000000e+00    0,000000000e+00
      268000000   -2,400487661e-02    2,945963107e-02   -1,768634021e-01   -7,648786306e-01    0,000000000e+00    0,000000000e+00    0,000000000e+00    0,000000000e+00
      282000000    4,117518198e-03    1,209198218e-02   -5,625395179e-01   -5,374200344e-01    0,000000000e+00    0,000000000e+00    0,000000000e+00    0,000000000e+00
      296000000    9,586980566e-03   -7,702056319e-03   -7,607273459e-01   -1,395852119e-01    0,000000000e+00    0,000000000e+00    0,000000000e+00    0,000000000e+00
      310000000    1,089124195e-02   -1,633973420e-02   -7,132782340e-01    2,964966893e-01    0,000000000e+00    0,000000000e+00    0,000000000e+00    0,000000000e+00
      324000000    1,944612712e-02   -2,650346793e-02   -4,287808537e-01    6,383160353e-01    0,000000000e+00    0,000000000e+00    0,000000000e+00    0,000000000e+00
      338000000    2,569497377e-02   -5,202147365e-02   -1,005513221e-02    7,604102492e-01    0,000000000e+00    0,000000000e+00    0,000000000e+00    0,000000000e+00
      352000000    7,335647475e-03   -8,478073031e-02    4,057802558e-01    6,414566040e-01    0,000000000e+00    0,000000000e+00    0,000000000e+00    0,000000000e+00
      366000000   -3,500458971e-02   -9,610134363e-02    6,902443171e-01    3,125414550e-01    0,000000000e+00    0,000000000e+00    0,000000000e+00    0,000000000e+00
      380000000   -7,137247920e-02   -7,112631202e-02    7,484631538e-01   -1,243152097e-01    0,000000000e+00    0,000000000e+00    0,000000000e+00    0,000000000e+00
      394000000   -7,310366631e-02   -3,232410923e-02    5,472189188e-01   -5,213709474e-01    0,000000000e+00    0,000000000e+00    0,000000000e+00    0,000000000e+00
      408000000   -4,682750627e-02   -1,562334038e-02    1,629875898e-01   -7,323573828e-01    0,000000000e+00    0,000000000e+00    0,000000000e+00    0,000000000e+00
      422000000   -2,834470943e-02   -3,152386844e-02   -2,655995190e-01   -6,965014935e-01    0,000000000e+00    0,000000000e+00    0,000000000e+00    0,000000000e+00
      436000000   -4,009382799e-02   -5,168608204e-02   -6,026586294e-01   -4,334381223e-01    0,000000000e+00    0,000000000e+00    0,000000000e+00    0,000000000e+00
      450000000   -6,778218597e-02   -4,474904016e-02   -7,404741645e-01   -2,487995476e-02    0,000000000e+00    0,000000000e+00    0,000000000e+00    0,000000000e+00
      464000000   -7,435575128e-02   -1,259290706e-02   -6,213038564e-01    3,949901462e-01    0,000000000e+00    0,000000000e+00    0,000000000e+00    0,000000000e+00
      478000000   -4,914500192e-02    1,163060684e-02   -2,867308259e-01    6,672959924e-01    0,000000000e+00    0,000000000e+00    0,000000000e+00    0,000000000e+00
      492000000   -1,689029485e-02    6,397639867e-03    1,345354915e-01    7,044196725e-01    0,000000000e+00    0,000000000e+00    0,000000000e+00    0,000000000e+00
      506000000   -3,883071942e-03   -1,487915311e-02    4,971592128e-01    5,067798495e-01    0,000000000e+00    0,000000000e+00    0,000000000e+00    0,000000000e+00
      520000000   -5,874192342e-03   -2,935174853e-02    6,894962788e-01    1,439421922e-01    0,000000000e+00    0,000000000e+00    0,000000000e+00    0,000000000e+00
      534000000   -3,648416139e-03   -3,568248823e-02    6,448340416e-01   -2,596469522e-01    0,000000000e+00    0,000000000e+00    0,000000000e+00    0,000000000e+00
      548000000    7,911751047e-03   -5,254234001e-02    3,850680292e-01   -5,642021894e-01    0,000000000e+00    0,000000000e+00    0,000000000e+00    0,000000000e+00
      562000000    5,845730659e-03   -8,946018666e-02    8,901651949e-03   -6,725115180e-01    0,000000000e+00    0,000000000e+00    0,000000000e+00    0,000000000e+00
      576000000   -3,100558929e-02   -1,258280873e-01   -3,618434370e-01   -5,613476038e-01    0,000000000e+00    0,000000000e+00    0,000000000e+00    0,000000000e+00
      590000000   -9,507242590e-02   -1,277579516e-01   -6,179937720e-01   -2,708984315e-01    0,000000000e+00    0,000000000e+00    0,000000000e+00    0,000000000e+00
      604000000   -1,434967518e-01   -7,787594199e-02   -6,674570441e-01    1,262718588e-01    0,000000000e+00    0,000000000e+00    0,000000000e+00    0,000000000e+00
      618000000   -1,379009038e-01   -1,107848063e-02   -4,754855037e-01    4,854819477e-01    0,000000000e+00    0,000000000e+00    0,000000000e+00    0,000000000e+00
      632000000   -9,308405966e-02    2,128886804e-02   -1,140096858e-01    6,624696851e-01    0,000000000e+00    0,000000000e+00    0,000000000e+00    0,000000000e+00
      646000000   -5,562758818e-02    1,159777399e-02    2,739139199e-01    6,037108898e-01    0,000000000e+00    0,000000000e+00    0,000000000e+00    0,000000000e+00
      660000000   -4,770534113e-02   -8,325726725e-03    5,576566458e-01    3,403850794e-01    0,000000000e+00    0,000000000e+00    0,000000000e+00    0,000000000e+00
      674000000   -5,580913275e-02   -1,122529339e-02    6,445586681e-01   -3,989492357e-02    0,000000000e+00    0,000000000e+00    0,000000000e+00    0,000000000e+00
      688000000   -4,970328510e-02    2,775064670e-03    4,935630262e-01   -4,018012583e-01    0,000000000e+00    0,000000000e+00    0,000000000e+00    0,000000000e+00
      702000000   -2,586114034e-02    7,257422432e-03    1,681195050e-01   -6,006269455e-01    0,000000000e+00    0,000000000e+00    0,000000000e+00    0,000000000e+00
      716000000   -2,333314624e-03   -9,489390068e-03   -2,186006010e-01   -5,755693913e-01    0,000000000e+00    0,000000000e+00    0,000000000e+00    0,000000000e+00
      730000000    9,921513498e-03   -3,507739305e-02   -5,094618201e-01   -3,336026371e-01    0,000000000e+00    0,000000000e+00    0,000000000e+00    0,000000000e+00
      744000000    1,746693067e-02   -6,103446707e-02   -6,008195281e-01    3,262067214e-02    0,000000000e+00    0,000000000e+00    0,000000000e+00    0,000000000e+00
      758000000    2,266448364e-02   -1,030882671e-01   -4,547769427e-01    3,768494129e-01    0,000000000e+00    0,000000000e+00    0,000000000e+00    0,000000000e+00
      772000000   -5,032854620e-03   -1,728987843e-01   -1,400000602e-01    5,577164292e-01    0,000000000e+00    0,000000000e+00    0,000000000e+00    0,000000000e+00
      786000000   -1,044750288e-01   -2,324468642e-01    2,110673934e-01    5,199190378e-01    0,000000000e+00    0,000000000e+00    0,000000000e+00    0,000000000e+00
      800000000   -2,648003995e-01   -1,923471391e-01    4,707813263e-01    2,754852772e-01    0,000000000e+00    0,000000000e+00    0,000000000e+00    0,000000000e+00
      814000000   -3,639319241e-01    3,952667117e-03    5,080059171e-01   -8,861479163e-02    0,000000000e+00    0,000000000e+00    0,000000000e+00    0,000000000e+00
      828000000   -2,470958084e-01    2,328919917e-01    2,814862132e-01   -3,524740636e-01    0,000000000e+00    0,000000000e+00    0,000000000e+00    0,000000000e+00
      842000000    1,361418609e-02    2,789042592e-01   -1,545139495e-02   -3,635261059e-01    0,000000000e+00    0,000000000e+00    0,000000000e+00    0,000000000e+00
      856000000    2,130057216e-01    1,155070737e-01   -1,876473725e-01   -2,049867660e-01    0,000000000e+00    0,000000000e+00    0,000000000e+00    0,000000000e+00
      870000000    2,392240316e-01   -1,483048201e-01   -2,008897513e-01   -2,587500773e-02    0,000000000e+00    0,000000000e+00    0,000000000e+00    0,000000000e+00
      884000000    3,816135228e-02   -3,862048090e-01   -1,041982248e-01    7,149680704e-02    0,000000000e+00    0,000000000e+00    0,000000000e+00    0,000000000e+00
      898000000   -3,697592616e-01   -3,427489996e-01   -1,641228236e-02    2,709314600e-02    0,000000000e+00    0,000000000e+00    0,000000000e+00    0,000000000e+00
      912000000   -4,672832191e-01    1,377393752e-01   -1,215698123e-01    2,776276693e-02    0,000000000e+00    0,000000000e+00    0,000000000e+00    0,000000000e+00
      926000000   -9,455373138e-02    3,499468267e-01   -1,267747283e-01    1,327711791e-01    0,000000000e+00    0,000000000e+00    0,000000000e+00    0,000000000e+00
      940000000    1,857947409e-01    1,952967793e-01   -3,793482855e-02    2,166923434e-01    0,000000000e+00    0,000000000e+00    0,000000000e+00    0,000000000e+00
      954000000    2,535390854e-01   -4,973326996e-02    7,912940532e-02    2,263713032e-01    0,000000000e+00    0,000000000e+00    0,000000000e+00    0,000000000e+00
      968000000    1,736234128e-01   -2,625112534e-01    1,927208304e-01    1,799133569e-01    0,000000000e+00    0,000000000e+00    0,000000000e+00    0,000000000e+00
      982000000   -1,750164852e-02   -3,953514397e-01    2,790078819e-01    7,840291411e-02    0,000000000e+00    0,000000000e+00    0,000000000e+00    0,000000000e+00
      996000000   -2,719303668e-01   -3,783440888e-01    3,092507422e-01   -8,088856936e-02    0,000000000e+00    0,000000000e+00    0,000000000e+00    0,000000000e+00
     1010000000   -4,662048817e-01   -1,707891524e-01    2,216272205e-01   -2,533591092e-01    0,000000000e+00    0,000000000e+00    0,000000000e+00    0,000000000e+00
     1024000000   -4,581658840e-01    1,209290773e-01    1,992820390e-02   -3,292882740e-01    0,000000000e+00    0,000000000e+00    0,000000000e+00    0,000000000e+00
     1038000000   -2,681728005e-01    2,995879650e-01   -1,742097884e-01   -2,488557249e-01    0,000000000e+00    0,000000000e+00    0,000000000e+00    0,000000000e+00
     1052000000   -3,480639681e-02    3,112623990e-01   -2,574169338e-01   -7,762588561e-02    0,000000000e+00    0,000000000e+00    0,000000000e+00    0,000000000e+00
     1066000000    1,257964522e-01    2,032594681e-01   -2,239951044e-01    8,725851774e-02    0,000000000e+00    0,000000000e+00    0,000000000e+00    0,000000000e+00
     1080000000    2,057358772e-01    4,960084334e-02   -1,208282709e-01    1,929980367e-01    0,000000000e+00    0,000000000e+00    0,000000000e+00    0,000000000e+00
     1094000000    2,039370537e-01   -1,270302236e-01    1,788983867e-02    2,339542508e-01    0,000000000e+00    0,000000000e+00    0,000000000e+00    0,000000000e+00
     1108000000    1,012159362e-01   -2,834124565e-01    1,710871905e-01    2,056925297e-01    0,000000000e+00    0,000000000e+00    0,000000000e+00    0,000000000e+00
     1122000000   -1,038793623e-01   -3,686120808e-01    3,164732754e-01    9,130582213e-02    0,000000000e+00    0,000000000e+00    0,000000000e+00    0,000000000e+00
     1136000000   -3,421293199e-01   -2,684519589e-01    3,911697268e-01   -1,506597251e-01    0,000000000e+00    0,000000000e+00    0,000000000e+00    0,000000000e+00
     1150000000   -4,060576558e-01    3,014118969e-02    2,412612438e-01   -4,378849566e-01    0,000000000e+00    0,000000000e+00    0,000000000e+00    0,000000000e+00
     1164000000   -1,584210396e-01    2,160185277e-01   -9,482456744e-02   -5,136880875e-01    0,000000000e+00    0,000000000e+00    0,000000000e+00    0,000000000e+00
     1178000000    7,748860121e-02    8,639141172e-02   -3,528111875e-01   -3,443066776e-01    0,000000000e+00    0,000000000e+00    0,000000000e+00    0,000000000e+00
     1192000000    7,468362898e-02   -1,701082736e-01   -4,539481997e-01   -8,267947286e-02    0,000000000e+00    0,000000000e+00    0,000000000e+00    0,000000000e+00
     1206000000   -1,646455079e-01   -3,238186240e-01   -3,722447753e-01    1,896913350e-01    0,000000000e+00    0,000000000e+00    0,000000000e+00    0,000000000e+00
     1220000000   -4,503598809e-01   -1,752937138e-01   -1,041164696e-01    3,282912970e-01    0,000000000e+00    0,000000000e+00    0,000000000e+00    0,000000000e+00
     1234000000   -4,710421562e-01    1,648953408e-01    1,366634071e-01    2,185312957e-01    0,000000000e+00    0,000000000e+00    0,000000000e+00    0,000000000e+00
     1248000000   -2,322228402e-01    3,480586410e-01    1,917329580e-01    3,249675781e-02    0,000000000e+00    0,000000000e+00    0,000000000e+00    0,000000000e+00
     1262000000    2,390781417e-03    3,317465186e-01    1,264970005e-01   -7,229524851e-02    0,000000000e+00    0,000000000e+00    0,000000000e+00    0,000000000e+00
     1276000000    1,553855240e-01    2,003065199e-01    5,602379516e-02   -9,581540525e-02    0,000000000e+00    0,000000000e+00    0,000000000e+00    0,000000000e+00
     1290000000    2,176984847e-01    3,357169032e-02    1,411185018e-03   -7,037556171e-02    0,000000000e+00    0,000000000e+00    0,000000000e+00    0,000000000e+00
     1304000000    2,054362893e-01   -1,454302967e-01   -2,165860310e-02   -3,098684549e-02    0,000000000e+00    0,000000000e+00    0,000000000e+00    0,000000000e+00
     1318000000    1,117359176e-01   -3,085539639e-01   -8,459213190e-03    2,255241945e-02    0,000000000e+00    0,000000000e+00    0,000000000e+00    0,000000000e+00
     1332000000   -6,469485164e-02   -4,326370656e-01    4,853757098e-02    6,437805295e-02    0,000000000e+00    0,000000000e+00    0,000000000e+00    0,000000000e+00
     1346000000   -3,268272877e-01   -4,331100285e-01    1,464608461e-01    4,732096568e-02    0,000000000e+00    0,000000000e+00    0,000000000e+00    0,000000000e+00
     1360000000   -5,606834888e-01   -2,411927730e-01    1,132459193e-01   -7,342266291e-02    0,000000000e+00    0,000000000e+00    0,000000000e+00    0,000000000e+00
     1374000000   -6,253144145e-01    3,466111049e-02    9,919019789e-02    5,911633745e-02    0,000000000e+00    0,000000000e+00    0,000000000e+00    0,000000000e+00
     1388000000   -5,132341385e-01    2,933711410e-01    2,257446349e-01    1,331702340e-02    0,000000000e+00    0,000000000e+00    0,000000000e+00    0,000000000e+00
     1402000000   -2,986504436e-01    4,191466868e-01    2,297147065e-01   -8,529359847e-02    0,000000000e+00    0,000000000e+00    0,000000000e+00    0,000000000e+00
     1416000000   -9,697268158e-02    4,204487205e-01    1,876980811e-01   -1,183652505e-01    0,000000000e+00    0,000000000e+00    0,000000000e+00    0,000000000e+00
     1430000000    7,201867551e-02    3,437496126e-01    1,757780313e-01   -9,363388270e-02    0,000000000e+00    0,000000000e+00    0,000000000e+00    0,000000000e+00
     1444000000    1,767942011e-01    2,030332685e-01    1,459021419e-01   -9,422013164e-02    0,000000000e+00    0,000000000e+00    0,000000000e+00    0,000000000e+00
     1458000000    2,258419394e-01    3,335125744e-02    1,561129838e-01   -8,618986607e-02    0,000000000e+00    0,000000000e+00    0,000000000e+00    0,000000000e+00
     1472000000    2,069092393e-01   -1,475351602e-01    1,472126991e-01   -3,895159438e-02    0,000000000e+00    0,000000000e+00    0,000000000e+00    0,000000000e+00
     1486000000    1,078328192e-01   -3,207798004e-01    1,530564725e-01   -1,220253878e-03    0,000000000e+00    0,000000000e+00    0,000000000e+00    0,000000000e+00
     1500000000   -8,451171964e-02   -4,561585784e-01    2,174229920e-01    6,735741347e-02    0,000000000e+00    0,000000000e+00    0,000000000e+00    0,000000000e+00
