! NanoVNA-App
! Date: 2025-09-25 14:25:18
! Start: 100MHz Stop: 1,5GHz Points: 101
! S-Parameter data: F S11 S21 S12 S22
# Hz S RI R 50
!     Frequency           S11_Real           S11_Imag           S21_Real           S21_Imag           S12_Real           S12_Imag           S22_Real           S22_Imag
      100000000   -2,908138372e-02   -4,123585299e-03    3,744831085e-01   -7,220134139e-01    0,000000000e+00    0,000000000e+00    0,000000000e+00    0,000000000e+00
      114000000   -1,659172028e-02    1,159807295e-02   -8,899321407e-02   -8,059419990e-01    0,000000000e+00    0,000000000e+00    0,000000000e+00    0,000000000e+00
      128000000    3,405563766e-03    1,050784998e-02   -5,147103667e-01   -6,210010052e-01    0,000000000e+00    0,000000000e+00    0,000000000e+00    0,000000000e+00
      142000000    1,443413459e-02   -3,095698310e-03   -7,675180435e-01   -2,370270342e-01    0,000000000e+00    0,000000000e+00    0,000000000e+00    0,000000000e+00
      156000000    1,569452696e-02   -1,441924181e-02   -7,728747129e-01    2,241528332e-01    0,000000000e+00    0,000000000e+00    0,000000000e+00    0,000000000e+00
      170000000    1,654266194e-02   -2,249640599e-02   -5,188787580e-01    6,050282717e-01    0,000000000e+00    0,000000000e+00    0,000000000e+00    0,000000000e+00
      184000000    2,100486495e-02   -3,698739782e-02   -1,017758772e-01    7,869058251e-01    0,000000000e+00    0,000000000e+00    0,000000000e+00    0,000000000e+00
      198000000    1,311775763e-02   -6,255415082e-02    3,430972993e-01    7,130113840e-01    0,000000000e+00    0,000000000e+00    0,000000000e+00    0,000000000e+00
      212000000   -1,869965717e-02   -8,167358488e-02    6,784592867e-01    4,104575515e-01    0,000000000e+00    0,000000000e+00    0,000000000e+00    0,000000000e+00
      226000000   -6,202490255e-02   -6,970863789e-02    7,960993648e-01   -2,966635861e-02    0,000000000e+00    0,000000000e+00    0,000000000e+00    0,000000000e+00
      240000000   -8,330951631e-02   -2,611149289e-02    6,469712853e-01   -4,665667117e-01    0,000000000e+00    0,000000000e+00    0,000000000e+00    0,000000000e+00
      254000000   -6,439189613e-02    1,746027730e-02    2,771636546e-01   -7,435448170e-01    0,000000000e+00    0,000000000e+00    0,000000000e+00    0,000000000e+00
      268000000   -2,403089404e-02    2,941422351e-02   -1,766903251e-01   -7,654535770e-01    0,000000000e+00    0,000000000e+00    0,000000000e+00    0,000000000e+00
      282000000    4,032301251e-03    1,214181632e-02   -5,627273917e-01   -5,369482636e-01    0,000000000e+00    0,000000000e+00    0,000000000e+00    0,000000000e+00
      296000000    9,539327584e-03   -7,648980711e-03   -7,609201074e-01   -1,394662857e-01    0,000000000e+00    0,000000000e+00    0,000000000e+00    0,000000000e+00
      310000000    1,097516716e-02   -1,601104625e-02   -7,139979005e-01    2,982944250e-01    0,000000000e+00    0,000000000e+00    0,000000000e+00    0,000000000e+00
      324000000    1,957355067e-02   -2,656872384e-02   -4,286009073e-01    6,370742321e-01    0,000000000e+00    0,000000000e+00    0,000000000e+00    0,000000000e+00
      338000000    2,545424923e-02   -5,209606141e-02   -1,041875407e-02    7,637358308e-01    0,000000000e+00    0,000000000e+00    0,000000000e+00    0,000000000e+00
      352000000    7,548423950e-03   -8,462285250e-02    4,065147638e-01    6,404181123e-01    0,000000000e+00    0,000000000e+00    0,000000000e+00    0,000000000e+00
      366000000   -3,492776304e-02   -9,595584124e-02    6,906319261e-01    3,122844994e-01    0,000000000e+00    0,000000000e+00    0,000000000e+00    0,000000000e+00
      380000000   -7,161171734e-02   -7,128196210e-02    7,484359145e-01   -1,243593320e-01    0,000000000e+00    0,000000000e+00    0,000000000e+00    0,000000000e+00
      394000000   -7,316095382e-02   -3,217819706e-02    5,490614176e-01   -5,211952925e-01    0,000000000e+00    0,000000000e+00    0,000000000e+00    0,000000000e+00
      408000000   -4,708801955e-02   -1,562522165e-02    1,613146663e-01   -7,323926091e-01    0,000000000e+00    0,000000000e+00    0,000000000e+00    0,000000000e+00
      422000000   -2,826572955e-02   -3,136574104e-02   -2,659149468e-01   -6,958140731e-01    0,000000000e+00    0,000000000e+00    0,000000000e+00    0,000000000e+00
      436000000   -4,028557613e-02   -5,208430067e-02   -6,031389236e-01   -4,340322316e-01    0,000000000e+00    0,000000000e+00    0,000000000e+00    0,000000000e+00
      450000000   -6,769429892e-02   -4,453876242e-02   -7,401469946e-01   -2,507663518e-02    0,000000000e+00    0,000000000e+00    0,000000000e+00    0,000000000e+00
      464000000   -7,414916158e-02   -1,263786759e-02   -6,215730309e-01    3,946906924e-01    0,000000000e+00    0,000000000e+00    0,000000000e+00    0,000000000e+00
      478000000   -4,908138514e-02    1,175281871e-02   -2,871332467e-01    6,679578424e-01    0,000000000e+00    0,000000000e+00    0,000000000e+00    0,000000000e+00
      492000000   -1,678575203e-02    6,657744758e-03    1,341143101e-01    7,042591572e-01    0,000000000e+00    0,000000000e+00    0,000000000e+00    0,000000000e+00
      506000000   -3,377708141e-03   -1,493870560e-02    4,975438714e-01    5,065308809e-01    0,000000000e+00    0,000000000e+00    0,000000000e+00    0,000000000e+00
      520000000   -5,862519611e-03   -2,950231545e-02    6,890403628e-01    1,462558359e-01    0,000000000e+00    0,000000000e+00    0,000000000e+00    0,000000000e+00
      534000000   -3,446670482e-03   -3,579748422e-02    6,441186070e-01   -2,597951293e-01    0,000000000e+00    0,000000000e+00    0,000000000e+00    0,000000000e+00
      548000000    7,826937363e-03   -5,266681686e-02    3,847459257e-01   -5,637104511e-01    0,000000000e+00    0,000000000e+00    0,000000000e+00    0,000000000e+00
      562000000    5,344125442e-03   -8,962457627e-02    8,199875243e-03   -6,717324257e-01    0,000000000e+00    0,000000000e+00    0,000000000e+00    0,000000000e+00
      576000000   -3,119278140e-02   -1,258072704e-01   -3,629186153e-01   -5,606814027e-01    0,000000000e+00    0,000000000e+00    0,000000000e+00    0,000000000e+00
      590000000   -9,479638189e-02   -1,276642829e-01   -6,180585623e-01   -2,732926309e-01    0,000000000e+00    0,000000000e+00    0,000000000e+00    0,000000000e+00
      604000000   -1,432225406e-01   -7,839257270e-02   -6,676229239e-01    1,263296455e-01    0,000000000e+00    0,000000000e+00    0,000000000e+00    0,000000000e+00
      618000000   -1,378681511e-01   -1,086160727e-02   -4,754106700e-01    4,854681194e-01    0,000000000e+00    0,000000000e+00    0,000000000e+00    0,000000000e+00
      632000000   -9,300815314e-02    2,127574570e-02   -1,139833480e-01    6,629229188e-01    0,000000000e+00    0,000000000e+00    0,000000000e+00    0,000000000e+00
      646000000   -5,482789129e-02    1,175385155e-02    2,730676830e-01    6,026403904e-01    0,000000000e+00    0,000000000e+00    0,000000000e+00    0,000000000e+00
      660000000   -4,776611179e-02   -8,430982940e-03    5,571957827e-01    3,400746286e-01    0,000000000e+00    0,000000000e+00    0,000000000e+00    0,000000000e+00
      674000000   -5,550165847e-02   -1,102850959e-02    6,444720030e-01   -3,977541998e-02    0,000000000e+00    0,000000000e+00    0,000000000e+00    0,000000000e+00
      688000000   -4,968284443e-02    2,945157699e-03    4,937322140e-01   -4,019203186e-01    0,000000000e+00    0,000000000e+00    0,000000000e+00    0,000000000e+00
      702000000   -2,534676157e-02    7,730464451e-03    1,674805880e-01   -6,092907190e-01    0,000000000e+00    0,000000000e+00    0,000000000e+00    0,000000000e+00
      716000000   -2,560876077e-03   -9,251737967e-03   -2,179642618e-01   -5,757426620e-01    0,000000000e+00    0,000000000e+00    0,000000000e+00    0,000000000e+00
      730000000    9,293161333e-03   -3,513771296e-02   -5,088715553e-01   -3,336096108e-01    0,000000000e+00    0,000000000e+00    0,000000000e+00    0,000000000e+00
      744000000    1,675689779e-02   -6,007515639e-02   -6,011510491e-01    3,276803717e-02    0,000000000e+00    0,000000000e+00    0,000000000e+00    0,000000000e+00
      758000000    2,236473188e-02   -1,043877676e-01   -4,543208182e-01    3,777765632e-01    0,000000000e+00    0,000000000e+00    0,000000000e+00    0,000000000e+00
      772000000   -4,098820966e-03   -1,738348752e-01   -1,399068832e-01    5,585237741e-01    0,000000000e+00    0,000000000e+00    0,000000000e+00    0,000000000e+00
      786000000   -1,045544893e-01   -2,319233865e-01    2,113245577e-01    5,187193155e-01    0,000000000e+00    0,000000000e+00    0,000000000e+00    0,000000000e+00
      800000000   -2,651075423e-01   -1,919725537e-01    4,713313282e-01    2,752945423e-01    0,000000000e+00    0,000000000e+00    0,000000000e+00    0,000000000e+00
      814000000   -3,644469082e-01    3,911836538e-03    5,078769922e-01   -8,844404668e-02    0,000000000e+00    0,000000000e+00    0,000000000e+00    0,000000000e+00
      828000000   -2,469021380e-01    2,329935879e-01    2,817521691e-01   -3,524692953e-01    0,000000000e+00    0,000000000e+00    0,000000000e+00    0,000000000e+00
      842000000    1,319163013e-02    2,789668143e-01   -1,540111564e-02   -3,632435501e-01    0,000000000e+00    0,000000000e+00    0,000000000e+00    0,000000000e+00
      856000000    2,126553357e-01    1,153389737e-01   -1,880372614e-01   -2,050886005e-01    0,000000000e+00    0,000000000e+00    0,000000000e+00    0,000000000e+00
      870000000    2,387225181e-01   -1,485357732e-01   -2,001992613e-01   -2,617779933e-02    0,000000000e+00    0,000000000e+00    0,000000000e+00    0,000000000e+00
      884000000    3,779781610e-02   -3,869754076e-01   -1,035119444e-01    7,075834274e-02    0,000000000e+00    0,000000000e+00    0,000000000e+00    0,000000000e+00
      898000000   -3,691566288e-01   -3,418840468e-01   -1,717748120e-02    2,729489096e-02    0,000000000e+00    0,000000000e+00    0,000000000e+00    0,000000000e+00
      912000000   -4,674609601e-01    1,381625980e-01   -1,088644341e-01    2,337756194e-02    0,000000000e+00    0,000000000e+00    0,000000000e+00    0,000000000e+00
      926000000   -9,495668858e-02    3,524343967e-01   -1,262323707e-01    1,348287761e-01    0,000000000e+00    0,000000000e+00    0,000000000e+00    0,000000000e+00
      940000000    1,832180470e-01    1,919959337e-01   -3,743857518e-02    2,148934007e-01    0,000000000e+00    0,000000000e+00    0,000000000e+00    0,000000000e+00
      954000000    2,535149157e-01   -4,651955888e-02    7,946761698e-02    2,287777066e-01    0,000000000e+00    0,000000000e+00    0,000000000e+00    0,000000000e+00
      968000000    1,736245304e-01   -2,614850402e-01    1,913402081e-01    1,804146320e-01    0,000000000e+00    0,000000000e+00    0,000000000e+00    0,000000000e+00
      982000000   -1,420932449e-02   -3,945705593e-01    2,799580097e-01    8,075572550e-02    0,000000000e+00    0,000000000e+00    0,000000000e+00    0,000000000e+00
      996000000   -2,745949328e-01   -3,761617243e-01    3,098919988e-01   -7,829710841e-02    0,000000000e+00    0,000000000e+00    0,000000000e+00    0,000000000e+00
     1010000000   -4,673296511e-01   -1,701507717e-01    2,212597132e-01   -2,544031739e-01    0,000000000e+00    0,000000000e+00    0,000000000e+00    0,000000000e+00
     1024000000   -4,588755369e-01    1,133694872e-01    2,258197591e-02   -3,273497224e-01    0,000000000e+00    0,000000000e+00    0,000000000e+00    0,000000000e+00
     1038000000   -2,672308981e-01    2,996525168e-01   -1,721022725e-01   -2,471888065e-01    0,000000000e+00    0,000000000e+00    0,000000000e+00    0,000000000e+00
     1052000000   -4,050928727e-02    3,086016178e-01   -2,566180229e-01   -7,668312639e-02    0,000000000e+00    0,000000000e+00    0,000000000e+00    0,000000000e+00
     1066000000    1,284088492e-01    2,081057131e-01   -2,257128805e-01    8,401208371e-02    0,000000000e+00    0,000000000e+00    0,000000000e+00    0,000000000e+00
     1080000000    2,092176378e-01    4,597003013e-02   -1,222411394e-01    1,924215257e-01    0,000000000e+00    0,000000000e+00    0,000000000e+00    0,000000000e+00
     1094000000    1,986510903e-01   -1,263233721e-01    1,759062521e-02    2,330664843e-01    0,000000000e+00    0,000000000e+00    0,000000000e+00    0,000000000e+00
     1108000000    1,040697172e-01   -2,855029106e-01    1,685787439e-01    2,062886506e-01    0,000000000e+00    0,000000000e+00    0,000000000e+00    0,000000000e+00
     1122000000   -1,011575684e-01   -3,716987371e-01    3,155017793e-01    9,095266461e-02    0,000000000e+00    0,000000000e+00    0,000000000e+00    0,000000000e+00
     1136000000   -3,442960680e-01   -2,717239559e-01    3,892935216e-01   -1,494206935e-01    0,000000000e+00    0,000000000e+00    0,000000000e+00    0,000000000e+00
     1150000000   -4,114149213e-01    3,455068171e-02    2,426754981e-01   -4,387255609e-01    0,000000000e+00    0,000000000e+00    0,000000000e+00    0,000000000e+00
     1164000000   -1,584595740e-01    2,140489370e-01   -9,540087730e-02   -5,179220438e-01    0,000000000e+00    0,000000000e+00    0,000000000e+00    0,000000000e+00
     1178000000    7,332274318e-02    8,536919951e-02   -3,594280481e-01   -3,450468481e-01    0,000000000e+00    0,000000000e+00    0,000000000e+00    0,000000000e+00
     1192000000    7,717026025e-02   -1,718061119e-01   -4,500753582e-01   -8,156757802e-02    0,000000000e+00    0,000000000e+00    0,000000000e+00    0,000000000e+00
     1206000000   -1,645997912e-01   -3,288969100e-01   -3,709940314e-01    1,874065995e-01    0,000000000e+00    0,000000000e+00    0,000000000e+00    0,000000000e+00
     1220000000   -4,567608833e-01   -1,756575108e-01   -1,056813598e-01    3,317908049e-01    0,000000000e+00    0,000000000e+00    0,000000000e+00    0,000000000e+00
     1234000000   -4,715761244e-01    1,667931676e-01    1,399125904e-01    2,201997936e-01    0,000000000e+00    0,000000000e+00    0,000000000e+00    0,000000000e+00
     1248000000   -2,313094586e-01    3,547192812e-01    1,951089203e-01    3,984290361e-02    0,000000000e+00    0,000000000e+00    0,000000000e+00    0,000000000e+00
     1262000000    9,440896101e-03    3,304648101e-01    1,316194981e-01   -7,141018659e-02    0,000000000e+00    0,000000000e+00    0,000000000e+00    0,000000000e+00
     1276000000    1,575504988e-01    2,019971460e-01    5,578221381e-02   -9,609056264e-02    0,000000000e+00    0,000000000e+00    0,000000000e+00    0,000000000e+00
     1290000000    2,195533961e-01    3,402636573e-02    7,229220937e-04   -7,344446331e-02    0,000000000e+00    0,000000000e+00    0,000000000e+00    0,000000000e+00
     1304000000    2,076758593e-01   -1,458755285e-01   -1,380539220e-02   -3,314130753e-02    0,000000000e+00    0,000000000e+00    0,000000000e+00    0,000000000e+00
     1318000000    1,145492047e-01   -3,120201826e-01   -9,178109467e-03    2,340053022e-02    0,000000000e+00    0,000000000e+00    0,000000000e+00    0,000000000e+00
     1332000000   -6,789977103e-02   -4,351022243e-01    5,670072138e-02    6,341843307e-02    0,000000000e+00    0,000000000e+00    0,000000000e+00    0,000000000e+00
     1346000000   -3,254010677e-01   -4,360093474e-01    1,458882689e-01    4,025762156e-02    0,000000000e+00    0,000000000e+00    0,000000000e+00    0,000000000e+00
     1360000000   -5,597196817e-01   -2,433435619e-01    1,110172793e-01   -7,095921040e-02    0,000000000e+00    0,000000000e+00    0,000000000e+00    0,000000000e+00
     1374000000   -6,275483370e-01    3,058762848e-02    9,940323234e-02    6,207061559e-02    0,000000000e+00    0,000000000e+00    0,000000000e+00    0,000000000e+00
     1388000000   -5,203990936e-01    2,863403857e-01    2,220747769e-01   -3,189467127e-03    0,000000000e+00    0,000000000e+00    0,000000000e+00    0,000000000e+00
     1402000000   -3,049179018e-01    4,231514931e-01    2,303160727e-01   -7,583655417e-02    0,000000000e+00    0,000000000e+00    0,000000000e+00    0,000000000e+00
     1416000000   -9,050088376e-02    4,236664772e-01    1,837851107e-01   -1,077854335e-01    0,000000000e+00    0,000000000e+00    0,000000000e+00    0,000000000e+00
     1430000000    6,846822798e-02    3,386076689e-01    1,566974670e-01   -9,866230935e-02    0,000000000e+00    0,000000000e+00    0,000000000e+00    0,000000000e+00
     1444000000    1,759300083e-01    2,003838569e-01    1,559173763e-01   -9,905736893e-02    0,000000000e+00    0,000000000e+00    0,000000000e+00    0,000000000e+00
     1458000000    2,236453742e-01    3,917042166e-02    1,418667287e-01   -7,541646808e-02    0,000000000e+00    0,000000000e+00    0,000000000e+00    0,000000000e+00
     1472000000    2,064000368e-01   -1,459484100e-01    1,492019594e-01   -5,310923234e-02    0,000000000e+00    0,000000000e+00    0,000000000e+00    0,000000000e+00
     1486000000    1,077154949e-01   -3,256264627e-01    1,646795124e-01   -1,265307143e-02    0,000000000e+00    0,000000000e+00    0,000000000e+00    0,000000000e+00
     1500000000   -9,589427710e-02   -4,642666280e-01    2,035681456e-01    5,091290548e-02    0,000000000e+00    0,000000000e+00    0,000000000e+00    0,000000000e+00
