! NanoVNA-App
! Date: 2025-09-25 14:23:05
! Start: 100MHz Stop: 1,5GHz Points: 101
! S-Parameter data: F S11 S21 S12 S22
# Hz S RI R 50
!     Frequency           S11_Real           S11_Imag           S21_Real           S21_Imag           S12_Real           S12_Imag           S22_Real           S22_Imag
      100000000   -2,908920497e-02   -4,135076422e-03    3,744477332e-01   -7,220873237e-01    0,000000000e+00    0,000000000e+00    0,000000000e+00    0,000000000e+00
      114000000   -1,661818475e-02    1,159383822e-02   -8,899319172e-02   -8,058146238e-01    0,000000000e+00    0,000000000e+00    0,000000000e+00    0,000000000e+00
      128000000    3,384670010e-03    1,050005108e-02   -5,146595836e-01   -6,209307909e-01    0,000000000e+00    0,000000000e+00    0,000000000e+00    0,000000000e+00
      142000000    1,446354762e-02   -3,040453652e-03   -7,674283981e-01   -2,368532270e-01    0,000000000e+00    0,000000000e+00    0,000000000e+00    0,000000000e+00
      156000000    1,556392852e-02   -1,472819876e-02   -7,701578140e-01    2,237889320e-01    0,000000000e+00    0,000000000e+00    0,000000000e+00    0,000000000e+00
      170000000    1,652553678e-02   -2,252307348e-02   -5,187229514e-01    6,051863432e-01    0,000000000e+00    0,000000000e+00    0,000000000e+00    0,000000000e+00
      184000000    2,096074447e-02   -3,710617125e-02   -1,017142609e-01    7,865799665e-01    0,000000000e+00    0,000000000e+00    0,000000000e+00    0,000000000e+00
      198000000    1,308741607e-02   -6,257434934e-02    3,430671096e-01    7,130586505e-01    0,000000000e+00    0,000000000e+00    0,000000000e+00    0,000000000e+00
      212000000   -1,867314428e-02   -8,160509169e-02    6,783912182e-01    4,104363620e-01    0,000000000e+00    0,000000000e+00    0,000000000e+00    0,000000000e+00
      226000000   -6,205697358e-02   -6,959590316e-02    7,961253524e-01   -2,983454987e-02    0,000000000e+00    0,000000000e+00    0,000000000e+00    0,000000000e+00
      240000000   -8,315316588e-02   -2,611431293e-02    6,470084190e-01   -4,664502144e-01    0,000000000e+00    0,000000000e+00    0,000000000e+00    0,000000000e+00
      254000000   -6,434530765e-02    1,721437648e-02    2,773629725e-01   -7,435575724e-01    0,000000000e+00    0,000000000e+00    0,000000000e+00    0,000000000e+00
      268000000   -2,431860939e-02    2,952801995e-02   -1,769180447e-01   -7,649148107e-01    0,000000000e+00    0,000000000e+00    0,000000000e+00    0,000000000e+00
      282000000    4,174602218e-03    1,216403302e-02   -5,623315573e-01   -5,372635126e-01    0,000000000e+00    0,000000000e+00    0,000000000e+00    0,000000000e+00
      296000000    9,620794095e-03   -7,649609819e-03   -7,609059811e-01   -1,395563483e-01    0,000000000e+00    0,000000000e+00    0,000000000e+00    0,000000000e+00
      310000000    1,108555123e-02   -1,610894315e-02   -7,121394277e-01    2,979075611e-01    0,000000000e+00    0,000000000e+00    0,000000000e+00    0,000000000e+00
      324000000    1,950910129e-02   -2,639902569e-02   -4,284700155e-01    6,372424364e-01    0,000000000e+00    0,000000000e+00    0,000000000e+00    0,000000000e+00
      338000000    2,553837560e-02   -5,199478567e-02   -9,461780079e-03    7,641381025e-01    0,000000000e+00    0,000000000e+00    0,000000000e+00    0,000000000e+00
      352000000    7,196850143e-03   -8,492545038e-02    4,057266414e-01    6,407206059e-01    0,000000000e+00    0,000000000e+00    0,000000000e+00    0,000000000e+00
      366000000   -3,494407982e-02   -9,593320638e-02    6,908096671e-01    3,113372028e-01    0,000000000e+00    0,000000000e+00    0,000000000e+00    0,000000000e+00
      380000000   -7,122953981e-02   -7,128060609e-02    7,482678890e-01   -1,253058463e-01    0,000000000e+00    0,000000000e+00    0,000000000e+00    0,000000000e+00
      394000000   -7,321003824e-02   -3,221525997e-02    5,477153063e-01   -5,191295743e-01    0,000000000e+00    0,000000000e+00    0,000000000e+00    0,000000000e+00
      408000000   -4,711508006e-02   -1,582075655e-02    1,630197465e-01   -7,333691120e-01    0,000000000e+00    0,000000000e+00    0,000000000e+00    0,000000000e+00
      422000000   -2,817961760e-02   -3,135457635e-02   -2,662175894e-01   -6,957290173e-01    0,000000000e+00    0,000000000e+00    0,000000000e+00    0,000000000e+00
      436000000   -4,038480669e-02   -5,201936886e-02   -6,029800177e-01   -4,342710972e-01    0,000000000e+00    0,000000000e+00    0,000000000e+00    0,000000000e+00
      450000000   -6,760884821e-02   -4,468628392e-02   -7,400459051e-01   -2,491299063e-02    0,000000000e+00    0,000000000e+00    0,000000000e+00    0,000000000e+00
      464000000   -7,425396889e-02   -1,248479355e-02   -6,212289929e-01    3,944281638e-01    0,000000000e+00    0,000000000e+00    0,000000000e+00    0,000000000e+00
      478000000   -4,924385250e-02    1,147396211e-02   -2,866925001e-01    6,672556400e-01    0,000000000e+00    0,000000000e+00    0,000000000e+00    0,000000000e+00
      492000000   -1,667215675e-02    6,662443280e-03    1,346931607e-01    7,035494447e-01    0,000000000e+00    0,000000000e+00    0,000000000e+00    0,000000000e+00
      506000000   -3,331012093e-03   -1,497640647e-02    4,980634451e-01    5,062408447e-01    0,000000000e+00    0,000000000e+00    0,000000000e+00    0,000000000e+00
      520000000   -5,619758740e-03   -2,931598015e-02    6,894559264e-01    1,444339603e-01    0,000000000e+00    0,000000000e+00    0,000000000e+00    0,000000000e+00
      534000000   -3,370509483e-03   -3,580199182e-02    6,447862983e-01   -2,593688667e-01    0,000000000e+00    0,000000000e+00    0,000000000e+00    0,000000000e+00
      548000000    8,257404901e-03   -5,277790129e-02    3,860044181e-01   -5,643956065e-01    0,000000000e+00    0,000000000e+00    0,000000000e+00    0,000000000e+00
      562000000    5,537255201e-03   -8,958489448e-02    8,415505290e-03   -6,716236472e-01    0,000000000e+00    0,000000000e+00    0,000000000e+00    0,000000000e+00
      576000000   -3,142025322e-02   -1,261915714e-01   -3,614366651e-01   -5,618140101e-01    0,000000000e+00    0,000000000e+00    0,000000000e+00    0,000000000e+00
      590000000   -9,495935589e-02   -1,274228543e-01   -6,147119403e-01   -2,717146277e-01    0,000000000e+00    0,000000000e+00    0,000000000e+00    0,000000000e+00
      604000000   -1,433461308e-01   -7,835391164e-02   -6,678584814e-01    1,254337132e-01    0,000000000e+00    0,000000000e+00    0,000000000e+00    0,000000000e+00
      618000000   -1,379660219e-01   -1,172083337e-02   -4,753384590e-01    4,859395623e-01    0,000000000e+00    0,000000000e+00    0,000000000e+00    0,000000000e+00
      632000000   -9,344871342e-02    2,221207507e-02   -1,141939461e-01    6,633535028e-01    0,000000000e+00    0,000000000e+00    0,000000000e+00    0,000000000e+00
      646000000   -5,592012405e-02    1,193591859e-02    2,741665840e-01    6,030588150e-01    0,000000000e+00    0,000000000e+00    0,000000000e+00    0,000000000e+00
      660000000   -4,769300669e-02   -8,066309616e-03    5,573086739e-01    3,402424753e-01    0,000000000e+00    0,000000000e+00    0,000000000e+00    0,000000000e+00
      674000000   -5,594346300e-02   -1,017466467e-02    6,442996264e-01   -3,985156864e-02    0,000000000e+00    0,000000000e+00    0,000000000e+00    0,000000000e+00
      688000000   -5,031466484e-02    2,384447027e-03    4,934930503e-01   -4,015922546e-01    0,000000000e+00    0,000000000e+00    0,000000000e+00    0,000000000e+00
      702000000   -2,606081404e-02    6,924123503e-03    1,635358036e-01   -6,080783606e-01    0,000000000e+00    0,000000000e+00    0,000000000e+00    0,000000000e+00
      716000000   -1,129207318e-03   -9,058501571e-03   -2,172676176e-01   -5,754768848e-01    0,000000000e+00    0,000000000e+00    0,000000000e+00    0,000000000e+00
      730000000    9,582533501e-03   -3,535550460e-02   -5,090889335e-01   -3,330781162e-01    0,000000000e+00    0,000000000e+00    0,000000000e+00    0,000000000e+00
      744000000    1,718926430e-02   -6,154910475e-02   -6,007383466e-01    3,289945424e-02    0,000000000e+00    0,000000000e+00    0,000000000e+00    0,000000000e+00
      758000000    2,287420258e-02   -1,034206748e-01   -4,548201263e-01    3,777082562e-01    0,000000000e+00    0,000000000e+00    0,000000000e+00    0,000000000e+00
      772000000   -4,878159147e-03   -1,732512265e-01   -1,398582011e-01    5,574819446e-01    0,000000000e+00    0,000000000e+00    0,000000000e+00    0,000000000e+00
      786000000   -1,055543199e-01   -2,320755571e-01    2,120578140e-01    5,191226602e-01    0,000000000e+00    0,000000000e+00    0,000000000e+00    0,000000000e+00
      800000000   -2,658438087e-01   -1,917856485e-01    4,716259837e-01    2,751018405e-01    0,000000000e+00    0,000000000e+00    0,000000000e+00    0,000000000e+00
      814000000   -3,637363017e-01    3,003274556e-03    5,080923438e-01   -8,827228844e-02    0,000000000e+00    0,000000000e+00    0,000000000e+00    0,000000000e+00
      828000000   -2,484090924e-01    2,330144644e-01    2,813004553e-01   -3,521340191e-01    0,000000000e+00    0,000000000e+00    0,000000000e+00    0,000000000e+00
      842000000    1,196790207e-02    2,784068882e-01   -1,665614732e-02   -3,629699349e-01    0,000000000e+00    0,000000000e+00    0,000000000e+00    0,000000000e+00
      856000000    2,123956382e-01    1,153087839e-01   -1,880090684e-01   -2,047177851e-01    0,000000000e+00    0,000000000e+00    0,000000000e+00    0,000000000e+00
      870000000    2,394546717e-01   -1,486512721e-01   -2,006825060e-01   -2,564384975e-02    0,000000000e+00    0,000000000e+00    0,000000000e+00    0,000000000e+00
      884000000    3,781701997e-02   -3,872547150e-01   -1,037270725e-01    7,091872394e-02    0,000000000e+00    0,000000000e+00    0,000000000e+00    0,000000000e+00
      898000000   -3,696103394e-01   -3,409674168e-01   -1,636726223e-02    2,782917581e-02    0,000000000e+00    0,000000000e+00    0,000000000e+00    0,000000000e+00
      912000000   -4,673069417e-01    1,367200613e-01   -1,155404150e-01    3,999381512e-02    0,000000000e+00    0,000000000e+00    0,000000000e+00    0,000000000e+00
      926000000   -9,414411336e-02    3,498730063e-01   -1,275128424e-01    1,336321384e-01    0,000000000e+00    0,000000000e+00    0,000000000e+00    0,000000000e+00
      940000000    1,833094209e-01    1,945490241e-01   -3,994154185e-02    2,163426429e-01    0,000000000e+00    0,000000000e+00    0,000000000e+00    0,000000000e+00
      954000000    2,560437620e-01   -4,677984118e-02    8,055163175e-02    2,285733819e-01    0,000000000e+00    0,000000000e+00    0,000000000e+00    0,000000000e+00
      968000000    1,735867709e-01   -2,640671432e-01    1,910577416e-01    1,797773093e-01    0,000000000e+00    0,000000000e+00    0,000000000e+00    0,000000000e+00
      982000000   -1,951522566e-02   -3,911740184e-01    2,802154720e-01    7,969788462e-02    0,000000000e+00    0,000000000e+00    0,000000000e+00    0,000000000e+00
      996000000   -2,708975971e-01   -3,788451552e-01    3,081929684e-01   -8,028343320e-02    0,000000000e+00    0,000000000e+00    0,000000000e+00    0,000000000e+00
     1010000000   -4,661188126e-01   -1,722354740e-01    2,225381136e-01   -2,521485686e-01    0,000000000e+00    0,000000000e+00    0,000000000e+00    0,000000000e+00
     1024000000   -4,576319754e-01    1,190356910e-01    2,168689109e-02   -3,287924826e-01    0,000000000e+00    0,000000000e+00    0,000000000e+00    0,000000000e+00
     1038000000   -2,628040016e-01    2,944935262e-01   -1,736878306e-01   -2,479049414e-01    0,000000000e+00    0,000000000e+00    0,000000000e+00    0,000000000e+00
     1052000000   -3,464622796e-02    3,096081614e-01   -2,586182654e-01   -7,725116611e-02    0,000000000e+00    0,000000000e+00    0,000000000e+00    0,000000000e+00
     1066000000    1,281542331e-01    2,084330171e-01   -2,276219577e-01    8,517714590e-02    0,000000000e+00    0,000000000e+00    0,000000000e+00    0,000000000e+00
     1080000000    2,075595260e-01    4,996372387e-02   -1,210550815e-01    1,933110654e-01    0,000000000e+00    0,000000000e+00    0,000000000e+00    0,000000000e+00
     1094000000    2,008042186e-01   -1,258755177e-01    1,582523808e-02    2,331989855e-01    0,000000000e+00    0,000000000e+00    0,000000000e+00    0,000000000e+00
     1108000000    9,810215980e-02   -2,880684733e-01    1,691999435e-01    2,063973993e-01    0,000000000e+00    0,000000000e+00    0,000000000e+00    0,000000000e+00
     1122000000   -1,022450328e-01   -3,717901409e-01    3,161163628e-01    8,880589902e-02    0,000000000e+00    0,000000000e+00    0,000000000e+00    0,000000000e+00
     1136000000   -3,443223238e-01   -2,719061375e-01    3,909344673e-01   -1,521132141e-01    0,000000000e+00    0,000000000e+00    0,000000000e+00    0,000000000e+00
     1150000000   -4,037746191e-01    3,276425973e-02    2,441567481e-01   -4,369319379e-01    0,000000000e+00    0,000000000e+00    0,000000000e+00    0,000000000e+00
     1164000000   -1,565559357e-01    2,180249840e-01   -9,390867501e-02   -5,137295127e-01    0,000000000e+00    0,000000000e+00    0,000000000e+00    0,000000000e+00
     1178000000    7,554160058e-02    8,839988708e-02   -3,574847579e-01   -3,467238247e-01    0,000000000e+00    0,000000000e+00    0,000000000e+00    0,000000000e+00
     1192000000    7,330698520e-02   -1,728404611e-01   -4,534062743e-01   -8,139406145e-02    0,000000000e+00    0,000000000e+00    0,000000000e+00    0,000000000e+00
     1206000000   -1,647279710e-01   -3,278069794e-01   -3,707716465e-01    1,866635531e-01    0,000000000e+00    0,000000000e+00    0,000000000e+00    0,000000000e+00
     1220000000   -4,533934891e-01   -1,809626967e-01   -1,072154269e-01    3,275270760e-01    0,000000000e+00    0,000000000e+00    0,000000000e+00    0,000000000e+00
     1234000000   -4,768896401e-01    1,692957431e-01    1,359872073e-01    2,201853693e-01    0,000000000e+00    0,000000000e+00    0,000000000e+00    0,000000000e+00
     1248000000   -2,303548008e-01    3,542411327e-01    1,909953803e-01    3,449761868e-02    0,000000000e+00    0,000000000e+00    0,000000000e+00    0,000000000e+00
     1262000000    5,677584559e-03    3,356652856e-01    1,282917708e-01   -7,158029824e-02    0,000000000e+00    0,000000000e+00    0,000000000e+00    0,000000000e+00
     1276000000    1,563645601e-01    1,968264431e-01    5,392164364e-02   -9,798491001e-02    0,000000000e+00    0,000000000e+00    0,000000000e+00    0,000000000e+00
     1290000000    2,187690884e-01    3,639993817e-02    2,159115160e-03   -7,054747641e-02    0,000000000e+00    0,000000000e+00    0,000000000e+00    0,000000000e+00
     1304000000    2,072047591e-01   -1,463136822e-01   -1,823387481e-02   -3,163779527e-02    0,000000000e+00    0,000000000e+00    0,000000000e+00    0,000000000e+00
     1318000000    1,139720380e-01   -3,116906285e-01   -5,801717285e-03    2,384807356e-02    0,000000000e+00    0,000000000e+00    0,000000000e+00    0,000000000e+00
     1332000000   -6,542874128e-02   -4,308005571e-01    4,539753124e-02    7,013751566e-02    0,000000000e+00    0,000000000e+00    0,000000000e+00    0,000000000e+00
     1346000000   -3,310526311e-01   -4,371223748e-01    1,348179132e-01    5,146961659e-02    0,000000000e+00    0,000000000e+00    0,000000000e+00    0,000000000e+00
     1360000000   -5,597317219e-01   -2,409717739e-01    1,193074435e-01   -8,153773099e-02    0,000000000e+00    0,000000000e+00    0,000000000e+00    0,000000000e+00
     1374000000   -6,284835935e-01    2,493756637e-02    9,875243902e-02    6,292948872e-02    0,000000000e+00    0,000000000e+00    0,000000000e+00    0,000000000e+00
     1388000000   -5,193332434e-01    3,000150025e-01    2,245674580e-01    6,208192091e-03    0,000000000e+00    0,000000000e+00    0,000000000e+00    0,000000000e+00
     1402000000   -2,999107540e-01    4,154370725e-01    2,314165384e-01   -8,217934519e-02    0,000000000e+00    0,000000000e+00    0,000000000e+00    0,000000000e+00
     1416000000   -8,825773746e-02    4,226475358e-01    1,972933859e-01   -1,123545021e-01    0,000000000e+00    0,000000000e+00    0,000000000e+00    0,000000000e+00
     1430000000    7,978402078e-02    3,334653676e-01    1,454097182e-01   -1,027128026e-01    0,000000000e+00    0,000000000e+00    0,000000000e+00    0,000000000e+00
     1444000000    1,760692149e-01    2,014925778e-01    1,485804766e-01   -9,312491864e-02    0,000000000e+00    0,000000000e+00    0,000000000e+00    0,000000000e+00
     1458000000    2,271009982e-01    3,436494619e-02    1,598133743e-01   -7,484977692e-02    0,000000000e+00    0,000000000e+00    0,000000000e+00    0,000000000e+00
     1472000000    2,026995271e-01   -1,475610882e-01    1,540875733e-01   -4,854246229e-02    0,000000000e+00    0,000000000e+00    0,000000000e+00    0,000000000e+00
     1486000000    1,028858498e-01   -3,255526125e-01    1,668034047e-01   -1,652804948e-02    0,000000000e+00    0,000000000e+00    0,000000000e+00    0,000000000e+00
     1500000000   -9,212509543e-02   -4,550849199e-01    2,156328410e-01    6,984946877e-02    0,000000000e+00    0,000000000e+00    0,000000000e+00    0,000000000e+00
