! NanoVNA-App
! Date: 2025-09-25 14:26:35
! Start: 100MHz Stop: 1,5GHz Points: 101
! S-Parameter data: F S11 S21 S12 S22
# Hz S RI R 50
!     Frequency           S11_Real           S11_Imag           S21_Real           S21_Imag           S12_Real           S12_Imag           S22_Real           S22_Imag
      100000000   -2,909815870e-02   -4,128501285e-03    3,745186329e-01   -7,220419049e-01    0,000000000e+00    0,000000000e+00    0,000000000e+00    0,000000000e+00
      114000000   -1,658242382e-02    1,160620805e-02   -8,872441947e-02   -8,058782220e-01    0,000000000e+00    0,000000000e+00    0,000000000e+00    0,000000000e+00
      128000000    3,450202290e-03    1,050696522e-02   -5,147370696e-01   -6,212478876e-01    0,000000000e+00    0,000000000e+00    0,000000000e+00    0,000000000e+00
      142000000    1,443729457e-02   -3,087396268e-03   -7,674937844e-01   -2,369196266e-01    0,000000000e+00    0,000000000e+00    0,000000000e+00    0,000000000e+00
      156000000    1,493282616e-02   -1,500105206e-02   -7,698827386e-01    2,196111083e-01    0,000000000e+00    0,000000000e+00    0,000000000e+00    0,000000000e+00
      170000000    1,654787362e-02   -2,244471945e-02   -5,187859535e-01    6,048256755e-01    0,000000000e+00    0,000000000e+00    0,000000000e+00    0,000000000e+00
      184000000    2,093917504e-02   -3,704672679e-02   -1,017146632e-01    7,864625454e-01    0,000000000e+00    0,000000000e+00    0,000000000e+00    0,000000000e+00
      198000000    1,309419889e-02   -6,260077655e-02    3,430219591e-01    7,128911614e-01    0,000000000e+00    0,000000000e+00    0,000000000e+00    0,000000000e+00
      212000000   -1,872403733e-02   -8,167382330e-02    6,782435179e-01    4,105662405e-01    0,000000000e+00    0,000000000e+00    0,000000000e+00    0,000000000e+00
      226000000   -6,211477146e-02   -6,978206336e-02    7,961201072e-01   -2,966481261e-02    0,000000000e+00    0,000000000e+00    0,000000000e+00    0,000000000e+00
      240000000   -8,329281211e-02   -2,601637691e-02    6,470494270e-01   -4,666669369e-01    0,000000000e+00    0,000000000e+00    0,000000000e+00    0,000000000e+00
      254000000   -6,436035037e-02    1,748846285e-02    2,771631777e-01   -7,435733080e-01    0,000000000e+00    0,000000000e+00    0,000000000e+00    0,000000000e+00
      268000000   -2,401918359e-02    2,946131863e-02   -1,769355536e-01   -7,649814487e-01    0,000000000e+00    0,000000000e+00    0,000000000e+00    0,000000000e+00
      282000000    4,059311468e-03    1,200629584e-02   -5,625575185e-01   -5,374894738e-01    0,000000000e+00    0,000000000e+00    0,000000000e+00    0,000000000e+00
      296000000    9,576284327e-03   -7,683192845e-03   -7,605882287e-01   -1,395574063e-01    0,000000000e+00    0,000000000e+00    0,000000000e+00    0,000000000e+00
      310000000    1,085902285e-02   -1,612597331e-02   -7,143366337e-01    2,974375784e-01    0,000000000e+00    0,000000000e+00    0,000000000e+00    0,000000000e+00
      324000000    1,936255209e-02   -2,661143243e-02   -4,281703234e-01    6,374089122e-01    0,000000000e+00    0,000000000e+00    0,000000000e+00    0,000000000e+00
      338000000    2,538418956e-02   -5,213803798e-02   -1,157768443e-02    7,644907236e-01    0,000000000e+00    0,000000000e+00    0,000000000e+00    0,000000000e+00
      352000000    7,412773557e-03   -8,464385569e-02    4,059546590e-01    6,407401562e-01    0,000000000e+00    0,000000000e+00    0,000000000e+00    0,000000000e+00
      366000000   -3,466745093e-02   -9,606734663e-02    6,910235882e-01    3,127130866e-01    0,000000000e+00    0,000000000e+00    0,000000000e+00    0,000000000e+00
      380000000   -7,150449604e-02   -7,114521414e-02    7,486138940e-01   -1,245108247e-01    0,000000000e+00    0,000000000e+00    0,000000000e+00    0,000000000e+00
      394000000   -7,309404761e-02   -3,219359741e-02    5,482122302e-01   -5,201641321e-01    0,000000000e+00    0,000000000e+00    0,000000000e+00    0,000000000e+00
      408000000   -4,664156586e-02   -1,546820905e-02    1,624954790e-01   -7,328004241e-01    0,000000000e+00    0,000000000e+00    0,000000000e+00    0,000000000e+00
      422000000   -2,832028084e-02   -3,140752763e-02   -2,653231323e-01   -6,963238120e-01    0,000000000e+00    0,000000000e+00    0,000000000e+00    0,000000000e+00
      436000000   -4,015476257e-02   -5,203544721e-02   -6,019688845e-01   -4,334728420e-01    0,000000000e+00    0,000000000e+00    0,000000000e+00    0,000000000e+00
      450000000   -6,779368222e-02   -4,483431205e-02   -7,403400540e-01   -2,497546561e-02    0,000000000e+00    0,000000000e+00    0,000000000e+00    0,000000000e+00
      464000000   -7,417093217e-02   -1,236156374e-02   -6,215078235e-01    3,946570754e-01    0,000000000e+00    0,000000000e+00    0,000000000e+00    0,000000000e+00
      478000000   -4,892332107e-02    1,169124991e-02   -2,859245539e-01    6,679186225e-01    0,000000000e+00    0,000000000e+00    0,000000000e+00    0,000000000e+00
      492000000   -1,690276526e-02    6,606775802e-03    1,342228502e-01    7,044326663e-01    0,000000000e+00    0,000000000e+00    0,000000000e+00    0,000000000e+00
      506000000   -3,721005749e-03   -1,484248228e-02    4,967190623e-01    5,062518120e-01    0,000000000e+00    0,000000000e+00    0,000000000e+00    0,000000000e+00
      520000000   -5,838295911e-03   -2,986020222e-02    6,889321804e-01    1,441141069e-01    0,000000000e+00    0,000000000e+00    0,000000000e+00    0,000000000e+00
      534000000   -3,260940313e-03   -3,579950705e-02    6,443507671e-01   -2,599941790e-01    0,000000000e+00    0,000000000e+00    0,000000000e+00    0,000000000e+00
      548000000    8,442474529e-03   -5,244693533e-02    3,850546777e-01   -5,642921925e-01    0,000000000e+00    0,000000000e+00    0,000000000e+00    0,000000000e+00
      562000000    5,603915546e-03   -8,938031644e-02    8,829661645e-03   -6,715036035e-01    0,000000000e+00    0,000000000e+00    0,000000000e+00    0,000000000e+00
      576000000   -3,172704205e-02   -1,262927502e-01   -3,630706370e-01   -5,608360171e-01    0,000000000e+00    0,000000000e+00    0,000000000e+00    0,000000000e+00
      590000000   -9,494011849e-02   -1,275799423e-01   -6,155871153e-01   -2,732242644e-01    0,000000000e+00    0,000000000e+00    0,000000000e+00    0,000000000e+00
      604000000   -1,434985846e-01   -7,805313915e-02   -6,675108075e-01    1,261234879e-01    0,000000000e+00    0,000000000e+00    0,000000000e+00    0,000000000e+00
      618000000   -1,381889582e-01   -1,177062374e-02   -4,749836922e-01    4,857599139e-01    0,000000000e+00    0,000000000e+00    0,000000000e+00    0,000000000e+00
      632000000   -9,325636923e-02    2,230081148e-02   -1,137191132e-01    6,630669832e-01    0,000000000e+00    0,000000000e+00    0,000000000e+00    0,000000000e+00
      646000000   -5,450312421e-02    1,180038508e-02    2,731509507e-01    6,037399769e-01    0,000000000e+00    0,000000000e+00    0,000000000e+00    0,000000000e+00
      660000000   -4,746280611e-02   -8,148127235e-03    5,568646789e-01    3,398014307e-01    0,000000000e+00    0,000000000e+00    0,000000000e+00    0,000000000e+00
      674000000   -5,571688712e-02   -1,136632450e-02    6,444936991e-01   -4,006138071e-02    0,000000000e+00    0,000000000e+00    0,000000000e+00    0,000000000e+00
      688000000   -4,993426055e-02    2,352678683e-03    4,928771555e-01   -4,012331665e-01    0,000000000e+00    0,000000000e+00    0,000000000e+00    0,000000000e+00
      702000000   -2,649079449e-02    7,348893676e-03    1,596596688e-01   -6,018332243e-01    0,000000000e+00    0,000000000e+00    0,000000000e+00    0,000000000e+00
      716000000   -1,610683626e-03   -8,523133583e-03   -2,175241113e-01   -5,762766004e-01    0,000000000e+00    0,000000000e+00    0,000000000e+00    0,000000000e+00
      730000000    9,498669766e-03   -3,504025936e-02   -5,091689825e-01   -3,338790238e-01    0,000000000e+00    0,000000000e+00    0,000000000e+00    0,000000000e+00
      744000000    1,723654754e-02   -6,100963056e-02   -6,008808017e-01    3,332068399e-02    0,000000000e+00    0,000000000e+00    0,000000000e+00    0,000000000e+00
      758000000    2,241537347e-02   -1,029918119e-01   -4,543671608e-01    3,770793676e-01    0,000000000e+00    0,000000000e+00    0,000000000e+00    0,000000000e+00
      772000000   -4,589629360e-03   -1,743505150e-01   -1,399569064e-01    5,576435328e-01    0,000000000e+00    0,000000000e+00    0,000000000e+00    0,000000000e+00
      786000000   -1,054193527e-01   -2,320008278e-01    2,118005306e-01    5,196183324e-01    0,000000000e+00    0,000000000e+00    0,000000000e+00    0,000000000e+00
      800000000   -2,658626735e-01   -1,920325458e-01    4,721383154e-01    2,759137750e-01    0,000000000e+00    0,000000000e+00    0,000000000e+00    0,000000000e+00
      814000000   -3,637160361e-01    3,237263765e-03    5,078230500e-01   -8,853644878e-02    0,000000000e+00    0,000000000e+00    0,000000000e+00    0,000000000e+00
      828000000   -2,481254339e-01    2,327486277e-01    2,817877233e-01   -3,515307009e-01    0,000000000e+00    0,000000000e+00    0,000000000e+00    0,000000000e+00
      842000000    1,267180871e-02    2,786017954e-01   -1,612770185e-02   -3,631786108e-01    0,000000000e+00    0,000000000e+00    0,000000000e+00    0,000000000e+00
      856000000    2,128036767e-01    1,148620695e-01   -1,880265623e-01   -2,058580071e-01    0,000000000e+00    0,000000000e+00    0,000000000e+00    0,000000000e+00
      870000000    2,383285463e-01   -1,486522704e-01   -2,006595433e-01   -2,593831718e-02    0,000000000e+00    0,000000000e+00    0,000000000e+00    0,000000000e+00
      884000000    3,744971007e-02   -3,866986334e-01   -1,041729301e-01    7,045640796e-02    0,000000000e+00    0,000000000e+00    0,000000000e+00    0,000000000e+00
      898000000   -3,692014813e-01   -3,413641751e-01   -1,724346727e-02    2,789979801e-02    0,000000000e+00    0,000000000e+00    0,000000000e+00    0,000000000e+00
      912000000   -4,677310884e-01    1,376603246e-01   -1,062710956e-01    3,497561067e-02    0,000000000e+00    0,000000000e+00    0,000000000e+00    0,000000000e+00
      926000000   -9,477950633e-02    3,498984873e-01   -1,292797923e-01    1,331654340e-01    0,000000000e+00    0,000000000e+00    0,000000000e+00    0,000000000e+00
      940000000    1,842455119e-01    1,917422414e-01   -3,651193902e-02    2,156346589e-01    0,000000000e+00    0,000000000e+00    0,000000000e+00    0,000000000e+00
      954000000    2,546579540e-01   -4,852836207e-02    7,961016893e-02    2,255353481e-01    0,000000000e+00    0,000000000e+00    0,000000000e+00    0,000000000e+00
      968000000    1,740288287e-01   -2,612711191e-01    1,909725368e-01    1,803517044e-01    0,000000000e+00    0,000000000e+00    0,000000000e+00    0,000000000e+00
      982000000   -1,453436632e-02   -3,941195905e-01    2,807409763e-01    7,920519263e-02    0,000000000e+00    0,000000000e+00    0,000000000e+00    0,000000000e+00
      996000000   -2,727895677e-01   -3,733305037e-01    3,087845743e-01   -7,980761677e-02    0,000000000e+00    0,000000000e+00    0,000000000e+00    0,000000000e+00
     1010000000   -4,663919508e-01   -1,764567494e-01    2,206141204e-01   -2,525348663e-01    0,000000000e+00    0,000000000e+00    0,000000000e+00    0,000000000e+00
     1024000000   -4,627479911e-01    1,153913364e-01    2,154804766e-02   -3,297715485e-01    0,000000000e+00    0,000000000e+00    0,000000000e+00    0,000000000e+00
     1038000000   -2,610757649e-01    2,997072637e-01   -1,736509353e-01   -2,490922213e-01    0,000000000e+00    0,000000000e+00    0,000000000e+00    0,000000000e+00
     1052000000   -3,593869880e-02    3,117755949e-01   -2,584674656e-01   -7,799398154e-02    0,000000000e+00    0,000000000e+00    0,000000000e+00    0,000000000e+00
     1066000000    1,295939386e-01    2,039896399e-01   -2,244133800e-01    8,718127012e-02    0,000000000e+00    0,000000000e+00    0,000000000e+00    0,000000000e+00
     1080000000    2,104322165e-01    4,773869738e-02   -1,209425777e-01    1,913200766e-01    0,000000000e+00    0,000000000e+00    0,000000000e+00    0,000000000e+00
     1094000000    2,000480294e-01   -1,307753474e-01    1,577933878e-02    2,349377424e-01    0,000000000e+00    0,000000000e+00    0,000000000e+00    0,000000000e+00
     1108000000    1,020962372e-01   -2,834443450e-01    1,675638705e-01    2,058806717e-01    0,000000000e+00    0,000000000e+00    0,000000000e+00    0,000000000e+00
     1122000000   -9,697105736e-02   -3,712840974e-01    3,151340485e-01    8,785829693e-02    0,000000000e+00    0,000000000e+00    0,000000000e+00    0,000000000e+00
     1136000000   -3,481148779e-01   -2,721156776e-01    3,930240870e-01   -1,490917057e-01    0,000000000e+00    0,000000000e+00    0,000000000e+00    0,000000000e+00
     1150000000   -4,119831026e-01    4,120254517e-02    2,420918345e-01   -4,383008480e-01    0,000000000e+00    0,000000000e+00    0,000000000e+00    0,000000000e+00
     1164000000   -1,565469056e-01    2,185911387e-01   -9,445342422e-02   -5,153050423e-01    0,000000000e+00    0,000000000e+00    0,000000000e+00    0,000000000e+00
     1178000000    7,556628436e-02    8,135852963e-02   -3,596856594e-01   -3,510013521e-01    0,000000000e+00    0,000000000e+00    0,000000000e+00    0,000000000e+00
     1192000000    7,419302315e-02   -1,734793931e-01   -4,546776116e-01   -8,462195098e-02    0,000000000e+00    0,000000000e+00    0,000000000e+00    0,000000000e+00
     1206000000   -1,602025777e-01   -3,240292072e-01   -3,696963191e-01    1,884805113e-01    0,000000000e+00    0,000000000e+00    0,000000000e+00    0,000000000e+00
     1220000000   -4,561727345e-01   -1,790184379e-01   -1,049530059e-01    3,285315931e-01    0,000000000e+00    0,000000000e+00    0,000000000e+00    0,000000000e+00
     1234000000   -4,750102162e-01    1,698528528e-01    1,392929405e-01    2,229369730e-01    0,000000000e+00    0,000000000e+00    0,000000000e+00    0,000000000e+00
     1248000000   -2,317246497e-01    3,569671512e-01    1,934105605e-01    3,513238952e-02    0,000000000e+00    0,000000000e+00    0,000000000e+00    0,000000000e+00
     1262000000   -3,598527401e-04    3,287228644e-01    1,259543002e-01   -7,583335787e-02    0,000000000e+00    0,000000000e+00    0,000000000e+00    0,000000000e+00
     1276000000    1,530857533e-01    2,018702775e-01    4,916540161e-02   -9,257974476e-02    0,000000000e+00    0,000000000e+00    0,000000000e+00    0,000000000e+00
     1290000000    2,182579488e-01    3,274231777e-02    6,402371451e-03   -7,707305253e-02    0,000000000e+00    0,000000000e+00    0,000000000e+00    0,000000000e+00
     1304000000    2,044790536e-01   -1,486708075e-01   -2,203718387e-02   -3,161499649e-02    0,000000000e+00    0,000000000e+00    0,000000000e+00    0,000000000e+00
     1318000000    1,110886186e-01   -3,103563488e-01   -1,251196396e-02    2,541097812e-02    0,000000000e+00    0,000000000e+00    0,000000000e+00    0,000000000e+00
     1332000000   -7,092823088e-02   -4,367475212e-01    4,455363378e-02    6,108321995e-02    0,000000000e+00    0,000000000e+00    0,000000000e+00    0,000000000e+00
     1346000000   -3,256785572e-01   -4,327826202e-01    1,491340548e-01    5,552167818e-02    0,000000000e+00    0,000000000e+00    0,000000000e+00    0,000000000e+00
     1360000000   -5,529350042e-01   -2,422342300e-01    1,177882254e-01   -7,251910120e-02    0,000000000e+00    0,000000000e+00    0,000000000e+00    0,000000000e+00
     1374000000   -6,242229342e-01    3,687341139e-02    1,118925065e-01    6,630891562e-02    0,000000000e+00    0,000000000e+00    0,000000000e+00    0,000000000e+00
     1388000000   -5,150967240e-01    2,972671092e-01    2,200687826e-01    9,591236711e-03    0,000000000e+00    0,000000000e+00    0,000000000e+00    0,000000000e+00
     1402000000   -3,035042882e-01    4,237625003e-01    2,311415523e-01   -8,099100739e-02    0,000000000e+00    0,000000000e+00    0,000000000e+00    0,000000000e+00
     1416000000   -9,221493453e-02    4,230455160e-01    1,950751096e-01   -1,117446125e-01    0,000000000e+00    0,000000000e+00    0,000000000e+00    0,000000000e+00
     1430000000    6,625098735e-02    3,454582095e-01    1,561428607e-01   -9,739595652e-02    0,000000000e+00    0,000000000e+00    0,000000000e+00    0,000000000e+00
     1444000000    1,798357517e-01    1,992362440e-01    1,601971984e-01   -1,013311744e-01    0,000000000e+00    0,000000000e+00    0,000000000e+00    0,000000000e+00
     1458000000    2,262414247e-01    3,642465919e-02    1,522102654e-01   -7,529838383e-02    0,000000000e+00    0,000000000e+00    0,000000000e+00    0,000000000e+00
     1472000000    2,114695758e-01   -1,466861814e-01    1,642506421e-01   -5,216254294e-02    0,000000000e+00    0,000000000e+00    0,000000000e+00    0,000000000e+00
     1486000000    1,046531275e-01   -3,194912374e-01    1,742246747e-01    6,012114696e-03    0,000000000e+00    0,000000000e+00    0,000000000e+00    0,000000000e+00
     1500000000   -8,815632015e-02   -4,589691758e-01    2,084466666e-01    4,906973615e-02    0,000000000e+00    0,000000000e+00    0,000000000e+00    0,000000000e+00
