! NanoVNA-App
! Date: 2025-09-25 14:20:53
! Start: 100MHz Stop: 1,5GHz Points: 101
! S-Parameter data: F S11 S21 S12 S22
# Hz S RI R 50
!     Frequency           S11_Real           S11_Imag           S21_Real           S21_Imag           S12_Real           S12_Imag           S22_Real           S22_Imag
      100000000   -2,907638997e-02   -4,117228556e-03    3,744816482e-01   -7,221547961e-01    0,000000000e+00    0,000000000e+00    0,000000000e+00    0,000000000e+00
      114000000   -1,658183709e-02    1,160915475e-02   -8,900921792e-02   -8,059263229e-01    0,000000000e+00    0,000000000e+00    0,000000000e+00    0,000000000e+00
      128000000    3,412566846e-03    1,055694558e-02   -5,144787431e-01   -6,209681630e-01    0,000000000e+00    0,000000000e+00    0,000000000e+00    0,000000000e+00
      142000000    1,447775587e-02   -3,083122661e-03   -7,676458359e-01   -2,369743884e-01    0,000000000e+00    0,000000000e+00    0,000000000e+00    0,000000000e+00
      156000000    1,521706861e-02   -1,485992968e-02   -7,721258998e-01    2,215217650e-01    0,000000000e+00    0,000000000e+00    0,000000000e+00    0,000000000e+00
      170000000    1,657045633e-02   -2,250738814e-02   -5,188063979e-01    6,050834656e-01    0,000000000e+00    0,000000000e+00    0,000000000e+00    0,000000000e+00
      184000000    2,098856494e-02   -3,702618182e-02   -1,016056165e-01    7,866314650e-01    0,000000000e+00    0,000000000e+00    0,000000000e+00    0,000000000e+00
      198000000    1,302281860e-02   -6,261257827e-02    3,430853784e-01    7,131794095e-01    0,000000000e+00    0,000000000e+00    0,000000000e+00    0,000000000e+00
      212000000   -1,873929985e-02   -8,169677854e-02    6,781789064e-01    4,104163051e-01    0,000000000e+00    0,000000000e+00    0,000000000e+00    0,000000000e+00
      226000000   -6,216995791e-02   -6,958742440e-02    7,961201668e-01   -2,978312038e-02    0,000000000e+00    0,000000000e+00    0,000000000e+00    0,000000000e+00
      240000000   -8,314763755e-02   -2,603774145e-02    6,471914053e-01   -4,667130113e-01    0,000000000e+00    0,000000000e+00    0,000000000e+00    0,000000000e+00
      254000000   -6,431061029e-02    1,733285747e-02    2,771271169e-01   -7,431867123e-01    0,000000000e+00    0,000000000e+00    0,000000000e+00    0,000000000e+00
      268000000   -2,422616631e-02    2,945191413e-02   -1,771695018e-01   -7,652199864e-01    0,000000000e+00    0,000000000e+00    0,000000000e+00    0,000000000e+00
      282000000    4,189820029e-03    1,218059007e-02   -5,627056360e-01   -5,370866060e-01    0,000000000e+00    0,000000000e+00    0,000000000e+00    0,000000000e+00
      296000000    9,590139613e-03   -7,587668020e-03   -7,609067559e-01   -1,395223737e-01    0,000000000e+00    0,000000000e+00    0,000000000e+00    0,000000000e+00
      310000000    1,060019061e-02   -1,607201621e-02   -7,139424086e-01    2,980192900e-01    0,000000000e+00    0,000000000e+00    0,000000000e+00    0,000000000e+00
      324000000    1,950367354e-02   -2,634820715e-02   -4,284924567e-01    6,383615136e-01    0,000000000e+00    0,000000000e+00    0,000000000e+00    0,000000000e+00
      338000000    2,569488622e-02   -5,206651986e-02   -9,500842541e-03    7,632578611e-01    0,000000000e+00    0,000000000e+00    0,000000000e+00    0,000000000e+00
      352000000    7,699814159e-03   -8,470358700e-02    4,069769979e-01    6,407704353e-01    0,000000000e+00    0,000000000e+00    0,000000000e+00    0,000000000e+00
      366000000   -3,476891667e-02   -9,579176456e-02    6,908747554e-01    3,125907481e-01    0,000000000e+00    0,000000000e+00    0,000000000e+00    0,000000000e+00
      380000000   -7,156636566e-02   -7,118368894e-02    7,481411695e-01   -1,246688589e-01    0,000000000e+00    0,000000000e+00    0,000000000e+00    0,000000000e+00
      394000000   -7,330084592e-02   -3,238660097e-02    5,474241972e-01   -5,221471190e-01    0,000000000e+00    0,000000000e+00    0,000000000e+00    0,000000000e+00
      408000000   -4,690703005e-02   -1,569237560e-02    1,629815102e-01   -7,319422960e-01    0,000000000e+00    0,000000000e+00    0,000000000e+00    0,000000000e+00
      422000000   -2,837336063e-02   -3,160022944e-02   -2,658463717e-01   -6,963319778e-01    0,000000000e+00    0,000000000e+00    0,000000000e+00    0,000000000e+00
      436000000   -4,022135213e-02   -5,207286775e-02   -6,030142903e-01   -4,337141812e-01    0,000000000e+00    0,000000000e+00    0,000000000e+00    0,000000000e+00
      450000000   -6,770214438e-02   -4,442986101e-02   -7,406616211e-01   -2,491620556e-02    0,000000000e+00    0,000000000e+00    0,000000000e+00    0,000000000e+00
      464000000   -7,453945279e-02   -1,235685498e-02   -6,216047406e-01    3,949214816e-01    0,000000000e+00    0,000000000e+00    0,000000000e+00    0,000000000e+00
      478000000   -4,886060208e-02    1,166960783e-02   -2,863205969e-01    6,678389907e-01    0,000000000e+00    0,000000000e+00    0,000000000e+00    0,000000000e+00
      492000000   -1,673064753e-02    6,643558387e-03    1,342017502e-01    7,035108805e-01    0,000000000e+00    0,000000000e+00    0,000000000e+00    0,000000000e+00
      506000000   -3,796728794e-03   -1,470464654e-02    4,974054992e-01    5,067255497e-01    0,000000000e+00    0,000000000e+00    0,000000000e+00    0,000000000e+00
      520000000   -5,641478579e-03   -2,980618738e-02    6,905822754e-01    1,442818791e-01    0,000000000e+00    0,000000000e+00    0,000000000e+00    0,000000000e+00
      534000000   -3,544800915e-03   -3,595266491e-02    6,447331905e-01   -2,603790164e-01    0,000000000e+00    0,000000000e+00    0,000000000e+00    0,000000000e+00
      548000000    8,155866526e-03   -5,324803293e-02    3,849001229e-01   -5,645967722e-01    0,000000000e+00    0,000000000e+00    0,000000000e+00    0,000000000e+00
      562000000    5,744341295e-03   -8,976190537e-02    8,157278411e-03   -6,722627282e-01    0,000000000e+00    0,000000000e+00    0,000000000e+00    0,000000000e+00
      576000000   -3,146925569e-02   -1,261910051e-01   -3,632993698e-01   -5,605168343e-01    0,000000000e+00    0,000000000e+00    0,000000000e+00    0,000000000e+00
      590000000   -9,493812919e-02   -1,273837686e-01   -6,183445454e-01   -2,723360360e-01    0,000000000e+00    0,000000000e+00    0,000000000e+00    0,000000000e+00
      604000000   -1,433292925e-01   -7,776109874e-02   -6,669422984e-01    1,266419590e-01    0,000000000e+00    0,000000000e+00    0,000000000e+00    0,000000000e+00
      618000000   -1,381367445e-01   -1,109603979e-02   -4,747689068e-01    4,867224693e-01    0,000000000e+00    0,000000000e+00    0,000000000e+00    0,000000000e+00
      632000000   -9,291958064e-02    2,136863023e-02   -1,142215058e-01    6,631894112e-01    0,000000000e+00    0,000000000e+00    0,000000000e+00    0,000000000e+00
      646000000   -5,473416671e-02    1,193190180e-02    2,736183405e-01    6,033038497e-01    0,000000000e+00    0,000000000e+00    0,000000000e+00    0,000000000e+00
      660000000   -4,847154766e-02   -9,202067740e-03    5,576696396e-01    3,395176232e-01    0,000000000e+00    0,000000000e+00    0,000000000e+00    0,000000000e+00
      674000000   -5,573267862e-02   -1,117178798e-02    6,446755528e-01   -4,000272602e-02    0,000000000e+00    0,000000000e+00    0,000000000e+00    0,000000000e+00
      688000000   -4,986348376e-02    2,531515667e-03    4,932302535e-01   -4,025416374e-01    0,000000000e+00    0,000000000e+00    0,000000000e+00    0,000000000e+00
      702000000   -2,650862187e-02    7,589324843e-03    1,615683585e-01   -6,050717235e-01    0,000000000e+00    0,000000000e+00    0,000000000e+00    0,000000000e+00
      716000000   -2,303031972e-03   -9,561008774e-03   -2,177541852e-01   -5,747610927e-01    0,000000000e+00    0,000000000e+00    0,000000000e+00    0,000000000e+00
      730000000    9,263902903e-03   -3,524355963e-02   -5,095353723e-01   -3,331786990e-01    0,000000000e+00    0,000000000e+00    0,000000000e+00    0,000000000e+00
      744000000    1,620883681e-02   -6,046389788e-02   -6,006484628e-01    3,307005391e-02    0,000000000e+00    0,000000000e+00    0,000000000e+00    0,000000000e+00
      758000000    2,247375250e-02   -1,035175920e-01   -4,546855092e-01    3,770230711e-01    0,000000000e+00    0,000000000e+00    0,000000000e+00    0,000000000e+00
      772000000   -4,645518493e-03   -1,731243730e-01   -1,387964487e-01    5,585722327e-01    0,000000000e+00    0,000000000e+00    0,000000000e+00    0,000000000e+00
      786000000   -1,055274755e-01   -2,323108763e-01    2,118767202e-01    5,192838311e-01    0,000000000e+00    0,000000000e+00    0,000000000e+00    0,000000000e+00
      800000000   -2,652633786e-01   -1,928329319e-01    4,713956416e-01    2,748662829e-01    0,000000000e+00    0,000000000e+00    0,000000000e+00    0,000000000e+00
      814000000   -3,638240099e-01    4,006092902e-03    5,073981285e-01   -8,894731104e-02    0,000000000e+00    0,000000000e+00    0,000000000e+00    0,000000000e+00
      828000000   -2,474412918e-01    2,324091494e-01    2,815455794e-01   -3,529905677e-01    0,000000000e+00    0,000000000e+00    0,000000000e+00    0,000000000e+00
      842000000    1,349498797e-02    2,776485682e-01   -1,545646973e-02   -3,623054326e-01    0,000000000e+00    0,000000000e+00    0,000000000e+00    0,000000000e+00
      856000000    2,120487690e-01    1,150667518e-01   -1,874683201e-01   -2,048791647e-01    0,000000000e+00    0,000000000e+00    0,000000000e+00    0,000000000e+00
      870000000    2,381900698e-01   -1,482491344e-01   -2,005463243e-01   -2,577970177e-02    0,000000000e+00    0,000000000e+00    0,000000000e+00    0,000000000e+00
      884000000    3,670736775e-02   -3,861816227e-01   -1,049341932e-01    7,097172737e-02    0,000000000e+00    0,000000000e+00    0,000000000e+00    0,000000000e+00
      898000000   -3,694830835e-01   -3,404641747e-01   -1,668065786e-02    2,821700647e-02    0,000000000e+00    0,000000000e+00    0,000000000e+00    0,000000000e+00
      912000000   -4,668674767e-01    1,380713135e-01   -1,062126383e-01    2,885569446e-02    0,000000000e+00    0,000000000e+00    0,000000000e+00    0,000000000e+00
      926000000   -9,684143960e-02    3,505074084e-01   -1,295219660e-01    1,335178465e-01    0,000000000e+00    0,000000000e+00    0,000000000e+00    0,000000000e+00
      940000000    1,824956983e-01    1,947092116e-01   -3,891328350e-02    2,153479904e-01    0,000000000e+00    0,000000000e+00    0,000000000e+00    0,000000000e+00
      954000000    2,562619150e-01   -4,750338569e-02    8,142100275e-02    2,287012786e-01    0,000000000e+00    0,000000000e+00    0,000000000e+00    0,000000000e+00
      968000000    1,741208732e-01   -2,603818774e-01    1,906221360e-01    1,797876656e-01    0,000000000e+00    0,000000000e+00    0,000000000e+00    0,000000000e+00
      982000000   -1,508032437e-02   -3,946373761e-01    2,810122073e-01    8,213111013e-02    0,000000000e+00    0,000000000e+00    0,000000000e+00    0,000000000e+00
      996000000   -2,765675187e-01   -3,765148520e-01    3,093271255e-01   -7,987435907e-02    0,000000000e+00    0,000000000e+00    0,000000000e+00    0,000000000e+00
     1010000000   -4,674310982e-01   -1,689399183e-01    2,189024687e-01   -2,538195550e-01    0,000000000e+00    0,000000000e+00    0,000000000e+00    0,000000000e+00
     1024000000   -4,584101737e-01    1,139193997e-01    2,132976614e-02   -3,305714428e-01    0,000000000e+00    0,000000000e+00    0,000000000e+00    0,000000000e+00
     1038000000   -2,619785368e-01    2,992503941e-01   -1,755844802e-01   -2,464555055e-01    0,000000000e+00    0,000000000e+00    0,000000000e+00    0,000000000e+00
     1052000000   -3,532784805e-02    3,119252324e-01   -2,559091449e-01   -7,744929940e-02    0,000000000e+00    0,000000000e+00    0,000000000e+00    0,000000000e+00
     1066000000    1,285679787e-01    2,032549530e-01   -2,273305506e-01    8,404767513e-02    0,000000000e+00    0,000000000e+00    0,000000000e+00    0,000000000e+00
     1080000000    2,086949199e-01    4,860967025e-02   -1,224129945e-01    1,931027919e-01    0,000000000e+00    0,000000000e+00    0,000000000e+00    0,000000000e+00
     1094000000    2,027209848e-01   -1,300228834e-01    1,555432659e-02    2,359109521e-01    0,000000000e+00    0,000000000e+00    0,000000000e+00    0,000000000e+00
     1108000000    9,680609405e-02   -2,870686054e-01    1,685074717e-01    2,058010101e-01    0,000000000e+00    0,000000000e+00    0,000000000e+00    0,000000000e+00
     1122000000   -9,731283784e-02   -3,681267798e-01    3,166087866e-01    8,850448579e-02    0,000000000e+00    0,000000000e+00    0,000000000e+00    0,000000000e+00
     1136000000   -3,476996422e-01   -2,654646337e-01    3,923379183e-01   -1,467551142e-01    0,000000000e+00    0,000000000e+00    0,000000000e+00    0,000000000e+00
     1150000000   -4,041917920e-01    3,845313191e-02    2,456886023e-01   -4,371724725e-01    0,000000000e+00    0,000000000e+00    0,000000000e+00    0,000000000e+00
     1164000000   -1,549694836e-01    2,193226367e-01   -9,437824041e-02   -5,127584338e-01    0,000000000e+00    0,000000000e+00    0,000000000e+00    0,000000000e+00
     1178000000    7,549417764e-02    8,144272864e-02   -3,589732945e-01   -3,446903229e-01    0,000000000e+00    0,000000000e+00    0,000000000e+00    0,000000000e+00
     1192000000    7,670709491e-02   -1,753419489e-01   -4,517508447e-01   -8,633797616e-02    0,000000000e+00    0,000000000e+00    0,000000000e+00    0,000000000e+00
     1206000000   -1,594855487e-01   -3,251764476e-01   -3,670758903e-01    1,892011911e-01    0,000000000e+00    0,000000000e+00    0,000000000e+00    0,000000000e+00
     1220000000   -4,544655979e-01   -1,783302873e-01   -1,048054621e-01    3,280623555e-01    0,000000000e+00    0,000000000e+00    0,000000000e+00    0,000000000e+00
     1234000000   -4,696831703e-01    1,633476317e-01    1,414939463e-01    2,193497419e-01    0,000000000e+00    0,000000000e+00    0,000000000e+00    0,000000000e+00
     1248000000   -2,382423282e-01    3,552758992e-01    1,883821487e-01    3,534992039e-02    0,000000000e+00    0,000000000e+00    0,000000000e+00    0,000000000e+00
     1262000000    8,386279456e-03    3,334360421e-01    1,314971596e-01   -7,220090926e-02    0,000000000e+00    0,000000000e+00    0,000000000e+00    0,000000000e+00
     1276000000    1,530498862e-01    2,018915564e-01    5,018756539e-02   -9,298643470e-02    0,000000000e+00    0,000000000e+00    0,000000000e+00    0,000000000e+00
     1290000000    2,152688205e-01    3,378696740e-02   -2,135307295e-03   -7,344647497e-02    0,000000000e+00    0,000000000e+00    0,000000000e+00    0,000000000e+00
     1304000000    2,021666467e-01   -1,474337429e-01   -1,976779290e-02   -3,250401095e-02    0,000000000e+00    0,000000000e+00    0,000000000e+00    0,000000000e+00
     1318000000    1,145513430e-01   -3,107175827e-01   -7,014847826e-03    2,282971330e-02    0,000000000e+00    0,000000000e+00    0,000000000e+00    0,000000000e+00
     1332000000   -6,950153410e-02   -4,332130551e-01    5,230635777e-02    6,065296009e-02    0,000000000e+00    0,000000000e+00    0,000000000e+00    0,000000000e+00
     1346000000   -3,315806687e-01   -4,391835630e-01    1,407905668e-01    4,010085389e-02    0,000000000e+00    0,000000000e+00    0,000000000e+00    0,000000000e+00
     1360000000   -5,542038679e-01   -2,427170873e-01    1,041414365e-01   -7,167046517e-02    0,000000000e+00    0,000000000e+00    0,000000000e+00    0,000000000e+00
     1374000000   -6,242784858e-01    2,728398889e-02    1,004020944e-01    5,171400309e-02    0,000000000e+00    0,000000000e+00    0,000000000e+00    0,000000000e+00
     1388000000   -5,168278217e-01    2,885145843e-01    2,240985632e-01   -4,162218887e-03    0,000000000e+00    0,000000000e+00    0,000000000e+00    0,000000000e+00
     1402000000   -2,923937142e-01    4,189115465e-01    2,354539782e-01   -8,068846166e-02    0,000000000e+00    0,000000000e+00    0,000000000e+00    0,000000000e+00
     1416000000   -8,995851874e-02    4,174719155e-01    1,944953799e-01   -1,156662628e-01    0,000000000e+00    0,000000000e+00    0,000000000e+00    0,000000000e+00
     1430000000    6,942316890e-02    3,407571018e-01    1,479593664e-01   -1,080683917e-01    0,000000000e+00    0,000000000e+00    0,000000000e+00    0,000000000e+00
     1444000000    1,804861426e-01    1,978122592e-01    1,610895246e-01   -1,021697819e-01    0,000000000e+00    0,000000000e+00    0,000000000e+00    0,000000000e+00
     1458000000    2,266643941e-01    3,648633882e-02    1,493676901e-01   -7,754629850e-02    0,000000000e+00    0,000000000e+00    0,000000000e+00    0,000000000e+00
     1472000000    2,039973140e-01   -1,411134899e-01    1,458878666e-01   -5,599222705e-02    0,000000000e+00    0,000000000e+00    0,000000000e+00    0,000000000e+00
     1486000000    1,040070951e-01   -3,240723610e-01    1,653805822e-01   -1,823205315e-02    0,000000000e+00    0,000000000e+00    0,000000000e+00    0,000000000e+00
     1500000000   -9,292246401e-02   -4,583820701e-01    2,254084498e-01    4,607478529e-02    0,000000000e+00    0,000000000e+00    0,000000000e+00    0,000000000e+00
