! NanoVNA-App
! Date: 2025-09-25 14:22:08
! Start: 100MHz Stop: 1,5GHz Points: 101
! S-Parameter data: F S11 S21 S12 S22
# Hz S RI R 50
!     Frequency           S11_Real           S11_Imag           S21_Real           S21_Imag           S12_Real           S12_Imag           S22_Real           S22_Imag
      100000000   -2,909282036e-02   -4,120620899e-03    3,744335771e-01   -7,221054435e-01    0,000000000e+00    0,000000000e+00    0,000000000e+00    0,000000000e+00
      114000000   -1,664239727e-02    1,162486989e-02   -8,887698501e-02   -8,058685064e-01    0,000000000e+00    0,000000000e+00    0,000000000e+00    0,000000000e+00
      128000000    3,476274665e-03    1,050532889e-02   -5,147243738e-01   -6,211442947e-01    0,000000000e+00    0,000000000e+00    0,000000000e+00    0,000000000e+00
      142000000    1,447688788e-02   -3,069337923e-03   -7,674030662e-01   -2,368251383e-01    0,000000000e+00    0,000000000e+00    0,000000000e+00    0,000000000e+00
      156000000    1,565561071e-02   -1,466795243e-02   -7,701209784e-01    2,238264978e-01    0,000000000e+00    0,000000000e+00    0,000000000e+00    0,000000000e+00
      170000000    1,653023437e-02   -2,257630602e-02   -5,187937617e-01    6,054441929e-01    0,000000000e+00    0,000000000e+00    0,000000000e+00    0,000000000e+00
      184000000    2,099777013e-02   -3,707869723e-02   -1,019053683e-01    7,866954207e-01    0,000000000e+00    0,000000000e+00    0,000000000e+00    0,000000000e+00
      198000000    1,308701467e-02   -6,263761222e-02    3,430959582e-01    7,130607963e-01    0,000000000e+00    0,000000000e+00    0,000000000e+00    0,000000000e+00
      212000000   -1,872684807e-02   -8,164604008e-02    6,785981655e-01    4,106961489e-01    0,000000000e+00    0,000000000e+00    0,000000000e+00    0,000000000e+00
      226000000   -6,209108979e-02   -6,961654127e-02    7,961411476e-01   -2,973831631e-02    0,000000000e+00    0,000000000e+00    0,000000000e+00    0,000000000e+00
      240000000   -8,320631832e-02   -2,606314607e-02    6,472403407e-01   -4,667909443e-01    0,000000000e+00    0,000000000e+00    0,000000000e+00    0,000000000e+00
      254000000   -6,433007866e-02    1,726701669e-02    2,771045268e-01   -7,440485954e-01    0,000000000e+00    0,000000000e+00    0,000000000e+00    0,000000000e+00
      268000000   -2,436362021e-02    2,952694893e-02   -1,775115132e-01   -7,652256489e-01    0,000000000e+00    0,000000000e+00    0,000000000e+00    0,000000000e+00
      282000000    4,221220035e-03    1,227603480e-02   -5,626528263e-01   -5,370975733e-01    0,000000000e+00    0,000000000e+00    0,000000000e+00    0,000000000e+00
      296000000    9,616941214e-03   -7,764109410e-03   -7,608448267e-01   -1,396429986e-01    0,000000000e+00    0,000000000e+00    0,000000000e+00    0,000000000e+00
      310000000    1,106006466e-02   -1,592560671e-02   -7,119235992e-01    2,969908714e-01    0,000000000e+00    0,000000000e+00    0,000000000e+00    0,000000000e+00
      324000000    1,953230798e-02   -2,680248022e-02   -4,283031523e-01    6,377170682e-01    0,000000000e+00    0,000000000e+00    0,000000000e+00    0,000000000e+00
      338000000    2,527596243e-02   -5,240531638e-02   -8,163839579e-03    7,620196342e-01    0,000000000e+00    0,000000000e+00    0,000000000e+00    0,000000000e+00
      352000000    7,439542096e-03   -8,511380106e-02    4,059495032e-01    6,405847669e-01    0,000000000e+00    0,000000000e+00    0,000000000e+00    0,000000000e+00
      366000000   -3,478314728e-02   -9,594953060e-02    6,908006668e-01    3,124119937e-01    0,000000000e+00    0,000000000e+00    0,000000000e+00    0,000000000e+00
      380000000   -7,134491205e-02   -7,117462158e-02    7,488622665e-01   -1,248548403e-01    0,000000000e+00    0,000000000e+00    0,000000000e+00    0,000000000e+00
      394000000   -7,325882465e-02   -3,221767396e-02    5,481172204e-01   -5,197324753e-01    0,000000000e+00    0,000000000e+00    0,000000000e+00    0,000000000e+00
      408000000   -4,680830985e-02   -1,532387268e-02    1,631011814e-01   -7,328596711e-01    0,000000000e+00    0,000000000e+00    0,000000000e+00    0,000000000e+00
      422000000   -2,838395908e-02   -3,137226775e-02   -2,663304508e-01   -6,949624419e-01    0,000000000e+00    0,000000000e+00    0,000000000e+00    0,000000000e+00
      436000000   -4,001197219e-02   -5,191192403e-02   -6,023531556e-01   -4,336194396e-01    0,000000000e+00    0,000000000e+00    0,000000000e+00    0,000000000e+00
      450000000   -6,724534184e-02   -4,477430135e-02   -7,402057052e-01   -2,487457171e-02    0,000000000e+00    0,000000000e+00    0,000000000e+00    0,000000000e+00
      464000000   -7,446216792e-02   -1,242917124e-02   -6,216734052e-01    3,944938481e-01    0,000000000e+00    0,000000000e+00    0,000000000e+00    0,000000000e+00
      478000000   -4,909067601e-02    1,153670065e-02   -2,867937684e-01    6,681422591e-01    0,000000000e+00    0,000000000e+00    0,000000000e+00    0,000000000e+00
      492000000   -1,683745347e-02    6,328041665e-03    1,344029307e-01    7,035758495e-01    0,000000000e+00    0,000000000e+00    0,000000000e+00    0,000000000e+00
      506000000   -3,455370432e-03   -1,514461171e-02    4,977546036e-01    5,059641004e-01    0,000000000e+00    0,000000000e+00    0,000000000e+00    0,000000000e+00
      520000000   -5,799262319e-03   -2,960835956e-02    6,880411506e-01    1,430449784e-01    0,000000000e+00    0,000000000e+00    0,000000000e+00    0,000000000e+00
      534000000   -3,596700029e-03   -3,585551679e-02    6,446483135e-01   -2,600411177e-01    0,000000000e+00    0,000000000e+00    0,000000000e+00    0,000000000e+00
      548000000    8,127185516e-03   -5,294511095e-02    3,846352696e-01   -5,644634962e-01    0,000000000e+00    0,000000000e+00    0,000000000e+00    0,000000000e+00
      562000000    5,904582329e-03   -9,000837058e-02    8,123775944e-03   -6,722107530e-01    0,000000000e+00    0,000000000e+00    0,000000000e+00    0,000000000e+00
      576000000   -3,098315559e-02   -1,262079179e-01   -3,626804650e-01   -5,612556934e-01    0,000000000e+00    0,000000000e+00    0,000000000e+00    0,000000000e+00
      590000000   -9,475582093e-02   -1,278302968e-01   -6,184021235e-01   -2,721073329e-01    0,000000000e+00    0,000000000e+00    0,000000000e+00    0,000000000e+00
      604000000   -1,426182836e-01   -7,779356837e-02   -6,672846675e-01    1,268992424e-01    0,000000000e+00    0,000000000e+00    0,000000000e+00    0,000000000e+00
      618000000   -1,381821185e-01   -1,164011937e-02   -4,749185741e-01    4,857948124e-01    0,000000000e+00    0,000000000e+00    0,000000000e+00    0,000000000e+00
      632000000   -9,342102706e-02    2,212860063e-02   -1,141506359e-01    6,636902690e-01    0,000000000e+00    0,000000000e+00    0,000000000e+00    0,000000000e+00
      646000000   -5,470712855e-02    1,161261089e-02    2,732655108e-01    6,044644117e-01    0,000000000e+00    0,000000000e+00    0,000000000e+00    0,000000000e+00
      660000000   -4,837648943e-02   -9,175298735e-03    5,568661094e-01    3,396948576e-01    0,000000000e+00    0,000000000e+00    0,000000000e+00    0,000000000e+00
      674000000   -5,595766380e-02   -9,920218959e-03    6,439996958e-01   -3,975980356e-02    0,000000000e+00    0,000000000e+00    0,000000000e+00    0,000000000e+00
      688000000   -5,055803061e-02    3,479053034e-03    4,929834604e-01   -4,018712640e-01    0,000000000e+00    0,000000000e+00    0,000000000e+00    0,000000000e+00
      702000000   -2,486641333e-02    7,462773006e-03    1,568287313e-01   -6,034064293e-01    0,000000000e+00    0,000000000e+00    0,000000000e+00    0,000000000e+00
      716000000   -1,540056546e-03   -8,440062404e-03   -2,191041857e-01   -5,762935877e-01    0,000000000e+00    0,000000000e+00    0,000000000e+00    0,000000000e+00
      730000000    9,782978334e-03   -3,519413993e-02   -5,092588067e-01   -3,337096870e-01    0,000000000e+00    0,000000000e+00    0,000000000e+00    0,000000000e+00
      744000000    1,727794483e-02   -6,127716228e-02   -6,010618210e-01    3,310852125e-02    0,000000000e+00    0,000000000e+00    0,000000000e+00    0,000000000e+00
      758000000    2,150760219e-02   -1,037801951e-01   -4,544281065e-01    3,769651353e-01    0,000000000e+00    0,000000000e+00    0,000000000e+00    0,000000000e+00
      772000000   -4,999803379e-03   -1,733684242e-01   -1,400775015e-01    5,574906468e-01    0,000000000e+00    0,000000000e+00    0,000000000e+00    0,000000000e+00
      786000000   -1,044282168e-01   -2,322880030e-01    2,102202326e-01    5,198849440e-01    0,000000000e+00    0,000000000e+00    0,000000000e+00    0,000000000e+00
      800000000   -2,658316493e-01   -1,920963973e-01    4,721341133e-01    2,747082412e-01    0,000000000e+00    0,000000000e+00    0,000000000e+00    0,000000000e+00
      814000000   -3,641966581e-01    2,814776264e-03    5,075901151e-01   -8,866211027e-02    0,000000000e+00    0,000000000e+00    0,000000000e+00    0,000000000e+00
      828000000   -2,468046248e-01    2,329587489e-01    2,811478972e-01   -3,520792127e-01    0,000000000e+00    0,000000000e+00    0,000000000e+00    0,000000000e+00
      842000000    1,291557401e-02    2,781860828e-01   -1,652641408e-02   -3,627723455e-01    0,000000000e+00    0,000000000e+00    0,000000000e+00    0,000000000e+00
      856000000    2,124390155e-01    1,151388809e-01   -1,880333126e-01   -2,050187737e-01    0,000000000e+00    0,000000000e+00    0,000000000e+00    0,000000000e+00
      870000000    2,385571897e-01   -1,489726156e-01   -2,010153979e-01   -2,589290403e-02    0,000000000e+00    0,000000000e+00    0,000000000e+00    0,000000000e+00
      884000000    3,745665029e-02   -3,869961202e-01   -1,039114445e-01    7,006636262e-02    0,000000000e+00    0,000000000e+00    0,000000000e+00    0,000000000e+00
      898000000   -3,689910769e-01   -3,419603407e-01   -1,664135978e-02    2,770089917e-02    0,000000000e+00    0,000000000e+00    0,000000000e+00    0,000000000e+00
      912000000   -4,675181806e-01    1,389700323e-01   -1,224977374e-01    2,772973664e-02    0,000000000e+00    0,000000000e+00    0,000000000e+00    0,000000000e+00
      926000000   -9,437062591e-02    3,541719615e-01   -1,282055676e-01    1,351035386e-01    0,000000000e+00    0,000000000e+00    0,000000000e+00    0,000000000e+00
      940000000    1,849004030e-01    1,930417418e-01   -3,855180740e-02    2,160359025e-01    0,000000000e+00    0,000000000e+00    0,000000000e+00    0,000000000e+00
      954000000    2,564727068e-01   -4,711297154e-02    8,092561364e-02    2,294668257e-01    0,000000000e+00    0,000000000e+00    0,000000000e+00    0,000000000e+00
      968000000    1,759156287e-01   -2,652525902e-01    1,912723184e-01    1,806832999e-01    0,000000000e+00    0,000000000e+00    0,000000000e+00    0,000000000e+00
      982000000   -1,986882836e-02   -3,939315677e-01    2,797660828e-01    7,942397147e-02    0,000000000e+00    0,000000000e+00    0,000000000e+00    0,000000000e+00
      996000000   -2,730929255e-01   -3,750678301e-01    3,093874454e-01   -8,149052411e-02    0,000000000e+00    0,000000000e+00    0,000000000e+00    0,000000000e+00
     1010000000   -4,680982232e-01   -1,755222082e-01    2,215884179e-01   -2,506279051e-01    0,000000000e+00    0,000000000e+00    0,000000000e+00    0,000000000e+00
     1024000000   -4,634652734e-01    1,170974150e-01    1,932868920e-02   -3,287935853e-01    0,000000000e+00    0,000000000e+00    0,000000000e+00    0,000000000e+00
     1038000000   -2,681084275e-01    2,968162894e-01   -1,739072949e-01   -2,479308695e-01    0,000000000e+00    0,000000000e+00    0,000000000e+00    0,000000000e+00
     1052000000   -3,426723182e-02    3,106510043e-01   -2,570326030e-01   -7,778230309e-02    0,000000000e+00    0,000000000e+00    0,000000000e+00    0,000000000e+00
     1066000000    1,244781688e-01    2,024142742e-01   -2,253670841e-01    8,464960009e-02    0,000000000e+00    0,000000000e+00    0,000000000e+00    0,000000000e+00
     1080000000    2,077050209e-01    4,521700740e-02   -1,208727434e-01    1,938611120e-01    0,000000000e+00    0,000000000e+00    0,000000000e+00    0,000000000e+00
     1094000000    1,997188777e-01   -1,266033947e-01    1,816153154e-02    2,342326939e-01    0,000000000e+00    0,000000000e+00    0,000000000e+00    0,000000000e+00
     1108000000    1,031247750e-01   -2,848915458e-01    1,710685790e-01    2,056293488e-01    0,000000000e+00    0,000000000e+00    0,000000000e+00    0,000000000e+00
     1122000000   -1,010666043e-01   -3,654325306e-01    3,161455393e-01    8,864973485e-02    0,000000000e+00    0,000000000e+00    0,000000000e+00    0,000000000e+00
     1136000000   -3,462333381e-01   -2,707004249e-01    3,909021318e-01   -1,510721594e-01    0,000000000e+00    0,000000000e+00    0,000000000e+00    0,000000000e+00
     1150000000   -4,107962251e-01    3,882443532e-02    2,448182404e-01   -4,354579747e-01    0,000000000e+00    0,000000000e+00    0,000000000e+00    0,000000000e+00
     1164000000   -1,643160880e-01    2,151032239e-01   -9,553523362e-02   -5,151745081e-01    0,000000000e+00    0,000000000e+00    0,000000000e+00    0,000000000e+00
     1178000000    7,293982059e-02    7,952427864e-02   -3,559744954e-01   -3,472537994e-01    0,000000000e+00    0,000000000e+00    0,000000000e+00    0,000000000e+00
     1192000000    7,409469783e-02   -1,702388227e-01   -4,548462033e-01   -8,376433700e-02    0,000000000e+00    0,000000000e+00    0,000000000e+00    0,000000000e+00
     1206000000   -1,615696996e-01   -3,282389045e-01   -3,666239977e-01    1,883180439e-01    0,000000000e+00    0,000000000e+00    0,000000000e+00    0,000000000e+00
     1220000000   -4,571899176e-01   -1,769027412e-01   -1,084285080e-01    3,279630840e-01    0,000000000e+00    0,000000000e+00    0,000000000e+00    0,000000000e+00
     1234000000   -4,718484581e-01    1,708502918e-01    1,411810964e-01    2,244067341e-01    0,000000000e+00    0,000000000e+00    0,000000000e+00    0,000000000e+00
     1248000000   -2,369303107e-01    3,574595451e-01    1,885634363e-01    3,568936139e-02    0,000000000e+00    0,000000000e+00    0,000000000e+00    0,000000000e+00
     1262000000   -6,124809734e-04    3,269816339e-01    1,291612685e-01   -6,700494885e-02    0,000000000e+00    0,000000000e+00    0,000000000e+00    0,000000000e+00
     1276000000    1,585271358e-01    2,003105134e-01    5,452456698e-02   -9,512078762e-02    0,000000000e+00    0,000000000e+00    0,000000000e+00    0,000000000e+00
     1290000000    2,191729397e-01    2,764000930e-02    5,484682624e-04   -8,032508940e-02    0,000000000e+00    0,000000000e+00    0,000000000e+00    0,000000000e+00
     1304000000    2,076123357e-01   -1,456369013e-01   -1,846711710e-02   -3,078739531e-02    0,000000000e+00    0,000000000e+00    0,000000000e+00    0,000000000e+00
     1318000000    1,154751703e-01   -3,132394552e-01   -2,665778855e-03    2,317637578e-02    0,000000000e+00    0,000000000e+00    0,000000000e+00    0,000000000e+00
     1332000000   -6,771825999e-02   -4,366950691e-01    4,726872966e-02    6,130123883e-02    0,000000000e+00    0,000000000e+00    0,000000000e+00    0,000000000e+00
     1346000000   -3,254978955e-01   -4,377657473e-01    1,402407736e-01    3,945224360e-02    0,000000000e+00    0,000000000e+00    0,000000000e+00    0,000000000e+00
     1360000000   -5,579049587e-01   -2,385008484e-01    1,167123839e-01   -7,271478325e-02    0,000000000e+00    0,000000000e+00    0,000000000e+00    0,000000000e+00
     1374000000   -6,285917163e-01    2,992981486e-02    9,313663840e-02    6,082930788e-02    0,000000000e+00    0,000000000e+00    0,000000000e+00    0,000000000e+00
     1388000000   -5,126656294e-01    2,942927182e-01    2,287915945e-01    1,368106995e-02    0,000000000e+00    0,000000000e+00    0,000000000e+00    0,000000000e+00
     1402000000   -3,042523265e-01    4,139884412e-01    2,272155285e-01   -9,180539846e-02    0,000000000e+00    0,000000000e+00    0,000000000e+00    0,000000000e+00
     1416000000   -9,739625454e-02    4,155404270e-01    1,942643970e-01   -1,237314343e-01    0,000000000e+00    0,000000000e+00    0,000000000e+00    0,000000000e+00
     1430000000    6,594938785e-02    3,343681395e-01    1,438067108e-01   -1,243473440e-01    0,000000000e+00    0,000000000e+00    0,000000000e+00    0,000000000e+00
     1444000000    1,762747467e-01    1,968186945e-01    1,473811418e-01   -1,062087342e-01    0,000000000e+00    0,000000000e+00    0,000000000e+00    0,000000000e+00
     1458000000    2,282198966e-01    3,772734851e-02    1,562190056e-01   -9,063350409e-02    0,000000000e+00    0,000000000e+00    0,000000000e+00    0,000000000e+00
     1472000000    2,078496218e-01   -1,442205757e-01    1,561296731e-01   -4,472631961e-02    0,000000000e+00    0,000000000e+00    0,000000000e+00    0,000000000e+00
     1486000000    1,043361798e-01   -3,207446337e-01    1,666281223e-01    6,365111563e-03    0,000000000e+00    0,000000000e+00    0,000000000e+00    0,000000000e+00
     1500000000   -9,612110257e-02   -4,545498192e-01    2,084213197e-01    5,913036689e-02    0,000000000e+00    0,000000000e+00    0,000000000e+00    0,000000000e+00
