! NanoVNA-App
! Date: 2025-09-25 14:27:25
! Start: 100MHz Stop: 1,5GHz Points: 101
! S-Parameter data: F S11 S21 S12 S22
# Hz S RI R 50
!     Frequency           S11_Real           S11_Imag           S21_Real           S21_Imag           S12_Real           S12_Imag           S22_Real           S22_Imag
      100000000   -2,910512313e-02   -4,124686588e-03    3,745187819e-01   -7,220627666e-01    0,000000000e+00    0,000000000e+00    0,000000000e+00    0,000000000e+00
      114000000   -1,662362926e-02    1,162621286e-02   -8,883906901e-02   -8,058840036e-01    0,000000000e+00    0,000000000e+00    0,000000000e+00    0,000000000e+00
      128000000    3,426427953e-03    1,057492010e-02   -5,146890879e-01   -6,211634278e-01    0,000000000e+00    0,000000000e+00    0,000000000e+00    0,000000000e+00
      142000000    1,443452667e-02   -3,079553135e-03   -7,674535513e-01   -2,368635982e-01    0,000000000e+00    0,000000000e+00    0,000000000e+00    0,000000000e+00
      156000000    1,577266678e-02   -1,445089187e-02   -7,729608417e-01    2,241236717e-01    0,000000000e+00    0,000000000e+00    0,000000000e+00    0,000000000e+00
      170000000    1,647526771e-02   -2,245171182e-02   -5,187163353e-01    6,049145460e-01    0,000000000e+00    0,000000000e+00    0,000000000e+00    0,000000000e+00
      184000000    2,100529335e-02   -3,703355417e-02   -1,019626036e-01    7,863070965e-01    0,000000000e+00    0,000000000e+00    0,000000000e+00    0,000000000e+00
      198000000    1,310443692e-02   -6,259219348e-02    3,431579471e-01    7,129626274e-01    0,000000000e+00    0,000000000e+00    0,000000000e+00    0,000000000e+00
      212000000   -1,872211508e-02   -8,170685917e-02    6,783652306e-01    4,107030332e-01    0,000000000e+00    0,000000000e+00    0,000000000e+00    0,000000000e+00
      226000000   -6,207403541e-02   -6,965783983e-02    7,961332202e-01   -2,966819331e-02    0,000000000e+00    0,000000000e+00    0,000000000e+00    0,000000000e+00
      240000000   -8,326769620e-02   -2,604336105e-02    6,470845938e-01   -4,665274024e-01    0,000000000e+00    0,000000000e+00    0,000000000e+00    0,000000000e+00
      254000000   -6,433121115e-02    1,749048941e-02    2,773454785e-01   -7,431853414e-01    0,000000000e+00    0,000000000e+00    0,000000000e+00    0,000000000e+00
      268000000   -2,399648540e-02    2,948477678e-02   -1,766308099e-01   -7,656020522e-01    0,000000000e+00    0,000000000e+00    0,000000000e+00    0,000000000e+00
      282000000    4,140271340e-03    1,199438609e-02   -5,626341701e-01   -5,373606682e-01    0,000000000e+00    0,000000000e+00    0,000000000e+00    0,000000000e+00
      296000000    9,565197863e-03   -7,734302897e-03   -7,606192231e-01   -1,396970898e-01    0,000000000e+00    0,000000000e+00    0,000000000e+00    0,000000000e+00
      310000000    1,085763704e-02   -1,625989564e-02   -7,136001587e-01    2,969798446e-01    0,000000000e+00    0,000000000e+00    0,000000000e+00    0,000000000e+00
      324000000    1,946435310e-02   -2,652868070e-02   -4,286853075e-01    6,370781064e-01    0,000000000e+00    0,000000000e+00    0,000000000e+00    0,000000000e+00
      338000000    2,542778105e-02   -5,217310041e-02   -1,124416851e-02    7,620202303e-01    0,000000000e+00    0,000000000e+00    0,000000000e+00    0,000000000e+00
      352000000    7,313803304e-03   -8,481997252e-02    4,059133828e-01    6,405834556e-01    0,000000000e+00    0,000000000e+00    0,000000000e+00    0,000000000e+00
      366000000   -3,465854749e-02   -9,613908082e-02    6,906350851e-01    3,126493990e-01    0,000000000e+00    0,000000000e+00    0,000000000e+00    0,000000000e+00
      380000000   -7,162264735e-02   -7,121769339e-02    7,483819127e-01   -1,249004528e-01    0,000000000e+00    0,000000000e+00    0,000000000e+00    0,000000000e+00
      394000000   -7,352155447e-02   -3,257576004e-02    5,476928949e-01   -5,209318995e-01    0,000000000e+00    0,000000000e+00    0,000000000e+00    0,000000000e+00
      408000000   -4,670481756e-02   -1,562044863e-02    1,632495075e-01   -7,331061959e-01    0,000000000e+00    0,000000000e+00    0,000000000e+00    0,000000000e+00
      422000000   -2,802927047e-02   -3,138024360e-02   -2,649351656e-01   -6,963936090e-01    0,000000000e+00    0,000000000e+00    0,000000000e+00    0,000000000e+00
      436000000   -4,000314325e-02   -5,210037529e-02   -6,022723317e-01   -4,339829087e-01    0,000000000e+00    0,000000000e+00    0,000000000e+00    0,000000000e+00
      450000000   -6,746730953e-02   -4,462158307e-02   -7,402025461e-01   -2,494454570e-02    0,000000000e+00    0,000000000e+00    0,000000000e+00    0,000000000e+00
      464000000   -7,419031113e-02   -1,211138628e-02   -6,209224463e-01    3,947565258e-01    0,000000000e+00    0,000000000e+00    0,000000000e+00    0,000000000e+00
      478000000   -4,886301607e-02    1,149690337e-02   -2,869886458e-01    6,681247950e-01    0,000000000e+00    0,000000000e+00    0,000000000e+00    0,000000000e+00
      492000000   -1,732510515e-02    6,507925689e-03    1,344007105e-01    7,040914297e-01    0,000000000e+00    0,000000000e+00    0,000000000e+00    0,000000000e+00
      506000000   -3,405923722e-03   -1,466630399e-02    4,983074069e-01    5,065066218e-01    0,000000000e+00    0,000000000e+00    0,000000000e+00    0,000000000e+00
      520000000   -5,937034730e-03   -2,956631035e-02    6,880337000e-01    1,447384655e-01    0,000000000e+00    0,000000000e+00    0,000000000e+00    0,000000000e+00
      534000000   -3,627337748e-03   -3,579078615e-02    6,448078156e-01   -2,597347796e-01    0,000000000e+00    0,000000000e+00    0,000000000e+00    0,000000000e+00
      548000000    8,120304905e-03   -5,262176692e-02    3,852149844e-01   -5,642592907e-01    0,000000000e+00    0,000000000e+00    0,000000000e+00    0,000000000e+00
      562000000    5,983111449e-03   -8,969943970e-02    8,665261790e-03   -6,725999117e-01    0,000000000e+00    0,000000000e+00    0,000000000e+00    0,000000000e+00
      576000000   -3,173432127e-02   -1,259242743e-01   -3,622512817e-01   -5,610745549e-01    0,000000000e+00    0,000000000e+00    0,000000000e+00    0,000000000e+00
      590000000   -9,506922215e-02   -1,277655810e-01   -6,177651882e-01   -2,709478736e-01    0,000000000e+00    0,000000000e+00    0,000000000e+00    0,000000000e+00
      604000000   -1,434728205e-01   -7,794930786e-02   -6,675105691e-01    1,263719946e-01    0,000000000e+00    0,000000000e+00    0,000000000e+00    0,000000000e+00
      618000000   -1,384750605e-01   -1,144291926e-02   -4,750590622e-01    4,859137833e-01    0,000000000e+00    0,000000000e+00    0,000000000e+00    0,000000000e+00
      632000000   -9,321599454e-02    2,134726755e-02   -1,136462018e-01    6,633917093e-01    0,000000000e+00    0,000000000e+00    0,000000000e+00    0,000000000e+00
      646000000   -5,552437156e-02    1,242478099e-02    2,736681104e-01    6,041048765e-01    0,000000000e+00    0,000000000e+00    0,000000000e+00    0,000000000e+00
      660000000   -4,733001068e-02   -8,336160332e-03    5,580133796e-01    3,407523930e-01    0,000000000e+00    0,000000000e+00    0,000000000e+00    0,000000000e+00
      674000000   -5,553096905e-02   -1,122589502e-02    6,439244151e-01   -3,972652182e-02    0,000000000e+00    0,000000000e+00    0,000000000e+00    0,000000000e+00
      688000000   -4,971396178e-02    2,717329422e-03    4,934573174e-01   -4,018251598e-01    0,000000000e+00    0,000000000e+00    0,000000000e+00    0,000000000e+00
      702000000   -2,514999919e-02    7,943681441e-03    1,567828059e-01   -6,026910543e-01    0,000000000e+00    0,000000000e+00    0,000000000e+00    0,000000000e+00
      716000000   -2,300197259e-03   -9,773690253e-03   -2,185563147e-01   -5,756367445e-01    0,000000000e+00    0,000000000e+00    0,000000000e+00    0,000000000e+00
      730000000    9,252316318e-03   -3,396533430e-02   -5,091711879e-01   -3,326635063e-01    0,000000000e+00    0,000000000e+00    0,000000000e+00    0,000000000e+00
      744000000    1,741349325e-02   -6,098438799e-02   -6,007578373e-01    3,292881325e-02    0,000000000e+00    0,000000000e+00    0,000000000e+00    0,000000000e+00
      758000000    2,221419103e-02   -1,030708626e-01   -4,547510445e-01    3,774959147e-01    0,000000000e+00    0,000000000e+00    0,000000000e+00    0,000000000e+00
      772000000   -4,216051660e-03   -1,739762127e-01   -1,407297254e-01    5,580528378e-01    0,000000000e+00    0,000000000e+00    0,000000000e+00    0,000000000e+00
      786000000   -1,055930257e-01   -2,325007170e-01    2,129717916e-01    5,195342898e-01    0,000000000e+00    0,000000000e+00    0,000000000e+00    0,000000000e+00
      800000000   -2,662110329e-01   -1,934394538e-01    4,716207087e-01    2,754675448e-01    0,000000000e+00    0,000000000e+00    0,000000000e+00    0,000000000e+00
      814000000   -3,651535809e-01    3,464758396e-03    5,082309246e-01   -8,876282722e-02    0,000000000e+00    0,000000000e+00    0,000000000e+00    0,000000000e+00
      828000000   -2,477719784e-01    2,337306142e-01    2,817569375e-01   -3,526879549e-01    0,000000000e+00    0,000000000e+00    0,000000000e+00    0,000000000e+00
      842000000    1,331331953e-02    2,780168355e-01   -1,540441811e-02   -3,637118340e-01    0,000000000e+00    0,000000000e+00    0,000000000e+00    0,000000000e+00
      856000000    2,129043341e-01    1,151236817e-01   -1,873415560e-01   -2,050866634e-01    0,000000000e+00    0,000000000e+00    0,000000000e+00    0,000000000e+00
      870000000    2,381979227e-01   -1,492135078e-01   -2,013879716e-01   -2,628762275e-02    0,000000000e+00    0,000000000e+00    0,000000000e+00    0,000000000e+00
      884000000    3,797494620e-02   -3,862313926e-01   -1,042130068e-01    7,107272744e-02    0,000000000e+00    0,000000000e+00    0,000000000e+00    0,000000000e+00
      898000000   -3,698649406e-01   -3,417834640e-01   -1,744270884e-02    2,750061452e-02    0,000000000e+00    0,000000000e+00    0,000000000e+00    0,000000000e+00
      912000000   -4,680558443e-01    1,390017420e-01   -1,057898402e-01    3,630262986e-02    0,000000000e+00    0,000000000e+00    0,000000000e+00    0,000000000e+00
      926000000   -9,549179673e-02    3,525482416e-01   -1,287598908e-01    1,362105906e-01    0,000000000e+00    0,000000000e+00    0,000000000e+00    0,000000000e+00
      940000000    1,851090193e-01    1,922092289e-01   -3,887213022e-02    2,141570151e-01    0,000000000e+00    0,000000000e+00    0,000000000e+00    0,000000000e+00
      954000000    2,521642148e-01   -4,840185866e-02    8,042187989e-02    2,283454090e-01    0,000000000e+00    0,000000000e+00    0,000000000e+00    0,000000000e+00
      968000000    1,745496541e-01   -2,649594545e-01    1,911434531e-01    1,798924506e-01    0,000000000e+00    0,000000000e+00    0,000000000e+00    0,000000000e+00
      982000000   -1,641600206e-02   -3,960019052e-01    2,791506052e-01    8,047159761e-02    0,000000000e+00    0,000000000e+00    0,000000000e+00    0,000000000e+00
      996000000   -2,772708833e-01   -3,765415549e-01    3,082693815e-01   -8,085829765e-02    0,000000000e+00    0,000000000e+00    0,000000000e+00    0,000000000e+00
     1010000000   -4,668505490e-01   -1,711286455e-01    2,208058834e-01   -2,517548203e-01    0,000000000e+00    0,000000000e+00    0,000000000e+00    0,000000000e+00
     1024000000   -4,599421322e-01    1,133093759e-01    2,134113945e-02   -3,307076097e-01    0,000000000e+00    0,000000000e+00    0,000000000e+00    0,000000000e+00
     1038000000   -2,603497803e-01    2,994516790e-01   -1,735534817e-01   -2,492117286e-01    0,000000000e+00    0,000000000e+00    0,000000000e+00    0,000000000e+00
     1052000000   -3,984381258e-02    3,111648858e-01   -2,573117316e-01   -7,735917717e-02    0,000000000e+00    0,000000000e+00    0,000000000e+00    0,000000000e+00
     1066000000    1,247982606e-01    2,063508332e-01   -2,241958082e-01    8,451496065e-02    0,000000000e+00    0,000000000e+00    0,000000000e+00    0,000000000e+00
     1080000000    2,085119188e-01    5,063210800e-02   -1,193071082e-01    1,932096779e-01    0,000000000e+00    0,000000000e+00    0,000000000e+00    0,000000000e+00
     1094000000    2,006484270e-01   -1,243307069e-01    1,869210042e-02    2,336800545e-01    0,000000000e+00    0,000000000e+00    0,000000000e+00    0,000000000e+00
     1108000000    9,883393347e-02   -2,877266407e-01    1,691632122e-01    2,078823894e-01    0,000000000e+00    0,000000000e+00    0,000000000e+00    0,000000000e+00
     1122000000   -1,015174687e-01   -3,689599037e-01    3,173851669e-01    8,796417713e-02    0,000000000e+00    0,000000000e+00    0,000000000e+00    0,000000000e+00
     1136000000   -3,483835757e-01   -2,688798308e-01    3,924553096e-01   -1,484205425e-01    0,000000000e+00    0,000000000e+00    0,000000000e+00    0,000000000e+00
     1150000000   -4,083619714e-01    4,081337154e-02    2,446754575e-01   -4,375577569e-01    0,000000000e+00    0,000000000e+00    0,000000000e+00    0,000000000e+00
     1164000000   -1,552924812e-01    2,187653631e-01   -9,466433525e-02   -5,130061507e-01    0,000000000e+00    0,000000000e+00    0,000000000e+00    0,000000000e+00
     1178000000    7,494623214e-02    8,767802268e-02   -3,582634926e-01   -3,470044136e-01    0,000000000e+00    0,000000000e+00    0,000000000e+00    0,000000000e+00
     1192000000    7,315706462e-02   -1,740998179e-01   -4,549973607e-01   -8,414152265e-02    0,000000000e+00    0,000000000e+00    0,000000000e+00    0,000000000e+00
     1206000000   -1,628329605e-01   -3,235264122e-01   -3,684817255e-01    1,922182292e-01    0,000000000e+00    0,000000000e+00    0,000000000e+00    0,000000000e+00
     1220000000   -4,575839043e-01   -1,770793051e-01   -1,100790650e-01    3,291000426e-01    0,000000000e+00    0,000000000e+00    0,000000000e+00    0,000000000e+00
     1234000000   -4,768606126e-01    1,645869613e-01    1,426498890e-01    2,148710638e-01    0,000000000e+00    0,000000000e+00    0,000000000e+00    0,000000000e+00
     1248000000   -2,354378104e-01    3,510019183e-01    1,960500330e-01    3,026545607e-02    0,000000000e+00    0,000000000e+00    0,000000000e+00    0,000000000e+00
     1262000000    9,368597530e-03    3,310861290e-01    1,323575079e-01   -7,015074790e-02    0,000000000e+00    0,000000000e+00    0,000000000e+00    0,000000000e+00
     1276000000    1,557029635e-01    1,946830302e-01    5,572704226e-02   -9,694600105e-02    0,000000000e+00    0,000000000e+00    0,000000000e+00    0,000000000e+00
     1290000000    2,211863101e-01    2,838378213e-02    5,591522902e-03   -7,807925344e-02    0,000000000e+00    0,000000000e+00    0,000000000e+00    0,000000000e+00
     1304000000    2,036594450e-01   -1,467305124e-01   -2,251041308e-02   -3,758703917e-02    0,000000000e+00    0,000000000e+00    0,000000000e+00    0,000000000e+00
     1318000000    1,160356924e-01   -3,123871088e-01   -4,274982959e-03    1,726449281e-02    0,000000000e+00    0,000000000e+00    0,000000000e+00    0,000000000e+00
     1332000000   -6,596268713e-02   -4,333614111e-01    4,846958816e-02    6,675225496e-02    0,000000000e+00    0,000000000e+00    0,000000000e+00    0,000000000e+00
     1346000000   -3,306188881e-01   -4,347959459e-01    1,415926963e-01    5,387336016e-02    0,000000000e+00    0,000000000e+00    0,000000000e+00    0,000000000e+00
     1360000000   -5,551233888e-01   -2,427649945e-01    1,173809841e-01   -7,883775979e-02    0,000000000e+00    0,000000000e+00    0,000000000e+00    0,000000000e+00
     1374000000   -6,223134995e-01    3,773836046e-02    1,105967462e-01    6,661603600e-02    0,000000000e+00    0,000000000e+00    0,000000000e+00    0,000000000e+00
     1388000000   -5,140892267e-01    2,844047546e-01    2,249294370e-01   -3,215418197e-03    0,000000000e+00    0,000000000e+00    0,000000000e+00    0,000000000e+00
     1402000000   -2,968732119e-01    4,207900465e-01    2,344810069e-01   -8,596515656e-02    0,000000000e+00    0,000000000e+00    0,000000000e+00    0,000000000e+00
     1416000000   -9,783707559e-02    4,183093011e-01    1,880526394e-01   -1,187399030e-01    0,000000000e+00    0,000000000e+00    0,000000000e+00    0,000000000e+00
     1430000000    6,525038928e-02    3,448615074e-01    1,513487995e-01   -1,132169291e-01    0,000000000e+00    0,000000000e+00    0,000000000e+00    0,000000000e+00
     1444000000    1,717999578e-01    1,973653287e-01    1,468015760e-01   -1,054598689e-01    0,000000000e+00    0,000000000e+00    0,000000000e+00    0,000000000e+00
     1458000000    2,258598953e-01    3,180470690e-02    1,527605653e-01   -8,436136693e-02    0,000000000e+00    0,000000000e+00    0,000000000e+00    0,000000000e+00
     1472000000    2,035679221e-01   -1,412499845e-01    1,506898850e-01   -4,928160459e-02    0,000000000e+00    0,000000000e+00    0,000000000e+00    0,000000000e+00
     1486000000    1,114998609e-01   -3,250543475e-01    1,706046313e-01    3,332088236e-03    0,000000000e+00    0,000000000e+00    0,000000000e+00    0,000000000e+00
     1500000000   -9,396764636e-02   -4,587140679e-01    2,068358511e-01    4,470274225e-02    0,000000000e+00    0,000000000e+00    0,000000000e+00    0,000000000e+00
