! NanoVNA-App
! Date: 2025-09-25 14:27:42
! Start: 100MHz Stop: 1,5GHz Points: 101
! S-Parameter data: F S11 S21 S12 S22
# Hz S RI R 50
!     Frequency           S11_Real           S11_Imag           S21_Real           S21_Imag           S12_Real           S12_Imag           S22_Real           S22_Imag
      100000000   -2,909983322e-02   -4,135337658e-03    3,745125234e-01   -7,220142484e-01    0,000000000e+00    0,000000000e+00    0,000000000e+00    0,000000000e+00
      114000000   -1,659881324e-02    1,160506252e-02   -8,883636445e-02   -8,058328032e-01    0,000000000e+00    0,000000000e+00    0,000000000e+00    0,000000000e+00
      128000000    3,426523646e-03    1,054040436e-02   -5,146867037e-01   -6,210932136e-01    0,000000000e+00    0,000000000e+00    0,000000000e+00    0,000000000e+00
      142000000    1,443118975e-02   -3,071751678e-03   -7,675076723e-01   -2,369071543e-01    0,000000000e+00    0,000000000e+00    0,000000000e+00    0,000000000e+00
      156000000    1,445317548e-02   -1,499668602e-02   -7,647475004e-01    2,199697644e-01    0,000000000e+00    0,000000000e+00    0,000000000e+00    0,000000000e+00
      170000000    1,644914970e-02   -2,249765024e-02   -5,187129378e-01    6,048019528e-01    0,000000000e+00    0,000000000e+00    0,000000000e+00    0,000000000e+00
      184000000    2,099001035e-02   -3,702965751e-02   -1,018763557e-01    7,866833806e-01    0,000000000e+00    0,000000000e+00    0,000000000e+00    0,000000000e+00
      198000000    1,314385980e-02   -6,255120784e-02    3,431853056e-01    7,132850885e-01    0,000000000e+00    0,000000000e+00    0,000000000e+00    0,000000000e+00
      212000000   -1,872601733e-02   -8,169520646e-02    6,783930063e-01    4,105678797e-01    0,000000000e+00    0,000000000e+00    0,000000000e+00    0,000000000e+00
      226000000   -6,209778786e-02   -6,969949603e-02    7,961477637e-01   -2,972967364e-02    0,000000000e+00    0,000000000e+00    0,000000000e+00    0,000000000e+00
      240000000   -8,330625296e-02   -2,605347894e-02    6,472576857e-01   -4,667158425e-01    0,000000000e+00    0,000000000e+00    0,000000000e+00    0,000000000e+00
      254000000   -6,433100253e-02    1,751420647e-02    2,771512270e-01   -7,430726886e-01    0,000000000e+00    0,000000000e+00    0,000000000e+00    0,000000000e+00
      268000000   -2,404895425e-02    2,949254774e-02   -1,767545342e-01   -7,649716735e-01    0,000000000e+00    0,000000000e+00    0,000000000e+00    0,000000000e+00
      282000000    4,196091089e-03    1,207133196e-02   -5,623139739e-01   -5,371001363e-01    0,000000000e+00    0,000000000e+00    0,000000000e+00    0,000000000e+00
      296000000    9,609061293e-03   -7,789582945e-03   -7,608041763e-01   -1,395777911e-01    0,000000000e+00    0,000000000e+00    0,000000000e+00    0,000000000e+00
      310000000    1,092060097e-02   -1,605031826e-02   -7,141692042e-01    2,987774909e-01    0,000000000e+00    0,000000000e+00    0,000000000e+00    0,000000000e+00
      324000000    1,942480169e-02   -2,630839124e-02   -4,284844995e-01    6,382399797e-01    0,000000000e+00    0,000000000e+00    0,000000000e+00    0,000000000e+00
      338000000    2,550983615e-02   -5,235768482e-02   -1,060018502e-02    7,617941499e-01    0,000000000e+00    0,000000000e+00    0,000000000e+00    0,000000000e+00
      352000000    7,458840031e-03   -8,502713591e-02    4,055253565e-01    6,403518915e-01    0,000000000e+00    0,000000000e+00    0,000000000e+00    0,000000000e+00
      366000000   -3,504564613e-02   -9,581455588e-02    6,902117133e-01    3,130499721e-01    0,000000000e+00    0,000000000e+00    0,000000000e+00    0,000000000e+00
      380000000   -7,157576829e-02   -7,097595930e-02    7,486931682e-01   -1,247074977e-01    0,000000000e+00    0,000000000e+00    0,000000000e+00    0,000000000e+00
      394000000   -7,314425707e-02   -3,224532679e-02    5,491357446e-01   -5,205139518e-01    0,000000000e+00    0,000000000e+00    0,000000000e+00    0,000000000e+00
      408000000   -4,682001844e-02   -1,580576785e-02    1,615374088e-01   -7,312973738e-01    0,000000000e+00    0,000000000e+00    0,000000000e+00    0,000000000e+00
      422000000   -2,824374102e-02   -3,127395362e-02   -2,665347457e-01   -6,958923936e-01    0,000000000e+00    0,000000000e+00    0,000000000e+00    0,000000000e+00
      436000000   -4,034448415e-02   -5,213162303e-02   -6,024918556e-01   -4,336443245e-01    0,000000000e+00    0,000000000e+00    0,000000000e+00    0,000000000e+00
      450000000   -6,741067022e-02   -4,505545273e-02   -7,402511239e-01   -2,506883442e-02    0,000000000e+00    0,000000000e+00    0,000000000e+00    0,000000000e+00
      464000000   -7,432438433e-02   -1,210529637e-02   -6,211742163e-01    3,949679434e-01    0,000000000e+00    0,000000000e+00    0,000000000e+00    0,000000000e+00
      478000000   -4,922654480e-02    1,142983325e-02   -2,872622311e-01    6,675333977e-01    0,000000000e+00    0,000000000e+00    0,000000000e+00    0,000000000e+00
      492000000   -1,707802154e-02    6,599773653e-03    1,333468705e-01    7,041488886e-01    0,000000000e+00    0,000000000e+00    0,000000000e+00    0,000000000e+00
      506000000   -3,659314010e-03   -1,487434842e-02    4,973951578e-01    5,063600540e-01    0,000000000e+00    0,000000000e+00    0,000000000e+00    0,000000000e+00
      520000000   -5,591176916e-03   -2,955014072e-02    6,888582706e-01    1,436684132e-01    0,000000000e+00    0,000000000e+00    0,000000000e+00    0,000000000e+00
      534000000   -3,225502791e-03   -3,568635881e-02    6,446114779e-01   -2,594765127e-01    0,000000000e+00    0,000000000e+00    0,000000000e+00    0,000000000e+00
      548000000    8,165932260e-03   -5,271644145e-02    3,855571151e-01   -5,636926889e-01    0,000000000e+00    0,000000000e+00    0,000000000e+00    0,000000000e+00
      562000000    5,646043923e-03   -8,965168893e-02    7,615283597e-03   -6,708287597e-01    0,000000000e+00    0,000000000e+00    0,000000000e+00    0,000000000e+00
      576000000   -3,151420876e-02   -1,257457584e-01   -3,621228039e-01   -5,607551336e-01    0,000000000e+00    0,000000000e+00    0,000000000e+00    0,000000000e+00
      590000000   -9,511955827e-02   -1,275505871e-01   -6,163291335e-01   -2,708721161e-01    0,000000000e+00    0,000000000e+00    0,000000000e+00    0,000000000e+00
      604000000   -1,434753686e-01   -7,787346840e-02   -6,681197286e-01    1,266292036e-01    0,000000000e+00    0,000000000e+00    0,000000000e+00    0,000000000e+00
      618000000   -1,383907646e-01   -1,130920835e-02   -4,747185409e-01    4,856352210e-01    0,000000000e+00    0,000000000e+00    0,000000000e+00    0,000000000e+00
      632000000   -9,329868108e-02    2,144254558e-02   -1,143973172e-01    6,637179852e-01    0,000000000e+00    0,000000000e+00    0,000000000e+00    0,000000000e+00
      646000000   -5,483091995e-02    1,186589804e-02    2,730454206e-01    6,033263206e-01    0,000000000e+00    0,000000000e+00    0,000000000e+00    0,000000000e+00
      660000000   -4,741758108e-02   -9,081644006e-03    5,565502048e-01    3,401564956e-01    0,000000000e+00    0,000000000e+00    0,000000000e+00    0,000000000e+00
      674000000   -5,646277592e-02   -1,086982246e-02    6,442098618e-01   -3,967196867e-02    0,000000000e+00    0,000000000e+00    0,000000000e+00    0,000000000e+00
      688000000   -5,002240464e-02    3,501371713e-03    4,936349094e-01   -4,014915526e-01    0,000000000e+00    0,000000000e+00    0,000000000e+00    0,000000000e+00
      702000000   -2,629208751e-02    8,224816993e-03    1,583980769e-01   -6,068316698e-01    0,000000000e+00    0,000000000e+00    0,000000000e+00    0,000000000e+00
      716000000   -2,694707131e-03   -9,133974090e-03   -2,189297378e-01   -5,758806467e-01    0,000000000e+00    0,000000000e+00    0,000000000e+00    0,000000000e+00
      730000000    9,118641727e-03   -3,517618403e-02   -5,095100999e-01   -3,335666358e-01    0,000000000e+00    0,000000000e+00    0,000000000e+00    0,000000000e+00
      744000000    1,742497832e-02   -6,129101664e-02   -6,010073423e-01    3,271638975e-02    0,000000000e+00    0,000000000e+00    0,000000000e+00    0,000000000e+00
      758000000    2,159555629e-02   -1,034953818e-01   -4,549849033e-01    3,771799803e-01    0,000000000e+00    0,000000000e+00    0,000000000e+00    0,000000000e+00
      772000000   -4,722816870e-03   -1,729479134e-01   -1,387949586e-01    5,577699542e-01    0,000000000e+00    0,000000000e+00    0,000000000e+00    0,000000000e+00
      786000000   -1,051698402e-01   -2,318605185e-01    2,115594894e-01    5,194491744e-01    0,000000000e+00    0,000000000e+00    0,000000000e+00    0,000000000e+00
      800000000   -2,662627995e-01   -1,923095882e-01    4,710357189e-01    2,755242288e-01    0,000000000e+00    0,000000000e+00    0,000000000e+00    0,000000000e+00
      814000000   -3,653402627e-01    3,735597711e-03    5,078229308e-01   -8,904428780e-02    0,000000000e+00    0,000000000e+00    0,000000000e+00    0,000000000e+00
      828000000   -2,478679717e-01    2,325926125e-01    2,809129655e-01   -3,528261185e-01    0,000000000e+00    0,000000000e+00    0,000000000e+00    0,000000000e+00
      842000000    1,260361727e-02    2,789246738e-01   -1,586237550e-02   -3,631866872e-01    0,000000000e+00    0,000000000e+00    0,000000000e+00    0,000000000e+00
      856000000    2,124926448e-01    1,156894118e-01   -1,876672655e-01   -2,046618611e-01    0,000000000e+00    0,000000000e+00    0,000000000e+00    0,000000000e+00
      870000000    2,385439724e-01   -1,488737166e-01   -2,011391968e-01   -2,629607171e-02    0,000000000e+00    0,000000000e+00    0,000000000e+00    0,000000000e+00
      884000000    3,750844300e-02   -3,863469660e-01   -1,041246578e-01    7,079082727e-02    0,000000000e+00    0,000000000e+00    0,000000000e+00    0,000000000e+00
      898000000   -3,703165352e-01   -3,424606919e-01   -1,743284799e-02    2,759447508e-02    0,000000000e+00    0,000000000e+00    0,000000000e+00    0,000000000e+00
      912000000   -4,672322273e-01    1,385125965e-01   -1,059725955e-01    3,585944697e-02    0,000000000e+00    0,000000000e+00    0,000000000e+00    0,000000000e+00
      926000000   -9,473524988e-02    3,515544534e-01   -1,272807568e-01    1,343784928e-01    0,000000000e+00    0,000000000e+00    0,000000000e+00    0,000000000e+00
      940000000    1,827242523e-01    1,957527250e-01   -3,875288367e-02    2,163080871e-01    0,000000000e+00    0,000000000e+00    0,000000000e+00    0,000000000e+00
      954000000    2,563657165e-01   -5,018700659e-02    7,974064350e-02    2,283235043e-01    0,000000000e+00    0,000000000e+00    0,000000000e+00    0,000000000e+00
      968000000    1,762917191e-01   -2,598634064e-01    1,903347373e-01    1,798256040e-01    0,000000000e+00    0,000000000e+00    0,000000000e+00    0,000000000e+00
      982000000   -1,526436955e-02   -3,943437338e-01    2,794661820e-01    8,077344298e-02    0,000000000e+00    0,000000000e+00    0,000000000e+00    0,000000000e+00
      996000000   -2,723718584e-01   -3,744349480e-01    3,091129661e-01   -7,911882550e-02    0,000000000e+00    0,000000000e+00    0,000000000e+00    0,000000000e+00
     1010000000   -4,679321349e-01   -1,759223491e-01    2,238263041e-01   -2,512007654e-01    0,000000000e+00    0,000000000e+00    0,000000000e+00    0,000000000e+00
     1024000000   -4,642778635e-01    1,162894741e-01    2,326083183e-02   -3,291613460e-01    0,000000000e+00    0,000000000e+00    0,000000000e+00    0,000000000e+00
     1038000000   -2,609497309e-01    3,027277291e-01   -1,731496006e-01   -2,489351481e-01    0,000000000e+00    0,000000000e+00    0,000000000e+00    0,000000000e+00
     1052000000   -3,699186444e-02    3,059574664e-01   -2,566739619e-01   -7,745055109e-02    0,000000000e+00    0,000000000e+00    0,000000000e+00    0,000000000e+00
     1066000000    1,250274926e-01    2,063842118e-01   -2,258097678e-01    8,872789890e-02    0,000000000e+00    0,000000000e+00    0,000000000e+00    0,000000000e+00
     1080000000    2,043314874e-01    4,639715329e-02   -1,198832318e-01    1,929745376e-01    0,000000000e+00    0,000000000e+00    0,000000000e+00    0,000000000e+00
     1094000000    2,011285722e-01   -1,262099147e-01    1,800406724e-02    2,336032391e-01    0,000000000e+00    0,000000000e+00    0,000000000e+00    0,000000000e+00
     1108000000    1,026460305e-01   -2,875804007e-01    1,668972969e-01    2,082264721e-01    0,000000000e+00    0,000000000e+00    0,000000000e+00    0,000000000e+00
     1122000000   -9,752066433e-02   -3,685332239e-01    3,170061707e-01    8,909736574e-02    0,000000000e+00    0,000000000e+00    0,000000000e+00    0,000000000e+00
     1136000000   -3,439590335e-01   -2,656175494e-01    3,912371397e-01   -1,530862004e-01    0,000000000e+00    0,000000000e+00    0,000000000e+00    0,000000000e+00
     1150000000   -4,112729430e-01    3,937651590e-02    2,453317195e-01   -4,385781884e-01    0,000000000e+00    0,000000000e+00    0,000000000e+00    0,000000000e+00
     1164000000   -1,635013819e-01    2,170985937e-01   -9,286576509e-02   -5,159280300e-01    0,000000000e+00    0,000000000e+00    0,000000000e+00    0,000000000e+00
     1178000000    7,776506245e-02    8,832287788e-02   -3,567607403e-01   -3,483790755e-01    0,000000000e+00    0,000000000e+00    0,000000000e+00    0,000000000e+00
     1192000000    7,768604904e-02   -1,776941568e-01   -4,492430985e-01   -8,439479768e-02    0,000000000e+00    0,000000000e+00    0,000000000e+00    0,000000000e+00
     1206000000   -1,653468758e-01   -3,282283843e-01   -3,730465174e-01    1,864400506e-01    0,000000000e+00    0,000000000e+00    0,000000000e+00    0,000000000e+00
     1220000000   -4,519929588e-01   -1,813870966e-01   -1,041787788e-01    3,265809119e-01    0,000000000e+00    0,000000000e+00    0,000000000e+00    0,000000000e+00
     1234000000   -4,762637019e-01    1,659447402e-01    1,367339790e-01    2,213310599e-01    0,000000000e+00    0,000000000e+00    0,000000000e+00    0,000000000e+00
     1248000000   -2,401470393e-01    3,519681394e-01    1,913910210e-01    3,099528886e-02    0,000000000e+00    0,000000000e+00    0,000000000e+00    0,000000000e+00
     1262000000   -1,581504475e-04    3,319347203e-01    1,270362288e-01   -7,251352072e-02    0,000000000e+00    0,000000000e+00    0,000000000e+00    0,000000000e+00
     1276000000    1,592971534e-01    2,012387067e-01    5,486965552e-02   -9,313016385e-02    0,000000000e+00    0,000000000e+00    0,000000000e+00    0,000000000e+00
     1290000000    2,173832059e-01    3,345283121e-02   -6,749513705e-05   -7,418498397e-02    0,000000000e+00    0,000000000e+00    0,000000000e+00    0,000000000e+00
     1304000000    2,077888250e-01   -1,455240548e-01   -1,597726904e-02   -2,903849073e-02    0,000000000e+00    0,000000000e+00    0,000000000e+00    0,000000000e+00
     1318000000    1,135663092e-01   -3,133982122e-01   -1,052527130e-02    2,599910833e-02    0,000000000e+00    0,000000000e+00    0,000000000e+00    0,000000000e+00
     1332000000   -6,451993436e-02   -4,346319139e-01    4,192135110e-02    5,825011432e-02    0,000000000e+00    0,000000000e+00    0,000000000e+00    0,000000000e+00
     1346000000   -3,302783370e-01   -4,328072965e-01    1,429831684e-01    4,865342006e-02    0,000000000e+00    0,000000000e+00    0,000000000e+00    0,000000000e+00
     1360000000   -5,579488873e-01   -2,402722239e-01    1,169170812e-01   -7,801809162e-02    0,000000000e+00    0,000000000e+00    0,000000000e+00    0,000000000e+00
     1374000000   -6,194058657e-01    3,627120331e-02    1,092257798e-01    6,294550002e-02    0,000000000e+00    0,000000000e+00    0,000000000e+00    0,000000000e+00
     1388000000   -5,073022842e-01    2,835529149e-01    2,229372114e-01   -5,542114843e-03    0,000000000e+00    0,000000000e+00    0,000000000e+00    0,000000000e+00
     1402000000   -3,080919981e-01    4,257061779e-01    2,178811431e-01   -7,914566994e-02    0,000000000e+00    0,000000000e+00    0,000000000e+00    0,000000000e+00
     1416000000   -9,272170067e-02    4,223471284e-01    1,918430626e-01   -1,159278527e-01    0,000000000e+00    0,000000000e+00    0,000000000e+00    0,000000000e+00
     1430000000    7,157353312e-02    3,379699588e-01    1,549850404e-01   -1,321054995e-01    0,000000000e+00    0,000000000e+00    0,000000000e+00    0,000000000e+00
     1444000000    1,742926538e-01    1,995643973e-01    1,506350785e-01   -1,068042070e-01    0,000000000e+00    0,000000000e+00    0,000000000e+00    0,000000000e+00
     1458000000    2,171997279e-01    3,715295717e-02    1,507878602e-01   -8,069719374e-02    0,000000000e+00    0,000000000e+00    0,000000000e+00    0,000000000e+00
     1472000000    2,072574347e-01   -1,480142623e-01    1,465286911e-01   -4,707944021e-02    0,000000000e+00    0,000000000e+00    0,000000000e+00    0,000000000e+00
     1486000000    1,036154404e-01   -3,208306432e-01    1,621091068e-01   -1,428896794e-03    0,000000000e+00    0,000000000e+00    0,000000000e+00    0,000000000e+00
     1500000000   -9,456443042e-02   -4,596556723e-01    2,070359737e-01    6,523004174e-02    0,000000000e+00    0,000000000e+00    0,000000000e+00    0,000000000e+00
