! NanoVNA-App
! Date: 2025-09-25 14:24:53
! Start: 100MHz Stop: 1,5GHz Points: 101
! S-Parameter data: F S11 S21 S12 S22
# Hz S RI R 50
!     Frequency           S11_Real           S11_Imag           S21_Real           S21_Imag           S12_Real           S12_Imag           S22_Real           S22_Imag
      100000000   -2,909511700e-02   -4,123768304e-03    3,744846582e-01   -7,220251560e-01    0,000000000e+00    0,000000000e+00    0,000000000e+00    0,000000000e+00
      114000000   -1,657589898e-02    1,158452779e-02   -8,895979077e-02   -8,058646321e-01    0,000000000e+00    0,000000000e+00    0,000000000e+00    0,000000000e+00
      128000000    3,458327381e-03    1,049870532e-02   -5,146898627e-01   -6,210873723e-01    0,000000000e+00    0,000000000e+00    0,000000000e+00    0,000000000e+00
      142000000    1,445739251e-02   -3,082461888e-03   -7,675888538e-01   -2,370883822e-01    0,000000000e+00    0,000000000e+00    0,000000000e+00    0,000000000e+00
      156000000    1,431890298e-02   -1,493216585e-02   -7,643606663e-01    2,187507153e-01    0,000000000e+00    0,000000000e+00    0,000000000e+00    0,000000000e+00
      170000000    1,653560437e-02   -2,244697139e-02   -5,185786486e-01    6,049742699e-01    0,000000000e+00    0,000000000e+00    0,000000000e+00    0,000000000e+00
      184000000    2,099614032e-02   -3,701953962e-02   -1,018424779e-01    7,863671780e-01    0,000000000e+00    0,000000000e+00    0,000000000e+00    0,000000000e+00
      198000000    1,310337428e-02   -6,261626631e-02    3,429247141e-01    7,129586935e-01    0,000000000e+00    0,000000000e+00    0,000000000e+00    0,000000000e+00
      212000000   -1,866488159e-02   -8,171261102e-02    6,783829927e-01    4,104644954e-01    0,000000000e+00    0,000000000e+00    0,000000000e+00    0,000000000e+00
      226000000   -6,209510192e-02   -6,973192096e-02    7,961756587e-01   -2,971143462e-02    0,000000000e+00    0,000000000e+00    0,000000000e+00    0,000000000e+00
      240000000   -8,329956234e-02   -2,607551217e-02    6,472628713e-01   -4,666622877e-01    0,000000000e+00    0,000000000e+00    0,000000000e+00    0,000000000e+00
      254000000   -6,431689858e-02    1,743656211e-02    2,770978212e-01   -7,437934279e-01    0,000000000e+00    0,000000000e+00    0,000000000e+00    0,000000000e+00
      268000000   -2,412520349e-02    2,943293005e-02   -1,771096885e-01   -7,652637959e-01    0,000000000e+00    0,000000000e+00    0,000000000e+00    0,000000000e+00
      282000000    4,127168562e-03    1,203567628e-02   -5,627147555e-01   -5,371844769e-01    0,000000000e+00    0,000000000e+00    0,000000000e+00    0,000000000e+00
      296000000    9,429628961e-03   -7,713512518e-03   -7,608231902e-01   -1,394154280e-01    0,000000000e+00    0,000000000e+00    0,000000000e+00    0,000000000e+00
      310000000    1,087245438e-02   -1,607302018e-02   -7,120228410e-01    2,967423201e-01    0,000000000e+00    0,000000000e+00    0,000000000e+00    0,000000000e+00
      324000000    1,954996213e-02   -2,667540498e-02   -4,282883704e-01    6,380555034e-01    0,000000000e+00    0,000000000e+00    0,000000000e+00    0,000000000e+00
      338000000    2,546975203e-02   -5,192854628e-02   -8,177463897e-03    7,622094750e-01    0,000000000e+00    0,000000000e+00    0,000000000e+00    0,000000000e+00
      352000000    7,584740873e-03   -8,495864272e-02    4,061539769e-01    6,411429048e-01    0,000000000e+00    0,000000000e+00    0,000000000e+00    0,000000000e+00
      366000000   -3,502446041e-02   -9,600260109e-02    6,905699968e-01    3,124959171e-01    0,000000000e+00    0,000000000e+00    0,000000000e+00    0,000000000e+00
      380000000   -7,162389159e-02   -7,149768621e-02    7,479230762e-01   -1,247726083e-01    0,000000000e+00    0,000000000e+00    0,000000000e+00    0,000000000e+00
      394000000   -7,323773205e-02   -3,248567879e-02    5,484015942e-01   -5,215079784e-01    0,000000000e+00    0,000000000e+00    0,000000000e+00    0,000000000e+00
      408000000   -4,676447436e-02   -1,536642760e-02    1,621731371e-01   -7,319704294e-01    0,000000000e+00    0,000000000e+00    0,000000000e+00    0,000000000e+00
      422000000   -2,819565125e-02   -3,142939508e-02   -2,663564682e-01   -6,947621107e-01    0,000000000e+00    0,000000000e+00    0,000000000e+00    0,000000000e+00
      436000000   -4,004316777e-02   -5,204802006e-02   -6,033488512e-01   -4,343711734e-01    0,000000000e+00    0,000000000e+00    0,000000000e+00    0,000000000e+00
      450000000   -6,767493486e-02   -4,477147385e-02   -7,402687073e-01   -2,470600605e-02    0,000000000e+00    0,000000000e+00    0,000000000e+00    0,000000000e+00
      464000000   -7,408960909e-02   -1,217614673e-02   -6,215575933e-01    3,950429559e-01    0,000000000e+00    0,000000000e+00    0,000000000e+00    0,000000000e+00
      478000000   -4,916345328e-02    1,161219273e-02   -2,862644792e-01    6,679260135e-01    0,000000000e+00    0,000000000e+00    0,000000000e+00    0,000000000e+00
      492000000   -1,688284613e-02    6,736534648e-03    1,343089342e-01    7,039659023e-01    0,000000000e+00    0,000000000e+00    0,000000000e+00    0,000000000e+00
      506000000   -3,597694449e-03   -1,522313058e-02    4,973296821e-01    5,059918761e-01    0,000000000e+00    0,000000000e+00    0,000000000e+00    0,000000000e+00
      520000000   -5,742645357e-03   -2,971957065e-02    6,885864139e-01    1,441121697e-01    0,000000000e+00    0,000000000e+00    0,000000000e+00    0,000000000e+00
      534000000   -2,926604357e-03   -3,597753495e-02    6,449393034e-01   -2,598285973e-01    0,000000000e+00    0,000000000e+00    0,000000000e+00    0,000000000e+00
      548000000    7,892824709e-03   -5,305057392e-02    3,852367401e-01   -5,644618869e-01    0,000000000e+00    0,000000000e+00    0,000000000e+00    0,000000000e+00
      562000000    5,870747380e-03   -8,982545882e-02    8,475008421e-03   -6,724607348e-01    0,000000000e+00    0,000000000e+00    0,000000000e+00    0,000000000e+00
      576000000   -3,170347959e-02   -1,261096299e-01   -3,624520302e-01   -5,615894198e-01    0,000000000e+00    0,000000000e+00    0,000000000e+00    0,000000000e+00
      590000000   -9,501896799e-02   -1,279698163e-01   -6,169094443e-01   -2,711702585e-01    0,000000000e+00    0,000000000e+00    0,000000000e+00    0,000000000e+00
      604000000   -1,434573680e-01   -7,787808776e-02   -6,678759456e-01    1,266301721e-01    0,000000000e+00    0,000000000e+00    0,000000000e+00    0,000000000e+00
      618000000   -1,378430277e-01   -1,134416647e-02   -4,755136371e-01    4,861655235e-01    0,000000000e+00    0,000000000e+00    0,000000000e+00    0,000000000e+00
      632000000   -9,257168323e-02    2,201920934e-02   -1,143850014e-01    6,631866693e-01    0,000000000e+00    0,000000000e+00    0,000000000e+00    0,000000000e+00
      646000000   -5,504053831e-02    1,142542716e-02    2,745168507e-01    6,039389968e-01    0,000000000e+00    0,000000000e+00    0,000000000e+00    0,000000000e+00
      660000000   -4,867480323e-02   -8,495937102e-03    5,577684045e-01    3,401378393e-01    0,000000000e+00    0,000000000e+00    0,000000000e+00    0,000000000e+00
      674000000   -5,528326333e-02   -1,019017305e-02    6,445245147e-01   -3,933989257e-02    0,000000000e+00    0,000000000e+00    0,000000000e+00    0,000000000e+00
      688000000   -5,036540702e-02    3,668263322e-03    4,934309423e-01   -4,015443027e-01    0,000000000e+00    0,000000000e+00    0,000000000e+00    0,000000000e+00
      702000000   -2,629960701e-02    7,521431427e-03    1,617587209e-01   -6,044747233e-01    0,000000000e+00    0,000000000e+00    0,000000000e+00    0,000000000e+00
      716000000   -1,311597298e-03   -8,668817580e-03   -2,184475660e-01   -5,749095678e-01    0,000000000e+00    0,000000000e+00    0,000000000e+00    0,000000000e+00
      730000000    9,661450051e-03   -3,375900537e-02   -5,094327927e-01   -3,329605162e-01    0,000000000e+00    0,000000000e+00    0,000000000e+00    0,000000000e+00
      744000000    1,616065577e-02   -6,050291657e-02   -6,005208492e-01    3,296203166e-02    0,000000000e+00    0,000000000e+00    0,000000000e+00    0,000000000e+00
      758000000    2,177541330e-02   -1,040228009e-01   -4,545905590e-01    3,773854673e-01    0,000000000e+00    0,000000000e+00    0,000000000e+00    0,000000000e+00
      772000000   -4,734774120e-03   -1,742627472e-01   -1,403704733e-01    5,573891401e-01    0,000000000e+00    0,000000000e+00    0,000000000e+00    0,000000000e+00
      786000000   -1,049528271e-01   -2,331714779e-01    2,121093422e-01    5,201846361e-01    0,000000000e+00    0,000000000e+00    0,000000000e+00    0,000000000e+00
      800000000   -2,654346228e-01   -1,932092458e-01    4,710445404e-01    2,761074305e-01    0,000000000e+00    0,000000000e+00    0,000000000e+00    0,000000000e+00
      814000000   -3,637318015e-01    3,059078474e-03    5,077716708e-01   -8,832072467e-02    0,000000000e+00    0,000000000e+00    0,000000000e+00    0,000000000e+00
      828000000   -2,486377656e-01    2,320739776e-01    2,820252776e-01   -3,521749675e-01    0,000000000e+00    0,000000000e+00    0,000000000e+00    0,000000000e+00
      842000000    1,263588574e-02    2,777712643e-01   -1,583018154e-02   -3,629532456e-01    0,000000000e+00    0,000000000e+00    0,000000000e+00    0,000000000e+00
      856000000    2,123604417e-01    1,152817383e-01   -1,882492304e-01   -2,045539618e-01    0,000000000e+00    0,000000000e+00    0,000000000e+00    0,000000000e+00
      870000000    2,389647514e-01   -1,492770761e-01   -2,006948143e-01   -2,620387450e-02    0,000000000e+00    0,000000000e+00    0,000000000e+00    0,000000000e+00
      884000000    3,801221400e-02   -3,872433901e-01   -1,035097241e-01    7,055922598e-02    0,000000000e+00    0,000000000e+00    0,000000000e+00    0,000000000e+00
      898000000   -3,701782823e-01   -3,412995636e-01   -1,736057363e-02    2,782499418e-02    0,000000000e+00    0,000000000e+00    0,000000000e+00    0,000000000e+00
      912000000   -4,673931897e-01    1,373495758e-01   -1,059429646e-01    3,029736690e-02    0,000000000e+00    0,000000000e+00    0,000000000e+00    0,000000000e+00
      926000000   -9,721910208e-02    3,504910171e-01   -1,299188584e-01    1,336558461e-01    0,000000000e+00    0,000000000e+00    0,000000000e+00    0,000000000e+00
      940000000    1,833863556e-01    1,924993843e-01   -3,910540044e-02    2,169947773e-01    0,000000000e+00    0,000000000e+00    0,000000000e+00    0,000000000e+00
      954000000    2,532356381e-01   -4,823033512e-02    7,869134098e-02    2,277194560e-01    0,000000000e+00    0,000000000e+00    0,000000000e+00    0,000000000e+00
      968000000    1,744426042e-01   -2,640426755e-01    1,911151707e-01    1,786167771e-01    0,000000000e+00    0,000000000e+00    0,000000000e+00    0,000000000e+00
      982000000   -1,598875783e-02   -3,949712217e-01    2,785623670e-01    8,003465831e-02    0,000000000e+00    0,000000000e+00    0,000000000e+00    0,000000000e+00
      996000000   -2,713658512e-01   -3,789725304e-01    3,092888892e-01   -7,893805951e-02    0,000000000e+00    0,000000000e+00    0,000000000e+00    0,000000000e+00
     1010000000   -4,740383625e-01   -1,727195531e-01    2,209850103e-01   -2,523227930e-01    0,000000000e+00    0,000000000e+00    0,000000000e+00    0,000000000e+00
     1024000000   -4,633576572e-01    1,154102162e-01    2,195413038e-02   -3,302464485e-01    0,000000000e+00    0,000000000e+00    0,000000000e+00    0,000000000e+00
     1038000000   -2,669532895e-01    2,961824238e-01   -1,737229824e-01   -2,463852763e-01    0,000000000e+00    0,000000000e+00    0,000000000e+00    0,000000000e+00
     1052000000   -3,877370059e-02    3,136933446e-01   -2,563479841e-01   -7,700231671e-02    0,000000000e+00    0,000000000e+00    0,000000000e+00    0,000000000e+00
     1066000000    1,245125607e-01    2,055103630e-01   -2,242012173e-01    8,505010605e-02    0,000000000e+00    0,000000000e+00    0,000000000e+00    0,000000000e+00
     1080000000    2,079428434e-01    4,951587319e-02   -1,216149926e-01    1,908840835e-01    0,000000000e+00    0,000000000e+00    0,000000000e+00    0,000000000e+00
     1094000000    2,049619108e-01   -1,281398833e-01    1,775722019e-02    2,350932360e-01    0,000000000e+00    0,000000000e+00    0,000000000e+00    0,000000000e+00
     1108000000    9,858671576e-02   -2,880595326e-01    1,697530597e-01    2,073787749e-01    0,000000000e+00    0,000000000e+00    0,000000000e+00    0,000000000e+00
     1122000000   -9,987743199e-02   -3,711577952e-01    3,161670864e-01    9,096479416e-02    0,000000000e+00    0,000000000e+00    0,000000000e+00    0,000000000e+00
     1136000000   -3,508172631e-01   -2,678009570e-01    3,931083083e-01   -1,517291516e-01    0,000000000e+00    0,000000000e+00    0,000000000e+00    0,000000000e+00
     1150000000   -4,034011364e-01    3,774233535e-02    2,452742457e-01   -4,361149967e-01    0,000000000e+00    0,000000000e+00    0,000000000e+00    0,000000000e+00
     1164000000   -1,640260667e-01    2,179408669e-01   -9,593679756e-02   -5,161473155e-01    0,000000000e+00    0,000000000e+00    0,000000000e+00    0,000000000e+00
     1178000000    7,401165366e-02    8,162843436e-02   -3,574934006e-01   -3,483009338e-01    0,000000000e+00    0,000000000e+00    0,000000000e+00    0,000000000e+00
     1192000000    7,453875989e-02   -1,789799929e-01   -4,531973302e-01   -8,585090935e-02    0,000000000e+00    0,000000000e+00    0,000000000e+00    0,000000000e+00
     1206000000   -1,631150097e-01   -3,274183869e-01   -3,704449534e-01    1,891029328e-01    0,000000000e+00    0,000000000e+00    0,000000000e+00    0,000000000e+00
     1220000000   -4,507564902e-01   -1,747207046e-01   -1,061593965e-01    3,270203173e-01    0,000000000e+00    0,000000000e+00    0,000000000e+00    0,000000000e+00
     1234000000   -4,732758701e-01    1,707737595e-01    1,406131089e-01    2,222026289e-01    0,000000000e+00    0,000000000e+00    0,000000000e+00    0,000000000e+00
     1248000000   -2,405941635e-01    3,563154340e-01    1,917719394e-01    3,806999698e-02    0,000000000e+00    0,000000000e+00    0,000000000e+00    0,000000000e+00
     1262000000   -2,037181519e-03    3,276425004e-01    1,249754205e-01   -7,240778953e-02    0,000000000e+00    0,000000000e+00    0,000000000e+00    0,000000000e+00
     1276000000    1,546255499e-01    1,962913424e-01    5,307509378e-02   -9,950932860e-02    0,000000000e+00    0,000000000e+00    0,000000000e+00    0,000000000e+00
     1290000000    2,148880213e-01    3,074015491e-02    3,298017837e-04   -7,403723896e-02    0,000000000e+00    0,000000000e+00    0,000000000e+00    0,000000000e+00
     1304000000    2,064460665e-01   -1,453074217e-01   -1,979797892e-02   -3,154466674e-02    0,000000000e+00    0,000000000e+00    0,000000000e+00    0,000000000e+00
     1318000000    1,115333959e-01   -3,126272857e-01   -6,338075735e-03    2,140584029e-02    0,000000000e+00    0,000000000e+00    0,000000000e+00    0,000000000e+00
     1332000000   -6,880266219e-02   -4,362708032e-01    4,625950009e-02    5,702523887e-02    0,000000000e+00    0,000000000e+00    0,000000000e+00    0,000000000e+00
     1346000000   -3,309357166e-01   -4,354740381e-01    1,503930092e-01    4,303979129e-02    0,000000000e+00    0,000000000e+00    0,000000000e+00    0,000000000e+00
     1360000000   -5,513378382e-01   -2,438563704e-01    1,179199964e-01   -8,368143439e-02    0,000000000e+00    0,000000000e+00    0,000000000e+00    0,000000000e+00
     1374000000   -6,172242761e-01    3,060593829e-02    1,174244508e-01    5,691794306e-02    0,000000000e+00    0,000000000e+00    0,000000000e+00    0,000000000e+00
     1388000000   -5,106220841e-01    2,981732786e-01    2,253521830e-01    9,519935702e-04    0,000000000e+00    0,000000000e+00    0,000000000e+00    0,000000000e+00
     1402000000   -3,054905534e-01    4,129482508e-01    2,359193414e-01   -9,295427054e-02    0,000000000e+00    0,000000000e+00    0,000000000e+00    0,000000000e+00
     1416000000   -9,998275340e-02    4,236687720e-01    1,881962121e-01   -1,120096669e-01    0,000000000e+00    0,000000000e+00    0,000000000e+00    0,000000000e+00
     1430000000    6,562257558e-02    3,372804224e-01    1,635379344e-01   -9,541682154e-02    0,000000000e+00    0,000000000e+00    0,000000000e+00    0,000000000e+00
     1444000000    1,794349551e-01    1,981507093e-01    1,584742367e-01   -1,104078516e-01    0,000000000e+00    0,000000000e+00    0,000000000e+00    0,000000000e+00
     1458000000    2,246967405e-01    3,620353714e-02    1,550943106e-01   -8,220662177e-02    0,000000000e+00    0,000000000e+00    0,000000000e+00    0,000000000e+00
     1472000000    2,065044194e-01   -1,406940818e-01    1,554950774e-01   -5,160845444e-02    0,000000000e+00    0,000000000e+00    0,000000000e+00    0,000000000e+00
     1486000000    1,035651118e-01   -3,222478628e-01    1,544840336e-01   -1,460048137e-03    0,000000000e+00    0,000000000e+00    0,000000000e+00    0,000000000e+00
     1500000000   -8,954256028e-02   -4,544820189e-01    2,225983590e-01    5,387797207e-02    0,000000000e+00    0,000000000e+00    0,000000000e+00    0,000000000e+00
