! NanoVNA-App
! Date: 2025-09-25 14:22:29
! Start: 100MHz Stop: 1,5GHz Points: 101
! S-Parameter data: F S11 S21 S12 S22
# Hz S RI R 50
!     Frequency           S11_Real           S11_Imag           S21_Real           S21_Imag           S12_Real           S12_Imag           S22_Real           S22_Imag
      100000000   -2,908900380e-02   -4,124103580e-03    3,744478524e-01   -7,220969796e-01    0,000000000e+00    0,000000000e+00    0,000000000e+00    0,000000000e+00
      114000000   -1,661698706e-02    1,160070579e-02   -8,894210309e-02   -8,056931496e-01    0,000000000e+00    0,000000000e+00    0,000000000e+00    0,000000000e+00
      128000000    3,455666592e-03    1,056303922e-02   -5,147796273e-01   -6,210274696e-01    0,000000000e+00    0,000000000e+00    0,000000000e+00    0,000000000e+00
      142000000    1,448167115e-02   -3,035377944e-03   -7,675126791e-01   -2,368319631e-01    0,000000000e+00    0,000000000e+00    0,000000000e+00    0,000000000e+00
      156000000    1,542008854e-02   -1,479791850e-02   -7,692741752e-01    2,233841121e-01    0,000000000e+00    0,000000000e+00    0,000000000e+00    0,000000000e+00
      170000000    1,657954603e-02   -2,256124839e-02   -5,188367367e-01    6,051643491e-01    0,000000000e+00    0,000000000e+00    0,000000000e+00    0,000000000e+00
      184000000    2,098345757e-02   -3,705896437e-02   -1,015851423e-01    7,862843275e-01    0,000000000e+00    0,000000000e+00    0,000000000e+00    0,000000000e+00
      198000000    1,309895515e-02   -6,262765825e-02    3,429731429e-01    7,132648230e-01    0,000000000e+00    0,000000000e+00    0,000000000e+00    0,000000000e+00
      212000000   -1,868848503e-02   -8,166319132e-02    6,781006455e-01    4,106545746e-01    0,000000000e+00    0,000000000e+00    0,000000000e+00    0,000000000e+00
      226000000   -6,200412288e-02   -6,971329451e-02    7,960377932e-01   -2,969009057e-02    0,000000000e+00    0,000000000e+00    0,000000000e+00    0,000000000e+00
      240000000   -8,313445002e-02   -2,609616332e-02    6,472117901e-01   -4,666051865e-01    0,000000000e+00    0,000000000e+00    0,000000000e+00    0,000000000e+00
      254000000   -6,435881555e-02    1,722778007e-02    2,772432268e-01   -7,439817190e-01    0,000000000e+00    0,000000000e+00    0,000000000e+00    0,000000000e+00
      268000000   -2,427238412e-02    2,950929292e-02   -1,774283648e-01   -7,652103305e-01    0,000000000e+00    0,000000000e+00    0,000000000e+00    0,000000000e+00
      282000000    4,240126815e-03    1,217575744e-02   -5,624246597e-01   -5,371859670e-01    0,000000000e+00    0,000000000e+00    0,000000000e+00    0,000000000e+00
      296000000    9,515332058e-03   -7,701837458e-03   -7,609164119e-01   -1,394271404e-01    0,000000000e+00    0,000000000e+00    0,000000000e+00    0,000000000e+00
      310000000    1,056746859e-02   -1,605101116e-02   -7,137184739e-01    2,963813841e-01    0,000000000e+00    0,000000000e+00    0,000000000e+00    0,000000000e+00
      324000000    1,956023648e-02   -2,633511275e-02   -4,273767769e-01    6,370230913e-01    0,000000000e+00    0,000000000e+00    0,000000000e+00    0,000000000e+00
      338000000    2,508290857e-02   -5,185677484e-02   -8,475923911e-03    7,621886730e-01    0,000000000e+00    0,000000000e+00    0,000000000e+00    0,000000000e+00
      352000000    7,506900001e-03   -8,459698409e-02    4,047751427e-01    6,408668756e-01    0,000000000e+00    0,000000000e+00    0,000000000e+00    0,000000000e+00
      366000000   -3,471888602e-02   -9,615622461e-02    6,913337111e-01    3,126464486e-01    0,000000000e+00    0,000000000e+00    0,000000000e+00    0,000000000e+00
      380000000   -7,139049470e-02   -7,114791125e-02    7,479007840e-01   -1,248788908e-01    0,000000000e+00    0,000000000e+00    0,000000000e+00    0,000000000e+00
      394000000   -7,302130014e-02   -3,260171041e-02    5,472138524e-01   -5,210916996e-01    0,000000000e+00    0,000000000e+00    0,000000000e+00    0,000000000e+00
      408000000   -4,687146842e-02   -1,544428896e-02    1,629153341e-01   -7,319507599e-01    0,000000000e+00    0,000000000e+00    0,000000000e+00    0,000000000e+00
      422000000   -2,807378024e-02   -3,145094961e-02   -2,650626600e-01   -6,963568926e-01    0,000000000e+00    0,000000000e+00    0,000000000e+00    0,000000000e+00
      436000000   -4,026826471e-02   -5,198014155e-02   -6,020954251e-01   -4,335987568e-01    0,000000000e+00    0,000000000e+00    0,000000000e+00    0,000000000e+00
      450000000   -6,761893630e-02   -4,492968693e-02   -7,403897643e-01   -2,513422444e-02    0,000000000e+00    0,000000000e+00    0,000000000e+00    0,000000000e+00
      464000000   -7,441625744e-02   -1,239044312e-02   -6,215262413e-01    3,941562176e-01    0,000000000e+00    0,000000000e+00    0,000000000e+00    0,000000000e+00
      478000000   -4,889910296e-02    1,157448627e-02   -2,858434618e-01    6,680567861e-01    0,000000000e+00    0,000000000e+00    0,000000000e+00    0,000000000e+00
      492000000   -1,666856371e-02    6,191041786e-03    1,342328489e-01    7,043545842e-01    0,000000000e+00    0,000000000e+00    0,000000000e+00    0,000000000e+00
      506000000   -4,093248863e-03   -1,514817681e-02    4,972118139e-01    5,058924556e-01    0,000000000e+00    0,000000000e+00    0,000000000e+00    0,000000000e+00
      520000000   -5,865192041e-03   -2,922817133e-02    6,895301938e-01    1,436280310e-01    0,000000000e+00    0,000000000e+00    0,000000000e+00    0,000000000e+00
      534000000   -3,541858168e-03   -3,569125384e-02    6,447445750e-01   -2,596254349e-01    0,000000000e+00    0,000000000e+00    0,000000000e+00    0,000000000e+00
      548000000    7,914176211e-03   -5,283113196e-02    3,850856423e-01   -5,638432503e-01    0,000000000e+00    0,000000000e+00    0,000000000e+00    0,000000000e+00
      562000000    5,990436301e-03   -8,986873180e-02    8,593998849e-03   -6,719010472e-01    0,000000000e+00    0,000000000e+00    0,000000000e+00    0,000000000e+00
      576000000   -3,098331951e-02   -1,262287647e-01   -3,618236780e-01   -5,610049367e-01    0,000000000e+00    0,000000000e+00    0,000000000e+00    0,000000000e+00
      590000000   -9,481552243e-02   -1,276233792e-01   -6,146385074e-01   -2,720403671e-01    0,000000000e+00    0,000000000e+00    0,000000000e+00    0,000000000e+00
      604000000   -1,429028958e-01   -7,775792480e-02   -6,673728824e-01    1,266171187e-01    0,000000000e+00    0,000000000e+00    0,000000000e+00    0,000000000e+00
      618000000   -1,384135783e-01   -1,174478047e-02   -4,754689336e-01    4,853932858e-01    0,000000000e+00    0,000000000e+00    0,000000000e+00    0,000000000e+00
      632000000   -9,313675016e-02    2,115786821e-02   -1,140601113e-01    6,629242897e-01    0,000000000e+00    0,000000000e+00    0,000000000e+00    0,000000000e+00
      646000000   -5,573594943e-02    1,250758581e-02    2,742361724e-01    6,030516624e-01    0,000000000e+00    0,000000000e+00    0,000000000e+00    0,000000000e+00
      660000000   -4,768911377e-02   -8,493193425e-03    5,580815077e-01    3,400202990e-01    0,000000000e+00    0,000000000e+00    0,000000000e+00    0,000000000e+00
      674000000   -5,633728951e-02   -1,081403717e-02    6,440898776e-01   -3,972340375e-02    0,000000000e+00    0,000000000e+00    0,000000000e+00    0,000000000e+00
      688000000   -5,002536625e-02    3,668870078e-03    4,933788180e-01   -4,018952549e-01    0,000000000e+00    0,000000000e+00    0,000000000e+00    0,000000000e+00
      702000000   -2,624263614e-02    7,664169185e-03    1,605098695e-01   -6,040196419e-01    0,000000000e+00    0,000000000e+00    0,000000000e+00    0,000000000e+00
      716000000   -1,320224721e-03   -9,047551081e-03   -2,180066854e-01   -5,748953223e-01    0,000000000e+00    0,000000000e+00    0,000000000e+00    0,000000000e+00
      730000000    9,914743714e-03   -3,415375575e-02   -5,091872215e-01   -3,331758678e-01    0,000000000e+00    0,000000000e+00    0,000000000e+00    0,000000000e+00
      744000000    1,677471027e-02   -6,152750552e-02   -6,010641456e-01    3,307882324e-02    0,000000000e+00    0,000000000e+00    0,000000000e+00    0,000000000e+00
      758000000    2,253758349e-02   -1,032626778e-01   -4,545713961e-01    3,775485158e-01    0,000000000e+00    0,000000000e+00    0,000000000e+00    0,000000000e+00
      772000000   -4,309926648e-03   -1,732361168e-01   -1,395496577e-01    5,580522418e-01    0,000000000e+00    0,000000000e+00    0,000000000e+00    0,000000000e+00
      786000000   -1,059242338e-01   -2,319401056e-01    2,114641517e-01    5,189504027e-01    0,000000000e+00    0,000000000e+00    0,000000000e+00    0,000000000e+00
      800000000   -2,653817832e-01   -1,931916475e-01    4,710604846e-01    2,754748762e-01    0,000000000e+00    0,000000000e+00    0,000000000e+00    0,000000000e+00
      814000000   -3,634621501e-01    3,633525455e-03    5,077837110e-01   -8,863942325e-02    0,000000000e+00    0,000000000e+00    0,000000000e+00    0,000000000e+00
      828000000   -2,468841821e-01    2,337092459e-01    2,805531323e-01   -3,520057797e-01    0,000000000e+00    0,000000000e+00    0,000000000e+00    0,000000000e+00
      842000000    1,257518213e-02    2,785071433e-01   -1,662231795e-02   -3,626657128e-01    0,000000000e+00    0,000000000e+00    0,000000000e+00    0,000000000e+00
      856000000    2,128162682e-01    1,155613437e-01   -1,882115304e-01   -2,041544318e-01    0,000000000e+00    0,000000000e+00    0,000000000e+00    0,000000000e+00
      870000000    2,389210314e-01   -1,484694183e-01   -2,005296499e-01   -2,540675923e-02    0,000000000e+00    0,000000000e+00    0,000000000e+00    0,000000000e+00
      884000000    3,743530810e-02   -3,866640329e-01   -1,038810387e-01    7,131184638e-02    0,000000000e+00    0,000000000e+00    0,000000000e+00    0,000000000e+00
      898000000   -3,692692518e-01   -3,419866562e-01   -1,743847132e-02    2,728333510e-02    0,000000000e+00    0,000000000e+00    0,000000000e+00    0,000000000e+00
      912000000   -4,660705030e-01    1,386101246e-01   -1,170479208e-01    2,324454486e-02    0,000000000e+00    0,000000000e+00    0,000000000e+00    0,000000000e+00
      926000000   -9,530293941e-02    3,497804403e-01   -1,281553954e-01    1,315860152e-01    0,000000000e+00    0,000000000e+00    0,000000000e+00    0,000000000e+00
      940000000    1,857647449e-01    1,927457601e-01   -3,791828454e-02    2,155471444e-01    0,000000000e+00    0,000000000e+00    0,000000000e+00    0,000000000e+00
      954000000    2,541456521e-01   -4,947746173e-02    7,868602872e-02    2,277467996e-01    0,000000000e+00    0,000000000e+00    0,000000000e+00    0,000000000e+00
      968000000    1,748879999e-01   -2,639024556e-01    1,922549903e-01    1,798507720e-01    0,000000000e+00    0,000000000e+00    0,000000000e+00    0,000000000e+00
      982000000   -1,518370304e-02   -3,940345347e-01    2,802973986e-01    7,985496521e-02    0,000000000e+00    0,000000000e+00    0,000000000e+00    0,000000000e+00
      996000000   -2,717671692e-01   -3,768597543e-01    3,084614873e-01   -7,784897089e-02    0,000000000e+00    0,000000000e+00    0,000000000e+00    0,000000000e+00
     1010000000   -4,658237994e-01   -1,701713055e-01    2,231105566e-01   -2,521669865e-01    0,000000000e+00    0,000000000e+00    0,000000000e+00    0,000000000e+00
     1024000000   -4,618281424e-01    1,147019491e-01    2,265967242e-02   -3,293437362e-01    0,000000000e+00    0,000000000e+00    0,000000000e+00    0,000000000e+00
     1038000000   -2,654987276e-01    3,012754023e-01   -1,744930893e-01   -2,472466826e-01    0,000000000e+00    0,000000000e+00    0,000000000e+00    0,000000000e+00
     1052000000   -3,351429105e-02    3,078497946e-01   -2,584766150e-01   -7,686821371e-02    0,000000000e+00    0,000000000e+00    0,000000000e+00    0,000000000e+00
     1066000000    1,290913820e-01    2,045551389e-01   -2,246100456e-01    8,584219217e-02    0,000000000e+00    0,000000000e+00    0,000000000e+00    0,000000000e+00
     1080000000    2,084049731e-01    5,106746033e-02   -1,225624382e-01    1,931578666e-01    0,000000000e+00    0,000000000e+00    0,000000000e+00    0,000000000e+00
     1094000000    1,997083575e-01   -1,251840442e-01    1,728570461e-02    2,345672250e-01    0,000000000e+00    0,000000000e+00    0,000000000e+00    0,000000000e+00
     1108000000    1,039110795e-01   -2,858344018e-01    1,702709645e-01    2,054531574e-01    0,000000000e+00    0,000000000e+00    0,000000000e+00    0,000000000e+00
     1122000000   -1,018299833e-01   -3,725116849e-01    3,177630901e-01    9,297356755e-02    0,000000000e+00    0,000000000e+00    0,000000000e+00    0,000000000e+00
     1136000000   -3,465800881e-01   -2,729558945e-01    3,895039558e-01   -1,503591686e-01    0,000000000e+00    0,000000000e+00    0,000000000e+00    0,000000000e+00
     1150000000   -4,072587490e-01    3,308409080e-02    2,434321195e-01   -4,370492995e-01    0,000000000e+00    0,000000000e+00    0,000000000e+00    0,000000000e+00
     1164000000   -1,577084213e-01    2,164999396e-01   -9,517606348e-02   -5,126421452e-01    0,000000000e+00    0,000000000e+00    0,000000000e+00    0,000000000e+00
     1178000000    7,825633883e-02    8,504974842e-02   -3,543083966e-01   -3,480798304e-01    0,000000000e+00    0,000000000e+00    0,000000000e+00    0,000000000e+00
     1192000000    7,770844549e-02   -1,722556502e-01   -4,520525932e-01   -8,003205061e-02    0,000000000e+00    0,000000000e+00    0,000000000e+00    0,000000000e+00
     1206000000   -1,608916521e-01   -3,281742632e-01   -3,668444753e-01    1,887964904e-01    0,000000000e+00    0,000000000e+00    0,000000000e+00    0,000000000e+00
     1220000000   -4,533877373e-01   -1,763868779e-01   -1,058085114e-01    3,242583871e-01    0,000000000e+00    0,000000000e+00    0,000000000e+00    0,000000000e+00
     1234000000   -4,712706506e-01    1,669485271e-01    1,383594573e-01    2,227883041e-01    0,000000000e+00    0,000000000e+00    0,000000000e+00    0,000000000e+00
     1248000000   -2,375911772e-01    3,596424758e-01    1,902367026e-01    3,193733469e-02    0,000000000e+00    0,000000000e+00    0,000000000e+00    0,000000000e+00
     1262000000    7,142538670e-03    3,305801451e-01    1,289879978e-01   -7,148274779e-02    0,000000000e+00    0,000000000e+00    0,000000000e+00    0,000000000e+00
     1276000000    1,533787698e-01    1,944001913e-01    5,731019005e-02   -9,792616218e-02    0,000000000e+00    0,000000000e+00    0,000000000e+00    0,000000000e+00
     1290000000    2,156806439e-01    3,122087941e-02   -1,629055012e-03   -6,827407330e-02    0,000000000e+00    0,000000000e+00    0,000000000e+00    0,000000000e+00
     1304000000    2,066708654e-01   -1,447600722e-01   -1,312380750e-02   -2,988922969e-02    0,000000000e+00    0,000000000e+00    0,000000000e+00    0,000000000e+00
     1318000000    1,141618341e-01   -3,104963303e-01   -3,530678106e-03    2,419670485e-02    0,000000000e+00    0,000000000e+00    0,000000000e+00    0,000000000e+00
     1332000000   -6,226266921e-02   -4,320208132e-01    5,126088485e-02    6,168831512e-02    0,000000000e+00    0,000000000e+00    0,000000000e+00    0,000000000e+00
     1346000000   -3,270894289e-01   -4,365232587e-01    1,412651688e-01    4,527296871e-02    0,000000000e+00    0,000000000e+00    0,000000000e+00    0,000000000e+00
     1360000000   -5,593871474e-01   -2,437084615e-01    1,193813011e-01   -7,510007173e-02    0,000000000e+00    0,000000000e+00    0,000000000e+00    0,000000000e+00
     1374000000   -6,296458840e-01    3,690027446e-02    1,008289456e-01    6,547366083e-02    0,000000000e+00    0,000000000e+00    0,000000000e+00    0,000000000e+00
     1388000000   -5,202274323e-01    3,006982207e-01    2,173204869e-01    3,738441737e-03    0,000000000e+00    0,000000000e+00    0,000000000e+00    0,000000000e+00
     1402000000   -3,028539717e-01    4,248644114e-01    2,311549187e-01   -7,077544928e-02    0,000000000e+00    0,000000000e+00    0,000000000e+00    0,000000000e+00
     1416000000   -9,510295093e-02    4,210693240e-01    1,858866364e-01   -1,203252003e-01    0,000000000e+00    0,000000000e+00    0,000000000e+00    0,000000000e+00
     1430000000    7,084329426e-02    3,377958834e-01    1,694684476e-01   -1,032734662e-01    0,000000000e+00    0,000000000e+00    0,000000000e+00    0,000000000e+00
     1444000000    1,763087064e-01    2,038117945e-01    1,632714272e-01   -9,876411408e-02    0,000000000e+00    0,000000000e+00    0,000000000e+00    0,000000000e+00
     1458000000    2,244247645e-01    3,800560161e-02    1,470215470e-01   -7,341639698e-02    0,000000000e+00    0,000000000e+00    0,000000000e+00    0,000000000e+00
     1472000000    2,092547566e-01   -1,436681747e-01    1,429511905e-01   -4,736562073e-02    0,000000000e+00    0,000000000e+00    0,000000000e+00    0,000000000e+00
     1486000000    1,052968651e-01   -3,234237432e-01    1,576867849e-01   -1,205289736e-02    0,000000000e+00    0,000000000e+00    0,000000000e+00    0,000000000e+00
     1500000000   -9,211591631e-02   -4,612619877e-01    2,070883960e-01    5,478024110e-02    0,000000000e+00    0,000000000e+00    0,000000000e+00    0,000000000e+00
