! NanoVNA-App
! Date: 2025-09-25 14:27:50
! Start: 100MHz Stop: 1,5GHz Points: 101
! S-Parameter data: F S11 S21 S12 S22
# Hz S RI R 50
!     Frequency           S11_Real           S11_Imag           S21_Real           S21_Imag           S12_Real           S12_Imag           S22_Real           S22_Imag
      100000000   -2,909485810e-02   -4,126975778e-03    3,745285869e-01   -7,219744921e-01    0,000000000e+00    0,000000000e+00    0,000000000e+00    0,000000000e+00
      114000000   -1,661411859e-02    1,160694007e-02   -8,884231001e-02   -8,057025075e-01    0,000000000e+00    0,000000000e+00    0,000000000e+00    0,000000000e+00
      128000000    3,413957311e-03    1,054370496e-02   -5,147326589e-01   -6,211103797e-01    0,000000000e+00    0,000000000e+00    0,000000000e+00    0,000000000e+00
      142000000    1,444688905e-02   -3,077311208e-03   -7,674426436e-01   -2,368988544e-01    0,000000000e+00    0,000000000e+00    0,000000000e+00    0,000000000e+00
      156000000    1,433287002e-02   -1,499384735e-02   -7,652588487e-01    2,179866880e-01    0,000000000e+00    0,000000000e+00    0,000000000e+00    0,000000000e+00
      170000000    1,652365737e-02   -2,244405262e-02   -5,186204314e-01    6,048283577e-01    0,000000000e+00    0,000000000e+00    0,000000000e+00    0,000000000e+00
      184000000    2,097225375e-02   -3,703506663e-02   -1,017763391e-01    7,862112522e-01    0,000000000e+00    0,000000000e+00    0,000000000e+00    0,000000000e+00
      198000000    1,313318871e-02   -6,262934953e-02    3,431016207e-01    7,130412459e-01    0,000000000e+00    0,000000000e+00    0,000000000e+00    0,000000000e+00
      212000000   -1,870535314e-02   -8,172733337e-02    6,784615517e-01    4,107667506e-01    0,000000000e+00    0,000000000e+00    0,000000000e+00    0,000000000e+00
      226000000   -6,203847006e-02   -6,973199546e-02    7,960323691e-01   -2,965767682e-02    0,000000000e+00    0,000000000e+00    0,000000000e+00    0,000000000e+00
      240000000   -8,326317370e-02   -2,603662387e-02    6,471217275e-01   -4,668682516e-01    0,000000000e+00    0,000000000e+00    0,000000000e+00    0,000000000e+00
      254000000   -6,433536112e-02    1,748987846e-02    2,773004770e-01   -7,432290316e-01    0,000000000e+00    0,000000000e+00    0,000000000e+00    0,000000000e+00
      268000000   -2,404905111e-02    2,948424220e-02   -1,766723543e-01   -7,648260593e-01    0,000000000e+00    0,000000000e+00    0,000000000e+00    0,000000000e+00
      282000000    4,067806993e-03    1,215220522e-02   -5,625824928e-01   -5,374872684e-01    0,000000000e+00    0,000000000e+00    0,000000000e+00    0,000000000e+00
      296000000    9,499790147e-03   -7,783916313e-03   -7,606853843e-01   -1,396664530e-01    0,000000000e+00    0,000000000e+00    0,000000000e+00    0,000000000e+00
      310000000    1,087442413e-02   -1,613975503e-02   -7,130900621e-01    2,966134548e-01    0,000000000e+00    0,000000000e+00    0,000000000e+00    0,000000000e+00
      324000000    1,956619136e-02   -2,645061351e-02   -4,277568460e-01    6,375719309e-01    0,000000000e+00    0,000000000e+00    0,000000000e+00    0,000000000e+00
      338000000    2,529403195e-02   -5,187240243e-02   -9,823847562e-03    7,613450289e-01    0,000000000e+00    0,000000000e+00    0,000000000e+00    0,000000000e+00
      352000000    7,516965736e-03   -8,465045691e-02    4,057061076e-01    6,417116523e-01    0,000000000e+00    0,000000000e+00    0,000000000e+00    0,000000000e+00
      366000000   -3,498955816e-02   -9,610217810e-02    6,905816197e-01    3,121529222e-01    0,000000000e+00    0,000000000e+00    0,000000000e+00    0,000000000e+00
      380000000   -7,156549394e-02   -7,104830444e-02    7,483134866e-01   -1,243435070e-01    0,000000000e+00    0,000000000e+00    0,000000000e+00    0,000000000e+00
      394000000   -7,324431092e-02   -3,230787814e-02    5,475556254e-01   -5,204227567e-01    0,000000000e+00    0,000000000e+00    0,000000000e+00    0,000000000e+00
      408000000   -4,688246176e-02   -1,579085551e-02    1,628601849e-01   -7,326681018e-01    0,000000000e+00    0,000000000e+00    0,000000000e+00    0,000000000e+00
      422000000   -2,842099778e-02   -3,164465353e-02   -2,658330202e-01   -6,967537403e-01    0,000000000e+00    0,000000000e+00    0,000000000e+00    0,000000000e+00
      436000000   -4,023340717e-02   -5,191980302e-02   -6,024865508e-01   -4,337700605e-01    0,000000000e+00    0,000000000e+00    0,000000000e+00    0,000000000e+00
      450000000   -6,746151298e-02   -4,482727498e-02   -7,404798865e-01   -2,504778095e-02    0,000000000e+00    0,000000000e+00    0,000000000e+00    0,000000000e+00
      464000000   -7,439800352e-02   -1,222688239e-02   -6,216478348e-01    3,947915137e-01    0,000000000e+00    0,000000000e+00    0,000000000e+00    0,000000000e+00
      478000000   -4,880037531e-02    1,170302927e-02   -2,874078453e-01    6,678936481e-01    0,000000000e+00    0,000000000e+00    0,000000000e+00    0,000000000e+00
      492000000   -1,679615304e-02    6,738559343e-03    1,340727955e-01    7,047193646e-01    0,000000000e+00    0,000000000e+00    0,000000000e+00    0,000000000e+00
      506000000   -3,340782598e-03   -1,477398165e-02    4,974129498e-01    5,068029761e-01    0,000000000e+00    0,000000000e+00    0,000000000e+00    0,000000000e+00
      520000000   -5,470226984e-03   -2,960758843e-02    6,886649728e-01    1,457501799e-01    0,000000000e+00    0,000000000e+00    0,000000000e+00    0,000000000e+00
      534000000   -3,541851882e-03   -3,572401777e-02    6,441043615e-01   -2,596182525e-01    0,000000000e+00    0,000000000e+00    0,000000000e+00    0,000000000e+00
      548000000    7,800876629e-03   -5,248269811e-02    3,847748339e-01   -5,637284517e-01    0,000000000e+00    0,000000000e+00    0,000000000e+00    0,000000000e+00
      562000000    6,024186034e-03   -8,946802467e-02    8,321827278e-03   -6,720340848e-01    0,000000000e+00    0,000000000e+00    0,000000000e+00    0,000000000e+00
      576000000   -3,112433106e-02   -1,264307946e-01   -3,629873991e-01   -5,610687733e-01    0,000000000e+00    0,000000000e+00    0,000000000e+00    0,000000000e+00
      590000000   -9,501831234e-02   -1,276031435e-01   -6,183509231e-01   -2,733682096e-01    0,000000000e+00    0,000000000e+00    0,000000000e+00    0,000000000e+00
      604000000   -1,432753205e-01   -7,806006819e-02   -6,671747565e-01    1,259028316e-01    0,000000000e+00    0,000000000e+00    0,000000000e+00    0,000000000e+00
      618000000   -1,379033029e-01   -1,149062999e-02   -4,749839306e-01    4,859426320e-01    0,000000000e+00    0,000000000e+00    0,000000000e+00    0,000000000e+00
      632000000   -9,356624633e-02    2,151565813e-02   -1,146584228e-01    6,638634801e-01    0,000000000e+00    0,000000000e+00    0,000000000e+00    0,000000000e+00
      646000000   -5,512823910e-02    1,143119857e-02    2,737587690e-01    6,038602591e-01    0,000000000e+00    0,000000000e+00    0,000000000e+00    0,000000000e+00
      660000000   -4,775290936e-02   -9,182521142e-03    5,579277277e-01    3,403722942e-01    0,000000000e+00    0,000000000e+00    0,000000000e+00    0,000000000e+00
      674000000   -5,544704944e-02   -1,126762014e-02    6,443190575e-01   -3,991131485e-02    0,000000000e+00    0,000000000e+00    0,000000000e+00    0,000000000e+00
      688000000   -5,100415647e-02    2,920248080e-03    4,927003086e-01   -4,013706148e-01    0,000000000e+00    0,000000000e+00    0,000000000e+00    0,000000000e+00
      702000000   -2,615060471e-02    7,527008187e-03    1,596287936e-01   -6,091418266e-01    0,000000000e+00    0,000000000e+00    0,000000000e+00    0,000000000e+00
      716000000   -1,954646548e-03   -9,723585099e-03   -2,181274891e-01   -5,743582249e-01    0,000000000e+00    0,000000000e+00    0,000000000e+00    0,000000000e+00
      730000000    8,818998933e-03   -3,453357145e-02   -5,096354485e-01   -3,327223063e-01    0,000000000e+00    0,000000000e+00    0,000000000e+00    0,000000000e+00
      744000000    1,744290255e-02   -6,071697176e-02   -6,009191871e-01    3,277810663e-02    0,000000000e+00    0,000000000e+00    0,000000000e+00    0,000000000e+00
      758000000    2,213187888e-02   -1,041812077e-01   -4,540451765e-01    3,770012856e-01    0,000000000e+00    0,000000000e+00    0,000000000e+00    0,000000000e+00
      772000000   -5,345930811e-03   -1,733045876e-01   -1,400416791e-01    5,578262210e-01    0,000000000e+00    0,000000000e+00    0,000000000e+00    0,000000000e+00
      786000000   -1,043216437e-01   -2,319563627e-01    2,118780464e-01    5,189729333e-01    0,000000000e+00    0,000000000e+00    0,000000000e+00    0,000000000e+00
      800000000   -2,663753629e-01   -1,923562735e-01    4,714139402e-01    2,751534581e-01    0,000000000e+00    0,000000000e+00    0,000000000e+00    0,000000000e+00
      814000000   -3,634891510e-01    3,418553155e-03    5,074408650e-01   -8,795011789e-02    0,000000000e+00    0,000000000e+00    0,000000000e+00    0,000000000e+00
      828000000   -2,481306344e-01    2,327095419e-01    2,802787125e-01   -3,520118296e-01    0,000000000e+00    0,000000000e+00    0,000000000e+00    0,000000000e+00
      842000000    1,234904211e-02    2,786455750e-01   -1,633916236e-02   -3,626683652e-01    0,000000000e+00    0,000000000e+00    0,000000000e+00    0,000000000e+00
      856000000    2,127611786e-01    1,156751886e-01   -1,875950396e-01   -2,044740915e-01    0,000000000e+00    0,000000000e+00    0,000000000e+00    0,000000000e+00
      870000000    2,384605110e-01   -1,484138966e-01   -2,010056227e-01   -2,545375749e-02    0,000000000e+00    0,000000000e+00    0,000000000e+00    0,000000000e+00
      884000000    3,763812780e-02   -3,858012855e-01   -1,036624238e-01    7,130917907e-02    0,000000000e+00    0,000000000e+00    0,000000000e+00    0,000000000e+00
      898000000   -3,693620563e-01   -3,418875933e-01   -1,699530520e-02    2,714052983e-02    0,000000000e+00    0,000000000e+00    0,000000000e+00    0,000000000e+00
      912000000   -4,663263261e-01    1,384356767e-01   -1,180621013e-01    3,872040287e-02    0,000000000e+00    0,000000000e+00    0,000000000e+00    0,000000000e+00
      926000000   -9,700155258e-02    3,504153490e-01   -1,284281462e-01    1,330680251e-01    0,000000000e+00    0,000000000e+00    0,000000000e+00    0,000000000e+00
      940000000    1,849325597e-01    1,919935942e-01   -3,844523057e-02    2,151773125e-01    0,000000000e+00    0,000000000e+00    0,000000000e+00    0,000000000e+00
      954000000    2,565831840e-01   -4,940568656e-02    8,036378026e-02    2,277038693e-01    0,000000000e+00    0,000000000e+00    0,000000000e+00    0,000000000e+00
      968000000    1,750116199e-01   -2,599721849e-01    1,922594756e-01    1,818611026e-01    0,000000000e+00    0,000000000e+00    0,000000000e+00    0,000000000e+00
      982000000   -1,539666671e-02   -3,953552544e-01    2,799993455e-01    7,898789644e-02    0,000000000e+00    0,000000000e+00    0,000000000e+00    0,000000000e+00
      996000000   -2,754599154e-01   -3,793389797e-01    3,108973801e-01   -8,046146482e-02    0,000000000e+00    0,000000000e+00    0,000000000e+00    0,000000000e+00
     1010000000   -4,703541696e-01   -1,758354753e-01    2,217512578e-01   -2,507975101e-01    0,000000000e+00    0,000000000e+00    0,000000000e+00    0,000000000e+00
     1024000000   -4,629089534e-01    1,209141016e-01    2,380460501e-02   -3,295003772e-01    0,000000000e+00    0,000000000e+00    0,000000000e+00    0,000000000e+00
     1038000000   -2,605862319e-01    2,998499870e-01   -1,731342226e-01   -2,473342568e-01    0,000000000e+00    0,000000000e+00    0,000000000e+00    0,000000000e+00
     1052000000   -3,693191335e-02    3,109262288e-01   -2,574514747e-01   -7,722331583e-02    0,000000000e+00    0,000000000e+00    0,000000000e+00    0,000000000e+00
     1066000000    1,280265450e-01    2,043468207e-01   -2,236431837e-01    8,671814948e-02    0,000000000e+00    0,000000000e+00    0,000000000e+00    0,000000000e+00
     1080000000    2,092439681e-01    4,932239652e-02   -1,197348982e-01    1,927326322e-01    0,000000000e+00    0,000000000e+00    0,000000000e+00    0,000000000e+00
     1094000000    2,000911236e-01   -1,242105514e-01    1,624383219e-02    2,349481136e-01    0,000000000e+00    0,000000000e+00    0,000000000e+00    0,000000000e+00
     1108000000    9,917244315e-02   -2,861131728e-01    1,698426604e-01    2,059827000e-01    0,000000000e+00    0,000000000e+00    0,000000000e+00    0,000000000e+00
     1122000000   -1,013232172e-01   -3,735168874e-01    3,167669177e-01    8,843699843e-02    0,000000000e+00    0,000000000e+00    0,000000000e+00    0,000000000e+00
     1136000000   -3,453539312e-01   -2,723327875e-01    3,929171264e-01   -1,515844762e-01    0,000000000e+00    0,000000000e+00    0,000000000e+00    0,000000000e+00
     1150000000   -4,113110304e-01    3,709965944e-02    2,413975447e-01   -4,373110533e-01    0,000000000e+00    0,000000000e+00    0,000000000e+00    0,000000000e+00
     1164000000   -1,559423804e-01    2,191434801e-01   -9,280605614e-02   -5,130280852e-01    0,000000000e+00    0,000000000e+00    0,000000000e+00    0,000000000e+00
     1178000000    7,597941160e-02    8,112359047e-02   -3,574266136e-01   -3,491856158e-01    0,000000000e+00    0,000000000e+00    0,000000000e+00    0,000000000e+00
     1192000000    7,753135264e-02   -1,765004694e-01   -4,541210532e-01   -8,414735645e-02    0,000000000e+00    0,000000000e+00    0,000000000e+00    0,000000000e+00
     1206000000   -1,663899422e-01   -3,291095197e-01   -3,741922379e-01    1,880636513e-01    0,000000000e+00    0,000000000e+00    0,000000000e+00    0,000000000e+00
     1220000000   -4,527882040e-01   -1,793405563e-01   -1,030467898e-01    3,265380263e-01    0,000000000e+00    0,000000000e+00    0,000000000e+00    0,000000000e+00
     1234000000   -4,759175181e-01    1,694640964e-01    1,363784224e-01    2,286986262e-01    0,000000000e+00    0,000000000e+00    0,000000000e+00    0,000000000e+00
     1248000000   -2,309366763e-01    3,583911359e-01    1,909256130e-01    3,633084521e-02    0,000000000e+00    0,000000000e+00    0,000000000e+00    0,000000000e+00
     1262000000    3,748204093e-03    3,261414766e-01    1,270346344e-01   -7,315514982e-02    0,000000000e+00    0,000000000e+00    0,000000000e+00    0,000000000e+00
     1276000000    1,577960402e-01    1,959542483e-01    5,637186021e-02   -9,936657548e-02    0,000000000e+00    0,000000000e+00    0,000000000e+00    0,000000000e+00
     1290000000    2,190181166e-01    3,297002614e-02    4,895523190e-03   -7,433691621e-02    0,000000000e+00    0,000000000e+00    0,000000000e+00    0,000000000e+00
     1304000000    2,040493786e-01   -1,472639740e-01   -1,867881976e-02   -3,495024890e-02    0,000000000e+00    0,000000000e+00    0,000000000e+00    0,000000000e+00
     1318000000    1,118666455e-01   -3,127130866e-01   -1,184819639e-02    1,471110526e-02    0,000000000e+00    0,000000000e+00    0,000000000e+00    0,000000000e+00
     1332000000   -6,554081291e-02   -4,313145578e-01    5,507750437e-02    6,990983337e-02    0,000000000e+00    0,000000000e+00    0,000000000e+00    0,000000000e+00
     1346000000   -3,295911551e-01   -4,399388134e-01    1,399789751e-01    4,142550007e-02    0,000000000e+00    0,000000000e+00    0,000000000e+00    0,000000000e+00
     1360000000   -5,563263297e-01   -2,428747267e-01    1,247020662e-01   -8,355774730e-02    0,000000000e+00    0,000000000e+00    0,000000000e+00    0,000000000e+00
     1374000000   -6,274771094e-01    3,673372790e-02    1,078613400e-01    6,599365920e-02    0,000000000e+00    0,000000000e+00    0,000000000e+00    0,000000000e+00
     1388000000   -5,194171667e-01    2,897160649e-01    2,170555145e-01    3,546736436e-03    0,000000000e+00    0,000000000e+00    0,000000000e+00    0,000000000e+00
     1402000000   -3,055150211e-01    4,145431221e-01    2,197770178e-01   -9,690627456e-02    0,000000000e+00    0,000000000e+00    0,000000000e+00    0,000000000e+00
     1416000000   -9,336881340e-02    4,163254797e-01    1,865074188e-01   -1,232565567e-01    0,000000000e+00    0,000000000e+00    0,000000000e+00    0,000000000e+00
     1430000000    8,090776205e-02    3,400379717e-01    1,619797945e-01   -1,417234093e-01    0,000000000e+00    0,000000000e+00    0,000000000e+00    0,000000000e+00
     1444000000    1,836480200e-01    1,998400092e-01    1,676930636e-01   -9,671595693e-02    0,000000000e+00    0,000000000e+00    0,000000000e+00    0,000000000e+00
     1458000000    2,231446356e-01    3,629931808e-02    1,538498998e-01   -8,484943956e-02    0,000000000e+00    0,000000000e+00    0,000000000e+00    0,000000000e+00
     1472000000    2,056428194e-01   -1,460420340e-01    1,348858923e-01   -5,438713729e-02    0,000000000e+00    0,000000000e+00    0,000000000e+00    0,000000000e+00
     1486000000    1,071118936e-01   -3,224191964e-01    1,747270226e-01   -2,141672187e-03    0,000000000e+00    0,000000000e+00    0,000000000e+00    0,000000000e+00
     1500000000   -8,920029551e-02   -4,533086419e-01    2,186071724e-01    7,083786279e-02    0,000000000e+00    0,000000000e+00    0,000000000e+00    0,000000000e+00
