! NanoVNA-App
! Date: 2025-09-25 14:28:21
! Start: 100MHz Stop: 1,5GHz Points: 101
! S-Parameter data: F S11 S21 S12 S22
# Hz S RI R 50
!     Frequency           S11_Real           S11_Imag           S21_Real           S21_Imag           S12_Real           S12_Imag           S22_Real           S22_Imag
      100000000   -2,909404971e-02   -4,128941335e-03    3,745214343e-01   -7,219815254e-01    0,000000000e+00    0,000000000e+00    0,000000000e+00    0,000000000e+00
      114000000   -1,661892235e-02    1,157275680e-02   -8,888380975e-02   -8,058860302e-01    0,000000000e+00    0,000000000e+00    0,000000000e+00    0,000000000e+00
      128000000    3,363456344e-03    1,053647883e-02   -5,144855380e-01   -6,212036610e-01    0,000000000e+00    0,000000000e+00    0,000000000e+00    0,000000000e+00
      142000000    1,443347614e-02   -3,075955901e-03   -7,675524950e-01   -2,369467914e-01    0,000000000e+00    0,000000000e+00    0,000000000e+00    0,000000000e+00
      156000000    1,556531433e-02   -1,464912388e-02   -7,702965736e-01    2,236900926e-01    0,000000000e+00    0,000000000e+00    0,000000000e+00    0,000000000e+00
      170000000    1,652481779e-02   -2,240641229e-02   -5,187517405e-01    6,048460007e-01    0,000000000e+00    0,000000000e+00    0,000000000e+00    0,000000000e+00
      184000000    2,101453394e-02   -3,698155656e-02   -1,019423082e-01    7,866036296e-01    0,000000000e+00    0,000000000e+00    0,000000000e+00    0,000000000e+00
      198000000    1,315625198e-02   -6,261343509e-02    3,430295885e-01    7,129400969e-01    0,000000000e+00    0,000000000e+00    0,000000000e+00    0,000000000e+00
      212000000   -1,868858002e-02   -8,170904219e-02    6,781668067e-01    4,107604623e-01    0,000000000e+00    0,000000000e+00    0,000000000e+00    0,000000000e+00
      226000000   -6,210526451e-02   -6,965168566e-02    7,960702777e-01   -2,969918214e-02    0,000000000e+00    0,000000000e+00    0,000000000e+00    0,000000000e+00
      240000000   -8,328402042e-02   -2,606449835e-02    6,468707919e-01   -4,665682614e-01    0,000000000e+00    0,000000000e+00    0,000000000e+00    0,000000000e+00
      254000000   -6,438419223e-02    1,745128073e-02    2,773562670e-01   -7,434175611e-01    0,000000000e+00    0,000000000e+00    0,000000000e+00    0,000000000e+00
      268000000   -2,395678125e-02    2,948611043e-02   -1,767939031e-01   -7,652040124e-01    0,000000000e+00    0,000000000e+00    0,000000000e+00    0,000000000e+00
      282000000    4,027968738e-03    1,204490568e-02   -5,625815988e-01   -5,371983051e-01    0,000000000e+00    0,000000000e+00    0,000000000e+00    0,000000000e+00
      296000000    9,470148943e-03   -7,688270882e-03   -7,607941628e-01   -1,396468431e-01    0,000000000e+00    0,000000000e+00    0,000000000e+00    0,000000000e+00
      310000000    1,067395601e-02   -1,591555029e-02   -7,137159109e-01    2,985072136e-01    0,000000000e+00    0,000000000e+00    0,000000000e+00    0,000000000e+00
      324000000    1,956519112e-02   -2,649428137e-02   -4,284423292e-01    6,370416880e-01    0,000000000e+00    0,000000000e+00    0,000000000e+00    0,000000000e+00
      338000000    2,538968064e-02   -5,201819167e-02   -8,560915478e-03    7,610628605e-01    0,000000000e+00    0,000000000e+00    0,000000000e+00    0,000000000e+00
      352000000    7,299697958e-03   -8,490117639e-02    4,056454599e-01    6,402926445e-01    0,000000000e+00    0,000000000e+00    0,000000000e+00    0,000000000e+00
      366000000   -3,505852446e-02   -9,592419118e-02    6,905921698e-01    3,128086030e-01    0,000000000e+00    0,000000000e+00    0,000000000e+00    0,000000000e+00
      380000000   -7,159433514e-02   -7,127560675e-02    7,485278249e-01   -1,246867850e-01    0,000000000e+00    0,000000000e+00    0,000000000e+00    0,000000000e+00
      394000000   -7,340131700e-02   -3,234976158e-02    5,479947925e-01   -5,216512084e-01    0,000000000e+00    0,000000000e+00    0,000000000e+00    0,000000000e+00
      408000000   -4,705649242e-02   -1,581721567e-02    1,622612327e-01   -7,319118381e-01    0,000000000e+00    0,000000000e+00    0,000000000e+00    0,000000000e+00
      422000000   -2,839465626e-02   -3,137724847e-02   -2,665346861e-01   -6,960528493e-01    0,000000000e+00    0,000000000e+00    0,000000000e+00    0,000000000e+00
      436000000   -4,018914327e-02   -5,228065699e-02   -6,028961539e-01   -4,343881607e-01    0,000000000e+00    0,000000000e+00    0,000000000e+00    0,000000000e+00
      450000000   -6,760755181e-02   -4,511734471e-02   -7,398915291e-01   -2,514499240e-02    0,000000000e+00    0,000000000e+00    0,000000000e+00    0,000000000e+00
      464000000   -7,451329380e-02   -1,243669353e-02   -6,219059229e-01    3,945099115e-01    0,000000000e+00    0,000000000e+00    0,000000000e+00    0,000000000e+00
      478000000   -4,885341600e-02    1,184580196e-02   -2,868545949e-01    6,672357321e-01    0,000000000e+00    0,000000000e+00    0,000000000e+00    0,000000000e+00
      492000000   -1,700447127e-02    6,305937190e-03    1,349723041e-01    7,039198279e-01    0,000000000e+00    0,000000000e+00    0,000000000e+00    0,000000000e+00
      506000000   -3,502469976e-03   -1,486112922e-02    4,977569282e-01    5,067203641e-01    0,000000000e+00    0,000000000e+00    0,000000000e+00    0,000000000e+00
      520000000   -5,823968910e-03   -2,956810780e-02    6,891353726e-01    1,458792686e-01    0,000000000e+00    0,000000000e+00    0,000000000e+00    0,000000000e+00
      534000000   -3,421765054e-03   -3,599206731e-02    6,448539495e-01   -2,596305609e-01    0,000000000e+00    0,000000000e+00    0,000000000e+00    0,000000000e+00
      548000000    8,139554411e-03   -5,291288346e-02    3,853889704e-01   -5,651537180e-01    0,000000000e+00    0,000000000e+00    0,000000000e+00    0,000000000e+00
      562000000    5,445041694e-03   -8,974365145e-02    8,344389498e-03   -6,721314192e-01    0,000000000e+00    0,000000000e+00    0,000000000e+00    0,000000000e+00
      576000000   -3,148872405e-02   -1,258558780e-01   -3,624505103e-01   -5,612112880e-01    0,000000000e+00    0,000000000e+00    0,000000000e+00    0,000000000e+00
      590000000   -9,497188032e-02   -1,278869659e-01   -6,161623597e-01   -2,737947106e-01    0,000000000e+00    0,000000000e+00    0,000000000e+00    0,000000000e+00
      604000000   -1,429576278e-01   -7,802064717e-02   -6,670377851e-01    1,259722263e-01    0,000000000e+00    0,000000000e+00    0,000000000e+00    0,000000000e+00
      618000000   -1,377510726e-01   -1,117213164e-02   -4,742443860e-01    4,857051075e-01    0,000000000e+00    0,000000000e+00    0,000000000e+00    0,000000000e+00
      632000000   -9,314510226e-02    2,225025930e-02   -1,132864729e-01    6,643996835e-01    0,000000000e+00    0,000000000e+00    0,000000000e+00    0,000000000e+00
      646000000   -5,550391972e-02    1,255103759e-02    2,737445831e-01    6,035490632e-01    0,000000000e+00    0,000000000e+00    0,000000000e+00    0,000000000e+00
      660000000   -4,834881052e-02   -8,317098953e-03    5,577120185e-01    3,400000036e-01    0,000000000e+00    0,000000000e+00    0,000000000e+00    0,000000000e+00
      674000000   -5,531936139e-02   -1,049373765e-02    6,446855664e-01   -3,995061293e-02    0,000000000e+00    0,000000000e+00    0,000000000e+00    0,000000000e+00
      688000000   -5,022066087e-02    3,719226690e-03    4,935574234e-01   -4,018835127e-01    0,000000000e+00    0,000000000e+00    0,000000000e+00    0,000000000e+00
      702000000   -2,667385340e-02    7,942118682e-03    1,594152451e-01   -6,029809117e-01    0,000000000e+00    0,000000000e+00    0,000000000e+00    0,000000000e+00
      716000000   -1,473049866e-03   -8,795121685e-03   -2,186353058e-01   -5,753291249e-01    0,000000000e+00    0,000000000e+00    0,000000000e+00    0,000000000e+00
      730000000    9,904549457e-03   -3,379905224e-02   -5,086966753e-01   -3,325109780e-01    0,000000000e+00    0,000000000e+00    0,000000000e+00    0,000000000e+00
      744000000    1,660659537e-02   -6,032261997e-02   -6,008636951e-01    3,286171332e-02    0,000000000e+00    0,000000000e+00    0,000000000e+00    0,000000000e+00
      758000000    2,269330993e-02   -1,036738083e-01   -4,549649656e-01    3,773559332e-01    0,000000000e+00    0,000000000e+00    0,000000000e+00    0,000000000e+00
      772000000   -5,377782974e-03   -1,739162505e-01   -1,400724351e-01    5,578243136e-01    0,000000000e+00    0,000000000e+00    0,000000000e+00    0,000000000e+00
      786000000   -1,048709527e-01   -2,319949120e-01    2,112732530e-01    5,198616982e-01    0,000000000e+00    0,000000000e+00    0,000000000e+00    0,000000000e+00
      800000000   -2,660361230e-01   -1,925823241e-01    4,714723527e-01    2,749927938e-01    0,000000000e+00    0,000000000e+00    0,000000000e+00    0,000000000e+00
      814000000   -3,650184274e-01    3,349771956e-03    5,082867146e-01   -8,821506053e-02    0,000000000e+00    0,000000000e+00    0,000000000e+00    0,000000000e+00
      828000000   -2,483871132e-01    2,336599529e-01    2,815937400e-01   -3,528414071e-01    0,000000000e+00    0,000000000e+00    0,000000000e+00    0,000000000e+00
      842000000    1,305455249e-02    2,789177001e-01   -1,555770636e-02   -3,623409271e-01    0,000000000e+00    0,000000000e+00    0,000000000e+00    0,000000000e+00
      856000000    2,122494131e-01    1,150290072e-01   -1,879840493e-01   -2,057776302e-01    0,000000000e+00    0,000000000e+00    0,000000000e+00    0,000000000e+00
      870000000    2,391550690e-01   -1,487454772e-01   -2,006928325e-01   -2,646839619e-02    0,000000000e+00    0,000000000e+00    0,000000000e+00    0,000000000e+00
      884000000    3,854672611e-02   -3,865886629e-01   -1,041179448e-01    7,076968998e-02    0,000000000e+00    0,000000000e+00    0,000000000e+00    0,000000000e+00
      898000000   -3,686047792e-01   -3,412413001e-01   -1,664046384e-02    2,844624780e-02    0,000000000e+00    0,000000000e+00    0,000000000e+00    0,000000000e+00
      912000000   -4,684258997e-01    1,386907399e-01   -1,239917204e-01    3,702836484e-02    0,000000000e+00    0,000000000e+00    0,000000000e+00    0,000000000e+00
      926000000   -9,673084319e-02    3,489221334e-01   -1,301393956e-01    1,332259029e-01    0,000000000e+00    0,000000000e+00    0,000000000e+00    0,000000000e+00
      940000000    1,840058565e-01    1,925162822e-01   -3,844925389e-02    2,150349617e-01    0,000000000e+00    0,000000000e+00    0,000000000e+00    0,000000000e+00
      954000000    2,552064657e-01   -4,680424184e-02    8,012650907e-02    2,284198254e-01    0,000000000e+00    0,000000000e+00    0,000000000e+00    0,000000000e+00
      968000000    1,747649163e-01   -2,617519498e-01    1,914874762e-01    1,814397126e-01    0,000000000e+00    0,000000000e+00    0,000000000e+00    0,000000000e+00
      982000000   -1,730814390e-02   -3,962211609e-01    2,796317935e-01    7,819443196e-02    0,000000000e+00    0,000000000e+00    0,000000000e+00    0,000000000e+00
      996000000   -2,759001851e-01   -3,762687147e-01    3,097648025e-01   -8,030293882e-02    0,000000000e+00    0,000000000e+00    0,000000000e+00    0,000000000e+00
     1010000000   -4,735459983e-01   -1,719178557e-01    2,225638032e-01   -2,532041669e-01    0,000000000e+00    0,000000000e+00    0,000000000e+00    0,000000000e+00
     1024000000   -4,622647166e-01    1,151039824e-01    2,022994310e-02   -3,301482499e-01    0,000000000e+00    0,000000000e+00    0,000000000e+00    0,000000000e+00
     1038000000   -2,659627497e-01    2,965773940e-01   -1,741317958e-01   -2,480718493e-01    0,000000000e+00    0,000000000e+00    0,000000000e+00    0,000000000e+00
     1052000000   -3,839844093e-02    3,120722473e-01   -2,561484575e-01   -7,819617540e-02    0,000000000e+00    0,000000000e+00    0,000000000e+00    0,000000000e+00
     1066000000    1,280843467e-01    2,029029876e-01   -2,227510512e-01    8,436594158e-02    0,000000000e+00    0,000000000e+00    0,000000000e+00    0,000000000e+00
     1080000000    2,102406770e-01    4,981784150e-02   -1,210168973e-01    1,939295381e-01    0,000000000e+00    0,000000000e+00    0,000000000e+00    0,000000000e+00
     1094000000    2,010100484e-01   -1,258502305e-01    1,770755462e-02    2,337888330e-01    0,000000000e+00    0,000000000e+00    0,000000000e+00    0,000000000e+00
     1108000000    9,863454103e-02   -2,840390205e-01    1,698729992e-01    2,067754865e-01    0,000000000e+00    0,000000000e+00    0,000000000e+00    0,000000000e+00
     1122000000   -1,029752493e-01   -3,698096573e-01    3,172811568e-01    8,887178451e-02    0,000000000e+00    0,000000000e+00    0,000000000e+00    0,000000000e+00
     1136000000   -3,505145609e-01   -2,695738077e-01    3,895524740e-01   -1,508833468e-01    0,000000000e+00    0,000000000e+00    0,000000000e+00    0,000000000e+00
     1150000000   -4,123934805e-01    3,500451893e-02    2,424791008e-01   -4,380662739e-01    0,000000000e+00    0,000000000e+00    0,000000000e+00    0,000000000e+00
     1164000000   -1,623973846e-01    2,163078785e-01   -9,642405063e-02   -5,141181946e-01    0,000000000e+00    0,000000000e+00    0,000000000e+00    0,000000000e+00
     1178000000    7,448466867e-02    8,690206707e-02   -3,580317795e-01   -3,480635583e-01    0,000000000e+00    0,000000000e+00    0,000000000e+00    0,000000000e+00
     1192000000    7,162638009e-02   -1,739532501e-01   -4,525719583e-01   -8,655984700e-02    0,000000000e+00    0,000000000e+00    0,000000000e+00    0,000000000e+00
     1206000000   -1,641217470e-01   -3,274585307e-01   -3,722164929e-01    1,877136528e-01    0,000000000e+00    0,000000000e+00    0,000000000e+00    0,000000000e+00
     1220000000   -4,604707360e-01   -1,769794524e-01   -1,105315387e-01    3,293778896e-01    0,000000000e+00    0,000000000e+00    0,000000000e+00    0,000000000e+00
     1234000000   -4,687998593e-01    1,688681394e-01    1,370870918e-01    2,237973064e-01    0,000000000e+00    0,000000000e+00    0,000000000e+00    0,000000000e+00
     1248000000   -2,381829470e-01    3,497301638e-01    1,918555051e-01    4,141697288e-02    0,000000000e+00    0,000000000e+00    0,000000000e+00    0,000000000e+00
     1262000000    4,711621907e-03    3,262145221e-01    1,254297048e-01   -7,589977235e-02    0,000000000e+00    0,000000000e+00    0,000000000e+00    0,000000000e+00
     1276000000    1,572620720e-01    2,007590383e-01    5,298532546e-02   -9,451262653e-02    0,000000000e+00    0,000000000e+00    0,000000000e+00    0,000000000e+00
     1290000000    2,189167887e-01    3,481724858e-02    4,212782253e-03   -7,274592668e-02    0,000000000e+00    0,000000000e+00    0,000000000e+00    0,000000000e+00
     1304000000    2,077058703e-01   -1,454436928e-01   -1,995867491e-02   -3,412733600e-02    0,000000000e+00    0,000000000e+00    0,000000000e+00    0,000000000e+00
     1318000000    1,154357418e-01   -3,106832206e-01   -1,328542084e-02    2,157320827e-02    0,000000000e+00    0,000000000e+00    0,000000000e+00    0,000000000e+00
     1332000000   -6,670730561e-02   -4,362873733e-01    4,465270415e-02    5,521642417e-02    0,000000000e+00    0,000000000e+00    0,000000000e+00    0,000000000e+00
     1346000000   -3,311683834e-01   -4,377564788e-01    1,423870474e-01    4,477045313e-02    0,000000000e+00    0,000000000e+00    0,000000000e+00    0,000000000e+00
     1360000000   -5,534611940e-01   -2,430396527e-01    1,175502315e-01   -7,678423822e-02    0,000000000e+00    0,000000000e+00    0,000000000e+00    0,000000000e+00
     1374000000   -6,167070270e-01    3,275460750e-02    1,170685142e-01    6,290744990e-02    0,000000000e+00    0,000000000e+00    0,000000000e+00    0,000000000e+00
     1388000000   -5,129275322e-01    2,953236401e-01    2,272632718e-01    2,253720071e-03    0,000000000e+00    0,000000000e+00    0,000000000e+00    0,000000000e+00
     1402000000   -2,971644700e-01    4,178050160e-01    2,365560681e-01   -9,028863907e-02    0,000000000e+00    0,000000000e+00    0,000000000e+00    0,000000000e+00
     1416000000   -1,001930833e-01    4,171292782e-01    1,884585768e-01   -1,195142791e-01    0,000000000e+00    0,000000000e+00    0,000000000e+00    0,000000000e+00
     1430000000    6,532327831e-02    3,402150869e-01    1,539513767e-01   -9,615467489e-02    0,000000000e+00    0,000000000e+00    0,000000000e+00    0,000000000e+00
     1444000000    1,794566810e-01    2,048164159e-01    1,641652286e-01   -1,074178517e-01    0,000000000e+00    0,000000000e+00    0,000000000e+00    0,000000000e+00
     1458000000    2,223657817e-01    3,731080517e-02    1,432479769e-01   -8,234651387e-02    0,000000000e+00    0,000000000e+00    0,000000000e+00    0,000000000e+00
     1472000000    2,045235783e-01   -1,461993456e-01    1,547921598e-01   -6,188417599e-02    0,000000000e+00    0,000000000e+00    0,000000000e+00    0,000000000e+00
     1486000000    1,045156941e-01   -3,209151924e-01    1,572466940e-01   -3,392700572e-03    0,000000000e+00    0,000000000e+00    0,000000000e+00    0,000000000e+00
     1500000000   -9,809253365e-02   -4,642870724e-01    2,006686330e-01    4,914491624e-02    0,000000000e+00    0,000000000e+00    0,000000000e+00    0,000000000e+00
