! NanoVNA-App
! Date: 2025-09-25 14:26:55
! Start: 100MHz Stop: 1,5GHz Points: 101
! S-Parameter data: F S11 S21 S12 S22
# Hz S RI R 50
!     Frequency           S11_Real           S11_Imag           S21_Real           S21_Imag           S12_Real           S12_Imag           S22_Real           S22_Imag
      100000000   -2,910263278e-02   -4,129299894e-03    3,745460212e-01   -7,220501900e-01    0,000000000e+00    0,000000000e+00    0,000000000e+00    0,000000000e+00
      114000000   -1,660176925e-02    1,163388509e-02   -8,899789304e-02   -8,058289886e-01    0,000000000e+00    0,000000000e+00    0,000000000e+00    0,000000000e+00
      128000000    3,386554308e-03    1,056281477e-02   -5,146670341e-01   -6,211959124e-01    0,000000000e+00    0,000000000e+00    0,000000000e+00    0,000000000e+00
      142000000    1,444175839e-02   -3,075906076e-03   -7,673450708e-01   -2,369572967e-01    0,000000000e+00    0,000000000e+00    0,000000000e+00    0,000000000e+00
      156000000    1,563181728e-02   -1,465344056e-02   -7,704161406e-01    2,238654792e-01    0,000000000e+00    0,000000000e+00    0,000000000e+00    0,000000000e+00
      170000000    1,655943878e-02   -2,246882953e-02   -5,189001560e-01    6,050953269e-01    0,000000000e+00    0,000000000e+00    0,000000000e+00    0,000000000e+00
      184000000    2,100340091e-02   -3,700222448e-02   -1,018569618e-01    7,865347862e-01    0,000000000e+00    0,000000000e+00    0,000000000e+00    0,000000000e+00
      198000000    1,313828863e-02   -6,258504093e-02    3,428647518e-01    7,129244804e-01    0,000000000e+00    0,000000000e+00    0,000000000e+00    0,000000000e+00
      212000000   -1,874256507e-02   -8,172381669e-02    6,785092950e-01    4,106713831e-01    0,000000000e+00    0,000000000e+00    0,000000000e+00    0,000000000e+00
      226000000   -6,211324036e-02   -6,973665953e-02    7,961634994e-01   -2,968116105e-02    0,000000000e+00    0,000000000e+00    0,000000000e+00    0,000000000e+00
      240000000   -8,332901448e-02   -2,606916614e-02    6,470372081e-01   -4,664203525e-01    0,000000000e+00    0,000000000e+00    0,000000000e+00    0,000000000e+00
      254000000   -6,439835578e-02    1,746720262e-02    2,770878673e-01   -7,430883050e-01    0,000000000e+00    0,000000000e+00    0,000000000e+00    0,000000000e+00
      268000000   -2,402361669e-02    2,951062284e-02   -1,768109649e-01   -7,654063702e-01    0,000000000e+00    0,000000000e+00    0,000000000e+00    0,000000000e+00
      282000000    4,072070122e-03    1,210337225e-02   -5,627815127e-01   -5,374925733e-01    0,000000000e+00    0,000000000e+00    0,000000000e+00    0,000000000e+00
      296000000    9,613381699e-03   -7,726649754e-03   -7,608306408e-01   -1,395006031e-01    0,000000000e+00    0,000000000e+00    0,000000000e+00    0,000000000e+00
      310000000    1,096579526e-02   -1,611304097e-02   -7,140032053e-01    2,975668311e-01    0,000000000e+00    0,000000000e+00    0,000000000e+00    0,000000000e+00
      324000000    1,941593923e-02   -2,656797506e-02   -4,291854203e-01    6,373291612e-01    0,000000000e+00    0,000000000e+00    0,000000000e+00    0,000000000e+00
      338000000    2,549109049e-02   -5,211709812e-02   -8,402399719e-03    7,647963166e-01    0,000000000e+00    0,000000000e+00    0,000000000e+00    0,000000000e+00
      352000000    7,679743227e-03   -8,443150669e-02    4,057286978e-01    6,406680942e-01    0,000000000e+00    0,000000000e+00    0,000000000e+00    0,000000000e+00
      366000000   -3,472744673e-02   -9,569687396e-02    6,903635859e-01    3,120429516e-01    0,000000000e+00    0,000000000e+00    0,000000000e+00    0,000000000e+00
      380000000   -7,141511887e-02   -7,122378051e-02    7,486096025e-01   -1,248252243e-01    0,000000000e+00    0,000000000e+00    0,000000000e+00    0,000000000e+00
      394000000   -7,333449274e-02   -3,248606995e-02    5,472819805e-01   -5,213958621e-01    0,000000000e+00    0,000000000e+00    0,000000000e+00    0,000000000e+00
      408000000   -4,679174349e-02   -1,546935365e-02    1,632162929e-01   -7,319185138e-01    0,000000000e+00    0,000000000e+00    0,000000000e+00    0,000000000e+00
      422000000   -2,839713171e-02   -3,132055700e-02   -2,664846480e-01   -6,954219341e-01    0,000000000e+00    0,000000000e+00    0,000000000e+00    0,000000000e+00
      436000000   -3,994466737e-02   -5,194818228e-02   -6,022027135e-01   -4,342398345e-01    0,000000000e+00    0,000000000e+00    0,000000000e+00    0,000000000e+00
      450000000   -6,772610545e-02   -4,490454122e-02   -7,409665585e-01   -2,579184249e-02    0,000000000e+00    0,000000000e+00    0,000000000e+00    0,000000000e+00
      464000000   -7,450368255e-02   -1,264503598e-02   -6,216557622e-01    3,946413696e-01    0,000000000e+00    0,000000000e+00    0,000000000e+00    0,000000000e+00
      478000000   -4,897399247e-02    1,169096585e-02   -2,867591083e-01    6,675217748e-01    0,000000000e+00    0,000000000e+00    0,000000000e+00    0,000000000e+00
      492000000   -1,697138138e-02    6,577256601e-03    1,340057105e-01    7,034441233e-01    0,000000000e+00    0,000000000e+00    0,000000000e+00    0,000000000e+00
      506000000   -3,736779094e-03   -1,498287171e-02    4,974176586e-01    5,061225295e-01    0,000000000e+00    0,000000000e+00    0,000000000e+00    0,000000000e+00
      520000000   -5,920970347e-03   -2,928316779e-02    6,884498000e-01    1,453662366e-01    0,000000000e+00    0,000000000e+00    0,000000000e+00    0,000000000e+00
      534000000   -3,491510171e-03   -3,572978452e-02    6,445032954e-01   -2,594147325e-01    0,000000000e+00    0,000000000e+00    0,000000000e+00    0,000000000e+00
      548000000    7,977546193e-03   -5,280973762e-02    3,850517869e-01   -5,643730760e-01    0,000000000e+00    0,000000000e+00    0,000000000e+00    0,000000000e+00
      562000000    5,693780258e-03   -8,954968303e-02    8,542271331e-03   -6,722697020e-01    0,000000000e+00    0,000000000e+00    0,000000000e+00    0,000000000e+00
      576000000   -3,104284592e-02   -1,260747910e-01   -3,617472649e-01   -5,613787174e-01    0,000000000e+00    0,000000000e+00    0,000000000e+00    0,000000000e+00
      590000000   -9,492242336e-02   -1,277851611e-01   -6,169578433e-01   -2,703520358e-01    0,000000000e+00    0,000000000e+00    0,000000000e+00    0,000000000e+00
      604000000   -1,428399533e-01   -7,809169590e-02   -6,672457457e-01    1,260536462e-01    0,000000000e+00    0,000000000e+00    0,000000000e+00    0,000000000e+00
      618000000   -1,384074241e-01   -1,145184413e-02   -4,749044180e-01    4,862191081e-01    0,000000000e+00    0,000000000e+00    0,000000000e+00    0,000000000e+00
      632000000   -9,288979322e-02    2,214178629e-02   -1,141418666e-01    6,618587971e-01    0,000000000e+00    0,000000000e+00    0,000000000e+00    0,000000000e+00
      646000000   -5,537353829e-02    1,249400526e-02    2,731556594e-01    6,031745076e-01    0,000000000e+00    0,000000000e+00    0,000000000e+00    0,000000000e+00
      660000000   -4,836556315e-02   -8,068144321e-03    5,572954416e-01    3,397574425e-01    0,000000000e+00    0,000000000e+00    0,000000000e+00    0,000000000e+00
      674000000   -5,636218190e-02   -1,087051909e-02    6,445411444e-01   -4,006667435e-02    0,000000000e+00    0,000000000e+00    0,000000000e+00    0,000000000e+00
      688000000   -5,096348375e-02    2,608285053e-03    4,929617345e-01   -4,017011225e-01    0,000000000e+00    0,000000000e+00    0,000000000e+00    0,000000000e+00
      702000000   -2,605314367e-02    7,094048895e-03    1,596512496e-01   -6,036683321e-01    0,000000000e+00    0,000000000e+00    0,000000000e+00    0,000000000e+00
      716000000   -2,620434156e-03   -8,669778705e-03   -2,178211659e-01   -5,745364428e-01    0,000000000e+00    0,000000000e+00    0,000000000e+00    0,000000000e+00
      730000000    9,223769419e-03   -3,498961776e-02   -5,094572902e-01   -3,330143988e-01    0,000000000e+00    0,000000000e+00    0,000000000e+00    0,000000000e+00
      744000000    1,684051380e-02   -6,139989942e-02   -6,009139419e-01    3,294217959e-02    0,000000000e+00    0,000000000e+00    0,000000000e+00    0,000000000e+00
      758000000    2,264516056e-02   -1,037684754e-01   -4,547786117e-01    3,769698441e-01    0,000000000e+00    0,000000000e+00    0,000000000e+00    0,000000000e+00
      772000000   -4,937450867e-03   -1,731788963e-01   -1,394383162e-01    5,581473708e-01    0,000000000e+00    0,000000000e+00    0,000000000e+00    0,000000000e+00
      786000000   -1,048745811e-01   -2,330381870e-01    2,112727910e-01    5,201181173e-01    0,000000000e+00    0,000000000e+00    0,000000000e+00    0,000000000e+00
      800000000   -2,665424347e-01   -1,924820542e-01    4,720422328e-01    2,752905190e-01    0,000000000e+00    0,000000000e+00    0,000000000e+00    0,000000000e+00
      814000000   -3,649552464e-01    3,601613455e-03    5,079862475e-01   -8,834472299e-02    0,000000000e+00    0,000000000e+00    0,000000000e+00    0,000000000e+00
      828000000   -2,466827333e-01    2,341549397e-01    2,816308439e-01   -3,523542881e-01    0,000000000e+00    0,000000000e+00    0,000000000e+00    0,000000000e+00
      842000000    1,312384009e-02    2,781264782e-01   -1,565878280e-02   -3,633978069e-01    0,000000000e+00    0,000000000e+00    0,000000000e+00    0,000000000e+00
      856000000    2,127925605e-01    1,153341457e-01   -1,874315590e-01   -2,046944052e-01    0,000000000e+00    0,000000000e+00    0,000000000e+00    0,000000000e+00
      870000000    2,382804304e-01   -1,488166451e-01   -2,007429898e-01   -2,652347274e-02    0,000000000e+00    0,000000000e+00    0,000000000e+00    0,000000000e+00
      884000000    3,807626665e-02   -3,857152760e-01   -1,037321761e-01    7,048285007e-02    0,000000000e+00    0,000000000e+00    0,000000000e+00    0,000000000e+00
      898000000   -3,688249588e-01   -3,412758410e-01   -1,665102690e-02    2,780511975e-02    0,000000000e+00    0,000000000e+00    0,000000000e+00    0,000000000e+00
      912000000   -4,678990841e-01    1,380812973e-01   -1,238620430e-01    2,734728344e-02    0,000000000e+00    0,000000000e+00    0,000000000e+00    0,000000000e+00
      926000000   -9,428053349e-02    3,530187905e-01   -1,275829822e-01    1,358062625e-01    0,000000000e+00    0,000000000e+00    0,000000000e+00    0,000000000e+00
      940000000    1,852099448e-01    1,938860416e-01   -3,930923715e-02    2,165571302e-01    0,000000000e+00    0,000000000e+00    0,000000000e+00    0,000000000e+00
      954000000    2,568058670e-01   -4,780565947e-02    8,091680706e-02    2,282867730e-01    0,000000000e+00    0,000000000e+00    0,000000000e+00    0,000000000e+00
      968000000    1,767606437e-01   -2,610706091e-01    1,912231147e-01    1,807883829e-01    0,000000000e+00    0,000000000e+00    0,000000000e+00    0,000000000e+00
      982000000   -1,716722175e-02   -3,949129581e-01    2,819940746e-01    7,924851030e-02    0,000000000e+00    0,000000000e+00    0,000000000e+00    0,000000000e+00
      996000000   -2,701151073e-01   -3,770897388e-01    3,078062832e-01   -8,162396401e-02    0,000000000e+00    0,000000000e+00    0,000000000e+00    0,000000000e+00
     1010000000   -4,696029723e-01   -1,694640368e-01    2,205422521e-01   -2,527138889e-01    0,000000000e+00    0,000000000e+00    0,000000000e+00    0,000000000e+00
     1024000000   -4,619592726e-01    1,195160821e-01    2,093567699e-02   -3,311919868e-01    0,000000000e+00    0,000000000e+00    0,000000000e+00    0,000000000e+00
     1038000000   -2,620651722e-01    2,956652939e-01   -1,743208915e-01   -2,492132187e-01    0,000000000e+00    0,000000000e+00    0,000000000e+00    0,000000000e+00
     1052000000   -3,557980806e-02    3,117333651e-01   -2,554489076e-01   -7,759628445e-02    0,000000000e+00    0,000000000e+00    0,000000000e+00    0,000000000e+00
     1066000000    1,274285614e-01    2,081248313e-01   -2,228319645e-01    8,694594353e-02    0,000000000e+00    0,000000000e+00    0,000000000e+00    0,000000000e+00
     1080000000    2,108672708e-01    4,798622057e-02   -1,204694137e-01    1,918185502e-01    0,000000000e+00    0,000000000e+00    0,000000000e+00    0,000000000e+00
     1094000000    2,019682229e-01   -1,262288839e-01    1,642700657e-02    2,351451814e-01    0,000000000e+00    0,000000000e+00    0,000000000e+00    0,000000000e+00
     1108000000    1,002025679e-01   -2,836859524e-01    1,713984907e-01    2,056109160e-01    0,000000000e+00    0,000000000e+00    0,000000000e+00    0,000000000e+00
     1122000000   -1,026336551e-01   -3,676459789e-01    3,166230321e-01    9,059027582e-02    0,000000000e+00    0,000000000e+00    0,000000000e+00    0,000000000e+00
     1136000000   -3,503383696e-01   -2,716473043e-01    3,900160491e-01   -1,501747519e-01    0,000000000e+00    0,000000000e+00    0,000000000e+00    0,000000000e+00
     1150000000   -4,073995948e-01    3,213774785e-02    2,434311658e-01   -4,343019426e-01    0,000000000e+00    0,000000000e+00    0,000000000e+00    0,000000000e+00
     1164000000   -1,649426967e-01    2,219503671e-01   -9,577817470e-02   -5,156484246e-01    0,000000000e+00    0,000000000e+00    0,000000000e+00    0,000000000e+00
     1178000000    7,714555413e-02    8,749388903e-02   -3,554896116e-01   -3,473875523e-01    0,000000000e+00    0,000000000e+00    0,000000000e+00    0,000000000e+00
     1192000000    7,704781741e-02   -1,763019562e-01   -4,526214302e-01   -8,603159338e-02    0,000000000e+00    0,000000000e+00    0,000000000e+00    0,000000000e+00
     1206000000   -1,617220342e-01   -3,248547614e-01   -3,703886867e-01    1,924627870e-01    0,000000000e+00    0,000000000e+00    0,000000000e+00    0,000000000e+00
     1220000000   -4,544228017e-01   -1,752080470e-01   -1,050950512e-01    3,307719827e-01    0,000000000e+00    0,000000000e+00    0,000000000e+00    0,000000000e+00
     1234000000   -4,793807566e-01    1,693908721e-01    1,393948197e-01    2,242578566e-01    0,000000000e+00    0,000000000e+00    0,000000000e+00    0,000000000e+00
     1248000000   -2,424100488e-01    3,554815948e-01    1,901308000e-01    3,469232097e-02    0,000000000e+00    0,000000000e+00    0,000000000e+00    0,000000000e+00
     1262000000    5,124188494e-03    3,334204257e-01    1,287448108e-01   -6,747458875e-02    0,000000000e+00    0,000000000e+00    0,000000000e+00    0,000000000e+00
     1276000000    1,507759392e-01    2,021270394e-01    5,184741318e-02   -9,388995171e-02    0,000000000e+00    0,000000000e+00    0,000000000e+00    0,000000000e+00
     1290000000    2,142670006e-01    2,945569716e-02   -6,973631098e-04   -7,457783073e-02    0,000000000e+00    0,000000000e+00    0,000000000e+00    0,000000000e+00
     1304000000    2,066988796e-01   -1,498510092e-01   -1,816099510e-02   -3,605326638e-02    0,000000000e+00    0,000000000e+00    0,000000000e+00    0,000000000e+00
     1318000000    1,171025187e-01   -3,165572882e-01   -5,283546634e-03    1,845125109e-02    0,000000000e+00    0,000000000e+00    0,000000000e+00    0,000000000e+00
     1332000000   -7,122795284e-02   -4,326102436e-01    4,405373335e-02    5,926813558e-02    0,000000000e+00    0,000000000e+00    0,000000000e+00    0,000000000e+00
     1346000000   -3,276601434e-01   -4,379498065e-01    1,427936852e-01    4,202973843e-02    0,000000000e+00    0,000000000e+00    0,000000000e+00    0,000000000e+00
     1360000000   -5,509988070e-01   -2,472127378e-01    1,136773303e-01   -8,790116757e-02    0,000000000e+00    0,000000000e+00    0,000000000e+00    0,000000000e+00
     1374000000   -6,196692586e-01    2,580832504e-02    1,174676940e-01    5,822122470e-02    0,000000000e+00    0,000000000e+00    0,000000000e+00    0,000000000e+00
     1388000000   -5,188412070e-01    2,904156446e-01    2,199653834e-01   -6,319303531e-03    0,000000000e+00    0,000000000e+00    0,000000000e+00    0,000000000e+00
     1402000000   -3,085117936e-01    4,154832363e-01    2,254460901e-01   -9,584288299e-02    0,000000000e+00    0,000000000e+00    0,000000000e+00    0,000000000e+00
     1416000000   -9,831029177e-02    4,230751395e-01    1,872378737e-01   -1,088496298e-01    0,000000000e+00    0,000000000e+00    0,000000000e+00    0,000000000e+00
     1430000000    8,259356767e-02    3,313910365e-01    1,505659819e-01   -1,436114907e-01    0,000000000e+00    0,000000000e+00    0,000000000e+00    0,000000000e+00
     1444000000    1,780299246e-01    1,951333880e-01    1,514841616e-01   -1,074773520e-01    0,000000000e+00    0,000000000e+00    0,000000000e+00    0,000000000e+00
     1458000000    2,237825245e-01    3,584962711e-02    1,517554671e-01   -8,623176068e-02    0,000000000e+00    0,000000000e+00    0,000000000e+00    0,000000000e+00
     1472000000    2,060668021e-01   -1,440977603e-01    1,590964794e-01   -4,637442529e-02    0,000000000e+00    0,000000000e+00    0,000000000e+00    0,000000000e+00
     1486000000    1,079973876e-01   -3,177697361e-01    1,627139449e-01    1,113921404e-03    0,000000000e+00    0,000000000e+00    0,000000000e+00    0,000000000e+00
     1500000000   -9,445768595e-02   -4,625095427e-01    2,235458046e-01    5,352304131e-02    0,000000000e+00    0,000000000e+00    0,000000000e+00    0,000000000e+00
