! NanoVNA-App
! Date: 2025-09-25 14:26:19
! Start: 100MHz Stop: 1,5GHz Points: 101
! S-Parameter data: F S11 S21 S12 S22
# Hz S RI R 50
!     Frequency           S11_Real           S11_Imag           S21_Real           S21_Imag           S12_Real           S12_Imag           S22_Real           S22_Imag
      100000000   -2,909054235e-02   -4,122451413e-03    3,745267987e-01   -7,220084667e-01    0,000000000e+00    0,000000000e+00    0,000000000e+00    0,000000000e+00
      114000000   -1,661289856e-02    1,160804741e-02   -8,877792209e-02   -8,057630062e-01    0,000000000e+00    0,000000000e+00    0,000000000e+00    0,000000000e+00
      128000000    3,419531509e-03    1,054631453e-02   -5,144828558e-01   -6,211534142e-01    0,000000000e+00    0,000000000e+00    0,000000000e+00    0,000000000e+00
      142000000    1,444303151e-02   -3,078732640e-03   -7,676849961e-01   -2,370373011e-01    0,000000000e+00    0,000000000e+00    0,000000000e+00    0,000000000e+00
      156000000    1,551171951e-02   -1,471086126e-02   -7,700598836e-01    2,237583250e-01    0,000000000e+00    0,000000000e+00    0,000000000e+00    0,000000000e+00
      170000000    1,655590534e-02   -2,247618511e-02   -5,190545917e-01    6,051352620e-01    0,000000000e+00    0,000000000e+00    0,000000000e+00    0,000000000e+00
      184000000    2,099808119e-02   -3,698255494e-02   -1,018140018e-01    7,863562107e-01    0,000000000e+00    0,000000000e+00    0,000000000e+00    0,000000000e+00
      198000000    1,311592571e-02   -6,258030236e-02    3,430799246e-01    7,130867839e-01    0,000000000e+00    0,000000000e+00    0,000000000e+00    0,000000000e+00
      212000000   -1,868896559e-02   -8,169725537e-02    6,781197786e-01    4,106173515e-01    0,000000000e+00    0,000000000e+00    0,000000000e+00    0,000000000e+00
      226000000   -6,213793904e-02   -6,969323754e-02    7,960802317e-01   -2,972087264e-02    0,000000000e+00    0,000000000e+00    0,000000000e+00    0,000000000e+00
      240000000   -8,329473436e-02   -2,605655231e-02    6,470591426e-01   -4,665988684e-01    0,000000000e+00    0,000000000e+00    0,000000000e+00    0,000000000e+00
      254000000   -6,435548514e-02    1,742745191e-02    2,769168317e-01   -7,432115674e-01    0,000000000e+00    0,000000000e+00    0,000000000e+00    0,000000000e+00
      268000000   -2,398765646e-02    2,941831201e-02   -1,765731573e-01   -7,652868629e-01    0,000000000e+00    0,000000000e+00    0,000000000e+00    0,000000000e+00
      282000000    4,058973398e-03    1,213700511e-02   -5,626217723e-01   -5,374430418e-01    0,000000000e+00    0,000000000e+00    0,000000000e+00    0,000000000e+00
      296000000    9,557948448e-03   -7,754214108e-03   -7,608233094e-01   -1,395207494e-01    0,000000000e+00    0,000000000e+00    0,000000000e+00    0,000000000e+00
      310000000    1,090765838e-02   -1,609084383e-02   -7,139029503e-01    2,982447743e-01    0,000000000e+00    0,000000000e+00    0,000000000e+00    0,000000000e+00
      324000000    1,959246211e-02   -2,656204253e-02   -4,284956753e-01    6,376843452e-01    0,000000000e+00    0,000000000e+00    0,000000000e+00    0,000000000e+00
      338000000    2,570896596e-02   -5,205921829e-02   -1,094391756e-02    7,624056935e-01    0,000000000e+00    0,000000000e+00    0,000000000e+00    0,000000000e+00
      352000000    7,893635891e-03   -8,493466675e-02    4,060733616e-01    6,414785385e-01    0,000000000e+00    0,000000000e+00    0,000000000e+00    0,000000000e+00
      366000000   -3,482929990e-02   -9,619807452e-02    6,906268001e-01    3,121964335e-01    0,000000000e+00    0,000000000e+00    0,000000000e+00    0,000000000e+00
      380000000   -7,134319842e-02   -7,132989168e-02    7,485045195e-01   -1,249317676e-01    0,000000000e+00    0,000000000e+00    0,000000000e+00    0,000000000e+00
      394000000   -7,326605171e-02   -3,226664662e-02    5,485903025e-01   -5,198523998e-01    0,000000000e+00    0,000000000e+00    0,000000000e+00    0,000000000e+00
      408000000   -4,691016674e-02   -1,560898498e-02    1,626002043e-01   -7,315403223e-01    0,000000000e+00    0,000000000e+00    0,000000000e+00    0,000000000e+00
      422000000   -2,826009318e-02   -3,161100671e-02   -2,661735713e-01   -6,965726018e-01    0,000000000e+00    0,000000000e+00    0,000000000e+00    0,000000000e+00
      436000000   -3,982590139e-02   -5,216544122e-02   -6,028351188e-01   -4,342097044e-01    0,000000000e+00    0,000000000e+00    0,000000000e+00    0,000000000e+00
      450000000   -6,740472466e-02   -4,518164694e-02   -7,402889729e-01   -2,518766001e-02    0,000000000e+00    0,000000000e+00    0,000000000e+00    0,000000000e+00
      464000000   -7,407212257e-02   -1,251722407e-02   -6,219478250e-01    3,946323097e-01    0,000000000e+00    0,000000000e+00    0,000000000e+00    0,000000000e+00
      478000000   -4,923269525e-02    1,157451328e-02   -2,868317962e-01    6,670725346e-01    0,000000000e+00    0,000000000e+00    0,000000000e+00    0,000000000e+00
      492000000   -1,690748706e-02    6,435366347e-03    1,338078380e-01    7,034910321e-01    0,000000000e+00    0,000000000e+00    0,000000000e+00    0,000000000e+00
      506000000   -3,986866679e-03   -1,462684013e-02    4,979868829e-01    5,061696768e-01    0,000000000e+00    0,000000000e+00    0,000000000e+00    0,000000000e+00
      520000000   -5,707887933e-03   -3,008442372e-02    6,904752851e-01    1,447479576e-01    0,000000000e+00    0,000000000e+00    0,000000000e+00    0,000000000e+00
      534000000   -3,623456694e-03   -3,616968170e-02    6,444118023e-01   -2,599501312e-01    0,000000000e+00    0,000000000e+00    0,000000000e+00    0,000000000e+00
      548000000    7,952353917e-03   -5,287076160e-02    3,848876357e-01   -5,640751719e-01    0,000000000e+00    0,000000000e+00    0,000000000e+00    0,000000000e+00
      562000000    5,673930515e-03   -8,902864158e-02    8,501062170e-03   -6,715776920e-01    0,000000000e+00    0,000000000e+00    0,000000000e+00    0,000000000e+00
      576000000   -3,089395538e-02   -1,262723655e-01   -3,619950116e-01   -5,611430407e-01    0,000000000e+00    0,000000000e+00    0,000000000e+00    0,000000000e+00
      590000000   -9,492204338e-02   -1,276563108e-01   -6,150468588e-01   -2,716335058e-01    0,000000000e+00    0,000000000e+00    0,000000000e+00    0,000000000e+00
      604000000   -1,434869766e-01   -7,816307992e-02   -6,672997475e-01    1,257957965e-01    0,000000000e+00    0,000000000e+00    0,000000000e+00    0,000000000e+00
      618000000   -1,381014585e-01   -1,110865641e-02   -4,746787548e-01    4,855111241e-01    0,000000000e+00    0,000000000e+00    0,000000000e+00    0,000000000e+00
      632000000   -9,271506220e-02    2,162926830e-02   -1,137175411e-01    6,630935073e-01    0,000000000e+00    0,000000000e+00    0,000000000e+00    0,000000000e+00
      646000000   -5,454068258e-02    1,187222544e-02    2,732932270e-01    6,030896306e-01    0,000000000e+00    0,000000000e+00    0,000000000e+00    0,000000000e+00
      660000000   -4,759337008e-02   -8,162565529e-03    5,580595732e-01    3,402560949e-01    0,000000000e+00    0,000000000e+00    0,000000000e+00    0,000000000e+00
      674000000   -5,585993826e-02   -1,015660446e-02    6,444335580e-01   -3,963733092e-02    0,000000000e+00    0,000000000e+00    0,000000000e+00    0,000000000e+00
      688000000   -5,040893704e-02    3,451584373e-03    4,934749603e-01   -4,018732011e-01    0,000000000e+00    0,000000000e+00    0,000000000e+00    0,000000000e+00
      702000000   -2,654925175e-02    7,778818253e-03    1,666777432e-01   -6,086375713e-01    0,000000000e+00    0,000000000e+00    0,000000000e+00    0,000000000e+00
      716000000   -1,758823288e-03   -9,747680277e-03   -2,188859731e-01   -5,753606558e-01    0,000000000e+00    0,000000000e+00    0,000000000e+00    0,000000000e+00
      730000000    1,010135096e-02   -3,447891027e-02   -5,096982718e-01   -3,333592713e-01    0,000000000e+00    0,000000000e+00    0,000000000e+00    0,000000000e+00
      744000000    1,716731116e-02   -6,043956801e-02   -6,004802585e-01    3,286402673e-02    0,000000000e+00    0,000000000e+00    0,000000000e+00    0,000000000e+00
      758000000    2,227514237e-02   -1,040747091e-01   -4,550083280e-01    3,771731555e-01    0,000000000e+00    0,000000000e+00    0,000000000e+00    0,000000000e+00
      772000000   -4,766004626e-03   -1,732503921e-01   -1,400376111e-01    5,578392148e-01    0,000000000e+00    0,000000000e+00    0,000000000e+00    0,000000000e+00
      786000000   -1,054420397e-01   -2,316925228e-01    2,118159235e-01    5,195522904e-01    0,000000000e+00    0,000000000e+00    0,000000000e+00    0,000000000e+00
      800000000   -2,664507329e-01   -1,930347383e-01    4,717906415e-01    2,752401233e-01    0,000000000e+00    0,000000000e+00    0,000000000e+00    0,000000000e+00
      814000000   -3,647973239e-01    2,694219816e-03    5,078744888e-01   -8,867453784e-02    0,000000000e+00    0,000000000e+00    0,000000000e+00    0,000000000e+00
      828000000   -2,475153357e-01    2,320902497e-01    2,811103761e-01   -3,524363339e-01    0,000000000e+00    0,000000000e+00    0,000000000e+00    0,000000000e+00
      842000000    1,240168791e-02    2,782775462e-01   -1,540716644e-02   -3,622680902e-01    0,000000000e+00    0,000000000e+00    0,000000000e+00    0,000000000e+00
      856000000    2,129631191e-01    1,155162081e-01   -1,873684227e-01   -2,046214938e-01    0,000000000e+00    0,000000000e+00    0,000000000e+00    0,000000000e+00
      870000000    2,387282103e-01   -1,488167197e-01   -2,006285787e-01   -2,651363611e-02    0,000000000e+00    0,000000000e+00    0,000000000e+00    0,000000000e+00
      884000000    3,777217865e-02   -3,869650662e-01   -1,040439904e-01    7,050227374e-02    0,000000000e+00    0,000000000e+00    0,000000000e+00    0,000000000e+00
      898000000   -3,698080480e-01   -3,420481980e-01   -1,706477068e-02    2,683814056e-02    0,000000000e+00    0,000000000e+00    0,000000000e+00    0,000000000e+00
      912000000   -4,670217335e-01    1,381180286e-01   -1,207631156e-01    2,568495274e-02    0,000000000e+00    0,000000000e+00    0,000000000e+00    0,000000000e+00
      926000000   -9,596782178e-02    3,529973328e-01   -1,298375130e-01    1,355966777e-01    0,000000000e+00    0,000000000e+00    0,000000000e+00    0,000000000e+00
      940000000    1,860201061e-01    1,954763681e-01   -3,760605305e-02    2,162259221e-01    0,000000000e+00    0,000000000e+00    0,000000000e+00    0,000000000e+00
      954000000    2,546623349e-01   -4,662472010e-02    7,889319211e-02    2,277046293e-01    0,000000000e+00    0,000000000e+00    0,000000000e+00    0,000000000e+00
      968000000    1,738399863e-01   -2,602605820e-01    1,914404631e-01    1,824494600e-01    0,000000000e+00    0,000000000e+00    0,000000000e+00    0,000000000e+00
      982000000   -1,933791302e-02   -3,943668008e-01    2,793493569e-01    7,956048101e-02    0,000000000e+00    0,000000000e+00    0,000000000e+00    0,000000000e+00
      996000000   -2,751765549e-01   -3,746257126e-01    3,100239336e-01   -8,059030026e-02    0,000000000e+00    0,000000000e+00    0,000000000e+00    0,000000000e+00
     1010000000   -4,676618278e-01   -1,743977815e-01    2,223503143e-01   -2,516266108e-01    0,000000000e+00    0,000000000e+00    0,000000000e+00    0,000000000e+00
     1024000000   -4,641961753e-01    1,162733361e-01    2,421115525e-02   -3,314407468e-01    0,000000000e+00    0,000000000e+00    0,000000000e+00    0,000000000e+00
     1038000000   -2,625985742e-01    3,010104597e-01   -1,741764098e-01   -2,474761456e-01    0,000000000e+00    0,000000000e+00    0,000000000e+00    0,000000000e+00
     1052000000   -3,847618401e-02    3,075850606e-01   -2,560850084e-01   -7,764380425e-02    0,000000000e+00    0,000000000e+00    0,000000000e+00    0,000000000e+00
     1066000000    1,246607900e-01    2,079268694e-01   -2,209714651e-01    8,437637985e-02    0,000000000e+00    0,000000000e+00    0,000000000e+00    0,000000000e+00
     1080000000    2,056146115e-01    4,536627978e-02   -1,197749302e-01    1,939370036e-01    0,000000000e+00    0,000000000e+00    0,000000000e+00    0,000000000e+00
     1094000000    2,032859474e-01   -1,242898703e-01    1,790499315e-02    2,328865975e-01    0,000000000e+00    0,000000000e+00    0,000000000e+00    0,000000000e+00
     1108000000    1,044211090e-01   -2,867081165e-01    1,693943739e-01    2,069767565e-01    0,000000000e+00    0,000000000e+00    0,000000000e+00    0,000000000e+00
     1122000000   -9,768513590e-02   -3,696813583e-01    3,151213825e-01    9,061997384e-02    0,000000000e+00    0,000000000e+00    0,000000000e+00    0,000000000e+00
     1136000000   -3,505354524e-01   -2,713560760e-01    3,931027651e-01   -1,522035152e-01    0,000000000e+00    0,000000000e+00    0,000000000e+00    0,000000000e+00
     1150000000   -4,047540128e-01    3,989733756e-02    2,407554984e-01   -4,363214076e-01    0,000000000e+00    0,000000000e+00    0,000000000e+00    0,000000000e+00
     1164000000   -1,607410610e-01    2,221350670e-01   -9,555454552e-02   -5,152474046e-01    0,000000000e+00    0,000000000e+00    0,000000000e+00    0,000000000e+00
     1178000000    7,289567590e-02    8,524548262e-02   -3,584347963e-01   -3,464388251e-01    0,000000000e+00    0,000000000e+00    0,000000000e+00    0,000000000e+00
     1192000000    7,439508289e-02   -1,737527996e-01   -4,523101747e-01   -8,387450129e-02    0,000000000e+00    0,000000000e+00    0,000000000e+00    0,000000000e+00
     1206000000   -1,672725677e-01   -3,291789889e-01   -3,697172701e-01    1,871454865e-01    0,000000000e+00    0,000000000e+00    0,000000000e+00    0,000000000e+00
     1220000000   -4,560435712e-01   -1,743005812e-01   -1,077506021e-01    3,327320814e-01    0,000000000e+00    0,000000000e+00    0,000000000e+00    0,000000000e+00
     1234000000   -4,791771770e-01    1,680093259e-01    1,345192790e-01    2,221861482e-01    0,000000000e+00    0,000000000e+00    0,000000000e+00    0,000000000e+00
     1248000000   -2,386927605e-01    3,532349467e-01    1,928700954e-01    2,968370542e-02    0,000000000e+00    0,000000000e+00    0,000000000e+00    0,000000000e+00
     1262000000    3,827280831e-03    3,238150775e-01    1,311185509e-01   -7,515398413e-02    0,000000000e+00    0,000000000e+00    0,000000000e+00    0,000000000e+00
     1276000000    1,579719037e-01    1,965471208e-01    5,570716038e-02   -9,575416148e-02    0,000000000e+00    0,000000000e+00    0,000000000e+00    0,000000000e+00
     1290000000    2,171321958e-01    2,872730233e-02   -1,456939382e-03   -7,613311708e-02    0,000000000e+00    0,000000000e+00    0,000000000e+00    0,000000000e+00
     1304000000    2,029886246e-01   -1,444425434e-01   -2,201026492e-02   -2,812357619e-02    0,000000000e+00    0,000000000e+00    0,000000000e+00    0,000000000e+00
     1318000000    1,155916527e-01   -3,105707467e-01   -7,644166239e-03    2,277717553e-02    0,000000000e+00    0,000000000e+00    0,000000000e+00    0,000000000e+00
     1332000000   -6,670877337e-02   -4,335058630e-01    4,998406768e-02    6,508824974e-02    0,000000000e+00    0,000000000e+00    0,000000000e+00    0,000000000e+00
     1346000000   -3,305599391e-01   -4,289900064e-01    1,389449984e-01    4,466853663e-02    0,000000000e+00    0,000000000e+00    0,000000000e+00    0,000000000e+00
     1360000000   -5,566674471e-01   -2,460387647e-01    1,092036217e-01   -6,961967051e-02    0,000000000e+00    0,000000000e+00    0,000000000e+00    0,000000000e+00
     1374000000   -6,196457744e-01    2,282508463e-02    1,052450761e-01    6,201810762e-02    0,000000000e+00    0,000000000e+00    0,000000000e+00    0,000000000e+00
     1388000000   -5,232308507e-01    2,939912975e-01    2,184394300e-01   -1,202552463e-03    0,000000000e+00    0,000000000e+00    0,000000000e+00    0,000000000e+00
     1402000000   -3,003101051e-01    4,192985296e-01    2,189791203e-01   -7,190154493e-02    0,000000000e+00    0,000000000e+00    0,000000000e+00    0,000000000e+00
     1416000000   -8,998450637e-02    4,271440506e-01    1,931948215e-01   -1,144991741e-01    0,000000000e+00    0,000000000e+00    0,000000000e+00    0,000000000e+00
     1430000000    6,874644756e-02    3,402095735e-01    1,634001583e-01   -1,074951440e-01    0,000000000e+00    0,000000000e+00    0,000000000e+00    0,000000000e+00
     1444000000    1,779111028e-01    2,012840658e-01    1,491329968e-01   -1,079832613e-01    0,000000000e+00    0,000000000e+00    0,000000000e+00    0,000000000e+00
     1458000000    2,288802415e-01    3,729627654e-02    1,417513490e-01   -7,397672534e-02    0,000000000e+00    0,000000000e+00    0,000000000e+00    0,000000000e+00
     1472000000    2,039414197e-01   -1,475464702e-01    1,645033360e-01   -4,890212044e-02    0,000000000e+00    0,000000000e+00    0,000000000e+00    0,000000000e+00
     1486000000    9,904947877e-02   -3,265133202e-01    1,582507342e-01   -1,366390567e-02    0,000000000e+00    0,000000000e+00    0,000000000e+00    0,000000000e+00
     1500000000   -9,417080879e-02   -4,598000050e-01    2,167553455e-01    4,755429178e-02    0,000000000e+00    0,000000000e+00    0,000000000e+00    0,000000000e+00
