! NanoVNA-App
! Date: 2025-09-25 14:28:32
! Start: 100MHz Stop: 1,5GHz Points: 101
! S-Parameter data: F S11 S21 S12 S22
# Hz S RI R 50
!     Frequency           S11_Real           S11_Imag           S21_Real           S21_Imag           S12_Real           S12_Imag           S22_Real           S22_Imag
      100000000   -2,908165753e-02   -4,131117370e-03    3,745425940e-01   -7,219535112e-01    0,000000000e+00    0,000000000e+00    0,000000000e+00    0,000000000e+00
      114000000   -1,661323011e-02    1,159811765e-02   -8,888924122e-02   -8,058270812e-01    0,000000000e+00    0,000000000e+00    0,000000000e+00    0,000000000e+00
      128000000    3,414483042e-03    1,055834629e-02   -5,145707726e-01   -6,209949255e-01    0,000000000e+00    0,000000000e+00    0,000000000e+00    0,000000000e+00
      142000000    1,444418821e-02   -3,075616667e-03   -7,674773932e-01   -2,369740307e-01    0,000000000e+00    0,000000000e+00    0,000000000e+00    0,000000000e+00
      156000000    1,460540853e-02   -1,496282965e-02   -7,672163248e-01    2,182151526e-01    0,000000000e+00    0,000000000e+00    0,000000000e+00    0,000000000e+00
      170000000    1,652799360e-02   -2,254338004e-02   -5,188511610e-01    6,050636768e-01    0,000000000e+00    0,000000000e+00    0,000000000e+00    0,000000000e+00
      184000000    2,093696594e-02   -3,696553782e-02   -1,018459871e-01    7,866797447e-01    0,000000000e+00    0,000000000e+00    0,000000000e+00    0,000000000e+00
      198000000    1,311773807e-02   -6,260814518e-02    3,431076407e-01    7,130953074e-01    0,000000000e+00    0,000000000e+00    0,000000000e+00    0,000000000e+00
      212000000   -1,867417060e-02   -8,169930428e-02    6,783141494e-01    4,105795026e-01    0,000000000e+00    0,000000000e+00    0,000000000e+00    0,000000000e+00
      226000000   -6,204719841e-02   -6,966622919e-02    7,961507440e-01   -2,974703722e-02    0,000000000e+00    0,000000000e+00    0,000000000e+00    0,000000000e+00
      240000000   -8,331513405e-02   -2,604725584e-02    6,472202539e-01   -4,668802321e-01    0,000000000e+00    0,000000000e+00    0,000000000e+00    0,000000000e+00
      254000000   -6,437897682e-02    1,748437621e-02    2,773288190e-01   -7,429483533e-01    0,000000000e+00    0,000000000e+00    0,000000000e+00    0,000000000e+00
      268000000   -2,397076413e-02    2,946738526e-02   -1,772371233e-01   -7,652043700e-01    0,000000000e+00    0,000000000e+00    0,000000000e+00    0,000000000e+00
      282000000    4,119730555e-03    1,206743158e-02   -5,625098348e-01   -5,374069214e-01    0,000000000e+00    0,000000000e+00    0,000000000e+00    0,000000000e+00
      296000000    9,478693828e-03   -7,771201432e-03   -7,608656287e-01   -1,395992339e-01    0,000000000e+00    0,000000000e+00    0,000000000e+00    0,000000000e+00
      310000000    1,092998590e-02   -1,611814275e-02   -7,141589522e-01    2,987860441e-01    0,000000000e+00    0,000000000e+00    0,000000000e+00    0,000000000e+00
      324000000    1,944534853e-02   -2,650827169e-02   -4,289337397e-01    6,384211183e-01    0,000000000e+00    0,000000000e+00    0,000000000e+00    0,000000000e+00
      338000000    2,539540268e-02   -5,205100775e-02   -1,077442802e-02    7,620202899e-01    0,000000000e+00    0,000000000e+00    0,000000000e+00    0,000000000e+00
      352000000    7,540489547e-03   -8,490209281e-02    4,055205882e-01    6,403498650e-01    0,000000000e+00    0,000000000e+00    0,000000000e+00    0,000000000e+00
      366000000   -3,499025106e-02   -9,589745104e-02    6,906796098e-01    3,127598166e-01    0,000000000e+00    0,000000000e+00    0,000000000e+00    0,000000000e+00
      380000000   -7,126347721e-02   -7,114052773e-02    7,486275434e-01   -1,244430095e-01    0,000000000e+00    0,000000000e+00    0,000000000e+00    0,000000000e+00
      394000000   -7,310988009e-02   -3,247804940e-02    5,474312901e-01   -5,210896134e-01    0,000000000e+00    0,000000000e+00    0,000000000e+00    0,000000000e+00
      408000000   -4,701266810e-02   -1,571715437e-02    1,619884074e-01   -7,332814336e-01    0,000000000e+00    0,000000000e+00    0,000000000e+00    0,000000000e+00
      422000000   -2,839959785e-02   -3,145337105e-02   -2,660003901e-01   -6,962493658e-01    0,000000000e+00    0,000000000e+00    0,000000000e+00    0,000000000e+00
      436000000   -4,001334682e-02   -5,235395581e-02   -6,024637818e-01   -4,341527820e-01    0,000000000e+00    0,000000000e+00    0,000000000e+00    0,000000000e+00
      450000000   -6,747747213e-02   -4,489842802e-02   -7,406281233e-01   -2,510515042e-02    0,000000000e+00    0,000000000e+00    0,000000000e+00    0,000000000e+00
      464000000   -7,430607080e-02   -1,247371733e-02   -6,208651662e-01    3,946747780e-01    0,000000000e+00    0,000000000e+00    0,000000000e+00    0,000000000e+00
      478000000   -4,924403504e-02    1,207570266e-02   -2,860158086e-01    6,678252220e-01    0,000000000e+00    0,000000000e+00    0,000000000e+00    0,000000000e+00
      492000000   -1,681125537e-02    6,274136249e-03    1,343943477e-01    7,032685280e-01    0,000000000e+00    0,000000000e+00    0,000000000e+00    0,000000000e+00
      506000000   -3,816596465e-03   -1,528439764e-02    4,974983931e-01    5,054975748e-01    0,000000000e+00    0,000000000e+00    0,000000000e+00    0,000000000e+00
      520000000   -6,019225344e-03   -2,941905335e-02    6,888366938e-01    1,445471048e-01    0,000000000e+00    0,000000000e+00    0,000000000e+00    0,000000000e+00
      534000000   -3,251645481e-03   -3,578763083e-02    6,447501183e-01   -2,599087358e-01    0,000000000e+00    0,000000000e+00    0,000000000e+00    0,000000000e+00
      548000000    8,046344854e-03   -5,302260071e-02    3,853033483e-01   -5,636761785e-01    0,000000000e+00    0,000000000e+00    0,000000000e+00    0,000000000e+00
      562000000    6,004861090e-03   -8,968974650e-02    7,804845460e-03   -6,718598604e-01    0,000000000e+00    0,000000000e+00    0,000000000e+00    0,000000000e+00
      576000000   -3,148136660e-02   -1,265180111e-01   -3,619974852e-01   -5,612496138e-01    0,000000000e+00    0,000000000e+00    0,000000000e+00    0,000000000e+00
      590000000   -9,492994100e-02   -1,279107630e-01   -6,166454554e-01   -2,740439475e-01    0,000000000e+00    0,000000000e+00    0,000000000e+00    0,000000000e+00
      604000000   -1,427359432e-01   -7,787167281e-02   -6,668583155e-01    1,255345941e-01    0,000000000e+00    0,000000000e+00    0,000000000e+00    0,000000000e+00
      618000000   -1,376647055e-01   -1,113920473e-02   -4,752530754e-01    4,857366383e-01    0,000000000e+00    0,000000000e+00    0,000000000e+00    0,000000000e+00
      632000000   -9,340179712e-02    2,145551518e-02   -1,141577959e-01    6,622563601e-01    0,000000000e+00    0,000000000e+00    0,000000000e+00    0,000000000e+00
      646000000   -5,531230196e-02    1,147108711e-02    2,743732333e-01    6,043586731e-01    0,000000000e+00    0,000000000e+00    0,000000000e+00    0,000000000e+00
      660000000   -4,733261839e-02   -8,784146979e-03    5,576829910e-01    3,407893181e-01    0,000000000e+00    0,000000000e+00    0,000000000e+00    0,000000000e+00
      674000000   -5,533532426e-02   -1,037421450e-02    6,443513036e-01   -3,939216211e-02    0,000000000e+00    0,000000000e+00    0,000000000e+00    0,000000000e+00
      688000000   -5,045060441e-02    2,547123935e-03    4,939506352e-01   -4,019142389e-01    0,000000000e+00    0,000000000e+00    0,000000000e+00    0,000000000e+00
      702000000   -2,583143115e-02    6,922195200e-03    1,599976569e-01   -6,022517085e-01    0,000000000e+00    0,000000000e+00    0,000000000e+00    0,000000000e+00
      716000000   -2,114257310e-03   -8,409552276e-03   -2,177816331e-01   -5,757580996e-01    0,000000000e+00    0,000000000e+00    0,000000000e+00    0,000000000e+00
      730000000    1,016154606e-02   -3,483669087e-02   -5,086791515e-01   -3,340802491e-01    0,000000000e+00    0,000000000e+00    0,000000000e+00    0,000000000e+00
      744000000    1,722239144e-02   -6,056184322e-02   -6,007238626e-01    3,280964121e-02    0,000000000e+00    0,000000000e+00    0,000000000e+00    0,000000000e+00
      758000000    2,172970958e-02   -1,030045673e-01   -4,544624388e-01    3,769403100e-01    0,000000000e+00    0,000000000e+00    0,000000000e+00    0,000000000e+00
      772000000   -4,413906485e-03   -1,731908470e-01   -1,398592293e-01    5,574281216e-01    0,000000000e+00    0,000000000e+00    0,000000000e+00    0,000000000e+00
      786000000   -1,052422971e-01   -2,325953543e-01    2,117132545e-01    5,202035308e-01    0,000000000e+00    0,000000000e+00    0,000000000e+00    0,000000000e+00
      800000000   -2,654975355e-01   -1,929172873e-01    4,717205465e-01    2,762607932e-01    0,000000000e+00    0,000000000e+00    0,000000000e+00    0,000000000e+00
      814000000   -3,640407026e-01    3,993254621e-03    5,080252886e-01   -8,809657395e-02    0,000000000e+00    0,000000000e+00    0,000000000e+00    0,000000000e+00
      828000000   -2,472890913e-01    2,326037735e-01    2,818760276e-01   -3,516709507e-01    0,000000000e+00    0,000000000e+00    0,000000000e+00    0,000000000e+00
      842000000    1,302069332e-02    2,784954906e-01   -1,517014392e-02   -3,629347384e-01    0,000000000e+00    0,000000000e+00    0,000000000e+00    0,000000000e+00
      856000000    2,122407109e-01    1,149372831e-01   -1,881477982e-01   -2,055711746e-01    0,000000000e+00    0,000000000e+00    0,000000000e+00    0,000000000e+00
      870000000    2,389590889e-01   -1,488471031e-01   -2,003636062e-01   -2,661772445e-02    0,000000000e+00    0,000000000e+00    0,000000000e+00    0,000000000e+00
      884000000    3,762374446e-02   -3,865660429e-01   -1,045518443e-01    7,064672559e-02    0,000000000e+00    0,000000000e+00    0,000000000e+00    0,000000000e+00
      898000000   -3,697451055e-01   -3,427240551e-01   -1,710752398e-02    2,724616043e-02    0,000000000e+00    0,000000000e+00    0,000000000e+00    0,000000000e+00
      912000000   -4,671343863e-01    1,382510066e-01   -1,219154447e-01    2,575819381e-02    0,000000000e+00    0,000000000e+00    0,000000000e+00    0,000000000e+00
      926000000   -9,618423879e-02    3,498795331e-01   -1,291960031e-01    1,327282637e-01    0,000000000e+00    0,000000000e+00    0,000000000e+00    0,000000000e+00
      940000000    1,849083900e-01    1,958386302e-01   -3,808613122e-02    2,160097659e-01    0,000000000e+00    0,000000000e+00    0,000000000e+00    0,000000000e+00
      954000000    2,531519234e-01   -4,729410633e-02    7,892525941e-02    2,283223867e-01    0,000000000e+00    0,000000000e+00    0,000000000e+00    0,000000000e+00
      968000000    1,765002459e-01   -2,593376637e-01    1,926113814e-01    1,804576516e-01    0,000000000e+00    0,000000000e+00    0,000000000e+00    0,000000000e+00
      982000000   -1,684117876e-02   -3,917610049e-01    2,795383334e-01    7,985428721e-02    0,000000000e+00    0,000000000e+00    0,000000000e+00    0,000000000e+00
      996000000   -2,707359195e-01   -3,772343993e-01    3,092628419e-01   -7,916400582e-02    0,000000000e+00    0,000000000e+00    0,000000000e+00    0,000000000e+00
     1010000000   -4,697647095e-01   -1,696430445e-01    2,214884311e-01   -2,530378997e-01    0,000000000e+00    0,000000000e+00    0,000000000e+00    0,000000000e+00
     1024000000   -4,556650221e-01    1,138449386e-01    1,915061101e-02   -3,282718956e-01    0,000000000e+00    0,000000000e+00    0,000000000e+00    0,000000000e+00
     1038000000   -2,612822950e-01    3,002105355e-01   -1,753503233e-01   -2,487116307e-01    0,000000000e+00    0,000000000e+00    0,000000000e+00    0,000000000e+00
     1052000000   -3,581696004e-02    3,107598424e-01   -2,577210069e-01   -7,908810675e-02    0,000000000e+00    0,000000000e+00    0,000000000e+00    0,000000000e+00
     1066000000    1,240924224e-01    2,061636299e-01   -2,241506279e-01    8,599303663e-02    0,000000000e+00    0,000000000e+00    0,000000000e+00    0,000000000e+00
     1080000000    2,091628462e-01    4,735504836e-02   -1,205459908e-01    1,928912997e-01    0,000000000e+00    0,000000000e+00    0,000000000e+00    0,000000000e+00
     1094000000    2,033843696e-01   -1,259833425e-01    2,020323835e-02    2,339647114e-01    0,000000000e+00    0,000000000e+00    0,000000000e+00    0,000000000e+00
     1108000000    9,937907755e-02   -2,846494019e-01    1,693012267e-01    2,053291798e-01    0,000000000e+00    0,000000000e+00    0,000000000e+00    0,000000000e+00
     1122000000   -1,024931446e-01   -3,698151410e-01    3,176845908e-01    8,976051956e-02    0,000000000e+00    0,000000000e+00    0,000000000e+00    0,000000000e+00
     1136000000   -3,476576209e-01   -2,655730844e-01    3,928292990e-01   -1,495368183e-01    0,000000000e+00    0,000000000e+00    0,000000000e+00    0,000000000e+00
     1150000000   -4,053791761e-01    3,359736502e-02    2,438393980e-01   -4,368516207e-01    0,000000000e+00    0,000000000e+00    0,000000000e+00    0,000000000e+00
     1164000000   -1,573397070e-01    2,214177400e-01   -9,673923254e-02   -5,117475986e-01    0,000000000e+00    0,000000000e+00    0,000000000e+00    0,000000000e+00
     1178000000    7,510860264e-02    8,545410633e-02   -3,558334410e-01   -3,481020331e-01    0,000000000e+00    0,000000000e+00    0,000000000e+00    0,000000000e+00
     1192000000    7,412259281e-02   -1,753328741e-01   -4,543690979e-01   -8,117349446e-02    0,000000000e+00    0,000000000e+00    0,000000000e+00    0,000000000e+00
     1206000000   -1,631813347e-01   -3,243241310e-01   -3,703092039e-01    1,912511140e-01    0,000000000e+00    0,000000000e+00    0,000000000e+00    0,000000000e+00
     1220000000   -4,566391408e-01   -1,769000739e-01   -1,091374680e-01    3,251200318e-01    0,000000000e+00    0,000000000e+00    0,000000000e+00    0,000000000e+00
     1234000000   -4,740131497e-01    1,641423553e-01    1,410302520e-01    2,218929082e-01    0,000000000e+00    0,000000000e+00    0,000000000e+00    0,000000000e+00
     1248000000   -2,276513875e-01    3,547452688e-01    1,910602301e-01    3,600488976e-02    0,000000000e+00    0,000000000e+00    0,000000000e+00    0,000000000e+00
     1262000000    3,871843510e-04    3,307287991e-01    1,272699088e-01   -6,886212528e-02    0,000000000e+00    0,000000000e+00    0,000000000e+00    0,000000000e+00
     1276000000    1,590007544e-01    2,060744315e-01    5,626764521e-02   -9,432218969e-02    0,000000000e+00    0,000000000e+00    0,000000000e+00    0,000000000e+00
     1290000000    2,202145159e-01    2,933941595e-02    5,478643812e-03   -7,608415931e-02    0,000000000e+00    0,000000000e+00    0,000000000e+00    0,000000000e+00
     1304000000    2,066724896e-01   -1,476707160e-01   -2,208787389e-02   -3,148020431e-02    0,000000000e+00    0,000000000e+00    0,000000000e+00    0,000000000e+00
     1318000000    1,150564477e-01   -3,134747744e-01   -8,554855362e-03    2,527819574e-02    0,000000000e+00    0,000000000e+00    0,000000000e+00    0,000000000e+00
     1332000000   -6,409219652e-02   -4,328154624e-01    5,587047338e-02    6,452569366e-02    0,000000000e+00    0,000000000e+00    0,000000000e+00    0,000000000e+00
     1346000000   -3,268274367e-01   -4,359785318e-01    1,547695547e-01    4,780797288e-02    0,000000000e+00    0,000000000e+00    0,000000000e+00    0,000000000e+00
     1360000000   -5,557053685e-01   -2,446039170e-01    1,132569760e-01   -8,683257550e-02    0,000000000e+00    0,000000000e+00    0,000000000e+00    0,000000000e+00
     1374000000   -6,258364320e-01    3,669475764e-02    1,075717062e-01    7,034135610e-02    0,000000000e+00    0,000000000e+00    0,000000000e+00    0,000000000e+00
     1388000000   -5,155731440e-01    2,863418758e-01    2,334481329e-01   -3,831682727e-03    0,000000000e+00    0,000000000e+00    0,000000000e+00    0,000000000e+00
     1402000000   -3,042458892e-01    4,243503511e-01    2,252150625e-01   -8,411747962e-02    0,000000000e+00    0,000000000e+00    0,000000000e+00    0,000000000e+00
     1416000000   -9,991103411e-02    4,220697582e-01    1,845585406e-01   -1,133467406e-01    0,000000000e+00    0,000000000e+00    0,000000000e+00    0,000000000e+00
     1430000000    7,084851712e-02    3,444781601e-01    1,663077176e-01   -1,183768883e-01    0,000000000e+00    0,000000000e+00    0,000000000e+00    0,000000000e+00
     1444000000    1,805053651e-01    1,991023421e-01    1,511724889e-01   -1,029630825e-01    0,000000000e+00    0,000000000e+00    0,000000000e+00    0,000000000e+00
     1458000000    2,279049307e-01    3,306176886e-02    1,604364216e-01   -8,027549088e-02    0,000000000e+00    0,000000000e+00    0,000000000e+00    0,000000000e+00
     1472000000    2,029220611e-01   -1,457825154e-01    1,427419782e-01   -4,825777188e-02    0,000000000e+00    0,000000000e+00    0,000000000e+00    0,000000000e+00
     1486000000    1,080401689e-01   -3,215939105e-01    1,741197705e-01   -8,251197636e-03    0,000000000e+00    0,000000000e+00    0,000000000e+00    0,000000000e+00
     1500000000   -8,831842989e-02   -4,601021409e-01    2,100873441e-01    6,996763498e-02    0,000000000e+00    0,000000000e+00    0,000000000e+00    0,000000000e+00
