! NanoVNA-App
! Date: 2025-09-25 14:25:21
! Start: 100MHz Stop: 1,5GHz Points: 101
! S-Parameter data: F S11 S21 S12 S22
# Hz S RI R 50
!     Frequency           S11_Real           S11_Imag           S21_Real           S21_Imag           S12_Real           S12_Imag           S22_Real           S22_Imag
      100000000   -2,909709699e-02   -4,113079980e-03    3,745569289e-01   -7,220900059e-01    0,000000000e+00    0,000000000e+00    0,000000000e+00    0,000000000e+00
      114000000   -1,661173254e-02    1,160282735e-02   -8,885801584e-02   -8,056461811e-01    0,000000000e+00    0,000000000e+00    0,000000000e+00    0,000000000e+00
      128000000    3,419485642e-03    1,051949430e-02   -5,146816969e-01   -6,210435629e-01    0,000000000e+00    0,000000000e+00    0,000000000e+00    0,000000000e+00
      142000000    1,443418022e-02   -3,092318075e-03   -7,676714063e-01   -2,369915694e-01    0,000000000e+00    0,000000000e+00    0,000000000e+00    0,000000000e+00
      156000000    1,434405521e-02   -1,502072159e-02   -7,647433281e-01    2,201696932e-01    0,000000000e+00    0,000000000e+00    0,000000000e+00    0,000000000e+00
      170000000    1,654531248e-02   -2,247599140e-02   -5,187065005e-01    6,047505140e-01    0,000000000e+00    0,000000000e+00    0,000000000e+00    0,000000000e+00
      184000000    2,096340619e-02   -3,703374788e-02   -1,018797755e-01    7,865829468e-01    0,000000000e+00    0,000000000e+00    0,000000000e+00    0,000000000e+00
      198000000    1,310092025e-02   -6,262632459e-02    3,430090249e-01    7,130542994e-01    0,000000000e+00    0,000000000e+00    0,000000000e+00    0,000000000e+00
      212000000   -1,871203259e-02   -8,172699809e-02    6,783673167e-01    4,105493128e-01    0,000000000e+00    0,000000000e+00    0,000000000e+00    0,000000000e+00
      226000000   -6,200895086e-02   -6,966643780e-02    7,961405516e-01   -2,971555851e-02    0,000000000e+00    0,000000000e+00    0,000000000e+00    0,000000000e+00
      240000000   -8,329433203e-02   -2,606743388e-02    6,470839977e-01   -4,664338231e-01    0,000000000e+00    0,000000000e+00    0,000000000e+00    0,000000000e+00
      254000000   -6,434592605e-02    1,749431901e-02    2,771715820e-01   -7,433338761e-01    0,000000000e+00    0,000000000e+00    0,000000000e+00    0,000000000e+00
      268000000   -2,407086082e-02    2,939401194e-02   -1,766701490e-01   -7,650561929e-01    0,000000000e+00    0,000000000e+00    0,000000000e+00    0,000000000e+00
      282000000    4,071588628e-03    1,212562434e-02   -5,625669956e-01   -5,372527242e-01    0,000000000e+00    0,000000000e+00    0,000000000e+00    0,000000000e+00
      296000000    9,493270889e-03   -7,647360675e-03   -7,609702349e-01   -1,396522820e-01    0,000000000e+00    0,000000000e+00    0,000000000e+00    0,000000000e+00
      310000000    1,074170135e-02   -1,616943628e-02   -7,132788897e-01    2,966840565e-01    0,000000000e+00    0,000000000e+00    0,000000000e+00    0,000000000e+00
      324000000    1,964884810e-02   -2,644317411e-02   -4,288044274e-01    6,380385756e-01    0,000000000e+00    0,000000000e+00    0,000000000e+00    0,000000000e+00
      338000000    2,541179582e-02   -5,223534629e-02   -8,416490629e-03    7,653733492e-01    0,000000000e+00    0,000000000e+00    0,000000000e+00    0,000000000e+00
      352000000    7,614336442e-03   -8,496855199e-02    4,066599011e-01    6,410845518e-01    0,000000000e+00    0,000000000e+00    0,000000000e+00    0,000000000e+00
      366000000   -3,497532010e-02   -9,589333832e-02    6,910338402e-01    3,119985163e-01    0,000000000e+00    0,000000000e+00    0,000000000e+00    0,000000000e+00
      380000000   -7,138708234e-02   -7,115887851e-02    7,487193942e-01   -1,248043403e-01    0,000000000e+00    0,000000000e+00    0,000000000e+00    0,000000000e+00
      394000000   -7,317612320e-02   -3,235349432e-02    5,486938357e-01   -5,199314356e-01    0,000000000e+00    0,000000000e+00    0,000000000e+00    0,000000000e+00
      408000000   -4,701637849e-02   -1,553213410e-02    1,616901904e-01   -7,338911891e-01    0,000000000e+00    0,000000000e+00    0,000000000e+00    0,000000000e+00
      422000000   -2,820800245e-02   -3,156002238e-02   -2,655400038e-01   -6,965621710e-01    0,000000000e+00    0,000000000e+00    0,000000000e+00    0,000000000e+00
      436000000   -4,012692347e-02   -5,195046216e-02   -6,025136709e-01   -4,344476163e-01    0,000000000e+00    0,000000000e+00    0,000000000e+00    0,000000000e+00
      450000000   -6,764701754e-02   -4,479432479e-02   -7,404109240e-01   -2,533770911e-02    0,000000000e+00    0,000000000e+00    0,000000000e+00    0,000000000e+00
      464000000   -7,425424457e-02   -1,246317755e-02   -6,219125986e-01    3,949763775e-01    0,000000000e+00    0,000000000e+00    0,000000000e+00    0,000000000e+00
      478000000   -4,907448962e-02    1,215944439e-02   -2,861927152e-01    6,681544781e-01    0,000000000e+00    0,000000000e+00    0,000000000e+00    0,000000000e+00
      492000000   -1,680104993e-02    6,691467948e-03    1,345547289e-01    7,043654323e-01    0,000000000e+00    0,000000000e+00    0,000000000e+00    0,000000000e+00
      506000000   -3,837081837e-03   -1,481599919e-02    4,979624450e-01    5,065900683e-01    0,000000000e+00    0,000000000e+00    0,000000000e+00    0,000000000e+00
      520000000   -6,202854216e-03   -2,959199436e-02    6,893854141e-01    1,427594125e-01    0,000000000e+00    0,000000000e+00    0,000000000e+00    0,000000000e+00
      534000000   -3,234230913e-03   -3,592396528e-02    6,448647976e-01   -2,593838871e-01    0,000000000e+00    0,000000000e+00    0,000000000e+00    0,000000000e+00
      548000000    8,210380562e-03   -5,255604163e-02    3,855244517e-01   -5,645498633e-01    0,000000000e+00    0,000000000e+00    0,000000000e+00    0,000000000e+00
      562000000    5,829123314e-03   -8,938379586e-02    8,708345704e-03   -6,723178625e-01    0,000000000e+00    0,000000000e+00    0,000000000e+00    0,000000000e+00
      576000000   -3,115968034e-02   -1,264839321e-01   -3,618472517e-01   -5,610374808e-01    0,000000000e+00    0,000000000e+00    0,000000000e+00    0,000000000e+00
      590000000   -9,506540745e-02   -1,276904494e-01   -6,152305603e-01   -2,726541460e-01    0,000000000e+00    0,000000000e+00    0,000000000e+00    0,000000000e+00
      604000000   -1,430047899e-01   -7,787975669e-02   -6,667425632e-01    1,261882037e-01    0,000000000e+00    0,000000000e+00    0,000000000e+00    0,000000000e+00
      618000000   -1,375949234e-01   -1,121053845e-02   -4,746622741e-01    4,847448468e-01    0,000000000e+00    0,000000000e+00    0,000000000e+00    0,000000000e+00
      632000000   -9,271553904e-02    2,200179361e-02   -1,146352664e-01    6,639649272e-01    0,000000000e+00    0,000000000e+00    0,000000000e+00    0,000000000e+00
      646000000   -5,534166843e-02    1,122280955e-02    2,734476924e-01    6,034132838e-01    0,000000000e+00    0,000000000e+00    0,000000000e+00    0,000000000e+00
      660000000   -4,780907556e-02   -8,983953856e-03    5,577673316e-01    3,404723704e-01    0,000000000e+00    0,000000000e+00    0,000000000e+00    0,000000000e+00
      674000000   -5,531821772e-02   -1,068770234e-02    6,444321275e-01   -4,001530260e-02    0,000000000e+00    0,000000000e+00    0,000000000e+00    0,000000000e+00
      688000000   -5,091310665e-02    3,322675824e-03    4,932911396e-01   -4,018199146e-01    0,000000000e+00    0,000000000e+00    0,000000000e+00    0,000000000e+00
      702000000   -2,692149766e-02    6,984476000e-03    1,649959236e-01   -6,038534641e-01    0,000000000e+00    0,000000000e+00    0,000000000e+00    0,000000000e+00
      716000000   -1,467097900e-03   -8,737764321e-03   -2,195480764e-01   -5,753585100e-01    0,000000000e+00    0,000000000e+00    0,000000000e+00    0,000000000e+00
      730000000    9,530144744e-03   -3,404113650e-02   -5,093705654e-01   -3,333331048e-01    0,000000000e+00    0,000000000e+00    0,000000000e+00    0,000000000e+00
      744000000    1,729876548e-02   -6,121306866e-02   -6,011453271e-01    3,336283565e-02    0,000000000e+00    0,000000000e+00    0,000000000e+00    0,000000000e+00
      758000000    2,240265720e-02   -1,033271328e-01   -4,542868137e-01    3,768762648e-01    0,000000000e+00    0,000000000e+00    0,000000000e+00    0,000000000e+00
      772000000   -4,901323933e-03   -1,734729111e-01   -1,398722529e-01    5,573347807e-01    0,000000000e+00    0,000000000e+00    0,000000000e+00    0,000000000e+00
      786000000   -1,060246825e-01   -2,323369086e-01    2,114952654e-01    5,185778141e-01    0,000000000e+00    0,000000000e+00    0,000000000e+00    0,000000000e+00
      800000000   -2,654260397e-01   -1,930119097e-01    4,714941978e-01    2,753540874e-01    0,000000000e+00    0,000000000e+00    0,000000000e+00    0,000000000e+00
      814000000   -3,635925949e-01    3,634141758e-03    5,077192187e-01   -8,889088780e-02    0,000000000e+00    0,000000000e+00    0,000000000e+00    0,000000000e+00
      828000000   -2,471558899e-01    2,335355431e-01    2,822694778e-01   -3,528352082e-01    0,000000000e+00    0,000000000e+00    0,000000000e+00    0,000000000e+00
      842000000    1,272862870e-02    2,789018452e-01   -1,612194814e-02   -3,631081283e-01    0,000000000e+00    0,000000000e+00    0,000000000e+00    0,000000000e+00
      856000000    2,128759474e-01    1,150519550e-01   -1,876480579e-01   -2,049892843e-01    0,000000000e+00    0,000000000e+00    0,000000000e+00    0,000000000e+00
      870000000    2,386833578e-01   -1,489521861e-01   -2,004204839e-01   -2,582866512e-02    0,000000000e+00    0,000000000e+00    0,000000000e+00    0,000000000e+00
      884000000    3,727173060e-02   -3,870921433e-01   -1,043003276e-01    7,146006078e-02    0,000000000e+00    0,000000000e+00    0,000000000e+00    0,000000000e+00
      898000000   -3,694052398e-01   -3,410887420e-01   -1,727935299e-02    2,771683037e-02    0,000000000e+00    0,000000000e+00    0,000000000e+00    0,000000000e+00
      912000000   -4,684003890e-01    1,381651312e-01   -1,217090935e-01    2,626180463e-02    0,000000000e+00    0,000000000e+00    0,000000000e+00    0,000000000e+00
      926000000   -9,705634415e-02    3,495393693e-01   -1,299313307e-01    1,328637898e-01    0,000000000e+00    0,000000000e+00    0,000000000e+00    0,000000000e+00
      940000000    1,829779595e-01    1,961376220e-01   -3,933947533e-02    2,170319110e-01    0,000000000e+00    0,000000000e+00    0,000000000e+00    0,000000000e+00
      954000000    2,526596785e-01   -4,678989202e-02    7,893132418e-02    2,275127321e-01    0,000000000e+00    0,000000000e+00    0,000000000e+00    0,000000000e+00
      968000000    1,780193150e-01   -2,621234059e-01    1,930704117e-01    1,803591698e-01    0,000000000e+00    0,000000000e+00    0,000000000e+00    0,000000000e+00
      982000000   -1,939960383e-02   -3,961444199e-01    2,802870572e-01    7,884828001e-02    0,000000000e+00    0,000000000e+00    0,000000000e+00    0,000000000e+00
      996000000   -2,740903497e-01   -3,781906664e-01    3,087792993e-01   -7,925333828e-02    0,000000000e+00    0,000000000e+00    0,000000000e+00    0,000000000e+00
     1010000000   -4,669767618e-01   -1,757087559e-01    2,208667994e-01   -2,541016042e-01    0,000000000e+00    0,000000000e+00    0,000000000e+00    0,000000000e+00
     1024000000   -4,635353088e-01    1,172321439e-01    2,005082928e-02   -3,285699785e-01    0,000000000e+00    0,000000000e+00    0,000000000e+00    0,000000000e+00
     1038000000   -2,609118223e-01    2,985522151e-01   -1,743829697e-01   -2,462632805e-01    0,000000000e+00    0,000000000e+00    0,000000000e+00    0,000000000e+00
     1052000000   -3,467774019e-02    3,101127446e-01   -2,565170527e-01   -7,745891064e-02    0,000000000e+00    0,000000000e+00    0,000000000e+00    0,000000000e+00
     1066000000    1,278429925e-01    2,086270452e-01   -2,230119705e-01    8,171145618e-02    0,000000000e+00    0,000000000e+00    0,000000000e+00    0,000000000e+00
     1080000000    2,079326510e-01    4,492597282e-02   -1,200390011e-01    1,956708878e-01    0,000000000e+00    0,000000000e+00    0,000000000e+00    0,000000000e+00
     1094000000    2,045740634e-01   -1,298348755e-01    1,723912172e-02    2,354606092e-01    0,000000000e+00    0,000000000e+00    0,000000000e+00    0,000000000e+00
     1108000000    1,055327430e-01   -2,873389721e-01    1,682495177e-01    2,044450641e-01    0,000000000e+00    0,000000000e+00    0,000000000e+00    0,000000000e+00
     1122000000   -9,998890013e-02   -3,669947684e-01    3,147433102e-01    8,935694396e-02    0,000000000e+00    0,000000000e+00    0,000000000e+00    0,000000000e+00
     1136000000   -3,486920297e-01   -2,715180218e-01    3,919604719e-01   -1,488999426e-01    0,000000000e+00    0,000000000e+00    0,000000000e+00    0,000000000e+00
     1150000000   -4,100462794e-01    3,849066049e-02    2,430808693e-01   -4,370909929e-01    0,000000000e+00    0,000000000e+00    0,000000000e+00    0,000000000e+00
     1164000000   -1,635889411e-01    2,165217996e-01   -9,406135976e-02   -5,135240555e-01    0,000000000e+00    0,000000000e+00    0,000000000e+00    0,000000000e+00
     1178000000    7,831102610e-02    8,705347031e-02   -3,564057648e-01   -3,459042609e-01    0,000000000e+00    0,000000000e+00    0,000000000e+00    0,000000000e+00
     1192000000    7,592419535e-02   -1,717133075e-01   -4,521382749e-01   -8,027942479e-02    0,000000000e+00    0,000000000e+00    0,000000000e+00    0,000000000e+00
     1206000000   -1,644216627e-01   -3,232809901e-01   -3,715781569e-01    1,881845295e-01    0,000000000e+00    0,000000000e+00    0,000000000e+00    0,000000000e+00
     1220000000   -4,572003484e-01   -1,792648733e-01   -1,090412140e-01    3,260436356e-01    0,000000000e+00    0,000000000e+00    0,000000000e+00    0,000000000e+00
     1234000000   -4,684864581e-01    1,686512530e-01    1,356999278e-01    2,240577489e-01    0,000000000e+00    0,000000000e+00    0,000000000e+00    0,000000000e+00
     1248000000   -2,372335345e-01    3,532188833e-01    1,967876554e-01    3,017828427e-02    0,000000000e+00    0,000000000e+00    0,000000000e+00    0,000000000e+00
     1262000000    8,970890194e-03    3,275140524e-01    1,316183656e-01   -7,231237739e-02    0,000000000e+00    0,000000000e+00    0,000000000e+00    0,000000000e+00
     1276000000    1,473471671e-01    1,986077577e-01    4,976765066e-02   -9,962457418e-02    0,000000000e+00    0,000000000e+00    0,000000000e+00    0,000000000e+00
     1290000000    2,164786607e-01    2,789963968e-02   -2,283435781e-03   -7,727354765e-02    0,000000000e+00    0,000000000e+00    0,000000000e+00    0,000000000e+00
     1304000000    2,059227079e-01   -1,466954350e-01   -1,711088978e-02   -3,348485380e-02    0,000000000e+00    0,000000000e+00    0,000000000e+00    0,000000000e+00
     1318000000    1,173136681e-01   -3,113211691e-01   -3,010601969e-03    1,971757039e-02    0,000000000e+00    0,000000000e+00    0,000000000e+00    0,000000000e+00
     1332000000   -6,701857597e-02   -4,296644628e-01    4,624686018e-02    6,538058817e-02    0,000000000e+00    0,000000000e+00    0,000000000e+00    0,000000000e+00
     1346000000   -3,274722993e-01   -4,309863448e-01    1,398797929e-01    5,378904566e-02    0,000000000e+00    0,000000000e+00    0,000000000e+00    0,000000000e+00
     1360000000   -5,604674220e-01   -2,444071025e-01    1,118868589e-01   -7,543840259e-02    0,000000000e+00    0,000000000e+00    0,000000000e+00    0,000000000e+00
     1374000000   -6,178122759e-01    3,411769867e-02    1,151229814e-01    6,578604132e-02    0,000000000e+00    0,000000000e+00    0,000000000e+00    0,000000000e+00
     1388000000   -5,149292946e-01    2,821172178e-01    2,291887701e-01   -1,136638690e-02    0,000000000e+00    0,000000000e+00    0,000000000e+00    0,000000000e+00
     1402000000   -3,067823648e-01    4,249655604e-01    2,238301188e-01   -7,675443590e-02    0,000000000e+00    0,000000000e+00    0,000000000e+00    0,000000000e+00
     1416000000   -9,287002683e-02    4,201427400e-01    1,926997304e-01   -1,201600432e-01    0,000000000e+00    0,000000000e+00    0,000000000e+00    0,000000000e+00
     1430000000    7,555314153e-02    3,375686109e-01    1,583189219e-01   -1,376101971e-01    0,000000000e+00    0,000000000e+00    0,000000000e+00    0,000000000e+00
     1444000000    1,723518670e-01    1,985393018e-01    1,519946754e-01   -1,056277752e-01    0,000000000e+00    0,000000000e+00    0,000000000e+00    0,000000000e+00
     1458000000    2,270786762e-01    3,736175969e-02    1,514763832e-01   -7,358257473e-02    0,000000000e+00    0,000000000e+00    0,000000000e+00    0,000000000e+00
     1472000000    2,035342157e-01   -1,457315683e-01    1,441425234e-01   -5,215207487e-02    0,000000000e+00    0,000000000e+00    0,000000000e+00    0,000000000e+00
     1486000000    1,062684432e-01   -3,251627386e-01    1,551600397e-01   -1,932882122e-03    0,000000000e+00    0,000000000e+00    0,000000000e+00    0,000000000e+00
     1500000000   -8,672380447e-02   -4,588441253e-01    2,018656284e-01    4,361189529e-02    0,000000000e+00    0,000000000e+00    0,000000000e+00    0,000000000e+00
