! NanoVNA-App
! Date: 2025-09-25 14:21:53
! Start: 100MHz Stop: 1,5GHz Points: 101
! S-Parameter data: F S11 S21 S12 S22
# Hz S RI R 50
!     Frequency           S11_Real           S11_Imag           S21_Real           S21_Imag           S12_Real           S12_Imag           S22_Real           S22_Imag
      100000000   -2,908872254e-02   -4,118030891e-03    3,744356930e-01   -7,221187353e-01    0,000000000e+00    0,000000000e+00    0,000000000e+00    0,000000000e+00
      114000000   -1,658924855e-02    1,162464172e-02   -8,890558779e-02   -8,058844805e-01    0,000000000e+00    0,000000000e+00    0,000000000e+00    0,000000000e+00
      128000000    3,413888160e-03    1,052325498e-02   -5,147981048e-01   -6,210174561e-01    0,000000000e+00    0,000000000e+00    0,000000000e+00    0,000000000e+00
      142000000    1,444876846e-02   -3,063790966e-03   -7,673114538e-01   -2,368670851e-01    0,000000000e+00    0,000000000e+00    0,000000000e+00    0,000000000e+00
      156000000    1,552004833e-02   -1,468759123e-02   -7,730137110e-01    2,232743502e-01    0,000000000e+00    0,000000000e+00    0,000000000e+00    0,000000000e+00
      170000000    1,653752662e-02   -2,256952599e-02   -5,186366439e-01    6,048284173e-01    0,000000000e+00    0,000000000e+00    0,000000000e+00    0,000000000e+00
      184000000    2,102460340e-02   -3,709312528e-02   -1,017464027e-01    7,867417336e-01    0,000000000e+00    0,000000000e+00    0,000000000e+00    0,000000000e+00
      198000000    1,304436382e-02   -6,257551908e-02    3,429002166e-01    7,129945755e-01    0,000000000e+00    0,000000000e+00    0,000000000e+00    0,000000000e+00
      212000000   -1,873049699e-02   -8,168437332e-02    6,783850193e-01    4,105650783e-01    0,000000000e+00    0,000000000e+00    0,000000000e+00    0,000000000e+00
      226000000   -6,209318340e-02   -6,961381435e-02    7,961546183e-01   -2,977458015e-02    0,000000000e+00    0,000000000e+00    0,000000000e+00    0,000000000e+00
      240000000   -8,314613253e-02   -2,605915256e-02    6,471108198e-01   -4,666987956e-01    0,000000000e+00    0,000000000e+00    0,000000000e+00    0,000000000e+00
      254000000   -6,434869021e-02    1,732506417e-02    2,771546543e-01   -7,436956167e-01    0,000000000e+00    0,000000000e+00    0,000000000e+00    0,000000000e+00
      268000000   -2,433717996e-02    2,954826504e-02   -1,775724590e-01   -7,651029825e-01    0,000000000e+00    0,000000000e+00    0,000000000e+00    0,000000000e+00
      282000000    4,132654518e-03    1,217772625e-02   -5,627574921e-01   -5,367361307e-01    0,000000000e+00    0,000000000e+00    0,000000000e+00    0,000000000e+00
      296000000    9,597011842e-03   -7,644549012e-03   -7,609268427e-01   -1,395814270e-01    0,000000000e+00    0,000000000e+00    0,000000000e+00    0,000000000e+00
      310000000    1,092080772e-02   -1,607370935e-02   -7,140805721e-01    2,973808050e-01    0,000000000e+00    0,000000000e+00    0,000000000e+00    0,000000000e+00
      324000000    1,942445524e-02   -2,655256167e-02   -4,286257923e-01    6,373201609e-01    0,000000000e+00    0,000000000e+00    0,000000000e+00    0,000000000e+00
      338000000    2,536060102e-02   -5,209697038e-02   -1,238736976e-02    7,608066201e-01    0,000000000e+00    0,000000000e+00    0,000000000e+00    0,000000000e+00
      352000000    7,084951736e-03   -8,500345051e-02    4,051874876e-01    6,409205794e-01    0,000000000e+00    0,000000000e+00    0,000000000e+00    0,000000000e+00
      366000000   -3,495033830e-02   -9,606845677e-02    6,907462478e-01    3,120799959e-01    0,000000000e+00    0,000000000e+00    0,000000000e+00    0,000000000e+00
      380000000   -7,130512595e-02   -7,124157250e-02    7,480605245e-01   -1,250695437e-01    0,000000000e+00    0,000000000e+00    0,000000000e+00    0,000000000e+00
      394000000   -7,321842015e-02   -3,262023628e-02    5,471197367e-01   -5,209870338e-01    0,000000000e+00    0,000000000e+00    0,000000000e+00    0,000000000e+00
      408000000   -4,677649587e-02   -1,566383056e-02    1,637106538e-01   -7,324142456e-01    0,000000000e+00    0,000000000e+00    0,000000000e+00    0,000000000e+00
      422000000   -2,843116969e-02   -3,149197623e-02   -2,663253546e-01   -6,958779693e-01    0,000000000e+00    0,000000000e+00    0,000000000e+00    0,000000000e+00
      436000000   -4,027250409e-02   -5,180732906e-02   -6,024231315e-01   -4,337784648e-01    0,000000000e+00    0,000000000e+00    0,000000000e+00    0,000000000e+00
      450000000   -6,755857915e-02   -4,496439174e-02   -7,403606176e-01   -2,555162460e-02    0,000000000e+00    0,000000000e+00    0,000000000e+00    0,000000000e+00
      464000000   -7,418524474e-02   -1,226418093e-02   -6,216115952e-01    3,945249319e-01    0,000000000e+00    0,000000000e+00    0,000000000e+00    0,000000000e+00
      478000000   -4,901509732e-02    1,164933015e-02   -2,864973545e-01    6,671039462e-01    0,000000000e+00    0,000000000e+00    0,000000000e+00    0,000000000e+00
      492000000   -1,689995266e-02    6,293979473e-03    1,343741864e-01    7,039420009e-01    0,000000000e+00    0,000000000e+00    0,000000000e+00    0,000000000e+00
      506000000   -3,888778389e-03   -1,480471622e-02    4,975396395e-01    5,062179565e-01    0,000000000e+00    0,000000000e+00    0,000000000e+00    0,000000000e+00
      520000000   -5,852861796e-03   -2,956016548e-02    6,880270243e-01    1,439810842e-01    0,000000000e+00    0,000000000e+00    0,000000000e+00    0,000000000e+00
      534000000   -3,579438431e-03   -3,559594229e-02    6,447387338e-01   -2,596575022e-01    0,000000000e+00    0,000000000e+00    0,000000000e+00    0,000000000e+00
      548000000    7,933307439e-03   -5,277554691e-02    3,846255839e-01   -5,643643737e-01    0,000000000e+00    0,000000000e+00    0,000000000e+00    0,000000000e+00
      562000000    5,388939753e-03   -8,924278617e-02    7,635221817e-03   -6,722210646e-01    0,000000000e+00    0,000000000e+00    0,000000000e+00    0,000000000e+00
      576000000   -3,101321682e-02   -1,260288954e-01   -3,625828624e-01   -5,602717996e-01    0,000000000e+00    0,000000000e+00    0,000000000e+00    0,000000000e+00
      590000000   -9,511927515e-02   -1,278547049e-01   -6,174013615e-01   -2,742359638e-01    0,000000000e+00    0,000000000e+00    0,000000000e+00    0,000000000e+00
      604000000   -1,432163566e-01   -7,770217210e-02   -6,677500010e-01    1,269946396e-01    0,000000000e+00    0,000000000e+00    0,000000000e+00    0,000000000e+00
      618000000   -1,380028874e-01   -1,195923053e-02   -4,752553999e-01    4,847171009e-01    0,000000000e+00    0,000000000e+00    0,000000000e+00    0,000000000e+00
      632000000   -9,263688326e-02    2,177038789e-02   -1,134077907e-01    6,632368565e-01    0,000000000e+00    0,000000000e+00    0,000000000e+00    0,000000000e+00
      646000000   -5,555546284e-02    1,149623282e-02    2,726944387e-01    6,043094397e-01    0,000000000e+00    0,000000000e+00    0,000000000e+00    0,000000000e+00
      660000000   -4,849286005e-02   -8,253270760e-03    5,571673512e-01    3,399783671e-01    0,000000000e+00    0,000000000e+00    0,000000000e+00    0,000000000e+00
      674000000   -5,534766614e-02   -1,073450223e-02    6,443766356e-01   -4,020971432e-02    0,000000000e+00    0,000000000e+00    0,000000000e+00    0,000000000e+00
      688000000   -5,062526464e-02    2,632202348e-03    4,937887490e-01   -4,016788304e-01    0,000000000e+00    0,000000000e+00    0,000000000e+00    0,000000000e+00
      702000000   -2,620963939e-02    6,544313859e-03    1,625323594e-01   -6,018211842e-01    0,000000000e+00    0,000000000e+00    0,000000000e+00    0,000000000e+00
      716000000   -2,089933725e-03   -8,400082588e-03   -2,187809646e-01   -5,752332211e-01    0,000000000e+00    0,000000000e+00    0,000000000e+00    0,000000000e+00
      730000000    9,088451043e-03   -3,454703838e-02   -5,094660521e-01   -3,333166540e-01    0,000000000e+00    0,000000000e+00    0,000000000e+00    0,000000000e+00
      744000000    1,637315750e-02   -6,186225638e-02   -6,008027792e-01    3,313319385e-02    0,000000000e+00    0,000000000e+00    0,000000000e+00    0,000000000e+00
      758000000    2,250977792e-02   -1,040274501e-01   -4,540578425e-01    3,779666722e-01    0,000000000e+00    0,000000000e+00    0,000000000e+00    0,000000000e+00
      772000000   -5,353434943e-03   -1,740509123e-01   -1,394444406e-01    5,581007600e-01    0,000000000e+00    0,000000000e+00    0,000000000e+00    0,000000000e+00
      786000000   -1,053852066e-01   -2,317775041e-01    2,116047889e-01    5,189656019e-01    0,000000000e+00    0,000000000e+00    0,000000000e+00    0,000000000e+00
      800000000   -2,655113637e-01   -1,930021644e-01    4,722138643e-01    2,750867605e-01    0,000000000e+00    0,000000000e+00    0,000000000e+00    0,000000000e+00
      814000000   -3,635852039e-01    4,313447978e-03    5,074978471e-01   -8,888971806e-02    0,000000000e+00    0,000000000e+00    0,000000000e+00    0,000000000e+00
      828000000   -2,479104549e-01    2,329592705e-01    2,811739743e-01   -3,526777327e-01    0,000000000e+00    0,000000000e+00    0,000000000e+00    0,000000000e+00
      842000000    1,287065912e-02    2,783904374e-01   -1,614214852e-02   -3,627305627e-01    0,000000000e+00    0,000000000e+00    0,000000000e+00    0,000000000e+00
      856000000    2,128290981e-01    1,154309660e-01   -1,877260208e-01   -2,047025263e-01    0,000000000e+00    0,000000000e+00    0,000000000e+00    0,000000000e+00
      870000000    2,385209799e-01   -1,486518383e-01   -2,003683746e-01   -2,553985082e-02    0,000000000e+00    0,000000000e+00    0,000000000e+00    0,000000000e+00
      884000000    3,749950975e-02   -3,866563439e-01   -1,043883786e-01    7,054381073e-02    0,000000000e+00    0,000000000e+00    0,000000000e+00    0,000000000e+00
      898000000   -3,689976335e-01   -3,414350748e-01   -1,673744805e-02    2,788501047e-02    0,000000000e+00    0,000000000e+00    0,000000000e+00    0,000000000e+00
      912000000   -4,659912884e-01    1,390743405e-01   -1,158890948e-01    2,259430103e-02    0,000000000e+00    0,000000000e+00    0,000000000e+00    0,000000000e+00
      926000000   -9,367677569e-02    3,505777717e-01   -1,271173954e-01    1,338557601e-01    0,000000000e+00    0,000000000e+00    0,000000000e+00    0,000000000e+00
      940000000    1,818952858e-01    1,935724020e-01   -3,874766827e-02    2,162186652e-01    0,000000000e+00    0,000000000e+00    0,000000000e+00    0,000000000e+00
      954000000    2,564745545e-01   -4,726534709e-02    8,021929115e-02    2,291181833e-01    0,000000000e+00    0,000000000e+00    0,000000000e+00    0,000000000e+00
      968000000    1,746210903e-01   -2,609660923e-01    1,918849796e-01    1,796699315e-01    0,000000000e+00    0,000000000e+00    0,000000000e+00    0,000000000e+00
      982000000   -1,946925558e-02   -3,939915299e-01    2,800582945e-01    8,055739105e-02    0,000000000e+00    0,000000000e+00    0,000000000e+00    0,000000000e+00
      996000000   -2,745099664e-01   -3,789113164e-01    3,094383478e-01   -8,106859028e-02    0,000000000e+00    0,000000000e+00    0,000000000e+00    0,000000000e+00
     1010000000   -4,719930589e-01   -1,705778837e-01    2,221157402e-01   -2,508466840e-01    0,000000000e+00    0,000000000e+00    0,000000000e+00    0,000000000e+00
     1024000000   -4,561962485e-01    1,182951853e-01    2,101592533e-02   -3,297415972e-01    0,000000000e+00    0,000000000e+00    0,000000000e+00    0,000000000e+00
     1038000000   -2,630342245e-01    3,011549711e-01   -1,732082665e-01   -2,475906014e-01    0,000000000e+00    0,000000000e+00    0,000000000e+00    0,000000000e+00
     1052000000   -3,757157549e-02    3,119032979e-01   -2,564439178e-01   -7,847412676e-02    0,000000000e+00    0,000000000e+00    0,000000000e+00    0,000000000e+00
     1066000000    1,253401488e-01    2,073567212e-01   -2,235469073e-01    8,211597055e-02    0,000000000e+00    0,000000000e+00    0,000000000e+00    0,000000000e+00
     1080000000    2,093131840e-01    4,797397554e-02   -1,220582426e-01    1,919066459e-01    0,000000000e+00    0,000000000e+00    0,000000000e+00    0,000000000e+00
     1094000000    2,016491145e-01   -1,311732680e-01    1,743877679e-02    2,347499728e-01    0,000000000e+00    0,000000000e+00    0,000000000e+00    0,000000000e+00
     1108000000    9,913126379e-02   -2,836443186e-01    1,682029366e-01    2,064363360e-01    0,000000000e+00    0,000000000e+00    0,000000000e+00    0,000000000e+00
     1122000000   -9,919182956e-02   -3,718219101e-01    3,159011304e-01    9,011945873e-02    0,000000000e+00    0,000000000e+00    0,000000000e+00    0,000000000e+00
     1136000000   -3,495830297e-01   -2,721138597e-01    3,924776912e-01   -1,508738548e-01    0,000000000e+00    0,000000000e+00    0,000000000e+00    0,000000000e+00
     1150000000   -4,068049788e-01    3,279821575e-02    2,415942699e-01   -4,354280829e-01    0,000000000e+00    0,000000000e+00    0,000000000e+00    0,000000000e+00
     1164000000   -1,590634584e-01    2,145389020e-01   -9,311018139e-02   -5,170674324e-01    0,000000000e+00    0,000000000e+00    0,000000000e+00    0,000000000e+00
     1178000000    7,898752391e-02    8,257678896e-02   -3,554710746e-01   -3,482870460e-01    0,000000000e+00    0,000000000e+00    0,000000000e+00    0,000000000e+00
     1192000000    7,411398739e-02   -1,725717187e-01   -4,540458322e-01   -8,224655688e-02    0,000000000e+00    0,000000000e+00    0,000000000e+00    0,000000000e+00
     1206000000   -1,652682573e-01   -3,260534704e-01   -3,715087175e-01    1,881053299e-01    0,000000000e+00    0,000000000e+00    0,000000000e+00    0,000000000e+00
     1220000000   -4,552395046e-01   -1,835189313e-01   -1,058579609e-01    3,248060942e-01    0,000000000e+00    0,000000000e+00    0,000000000e+00    0,000000000e+00
     1234000000   -4,741785824e-01    1,715936363e-01    1,351622343e-01    2,205979526e-01    0,000000000e+00    0,000000000e+00    0,000000000e+00    0,000000000e+00
     1248000000   -2,302061319e-01    3,515957594e-01    1,984699517e-01    3,504116461e-02    0,000000000e+00    0,000000000e+00    0,000000000e+00    0,000000000e+00
     1262000000    7,961699739e-03    3,317138851e-01    1,338561624e-01   -7,158885896e-02    0,000000000e+00    0,000000000e+00    0,000000000e+00    0,000000000e+00
     1276000000    1,536442488e-01    1,963339746e-01    5,021990091e-02   -9,902518988e-02    0,000000000e+00    0,000000000e+00    0,000000000e+00    0,000000000e+00
     1290000000    2,146966606e-01    3,284984827e-02   -2,279495238e-04   -7,397802919e-02    0,000000000e+00    0,000000000e+00    0,000000000e+00    0,000000000e+00
     1304000000    2,028765529e-01   -1,463613659e-01   -2,045572549e-02   -3,306964412e-02    0,000000000e+00    0,000000000e+00    0,000000000e+00    0,000000000e+00
     1318000000    1,139883846e-01   -3,131313026e-01   -1,008538343e-02    1,934528537e-02    0,000000000e+00    0,000000000e+00    0,000000000e+00    0,000000000e+00
     1332000000   -6,295813620e-02   -4,347237051e-01    4,971023649e-02    6,559964269e-02    0,000000000e+00    0,000000000e+00    0,000000000e+00    0,000000000e+00
     1346000000   -3,257845044e-01   -4,370448887e-01    1,485137939e-01    4,867991060e-02    0,000000000e+00    0,000000000e+00    0,000000000e+00    0,000000000e+00
     1360000000   -5,565840006e-01   -2,431461662e-01    1,044147536e-01   -7,832404226e-02    0,000000000e+00    0,000000000e+00    0,000000000e+00    0,000000000e+00
     1374000000   -6,206898689e-01    3,018880077e-02    1,052996591e-01    5,423252657e-02    0,000000000e+00    0,000000000e+00    0,000000000e+00    0,000000000e+00
     1388000000   -5,071046352e-01    2,945878506e-01    2,306255996e-01    3,309231950e-03    0,000000000e+00    0,000000000e+00    0,000000000e+00    0,000000000e+00
     1402000000   -3,012975752e-01    4,198325276e-01    2,323940247e-01   -8,045396954e-02    0,000000000e+00    0,000000000e+00    0,000000000e+00    0,000000000e+00
     1416000000   -8,864311129e-02    4,228865206e-01    1,923167259e-01   -1,068029776e-01    0,000000000e+00    0,000000000e+00    0,000000000e+00    0,000000000e+00
     1430000000    6,628505886e-02    3,303351402e-01    1,393979341e-01   -1,016402245e-01    0,000000000e+00    0,000000000e+00    0,000000000e+00    0,000000000e+00
     1444000000    1,736293584e-01    2,046377063e-01    1,583653837e-01   -9,142966568e-02    0,000000000e+00    0,000000000e+00    0,000000000e+00    0,000000000e+00
     1458000000    2,236552387e-01    3,470705450e-02    1,572738290e-01   -7,879337668e-02    0,000000000e+00    0,000000000e+00    0,000000000e+00    0,000000000e+00
     1472000000    2,045717090e-01   -1,450888813e-01    1,476316452e-01   -5,857080221e-02    0,000000000e+00    0,000000000e+00    0,000000000e+00    0,000000000e+00
     1486000000    1,061531454e-01   -3,263956606e-01    1,704624146e-01   -1,328162756e-02    0,000000000e+00    0,000000000e+00    0,000000000e+00    0,000000000e+00
     1500000000   -9,127359092e-02   -4,639384449e-01    2,102335095e-01    5,817442760e-02    0,000000000e+00    0,000000000e+00    0,000000000e+00    0,000000000e+00
