! NanoVNA-App
! Date: 2025-09-25 14:24:37
! Start: 100MHz Stop: 1,5GHz Points: 101
! S-Parameter data: F S11 S21 S12 S22
# Hz S RI R 50
!     Frequency           S11_Real           S11_Imag           S21_Real           S21_Imag           S12_Real           S12_Imag           S22_Real           S22_Imag
      100000000   -2,908445150e-02   -4,131216090e-03    3,744796216e-01   -7,220720649e-01    0,000000000e+00    0,000000000e+00    0,000000000e+00    0,000000000e+00
      114000000   -1,659935713e-02    1,162272878e-02   -8,897224814e-02   -8,059427738e-01    0,000000000e+00    0,000000000e+00    0,000000000e+00    0,000000000e+00
      128000000    3,440460656e-03    1,054884121e-02   -5,147174001e-01   -6,211015582e-01    0,000000000e+00    0,000000000e+00    0,000000000e+00    0,000000000e+00
      142000000    1,446313411e-02   -3,082881449e-03   -7,672419548e-01   -2,369270623e-01    0,000000000e+00    0,000000000e+00    0,000000000e+00    0,000000000e+00
      156000000    1,503168605e-02   -1,498860866e-02   -7,677995563e-01    2,223723382e-01    0,000000000e+00    0,000000000e+00    0,000000000e+00    0,000000000e+00
      170000000    1,648412459e-02   -2,257274464e-02   -5,186713338e-01    6,050711274e-01    0,000000000e+00    0,000000000e+00    0,000000000e+00    0,000000000e+00
      184000000    2,094770595e-02   -3,702935949e-02   -1,020084694e-01    7,867040038e-01    0,000000000e+00    0,000000000e+00    0,000000000e+00    0,000000000e+00
      198000000    1,314227935e-02   -6,263390929e-02    3,432292938e-01    7,131748796e-01    0,000000000e+00    0,000000000e+00    0,000000000e+00    0,000000000e+00
      212000000   -1,870997995e-02   -8,164654672e-02    6,783899069e-01    4,106836915e-01    0,000000000e+00    0,000000000e+00    0,000000000e+00    0,000000000e+00
      226000000   -6,202685460e-02   -6,970613450e-02    7,961254716e-01   -2,976912260e-02    0,000000000e+00    0,000000000e+00    0,000000000e+00    0,000000000e+00
      240000000   -8,327864110e-02   -2,613296546e-02    6,469634771e-01   -4,666525126e-01    0,000000000e+00    0,000000000e+00    0,000000000e+00    0,000000000e+00
      254000000   -6,437715888e-02    1,740296930e-02    2,771104276e-01   -7,434251904e-01    0,000000000e+00    0,000000000e+00    0,000000000e+00    0,000000000e+00
      268000000   -2,412298322e-02    2,946784720e-02   -1,765429527e-01   -7,650531530e-01    0,000000000e+00    0,000000000e+00    0,000000000e+00    0,000000000e+00
      282000000    4,195458256e-03    1,201777719e-02   -5,622121692e-01   -5,368942022e-01    0,000000000e+00    0,000000000e+00    0,000000000e+00    0,000000000e+00
      296000000    9,474460967e-03   -7,732386235e-03   -7,607293129e-01   -1,395858824e-01    0,000000000e+00    0,000000000e+00    0,000000000e+00    0,000000000e+00
      310000000    1,082235668e-02   -1,623188518e-02   -7,141352892e-01    2,973523736e-01    0,000000000e+00    0,000000000e+00    0,000000000e+00    0,000000000e+00
      324000000    1,965167746e-02   -2,635791153e-02   -4,283077717e-01    6,374395490e-01    0,000000000e+00    0,000000000e+00    0,000000000e+00    0,000000000e+00
      338000000    2,554326504e-02   -5,215599388e-02   -9,554449469e-03    7,611404657e-01    0,000000000e+00    0,000000000e+00    0,000000000e+00    0,000000000e+00
      352000000    7,681555580e-03   -8,488000929e-02    4,048568904e-01    6,405913234e-01    0,000000000e+00    0,000000000e+00    0,000000000e+00    0,000000000e+00
      366000000   -3,482436761e-02   -9,605272859e-02    6,908740997e-01    3,121947944e-01    0,000000000e+00    0,000000000e+00    0,000000000e+00    0,000000000e+00
      380000000   -7,121397555e-02   -7,100148499e-02    7,484043241e-01   -1,244641766e-01    0,000000000e+00    0,000000000e+00    0,000000000e+00    0,000000000e+00
      394000000   -7,312692702e-02   -3,220054135e-02    5,487608314e-01   -5,202791691e-01    0,000000000e+00    0,000000000e+00    0,000000000e+00    0,000000000e+00
      408000000   -4,698169976e-02   -1,543748472e-02    1,627240181e-01   -7,335202694e-01    0,000000000e+00    0,000000000e+00    0,000000000e+00    0,000000000e+00
      422000000   -2,829238400e-02   -3,120595403e-02   -2,658184171e-01   -6,960382462e-01    0,000000000e+00    0,000000000e+00    0,000000000e+00    0,000000000e+00
      436000000   -4,033868015e-02   -5,216650292e-02   -6,026313305e-01   -4,344088435e-01    0,000000000e+00    0,000000000e+00    0,000000000e+00    0,000000000e+00
      450000000   -6,748236716e-02   -4,504594207e-02   -7,400220037e-01   -2,506844886e-02    0,000000000e+00    0,000000000e+00    0,000000000e+00    0,000000000e+00
      464000000   -7,398903370e-02   -1,237456966e-02   -6,209812164e-01    3,945607245e-01    0,000000000e+00    0,000000000e+00    0,000000000e+00    0,000000000e+00
      478000000   -4,945101961e-02    1,133121643e-02   -2,870662808e-01    6,670092940e-01    0,000000000e+00    0,000000000e+00    0,000000000e+00    0,000000000e+00
      492000000   -1,701684110e-02    6,213228684e-03    1,339990348e-01    7,034572363e-01    0,000000000e+00    0,000000000e+00    0,000000000e+00    0,000000000e+00
      506000000   -3,569987370e-03   -1,486447174e-02    4,977802038e-01    5,065058470e-01    0,000000000e+00    0,000000000e+00    0,000000000e+00    0,000000000e+00
      520000000   -5,946131889e-03   -2,921002358e-02    6,881925464e-01    1,456790715e-01    0,000000000e+00    0,000000000e+00    0,000000000e+00    0,000000000e+00
      534000000   -3,493126482e-03   -3,562807664e-02    6,443058252e-01   -2,600809038e-01    0,000000000e+00    0,000000000e+00    0,000000000e+00    0,000000000e+00
      548000000    7,834588178e-03   -5,265738443e-02    3,852330446e-01   -5,643749237e-01    0,000000000e+00    0,000000000e+00    0,000000000e+00    0,000000000e+00
      562000000    5,607234314e-03   -8,936639875e-02    7,825255394e-03   -6,710640788e-01    0,000000000e+00    0,000000000e+00    0,000000000e+00    0,000000000e+00
      576000000   -3,157059848e-02   -1,264509112e-01   -3,626030982e-01   -5,618163943e-01    0,000000000e+00    0,000000000e+00    0,000000000e+00    0,000000000e+00
      590000000   -9,489386529e-02   -1,275611073e-01   -6,184063554e-01   -2,727607191e-01    0,000000000e+00    0,000000000e+00    0,000000000e+00    0,000000000e+00
      604000000   -1,432549804e-01   -7,777003199e-02   -6,672760248e-01    1,264185160e-01    0,000000000e+00    0,000000000e+00    0,000000000e+00    0,000000000e+00
      618000000   -1,381049752e-01   -1,184749417e-02   -4,751035869e-01    4,850686193e-01    0,000000000e+00    0,000000000e+00    0,000000000e+00    0,000000000e+00
      632000000   -9,279083461e-02    2,140925266e-02   -1,140526086e-01    6,621493101e-01    0,000000000e+00    0,000000000e+00    0,000000000e+00    0,000000000e+00
      646000000   -5,576065928e-02    1,159444358e-02    2,738947868e-01    6,035083532e-01    0,000000000e+00    0,000000000e+00    0,000000000e+00    0,000000000e+00
      660000000   -4,832810909e-02   -7,688390557e-03    5,576865077e-01    3,406174779e-01    0,000000000e+00    0,000000000e+00    0,000000000e+00    0,000000000e+00
      674000000   -5,580046400e-02   -1,003404241e-02    6,443129778e-01   -3,939096257e-02    0,000000000e+00    0,000000000e+00    0,000000000e+00    0,000000000e+00
      688000000   -4,976370931e-02    2,654730109e-03    4,930960536e-01   -4,020252526e-01    0,000000000e+00    0,000000000e+00    0,000000000e+00    0,000000000e+00
      702000000   -2,684104070e-02    7,373946719e-03    1,613685340e-01   -6,048192978e-01    0,000000000e+00    0,000000000e+00    0,000000000e+00    0,000000000e+00
      716000000   -2,831351012e-03   -9,354507551e-03   -2,167092413e-01   -5,753806829e-01    0,000000000e+00    0,000000000e+00    0,000000000e+00    0,000000000e+00
      730000000    9,778988548e-03   -3,385743871e-02   -5,097233653e-01   -3,335672915e-01    0,000000000e+00    0,000000000e+00    0,000000000e+00    0,000000000e+00
      744000000    1,718233153e-02   -6,152402237e-02   -6,007938385e-01    3,329113871e-02    0,000000000e+00    0,000000000e+00    0,000000000e+00    0,000000000e+00
      758000000    2,268195711e-02   -1,040013880e-01   -4,540452063e-01    3,767585456e-01    0,000000000e+00    0,000000000e+00    0,000000000e+00    0,000000000e+00
      772000000   -5,194336642e-03   -1,739028543e-01   -1,390318722e-01    5,576167107e-01    0,000000000e+00    0,000000000e+00    0,000000000e+00    0,000000000e+00
      786000000   -1,049103588e-01   -2,330703586e-01    2,110566348e-01    5,200302005e-01    0,000000000e+00    0,000000000e+00    0,000000000e+00    0,000000000e+00
      800000000   -2,653104663e-01   -1,928908080e-01    4,713270962e-01    2,757615149e-01    0,000000000e+00    0,000000000e+00    0,000000000e+00    0,000000000e+00
      814000000   -3,644693196e-01    2,398934914e-03    5,081783533e-01   -8,835240453e-02    0,000000000e+00    0,000000000e+00    0,000000000e+00    0,000000000e+00
      828000000   -2,483633608e-01    2,335339785e-01    2,809265256e-01   -3,530573547e-01    0,000000000e+00    0,000000000e+00    0,000000000e+00    0,000000000e+00
      842000000    1,231306139e-02    2,779145539e-01   -1,560964435e-02   -3,629505932e-01    0,000000000e+00    0,000000000e+00    0,000000000e+00    0,000000000e+00
      856000000    2,127323151e-01    1,158987507e-01   -1,872680485e-01   -2,047502995e-01    0,000000000e+00    0,000000000e+00    0,000000000e+00    0,000000000e+00
      870000000    2,389900833e-01   -1,487620026e-01   -2,006107420e-01   -2,604228072e-02    0,000000000e+00    0,000000000e+00    0,000000000e+00    0,000000000e+00
      884000000    3,686426952e-02   -3,869455159e-01   -1,042770445e-01    7,157204300e-02    0,000000000e+00    0,000000000e+00    0,000000000e+00    0,000000000e+00
      898000000   -3,700475395e-01   -3,416248858e-01   -1,720157079e-02    2,735009044e-02    0,000000000e+00    0,000000000e+00    0,000000000e+00    0,000000000e+00
      912000000   -4,678287208e-01    1,391998529e-01   -1,065972745e-01    2,946812473e-02    0,000000000e+00    0,000000000e+00    0,000000000e+00    0,000000000e+00
      926000000   -9,614530951e-02    3,501948118e-01   -1,304110438e-01    1,344725490e-01    0,000000000e+00    0,000000000e+00    0,000000000e+00    0,000000000e+00
      940000000    1,831731200e-01    1,928475797e-01   -3,751055151e-02    2,152374983e-01    0,000000000e+00    0,000000000e+00    0,000000000e+00    0,000000000e+00
      954000000    2,565793395e-01   -5,053385347e-02    7,937550545e-02    2,269257754e-01    0,000000000e+00    0,000000000e+00    0,000000000e+00    0,000000000e+00
      968000000    1,734905392e-01   -2,628849149e-01    1,900571585e-01    1,795399338e-01    0,000000000e+00    0,000000000e+00    0,000000000e+00    0,000000000e+00
      982000000   -1,881712861e-02   -3,942530453e-01    2,801375091e-01    7,893097401e-02    0,000000000e+00    0,000000000e+00    0,000000000e+00    0,000000000e+00
      996000000   -2,739828825e-01   -3,793492615e-01    3,086263537e-01   -8,010381460e-02    0,000000000e+00    0,000000000e+00    0,000000000e+00    0,000000000e+00
     1010000000   -4,673914611e-01   -1,749453992e-01    2,212878019e-01   -2,525618970e-01    0,000000000e+00    0,000000000e+00    0,000000000e+00    0,000000000e+00
     1024000000   -4,553510249e-01    1,179249734e-01    2,144586481e-02   -3,299303055e-01    0,000000000e+00    0,000000000e+00    0,000000000e+00    0,000000000e+00
     1038000000   -2,641152740e-01    3,023254871e-01   -1,713520288e-01   -2,482342869e-01    0,000000000e+00    0,000000000e+00    0,000000000e+00    0,000000000e+00
     1052000000   -3,864543512e-02    3,128940165e-01   -2,573988140e-01   -7,810109854e-02    0,000000000e+00    0,000000000e+00    0,000000000e+00    0,000000000e+00
     1066000000    1,254221052e-01    2,073099613e-01   -2,240999341e-01    8,704678714e-02    0,000000000e+00    0,000000000e+00    0,000000000e+00    0,000000000e+00
     1080000000    2,083011568e-01    4,988639802e-02   -1,211457849e-01    1,920268983e-01    0,000000000e+00    0,000000000e+00    0,000000000e+00    0,000000000e+00
     1094000000    2,029345483e-01   -1,293118447e-01    1,754679158e-02    2,353866100e-01    0,000000000e+00    0,000000000e+00    0,000000000e+00    0,000000000e+00
     1108000000    9,859883040e-02   -2,870125175e-01    1,687484980e-01    2,055244297e-01    0,000000000e+00    0,000000000e+00    0,000000000e+00    0,000000000e+00
     1122000000   -9,961824119e-02   -3,720459640e-01    3,168783486e-01    8,927347511e-02    0,000000000e+00    0,000000000e+00    0,000000000e+00    0,000000000e+00
     1136000000   -3,495254219e-01   -2,651510239e-01    3,919700384e-01   -1,509064585e-01    0,000000000e+00    0,000000000e+00    0,000000000e+00    0,000000000e+00
     1150000000   -4,032078981e-01    3,595989197e-02    2,416599095e-01   -4,366396368e-01    0,000000000e+00    0,000000000e+00    0,000000000e+00    0,000000000e+00
     1164000000   -1,564831138e-01    2,206674069e-01   -9,424752742e-02   -5,145649314e-01    0,000000000e+00    0,000000000e+00    0,000000000e+00    0,000000000e+00
     1178000000    7,650681585e-02    8,696982265e-02   -3,587796092e-01   -3,462158442e-01    0,000000000e+00    0,000000000e+00    0,000000000e+00    0,000000000e+00
     1192000000    7,805676013e-02   -1,742588580e-01   -4,530230761e-01   -8,080780506e-02    0,000000000e+00    0,000000000e+00    0,000000000e+00    0,000000000e+00
     1206000000   -1,646430790e-01   -3,249554932e-01   -3,687224388e-01    1,860714406e-01    0,000000000e+00    0,000000000e+00    0,000000000e+00    0,000000000e+00
     1220000000   -4,536171854e-01   -1,740208268e-01   -1,052440777e-01    3,323105574e-01    0,000000000e+00    0,000000000e+00    0,000000000e+00    0,000000000e+00
     1234000000   -4,713808000e-01    1,637540162e-01    1,369790435e-01    2,222174108e-01    0,000000000e+00    0,000000000e+00    0,000000000e+00    0,000000000e+00
     1248000000   -2,308532596e-01    3,567740619e-01    1,982614845e-01    3,276935220e-02    0,000000000e+00    0,000000000e+00    0,000000000e+00    0,000000000e+00
     1262000000    5,305009894e-03    3,251745999e-01    1,339939833e-01   -7,521225512e-02    0,000000000e+00    0,000000000e+00    0,000000000e+00    0,000000000e+00
     1276000000    1,534480155e-01    2,019528002e-01    5,234713852e-02   -9,569215029e-02    0,000000000e+00    0,000000000e+00    0,000000000e+00    0,000000000e+00
     1290000000    2,157065421e-01    3,257071972e-02    1,254388713e-03   -7,514766604e-02    0,000000000e+00    0,000000000e+00    0,000000000e+00    0,000000000e+00
     1304000000    2,066056132e-01   -1,443541348e-01   -1,673133112e-02   -2,871180698e-02    0,000000000e+00    0,000000000e+00    0,000000000e+00    0,000000000e+00
     1318000000    1,169120446e-01   -3,105419576e-01   -6,738363300e-03    2,276833914e-02    0,000000000e+00    0,000000000e+00    0,000000000e+00    0,000000000e+00
     1332000000   -6,761830300e-02   -4,296253622e-01    4,821094498e-02    6,700526923e-02    0,000000000e+00    0,000000000e+00    0,000000000e+00    0,000000000e+00
     1346000000   -3,341933191e-01   -4,377365410e-01    1,434939206e-01    4,660075530e-02    0,000000000e+00    0,000000000e+00    0,000000000e+00    0,000000000e+00
     1360000000   -5,559512973e-01   -2,411855161e-01    1,193611398e-01   -6,898965687e-02    0,000000000e+00    0,000000000e+00    0,000000000e+00    0,000000000e+00
     1374000000   -6,222087145e-01    3,299324587e-02    1,084774137e-01    6,719522923e-02    0,000000000e+00    0,000000000e+00    0,000000000e+00    0,000000000e+00
     1388000000   -5,168413520e-01    2,922298908e-01    2,253998220e-01    3,587772371e-04    0,000000000e+00    0,000000000e+00    0,000000000e+00    0,000000000e+00
     1402000000   -3,072458208e-01    4,187808335e-01    2,193341553e-01   -8,293429017e-02    0,000000000e+00    0,000000000e+00    0,000000000e+00    0,000000000e+00
     1416000000   -9,493594617e-02    4,232749343e-01    1,944482028e-01   -1,079559028e-01    0,000000000e+00    0,000000000e+00    0,000000000e+00    0,000000000e+00
     1430000000    7,407890260e-02    3,395392001e-01    1,832132787e-01   -1,038812175e-01    0,000000000e+00    0,000000000e+00    0,000000000e+00    0,000000000e+00
     1444000000    1,761135310e-01    1,971162409e-01    1,536781490e-01   -1,156173199e-01    0,000000000e+00    0,000000000e+00    0,000000000e+00    0,000000000e+00
     1458000000    2,246008068e-01    3,595438972e-02    1,396683455e-01   -8,044802397e-02    0,000000000e+00    0,000000000e+00    0,000000000e+00    0,000000000e+00
     1472000000    2,067370117e-01   -1,495043337e-01    1,465000957e-01   -5,991090834e-02    0,000000000e+00    0,000000000e+00    0,000000000e+00    0,000000000e+00
     1486000000    1,079665795e-01   -3,228704035e-01    1,674881876e-01   -1,162702218e-02    0,000000000e+00    0,000000000e+00    0,000000000e+00    0,000000000e+00
     1500000000   -9,209942818e-02   -4,531662166e-01    1,944245845e-01    5,725989491e-02    0,000000000e+00    0,000000000e+00    0,000000000e+00    0,000000000e+00
