! NanoVNA-App
! Date: 2025-09-25 14:26:36
! Start: 100MHz Stop: 1,5GHz Points: 101
! S-Parameter data: F S11 S21 S12 S22
# Hz S RI R 50
!     Frequency           S11_Real           S11_Imag           S21_Real           S21_Imag           S12_Real           S12_Imag           S22_Real           S22_Imag
      100000000   -2,909084409e-02   -4,126847256e-03    3,745141029e-01   -7,220038176e-01    0,000000000e+00    0,000000000e+00    0,000000000e+00    0,000000000e+00
      114000000   -1,659374312e-02    1,163146365e-02   -8,897287399e-02   -8,057742715e-01    0,000000000e+00    0,000000000e+00    0,000000000e+00    0,000000000e+00
      128000000    3,446887480e-03    1,049929578e-02   -5,146367550e-01   -6,213209629e-01    0,000000000e+00    0,000000000e+00    0,000000000e+00    0,000000000e+00
      142000000    1,445241552e-02   -3,080945928e-03   -7,676031590e-01   -2,371312976e-01    0,000000000e+00    0,000000000e+00    0,000000000e+00    0,000000000e+00
      156000000    1,437765732e-02   -1,500908844e-02   -7,653172612e-01    2,180927992e-01    0,000000000e+00    0,000000000e+00    0,000000000e+00    0,000000000e+00
      170000000    1,651500352e-02   -2,246688120e-02   -5,188012123e-01    6,050092578e-01    0,000000000e+00    0,000000000e+00    0,000000000e+00    0,000000000e+00
      184000000    2,094348520e-02   -3,695328161e-02   -1,017964333e-01    7,868232131e-01    0,000000000e+00    0,000000000e+00    0,000000000e+00    0,000000000e+00
      198000000    1,313252840e-02   -6,260729581e-02    3,427819014e-01    7,128972411e-01    0,000000000e+00    0,000000000e+00    0,000000000e+00    0,000000000e+00
      212000000   -1,870016009e-02   -8,174625784e-02    6,782127023e-01    4,105281830e-01    0,000000000e+00    0,000000000e+00    0,000000000e+00    0,000000000e+00
      226000000   -6,203600392e-02   -6,969764084e-02    7,960468531e-01   -2,968678065e-02    0,000000000e+00    0,000000000e+00    0,000000000e+00    0,000000000e+00
      240000000   -8,330095559e-02   -2,604214288e-02    6,471965313e-01   -4,664088786e-01    0,000000000e+00    0,000000000e+00    0,000000000e+00    0,000000000e+00
      254000000   -6,437900662e-02    1,748265512e-02    2,770995498e-01   -7,432383895e-01    0,000000000e+00    0,000000000e+00    0,000000000e+00    0,000000000e+00
      268000000   -2,402605116e-02    2,942878567e-02   -1,769706756e-01   -7,653188109e-01    0,000000000e+00    0,000000000e+00    0,000000000e+00    0,000000000e+00
      282000000    4,124397412e-03    1,202922687e-02   -5,626021624e-01   -5,372747183e-01    0,000000000e+00    0,000000000e+00    0,000000000e+00    0,000000000e+00
      296000000    9,502265602e-03   -7,643817458e-03   -7,605783939e-01   -1,395589709e-01    0,000000000e+00    0,000000000e+00    0,000000000e+00    0,000000000e+00
      310000000    1,066877693e-02   -1,611407846e-02   -7,136478424e-01    2,980565131e-01    0,000000000e+00    0,000000000e+00    0,000000000e+00    0,000000000e+00
      324000000    1,946170442e-02   -2,629813552e-02   -4,294527769e-01    6,377239227e-01    0,000000000e+00    0,000000000e+00    0,000000000e+00    0,000000000e+00
      338000000    2,523306012e-02   -5,222934112e-02   -8,273608983e-03    7,624971271e-01    0,000000000e+00    0,000000000e+00    0,000000000e+00    0,000000000e+00
      352000000    7,591423579e-03   -8,489032090e-02    4,052203596e-01    6,401844025e-01    0,000000000e+00    0,000000000e+00    0,000000000e+00    0,000000000e+00
      366000000   -3,513345122e-02   -9,618567675e-02    6,911904812e-01    3,127025366e-01    0,000000000e+00    0,000000000e+00    0,000000000e+00    0,000000000e+00
      380000000   -7,130981982e-02   -7,119695842e-02    7,484903932e-01   -1,249094605e-01    0,000000000e+00    0,000000000e+00    0,000000000e+00    0,000000000e+00
      394000000   -7,326924801e-02   -3,266681358e-02    5,475317240e-01   -5,211740732e-01    0,000000000e+00    0,000000000e+00    0,000000000e+00    0,000000000e+00
      408000000   -4,702293500e-02   -1,560139842e-02    1,628036052e-01   -7,326577902e-01    0,000000000e+00    0,000000000e+00    0,000000000e+00    0,000000000e+00
      422000000   -2,829694748e-02   -3,157432750e-02   -2,662054598e-01   -6,966355443e-01    0,000000000e+00    0,000000000e+00    0,000000000e+00    0,000000000e+00
      436000000   -4,002024606e-02   -5,208676681e-02   -6,020457745e-01   -4,343319535e-01    0,000000000e+00    0,000000000e+00    0,000000000e+00    0,000000000e+00
      450000000   -6,737683713e-02   -4,496591538e-02   -7,401949167e-01   -2,530552633e-02    0,000000000e+00    0,000000000e+00    0,000000000e+00    0,000000000e+00
      464000000   -7,460423559e-02   -1,253210381e-02   -6,218585372e-01    3,945588470e-01    0,000000000e+00    0,000000000e+00    0,000000000e+00    0,000000000e+00
      478000000   -4,910650849e-02    1,147681009e-02   -2,871201634e-01    6,675941944e-01    0,000000000e+00    0,000000000e+00    0,000000000e+00    0,000000000e+00
      492000000   -1,697238535e-02    6,301969290e-03    1,336937249e-01    7,036129832e-01    0,000000000e+00    0,000000000e+00    0,000000000e+00    0,000000000e+00
      506000000   -3,593428992e-03   -1,520381402e-02    4,975849390e-01    5,065442324e-01    0,000000000e+00    0,000000000e+00    0,000000000e+00    0,000000000e+00
      520000000   -6,209774408e-03   -2,974213846e-02    6,905288696e-01    1,437166333e-01    0,000000000e+00    0,000000000e+00    0,000000000e+00    0,000000000e+00
      534000000   -3,404188436e-03   -3,585089371e-02    6,446026564e-01   -2,597606480e-01    0,000000000e+00    0,000000000e+00    0,000000000e+00    0,000000000e+00
      548000000    8,100769483e-03   -5,320389196e-02    3,849499226e-01   -5,647044182e-01    0,000000000e+00    0,000000000e+00    0,000000000e+00    0,000000000e+00
      562000000    5,651633721e-03   -8,938924968e-02    7,517838851e-03   -6,719311476e-01    0,000000000e+00    0,000000000e+00    0,000000000e+00    0,000000000e+00
      576000000   -3,166870400e-02   -1,265763640e-01   -3,617520928e-01   -5,609479547e-01    0,000000000e+00    0,000000000e+00    0,000000000e+00    0,000000000e+00
      590000000   -9,512662143e-02   -1,278784573e-01   -6,153614521e-01   -2,715648115e-01    0,000000000e+00    0,000000000e+00    0,000000000e+00    0,000000000e+00
      604000000   -1,433065683e-01   -7,779275626e-02   -6,673038006e-01    1,267427951e-01    0,000000000e+00    0,000000000e+00    0,000000000e+00    0,000000000e+00
      618000000   -1,381594539e-01   -1,106118876e-02   -4,747201502e-01    4,856068194e-01    0,000000000e+00    0,000000000e+00    0,000000000e+00    0,000000000e+00
      632000000   -9,343215823e-02    2,205580845e-02   -1,137726307e-01    6,636048555e-01    0,000000000e+00    0,000000000e+00    0,000000000e+00    0,000000000e+00
      646000000   -5,553055555e-02    1,206947863e-02    2,733655274e-01    6,032764912e-01    0,000000000e+00    0,000000000e+00    0,000000000e+00    0,000000000e+00
      660000000   -4,837394878e-02   -9,030274116e-03    5,575860739e-01    3,404990435e-01    0,000000000e+00    0,000000000e+00    0,000000000e+00    0,000000000e+00
      674000000   -5,607654154e-02   -1,013226155e-02    6,443729401e-01   -3,956389055e-02    0,000000000e+00    0,000000000e+00    0,000000000e+00    0,000000000e+00
      688000000   -4,972687364e-02    2,588210395e-03    4,933226407e-01   -4,019502103e-01    0,000000000e+00    0,000000000e+00    0,000000000e+00    0,000000000e+00
      702000000   -2,630367875e-02    7,310573012e-03    1,578867584e-01   -6,058172584e-01    0,000000000e+00    0,000000000e+00    0,000000000e+00    0,000000000e+00
      716000000   -1,620540163e-03   -8,360500447e-03   -2,185290456e-01   -5,754340887e-01    0,000000000e+00    0,000000000e+00    0,000000000e+00    0,000000000e+00
      730000000    9,441267699e-03   -3,411015868e-02   -5,091584325e-01   -3,335233331e-01    0,000000000e+00    0,000000000e+00    0,000000000e+00    0,000000000e+00
      744000000    1,600788720e-02   -6,066837907e-02   -6,008194685e-01    3,262421861e-02    0,000000000e+00    0,000000000e+00    0,000000000e+00    0,000000000e+00
      758000000    2,238784544e-02   -1,030981615e-01   -4,542500377e-01    3,768329918e-01    0,000000000e+00    0,000000000e+00    0,000000000e+00    0,000000000e+00
      772000000   -5,166268442e-03   -1,730186641e-01   -1,398350447e-01    5,583387613e-01    0,000000000e+00    0,000000000e+00    0,000000000e+00    0,000000000e+00
      786000000   -1,047742143e-01   -2,333265990e-01    2,113391012e-01    5,204267502e-01    0,000000000e+00    0,000000000e+00    0,000000000e+00    0,000000000e+00
      800000000   -2,666950524e-01   -1,928057075e-01    4,714062214e-01    2,761070728e-01    0,000000000e+00    0,000000000e+00    0,000000000e+00    0,000000000e+00
      814000000   -3,649429679e-01    2,889294876e-03    5,082281828e-01   -8,901177347e-02    0,000000000e+00    0,000000000e+00    0,000000000e+00    0,000000000e+00
      828000000   -2,472254038e-01    2,341353148e-01    2,816175818e-01   -3,518626094e-01    0,000000000e+00    0,000000000e+00    0,000000000e+00    0,000000000e+00
      842000000    1,327790786e-02    2,781431079e-01   -1,563559659e-02   -3,633506000e-01    0,000000000e+00    0,000000000e+00    0,000000000e+00    0,000000000e+00
      856000000    2,126666009e-01    1,155690029e-01   -1,875487566e-01   -2,046557963e-01    0,000000000e+00    0,000000000e+00    0,000000000e+00    0,000000000e+00
      870000000    2,387772501e-01   -1,488519758e-01   -2,003564090e-01   -2,620018832e-02    0,000000000e+00    0,000000000e+00    0,000000000e+00    0,000000000e+00
      884000000    3,790368140e-02   -3,871662021e-01   -1,038477346e-01    7,015454024e-02    0,000000000e+00    0,000000000e+00    0,000000000e+00    0,000000000e+00
      898000000   -3,698967695e-01   -3,410940468e-01   -1,660666615e-02    2,784350887e-02    0,000000000e+00    0,000000000e+00    0,000000000e+00    0,000000000e+00
      912000000   -4,676613212e-01    1,374118328e-01   -1,060708314e-01    2,874557860e-02    0,000000000e+00    0,000000000e+00    0,000000000e+00    0,000000000e+00
      926000000   -9,362127632e-02    3,506822288e-01   -1,277092993e-01    1,345953494e-01    0,000000000e+00    0,000000000e+00    0,000000000e+00    0,000000000e+00
      940000000    1,840736568e-01    1,946209520e-01   -3,879299760e-02    2,160757333e-01    0,000000000e+00    0,000000000e+00    0,000000000e+00    0,000000000e+00
      954000000    2,546324134e-01   -4,608011991e-02    8,009931445e-02    2,274398655e-01    0,000000000e+00    0,000000000e+00    0,000000000e+00    0,000000000e+00
      968000000    1,739474684e-01   -2,631553710e-01    1,915929019e-01    1,808965951e-01    0,000000000e+00    0,000000000e+00    0,000000000e+00    0,000000000e+00
      982000000   -1,637787931e-02   -3,966625929e-01    2,797877789e-01    7,902527601e-02    0,000000000e+00    0,000000000e+00    0,000000000e+00    0,000000000e+00
      996000000   -2,746970057e-01   -3,785209060e-01    3,105414212e-01   -7,718412578e-02    0,000000000e+00    0,000000000e+00    0,000000000e+00    0,000000000e+00
     1010000000   -4,725399017e-01   -1,725535244e-01    2,211590409e-01   -2,517852783e-01    0,000000000e+00    0,000000000e+00    0,000000000e+00    0,000000000e+00
     1024000000   -4,624316990e-01    1,141774282e-01    2,129746601e-02   -3,296594620e-01    0,000000000e+00    0,000000000e+00    0,000000000e+00    0,000000000e+00
     1038000000   -2,635531425e-01    3,015721738e-01   -1,759529114e-01   -2,478007376e-01    0,000000000e+00    0,000000000e+00    0,000000000e+00    0,000000000e+00
     1052000000   -3,432150558e-02    3,076455891e-01   -2,563936114e-01   -7,712049037e-02    0,000000000e+00    0,000000000e+00    0,000000000e+00    0,000000000e+00
     1066000000    1,300851405e-01    2,052694112e-01   -2,251497507e-01    8,462697268e-02    0,000000000e+00    0,000000000e+00    0,000000000e+00    0,000000000e+00
     1080000000    2,105896920e-01    4,793746397e-02   -1,223096177e-01    1,934188604e-01    0,000000000e+00    0,000000000e+00    0,000000000e+00    0,000000000e+00
     1094000000    1,999025345e-01   -1,298386306e-01    1,681172848e-02    2,353773266e-01    0,000000000e+00    0,000000000e+00    0,000000000e+00    0,000000000e+00
     1108000000    1,013578176e-01   -2,840371132e-01    1,687355638e-01    2,048589438e-01    0,000000000e+00    0,000000000e+00    0,000000000e+00    0,000000000e+00
     1122000000   -9,892741591e-02   -3,697393239e-01    3,143850267e-01    8,988321573e-02    0,000000000e+00    0,000000000e+00    0,000000000e+00    0,000000000e+00
     1136000000   -3,490311801e-01   -2,711622119e-01    3,932189643e-01   -1,523866802e-01    0,000000000e+00    0,000000000e+00    0,000000000e+00    0,000000000e+00
     1150000000   -4,066783488e-01    4,104091227e-02    2,443894148e-01   -4,343687296e-01    0,000000000e+00    0,000000000e+00    0,000000000e+00    0,000000000e+00
     1164000000   -1,589086503e-01    2,141698748e-01   -9,059471637e-02   -5,133484006e-01    0,000000000e+00    0,000000000e+00    0,000000000e+00    0,000000000e+00
     1178000000    7,284221053e-02    8,481542766e-02   -3,580597937e-01   -3,466202319e-01    0,000000000e+00    0,000000000e+00    0,000000000e+00    0,000000000e+00
     1192000000    7,479479164e-02   -1,724853665e-01   -4,514416754e-01   -8,280920237e-02    0,000000000e+00    0,000000000e+00    0,000000000e+00    0,000000000e+00
     1206000000   -1,628912687e-01   -3,236203790e-01   -3,687402904e-01    1,936603189e-01    0,000000000e+00    0,000000000e+00    0,000000000e+00    0,000000000e+00
     1220000000   -4,576683044e-01   -1,776473224e-01   -1,097613573e-01    3,311080337e-01    0,000000000e+00    0,000000000e+00    0,000000000e+00    0,000000000e+00
     1234000000   -4,757962525e-01    1,672925651e-01    1,369273812e-01    2,215413451e-01    0,000000000e+00    0,000000000e+00    0,000000000e+00    0,000000000e+00
     1248000000   -2,364517152e-01    3,518418074e-01    1,882946789e-01    3,774890304e-02    0,000000000e+00    0,000000000e+00    0,000000000e+00    0,000000000e+00
     1262000000    8,114525117e-03    3,331549764e-01    1,310302466e-01   -7,376877218e-02    0,000000000e+00    0,000000000e+00    0,000000000e+00    0,000000000e+00
     1276000000    1,546881646e-01    2,056935281e-01    5,087589473e-02   -9,677698463e-02    0,000000000e+00    0,000000000e+00    0,000000000e+00    0,000000000e+00
     1290000000    2,163950056e-01    3,214160725e-02    1,238820027e-03   -6,974174827e-02    0,000000000e+00    0,000000000e+00    0,000000000e+00    0,000000000e+00
     1304000000    2,041642368e-01   -1,440054029e-01   -2,398811281e-02   -2,969699912e-02    0,000000000e+00    0,000000000e+00    0,000000000e+00    0,000000000e+00
     1318000000    1,141077131e-01   -3,112655580e-01   -1,212317310e-02    2,143534273e-02    0,000000000e+00    0,000000000e+00    0,000000000e+00    0,000000000e+00
     1332000000   -6,431624293e-02   -4,344957769e-01    5,395385996e-02    5,757673830e-02    0,000000000e+00    0,000000000e+00    0,000000000e+00    0,000000000e+00
     1346000000   -3,299236596e-01   -4,377352893e-01    1,417850554e-01    4,659657180e-02    0,000000000e+00    0,000000000e+00    0,000000000e+00    0,000000000e+00
     1360000000   -5,562125444e-01   -2,480282485e-01    1,109993160e-01   -8,165597916e-02    0,000000000e+00    0,000000000e+00    0,000000000e+00    0,000000000e+00
     1374000000   -6,246834993e-01    2,540797554e-02    1,107945442e-01    5,516105518e-02    0,000000000e+00    0,000000000e+00    0,000000000e+00    0,000000000e+00
     1388000000   -5,169258714e-01    2,829078734e-01    2,324859053e-01   -1,030553970e-02    0,000000000e+00    0,000000000e+00    0,000000000e+00    0,000000000e+00
     1402000000   -2,992027700e-01    4,228469133e-01    2,333513051e-01   -8,918152750e-02    0,000000000e+00    0,000000000e+00    0,000000000e+00    0,000000000e+00
     1416000000   -8,634577692e-02    4,188844860e-01    1,959502548e-01   -1,151197627e-01    0,000000000e+00    0,000000000e+00    0,000000000e+00    0,000000000e+00
     1430000000    6,909078360e-02    3,310493827e-01    1,775260866e-01   -1,018818170e-01    0,000000000e+00    0,000000000e+00    0,000000000e+00    0,000000000e+00
     1444000000    1,762983352e-01    2,009217888e-01    1,578946859e-01   -1,033374593e-01    0,000000000e+00    0,000000000e+00    0,000000000e+00    0,000000000e+00
     1458000000    2,305814624e-01    3,191614896e-02    1,502944231e-01   -9,389692545e-02    0,000000000e+00    0,000000000e+00    0,000000000e+00    0,000000000e+00
     1472000000    2,016284168e-01   -1,484789997e-01    1,462391317e-01   -4,234366119e-02    0,000000000e+00    0,000000000e+00    0,000000000e+00    0,000000000e+00
     1486000000    1,055887341e-01   -3,224645257e-01    1,584988087e-01    2,559844637e-03    0,000000000e+00    0,000000000e+00    0,000000000e+00    0,000000000e+00
     1500000000   -9,032825381e-02   -4,579557478e-01    2,300317138e-01    6,122415140e-02    0,000000000e+00    0,000000000e+00    0,000000000e+00    0,000000000e+00
