! NanoVNA-App
! Date: 2025-09-25 14:25:20
! Start: 100MHz Stop: 1,5GHz Points: 101
! S-Parameter data: F S11 S21 S12 S22
# Hz S RI R 50
!     Frequency           S11_Real           S11_Imag           S21_Real           S21_Imag           S12_Real           S12_Imag           S22_Real           S22_Imag
      100000000   -2,910699695e-02   -4,128421657e-03    3,744715750e-01   -7,220293283e-01    0,000000000e+00    0,000000000e+00    0,000000000e+00    0,000000000e+00
      114000000   -1,660824940e-02    1,160818618e-02   -8,869607747e-02   -8,059320450e-01    0,000000000e+00    0,000000000e+00    0,000000000e+00    0,000000000e+00
      128000000    3,432000522e-03    1,051500347e-02   -5,146330595e-01   -6,209558249e-01    0,000000000e+00    0,000000000e+00    0,000000000e+00    0,000000000e+00
      142000000    1,444984321e-02   -3,063454991e-03   -7,675063610e-01   -2,370159477e-01    0,000000000e+00    0,000000000e+00    0,000000000e+00    0,000000000e+00
      156000000    1,427010447e-02   -1,496350206e-02   -7,643750310e-01    2,187984437e-01    0,000000000e+00    0,000000000e+00    0,000000000e+00    0,000000000e+00
      170000000    1,655150205e-02   -2,249740809e-02   -5,187500119e-01    6,050116420e-01    0,000000000e+00    0,000000000e+00    0,000000000e+00    0,000000000e+00
      184000000    2,099311911e-02   -3,705017641e-02   -1,019573957e-01    7,865123749e-01    0,000000000e+00    0,000000000e+00    0,000000000e+00    0,000000000e+00
      198000000    1,309629530e-02   -6,257609278e-02    3,432209194e-01    7,129830122e-01    0,000000000e+00    0,000000000e+00    0,000000000e+00    0,000000000e+00
      212000000   -1,872017607e-02   -8,170162141e-02    6,784713268e-01    4,105019867e-01    0,000000000e+00    0,000000000e+00    0,000000000e+00    0,000000000e+00
      226000000   -6,202280894e-02   -6,971671432e-02    7,961619496e-01   -2,973515727e-02    0,000000000e+00    0,000000000e+00    0,000000000e+00    0,000000000e+00
      240000000   -8,329819888e-02   -2,608247101e-02    6,472207904e-01   -4,667880237e-01    0,000000000e+00    0,000000000e+00    0,000000000e+00    0,000000000e+00
      254000000   -6,439612061e-02    1,744823158e-02    2,768469751e-01   -7,433506250e-01    0,000000000e+00    0,000000000e+00    0,000000000e+00    0,000000000e+00
      268000000   -2,408040687e-02    2,941156738e-02   -1,767019778e-01   -7,654107809e-01    0,000000000e+00    0,000000000e+00    0,000000000e+00    0,000000000e+00
      282000000    4,057038575e-03    1,214963011e-02   -5,628365278e-01   -5,373221636e-01    0,000000000e+00    0,000000000e+00    0,000000000e+00    0,000000000e+00
      296000000    9,496322833e-03   -7,625894155e-03   -7,608144879e-01   -1,393619776e-01    0,000000000e+00    0,000000000e+00    0,000000000e+00    0,000000000e+00
      310000000    1,079849154e-02   -1,597944461e-02   -7,126134038e-01    2,968064249e-01    0,000000000e+00    0,000000000e+00    0,000000000e+00    0,000000000e+00
      324000000    1,943427138e-02   -2,626100183e-02   -4,294835627e-01    6,383769512e-01    0,000000000e+00    0,000000000e+00    0,000000000e+00    0,000000000e+00
      338000000    2,525306493e-02   -5,211508647e-02   -1,040652581e-02    7,617130876e-01    0,000000000e+00    0,000000000e+00    0,000000000e+00    0,000000000e+00
      352000000    7,555566728e-03   -8,460047096e-02    4,058655500e-01    6,407222152e-01    0,000000000e+00    0,000000000e+00    0,000000000e+00    0,000000000e+00
      366000000   -3,468226269e-02   -9,590632468e-02    6,905537248e-01    3,124785721e-01    0,000000000e+00    0,000000000e+00    0,000000000e+00    0,000000000e+00
      380000000   -7,142603397e-02   -7,141721249e-02    7,484248281e-01   -1,251230389e-01    0,000000000e+00    0,000000000e+00    0,000000000e+00    0,000000000e+00
      394000000   -7,337202877e-02   -3,220663965e-02    5,482767820e-01   -5,200774074e-01    0,000000000e+00    0,000000000e+00    0,000000000e+00    0,000000000e+00
      408000000   -4,702734947e-02   -1,593916118e-02    1,634306312e-01   -7,326066494e-01    0,000000000e+00    0,000000000e+00    0,000000000e+00    0,000000000e+00
      422000000   -2,837025374e-02   -3,131886199e-02   -2,660058439e-01   -6,958317757e-01    0,000000000e+00    0,000000000e+00    0,000000000e+00    0,000000000e+00
      436000000   -4,017333314e-02   -5,194298550e-02   -6,024114490e-01   -4,330964983e-01    0,000000000e+00    0,000000000e+00    0,000000000e+00    0,000000000e+00
      450000000   -6,765686721e-02   -4,464873299e-02   -7,403877378e-01   -2,517793328e-02    0,000000000e+00    0,000000000e+00    0,000000000e+00    0,000000000e+00
      464000000   -7,451932132e-02   -1,225282345e-02   -6,214706898e-01    3,945285380e-01    0,000000000e+00    0,000000000e+00    0,000000000e+00    0,000000000e+00
      478000000   -4,925801232e-02    1,167136896e-02   -2,867462635e-01    6,675245762e-01    0,000000000e+00    0,000000000e+00    0,000000000e+00    0,000000000e+00
      492000000   -1,674443483e-02    6,751363631e-03    1,343197972e-01    7,045750618e-01    0,000000000e+00    0,000000000e+00    0,000000000e+00    0,000000000e+00
      506000000   -3,800642211e-03   -1,519383956e-02    4,972657561e-01    5,058813691e-01    0,000000000e+00    0,000000000e+00    0,000000000e+00    0,000000000e+00
      520000000   -5,933664739e-03   -2,963621542e-02    6,884514689e-01    1,421427280e-01    0,000000000e+00    0,000000000e+00    0,000000000e+00    0,000000000e+00
      534000000   -3,222292289e-03   -3,569890186e-02    6,450088024e-01   -2,595169246e-01    0,000000000e+00    0,000000000e+00    0,000000000e+00    0,000000000e+00
      548000000    8,276384324e-03   -5,285390094e-02    3,854046762e-01   -5,643899441e-01    0,000000000e+00    0,000000000e+00    0,000000000e+00    0,000000000e+00
      562000000    5,563744809e-03   -8,907855302e-02    8,067721501e-03   -6,711222529e-01    0,000000000e+00    0,000000000e+00    0,000000000e+00    0,000000000e+00
      576000000   -3,080736287e-02   -1,263166964e-01   -3,618810177e-01   -5,611763000e-01    0,000000000e+00    0,000000000e+00    0,000000000e+00    0,000000000e+00
      590000000   -9,474810958e-02   -1,279570013e-01   -6,149259210e-01   -2,718307972e-01    0,000000000e+00    0,000000000e+00    0,000000000e+00    0,000000000e+00
      604000000   -1,431059390e-01   -7,812209427e-02   -6,670677066e-01    1,262045056e-01    0,000000000e+00    0,000000000e+00    0,000000000e+00    0,000000000e+00
      618000000   -1,377046555e-01   -1,121609379e-02   -4,752222598e-01    4,853677452e-01    0,000000000e+00    0,000000000e+00    0,000000000e+00    0,000000000e+00
      632000000   -9,340732545e-02    2,148759179e-02   -1,142694354e-01    6,632796526e-01    0,000000000e+00    0,000000000e+00    0,000000000e+00    0,000000000e+00
      646000000   -5,479318276e-02    1,239489391e-02    2,741484642e-01    6,035622954e-01    0,000000000e+00    0,000000000e+00    0,000000000e+00    0,000000000e+00
      660000000   -4,845677689e-02   -8,207649924e-03    5,580527186e-01    3,404496908e-01    0,000000000e+00    0,000000000e+00    0,000000000e+00    0,000000000e+00
      674000000   -5,555697903e-02   -1,079564262e-02    6,440788507e-01   -3,977142274e-02    0,000000000e+00    0,000000000e+00    0,000000000e+00    0,000000000e+00
      688000000   -5,075790361e-02    2,792992629e-03    4,929602742e-01   -4,020508230e-01    0,000000000e+00    0,000000000e+00    0,000000000e+00    0,000000000e+00
      702000000   -2,629444003e-02    6,757055875e-03    1,644777656e-01   -6,009657979e-01    0,000000000e+00    0,000000000e+00    0,000000000e+00    0,000000000e+00
      716000000   -1,941165538e-03   -9,719401598e-03   -2,192148566e-01   -5,762156844e-01    0,000000000e+00    0,000000000e+00    0,000000000e+00    0,000000000e+00
      730000000    9,179930203e-03   -3,398099914e-02   -5,092388988e-01   -3,335113525e-01    0,000000000e+00    0,000000000e+00    0,000000000e+00    0,000000000e+00
      744000000    1,716306247e-02   -6,139001995e-02   -6,009456515e-01    3,317682073e-02    0,000000000e+00    0,000000000e+00    0,000000000e+00    0,000000000e+00
      758000000    2,262889780e-02   -1,037166715e-01   -4,542421997e-01    3,775084317e-01    0,000000000e+00    0,000000000e+00    0,000000000e+00    0,000000000e+00
      772000000   -5,328775384e-03   -1,741159409e-01   -1,393632442e-01    5,585991740e-01    0,000000000e+00    0,000000000e+00    0,000000000e+00    0,000000000e+00
      786000000   -1,055245697e-01   -2,328007519e-01    2,125781476e-01    5,209774971e-01    0,000000000e+00    0,000000000e+00    0,000000000e+00    0,000000000e+00
      800000000   -2,657924294e-01   -1,920561790e-01    4,713031352e-01    2,753581703e-01    0,000000000e+00    0,000000000e+00    0,000000000e+00    0,000000000e+00
      814000000   -3,649420142e-01    3,894839436e-03    5,080253482e-01   -8,908857405e-02    0,000000000e+00    0,000000000e+00    0,000000000e+00    0,000000000e+00
      828000000   -2,472900450e-01    2,331900001e-01    2,826050818e-01   -3,531287014e-01    0,000000000e+00    0,000000000e+00    0,000000000e+00    0,000000000e+00
      842000000    1,261911541e-02    2,782676816e-01   -1,576727256e-02   -3,630936742e-01    0,000000000e+00    0,000000000e+00    0,000000000e+00    0,000000000e+00
      856000000    2,127017230e-01    1,157145947e-01   -1,879295558e-01   -2,047298402e-01    0,000000000e+00    0,000000000e+00    0,000000000e+00    0,000000000e+00
      870000000    2,389417291e-01   -1,484673619e-01   -2,007643878e-01   -2,566582896e-02    0,000000000e+00    0,000000000e+00    0,000000000e+00    0,000000000e+00
      884000000    3,804230690e-02   -3,866152465e-01   -1,035572961e-01    7,116638869e-02    0,000000000e+00    0,000000000e+00    0,000000000e+00    0,000000000e+00
      898000000   -3,697623610e-01   -3,417704999e-01   -1,686337776e-02    2,756230719e-02    0,000000000e+00    0,000000000e+00    0,000000000e+00    0,000000000e+00
      912000000   -4,667710662e-01    1,371860951e-01   -1,076038480e-01    2,480020188e-02    0,000000000e+00    0,000000000e+00    0,000000000e+00    0,000000000e+00
      926000000   -9,492413700e-02    3,495280743e-01   -1,271247566e-01    1,339572221e-01    0,000000000e+00    0,000000000e+00    0,000000000e+00    0,000000000e+00
      940000000    1,859377474e-01    1,944031417e-01   -3,854312003e-02    2,163935453e-01    0,000000000e+00    0,000000000e+00    0,000000000e+00    0,000000000e+00
      954000000    2,531555295e-01   -4,978117347e-02    7,922288775e-02    2,270002514e-01    0,000000000e+00    0,000000000e+00    0,000000000e+00    0,000000000e+00
      968000000    1,734904349e-01   -2,608899474e-01    1,906038374e-01    1,809791923e-01    0,000000000e+00    0,000000000e+00    0,000000000e+00    0,000000000e+00
      982000000   -1,467009168e-02   -3,945434391e-01    2,794288695e-01    7,943305373e-02    0,000000000e+00    0,000000000e+00    0,000000000e+00    0,000000000e+00
      996000000   -2,742598653e-01   -3,778533638e-01    3,092558980e-01   -8,052598685e-02    0,000000000e+00    0,000000000e+00    0,000000000e+00    0,000000000e+00
     1010000000   -4,694316685e-01   -1,765377074e-01    2,218172848e-01   -2,528468668e-01    0,000000000e+00    0,000000000e+00    0,000000000e+00    0,000000000e+00
     1024000000   -4,601959288e-01    1,127329916e-01    2,320682816e-02   -3,306035697e-01    0,000000000e+00    0,000000000e+00    0,000000000e+00    0,000000000e+00
     1038000000   -2,636828721e-01    2,953577936e-01   -1,723731607e-01   -2,491946518e-01    0,000000000e+00    0,000000000e+00    0,000000000e+00    0,000000000e+00
     1052000000   -3,598672897e-02    3,057409525e-01   -2,569383383e-01   -7,662013173e-02    0,000000000e+00    0,000000000e+00    0,000000000e+00    0,000000000e+00
     1066000000    1,250007302e-01    2,073294073e-01   -2,251928002e-01    8,233199269e-02    0,000000000e+00    0,000000000e+00    0,000000000e+00    0,000000000e+00
     1080000000    2,108976096e-01    4,600371048e-02   -1,232367530e-01    1,939526945e-01    0,000000000e+00    0,000000000e+00    0,000000000e+00    0,000000000e+00
     1094000000    2,054298073e-01   -1,276160628e-01    1,800366864e-02    2,335215360e-01    0,000000000e+00    0,000000000e+00    0,000000000e+00    0,000000000e+00
     1108000000    1,019410118e-01   -2,829051912e-01    1,683814079e-01    2,063954026e-01    0,000000000e+00    0,000000000e+00    0,000000000e+00    0,000000000e+00
     1122000000   -1,027982980e-01   -3,672085702e-01    3,183780015e-01    8,985117078e-02    0,000000000e+00    0,000000000e+00    0,000000000e+00    0,000000000e+00
     1136000000   -3,505109251e-01   -2,683057785e-01    3,919869363e-01   -1,506930739e-01    0,000000000e+00    0,000000000e+00    0,000000000e+00    0,000000000e+00
     1150000000   -4,039524496e-01    3,681524098e-02    2,427555323e-01   -4,385781288e-01    0,000000000e+00    0,000000000e+00    0,000000000e+00    0,000000000e+00
     1164000000   -1,647771597e-01    2,150906324e-01   -9,403983504e-02   -5,117229223e-01    0,000000000e+00    0,000000000e+00    0,000000000e+00    0,000000000e+00
     1178000000    7,798755914e-02    8,583620191e-02   -3,558595777e-01   -3,470612764e-01    0,000000000e+00    0,000000000e+00    0,000000000e+00    0,000000000e+00
     1192000000    7,491617650e-02   -1,709100455e-01   -4,550078213e-01   -8,222314715e-02    0,000000000e+00    0,000000000e+00    0,000000000e+00    0,000000000e+00
     1206000000   -1,673780680e-01   -3,264015317e-01   -3,714734316e-01    1,920738518e-01    0,000000000e+00    0,000000000e+00    0,000000000e+00    0,000000000e+00
     1220000000   -4,544230998e-01   -1,747498363e-01   -1,015567482e-01    3,334434032e-01    0,000000000e+00    0,000000000e+00    0,000000000e+00    0,000000000e+00
     1234000000   -4,715938568e-01    1,703881621e-01    1,376173645e-01    2,228910476e-01    0,000000000e+00    0,000000000e+00    0,000000000e+00    0,000000000e+00
     1248000000   -2,400820851e-01    3,561687171e-01    1,867655814e-01    3,646022081e-02    0,000000000e+00    0,000000000e+00    0,000000000e+00    0,000000000e+00
     1262000000    1,120804343e-02    3,306047618e-01    1,307072490e-01   -7,434753329e-02    0,000000000e+00    0,000000000e+00    0,000000000e+00    0,000000000e+00
     1276000000    1,566494405e-01    2,039406449e-01    5,098605901e-02   -9,276609868e-02    0,000000000e+00    0,000000000e+00    0,000000000e+00    0,000000000e+00
     1290000000    2,197853774e-01    3,135190532e-02   -1,132285033e-04   -7,830902934e-02    0,000000000e+00    0,000000000e+00    0,000000000e+00    0,000000000e+00
     1304000000    2,057577670e-01   -1,470604092e-01   -2,073764615e-02   -2,939900570e-02    0,000000000e+00    0,000000000e+00    0,000000000e+00    0,000000000e+00
     1318000000    1,155693829e-01   -3,143727779e-01   -4,332708195e-03    2,034380846e-02    0,000000000e+00    0,000000000e+00    0,000000000e+00    0,000000000e+00
     1332000000   -6,640980393e-02   -4,375760257e-01    4,380675778e-02    6,449094415e-02    0,000000000e+00    0,000000000e+00    0,000000000e+00    0,000000000e+00
     1346000000   -3,288702667e-01   -4,342353940e-01    1,445831656e-01    4,087750241e-02    0,000000000e+00    0,000000000e+00    0,000000000e+00    0,000000000e+00
     1360000000   -5,536127090e-01   -2,464260161e-01    1,198412329e-01   -7,722995430e-02    0,000000000e+00    0,000000000e+00    0,000000000e+00    0,000000000e+00
     1374000000   -6,195400357e-01    3,729036823e-02    1,136680990e-01    6,685047597e-02    0,000000000e+00    0,000000000e+00    0,000000000e+00    0,000000000e+00
     1388000000   -5,075581670e-01    3,014074266e-01    2,217282504e-01    7,922010496e-03    0,000000000e+00    0,000000000e+00    0,000000000e+00    0,000000000e+00
     1402000000   -3,064666688e-01    4,183766842e-01    2,167993486e-01   -7,511387020e-02    0,000000000e+00    0,000000000e+00    0,000000000e+00    0,000000000e+00
     1416000000   -8,880835027e-02    4,243313074e-01    1,931815892e-01   -1,121588498e-01    0,000000000e+00    0,000000000e+00    0,000000000e+00    0,000000000e+00
     1430000000    7,457753271e-02    3,384117186e-01    1,612388790e-01   -1,104490757e-01    0,000000000e+00    0,000000000e+00    0,000000000e+00    0,000000000e+00
     1444000000    1,704243422e-01    1,997540295e-01    1,585774869e-01   -1,019910052e-01    0,000000000e+00    0,000000000e+00    0,000000000e+00    0,000000000e+00
     1458000000    2,288978398e-01    3,407445550e-02    1,591555476e-01   -8,022268116e-02    0,000000000e+00    0,000000000e+00    0,000000000e+00    0,000000000e+00
     1472000000    2,062499672e-01   -1,463726163e-01    1,421113312e-01   -5,902054533e-02    0,000000000e+00    0,000000000e+00    0,000000000e+00    0,000000000e+00
     1486000000    1,054175943e-01   -3,202922642e-01    1,658014506e-01    3,499441314e-03    0,000000000e+00    0,000000000e+00    0,000000000e+00    0,000000000e+00
     1500000000   -8,530344814e-02   -4,624762535e-01    1,958876103e-01    5,741669238e-02    0,000000000e+00    0,000000000e+00    0,000000000e+00    0,000000000e+00
