! NanoVNA-App
! Date: 2025-09-25 14:24:47
! Start: 100MHz Stop: 1,5GHz Points: 101
! S-Parameter data: F S11 S21 S12 S22
# Hz S RI R 50
!     Frequency           S11_Real           S11_Imag           S21_Real           S21_Imag           S12_Real           S12_Imag           S22_Real           S22_Imag
      100000000   -2,908652648e-02   -4,117990378e-03    3,745483458e-01   -7,221156359e-01    0,000000000e+00    0,000000000e+00    0,000000000e+00    0,000000000e+00
      114000000   -1,658364758e-02    1,161534712e-02   -8,892152458e-02   -8,056455255e-01    0,000000000e+00    0,000000000e+00    0,000000000e+00    0,000000000e+00
      128000000    3,449676558e-03    1,054480113e-02   -5,145074725e-01   -6,211406589e-01    0,000000000e+00    0,000000000e+00    0,000000000e+00    0,000000000e+00
      142000000    1,446520258e-02   -3,083776915e-03   -7,673192024e-01   -2,368562967e-01    0,000000000e+00    0,000000000e+00    0,000000000e+00    0,000000000e+00
      156000000    1,495153364e-02   -1,502607763e-02   -7,698971629e-01    2,196760327e-01    0,000000000e+00    0,000000000e+00    0,000000000e+00    0,000000000e+00
      170000000    1,655845903e-02   -2,252645604e-02   -5,187091827e-01    6,051683426e-01    0,000000000e+00    0,000000000e+00    0,000000000e+00    0,000000000e+00
      184000000    2,099291794e-02   -3,702322021e-02   -1,017895862e-01    7,866235971e-01    0,000000000e+00    0,000000000e+00    0,000000000e+00    0,000000000e+00
      198000000    1,308646984e-02   -6,261342764e-02    3,430999219e-01    7,131257653e-01    0,000000000e+00    0,000000000e+00    0,000000000e+00    0,000000000e+00
      212000000   -1,870482229e-02   -8,168668300e-02    6,783475280e-01    4,105308056e-01    0,000000000e+00    0,000000000e+00    0,000000000e+00    0,000000000e+00
      226000000   -6,205001101e-02   -6,967978925e-02    7,960424423e-01   -2,980411798e-02    0,000000000e+00    0,000000000e+00    0,000000000e+00    0,000000000e+00
      240000000   -8,329822123e-02   -2,603834867e-02    6,471834183e-01   -4,669753611e-01    0,000000000e+00    0,000000000e+00    0,000000000e+00    0,000000000e+00
      254000000   -6,435602903e-02    1,745205000e-02    2,770667076e-01   -7,433850765e-01    0,000000000e+00    0,000000000e+00    0,000000000e+00    0,000000000e+00
      268000000   -2,406560071e-02    2,945665829e-02   -1,767463684e-01   -7,649349570e-01    0,000000000e+00    0,000000000e+00    0,000000000e+00    0,000000000e+00
      282000000    4,001898691e-03    1,207220741e-02   -5,619227290e-01   -5,372373462e-01    0,000000000e+00    0,000000000e+00    0,000000000e+00    0,000000000e+00
      296000000    9,479470551e-03   -7,670486812e-03   -7,606913447e-01   -1,393999159e-01    0,000000000e+00    0,000000000e+00    0,000000000e+00    0,000000000e+00
      310000000    1,085823774e-02   -1,584556326e-02   -7,139098048e-01    2,982574701e-01    0,000000000e+00    0,000000000e+00    0,000000000e+00    0,000000000e+00
      324000000    1,947208308e-02   -2,638045885e-02   -4,286765456e-01    6,376120448e-01    0,000000000e+00    0,000000000e+00    0,000000000e+00    0,000000000e+00
      338000000    2,557264827e-02   -5,197441950e-02   -1,047613937e-02    7,605946064e-01    0,000000000e+00    0,000000000e+00    0,000000000e+00    0,000000000e+00
      352000000    7,227849681e-03   -8,488154411e-02    4,055091143e-01    6,402398348e-01    0,000000000e+00    0,000000000e+00    0,000000000e+00    0,000000000e+00
      366000000   -3,480400518e-02   -9,634477645e-02    6,911890507e-01    3,122426271e-01    0,000000000e+00    0,000000000e+00    0,000000000e+00    0,000000000e+00
      380000000   -7,145836204e-02   -7,106881589e-02    7,479766011e-01   -1,242461950e-01    0,000000000e+00    0,000000000e+00    0,000000000e+00    0,000000000e+00
      394000000   -7,309592515e-02   -3,219086677e-02    5,493290424e-01   -5,206013322e-01    0,000000000e+00    0,000000000e+00    0,000000000e+00    0,000000000e+00
      408000000   -4,699120671e-02   -1,580287330e-02    1,644380689e-01   -7,321678400e-01    0,000000000e+00    0,000000000e+00    0,000000000e+00    0,000000000e+00
      422000000   -2,836573124e-02   -3,142932057e-02   -2,659015656e-01   -6,958141327e-01    0,000000000e+00    0,000000000e+00    0,000000000e+00    0,000000000e+00
      436000000   -3,985780478e-02   -5,208745971e-02   -6,024585962e-01   -4,338533580e-01    0,000000000e+00    0,000000000e+00    0,000000000e+00    0,000000000e+00
      450000000   -6,776931882e-02   -4,478243366e-02   -7,405134439e-01   -2,511628903e-02    0,000000000e+00    0,000000000e+00    0,000000000e+00    0,000000000e+00
      464000000   -7,465522736e-02   -1,251766551e-02   -6,211342216e-01    3,947471678e-01    0,000000000e+00    0,000000000e+00    0,000000000e+00    0,000000000e+00
      478000000   -4,911841452e-02    1,189754065e-02   -2,863852382e-01    6,676266789e-01    0,000000000e+00    0,000000000e+00    0,000000000e+00    0,000000000e+00
      492000000   -1,678146794e-02    6,650729105e-03    1,341449171e-01    7,043685317e-01    0,000000000e+00    0,000000000e+00    0,000000000e+00    0,000000000e+00
      506000000   -3,543548053e-03   -1,516296249e-02    4,983291030e-01    5,063748360e-01    0,000000000e+00    0,000000000e+00    0,000000000e+00    0,000000000e+00
      520000000   -5,543735810e-03   -2,962447889e-02    6,898900270e-01    1,451848149e-01    0,000000000e+00    0,000000000e+00    0,000000000e+00    0,000000000e+00
      534000000   -3,471059026e-03   -3,607960790e-02    6,448550820e-01   -2,599034309e-01    0,000000000e+00    0,000000000e+00    0,000000000e+00    0,000000000e+00
      548000000    7,529772818e-03   -5,267047510e-02    3,847950995e-01   -5,639271736e-01    0,000000000e+00    0,000000000e+00    0,000000000e+00    0,000000000e+00
      562000000    5,970140919e-03   -8,921309561e-02    9,075685404e-03   -6,710911393e-01    0,000000000e+00    0,000000000e+00    0,000000000e+00    0,000000000e+00
      576000000   -3,096172772e-02   -1,264308244e-01   -3,624278009e-01   -5,625063777e-01    0,000000000e+00    0,000000000e+00    0,000000000e+00    0,000000000e+00
      590000000   -9,489558637e-02   -1,276059747e-01   -6,152294278e-01   -2,731048465e-01    0,000000000e+00    0,000000000e+00    0,000000000e+00    0,000000000e+00
      604000000   -1,432604641e-01   -7,805074751e-02   -6,677845716e-01    1,263239235e-01    0,000000000e+00    0,000000000e+00    0,000000000e+00    0,000000000e+00
      618000000   -1,382127553e-01   -1,103471033e-02   -4,755056798e-01    4,853167534e-01    0,000000000e+00    0,000000000e+00    0,000000000e+00    0,000000000e+00
      632000000   -9,283345193e-02    2,151504532e-02   -1,134638563e-01    6,628074050e-01    0,000000000e+00    0,000000000e+00    0,000000000e+00    0,000000000e+00
      646000000   -5,572681129e-02    1,210247260e-02    2,734808922e-01    6,034695506e-01    0,000000000e+00    0,000000000e+00    0,000000000e+00    0,000000000e+00
      660000000   -4,780447856e-02   -8,479405195e-03    5,572569370e-01    3,396165073e-01    0,000000000e+00    0,000000000e+00    0,000000000e+00    0,000000000e+00
      674000000   -5,618541315e-02   -1,019031741e-02    6,435764432e-01   -3,942221031e-02    0,000000000e+00    0,000000000e+00    0,000000000e+00    0,000000000e+00
      688000000   -4,991449788e-02    2,704251558e-03    4,926302433e-01   -4,016793966e-01    0,000000000e+00    0,000000000e+00    0,000000000e+00    0,000000000e+00
      702000000   -2,529440820e-02    7,684018929e-03    1,664702147e-01   -6,091255546e-01    0,000000000e+00    0,000000000e+00    0,000000000e+00    0,000000000e+00
      716000000   -1,300609205e-03   -8,735692129e-03   -2,175649256e-01   -5,757162571e-01    0,000000000e+00    0,000000000e+00    0,000000000e+00    0,000000000e+00
      730000000    9,635851718e-03   -3,383757174e-02   -5,099270344e-01   -3,329077661e-01    0,000000000e+00    0,000000000e+00    0,000000000e+00    0,000000000e+00
      744000000    1,640105806e-02   -6,055090576e-02   -6,012257934e-01    3,300580755e-02    0,000000000e+00    0,000000000e+00    0,000000000e+00    0,000000000e+00
      758000000    2,161771618e-02   -1,036257371e-01   -4,534962773e-01    3,764113486e-01    0,000000000e+00    0,000000000e+00    0,000000000e+00    0,000000000e+00
      772000000   -5,127122160e-03   -1,741305292e-01   -1,391765475e-01    5,577449799e-01    0,000000000e+00    0,000000000e+00    0,000000000e+00    0,000000000e+00
      786000000   -1,048431620e-01   -2,328143418e-01    2,113435268e-01    5,204333067e-01    0,000000000e+00    0,000000000e+00    0,000000000e+00    0,000000000e+00
      800000000   -2,652392685e-01   -1,927349865e-01    4,712794423e-01    2,751944065e-01    0,000000000e+00    0,000000000e+00    0,000000000e+00    0,000000000e+00
      814000000   -3,645044863e-01    2,562382957e-03    5,078832507e-01   -8,828011155e-02    0,000000000e+00    0,000000000e+00    0,000000000e+00    0,000000000e+00
      828000000   -2,485444099e-01    2,334572077e-01    2,807443738e-01   -3,532509804e-01    0,000000000e+00    0,000000000e+00    0,000000000e+00    0,000000000e+00
      842000000    1,259461511e-02    2,782455087e-01   -1,604220830e-02   -3,629187644e-01    0,000000000e+00    0,000000000e+00    0,000000000e+00    0,000000000e+00
      856000000    2,121414989e-01    1,152792796e-01   -1,882060617e-01   -2,049211413e-01    0,000000000e+00    0,000000000e+00    0,000000000e+00    0,000000000e+00
      870000000    2,390171885e-01   -1,489259750e-01   -2,004559636e-01   -2,641210519e-02    0,000000000e+00    0,000000000e+00    0,000000000e+00    0,000000000e+00
      884000000    3,753501549e-02   -3,865116239e-01   -1,042170823e-01    7,041402906e-02    0,000000000e+00    0,000000000e+00    0,000000000e+00    0,000000000e+00
      898000000   -3,706156015e-01   -3,425848186e-01   -1,710082591e-02    2,733296715e-02    0,000000000e+00    0,000000000e+00    0,000000000e+00    0,000000000e+00
      912000000   -4,666798711e-01    1,382486969e-01   -1,203689277e-01    3,553489223e-02    0,000000000e+00    0,000000000e+00    0,000000000e+00    0,000000000e+00
      926000000   -9,356384724e-02    3,505610824e-01   -1,273459345e-01    1,343573928e-01    0,000000000e+00    0,000000000e+00    0,000000000e+00    0,000000000e+00
      940000000    1,857117563e-01    1,953002363e-01   -3,887208924e-02    2,168711722e-01    0,000000000e+00    0,000000000e+00    0,000000000e+00    0,000000000e+00
      954000000    2,540200055e-01   -4,997052997e-02    7,899804413e-02    2,272248119e-01    0,000000000e+00    0,000000000e+00    0,000000000e+00    0,000000000e+00
      968000000    1,735681146e-01   -2,610448897e-01    1,926498115e-01    1,808106154e-01    0,000000000e+00    0,000000000e+00    0,000000000e+00    0,000000000e+00
      982000000   -2,061640471e-02   -3,931447566e-01    2,798410058e-01    7,802426070e-02    0,000000000e+00    0,000000000e+00    0,000000000e+00    0,000000000e+00
      996000000   -2,755528688e-01   -3,784764111e-01    3,080566823e-01   -7,962471992e-02    0,000000000e+00    0,000000000e+00    0,000000000e+00    0,000000000e+00
     1010000000   -4,688780010e-01   -1,698190868e-01    2,215362191e-01   -2,531843483e-01    0,000000000e+00    0,000000000e+00    0,000000000e+00    0,000000000e+00
     1024000000   -4,560961425e-01    1,158699840e-01    2,182713151e-02   -3,288398087e-01    0,000000000e+00    0,000000000e+00    0,000000000e+00    0,000000000e+00
     1038000000   -2,616447210e-01    3,008698821e-01   -1,732069254e-01   -2,481013983e-01    0,000000000e+00    0,000000000e+00    0,000000000e+00    0,000000000e+00
     1052000000   -3,703304380e-02    3,111878335e-01   -2,576278448e-01   -7,908660173e-02    0,000000000e+00    0,000000000e+00    0,000000000e+00    0,000000000e+00
     1066000000    1,284253150e-01    2,021523267e-01   -2,238587439e-01    8,606325090e-02    0,000000000e+00    0,000000000e+00    0,000000000e+00    0,000000000e+00
     1080000000    2,090821713e-01    4,903491586e-02   -1,200243980e-01    1,928207427e-01    0,000000000e+00    0,000000000e+00    0,000000000e+00    0,000000000e+00
     1094000000    2,001937181e-01   -1,305368692e-01    1,747894473e-02    2,372493297e-01    0,000000000e+00    0,000000000e+00    0,000000000e+00    0,000000000e+00
     1108000000    9,843563288e-02   -2,862318456e-01    1,665333509e-01    2,058644742e-01    0,000000000e+00    0,000000000e+00    0,000000000e+00    0,000000000e+00
     1122000000   -1,039098129e-01   -3,700205684e-01    3,165300488e-01    8,946977556e-02    0,000000000e+00    0,000000000e+00    0,000000000e+00    0,000000000e+00
     1136000000   -3,498110771e-01   -2,717092037e-01    3,950255811e-01   -1,502418667e-01    0,000000000e+00    0,000000000e+00    0,000000000e+00    0,000000000e+00
     1150000000   -4,061426520e-01    4,135875404e-02    2,432363331e-01   -4,346783161e-01    0,000000000e+00    0,000000000e+00    0,000000000e+00    0,000000000e+00
     1164000000   -1,563950181e-01    2,159232199e-01   -9,567559510e-02   -5,113300085e-01    0,000000000e+00    0,000000000e+00    0,000000000e+00    0,000000000e+00
     1178000000    7,834576815e-02    8,539307863e-02   -3,560171425e-01   -3,454768360e-01    0,000000000e+00    0,000000000e+00    0,000000000e+00    0,000000000e+00
     1192000000    7,597424090e-02   -1,716680378e-01   -4,559046924e-01   -8,404308558e-02    0,000000000e+00    0,000000000e+00    0,000000000e+00    0,000000000e+00
     1206000000   -1,648403406e-01   -3,228054941e-01   -3,717900813e-01    1,910465658e-01    0,000000000e+00    0,000000000e+00    0,000000000e+00    0,000000000e+00
     1220000000   -4,568829834e-01   -1,748829335e-01   -1,057214439e-01    3,259209394e-01    0,000000000e+00    0,000000000e+00    0,000000000e+00    0,000000000e+00
     1234000000   -4,737895429e-01    1,654786319e-01    1,330982149e-01    2,203081697e-01    0,000000000e+00    0,000000000e+00    0,000000000e+00    0,000000000e+00
     1248000000   -2,349382937e-01    3,490413725e-01    1,892504394e-01    3,384324908e-02    0,000000000e+00    0,000000000e+00    0,000000000e+00    0,000000000e+00
     1262000000    8,859499358e-03    3,287282288e-01    1,301760077e-01   -7,522065938e-02    0,000000000e+00    0,000000000e+00    0,000000000e+00    0,000000000e+00
     1276000000    1,581385285e-01    1,985203773e-01    5,284469202e-02   -9,727475047e-02    0,000000000e+00    0,000000000e+00    0,000000000e+00    0,000000000e+00
     1290000000    2,169006020e-01    2,788629383e-02    1,338831964e-03   -7,709693164e-02    0,000000000e+00    0,000000000e+00    0,000000000e+00    0,000000000e+00
     1304000000    2,044236958e-01   -1,463610828e-01   -2,136129700e-02   -2,983366139e-02    0,000000000e+00    0,000000000e+00    0,000000000e+00    0,000000000e+00
     1318000000    1,135696247e-01   -3,085319400e-01   -9,783093818e-03    2,360548638e-02    0,000000000e+00    0,000000000e+00    0,000000000e+00    0,000000000e+00
     1332000000   -6,369679421e-02   -4,330591857e-01    5,142879486e-02    6,599398702e-02    0,000000000e+00    0,000000000e+00    0,000000000e+00    0,000000000e+00
     1346000000   -3,291126490e-01   -4,382056594e-01    1,477797031e-01    4,059074447e-02    0,000000000e+00    0,000000000e+00    0,000000000e+00    0,000000000e+00
     1360000000   -5,572677255e-01   -2,410592735e-01    1,146640554e-01   -7,501622289e-02    0,000000000e+00    0,000000000e+00    0,000000000e+00    0,000000000e+00
     1374000000   -6,278268695e-01    3,056098707e-02    9,857869893e-02    5,812358111e-02    0,000000000e+00    0,000000000e+00    0,000000000e+00    0,000000000e+00
     1388000000   -5,230743885e-01    2,844695449e-01    2,147857249e-01   -6,664817221e-03    0,000000000e+00    0,000000000e+00    0,000000000e+00    0,000000000e+00
     1402000000   -3,069280684e-01    4,098954797e-01    2,217954844e-01   -8,997960389e-02    0,000000000e+00    0,000000000e+00    0,000000000e+00    0,000000000e+00
     1416000000   -9,556484967e-02    4,206116796e-01    1,797141433e-01   -1,096455827e-01    0,000000000e+00    0,000000000e+00    0,000000000e+00    0,000000000e+00
     1430000000    8,274509013e-02    3,318498433e-01    1,533878595e-01   -1,382662505e-01    0,000000000e+00    0,000000000e+00    0,000000000e+00    0,000000000e+00
     1444000000    1,787008047e-01    1,991289705e-01    1,571258307e-01   -1,093336865e-01    0,000000000e+00    0,000000000e+00    0,000000000e+00    0,000000000e+00
     1458000000    2,247471213e-01    3,311044723e-02    1,523558050e-01   -8,056651056e-02    0,000000000e+00    0,000000000e+00    0,000000000e+00    0,000000000e+00
     1472000000    2,041028440e-01   -1,483662724e-01    1,556251347e-01   -5,068814754e-02    0,000000000e+00    0,000000000e+00    0,000000000e+00    0,000000000e+00
     1486000000    1,042108089e-01   -3,250367343e-01    1,721075028e-01   -1,073088404e-02    0,000000000e+00    0,000000000e+00    0,000000000e+00    0,000000000e+00
     1500000000   -9,578495473e-02   -4,571851194e-01    1,958909929e-01    4,922487214e-02    0,000000000e+00    0,000000000e+00    0,000000000e+00    0,000000000e+00
