! NanoVNA-App
! Date: 2025-09-25 14:22:01
! Start: 100MHz Stop: 1,5GHz Points: 101
! S-Parameter data: F S11 S21 S12 S22
# Hz S RI R 50
!     Frequency           S11_Real           S11_Imag           S21_Real           S21_Imag           S12_Real           S12_Imag           S22_Real           S22_Imag
      100000000   -2,910342254e-02   -4,126240965e-03    3,744863272e-01   -7,221231461e-01    0,000000000e+00    0,000000000e+00    0,000000000e+00    0,000000000e+00
      114000000   -1,658775844e-02    1,161308121e-02   -8,878459781e-02   -8,058142066e-01    0,000000000e+00    0,000000000e+00    0,000000000e+00    0,000000000e+00
      128000000    3,450120566e-03    1,054254919e-02   -5,146097541e-01   -6,208255887e-01    0,000000000e+00    0,000000000e+00    0,000000000e+00    0,000000000e+00
      142000000    1,447850745e-02   -3,079794114e-03   -7,673692703e-01   -2,368994355e-01    0,000000000e+00    0,000000000e+00    0,000000000e+00    0,000000000e+00
      156000000    1,457707677e-02   -1,508471556e-02   -7,660738826e-01    2,213753313e-01    0,000000000e+00    0,000000000e+00    0,000000000e+00    0,000000000e+00
      170000000    1,651035808e-02   -2,253293805e-02   -5,186862350e-01    6,051570773e-01    0,000000000e+00    0,000000000e+00    0,000000000e+00    0,000000000e+00
      184000000    2,097956464e-02   -3,705086559e-02   -1,016695201e-01    7,866909504e-01    0,000000000e+00    0,000000000e+00    0,000000000e+00    0,000000000e+00
      198000000    1,303728111e-02   -6,259945035e-02    3,426872492e-01    7,129970193e-01    0,000000000e+00    0,000000000e+00    0,000000000e+00    0,000000000e+00
      212000000   -1,873132773e-02   -8,164887130e-02    6,784702539e-01    4,105382860e-01    0,000000000e+00    0,000000000e+00    0,000000000e+00    0,000000000e+00
      226000000   -6,206694990e-02   -6,966087222e-02    7,960763574e-01   -2,967184223e-02    0,000000000e+00    0,000000000e+00    0,000000000e+00    0,000000000e+00
      240000000   -8,316732198e-02   -2,607203275e-02    6,470569372e-01   -4,664996862e-01    0,000000000e+00    0,000000000e+00    0,000000000e+00    0,000000000e+00
      254000000   -6,437878311e-02    1,725444570e-02    2,772618532e-01   -7,436800599e-01    0,000000000e+00    0,000000000e+00    0,000000000e+00    0,000000000e+00
      268000000   -2,429004759e-02    2,951722778e-02   -1,774512231e-01   -7,650588155e-01    0,000000000e+00    0,000000000e+00    0,000000000e+00    0,000000000e+00
      282000000    4,302859772e-03    1,222174149e-02   -5,622405410e-01   -5,367072821e-01    0,000000000e+00    0,000000000e+00    0,000000000e+00    0,000000000e+00
      296000000    9,561013430e-03   -7,769714110e-03   -7,608236074e-01   -1,396424323e-01    0,000000000e+00    0,000000000e+00    0,000000000e+00    0,000000000e+00
      310000000    1,089191809e-02   -1,614347659e-02   -7,135377526e-01    2,964996696e-01    0,000000000e+00    0,000000000e+00    0,000000000e+00    0,000000000e+00
      324000000    1,953454688e-02   -2,648990043e-02   -4,283251464e-01    6,372865438e-01    0,000000000e+00    0,000000000e+00    0,000000000e+00    0,000000000e+00
      338000000    2,528927848e-02   -5,183544755e-02   -8,628534153e-03    7,617514729e-01    0,000000000e+00    0,000000000e+00    0,000000000e+00    0,000000000e+00
      352000000    7,581657264e-03   -8,479093015e-02    4,056316912e-01    6,407922506e-01    0,000000000e+00    0,000000000e+00    0,000000000e+00    0,000000000e+00
      366000000   -3,496304154e-02   -9,581066668e-02    6,901100278e-01    3,120875061e-01    0,000000000e+00    0,000000000e+00    0,000000000e+00    0,000000000e+00
      380000000   -7,139973342e-02   -7,101267576e-02    7,483056188e-01   -1,244415343e-01    0,000000000e+00    0,000000000e+00    0,000000000e+00    0,000000000e+00
      394000000   -7,332896441e-02   -3,241918609e-02    5,478097796e-01   -5,207019448e-01    0,000000000e+00    0,000000000e+00    0,000000000e+00    0,000000000e+00
      408000000   -4,681213945e-02   -1,591821201e-02    1,627042145e-01   -7,322554588e-01    0,000000000e+00    0,000000000e+00    0,000000000e+00    0,000000000e+00
      422000000   -2,843037248e-02   -3,139770776e-02   -2,670004964e-01   -6,954944134e-01    0,000000000e+00    0,000000000e+00    0,000000000e+00    0,000000000e+00
      436000000   -4,004405066e-02   -5,192206427e-02   -6,024059057e-01   -4,341202080e-01    0,000000000e+00    0,000000000e+00    0,000000000e+00    0,000000000e+00
      450000000   -6,771163642e-02   -4,504058883e-02   -7,402554154e-01   -2,512298524e-02    0,000000000e+00    0,000000000e+00    0,000000000e+00    0,000000000e+00
      464000000   -7,407663018e-02   -1,219546236e-02   -6,213736534e-01    3,947632015e-01    0,000000000e+00    0,000000000e+00    0,000000000e+00    0,000000000e+00
      478000000   -4,924886301e-02    1,156431530e-02   -2,873894274e-01    6,675646901e-01    0,000000000e+00    0,000000000e+00    0,000000000e+00    0,000000000e+00
      492000000   -1,702414453e-02    6,181040313e-03    1,342522204e-01    7,035913467e-01    0,000000000e+00    0,000000000e+00    0,000000000e+00    0,000000000e+00
      506000000   -3,437690903e-03   -1,507849805e-02    4,980354607e-01    5,061388612e-01    0,000000000e+00    0,000000000e+00    0,000000000e+00    0,000000000e+00
      520000000   -5,548328161e-03   -2,947667427e-02    6,895565391e-01    1,443039775e-01    0,000000000e+00    0,000000000e+00    0,000000000e+00    0,000000000e+00
      534000000   -3,434491809e-03   -3,583464026e-02    6,441758275e-01   -2,596949935e-01    0,000000000e+00    0,000000000e+00    0,000000000e+00    0,000000000e+00
      548000000    8,412772790e-03   -5,267612636e-02    3,855729699e-01   -5,637276173e-01    0,000000000e+00    0,000000000e+00    0,000000000e+00    0,000000000e+00
      562000000    6,194802467e-03   -8,966856450e-02    8,824876510e-03   -6,717101336e-01    0,000000000e+00    0,000000000e+00    0,000000000e+00    0,000000000e+00
      576000000   -3,166904673e-02   -1,263575554e-01   -3,620625138e-01   -5,611132979e-01    0,000000000e+00    0,000000000e+00    0,000000000e+00    0,000000000e+00
      590000000   -9,496998787e-02   -1,275978535e-01   -6,182497740e-01   -2,708350420e-01    0,000000000e+00    0,000000000e+00    0,000000000e+00    0,000000000e+00
      604000000   -1,428040117e-01   -7,810769230e-02   -6,672385335e-01    1,259789318e-01    0,000000000e+00    0,000000000e+00    0,000000000e+00    0,000000000e+00
      618000000   -1,383640021e-01   -1,153910067e-02   -4,749789834e-01    4,851756990e-01    0,000000000e+00    0,000000000e+00    0,000000000e+00    0,000000000e+00
      632000000   -9,347785264e-02    2,144927531e-02   -1,139309853e-01    6,629845500e-01    0,000000000e+00    0,000000000e+00    0,000000000e+00    0,000000000e+00
      646000000   -5,550237000e-02    1,219291706e-02    2,744536996e-01    6,034290195e-01    0,000000000e+00    0,000000000e+00    0,000000000e+00    0,000000000e+00
      660000000   -4,771081731e-02   -8,349480107e-03    5,584430695e-01    3,400713205e-01    0,000000000e+00    0,000000000e+00    0,000000000e+00    0,000000000e+00
      674000000   -5,565236136e-02   -9,935851209e-03    6,443516016e-01   -3,978930786e-02    0,000000000e+00    0,000000000e+00    0,000000000e+00    0,000000000e+00
      688000000   -5,069791153e-02    3,669122932e-03    4,931751788e-01   -4,018628299e-01    0,000000000e+00    0,000000000e+00    0,000000000e+00    0,000000000e+00
      702000000   -2,620545775e-02    6,836205255e-03    1,617258936e-01   -6,060311794e-01    0,000000000e+00    0,000000000e+00    0,000000000e+00    0,000000000e+00
      716000000   -1,323921140e-03   -8,560407907e-03   -2,182431966e-01   -5,749273896e-01    0,000000000e+00    0,000000000e+00    0,000000000e+00    0,000000000e+00
      730000000    9,758242406e-03   -3,508904949e-02   -5,085797310e-01   -3,329013884e-01    0,000000000e+00    0,000000000e+00    0,000000000e+00    0,000000000e+00
      744000000    1,582350954e-02   -6,115594506e-02   -6,005151272e-01    3,300901875e-02    0,000000000e+00    0,000000000e+00    0,000000000e+00    0,000000000e+00
      758000000    2,221793123e-02   -1,041199118e-01   -4,544968903e-01    3,769268990e-01    0,000000000e+00    0,000000000e+00    0,000000000e+00    0,000000000e+00
      772000000   -5,191287957e-03   -1,733514518e-01   -1,386725456e-01    5,585725904e-01    0,000000000e+00    0,000000000e+00    0,000000000e+00    0,000000000e+00
      786000000   -1,058119982e-01   -2,319779992e-01    2,116421014e-01    5,199664235e-01    0,000000000e+00    0,000000000e+00    0,000000000e+00    0,000000000e+00
      800000000   -2,657066584e-01   -1,916960627e-01    4,707741737e-01    2,749027908e-01    0,000000000e+00    0,000000000e+00    0,000000000e+00    0,000000000e+00
      814000000   -3,640994132e-01    2,822241280e-03    5,076735616e-01   -8,866342157e-02    0,000000000e+00    0,000000000e+00    0,000000000e+00    0,000000000e+00
      828000000   -2,484787554e-01    2,332783192e-01    2,818713486e-01   -3,523828387e-01    0,000000000e+00    0,000000000e+00    0,000000000e+00    0,000000000e+00
      842000000    1,385914348e-02    2,783954740e-01   -1,536312513e-02   -3,627395332e-01    0,000000000e+00    0,000000000e+00    0,000000000e+00    0,000000000e+00
      856000000    2,128408253e-01    1,149934009e-01   -1,883988976e-01   -2,054401040e-01    0,000000000e+00    0,000000000e+00    0,000000000e+00    0,000000000e+00
      870000000    2,389089167e-01   -1,486109495e-01   -2,006578743e-01   -2,547449432e-02    0,000000000e+00    0,000000000e+00    0,000000000e+00    0,000000000e+00
      884000000    3,814216703e-02   -3,870881796e-01   -1,040691435e-01    7,113797218e-02    0,000000000e+00    0,000000000e+00    0,000000000e+00    0,000000000e+00
      898000000   -3,697783053e-01   -3,406804800e-01   -1,739095151e-02    2,814108506e-02    0,000000000e+00    0,000000000e+00    0,000000000e+00    0,000000000e+00
      912000000   -4,670147300e-01    1,367708892e-01   -1,073692590e-01    2,697251923e-02    0,000000000e+00    0,000000000e+00    0,000000000e+00    0,000000000e+00
      926000000   -9,713048488e-02    3,510765433e-01   -1,308453083e-01    1,338175088e-01    0,000000000e+00    0,000000000e+00    0,000000000e+00    0,000000000e+00
      940000000    1,848991662e-01    1,963273883e-01   -3,812457994e-02    2,165795416e-01    0,000000000e+00    0,000000000e+00    0,000000000e+00    0,000000000e+00
      954000000    2,562082112e-01   -5,006945878e-02    8,079306036e-02    2,274177223e-01    0,000000000e+00    0,000000000e+00    0,000000000e+00    0,000000000e+00
      968000000    1,768058240e-01   -2,613765895e-01    1,896643490e-01    1,809202731e-01    0,000000000e+00    0,000000000e+00    0,000000000e+00    0,000000000e+00
      982000000   -1,892374456e-02   -3,962526619e-01    2,795556784e-01    7,875235379e-02    0,000000000e+00    0,000000000e+00    0,000000000e+00    0,000000000e+00
      996000000   -2,716258466e-01   -3,778234422e-01    3,098858297e-01   -7,800756395e-02    0,000000000e+00    0,000000000e+00    0,000000000e+00    0,000000000e+00
     1010000000   -4,727641642e-01   -1,732410938e-01    2,224595994e-01   -2,539722621e-01    0,000000000e+00    0,000000000e+00    0,000000000e+00    0,000000000e+00
     1024000000   -4,609450102e-01    1,140555590e-01    2,051618882e-02   -3,285044134e-01    0,000000000e+00    0,000000000e+00    0,000000000e+00    0,000000000e+00
     1038000000   -2,613078058e-01    2,975189090e-01   -1,719758511e-01   -2,502442896e-01    0,000000000e+00    0,000000000e+00    0,000000000e+00    0,000000000e+00
     1052000000   -4,068043828e-02    3,076013029e-01   -2,562130690e-01   -7,757227123e-02    0,000000000e+00    0,000000000e+00    0,000000000e+00    0,000000000e+00
     1066000000    1,269368529e-01    2,086444497e-01   -2,239641249e-01    8,450401574e-02    0,000000000e+00    0,000000000e+00    0,000000000e+00    0,000000000e+00
     1080000000    2,057169527e-01    4,847511277e-02   -1,219325289e-01    1,921310574e-01    0,000000000e+00    0,000000000e+00    0,000000000e+00    0,000000000e+00
     1094000000    1,998137087e-01   -1,306012273e-01    1,883362234e-02    2,354395390e-01    0,000000000e+00    0,000000000e+00    0,000000000e+00    0,000000000e+00
     1108000000    1,003475040e-01   -2,821049392e-01    1,681317389e-01    2,053014934e-01    0,000000000e+00    0,000000000e+00    0,000000000e+00    0,000000000e+00
     1122000000   -1,046169996e-01   -3,677122593e-01    3,165817857e-01    8,964506537e-02    0,000000000e+00    0,000000000e+00    0,000000000e+00    0,000000000e+00
     1136000000   -3,501102924e-01   -2,713207603e-01    3,914383054e-01   -1,495229006e-01    0,000000000e+00    0,000000000e+00    0,000000000e+00    0,000000000e+00
     1150000000   -4,085098207e-01    3,334955499e-02    2,435125709e-01   -4,364752769e-01    0,000000000e+00    0,000000000e+00    0,000000000e+00    0,000000000e+00
     1164000000   -1,618615687e-01    2,205674052e-01   -9,503606707e-02   -5,153655410e-01    0,000000000e+00    0,000000000e+00    0,000000000e+00    0,000000000e+00
     1178000000    7,442215085e-02    8,462201059e-02   -3,577437699e-01   -3,508620262e-01    0,000000000e+00    0,000000000e+00    0,000000000e+00    0,000000000e+00
     1192000000    7,469676435e-02   -1,725990772e-01   -4,516789615e-01   -8,057139814e-02    0,000000000e+00    0,000000000e+00    0,000000000e+00    0,000000000e+00
     1206000000   -1,630464494e-01   -3,247399628e-01   -3,718387783e-01    1,905455589e-01    0,000000000e+00    0,000000000e+00    0,000000000e+00    0,000000000e+00
     1220000000   -4,588579237e-01   -1,741652340e-01   -1,101591140e-01    3,286384940e-01    0,000000000e+00    0,000000000e+00    0,000000000e+00    0,000000000e+00
     1234000000   -4,690296054e-01    1,643359661e-01    1,362493336e-01    2,181212902e-01    0,000000000e+00    0,000000000e+00    0,000000000e+00    0,000000000e+00
     1248000000   -2,303837240e-01    3,546020091e-01    1,955793202e-01    3,487367555e-02    0,000000000e+00    0,000000000e+00    0,000000000e+00    0,000000000e+00
     1262000000    8,505093865e-03    3,348228931e-01    1,300808787e-01   -6,954471022e-02    0,000000000e+00    0,000000000e+00    0,000000000e+00    0,000000000e+00
     1276000000    1,519612670e-01    2,040669322e-01    5,337833986e-02   -9,423491359e-02    0,000000000e+00    0,000000000e+00    0,000000000e+00    0,000000000e+00
     1290000000    2,157445103e-01    3,041996993e-02   -3,343680641e-03   -7,036646456e-02    0,000000000e+00    0,000000000e+00    0,000000000e+00    0,000000000e+00
     1304000000    2,052450478e-01   -1,451530904e-01   -1,745777950e-02   -2,276721969e-02    0,000000000e+00    0,000000000e+00    0,000000000e+00    0,000000000e+00
     1318000000    1,166379899e-01   -3,148791194e-01   -2,152240137e-03    1,718261838e-02    0,000000000e+00    0,000000000e+00    0,000000000e+00    0,000000000e+00
     1332000000   -6,305139512e-02   -4,271565676e-01    5,233185738e-02    6,461782753e-02    0,000000000e+00    0,000000000e+00    0,000000000e+00    0,000000000e+00
     1346000000   -3,309192657e-01   -4,304023385e-01    1,433813721e-01    4,773132131e-02    0,000000000e+00    0,000000000e+00    0,000000000e+00    0,000000000e+00
     1360000000   -5,532826185e-01   -2,433202565e-01    1,137266755e-01   -7,201365381e-02    0,000000000e+00    0,000000000e+00    0,000000000e+00    0,000000000e+00
     1374000000   -6,144454479e-01    4,015998542e-02    1,089176387e-01    6,753536314e-02    0,000000000e+00    0,000000000e+00    0,000000000e+00    0,000000000e+00
     1388000000   -5,145882964e-01    2,982662320e-01    2,199780792e-01    4,051761702e-03    0,000000000e+00    0,000000000e+00    0,000000000e+00    0,000000000e+00
     1402000000   -3,005975783e-01    4,145351350e-01    2,239119858e-01   -8,567062020e-02    0,000000000e+00    0,000000000e+00    0,000000000e+00    0,000000000e+00
     1416000000   -9,530128539e-02    4,219167829e-01    1,978736371e-01   -1,232800931e-01    0,000000000e+00    0,000000000e+00    0,000000000e+00    0,000000000e+00
     1430000000    6,988040358e-02    3,370515704e-01    1,599085629e-01   -1,160425320e-01    0,000000000e+00    0,000000000e+00    0,000000000e+00    0,000000000e+00
     1444000000    1,753349602e-01    2,013480961e-01    1,509865075e-01   -1,107555926e-01    0,000000000e+00    0,000000000e+00    0,000000000e+00    0,000000000e+00
     1458000000    2,226922363e-01    3,888446465e-02    1,467649192e-01   -7,528428733e-02    0,000000000e+00    0,000000000e+00    0,000000000e+00    0,000000000e+00
     1472000000    2,078379095e-01   -1,471612006e-01    1,459464580e-01   -5,433976650e-02    0,000000000e+00    0,000000000e+00    0,000000000e+00    0,000000000e+00
     1486000000    1,031383425e-01   -3,202342689e-01    1,716844440e-01    5,030924804e-04    0,000000000e+00    0,000000000e+00    0,000000000e+00    0,000000000e+00
     1500000000   -9,312867373e-02   -4,602927864e-01    2,253835797e-01    5,106547847e-02    0,000000000e+00    0,000000000e+00    0,000000000e+00    0,000000000e+00
