! NanoVNA-App
! Date: 2025-09-25 14:21:40
! Start: 100MHz Stop: 1,5GHz Points: 101
! S-Parameter data: F S11 S21 S12 S22
# Hz S RI R 50
!     Frequency           S11_Real           S11_Imag           S21_Real           S21_Imag           S12_Real           S12_Imag           S22_Real           S22_Imag
      100000000   -2,909265459e-02   -4,134347662e-03    3,744652569e-01   -7,220610380e-01    0,000000000e+00    0,000000000e+00    0,000000000e+00    0,000000000e+00
      114000000   -1,661697589e-02    1,159621961e-02   -8,893057704e-02   -8,056193590e-01    0,000000000e+00    0,000000000e+00    0,000000000e+00    0,000000000e+00
      128000000    3,437400097e-03    1,052502170e-02   -5,148230791e-01   -6,211236119e-01    0,000000000e+00    0,000000000e+00    0,000000000e+00    0,000000000e+00
      142000000    1,445499342e-02   -3,048178274e-03   -7,675395012e-01   -2,369384766e-01    0,000000000e+00    0,000000000e+00    0,000000000e+00    0,000000000e+00
      156000000    1,458330452e-02   -1,513079461e-02   -7,661136389e-01    2,214350998e-01    0,000000000e+00    0,000000000e+00    0,000000000e+00    0,000000000e+00
      170000000    1,658273861e-02   -2,249966748e-02   -5,187683105e-01    6,050553918e-01    0,000000000e+00    0,000000000e+00    0,000000000e+00    0,000000000e+00
      184000000    2,095213719e-02   -3,708815575e-02   -1,018034741e-01    7,866071463e-01    0,000000000e+00    0,000000000e+00    0,000000000e+00    0,000000000e+00
      198000000    1,300839428e-02   -6,262866408e-02    3,430917263e-01    7,128961086e-01    0,000000000e+00    0,000000000e+00    0,000000000e+00    0,000000000e+00
      212000000   -1,874533109e-02   -8,165439218e-02    6,782875061e-01    4,104605615e-01    0,000000000e+00    0,000000000e+00    0,000000000e+00    0,000000000e+00
      226000000   -6,209654361e-02   -6,970418990e-02    7,961984873e-01   -2,976899780e-02    0,000000000e+00    0,000000000e+00    0,000000000e+00    0,000000000e+00
      240000000   -8,321627229e-02   -2,610075474e-02    6,471837163e-01   -4,666925669e-01    0,000000000e+00    0,000000000e+00    0,000000000e+00    0,000000000e+00
      254000000   -6,436952204e-02    1,733455434e-02    2,772574127e-01   -7,434974313e-01    0,000000000e+00    0,000000000e+00    0,000000000e+00    0,000000000e+00
      268000000   -2,425151132e-02    2,948213182e-02   -1,772558838e-01   -7,652333975e-01    0,000000000e+00    0,000000000e+00    0,000000000e+00    0,000000000e+00
      282000000    4,162545782e-03    1,217744313e-02   -5,625507832e-01   -5,370923281e-01    0,000000000e+00    0,000000000e+00    0,000000000e+00    0,000000000e+00
      296000000    9,565839544e-03   -7,725712378e-03   -7,606644034e-01   -1,394567788e-01    0,000000000e+00    0,000000000e+00    0,000000000e+00    0,000000000e+00
      310000000    1,102562901e-02   -1,615588926e-02   -7,139343023e-01    2,974791527e-01    0,000000000e+00    0,000000000e+00    0,000000000e+00    0,000000000e+00
      324000000    1,951333135e-02   -2,663070709e-02   -4,281511307e-01    6,377685666e-01    0,000000000e+00    0,000000000e+00    0,000000000e+00    0,000000000e+00
      338000000    2,542167716e-02   -5,199692398e-02   -8,191484958e-03    7,617680430e-01    0,000000000e+00    0,000000000e+00    0,000000000e+00    0,000000000e+00
      352000000    7,548045833e-03   -8,445554227e-02    4,050903022e-01    6,412547231e-01    0,000000000e+00    0,000000000e+00    0,000000000e+00    0,000000000e+00
      366000000   -3,490296379e-02   -9,604088962e-02    6,908097863e-01    3,123556376e-01    0,000000000e+00    0,000000000e+00    0,000000000e+00    0,000000000e+00
      380000000   -7,137451321e-02   -7,129335403e-02    7,482715249e-01   -1,249278113e-01    0,000000000e+00    0,000000000e+00    0,000000000e+00    0,000000000e+00
      394000000   -7,314766943e-02   -3,220212460e-02    5,479683280e-01   -5,213007331e-01    0,000000000e+00    0,000000000e+00    0,000000000e+00    0,000000000e+00
      408000000   -4,671780765e-02   -1,576299034e-02    1,633893400e-01   -7,326822281e-01    0,000000000e+00    0,000000000e+00    0,000000000e+00    0,000000000e+00
      422000000   -2,849016525e-02   -3,161221743e-02   -2,651455700e-01   -6,958743930e-01    0,000000000e+00    0,000000000e+00    0,000000000e+00    0,000000000e+00
      436000000   -4,007887468e-02   -5,191974342e-02   -6,031680703e-01   -4,335826337e-01    0,000000000e+00    0,000000000e+00    0,000000000e+00    0,000000000e+00
      450000000   -6,743232906e-02   -4,481814802e-02   -7,401756048e-01   -2,483208105e-02    0,000000000e+00    0,000000000e+00    0,000000000e+00    0,000000000e+00
      464000000   -7,404893637e-02   -1,230969746e-02   -6,203352809e-01    3,951983452e-01    0,000000000e+00    0,000000000e+00    0,000000000e+00    0,000000000e+00
      478000000   -4,893652350e-02    1,132346317e-02   -2,862886190e-01    6,675273180e-01    0,000000000e+00    0,000000000e+00    0,000000000e+00    0,000000000e+00
      492000000   -1,693070307e-02    6,638257299e-03    1,349414289e-01    7,044405937e-01    0,000000000e+00    0,000000000e+00    0,000000000e+00    0,000000000e+00
      506000000   -3,535299329e-03   -1,526839193e-02    4,974707067e-01    5,058561563e-01    0,000000000e+00    0,000000000e+00    0,000000000e+00    0,000000000e+00
      520000000   -5,572552793e-03   -2,979229763e-02    6,887861490e-01    1,441742629e-01    0,000000000e+00    0,000000000e+00    0,000000000e+00    0,000000000e+00
      534000000   -3,185136011e-03   -3,608005494e-02    6,446958780e-01   -2,598079145e-01    0,000000000e+00    0,000000000e+00    0,000000000e+00    0,000000000e+00
      548000000    8,184796199e-03   -5,293067172e-02    3,846852779e-01   -5,644927025e-01    0,000000000e+00    0,000000000e+00    0,000000000e+00    0,000000000e+00
      562000000    5,538931582e-03   -8,955631405e-02    7,681057323e-03   -6,728217602e-01    0,000000000e+00    0,000000000e+00    0,000000000e+00    0,000000000e+00
      576000000   -3,133611381e-02   -1,267151982e-01   -3,629088402e-01   -5,607461333e-01    0,000000000e+00    0,000000000e+00    0,000000000e+00    0,000000000e+00
      590000000   -9,500487894e-02   -1,277470291e-01   -6,170135736e-01   -2,713706195e-01    0,000000000e+00    0,000000000e+00    0,000000000e+00    0,000000000e+00
      604000000   -1,427664906e-01   -7,806181163e-02   -6,671370864e-01    1,262837797e-01    0,000000000e+00    0,000000000e+00    0,000000000e+00    0,000000000e+00
      618000000   -1,377264112e-01   -1,131144911e-02   -4,760567248e-01    4,850437939e-01    0,000000000e+00    0,000000000e+00    0,000000000e+00    0,000000000e+00
      632000000   -9,346586466e-02    2,131656744e-02   -1,126330867e-01    6,632851958e-01    0,000000000e+00    0,000000000e+00    0,000000000e+00    0,000000000e+00
      646000000   -5,489821360e-02    1,165011618e-02    2,734458745e-01    6,023946404e-01    0,000000000e+00    0,000000000e+00    0,000000000e+00    0,000000000e+00
      660000000   -4,758736491e-02   -8,310003206e-03    5,577483773e-01    3,405120075e-01    0,000000000e+00    0,000000000e+00    0,000000000e+00    0,000000000e+00
      674000000   -5,570953339e-02   -9,722663090e-03    6,443650723e-01   -3,990095854e-02    0,000000000e+00    0,000000000e+00    0,000000000e+00    0,000000000e+00
      688000000   -5,075208470e-02    3,372166073e-03    4,936819375e-01   -4,015757740e-01    0,000000000e+00    0,000000000e+00    0,000000000e+00    0,000000000e+00
      702000000   -2,644433826e-02    7,218217943e-03    1,606535167e-01   -6,015008092e-01    0,000000000e+00    0,000000000e+00    0,000000000e+00    0,000000000e+00
      716000000   -1,634530956e-03   -8,674215525e-03   -2,184809446e-01   -5,755448937e-01    0,000000000e+00    0,000000000e+00    0,000000000e+00    0,000000000e+00
      730000000    1,028201450e-02   -3,478954732e-02   -5,093890429e-01   -3,330990970e-01    0,000000000e+00    0,000000000e+00    0,000000000e+00    0,000000000e+00
      744000000    1,730302908e-02   -6,101857498e-02   -6,007551551e-01    3,338812292e-02    0,000000000e+00    0,000000000e+00    0,000000000e+00    0,000000000e+00
      758000000    2,219111472e-02   -1,030886099e-01   -4,543056488e-01    3,774881363e-01    0,000000000e+00    0,000000000e+00    0,000000000e+00    0,000000000e+00
      772000000   -5,005509127e-03   -1,731856316e-01   -1,388085186e-01    5,581721067e-01    0,000000000e+00    0,000000000e+00    0,000000000e+00    0,000000000e+00
      786000000   -1,044439897e-01   -2,323077321e-01    2,119502723e-01    5,196143389e-01    0,000000000e+00    0,000000000e+00    0,000000000e+00    0,000000000e+00
      800000000   -2,663994431e-01   -1,932471544e-01    4,720071852e-01    2,752475142e-01    0,000000000e+00    0,000000000e+00    0,000000000e+00    0,000000000e+00
      814000000   -3,640948832e-01    2,570426092e-03    5,076060891e-01   -8,896528929e-02    0,000000000e+00    0,000000000e+00    0,000000000e+00    0,000000000e+00
      828000000   -2,482711226e-01    2,333818078e-01    2,814648449e-01   -3,520353734e-01    0,000000000e+00    0,000000000e+00    0,000000000e+00    0,000000000e+00
      842000000    1,219939161e-02    2,779052556e-01   -1,582210325e-02   -3,631918728e-01    0,000000000e+00    0,000000000e+00    0,000000000e+00    0,000000000e+00
      856000000    2,124326229e-01    1,154974401e-01   -1,879041344e-01   -2,048079669e-01    0,000000000e+00    0,000000000e+00    0,000000000e+00    0,000000000e+00
      870000000    2,388589978e-01   -1,488898993e-01   -2,007635981e-01   -2,578096651e-02    0,000000000e+00    0,000000000e+00    0,000000000e+00    0,000000000e+00
      884000000    3,780694306e-02   -3,857068717e-01   -1,038212851e-01    7,108481973e-02    0,000000000e+00    0,000000000e+00    0,000000000e+00    0,000000000e+00
      898000000   -3,697590232e-01   -3,420897424e-01   -1,687092707e-02    2,681908198e-02    0,000000000e+00    0,000000000e+00    0,000000000e+00    0,000000000e+00
      912000000   -4,677573442e-01    1,392010301e-01   -1,201156378e-01    2,185647562e-02    0,000000000e+00    0,000000000e+00    0,000000000e+00    0,000000000e+00
      926000000   -9,500029683e-02    3,545335829e-01   -1,284833103e-01    1,360184103e-01    0,000000000e+00    0,000000000e+00    0,000000000e+00    0,000000000e+00
      940000000    1,857501268e-01    1,933557540e-01   -3,643359616e-02    2,164729238e-01    0,000000000e+00    0,000000000e+00    0,000000000e+00    0,000000000e+00
      954000000    2,571354806e-01   -4,840019718e-02    7,948418707e-02    2,266580015e-01    0,000000000e+00    0,000000000e+00    0,000000000e+00    0,000000000e+00
      968000000    1,767009944e-01   -2,602005899e-01    1,915704906e-01    1,815127581e-01    0,000000000e+00    0,000000000e+00    0,000000000e+00    0,000000000e+00
      982000000   -1,762615703e-02   -3,968030214e-01    2,795342803e-01    7,939971238e-02    0,000000000e+00    0,000000000e+00    0,000000000e+00    0,000000000e+00
      996000000   -2,757133245e-01   -3,760991991e-01    3,084625006e-01   -8,070117980e-02    0,000000000e+00    0,000000000e+00    0,000000000e+00    0,000000000e+00
     1010000000   -4,706003070e-01   -1,756264269e-01    2,201861739e-01   -2,517683208e-01    0,000000000e+00    0,000000000e+00    0,000000000e+00    0,000000000e+00
     1024000000   -4,603441358e-01    1,145841405e-01    2,154660597e-02   -3,281895220e-01    0,000000000e+00    0,000000000e+00    0,000000000e+00    0,000000000e+00
     1038000000   -2,619027495e-01    2,959979475e-01   -1,753908843e-01   -2,476352006e-01    0,000000000e+00    0,000000000e+00    0,000000000e+00    0,000000000e+00
     1052000000   -4,070065171e-02    3,080767393e-01   -2,544875145e-01   -7,629690319e-02    0,000000000e+00    0,000000000e+00    0,000000000e+00    0,000000000e+00
     1066000000    1,245724037e-01    2,032056004e-01   -2,269575000e-01    8,269505948e-02    0,000000000e+00    0,000000000e+00    0,000000000e+00    0,000000000e+00
     1080000000    2,088428289e-01    4,427434504e-02   -1,207116991e-01    1,935031116e-01    0,000000000e+00    0,000000000e+00    0,000000000e+00    0,000000000e+00
     1094000000    2,030909210e-01   -1,295839399e-01    1,793754473e-02    2,323719859e-01    0,000000000e+00    0,000000000e+00    0,000000000e+00    0,000000000e+00
     1108000000    1,036112309e-01   -2,882478535e-01    1,662709415e-01    2,043190897e-01    0,000000000e+00    0,000000000e+00    0,000000000e+00    0,000000000e+00
     1122000000   -1,022957712e-01   -3,721449971e-01    3,154411912e-01    9,249477088e-02    0,000000000e+00    0,000000000e+00    0,000000000e+00    0,000000000e+00
     1136000000   -3,460288644e-01   -2,743244469e-01    3,906108737e-01   -1,481006742e-01    0,000000000e+00    0,000000000e+00    0,000000000e+00    0,000000000e+00
     1150000000   -4,125513136e-01    3,616071865e-02    2,442744523e-01   -4,350098372e-01    0,000000000e+00    0,000000000e+00    0,000000000e+00    0,000000000e+00
     1164000000   -1,576052904e-01    2,219319195e-01   -9,311181307e-02   -5,141106248e-01    0,000000000e+00    0,000000000e+00    0,000000000e+00    0,000000000e+00
     1178000000    7,711580396e-02    8,125099540e-02   -3,589450717e-01   -3,464424312e-01    0,000000000e+00    0,000000000e+00    0,000000000e+00    0,000000000e+00
     1192000000    7,497408241e-02   -1,736536473e-01   -4,535837173e-01   -8,304854482e-02    0,000000000e+00    0,000000000e+00    0,000000000e+00    0,000000000e+00
     1206000000   -1,652055234e-01   -3,257983923e-01   -3,706178665e-01    1,912253201e-01    0,000000000e+00    0,000000000e+00    0,000000000e+00    0,000000000e+00
     1220000000   -4,566898048e-01   -1,741628051e-01   -1,056068838e-01    3,316974342e-01    0,000000000e+00    0,000000000e+00    0,000000000e+00    0,000000000e+00
     1234000000   -4,767248929e-01    1,660497487e-01    1,349447668e-01    2,250364870e-01    0,000000000e+00    0,000000000e+00    0,000000000e+00    0,000000000e+00
     1248000000   -2,429814190e-01    3,562804759e-01    1,939488500e-01    3,655158356e-02    0,000000000e+00    0,000000000e+00    0,000000000e+00    0,000000000e+00
     1262000000    4,525605589e-03    3,295087814e-01    1,254956722e-01   -7,187927514e-02    0,000000000e+00    0,000000000e+00    0,000000000e+00    0,000000000e+00
     1276000000    1,540662348e-01    2,039440572e-01    5,269864947e-02   -9,468756616e-02    0,000000000e+00    0,000000000e+00    0,000000000e+00    0,000000000e+00
     1290000000    2,198953480e-01    3,119888157e-02    4,605130758e-03   -7,292472571e-02    0,000000000e+00    0,000000000e+00    0,000000000e+00    0,000000000e+00
     1304000000    2,055898756e-01   -1,438543200e-01   -1,690273359e-02   -2,924929187e-02    0,000000000e+00    0,000000000e+00    0,000000000e+00    0,000000000e+00
     1318000000    1,129736081e-01   -3,133562803e-01   -1,721582026e-03    1,719172485e-02    0,000000000e+00    0,000000000e+00    0,000000000e+00    0,000000000e+00
     1332000000   -6,664135307e-02   -4,304811954e-01    5,244835466e-02    5,857674032e-02    0,000000000e+00    0,000000000e+00    0,000000000e+00    0,000000000e+00
     1346000000   -3,331718147e-01   -4,391341805e-01    1,413273960e-01    4,620176926e-02    0,000000000e+00    0,000000000e+00    0,000000000e+00    0,000000000e+00
     1360000000   -5,618197322e-01   -2,415215373e-01    1,163002849e-01   -7,381026447e-02    0,000000000e+00    0,000000000e+00    0,000000000e+00    0,000000000e+00
     1374000000   -6,131619811e-01    3,058208153e-02    1,187417954e-01    6,789135933e-02    0,000000000e+00    0,000000000e+00    0,000000000e+00    0,000000000e+00
     1388000000   -5,096800923e-01    2,879949212e-01    2,247537076e-01   -5,094066262e-03    0,000000000e+00    0,000000000e+00    0,000000000e+00    0,000000000e+00
     1402000000   -3,042885363e-01    4,181497991e-01    2,287883162e-01   -8,471184224e-02    0,000000000e+00    0,000000000e+00    0,000000000e+00    0,000000000e+00
     1416000000   -8,593270183e-02    4,232478142e-01    1,941532195e-01   -1,079779342e-01    0,000000000e+00    0,000000000e+00    0,000000000e+00    0,000000000e+00
     1430000000    6,434344500e-02    3,341368437e-01    1,436818242e-01   -1,031161100e-01    0,000000000e+00    0,000000000e+00    0,000000000e+00    0,000000000e+00
     1444000000    1,697537303e-01    2,001185417e-01    1,460454464e-01   -9,423319250e-02    0,000000000e+00    0,000000000e+00    0,000000000e+00    0,000000000e+00
     1458000000    2,249155492e-01    3,490606323e-02    1,514071524e-01   -8,710867912e-02    0,000000000e+00    0,000000000e+00    0,000000000e+00    0,000000000e+00
     1472000000    2,057997435e-01   -1,462946534e-01    1,411191523e-01   -4,618983716e-02    0,000000000e+00    0,000000000e+00    0,000000000e+00    0,000000000e+00
     1486000000    9,936968237e-02   -3,223117888e-01    1,616852432e-01   -1,175627485e-02    0,000000000e+00    0,000000000e+00    0,000000000e+00    0,000000000e+00
     1500000000   -9,670971334e-02   -4,572364986e-01    2,043115497e-01    6,551922113e-02    0,000000000e+00    0,000000000e+00    0,000000000e+00    0,000000000e+00
