! NanoVNA-App
! Date: 2025-09-25 14:21:16
! Start: 100MHz Stop: 1,5GHz Points: 101
! S-Parameter data: F S11 S21 S12 S22
# Hz S RI R 50
!     Frequency           S11_Real           S11_Imag           S21_Real           S21_Imag           S12_Real           S12_Imag           S22_Real           S22_Imag
      100000000   -2,909326553e-02   -4,142447840e-03    3,744322360e-01   -7,220451236e-01    0,000000000e+00    0,000000000e+00    0,000000000e+00    0,000000000e+00
      114000000   -1,662382111e-02    1,163435075e-02   -8,898229897e-02   -8,058924675e-01    0,000000000e+00    0,000000000e+00    0,000000000e+00    0,000000000e+00
      128000000    3,445674898e-03    1,057555899e-02   -5,147439241e-01   -6,209117174e-01    0,000000000e+00    0,000000000e+00    0,000000000e+00    0,000000000e+00
      142000000    1,447762735e-02   -3,049158026e-03   -7,674978971e-01   -2,367091477e-01    0,000000000e+00    0,000000000e+00    0,000000000e+00    0,000000000e+00
      156000000    1,471482031e-02   -1,499907952e-02   -7,661140561e-01    2,215196639e-01    0,000000000e+00    0,000000000e+00    0,000000000e+00    0,000000000e+00
      170000000    1,654172502e-02   -2,257683873e-02   -5,185778737e-01    6,048547029e-01    0,000000000e+00    0,000000000e+00    0,000000000e+00    0,000000000e+00
      184000000    2,096048743e-02   -3,711596131e-02   -1,017562076e-01    7,865266204e-01    0,000000000e+00    0,000000000e+00    0,000000000e+00    0,000000000e+00
      198000000    1,302485075e-02   -6,256930530e-02    3,430489004e-01    7,130027413e-01    0,000000000e+00    0,000000000e+00    0,000000000e+00    0,000000000e+00
      212000000   -1,877611503e-02   -8,166639507e-02    6,785386801e-01    4,104499817e-01    0,000000000e+00    0,000000000e+00    0,000000000e+00    0,000000000e+00
      226000000   -6,204808876e-02   -6,959078461e-02    7,960776091e-01   -2,982770465e-02    0,000000000e+00    0,000000000e+00    0,000000000e+00    0,000000000e+00
      240000000   -8,318191767e-02   -2,603380010e-02    6,472309828e-01   -4,664856493e-01    0,000000000e+00    0,000000000e+00    0,000000000e+00    0,000000000e+00
      254000000   -6,431292742e-02    1,727097109e-02    2,774217427e-01   -7,437134385e-01    0,000000000e+00    0,000000000e+00    0,000000000e+00    0,000000000e+00
      268000000   -2,425683849e-02    2,950524352e-02   -1,771695167e-01   -7,648018003e-01    0,000000000e+00    0,000000000e+00    0,000000000e+00    0,000000000e+00
      282000000    4,109948874e-03    1,206928585e-02   -5,628281832e-01   -5,373374224e-01    0,000000000e+00    0,000000000e+00    0,000000000e+00    0,000000000e+00
      296000000    9,631925263e-03   -7,688756566e-03   -7,608372569e-01   -1,393063515e-01    0,000000000e+00    0,000000000e+00    0,000000000e+00    0,000000000e+00
      310000000    1,121824048e-02   -1,623768359e-02   -7,131919861e-01    2,966509163e-01    0,000000000e+00    0,000000000e+00    0,000000000e+00    0,000000000e+00
      324000000    1,940133609e-02   -2,650056221e-02   -4,284439385e-01    6,372495294e-01    0,000000000e+00    0,000000000e+00    0,000000000e+00    0,000000000e+00
      338000000    2,568888664e-02   -5,208408087e-02   -1,036524959e-02    7,591569424e-01    0,000000000e+00    0,000000000e+00    0,000000000e+00    0,000000000e+00
      352000000    7,315869443e-03   -8,488653600e-02    4,050838947e-01    6,413470507e-01    0,000000000e+00    0,000000000e+00    0,000000000e+00    0,000000000e+00
      366000000   -3,492809087e-02   -9,619501978e-02    6,910670996e-01    3,127242029e-01    0,000000000e+00    0,000000000e+00    0,000000000e+00    0,000000000e+00
      380000000   -7,134356350e-02   -7,104889303e-02    7,484586835e-01   -1,243933067e-01    0,000000000e+00    0,000000000e+00    0,000000000e+00    0,000000000e+00
      394000000   -7,298626006e-02   -3,243939206e-02    5,490801334e-01   -5,210347772e-01    0,000000000e+00    0,000000000e+00    0,000000000e+00    0,000000000e+00
      408000000   -4,688869044e-02   -1,554832235e-02    1,633196622e-01   -7,328725457e-01    0,000000000e+00    0,000000000e+00    0,000000000e+00    0,000000000e+00
      422000000   -2,822567895e-02   -3,149570152e-02   -2,656092644e-01   -6,963075399e-01    0,000000000e+00    0,000000000e+00    0,000000000e+00    0,000000000e+00
      436000000   -4,039210826e-02   -5,193578079e-02   -6,030446291e-01   -4,333624840e-01    0,000000000e+00    0,000000000e+00    0,000000000e+00    0,000000000e+00
      450000000   -6,759025902e-02   -4,498310387e-02   -7,403647900e-01   -2,501961589e-02    0,000000000e+00    0,000000000e+00    0,000000000e+00    0,000000000e+00
      464000000   -7,408694178e-02   -1,237000432e-02   -6,208981872e-01    3,942584693e-01    0,000000000e+00    0,000000000e+00    0,000000000e+00    0,000000000e+00
      478000000   -4,901961982e-02    1,174391340e-02   -2,861016989e-01    6,679413915e-01    0,000000000e+00    0,000000000e+00    0,000000000e+00    0,000000000e+00
      492000000   -1,686538756e-02    6,414398085e-03    1,339218915e-01    7,035698295e-01    0,000000000e+00    0,000000000e+00    0,000000000e+00    0,000000000e+00
      506000000   -3,627207363e-03   -1,471915375e-02    4,978970885e-01    5,059120655e-01    0,000000000e+00    0,000000000e+00    0,000000000e+00    0,000000000e+00
      520000000   -5,581974518e-03   -2,972380817e-02    6,893761754e-01    1,447684169e-01    0,000000000e+00    0,000000000e+00    0,000000000e+00    0,000000000e+00
      534000000   -3,168080235e-03   -3,582806885e-02    6,445856094e-01   -2,598227859e-01    0,000000000e+00    0,000000000e+00    0,000000000e+00    0,000000000e+00
      548000000    7,947767153e-03   -5,262061208e-02    3,855260611e-01   -5,637688041e-01    0,000000000e+00    0,000000000e+00    0,000000000e+00    0,000000000e+00
      562000000    5,836290307e-03   -8,973953128e-02    8,904702961e-03   -6,720374823e-01    0,000000000e+00    0,000000000e+00    0,000000000e+00    0,000000000e+00
      576000000   -3,180021420e-02   -1,262052506e-01   -3,625414371e-01   -5,606009960e-01    0,000000000e+00    0,000000000e+00    0,000000000e+00    0,000000000e+00
      590000000   -9,500809759e-02   -1,276570708e-01   -6,178726554e-01   -2,711646855e-01    0,000000000e+00    0,000000000e+00    0,000000000e+00    0,000000000e+00
      604000000   -1,427651495e-01   -7,823746651e-02   -6,670444608e-01    1,261838675e-01    0,000000000e+00    0,000000000e+00    0,000000000e+00    0,000000000e+00
      618000000   -1,383442283e-01   -1,162272971e-02   -4,757429063e-01    4,860077798e-01    0,000000000e+00    0,000000000e+00    0,000000000e+00    0,000000000e+00
      632000000   -9,329932928e-02    2,112050354e-02   -1,131425276e-01    6,630502343e-01    0,000000000e+00    0,000000000e+00    0,000000000e+00    0,000000000e+00
      646000000   -5,489058793e-02    1,151843183e-02    2,743473351e-01    6,042065024e-01    0,000000000e+00    0,000000000e+00    0,000000000e+00    0,000000000e+00
      660000000   -4,856518283e-02   -8,313231170e-03    5,579330921e-01    3,408032656e-01    0,000000000e+00    0,000000000e+00    0,000000000e+00    0,000000000e+00
      674000000   -5,518305302e-02   -1,057335734e-02    6,445969939e-01   -3,980937600e-02    0,000000000e+00    0,000000000e+00    0,000000000e+00    0,000000000e+00
      688000000   -5,039197952e-02    2,486320911e-03    4,932224751e-01   -4,019573629e-01    0,000000000e+00    0,000000000e+00    0,000000000e+00    0,000000000e+00
      702000000   -2,645585872e-02    7,799585816e-03    1,654004902e-01   -6,030769944e-01    0,000000000e+00    0,000000000e+00    0,000000000e+00    0,000000000e+00
      716000000   -1,360120252e-03   -9,495330974e-03   -2,183362097e-01   -5,751916766e-01    0,000000000e+00    0,000000000e+00    0,000000000e+00    0,000000000e+00
      730000000    9,125715122e-03   -3,480318561e-02   -5,090429187e-01   -3,330219686e-01    0,000000000e+00    0,000000000e+00    0,000000000e+00    0,000000000e+00
      744000000    1,669569500e-02   -6,048020720e-02   -6,007717252e-01    3,300072253e-02    0,000000000e+00    0,000000000e+00    0,000000000e+00    0,000000000e+00
      758000000    2,147205360e-02   -1,032195017e-01   -4,537835419e-01    3,771111369e-01    0,000000000e+00    0,000000000e+00    0,000000000e+00    0,000000000e+00
      772000000   -5,169181153e-03   -1,740393788e-01   -1,391147822e-01    5,580375195e-01    0,000000000e+00    0,000000000e+00    0,000000000e+00    0,000000000e+00
      786000000   -1,055903211e-01   -2,327061146e-01    2,111589164e-01    5,196677446e-01    0,000000000e+00    0,000000000e+00    0,000000000e+00    0,000000000e+00
      800000000   -2,662110627e-01   -1,931821853e-01    4,713166058e-01    2,757161856e-01    0,000000000e+00    0,000000000e+00    0,000000000e+00    0,000000000e+00
      814000000   -3,639161587e-01    4,158943892e-03    5,075660348e-01   -8,875501156e-02    0,000000000e+00    0,000000000e+00    0,000000000e+00    0,000000000e+00
      828000000   -2,473646253e-01    2,326946259e-01    2,812938392e-01   -3,521825671e-01    0,000000000e+00    0,000000000e+00    0,000000000e+00    0,000000000e+00
      842000000    1,206818502e-02    2,784571946e-01   -1,658447459e-02   -3,629871011e-01    0,000000000e+00    0,000000000e+00    0,000000000e+00    0,000000000e+00
      856000000    2,122505903e-01    1,151552424e-01   -1,882616132e-01   -2,052077353e-01    0,000000000e+00    0,000000000e+00    0,000000000e+00    0,000000000e+00
      870000000    2,389159203e-01   -1,487842053e-01   -2,004571408e-01   -2,550658770e-02    0,000000000e+00    0,000000000e+00    0,000000000e+00    0,000000000e+00
      884000000    3,711031377e-02   -3,863644898e-01   -1,045185328e-01    7,040204108e-02    0,000000000e+00    0,000000000e+00    0,000000000e+00    0,000000000e+00
      898000000   -3,694541156e-01   -3,408537209e-01   -1,640110463e-02    2,811530046e-02    0,000000000e+00    0,000000000e+00    0,000000000e+00    0,000000000e+00
      912000000   -4,664407372e-01    1,383340657e-01   -1,153894439e-01    4,052803665e-02    0,000000000e+00    0,000000000e+00    0,000000000e+00    0,000000000e+00
      926000000   -9,727548063e-02    3,510248065e-01   -1,296449155e-01    1,339978427e-01    0,000000000e+00    0,000000000e+00    0,000000000e+00    0,000000000e+00
      940000000    1,825710088e-01    1,929411441e-01   -3,950483724e-02    2,149585783e-01    0,000000000e+00    0,000000000e+00    0,000000000e+00    0,000000000e+00
      954000000    2,564566731e-01   -4,665363580e-02    7,867442071e-02    2,276068628e-01    0,000000000e+00    0,000000000e+00    0,000000000e+00    0,000000000e+00
      968000000    1,747489572e-01   -2,596078217e-01    1,913018525e-01    1,821559221e-01    0,000000000e+00    0,000000000e+00    0,000000000e+00    0,000000000e+00
      982000000   -1,999570616e-02   -3,945569098e-01    2,806942165e-01    7,877802104e-02    0,000000000e+00    0,000000000e+00    0,000000000e+00    0,000000000e+00
      996000000   -2,743279040e-01   -3,725028336e-01    3,106706738e-01   -8,095481992e-02    0,000000000e+00    0,000000000e+00    0,000000000e+00    0,000000000e+00
     1010000000   -4,700360000e-01   -1,685684770e-01    2,209170759e-01   -2,537482977e-01    0,000000000e+00    0,000000000e+00    0,000000000e+00    0,000000000e+00
     1024000000   -4,563413858e-01    1,132672653e-01    2,037112787e-02   -3,287056088e-01    0,000000000e+00    0,000000000e+00    0,000000000e+00    0,000000000e+00
     1038000000   -2,674023807e-01    2,985399067e-01   -1,723105311e-01   -2,483029962e-01    0,000000000e+00    0,000000000e+00    0,000000000e+00    0,000000000e+00
     1052000000   -4,084954783e-02    3,087885082e-01   -2,576059401e-01   -7,713280618e-02    0,000000000e+00    0,000000000e+00    0,000000000e+00    0,000000000e+00
     1066000000    1,297085583e-01    2,071986943e-01   -2,262410223e-01    8,428048342e-02    0,000000000e+00    0,000000000e+00    0,000000000e+00    0,000000000e+00
     1080000000    2,085224986e-01    4,519007355e-02   -1,221238077e-01    1,937112212e-01    0,000000000e+00    0,000000000e+00    0,000000000e+00    0,000000000e+00
     1094000000    1,993449479e-01   -1,282026768e-01    1,703830622e-02    2,348156273e-01    0,000000000e+00    0,000000000e+00    0,000000000e+00    0,000000000e+00
     1108000000    1,019374952e-01   -2,849801779e-01    1,691416800e-01    2,071172148e-01    0,000000000e+00    0,000000000e+00    0,000000000e+00    0,000000000e+00
     1122000000   -1,008650735e-01   -3,720078468e-01    3,142636120e-01    8,932900429e-02    0,000000000e+00    0,000000000e+00    0,000000000e+00    0,000000000e+00
     1136000000   -3,440473080e-01   -2,719313502e-01    3,912954032e-01   -1,496408880e-01    0,000000000e+00    0,000000000e+00    0,000000000e+00    0,000000000e+00
     1150000000   -4,055080712e-01    3,949048743e-02    2,436754107e-01   -4,384043813e-01    0,000000000e+00    0,000000000e+00    0,000000000e+00    0,000000000e+00
     1164000000   -1,596820056e-01    2,144107968e-01   -9,621731937e-02   -5,138545632e-01    0,000000000e+00    0,000000000e+00    0,000000000e+00    0,000000000e+00
     1178000000    7,666351646e-02    8,117832989e-02   -3,556252420e-01   -3,471899331e-01    0,000000000e+00    0,000000000e+00    0,000000000e+00    0,000000000e+00
     1192000000    7,629150152e-02   -1,731002331e-01   -4,514008760e-01   -8,220724761e-02    0,000000000e+00    0,000000000e+00    0,000000000e+00    0,000000000e+00
     1206000000   -1,647800356e-01   -3,247222900e-01   -3,695994914e-01    1,903462261e-01    0,000000000e+00    0,000000000e+00    0,000000000e+00    0,000000000e+00
     1220000000   -4,534292519e-01   -1,777450591e-01   -1,045404524e-01    3,285006583e-01    0,000000000e+00    0,000000000e+00    0,000000000e+00    0,000000000e+00
     1234000000   -4,750220478e-01    1,653325111e-01    1,374542266e-01    2,228088826e-01    0,000000000e+00    0,000000000e+00    0,000000000e+00    0,000000000e+00
     1248000000   -2,387368977e-01    3,536047339e-01    1,930755973e-01    3,755866736e-02    0,000000000e+00    0,000000000e+00    0,000000000e+00    0,000000000e+00
     1262000000   -1,017264949e-04    3,265329003e-01    1,310317963e-01   -7,285185903e-02    0,000000000e+00    0,000000000e+00    0,000000000e+00    0,000000000e+00
     1276000000    1,535798311e-01    2,053318620e-01    5,033064634e-02   -9,274179488e-02    0,000000000e+00    0,000000000e+00    0,000000000e+00    0,000000000e+00
     1290000000    2,146529108e-01    3,323644400e-02    2,871342935e-03   -7,170855254e-02    0,000000000e+00    0,000000000e+00    0,000000000e+00    0,000000000e+00
     1304000000    2,071986943e-01   -1,439601034e-01   -1,696382463e-02   -2,822533064e-02    0,000000000e+00    0,000000000e+00    0,000000000e+00    0,000000000e+00
     1318000000    1,131778210e-01   -3,113352358e-01   -9,019779041e-03    2,436366677e-02    0,000000000e+00    0,000000000e+00    0,000000000e+00    0,000000000e+00
     1332000000   -6,611888111e-02   -4,296547771e-01    5,193719268e-02    6,812234223e-02    0,000000000e+00    0,000000000e+00    0,000000000e+00    0,000000000e+00
     1346000000   -3,283645809e-01   -4,417464733e-01    1,414721310e-01    3,613447770e-02    0,000000000e+00    0,000000000e+00    0,000000000e+00    0,000000000e+00
     1360000000   -5,504645109e-01   -2,442792952e-01    1,201269254e-01   -7,842428982e-02    0,000000000e+00    0,000000000e+00    0,000000000e+00    0,000000000e+00
     1374000000   -6,161674261e-01    3,553935513e-02    1,121424437e-01    5,784721673e-02    0,000000000e+00    0,000000000e+00    0,000000000e+00    0,000000000e+00
     1388000000   -5,158730745e-01    3,015069962e-01    2,242715508e-01    1,023764722e-02    0,000000000e+00    0,000000000e+00    0,000000000e+00    0,000000000e+00
     1402000000   -3,120253682e-01    4,174537361e-01    2,165498585e-01   -7,157761604e-02    0,000000000e+00    0,000000000e+00    0,000000000e+00    0,000000000e+00
     1416000000   -9,093441069e-02    4,219385386e-01    1,966896355e-01   -1,122365221e-01    0,000000000e+00    0,000000000e+00    0,000000000e+00    0,000000000e+00
     1430000000    6,967800856e-02    3,414423168e-01    1,905529648e-01   -1,038037017e-01    0,000000000e+00    0,000000000e+00    0,000000000e+00    0,000000000e+00
     1444000000    1,743362695e-01    1,921617985e-01    1,584166884e-01   -1,088805720e-01    0,000000000e+00    0,000000000e+00    0,000000000e+00    0,000000000e+00
     1458000000    2,281972766e-01    3,777014464e-02    1,533173323e-01   -7,741145790e-02    0,000000000e+00    0,000000000e+00    0,000000000e+00    0,000000000e+00
     1472000000    2,067311704e-01   -1,450462192e-01    1,458630562e-01   -5,484411865e-02    0,000000000e+00    0,000000000e+00    0,000000000e+00    0,000000000e+00
     1486000000    1,067853570e-01   -3,223275244e-01    1,689126641e-01   -1,358497981e-02    0,000000000e+00    0,000000000e+00    0,000000000e+00    0,000000000e+00
     1500000000   -8,824914694e-02   -4,601749182e-01    2,208317965e-01    6,338547915e-02    0,000000000e+00    0,000000000e+00    0,000000000e+00    0,000000000e+00
