! NanoVNA-App
! Date: 2025-09-26 09:45:14
! Start: 100MHz Stop: 1,5GHz Points: 101
! S-Parameter data: F S11 S21 S12 S22
# Hz S RI R 50
!     Frequency           S11_Real           S11_Imag           S21_Real           S21_Imag           S12_Real           S12_Imag           S22_Real           S22_Imag
      100000000    3,044188768e-02    2,813505568e-02    4,339189827e-01   -6,701536775e-01    0,000000000e+00    0,000000000e+00    0,000000000e+00    0,000000000e+00
      114000000    5,650424585e-02    5,461573135e-03    5,837264936e-03   -7,919762135e-01    0,000000000e+00    0,000000000e+00    0,000000000e+00    0,000000000e+00
      128000000    6,610221416e-02   -3,711372241e-02   -4,126977026e-01   -6,709281206e-01    0,000000000e+00    0,000000000e+00    0,000000000e+00    0,000000000e+00
      142000000    4,411652312e-02   -8,283143491e-02   -7,048728466e-01   -3,518975377e-01    0,000000000e+00    0,000000000e+00    0,000000000e+00    0,000000000e+00
      156000000   -5,034720059e-03   -1,052193865e-01   -7,879464030e-01    7,700709254e-02    0,000000000e+00    0,000000000e+00    0,000000000e+00    0,000000000e+00
      170000000   -5,626474693e-02   -8,947083354e-02   -6,262940764e-01    4,898908436e-01    0,000000000e+00    0,000000000e+00    0,000000000e+00    0,000000000e+00
      184000000   -8,205616474e-02   -4,942312464e-02   -2,620095313e-01    7,528782487e-01    0,000000000e+00    0,000000000e+00    0,000000000e+00    0,000000000e+00
      198000000   -7,860850543e-02   -1,129944250e-02    1,867981255e-01    7,738192081e-01    0,000000000e+00    0,000000000e+00    0,000000000e+00    0,000000000e+00
      212000000   -6,218729913e-02    1,220020559e-02    5,720986724e-01    5,476155281e-01    0,000000000e+00    0,000000000e+00    0,000000000e+00    0,000000000e+00
      226000000   -4,373974353e-02    2,726789750e-02    7,723432779e-01    1,518442482e-01    0,000000000e+00    0,000000000e+00    0,000000000e+00    0,000000000e+00
      240000000   -1,851884648e-02    3,859775141e-02    7,270945311e-01   -2,848513722e-01    0,000000000e+00    0,000000000e+00    0,000000000e+00    0,000000000e+00
      254000000    1,714826562e-02    3,537478298e-02    4,571484029e-01   -6,225306988e-01    0,000000000e+00    0,000000000e+00    0,000000000e+00    0,000000000e+00
      268000000    4,875929281e-02    5,730851088e-03    5,685881898e-02   -7,617266774e-01    0,000000000e+00    0,000000000e+00    0,000000000e+00    0,000000000e+00
      282000000    5,339539051e-02   -4,146950692e-02   -3,520120382e-01   -6,722675562e-01    0,000000000e+00    0,000000000e+00    0,000000000e+00    0,000000000e+00
      296000000    2,428768389e-02   -7,883105427e-02   -6,540699601e-01   -3,843233287e-01    0,000000000e+00    0,000000000e+00    0,000000000e+00    0,000000000e+00
      310000000   -1,697015017e-02   -8,266548812e-02   -7,658221722e-01    2,478648350e-02    0,000000000e+00    0,000000000e+00    0,000000000e+00    0,000000000e+00
      324000000   -4,023491219e-02   -5,898878723e-02   -6,316150427e-01    4,345320165e-01    0,000000000e+00    0,000000000e+00    0,000000000e+00    0,000000000e+00
      338000000   -3,360262513e-02   -3,803283349e-02   -2,933392823e-01    7,030342221e-01    0,000000000e+00    0,000000000e+00    0,000000000e+00    0,000000000e+00
      352000000   -1,807510853e-02   -4,232899100e-02    1,288533360e-01    7,437058687e-01    0,000000000e+00    0,000000000e+00    0,000000000e+00    0,000000000e+00
      366000000   -2,091882005e-02   -6,221241131e-02    5,020177960e-01    5,534821749e-01    0,000000000e+00    0,000000000e+00    0,000000000e+00    0,000000000e+00
      380000000   -4,562321305e-02   -7,115083933e-02    7,170004845e-01    1,968031526e-01    0,000000000e+00    0,000000000e+00    0,000000000e+00    0,000000000e+00
      394000000   -6,963138282e-02   -5,579020828e-02    7,059398293e-01   -2,219472975e-01    0,000000000e+00    0,000000000e+00    0,000000000e+00    0,000000000e+00
      408000000   -7,342425734e-02   -2,979210205e-02    4,700820148e-01   -5,657334924e-01    0,000000000e+00    0,000000000e+00    0,000000000e+00    0,000000000e+00
      422000000   -6,217325106e-02   -1,437760144e-02    8,772390336e-02   -7,241983414e-01    0,000000000e+00    0,000000000e+00    0,000000000e+00    0,000000000e+00
      436000000   -5,394764617e-02   -1,050598081e-02   -3,120417893e-01   -6,520888209e-01    0,000000000e+00    0,000000000e+00    0,000000000e+00    0,000000000e+00
      450000000   -5,262842029e-02   -1,185889821e-03   -6,083263159e-01   -3,731765151e-01    0,000000000e+00    0,000000000e+00    0,000000000e+00    0,000000000e+00
      464000000   -3,855385631e-02    1,879323646e-02   -7,004830241e-01    1,918919384e-02    0,000000000e+00    0,000000000e+00    0,000000000e+00    0,000000000e+00
      478000000    1,128599164e-03    2,656039968e-02   -5,610733628e-01    3,866567612e-01    0,000000000e+00    0,000000000e+00    0,000000000e+00    0,000000000e+00
      492000000    4,553133622e-02   -4,354750272e-03   -2,598554790e-01    6,064386964e-01    0,000000000e+00    0,000000000e+00    0,000000000e+00    0,000000000e+00
      506000000    5,572626367e-02   -6,689574569e-02    9,059817344e-02    6,369851828e-01    0,000000000e+00    0,000000000e+00    0,000000000e+00    0,000000000e+00
      520000000    1,584157720e-02   -1,223996952e-01    3,992238343e-01    4,966964722e-01    0,000000000e+00    0,000000000e+00    0,000000000e+00    0,000000000e+00
      534000000   -5,256744102e-02   -1,326190680e-01    6,015714407e-01    2,213377655e-01    0,000000000e+00    0,000000000e+00    0,000000000e+00    0,000000000e+00
      548000000   -1,016853452e-01   -9,564178437e-02    6,352970004e-01   -1,290764362e-01    0,000000000e+00    0,000000000e+00    0,000000000e+00    0,000000000e+00
      562000000   -1,050841436e-01   -4,691897705e-02    4,691273272e-01   -4,508064389e-01    0,000000000e+00    0,000000000e+00    0,000000000e+00    0,000000000e+00
      576000000   -8,045087755e-02   -2,477022447e-02    1,514412016e-01   -6,297726035e-01    0,000000000e+00    0,000000000e+00    0,000000000e+00    0,000000000e+00
      590000000   -6,409665197e-02   -3,261937201e-02   -2,071582973e-01   -6,157743931e-01    0,000000000e+00    0,000000000e+00    0,000000000e+00    0,000000000e+00
      604000000   -7,221929729e-02   -4,195879400e-02   -5,030440092e-01   -4,060797989e-01    0,000000000e+00    0,000000000e+00    0,000000000e+00    0,000000000e+00
      618000000   -8,777099103e-02   -2,898420393e-02   -6,419498324e-01   -6,920439750e-02    0,000000000e+00    0,000000000e+00    0,000000000e+00    0,000000000e+00
      632000000   -8,305352926e-02    9,005096508e-04   -5,752209425e-01    2,897714972e-01    0,000000000e+00    0,000000000e+00    0,000000000e+00    0,000000000e+00
      646000000   -5,208630115e-02    1,799769886e-02   -3,260084391e-01    5,474061370e-01    0,000000000e+00    0,000000000e+00    0,000000000e+00    0,000000000e+00
      660000000   -1,865883730e-02    6,417674012e-03    1,343576517e-02    6,287385821e-01    0,000000000e+00    0,000000000e+00    0,000000000e+00    0,000000000e+00
      674000000   -5,763275083e-03   -2,384140901e-02    3,355506361e-01    5,205507278e-01    0,000000000e+00    0,000000000e+00    0,000000000e+00    0,000000000e+00
      688000000   -1,566203311e-02   -4,653300345e-02    5,551055670e-01    2,624920309e-01    0,000000000e+00    0,000000000e+00    0,000000000e+00    0,000000000e+00
      702000000   -2,881796472e-02   -5,214070901e-02    6,023910046e-01   -7,824999094e-02    0,000000000e+00    0,000000000e+00    0,000000000e+00    0,000000000e+00
      716000000   -2,794170938e-02   -5,293759331e-02    4,592212439e-01   -3,844906390e-01    0,000000000e+00    0,000000000e+00    0,000000000e+00    0,000000000e+00
      730000000   -2,414632216e-02   -6,845484674e-02    1,776168346e-01   -5,604475737e-01    0,000000000e+00    0,000000000e+00    0,000000000e+00    0,000000000e+00
      744000000   -3,592202067e-02   -9,587693959e-02   -1,466411948e-01   -5,627089739e-01    0,000000000e+00    0,000000000e+00    0,000000000e+00    0,000000000e+00
      758000000   -7,320185006e-02   -1,137799770e-01   -4,218007326e-01   -3,982017934e-01    0,000000000e+00    0,000000000e+00    0,000000000e+00    0,000000000e+00
      772000000   -1,190625578e-01   -1,009564176e-01   -5,732247829e-01   -1,127051339e-01    0,000000000e+00    0,000000000e+00    0,000000000e+00    0,000000000e+00
      786000000   -1,482160687e-01   -5,840993673e-02   -5,482706428e-01    2,154304832e-01    0,000000000e+00    0,000000000e+00    0,000000000e+00    0,000000000e+00
      800000000   -1,404362321e-01   -1,051500533e-02   -3,469580114e-01    4,783320427e-01    0,000000000e+00    0,000000000e+00    0,000000000e+00    0,000000000e+00
      814000000   -1,116630957e-01    1,668132469e-02   -3,775848448e-02    5,871445537e-01    0,000000000e+00    0,000000000e+00    0,000000000e+00    0,000000000e+00
      828000000   -8,344781399e-02    2,206215635e-02    2,777849436e-01    5,167392492e-01    0,000000000e+00    0,000000000e+00    0,000000000e+00    0,000000000e+00
      842000000   -6,398767978e-02    1,992591098e-02    5,021492243e-01    2,906132340e-01    0,000000000e+00    0,000000000e+00    0,000000000e+00    0,000000000e+00
      856000000   -4,353206232e-02    1,966483891e-02    5,705747008e-01   -1,657425985e-02    0,000000000e+00    0,000000000e+00    0,000000000e+00    0,000000000e+00
      870000000   -1,482610125e-02    1,065666880e-02    4,645441175e-01   -3,063829243e-01    0,000000000e+00    0,000000000e+00    0,000000000e+00    0,000000000e+00
      884000000    1,017886214e-02   -2,254414558e-02    2,312770039e-01   -4,899845719e-01    0,000000000e+00    0,000000000e+00    0,000000000e+00    0,000000000e+00
      898000000    1,188649703e-02   -7,328560203e-02   -5,378068984e-02   -5,298334360e-01    0,000000000e+00    0,000000000e+00    0,000000000e+00    0,000000000e+00
      912000000   -2,841568179e-02   -1,170188338e-01   -3,614429235e-01   -3,991819918e-01    0,000000000e+00    0,000000000e+00    0,000000000e+00    0,000000000e+00
      926000000   -8,213412762e-02   -1,289122999e-01   -5,335982442e-01   -1,633989662e-01    0,000000000e+00    0,000000000e+00    0,000000000e+00    0,000000000e+00
      940000000   -1,287804991e-01   -1,003910452e-01   -5,568360686e-01    1,552928388e-01    0,000000000e+00    0,000000000e+00    0,000000000e+00    0,000000000e+00
      954000000   -1,437328458e-01   -5,597152188e-02   -3,951742947e-01    4,490377307e-01    0,000000000e+00    0,000000000e+00    0,000000000e+00    0,000000000e+00
      968000000   -1,286298931e-01   -2,275023423e-02   -9,363068640e-02    6,078729630e-01    0,000000000e+00    0,000000000e+00    0,000000000e+00    0,000000000e+00
      982000000   -1,137754843e-01   -1,602999493e-02    2,445215285e-01    5,769694448e-01    0,000000000e+00    0,000000000e+00    0,000000000e+00    0,000000000e+00
      996000000   -1,052390859e-01   -1,515690610e-02    5,185748935e-01    3,674007356e-01    0,000000000e+00    0,000000000e+00    0,000000000e+00    0,000000000e+00
     1010000000   -9,939263761e-02   -8,887171745e-03    6,334650517e-01    4,852981120e-02    0,000000000e+00    0,000000000e+00    0,000000000e+00    0,000000000e+00
     1024000000   -9,216610342e-02    4,198189825e-03    5,617796779e-01   -2,823672295e-01    0,000000000e+00    0,000000000e+00    0,000000000e+00    0,000000000e+00
     1038000000   -7,100104541e-02    4,276729014e-04    3,292880654e-01   -5,119361281e-01    0,000000000e+00    0,000000000e+00    0,000000000e+00    0,000000000e+00
     1052000000   -5,429797247e-02   -2,165614255e-02    1,586586051e-02   -5,891500115e-01    0,000000000e+00    0,000000000e+00    0,000000000e+00    0,000000000e+00
     1066000000   -6,438710541e-02   -4,168764874e-02   -2,793398201e-01   -4,967590868e-01    0,000000000e+00    0,000000000e+00    0,000000000e+00    0,000000000e+00
     1080000000   -8,854363859e-02   -4,450810328e-02   -4,962048233e-01   -2,534929216e-01    0,000000000e+00    0,000000000e+00    0,000000000e+00    0,000000000e+00
     1094000000   -9,141076356e-02   -2,312153578e-02   -5,319092870e-01    6,700368226e-02    0,000000000e+00    0,000000000e+00    0,000000000e+00    0,000000000e+00
     1108000000   -7,134159654e-02   -1,313233748e-02   -3,812006414e-01    3,458927572e-01    0,000000000e+00    0,000000000e+00    0,000000000e+00    0,000000000e+00
     1122000000   -4,131726921e-02   -2,468336746e-02   -1,113868728e-01    4,852911234e-01    0,000000000e+00    0,000000000e+00    0,000000000e+00    0,000000000e+00
     1136000000   -3,056236170e-02   -6,949643791e-02    1,822412163e-01    4,582847953e-01    0,000000000e+00    0,000000000e+00    0,000000000e+00    0,000000000e+00
     1150000000   -5,799232051e-02   -1,241941601e-01    4,192025959e-01    2,855564058e-01    0,000000000e+00    0,000000000e+00    0,000000000e+00    0,000000000e+00
     1164000000   -1,239820272e-01   -1,459388137e-01    5,425038338e-01    7,280788384e-03    0,000000000e+00    0,000000000e+00    0,000000000e+00    0,000000000e+00
     1178000000   -1,920181215e-01   -1,248968691e-01    4,959624708e-01   -3,132247627e-01    0,000000000e+00    0,000000000e+00    0,000000000e+00    0,000000000e+00
     1192000000   -2,361754179e-01   -6,114315242e-02    2,766096592e-01   -5,697118044e-01    0,000000000e+00    0,000000000e+00    0,000000000e+00    0,000000000e+00
     1206000000   -2,365549207e-01    1,344917808e-02   -6,302564591e-02   -6,607059240e-01    0,000000000e+00    0,000000000e+00    0,000000000e+00    0,000000000e+00
     1220000000   -2,026679069e-01    7,550495118e-02   -3,990246058e-01   -5,457458496e-01    0,000000000e+00    0,000000000e+00    0,000000000e+00    0,000000000e+00
     1234000000   -1,438810825e-01    1,040407047e-01   -6,075071692e-01   -2,704738379e-01    0,000000000e+00    0,000000000e+00    0,000000000e+00    0,000000000e+00
     1248000000   -7,409299165e-02    1,071384922e-01   -6,321694851e-01    6,643992662e-02    0,000000000e+00    0,000000000e+00    0,000000000e+00    0,000000000e+00
     1262000000   -8,839275688e-03    7,625511289e-02   -4,771451354e-01    3,483721912e-01    0,000000000e+00    0,000000000e+00    0,000000000e+00    0,000000000e+00
     1276000000    3,613745049e-02    3,415180603e-03   -2,214295864e-01    5,086585879e-01    0,000000000e+00    0,000000000e+00    0,000000000e+00    0,000000000e+00
     1290000000    3,602099046e-02   -8,274198323e-02    7,283966988e-02    5,362403989e-01    0,000000000e+00    0,000000000e+00    0,000000000e+00    0,000000000e+00
     1304000000   -1,554530673e-02   -1,704408228e-01    3,422991335e-01    4,348501861e-01    0,000000000e+00    0,000000000e+00    0,000000000e+00    0,000000000e+00
     1318000000   -1,225466207e-01   -2,239556015e-01    5,539231300e-01    2,056596577e-01    0,000000000e+00    0,000000000e+00    0,000000000e+00    0,000000000e+00
     1332000000   -2,442614138e-01   -2,031990290e-01    6,119597554e-01   -1,203644052e-01    0,000000000e+00    0,000000000e+00    0,000000000e+00    0,000000000e+00
     1346000000   -3,347952068e-01   -1,114309728e-01    4,782113433e-01   -4,404353499e-01    0,000000000e+00    0,000000000e+00    0,000000000e+00    0,000000000e+00
     1360000000   -3,414220214e-01    1,206333935e-02    1,895945519e-01   -6,105456948e-01    0,000000000e+00    0,000000000e+00    0,000000000e+00    0,000000000e+00
     1374000000   -2,974516749e-01    1,081294641e-01   -1,478204131e-01   -5,689101219e-01    0,000000000e+00    0,000000000e+00    0,000000000e+00    0,000000000e+00
     1388000000   -2,197553366e-01    1,505551934e-01   -3,784775436e-01   -3,588359058e-01    0,000000000e+00    0,000000000e+00    0,000000000e+00    0,000000000e+00
     1402000000   -1,527066231e-01    1,529604495e-01   -4,413517714e-01   -6,531656533e-02    0,000000000e+00    0,000000000e+00    0,000000000e+00    0,000000000e+00
     1416000000   -8,582653105e-02    1,252190322e-01   -3,541953564e-01    2,297989130e-01    0,000000000e+00    0,000000000e+00    0,000000000e+00    0,000000000e+00
     1430000000   -3,925535083e-02    7,763105631e-02   -1,144126058e-01    4,106922448e-01    0,000000000e+00    0,000000000e+00    0,000000000e+00    0,000000000e+00
     1444000000   -1,685228758e-02    3,975495696e-03    1,687074304e-01    5,017387867e-01    0,000000000e+00    0,000000000e+00    0,000000000e+00    0,000000000e+00
     1458000000   -5,258154497e-02   -8,044419438e-02    4,608406425e-01    4,467836916e-01    0,000000000e+00    0,000000000e+00    0,000000000e+00    0,000000000e+00
     1472000000   -1,323234439e-01   -1,333474666e-01    7,137742043e-01    2,372237593e-01    0,000000000e+00    0,000000000e+00    0,000000000e+00    0,000000000e+00
     1486000000   -2,341999710e-01   -1,217634678e-01    8,414110541e-01   -9,978382289e-02    0,000000000e+00    0,000000000e+00    0,000000000e+00    0,000000000e+00
     1500000000   -2,904618382e-01   -5,924420059e-02    7,855734229e-01   -4,636035264e-01    0,000000000e+00    0,000000000e+00    0,000000000e+00    0,000000000e+00
