! NanoVNA-App
! Date: 2025-09-26 09:45:43
! Start: 100MHz Stop: 1,5GHz Points: 101
! S-Parameter data: F S11 S21 S12 S22
# Hz S RI R 50
!     Frequency           S11_Real           S11_Imag           S21_Real           S21_Imag           S12_Real           S12_Imag           S22_Real           S22_Imag
      100000000    3,045758791e-02    2,814897709e-02    4,339388311e-01   -6,701517105e-01    0,000000000e+00    0,000000000e+00    0,000000000e+00    0,000000000e+00
      114000000    5,651887134e-02    5,456505809e-03    6,064150017e-03   -7,919496298e-01    0,000000000e+00    0,000000000e+00    0,000000000e+00    0,000000000e+00
      128000000    6,615763903e-02   -3,717810288e-02   -4,123689532e-01   -6,708971262e-01    0,000000000e+00    0,000000000e+00    0,000000000e+00    0,000000000e+00
      142000000    4,408123344e-02   -8,283171803e-02   -7,048574090e-01   -3,516159952e-01    0,000000000e+00    0,000000000e+00    0,000000000e+00    0,000000000e+00
      156000000   -5,160731729e-03   -1,050992757e-01   -7,876219153e-01    7,691852748e-02    0,000000000e+00    0,000000000e+00    0,000000000e+00    0,000000000e+00
      170000000   -5,638442189e-02   -8,952424675e-02   -6,265221834e-01    4,899207354e-01    0,000000000e+00    0,000000000e+00    0,000000000e+00    0,000000000e+00
      184000000   -8,205056190e-02   -4,943414032e-02   -2,622503340e-01    7,529773712e-01    0,000000000e+00    0,000000000e+00    0,000000000e+00    0,000000000e+00
      198000000   -7,860860974e-02   -1,132725831e-02    1,867546737e-01    7,732278705e-01    0,000000000e+00    0,000000000e+00    0,000000000e+00    0,000000000e+00
      212000000   -6,215593964e-02    1,218508091e-02    5,720387101e-01    5,476041436e-01    0,000000000e+00    0,000000000e+00    0,000000000e+00    0,000000000e+00
      226000000   -4,377778992e-02    2,728327736e-02    7,722766399e-01    1,518952847e-01    0,000000000e+00    0,000000000e+00    0,000000000e+00    0,000000000e+00
      240000000   -1,849507913e-02    3,858030215e-02    7,269530296e-01   -2,846887112e-01    0,000000000e+00    0,000000000e+00    0,000000000e+00    0,000000000e+00
      254000000    1,717256010e-02    3,537145257e-02    4,569700956e-01   -6,227824092e-01    0,000000000e+00    0,000000000e+00    0,000000000e+00    0,000000000e+00
      268000000    4,875899851e-02    5,760776810e-03    5,706515536e-02   -7,619317174e-01    0,000000000e+00    0,000000000e+00    0,000000000e+00    0,000000000e+00
      282000000    5,340253934e-02   -4,148776457e-02   -3,512746394e-01   -6,722527146e-01    0,000000000e+00    0,000000000e+00    0,000000000e+00    0,000000000e+00
      296000000    2,420080639e-02   -7,900027931e-02   -6,542256474e-01   -3,846310973e-01    0,000000000e+00    0,000000000e+00    0,000000000e+00    0,000000000e+00
      310000000   -1,688607223e-02   -8,271182328e-02   -7,656193376e-01    2,379504591e-02    0,000000000e+00    0,000000000e+00    0,000000000e+00    0,000000000e+00
      324000000   -4,026482627e-02   -5,902956054e-02   -6,310876608e-01    4,345816076e-01    0,000000000e+00    0,000000000e+00    0,000000000e+00    0,000000000e+00
      338000000   -3,337107599e-02   -3,801236674e-02   -2,948609293e-01    7,045009732e-01    0,000000000e+00    0,000000000e+00    0,000000000e+00    0,000000000e+00
      352000000   -1,786321774e-02   -4,216049984e-02    1,308894157e-01    7,443094850e-01    0,000000000e+00    0,000000000e+00    0,000000000e+00    0,000000000e+00
      366000000   -2,099371701e-02   -6,195098907e-02    5,019147992e-01    5,542994738e-01    0,000000000e+00    0,000000000e+00    0,000000000e+00    0,000000000e+00
      380000000   -4,536014795e-02   -7,076028734e-02    7,176657915e-01    1,969990581e-01    0,000000000e+00    0,000000000e+00    0,000000000e+00    0,000000000e+00
      394000000   -6,956610084e-02   -5,547511205e-02    7,065314054e-01   -2,218251675e-01    0,000000000e+00    0,000000000e+00    0,000000000e+00    0,000000000e+00
      408000000   -7,367974520e-02   -2,991579846e-02    4,688391089e-01   -5,658019781e-01    0,000000000e+00    0,000000000e+00    0,000000000e+00    0,000000000e+00
      422000000   -6,241699308e-02   -1,448795851e-02    8,833564818e-02   -7,249178886e-01    0,000000000e+00    0,000000000e+00    0,000000000e+00    0,000000000e+00
      436000000   -5,425043404e-02   -1,039137412e-02   -3,129899800e-01   -6,515601277e-01    0,000000000e+00    0,000000000e+00    0,000000000e+00    0,000000000e+00
      450000000   -5,212301016e-02   -1,051431173e-03   -6,077467203e-01   -3,732886016e-01    0,000000000e+00    0,000000000e+00    0,000000000e+00    0,000000000e+00
      464000000   -3,804201633e-02    1,892570965e-02   -6,998085976e-01    1,923250407e-02    0,000000000e+00    0,000000000e+00    0,000000000e+00    0,000000000e+00
      478000000    1,319370815e-03    2,631720155e-02   -5,610641837e-01    3,862837255e-01    0,000000000e+00    0,000000000e+00    0,000000000e+00    0,000000000e+00
      492000000    4,533205926e-02   -4,764036741e-03   -2,599865496e-01    6,064742804e-01    0,000000000e+00    0,000000000e+00    0,000000000e+00    0,000000000e+00
      506000000    5,525383353e-02   -6,726347655e-02    9,001436085e-02    6,368575096e-01    0,000000000e+00    0,000000000e+00    0,000000000e+00    0,000000000e+00
      520000000    1,531501673e-02   -1,227494180e-01    4,027485847e-01    4,957393110e-01    0,000000000e+00    0,000000000e+00    0,000000000e+00    0,000000000e+00
      534000000   -5,237176269e-02   -1,329380870e-01    6,022809148e-01    2,222447991e-01    0,000000000e+00    0,000000000e+00    0,000000000e+00    0,000000000e+00
      548000000   -1,013231799e-01   -9,514640272e-02    6,351918578e-01   -1,285554320e-01    0,000000000e+00    0,000000000e+00    0,000000000e+00    0,000000000e+00
      562000000   -1,052256078e-01   -4,646742344e-02    4,683740437e-01   -4,500202537e-01    0,000000000e+00    0,000000000e+00    0,000000000e+00    0,000000000e+00
      576000000   -8,040231466e-02   -2,483936213e-02    1,509808749e-01   -6,293948889e-01    0,000000000e+00    0,000000000e+00    0,000000000e+00    0,000000000e+00
      590000000   -6,439558417e-02   -3,287070617e-02   -2,084220946e-01   -6,151221395e-01    0,000000000e+00    0,000000000e+00    0,000000000e+00    0,000000000e+00
      604000000   -7,175780833e-02   -4,181556031e-02   -5,024640560e-01   -4,057313204e-01    0,000000000e+00    0,000000000e+00    0,000000000e+00    0,000000000e+00
      618000000   -8,726593107e-02   -2,814764343e-02   -6,418170929e-01   -6,897272915e-02    0,000000000e+00    0,000000000e+00    0,000000000e+00    0,000000000e+00
      632000000   -8,299030364e-02    1,732633100e-03   -5,750200748e-01    2,893835306e-01    0,000000000e+00    0,000000000e+00    0,000000000e+00    0,000000000e+00
      646000000   -5,227045342e-02    1,804991253e-02   -3,261727095e-01    5,470419526e-01    0,000000000e+00    0,000000000e+00    0,000000000e+00    0,000000000e+00
      660000000   -1,830240898e-02    5,573431496e-03    1,316210162e-02    6,289128065e-01    0,000000000e+00    0,000000000e+00    0,000000000e+00    0,000000000e+00
      674000000   -5,925230682e-03   -2,310325392e-02    3,375516832e-01    5,210128427e-01    0,000000000e+00    0,000000000e+00    0,000000000e+00    0,000000000e+00
      688000000   -1,583707333e-02   -4,707074910e-02    5,552328229e-01    2,616559267e-01    0,000000000e+00    0,000000000e+00    0,000000000e+00    0,000000000e+00
      702000000   -2,834832110e-02   -5,100698769e-02    6,024094820e-01   -7,852294296e-02    0,000000000e+00    0,000000000e+00    0,000000000e+00    0,000000000e+00
      716000000   -2,793809958e-02   -5,367844179e-02    4,593455791e-01   -3,845089674e-01    0,000000000e+00    0,000000000e+00    0,000000000e+00    0,000000000e+00
      730000000   -2,330829017e-02   -6,880886108e-02    1,771644652e-01   -5,611028671e-01    0,000000000e+00    0,000000000e+00    0,000000000e+00    0,000000000e+00
      744000000   -3,620867059e-02   -9,603361040e-02   -1,457337439e-01   -5,629348755e-01    0,000000000e+00    0,000000000e+00    0,000000000e+00    0,000000000e+00
      758000000   -7,310344279e-02   -1,143413112e-01   -4,221137762e-01   -3,982489705e-01    0,000000000e+00    0,000000000e+00    0,000000000e+00    0,000000000e+00
      772000000   -1,203408986e-01   -1,008690149e-01   -5,730093718e-01   -1,123545915e-01    0,000000000e+00    0,000000000e+00    0,000000000e+00    0,000000000e+00
      786000000   -1,482519954e-01   -5,855098367e-02   -5,478462577e-01    2,153329104e-01    0,000000000e+00    0,000000000e+00    0,000000000e+00    0,000000000e+00
      800000000   -1,411023140e-01   -1,101561077e-02   -3,467786014e-01    4,784689546e-01    0,000000000e+00    0,000000000e+00    0,000000000e+00    0,000000000e+00
      814000000   -1,120708138e-01    1,580909453e-02   -3,746989742e-02    5,889618397e-01    0,000000000e+00    0,000000000e+00    0,000000000e+00    0,000000000e+00
      828000000   -8,332150429e-02    2,205483988e-02    2,765541077e-01    5,162749887e-01    0,000000000e+00    0,000000000e+00    0,000000000e+00    0,000000000e+00
      842000000   -6,432712078e-02    2,047746815e-02    5,020630360e-01    2,906364799e-01    0,000000000e+00    0,000000000e+00    0,000000000e+00    0,000000000e+00
      856000000   -4,338916391e-02    1,997732930e-02    5,707382560e-01   -1,669894159e-02    0,000000000e+00    0,000000000e+00    0,000000000e+00    0,000000000e+00
      870000000   -1,524250396e-02    9,928266518e-03    4,645864666e-01   -3,064121604e-01    0,000000000e+00    0,000000000e+00    0,000000000e+00    0,000000000e+00
      884000000    1,064353436e-02   -2,297495492e-02    2,303162813e-01   -4,902628362e-01    0,000000000e+00    0,000000000e+00    0,000000000e+00    0,000000000e+00
      898000000    1,145803742e-02   -7,293169200e-02   -5,206324533e-02   -5,297905207e-01    0,000000000e+00    0,000000000e+00    0,000000000e+00    0,000000000e+00
      912000000   -2,803882770e-02   -1,161429882e-01   -3,581307828e-01   -3,989552557e-01    0,000000000e+00    0,000000000e+00    0,000000000e+00    0,000000000e+00
      926000000   -8,400702477e-02   -1,253153831e-01   -5,349067450e-01   -1,599674225e-01    0,000000000e+00    0,000000000e+00    0,000000000e+00    0,000000000e+00
      940000000   -1,308950931e-01   -9,805026650e-02   -5,571087599e-01    1,582347155e-01    0,000000000e+00    0,000000000e+00    0,000000000e+00    0,000000000e+00
      954000000   -1,473079026e-01   -5,358514562e-02   -3,954969049e-01    4,497831464e-01    0,000000000e+00    0,000000000e+00    0,000000000e+00    0,000000000e+00
      968000000   -1,282856315e-01   -2,365287952e-02   -9,191059321e-02    6,082281470e-01    0,000000000e+00    0,000000000e+00    0,000000000e+00    0,000000000e+00
      982000000   -1,146347076e-01   -1,385252178e-02    2,442652136e-01    5,739669204e-01    0,000000000e+00    0,000000000e+00    0,000000000e+00    0,000000000e+00
      996000000   -1,058005244e-01   -1,516075805e-02    5,161526203e-01    3,678262830e-01    0,000000000e+00    0,000000000e+00    0,000000000e+00    0,000000000e+00
     1010000000   -1,033650115e-01   -4,906016402e-03    6,331551075e-01    4,795579240e-02    0,000000000e+00    0,000000000e+00    0,000000000e+00    0,000000000e+00
     1024000000   -8,648747951e-02    2,201811410e-03    5,601854920e-01   -2,788792849e-01    0,000000000e+00    0,000000000e+00    0,000000000e+00    0,000000000e+00
     1038000000   -7,037933171e-02   -3,325901926e-03    3,290425539e-01   -5,124152899e-01    0,000000000e+00    0,000000000e+00    0,000000000e+00    0,000000000e+00
     1052000000   -5,701768398e-02   -1,906547323e-02    1,770144142e-02   -5,904251933e-01    0,000000000e+00    0,000000000e+00    0,000000000e+00    0,000000000e+00
     1066000000   -6,734155118e-02   -3,882450610e-02   -2,862136662e-01   -4,960216284e-01    0,000000000e+00    0,000000000e+00    0,000000000e+00    0,000000000e+00
     1080000000   -8,795387298e-02   -4,162340611e-02   -4,929176867e-01   -2,545849979e-01    0,000000000e+00    0,000000000e+00    0,000000000e+00    0,000000000e+00
     1094000000   -9,451042116e-02   -2,247754484e-02   -5,328321457e-01    6,654623151e-02    0,000000000e+00    0,000000000e+00    0,000000000e+00    0,000000000e+00
     1108000000   -7,440713793e-02   -1,311306935e-02   -3,827165961e-01    3,454211950e-01    0,000000000e+00    0,000000000e+00    0,000000000e+00    0,000000000e+00
     1122000000   -4,252197221e-02   -2,893107012e-02   -1,100663766e-01    4,849365652e-01    0,000000000e+00    0,000000000e+00    0,000000000e+00    0,000000000e+00
     1136000000   -3,292907029e-02   -7,565314323e-02    1,840219200e-01    4,602835476e-01    0,000000000e+00    0,000000000e+00    0,000000000e+00    0,000000000e+00
     1150000000   -5,905251577e-02   -1,200320572e-01    4,215911031e-01    2,863653600e-01    0,000000000e+00    0,000000000e+00    0,000000000e+00    0,000000000e+00
     1164000000   -1,215279028e-01   -1,437303871e-01    5,441026688e-01    1,000574976e-02    0,000000000e+00    0,000000000e+00    0,000000000e+00    0,000000000e+00
     1178000000   -1,949431449e-01   -1,240692139e-01    4,990996122e-01   -3,105115891e-01    0,000000000e+00    0,000000000e+00    0,000000000e+00    0,000000000e+00
     1192000000   -2,383407652e-01   -6,573098153e-02    2,775832713e-01   -5,676624775e-01    0,000000000e+00    0,000000000e+00    0,000000000e+00    0,000000000e+00
     1206000000   -2,381413281e-01    1,320705004e-02   -6,122481450e-02   -6,609579325e-01    0,000000000e+00    0,000000000e+00    0,000000000e+00    0,000000000e+00
     1220000000   -2,051509023e-01    7,317488641e-02   -3,987527788e-01   -5,458623767e-01    0,000000000e+00    0,000000000e+00    0,000000000e+00    0,000000000e+00
     1234000000   -1,432901919e-01    1,097789556e-01   -6,090983152e-01   -2,737124860e-01    0,000000000e+00    0,000000000e+00    0,000000000e+00    0,000000000e+00
     1248000000   -7,707494497e-02    1,063455194e-01   -6,302332878e-01    6,245326623e-02    0,000000000e+00    0,000000000e+00    0,000000000e+00    0,000000000e+00
     1262000000   -1,043090969e-02    7,677605748e-02   -4,797745645e-01    3,516221046e-01    0,000000000e+00    0,000000000e+00    0,000000000e+00    0,000000000e+00
     1276000000    3,295565397e-02    5,243663210e-03   -2,209697217e-01    5,101321936e-01    0,000000000e+00    0,000000000e+00    0,000000000e+00    0,000000000e+00
     1290000000    3,556438908e-02   -8,355957270e-02    7,189948112e-02    5,374814272e-01    0,000000000e+00    0,000000000e+00    0,000000000e+00    0,000000000e+00
     1304000000   -1,782033965e-02   -1,710014343e-01    3,485033810e-01    4,342274368e-01    0,000000000e+00    0,000000000e+00    0,000000000e+00    0,000000000e+00
     1318000000   -1,239743084e-01   -2,251988947e-01    5,460835695e-01    2,044044882e-01    0,000000000e+00    0,000000000e+00    0,000000000e+00    0,000000000e+00
     1332000000   -2,470724285e-01   -2,070028633e-01    6,128259897e-01   -1,236562282e-01    0,000000000e+00    0,000000000e+00    0,000000000e+00    0,000000000e+00
     1346000000   -3,368474245e-01   -9,992921352e-02    4,783703685e-01   -4,238443971e-01    0,000000000e+00    0,000000000e+00    0,000000000e+00    0,000000000e+00
     1360000000   -3,446179926e-01    1,282730419e-02    1,914757192e-01   -6,097123623e-01    0,000000000e+00    0,000000000e+00    0,000000000e+00    0,000000000e+00
     1374000000   -2,944157422e-01    1,041002125e-01   -1,439075917e-01   -5,723685026e-01    0,000000000e+00    0,000000000e+00    0,000000000e+00    0,000000000e+00
     1388000000   -2,220665962e-01    1,516601741e-01   -3,758247793e-01   -3,570964634e-01    0,000000000e+00    0,000000000e+00    0,000000000e+00    0,000000000e+00
     1402000000   -1,446964890e-01    1,548192203e-01   -4,484755695e-01   -6,817014515e-02    0,000000000e+00    0,000000000e+00    0,000000000e+00    0,000000000e+00
     1416000000   -8,465329558e-02    1,304170340e-01   -3,544190824e-01    2,287411094e-01    0,000000000e+00    0,000000000e+00    0,000000000e+00    0,000000000e+00
     1430000000   -3,734353185e-02    7,818274200e-02   -1,033348143e-01    4,144102931e-01    0,000000000e+00    0,000000000e+00    0,000000000e+00    0,000000000e+00
     1444000000   -2,025455236e-02    9,690051666e-04    1,653329879e-01    4,943836331e-01    0,000000000e+00    0,000000000e+00    0,000000000e+00    0,000000000e+00
     1458000000   -5,172983930e-02   -8,230136335e-02    4,584217966e-01    4,386934340e-01    0,000000000e+00    0,000000000e+00    0,000000000e+00    0,000000000e+00
     1472000000   -1,319555491e-01   -1,274319440e-01    7,250875831e-01    2,421008945e-01    0,000000000e+00    0,000000000e+00    0,000000000e+00    0,000000000e+00
     1486000000   -2,280116379e-01   -1,310625225e-01    8,562067151e-01   -9,955068678e-02    0,000000000e+00    0,000000000e+00    0,000000000e+00    0,000000000e+00
     1500000000   -2,945621610e-01   -5,344561487e-02    7,521025538e-01   -4,491012394e-01    0,000000000e+00    0,000000000e+00    0,000000000e+00    0,000000000e+00
