! NanoVNA-App
! Date: 2025-09-26 09:45:39
! Start: 100MHz Stop: 1,5GHz Points: 101
! S-Parameter data: F S11 S21 S12 S22
# Hz S RI R 50
!     Frequency           S11_Real           S11_Imag           S21_Real           S21_Imag           S12_Real           S12_Imag           S22_Real           S22_Imag
      100000000    3,043497726e-02    2,814681455e-02    4,339613616e-01   -6,701643467e-01    0,000000000e+00    0,000000000e+00    0,000000000e+00    0,000000000e+00
      114000000    5,645646155e-02    5,436949432e-03    5,989765748e-03   -7,918899655e-01    0,000000000e+00    0,000000000e+00    0,000000000e+00    0,000000000e+00
      128000000    6,616886705e-02   -3,715368360e-02   -4,126816392e-01   -6,710475087e-01    0,000000000e+00    0,000000000e+00    0,000000000e+00    0,000000000e+00
      142000000    4,408343136e-02   -8,283542097e-02   -7,049137950e-01   -3,517961800e-01    0,000000000e+00    0,000000000e+00    0,000000000e+00    0,000000000e+00
      156000000   -5,185851362e-03   -1,049208492e-01   -7,879120111e-01    7,593675703e-02    0,000000000e+00    0,000000000e+00    0,000000000e+00    0,000000000e+00
      170000000   -5,627747998e-02   -8,939358592e-02   -6,265000105e-01    4,900960326e-01    0,000000000e+00    0,000000000e+00    0,000000000e+00    0,000000000e+00
      184000000   -8,206947893e-02   -4,945393279e-02   -2,621865869e-01    7,525508404e-01    0,000000000e+00    0,000000000e+00    0,000000000e+00    0,000000000e+00
      198000000   -7,860366255e-02   -1,131646708e-02    1,867889613e-01    7,729977369e-01    0,000000000e+00    0,000000000e+00    0,000000000e+00    0,000000000e+00
      212000000   -6,216413528e-02    1,218346972e-02    5,717816949e-01    5,476032495e-01    0,000000000e+00    0,000000000e+00    0,000000000e+00    0,000000000e+00
      226000000   -4,370670393e-02    2,731240354e-02    7,724225521e-01    1,518523544e-01    0,000000000e+00    0,000000000e+00    0,000000000e+00    0,000000000e+00
      240000000   -1,851109229e-02    3,858890757e-02    7,269539237e-01   -2,847825587e-01    0,000000000e+00    0,000000000e+00    0,000000000e+00    0,000000000e+00
      254000000    1,715774275e-02    3,539178520e-02    4,571362734e-01   -6,227044463e-01    0,000000000e+00    0,000000000e+00    0,000000000e+00    0,000000000e+00
      268000000    4,876899347e-02    5,710930098e-03    5,709026381e-02   -7,614001632e-01    0,000000000e+00    0,000000000e+00    0,000000000e+00    0,000000000e+00
      282000000    5,343245715e-02   -4,150773212e-02   -3,513927162e-01   -6,719726324e-01    0,000000000e+00    0,000000000e+00    0,000000000e+00    0,000000000e+00
      296000000    2,410700358e-02   -7,884773612e-02   -6,542207003e-01   -3,846231997e-01    0,000000000e+00    0,000000000e+00    0,000000000e+00    0,000000000e+00
      310000000   -1,694313064e-02   -8,248995245e-02   -7,643227577e-01    2,458411641e-02    0,000000000e+00    0,000000000e+00    0,000000000e+00    0,000000000e+00
      324000000   -4,028047621e-02   -5,901972204e-02   -6,320103407e-01    4,339209199e-01    0,000000000e+00    0,000000000e+00    0,000000000e+00    0,000000000e+00
      338000000   -3,360836208e-02   -3,785132617e-02   -2,954159379e-01    7,013106942e-01    0,000000000e+00    0,000000000e+00    0,000000000e+00    0,000000000e+00
      352000000   -1,800503768e-02   -4,233275726e-02    1,282088161e-01    7,438884974e-01    0,000000000e+00    0,000000000e+00    0,000000000e+00    0,000000000e+00
      366000000   -2,073605172e-02   -6,193543598e-02    5,021196604e-01    5,541626215e-01    0,000000000e+00    0,000000000e+00    0,000000000e+00    0,000000000e+00
      380000000   -4,540461674e-02   -7,084988058e-02    7,175882459e-01    1,967553347e-01    0,000000000e+00    0,000000000e+00    0,000000000e+00    0,000000000e+00
      394000000   -6,950102001e-02   -5,531033501e-02    7,067484260e-01   -2,212434709e-01    0,000000000e+00    0,000000000e+00    0,000000000e+00    0,000000000e+00
      408000000   -7,335823774e-02   -2,974994481e-02    4,695436954e-01   -5,663025975e-01    0,000000000e+00    0,000000000e+00    0,000000000e+00    0,000000000e+00
      422000000   -6,206037849e-02   -1,463386416e-02    8,847296983e-02   -7,245515585e-01    0,000000000e+00    0,000000000e+00    0,000000000e+00    0,000000000e+00
      436000000   -5,427321047e-02   -1,041849982e-02   -3,129177392e-01   -6,518282890e-01    0,000000000e+00    0,000000000e+00    0,000000000e+00    0,000000000e+00
      450000000   -5,215505138e-02   -1,077923225e-03   -6,076859832e-01   -3,737633526e-01    0,000000000e+00    0,000000000e+00    0,000000000e+00    0,000000000e+00
      464000000   -3,810217604e-02    1,904370263e-02   -6,999059319e-01    1,932116039e-02    0,000000000e+00    0,000000000e+00    0,000000000e+00    0,000000000e+00
      478000000    1,199069549e-03    2,615546621e-02   -5,608378649e-01    3,861683011e-01    0,000000000e+00    0,000000000e+00    0,000000000e+00    0,000000000e+00
      492000000    4,576387629e-02   -4,436643794e-03   -2,598507702e-01    6,060777903e-01    0,000000000e+00    0,000000000e+00    0,000000000e+00    0,000000000e+00
      506000000    5,539857596e-02   -6,692817062e-02    9,029872715e-02    6,373725533e-01    0,000000000e+00    0,000000000e+00    0,000000000e+00    0,000000000e+00
      520000000    1,552413218e-02   -1,225154698e-01    3,989039958e-01    4,976235330e-01    0,000000000e+00    0,000000000e+00    0,000000000e+00    0,000000000e+00
      534000000   -5,253408477e-02   -1,327985227e-01    6,021257043e-01    2,216692865e-01    0,000000000e+00    0,000000000e+00    0,000000000e+00    0,000000000e+00
      548000000   -1,016592756e-01   -9,514833987e-02    6,351380944e-01   -1,287210882e-01    0,000000000e+00    0,000000000e+00    0,000000000e+00    0,000000000e+00
      562000000   -1,051624343e-01   -4,685423523e-02    4,686768651e-01   -4,499410689e-01    0,000000000e+00    0,000000000e+00    0,000000000e+00    0,000000000e+00
      576000000   -8,052691817e-02   -2,496393025e-02    1,514676213e-01   -6,283422709e-01    0,000000000e+00    0,000000000e+00    0,000000000e+00    0,000000000e+00
      590000000   -6,421616673e-02   -3,294678777e-02   -2,047490776e-01   -6,164566875e-01    0,000000000e+00    0,000000000e+00    0,000000000e+00    0,000000000e+00
      604000000   -7,217363268e-02   -4,206354171e-02   -5,027648211e-01   -4,057479799e-01    0,000000000e+00    0,000000000e+00    0,000000000e+00    0,000000000e+00
      618000000   -8,840148896e-02   -2,799602598e-02   -6,424738765e-01   -6,905449182e-02    0,000000000e+00    0,000000000e+00    0,000000000e+00    0,000000000e+00
      632000000   -8,375120163e-02    1,170803444e-03   -5,746785998e-01    2,890462577e-01    0,000000000e+00    0,000000000e+00    0,000000000e+00    0,000000000e+00
      646000000   -5,230520666e-02    1,803500578e-02   -3,264530003e-01    5,474348068e-01    0,000000000e+00    0,000000000e+00    0,000000000e+00    0,000000000e+00
      660000000   -1,853342913e-02    5,711392034e-03    1,367395278e-02    6,277992725e-01    0,000000000e+00    0,000000000e+00    0,000000000e+00    0,000000000e+00
      674000000   -6,451009773e-03   -2,302296646e-02    3,362230957e-01    5,217314363e-01    0,000000000e+00    0,000000000e+00    0,000000000e+00    0,000000000e+00
      688000000   -1,540342811e-02   -4,692414403e-02    5,551350117e-01    2,616891563e-01    0,000000000e+00    0,000000000e+00    0,000000000e+00    0,000000000e+00
      702000000   -2,873780765e-02   -5,180903152e-02    6,021254063e-01   -7,529324293e-02    0,000000000e+00    0,000000000e+00    0,000000000e+00    0,000000000e+00
      716000000   -2,896371484e-02   -5,316133425e-02    4,596402943e-01   -3,843253553e-01    0,000000000e+00    0,000000000e+00    0,000000000e+00    0,000000000e+00
      730000000   -2,319002151e-02   -6,850768626e-02    1,778611690e-01   -5,615867972e-01    0,000000000e+00    0,000000000e+00    0,000000000e+00    0,000000000e+00
      744000000   -3,507753089e-02   -9,625092149e-02   -1,467600763e-01   -5,629724860e-01    0,000000000e+00    0,000000000e+00    0,000000000e+00    0,000000000e+00
      758000000   -7,305423915e-02   -1,142501906e-01   -4,213128090e-01   -3,981420994e-01    0,000000000e+00    0,000000000e+00    0,000000000e+00    0,000000000e+00
      772000000   -1,195486784e-01   -1,004340053e-01   -5,725438595e-01   -1,124564633e-01    0,000000000e+00    0,000000000e+00    0,000000000e+00    0,000000000e+00
      786000000   -1,480315924e-01   -5,770943314e-02   -5,481403470e-01    2,150874138e-01    0,000000000e+00    0,000000000e+00    0,000000000e+00    0,000000000e+00
      800000000   -1,404073834e-01   -1,100224815e-02   -3,467547894e-01    4,783114195e-01    0,000000000e+00    0,000000000e+00    0,000000000e+00    0,000000000e+00
      814000000   -1,113412082e-01    1,657749340e-02   -3,761833534e-02    5,870690942e-01    0,000000000e+00    0,000000000e+00    0,000000000e+00    0,000000000e+00
      828000000   -8,349211514e-02    2,138601989e-02    2,771108449e-01    5,157199502e-01    0,000000000e+00    0,000000000e+00    0,000000000e+00    0,000000000e+00
      842000000   -6,349181384e-02    1,998653449e-02    5,022470951e-01    2,905246913e-01    0,000000000e+00    0,000000000e+00    0,000000000e+00    0,000000000e+00
      856000000   -4,408619925e-02    1,982281730e-02    5,707005858e-01   -1,647036709e-02    0,000000000e+00    0,000000000e+00    0,000000000e+00    0,000000000e+00
      870000000   -1,464039274e-02    1,004747301e-02    4,643693566e-01   -3,062686622e-01    0,000000000e+00    0,000000000e+00    0,000000000e+00    0,000000000e+00
      884000000    1,022373699e-02   -2,294536121e-02    2,312036306e-01   -4,901997745e-01    0,000000000e+00    0,000000000e+00    0,000000000e+00    0,000000000e+00
      898000000    1,113921218e-02   -7,275964320e-02   -5,253472179e-02   -5,292940140e-01    0,000000000e+00    0,000000000e+00    0,000000000e+00    0,000000000e+00
      912000000   -2,873690426e-02   -1,156498045e-01   -3,592678905e-01   -4,153148532e-01    0,000000000e+00    0,000000000e+00    0,000000000e+00    0,000000000e+00
      926000000   -8,284892887e-02   -1,273706108e-01   -5,331970453e-01   -1,633218378e-01    0,000000000e+00    0,000000000e+00    0,000000000e+00    0,000000000e+00
      940000000   -1,328884959e-01   -9,956164658e-02   -5,564222932e-01    1,565445662e-01    0,000000000e+00    0,000000000e+00    0,000000000e+00    0,000000000e+00
      954000000   -1,477390677e-01   -5,323150381e-02   -3,950206041e-01    4,501056969e-01    0,000000000e+00    0,000000000e+00    0,000000000e+00    0,000000000e+00
      968000000   -1,290651113e-01   -2,409641631e-02   -9,239474684e-02    6,069675684e-01    0,000000000e+00    0,000000000e+00    0,000000000e+00    0,000000000e+00
      982000000   -1,137474850e-01   -1,487076562e-02    2,462610304e-01    5,764483213e-01    0,000000000e+00    0,000000000e+00    0,000000000e+00    0,000000000e+00
      996000000   -1,064137593e-01   -1,522985660e-02    5,159226656e-01    3,673656881e-01    0,000000000e+00    0,000000000e+00    0,000000000e+00    0,000000000e+00
     1010000000   -1,031356528e-01   -3,766050562e-03    6,327576041e-01    4,735177010e-02    0,000000000e+00    0,000000000e+00    0,000000000e+00    0,000000000e+00
     1024000000   -8,542210609e-02    9,267888381e-04    5,608644485e-01   -2,791242898e-01    0,000000000e+00    0,000000000e+00    0,000000000e+00    0,000000000e+00
     1038000000   -6,679011136e-02   -2,424567472e-03    3,276195824e-01   -5,124217272e-01    0,000000000e+00    0,000000000e+00    0,000000000e+00    0,000000000e+00
     1052000000   -5,986770988e-02   -2,018342540e-02    1,939237677e-02   -5,884354711e-01    0,000000000e+00    0,000000000e+00    0,000000000e+00    0,000000000e+00
     1066000000   -6,418422610e-02   -3,987270594e-02   -2,872389853e-01   -4,960284531e-01    0,000000000e+00    0,000000000e+00    0,000000000e+00    0,000000000e+00
     1080000000   -8,603160828e-02   -4,603470862e-02   -4,928461909e-01   -2,528388798e-01    0,000000000e+00    0,000000000e+00    0,000000000e+00    0,000000000e+00
     1094000000   -9,374452382e-02   -2,678331733e-02   -5,324845910e-01    6,820222735e-02    0,000000000e+00    0,000000000e+00    0,000000000e+00    0,000000000e+00
     1108000000   -7,247544825e-02   -9,361756966e-03   -3,827818036e-01    3,431137204e-01    0,000000000e+00    0,000000000e+00    0,000000000e+00    0,000000000e+00
     1122000000   -3,828542680e-02   -2,947648428e-02   -1,111044362e-01    4,859922826e-01    0,000000000e+00    0,000000000e+00    0,000000000e+00    0,000000000e+00
     1136000000   -2,841869742e-02   -7,605402172e-02    1,816230863e-01    4,586053193e-01    0,000000000e+00    0,000000000e+00    0,000000000e+00    0,000000000e+00
     1150000000   -5,699269474e-02   -1,229223907e-01    4,205338955e-01    2,865997255e-01    0,000000000e+00    0,000000000e+00    0,000000000e+00    0,000000000e+00
     1164000000   -1,182117984e-01   -1,448627114e-01    5,430508852e-01    9,819483384e-03    0,000000000e+00    0,000000000e+00    0,000000000e+00    0,000000000e+00
     1178000000   -1,951302737e-01   -1,299083382e-01    5,002359152e-01   -3,072655201e-01    0,000000000e+00    0,000000000e+00    0,000000000e+00    0,000000000e+00
     1192000000   -2,371334285e-01   -6,057032943e-02    2,816559374e-01   -5,683827996e-01    0,000000000e+00    0,000000000e+00    0,000000000e+00    0,000000000e+00
     1206000000   -2,406975478e-01    1,686187647e-02   -6,414460391e-02   -6,625369191e-01    0,000000000e+00    0,000000000e+00    0,000000000e+00    0,000000000e+00
     1220000000   -2,021056116e-01    7,072755694e-02   -3,986112475e-01   -5,503048301e-01    0,000000000e+00    0,000000000e+00    0,000000000e+00    0,000000000e+00
     1234000000   -1,419811845e-01    1,059959680e-01   -6,073657870e-01   -2,726723850e-01    0,000000000e+00    0,000000000e+00    0,000000000e+00    0,000000000e+00
     1248000000   -7,934420556e-02    1,069096699e-01   -6,324298382e-01    6,504700333e-02    0,000000000e+00    0,000000000e+00    0,000000000e+00    0,000000000e+00
     1262000000   -8,077915758e-03    7,458239049e-02   -4,822165668e-01    3,494798541e-01    0,000000000e+00    0,000000000e+00    0,000000000e+00    0,000000000e+00
     1276000000    3,056448512e-02    2,328285482e-03   -2,267220020e-01    5,082778335e-01    0,000000000e+00    0,000000000e+00    0,000000000e+00    0,000000000e+00
     1290000000    3,178159520e-02   -8,338192105e-02    6,950204819e-02    5,362952352e-01    0,000000000e+00    0,000000000e+00    0,000000000e+00    0,000000000e+00
     1304000000   -1,936468296e-02   -1,781339943e-01    3,442795873e-01    4,296332002e-01    0,000000000e+00    0,000000000e+00    0,000000000e+00    0,000000000e+00
     1318000000   -1,249036193e-01   -2,213405222e-01    5,491120815e-01    2,089217901e-01    0,000000000e+00    0,000000000e+00    0,000000000e+00    0,000000000e+00
     1332000000   -2,447963059e-01   -2,054681778e-01    6,142790914e-01   -1,151246950e-01    0,000000000e+00    0,000000000e+00    0,000000000e+00    0,000000000e+00
     1346000000   -3,390441537e-01   -1,052708253e-01    4,793887436e-01   -4,277807772e-01    0,000000000e+00    0,000000000e+00    0,000000000e+00    0,000000000e+00
     1360000000   -3,445250988e-01    1,537635643e-02    1,907284260e-01   -6,055809259e-01    0,000000000e+00    0,000000000e+00    0,000000000e+00    0,000000000e+00
     1374000000   -2,992526591e-01    1,020449772e-01   -1,429257244e-01   -5,690863132e-01    0,000000000e+00    0,000000000e+00    0,000000000e+00    0,000000000e+00
     1388000000   -2,196909934e-01    1,474657208e-01   -3,762552142e-01   -3,531974256e-01    0,000000000e+00    0,000000000e+00    0,000000000e+00    0,000000000e+00
     1402000000   -1,467073262e-01    1,475711614e-01   -4,557410479e-01   -6,063666195e-02    0,000000000e+00    0,000000000e+00    0,000000000e+00    0,000000000e+00
     1416000000   -8,561945707e-02    1,297380179e-01   -3,513997495e-01    2,271304280e-01    0,000000000e+00    0,000000000e+00    0,000000000e+00    0,000000000e+00
     1430000000   -4,659162089e-02    7,399964333e-02   -1,420600712e-01    4,142750204e-01    0,000000000e+00    0,000000000e+00    0,000000000e+00    0,000000000e+00
     1444000000   -2,148328349e-02    2,658896148e-03    1,526643336e-01    4,922581017e-01    0,000000000e+00    0,000000000e+00    0,000000000e+00    0,000000000e+00
     1458000000   -5,115409940e-02   -8,568610251e-02    4,530977309e-01    4,312509596e-01    0,000000000e+00    0,000000000e+00    0,000000000e+00    0,000000000e+00
     1472000000   -1,324838102e-01   -1,267203838e-01    7,248582244e-01    2,356060743e-01    0,000000000e+00    0,000000000e+00    0,000000000e+00    0,000000000e+00
     1486000000   -2,307522297e-01   -1,262343526e-01    8,516443968e-01   -1,084816158e-01    0,000000000e+00    0,000000000e+00    0,000000000e+00    0,000000000e+00
     1500000000   -2,904037833e-01   -5,098767951e-02    7,775402665e-01   -4,471195340e-01    0,000000000e+00    0,000000000e+00    0,000000000e+00    0,000000000e+00
