! NanoVNA-App
! Date: 2025-09-26 09:45:35
! Start: 100MHz Stop: 1,5GHz Points: 101
! S-Parameter data: F S11 S21 S12 S22
# Hz S RI R 50
!     Frequency           S11_Real           S11_Imag           S21_Real           S21_Imag           S12_Real           S12_Imag           S22_Real           S22_Imag
      100000000    3,045155667e-02    2,814222500e-02    4,339268804e-01   -6,701638103e-01    0,000000000e+00    0,000000000e+00    0,000000000e+00    0,000000000e+00
      114000000    5,648792535e-02    5,450542551e-03    5,928052124e-03   -7,919749618e-01    0,000000000e+00    0,000000000e+00    0,000000000e+00    0,000000000e+00
      128000000    6,616064906e-02   -3,712548688e-02   -4,125357866e-01   -6,707171798e-01    0,000000000e+00    0,000000000e+00    0,000000000e+00    0,000000000e+00
      142000000    4,406849667e-02   -8,278962225e-02   -7,049143910e-01   -3,516803384e-01    0,000000000e+00    0,000000000e+00    0,000000000e+00    0,000000000e+00
      156000000   -5,604730919e-03   -1,049409509e-01   -7,867518067e-01    7,648778707e-02    0,000000000e+00    0,000000000e+00    0,000000000e+00    0,000000000e+00
      170000000   -5,627139285e-02   -8,940440416e-02   -6,263762712e-01    4,900147915e-01    0,000000000e+00    0,000000000e+00    0,000000000e+00    0,000000000e+00
      184000000   -8,205757290e-02   -4,943909869e-02   -2,620903850e-01    7,526750565e-01    0,000000000e+00    0,000000000e+00    0,000000000e+00    0,000000000e+00
      198000000   -7,860781252e-02   -1,132263429e-02    1,866687089e-01    7,735617757e-01    0,000000000e+00    0,000000000e+00    0,000000000e+00    0,000000000e+00
      212000000   -6,220730394e-02    1,220245752e-02    5,718938112e-01    5,473990440e-01    0,000000000e+00    0,000000000e+00    0,000000000e+00    0,000000000e+00
      226000000   -4,373635724e-02    2,726101875e-02    7,724677920e-01    1,518545449e-01    0,000000000e+00    0,000000000e+00    0,000000000e+00    0,000000000e+00
      240000000   -1,855777577e-02    3,861773759e-02    7,270727158e-01   -2,848971188e-01    0,000000000e+00    0,000000000e+00    0,000000000e+00    0,000000000e+00
      254000000    1,714708284e-02    3,537347913e-02    4,568131268e-01   -6,222227812e-01    0,000000000e+00    0,000000000e+00    0,000000000e+00    0,000000000e+00
      268000000    4,876704141e-02    5,711914040e-03    5,700169131e-02   -7,619839907e-01    0,000000000e+00    0,000000000e+00    0,000000000e+00    0,000000000e+00
      282000000    5,345249921e-02   -4,153372720e-02   -3,512446880e-01   -6,722814441e-01    0,000000000e+00    0,000000000e+00    0,000000000e+00    0,000000000e+00
      296000000    2,426176332e-02   -7,889148593e-02   -6,543166637e-01   -3,845964968e-01    0,000000000e+00    0,000000000e+00    0,000000000e+00    0,000000000e+00
      310000000   -1,711919345e-02   -8,277814835e-02   -7,646969557e-01    2,450776845e-02    0,000000000e+00    0,000000000e+00    0,000000000e+00    0,000000000e+00
      324000000   -4,059710726e-02   -5,901142210e-02   -6,308849454e-01    4,346839786e-01    0,000000000e+00    0,000000000e+00    0,000000000e+00    0,000000000e+00
      338000000   -3,342220187e-02   -3,789089993e-02   -2,946302593e-01    7,010238767e-01    0,000000000e+00    0,000000000e+00    0,000000000e+00    0,000000000e+00
      352000000   -1,790614054e-02   -4,228883237e-02    1,293568164e-01    7,438023686e-01    0,000000000e+00    0,000000000e+00    0,000000000e+00    0,000000000e+00
      366000000   -2,066808194e-02   -6,237775832e-02    5,021212697e-01    5,540363789e-01    0,000000000e+00    0,000000000e+00    0,000000000e+00    0,000000000e+00
      380000000   -4,554529116e-02   -7,084000111e-02    7,175981402e-01    1,975353360e-01    0,000000000e+00    0,000000000e+00    0,000000000e+00    0,000000000e+00
      394000000   -6,980494410e-02   -5,548806489e-02    7,060852051e-01   -2,217124701e-01    0,000000000e+00    0,000000000e+00    0,000000000e+00    0,000000000e+00
      408000000   -7,335574180e-02   -2,984302491e-02    4,703670740e-01   -5,669888854e-01    0,000000000e+00    0,000000000e+00    0,000000000e+00    0,000000000e+00
      422000000   -6,218527257e-02   -1,435732190e-02    8,852072805e-02   -7,247722745e-01    0,000000000e+00    0,000000000e+00    0,000000000e+00    0,000000000e+00
      436000000   -5,406234413e-02   -1,035920158e-02   -3,131359816e-01   -6,516618729e-01    0,000000000e+00    0,000000000e+00    0,000000000e+00    0,000000000e+00
      450000000   -5,237377807e-02   -1,317358692e-03   -6,082749367e-01   -3,732658923e-01    0,000000000e+00    0,000000000e+00    0,000000000e+00    0,000000000e+00
      464000000   -3,819646314e-02    1,871620864e-02   -6,998221278e-01    1,911394857e-02    0,000000000e+00    0,000000000e+00    0,000000000e+00    0,000000000e+00
      478000000    1,448303810e-03    2,646281943e-02   -5,615813732e-01    3,867410421e-01    0,000000000e+00    0,000000000e+00    0,000000000e+00    0,000000000e+00
      492000000    4,557345062e-02   -4,944196902e-03   -2,599753439e-01    6,058098674e-01    0,000000000e+00    0,000000000e+00    0,000000000e+00    0,000000000e+00
      506000000    5,551351234e-02   -6,689759344e-02    9,012071788e-02    6,369521618e-01    0,000000000e+00    0,000000000e+00    0,000000000e+00    0,000000000e+00
      520000000    1,541310921e-02   -1,220028996e-01    3,988080323e-01    4,974905550e-01    0,000000000e+00    0,000000000e+00    0,000000000e+00    0,000000000e+00
      534000000   -5,237366259e-02   -1,328483373e-01    6,021043658e-01    2,219556570e-01    0,000000000e+00    0,000000000e+00    0,000000000e+00    0,000000000e+00
      548000000   -1,012309641e-01   -9,557179362e-02    6,354307532e-01   -1,291683614e-01    0,000000000e+00    0,000000000e+00    0,000000000e+00    0,000000000e+00
      562000000   -1,046648398e-01   -4,693957046e-02    4,691609442e-01   -4,504245520e-01    0,000000000e+00    0,000000000e+00    0,000000000e+00    0,000000000e+00
      576000000   -8,065303415e-02   -2,453431860e-02    1,524011195e-01   -6,285044551e-01    0,000000000e+00    0,000000000e+00    0,000000000e+00    0,000000000e+00
      590000000   -6,384832412e-02   -3,301110491e-02   -2,072806060e-01   -6,133744717e-01    0,000000000e+00    0,000000000e+00    0,000000000e+00    0,000000000e+00
      604000000   -7,222311199e-02   -4,191147536e-02   -5,027530789e-01   -4,061200321e-01    0,000000000e+00    0,000000000e+00    0,000000000e+00    0,000000000e+00
      618000000   -8,775074035e-02   -2,853628062e-02   -6,421875358e-01   -6,935508549e-02    0,000000000e+00    0,000000000e+00    0,000000000e+00    0,000000000e+00
      632000000   -8,281818032e-02    1,208659844e-03   -5,750564933e-01    2,895138562e-01    0,000000000e+00    0,000000000e+00    0,000000000e+00    0,000000000e+00
      646000000   -5,261585489e-02    1,882684790e-02   -3,267391920e-01    5,470902324e-01    0,000000000e+00    0,000000000e+00    0,000000000e+00    0,000000000e+00
      660000000   -1,777190529e-02    6,330202334e-03    1,365590468e-02    6,270074248e-01    0,000000000e+00    0,000000000e+00    0,000000000e+00    0,000000000e+00
      674000000   -6,578626577e-03   -2,413758636e-02    3,358695209e-01    5,209681988e-01    0,000000000e+00    0,000000000e+00    0,000000000e+00    0,000000000e+00
      688000000   -1,577954181e-02   -4,620265588e-02    5,549628735e-01    2,619225681e-01    0,000000000e+00    0,000000000e+00    0,000000000e+00    0,000000000e+00
      702000000   -2,931012213e-02   -5,262021720e-02    6,036423445e-01   -7,884171605e-02    0,000000000e+00    0,000000000e+00    0,000000000e+00    0,000000000e+00
      716000000   -2,836868726e-02   -5,391981825e-02    4,587793648e-01   -3,842837214e-01    0,000000000e+00    0,000000000e+00    0,000000000e+00    0,000000000e+00
      730000000   -2,368038893e-02   -6,923445314e-02    1,786323339e-01   -5,618233681e-01    0,000000000e+00    0,000000000e+00    0,000000000e+00    0,000000000e+00
      744000000   -3,497232869e-02   -9,641827643e-02   -1,468049884e-01   -5,626291037e-01    0,000000000e+00    0,000000000e+00    0,000000000e+00    0,000000000e+00
      758000000   -7,203769684e-02   -1,140609384e-01   -4,223133922e-01   -3,983312249e-01    0,000000000e+00    0,000000000e+00    0,000000000e+00    0,000000000e+00
      772000000   -1,189859211e-01   -1,009853110e-01   -5,725216269e-01   -1,129097342e-01    0,000000000e+00    0,000000000e+00    0,000000000e+00    0,000000000e+00
      786000000   -1,482890695e-01   -5,823731050e-02   -5,482521653e-01    2,150283903e-01    0,000000000e+00    0,000000000e+00    0,000000000e+00    0,000000000e+00
      800000000   -1,412080973e-01   -1,090506557e-02   -3,465180099e-01    4,782809913e-01    0,000000000e+00    0,000000000e+00    0,000000000e+00    0,000000000e+00
      814000000   -1,117602810e-01    1,666141115e-02   -3,738840297e-02    5,881332159e-01    0,000000000e+00    0,000000000e+00    0,000000000e+00    0,000000000e+00
      828000000   -8,343287557e-02    2,222388051e-02    2,762129605e-01    5,159543753e-01    0,000000000e+00    0,000000000e+00    0,000000000e+00    0,000000000e+00
      842000000   -6,333498657e-02    2,040295675e-02    5,026972890e-01    2,916493714e-01    0,000000000e+00    0,000000000e+00    0,000000000e+00    0,000000000e+00
      856000000   -4,314249381e-02    2,010225877e-02    5,709983110e-01   -1,660233736e-02    0,000000000e+00    0,000000000e+00    0,000000000e+00    0,000000000e+00
      870000000   -1,460847352e-02    1,024894137e-02    4,647962451e-01   -3,059960902e-01    0,000000000e+00    0,000000000e+00    0,000000000e+00    0,000000000e+00
      884000000    1,073308755e-02   -2,291509323e-02    2,317037135e-01   -4,899926484e-01    0,000000000e+00    0,000000000e+00    0,000000000e+00    0,000000000e+00
      898000000    1,178582106e-02   -7,337353379e-02   -5,325106531e-02   -5,291955471e-01    0,000000000e+00    0,000000000e+00    0,000000000e+00    0,000000000e+00
      912000000   -2,761572041e-02   -1,164086089e-01   -3,654854000e-01   -4,141033292e-01    0,000000000e+00    0,000000000e+00    0,000000000e+00    0,000000000e+00
      926000000   -8,314310759e-02   -1,289088279e-01   -5,338482857e-01   -1,651628017e-01    0,000000000e+00    0,000000000e+00    0,000000000e+00    0,000000000e+00
      940000000   -1,299644560e-01   -1,018909812e-01   -5,568593740e-01    1,542478651e-01    0,000000000e+00    0,000000000e+00    0,000000000e+00    0,000000000e+00
      954000000   -1,457095146e-01   -5,558473617e-02   -3,963648677e-01    4,486178756e-01    0,000000000e+00    0,000000000e+00    0,000000000e+00    0,000000000e+00
      968000000   -1,332898885e-01   -2,490201034e-02   -9,513907880e-02    6,068313718e-01    0,000000000e+00    0,000000000e+00    0,000000000e+00    0,000000000e+00
      982000000   -1,140656471e-01   -1,399506535e-02    2,459815890e-01    5,748081803e-01    0,000000000e+00    0,000000000e+00    0,000000000e+00    0,000000000e+00
      996000000   -1,041497588e-01   -1,058666129e-02    5,164669752e-01    3,683873117e-01    0,000000000e+00    0,000000000e+00    0,000000000e+00    0,000000000e+00
     1010000000   -1,004014462e-01   -9,262745269e-03    6,348139048e-01    4,927844182e-02    0,000000000e+00    0,000000000e+00    0,000000000e+00    0,000000000e+00
     1024000000   -9,167490900e-02    3,503726097e-03    5,614959002e-01   -2,810578346e-01    0,000000000e+00    0,000000000e+00    0,000000000e+00    0,000000000e+00
     1038000000   -6,631063670e-02   -1,099293819e-03    3,302543163e-01   -5,141198039e-01    0,000000000e+00    0,000000000e+00    0,000000000e+00    0,000000000e+00
     1052000000   -5,607530475e-02   -1,887496933e-02    1,774306782e-02   -5,869379640e-01    0,000000000e+00    0,000000000e+00    0,000000000e+00    0,000000000e+00
     1066000000   -6,496801972e-02   -3,898432106e-02   -2,819736302e-01   -4,934918582e-01    0,000000000e+00    0,000000000e+00    0,000000000e+00    0,000000000e+00
     1080000000   -8,847742528e-02   -4,328995943e-02   -4,931973219e-01   -2,531878948e-01    0,000000000e+00    0,000000000e+00    0,000000000e+00    0,000000000e+00
     1094000000   -9,497322142e-02   -2,647224627e-02   -5,314660072e-01    6,668829173e-02    0,000000000e+00    0,000000000e+00    0,000000000e+00    0,000000000e+00
     1108000000   -7,040654123e-02   -7,026739419e-03   -3,819190264e-01    3,451136351e-01    0,000000000e+00    0,000000000e+00    0,000000000e+00    0,000000000e+00
     1122000000   -4,135341197e-02   -2,972050756e-02   -1,092298105e-01    4,863474965e-01    0,000000000e+00    0,000000000e+00    0,000000000e+00    0,000000000e+00
     1136000000   -3,120774776e-02   -7,405937463e-02    1,824674457e-01    4,604900777e-01    0,000000000e+00    0,000000000e+00    0,000000000e+00    0,000000000e+00
     1150000000   -6,160852686e-02   -1,244886518e-01    4,230729640e-01    2,884370089e-01    0,000000000e+00    0,000000000e+00    0,000000000e+00    0,000000000e+00
     1164000000   -1,196766347e-01   -1,442184895e-01    5,409095287e-01    7,957734168e-03    0,000000000e+00    0,000000000e+00    0,000000000e+00    0,000000000e+00
     1178000000   -1,934904009e-01   -1,249223575e-01    4,956960678e-01   -3,087969720e-01    0,000000000e+00    0,000000000e+00    0,000000000e+00    0,000000000e+00
     1192000000   -2,434605211e-01   -6,100970879e-02    2,750608325e-01   -5,662573576e-01    0,000000000e+00    0,000000000e+00    0,000000000e+00    0,000000000e+00
     1206000000   -2,439571917e-01    1,232892834e-02   -6,655868143e-02   -6,615184546e-01    0,000000000e+00    0,000000000e+00    0,000000000e+00    0,000000000e+00
     1220000000   -2,056954652e-01    7,072948664e-02   -3,974291086e-01   -5,473836064e-01    0,000000000e+00    0,000000000e+00    0,000000000e+00    0,000000000e+00
     1234000000   -1,470606774e-01    1,096270233e-01   -6,104862690e-01   -2,706701756e-01    0,000000000e+00    0,000000000e+00    0,000000000e+00    0,000000000e+00
     1248000000   -7,277327776e-02    1,090366021e-01   -6,291245222e-01    6,441001594e-02    0,000000000e+00    0,000000000e+00    0,000000000e+00    0,000000000e+00
     1262000000   -1,130702626e-02    7,485505939e-02   -4,850563705e-01    3,516212702e-01    0,000000000e+00    0,000000000e+00    0,000000000e+00    0,000000000e+00
     1276000000    3,020807728e-02    2,617583144e-03   -2,248177826e-01    5,078023076e-01    0,000000000e+00    0,000000000e+00    0,000000000e+00    0,000000000e+00
     1290000000    3,610178456e-02   -8,103469014e-02    7,055990398e-02    5,328673124e-01    0,000000000e+00    0,000000000e+00    0,000000000e+00    0,000000000e+00
     1304000000   -1,914056391e-02   -1,739780009e-01    3,396179676e-01    4,307940304e-01    0,000000000e+00    0,000000000e+00    0,000000000e+00    0,000000000e+00
     1318000000   -1,205433905e-01   -2,193529308e-01    5,512327552e-01    2,101906836e-01    0,000000000e+00    0,000000000e+00    0,000000000e+00    0,000000000e+00
     1332000000   -2,453266680e-01   -2,068073750e-01    6,208094358e-01   -1,167157143e-01    0,000000000e+00    0,000000000e+00    0,000000000e+00    0,000000000e+00
     1346000000   -3,354994655e-01   -1,077617779e-01    4,865120351e-01   -4,369201362e-01    0,000000000e+00    0,000000000e+00    0,000000000e+00    0,000000000e+00
     1360000000   -3,486046791e-01    1,788039319e-02    1,827801615e-01   -6,032695174e-01    0,000000000e+00    0,000000000e+00    0,000000000e+00    0,000000000e+00
     1374000000   -2,947650254e-01    1,046996787e-01   -1,463254988e-01   -5,685448647e-01    0,000000000e+00    0,000000000e+00    0,000000000e+00    0,000000000e+00
     1388000000   -2,260231823e-01    1,466513425e-01   -3,826419115e-01   -3,583539724e-01    0,000000000e+00    0,000000000e+00    0,000000000e+00    0,000000000e+00
     1402000000   -1,489387155e-01    1,569719166e-01   -4,517133236e-01   -5,268318951e-02    0,000000000e+00    0,000000000e+00    0,000000000e+00    0,000000000e+00
     1416000000   -8,088246733e-02    1,293137372e-01   -3,506733477e-01    2,282945961e-01    0,000000000e+00    0,000000000e+00    0,000000000e+00    0,000000000e+00
     1430000000   -3,871126473e-02    7,887081057e-02   -1,547334939e-01    4,434500635e-01    0,000000000e+00    0,000000000e+00    0,000000000e+00    0,000000000e+00
     1444000000   -1,988034695e-02   -2,759824973e-03    1,689337343e-01    4,858186841e-01    0,000000000e+00    0,000000000e+00    0,000000000e+00    0,000000000e+00
     1458000000   -5,252790451e-02   -8,689566702e-02    4,489481151e-01    4,375082552e-01    0,000000000e+00    0,000000000e+00    0,000000000e+00    0,000000000e+00
     1472000000   -1,303384900e-01   -1,351697594e-01    7,250348926e-01    2,370725125e-01    0,000000000e+00    0,000000000e+00    0,000000000e+00    0,000000000e+00
     1486000000   -2,349719703e-01   -1,257811487e-01    8,568353653e-01   -9,232373536e-02    0,000000000e+00    0,000000000e+00    0,000000000e+00    0,000000000e+00
     1500000000   -2,996329963e-01   -5,135687441e-02    7,739139795e-01   -4,662163854e-01    0,000000000e+00    0,000000000e+00    0,000000000e+00    0,000000000e+00
