! NanoVNA-App
! Date: 2025-09-26 09:45:13
! Start: 100MHz Stop: 1,5GHz Points: 101
! S-Parameter data: F S11 S21 S12 S22
# Hz S RI R 50
!     Frequency           S11_Real           S11_Imag           S21_Real           S21_Imag           S12_Real           S12_Imag           S22_Real           S22_Imag
      100000000    3,043873794e-02    2,813167125e-02    4,339572489e-01   -6,701899171e-01    0,000000000e+00    0,000000000e+00    0,000000000e+00    0,000000000e+00
      114000000    5,651990324e-02    5,451545119e-03    5,890497006e-03   -7,920075059e-01    0,000000000e+00    0,000000000e+00    0,000000000e+00    0,000000000e+00
      128000000    6,611567736e-02   -3,711948916e-02   -4,126652479e-01   -6,708616018e-01    0,000000000e+00    0,000000000e+00    0,000000000e+00    0,000000000e+00
      142000000    4,409780726e-02   -8,281221986e-02   -7,050708532e-01   -3,517290950e-01    0,000000000e+00    0,000000000e+00    0,000000000e+00    0,000000000e+00
      156000000   -4,956818651e-03   -1,052662432e-01   -7,883297801e-01    7,674866915e-02    0,000000000e+00    0,000000000e+00    0,000000000e+00    0,000000000e+00
      170000000   -5,628288165e-02   -8,937522769e-02   -6,264312863e-01    4,898808897e-01    0,000000000e+00    0,000000000e+00    0,000000000e+00    0,000000000e+00
      184000000   -8,205463737e-02   -4,940072075e-02   -2,619897127e-01    7,526398897e-01    0,000000000e+00    0,000000000e+00    0,000000000e+00    0,000000000e+00
      198000000   -7,862059027e-02   -1,130932383e-02    1,865779608e-01    7,736743689e-01    0,000000000e+00    0,000000000e+00    0,000000000e+00    0,000000000e+00
      212000000   -6,216847152e-02    1,217516605e-02    5,719391704e-01    5,475259423e-01    0,000000000e+00    0,000000000e+00    0,000000000e+00    0,000000000e+00
      226000000   -4,374394193e-02    2,728838101e-02    7,723799348e-01    1,518080980e-01    0,000000000e+00    0,000000000e+00    0,000000000e+00    0,000000000e+00
      240000000   -1,853429340e-02    3,856890276e-02    7,271491885e-01   -2,849196792e-01    0,000000000e+00    0,000000000e+00    0,000000000e+00    0,000000000e+00
      254000000    1,713010110e-02    3,538390622e-02    4,568861723e-01   -6,225284338e-01    0,000000000e+00    0,000000000e+00    0,000000000e+00    0,000000000e+00
      268000000    4,875609279e-02    5,691667553e-03    5,702228099e-02   -7,617366910e-01    0,000000000e+00    0,000000000e+00    0,000000000e+00    0,000000000e+00
      282000000    5,335310847e-02   -4,147031531e-02   -3,515909910e-01   -6,722089648e-01    0,000000000e+00    0,000000000e+00    0,000000000e+00    0,000000000e+00
      296000000    2,418951504e-02   -7,887271792e-02   -6,540238261e-01   -3,842733204e-01    0,000000000e+00    0,000000000e+00    0,000000000e+00    0,000000000e+00
      310000000   -1,688821986e-02   -8,242698759e-02   -7,653365731e-01    2,445415407e-02    0,000000000e+00    0,000000000e+00    0,000000000e+00    0,000000000e+00
      324000000   -4,032308236e-02   -5,899552256e-02   -6,320763826e-01    4,344314635e-01    0,000000000e+00    0,000000000e+00    0,000000000e+00    0,000000000e+00
      338000000   -3,335195035e-02   -3,805284202e-02   -2,940564156e-01    7,019461393e-01    0,000000000e+00    0,000000000e+00    0,000000000e+00    0,000000000e+00
      352000000   -1,770307682e-02   -4,207185283e-02    1,279222071e-01    7,448534966e-01    0,000000000e+00    0,000000000e+00    0,000000000e+00    0,000000000e+00
      366000000   -2,087607794e-02   -6,195219234e-02    5,030451417e-01    5,544598103e-01    0,000000000e+00    0,000000000e+00    0,000000000e+00    0,000000000e+00
      380000000   -4,521849006e-02   -7,076832652e-02    7,175882459e-01    1,968261600e-01    0,000000000e+00    0,000000000e+00    0,000000000e+00    0,000000000e+00
      394000000   -6,937518716e-02   -5,552947149e-02    7,065220475e-01   -2,220634967e-01    0,000000000e+00    0,000000000e+00    0,000000000e+00    0,000000000e+00
      408000000   -7,353561372e-02   -3,005048074e-02    4,695498645e-01   -5,672660470e-01    0,000000000e+00    0,000000000e+00    0,000000000e+00    0,000000000e+00
      422000000   -6,186932325e-02   -1,460505836e-02    8,877917379e-02   -7,243058085e-01    0,000000000e+00    0,000000000e+00    0,000000000e+00    0,000000000e+00
      436000000   -5,410917103e-02   -1,032984816e-02   -3,126118779e-01   -6,516377926e-01    0,000000000e+00    0,000000000e+00    0,000000000e+00    0,000000000e+00
      450000000   -5,225310475e-02   -1,455204561e-03   -6,081178784e-01   -3,733294308e-01    0,000000000e+00    0,000000000e+00    0,000000000e+00    0,000000000e+00
      464000000   -3,813832626e-02    1,879617944e-02   -6,999356151e-01    1,897724159e-02    0,000000000e+00    0,000000000e+00    0,000000000e+00    0,000000000e+00
      478000000    9,103313205e-04    2,634808421e-02   -5,615335107e-01    3,860371411e-01    0,000000000e+00    0,000000000e+00    0,000000000e+00    0,000000000e+00
      492000000    4,558422789e-02   -4,371541087e-03   -2,601745725e-01    6,062298417e-01    0,000000000e+00    0,000000000e+00    0,000000000e+00    0,000000000e+00
      506000000    5,544425920e-02   -6,714360416e-02    9,084708244e-02    6,364109516e-01    0,000000000e+00    0,000000000e+00    0,000000000e+00    0,000000000e+00
      520000000    1,466194354e-02   -1,224975288e-01    4,002308547e-01    4,924135506e-01    0,000000000e+00    0,000000000e+00    0,000000000e+00    0,000000000e+00
      534000000   -5,245750025e-02   -1,331265271e-01    6,022030711e-01    2,212885767e-01    0,000000000e+00    0,000000000e+00    0,000000000e+00    0,000000000e+00
      548000000   -1,013866663e-01   -9,554238617e-02    6,352508068e-01   -1,286103427e-01    0,000000000e+00    0,000000000e+00    0,000000000e+00    0,000000000e+00
      562000000   -1,048808247e-01   -4,641562328e-02    4,689247012e-01   -4,499987364e-01    0,000000000e+00    0,000000000e+00    0,000000000e+00    0,000000000e+00
      576000000   -8,027356118e-02   -2,489666827e-02    1,518263519e-01   -6,286630034e-01    0,000000000e+00    0,000000000e+00    0,000000000e+00    0,000000000e+00
      590000000   -6,407680362e-02   -3,279209509e-02   -2,075842172e-01   -6,154916883e-01    0,000000000e+00    0,000000000e+00    0,000000000e+00    0,000000000e+00
      604000000   -7,197472453e-02   -4,163980484e-02   -5,025217533e-01   -4,054885507e-01    0,000000000e+00    0,000000000e+00    0,000000000e+00    0,000000000e+00
      618000000   -8,779825270e-02   -2,895246819e-02   -6,420720220e-01   -6,932068616e-02    0,000000000e+00    0,000000000e+00    0,000000000e+00    0,000000000e+00
      632000000   -8,270021528e-02    9,310329333e-04   -5,752534270e-01    2,892985642e-01    0,000000000e+00    0,000000000e+00    0,000000000e+00    0,000000000e+00
      646000000   -5,248445272e-02    1,856129616e-02   -3,260871768e-01    5,482006669e-01    0,000000000e+00    0,000000000e+00    0,000000000e+00    0,000000000e+00
      660000000   -1,788078994e-02    6,036726758e-03    1,163607091e-02    6,284396648e-01    0,000000000e+00    0,000000000e+00    0,000000000e+00    0,000000000e+00
      674000000   -6,498202682e-03   -2,435475215e-02    3,367404044e-01    5,219094157e-01    0,000000000e+00    0,000000000e+00    0,000000000e+00    0,000000000e+00
      688000000   -1,614136249e-02   -4,587315023e-02    5,548338294e-01    2,616785169e-01    0,000000000e+00    0,000000000e+00    0,000000000e+00    0,000000000e+00
      702000000   -2,761083096e-02   -5,230791867e-02    6,032295823e-01   -7,692215592e-02    0,000000000e+00    0,000000000e+00    0,000000000e+00    0,000000000e+00
      716000000   -2,797258087e-02   -5,294912308e-02    4,589338005e-01   -3,846620619e-01    0,000000000e+00    0,000000000e+00    0,000000000e+00    0,000000000e+00
      730000000   -2,396847121e-02   -6,907745451e-02    1,777958274e-01   -5,609267354e-01    0,000000000e+00    0,000000000e+00    0,000000000e+00    0,000000000e+00
      744000000   -3,526910767e-02   -9,666738659e-02   -1,463428587e-01   -5,622068644e-01    0,000000000e+00    0,000000000e+00    0,000000000e+00    0,000000000e+00
      758000000   -7,292965800e-02   -1,135940030e-01   -4,210994840e-01   -3,984866738e-01    0,000000000e+00    0,000000000e+00    0,000000000e+00    0,000000000e+00
      772000000   -1,204609275e-01   -1,012317911e-01   -5,725517273e-01   -1,128058955e-01    0,000000000e+00    0,000000000e+00    0,000000000e+00    0,000000000e+00
      786000000   -1,470308602e-01   -5,838352442e-02   -5,482162237e-01    2,157328576e-01    0,000000000e+00    0,000000000e+00    0,000000000e+00    0,000000000e+00
      800000000   -1,403227150e-01   -1,077521499e-02   -3,469481170e-01    4,788221121e-01    0,000000000e+00    0,000000000e+00    0,000000000e+00    0,000000000e+00
      814000000   -1,123852879e-01    1,620397903e-02   -3,799295053e-02    5,871959925e-01    0,000000000e+00    0,000000000e+00    0,000000000e+00    0,000000000e+00
      828000000   -8,333209902e-02    2,238574997e-02    2,779627740e-01    5,152891278e-01    0,000000000e+00    0,000000000e+00    0,000000000e+00    0,000000000e+00
      842000000   -6,413252652e-02    2,087986656e-02    5,026013255e-01    2,912075520e-01    0,000000000e+00    0,000000000e+00    0,000000000e+00    0,000000000e+00
      856000000   -4,392363876e-02    2,053900808e-02    5,709947944e-01   -1,683911867e-02    0,000000000e+00    0,000000000e+00    0,000000000e+00    0,000000000e+00
      870000000   -1,456258725e-02    9,821048006e-03    4,641761184e-01   -3,065508306e-01    0,000000000e+00    0,000000000e+00    0,000000000e+00    0,000000000e+00
      884000000    1,027192362e-02   -2,254657261e-02    2,304504812e-01   -4,896144569e-01    0,000000000e+00    0,000000000e+00    0,000000000e+00    0,000000000e+00
      898000000    1,139671262e-02   -7,350482792e-02   -5,336401984e-02   -5,289095044e-01    0,000000000e+00    0,000000000e+00    0,000000000e+00    0,000000000e+00
      912000000   -2,800291032e-02   -1,158521548e-01   -3,636023104e-01   -4,009419680e-01    0,000000000e+00    0,000000000e+00    0,000000000e+00    0,000000000e+00
      926000000   -8,207699656e-02   -1,269309223e-01   -5,329436660e-01   -1,606699228e-01    0,000000000e+00    0,000000000e+00    0,000000000e+00    0,000000000e+00
      940000000   -1,292590499e-01   -9,833146632e-02   -5,568918586e-01    1,569290310e-01    0,000000000e+00    0,000000000e+00    0,000000000e+00    0,000000000e+00
      954000000   -1,456498802e-01   -5,299178883e-02   -3,946513534e-01    4,501014352e-01    0,000000000e+00    0,000000000e+00    0,000000000e+00    0,000000000e+00
      968000000   -1,297364086e-01   -2,394130267e-02   -9,140834957e-02    6,086909175e-01    0,000000000e+00    0,000000000e+00    0,000000000e+00    0,000000000e+00
      982000000   -1,099414378e-01   -1,539456192e-02    2,471131384e-01    5,748944879e-01    0,000000000e+00    0,000000000e+00    0,000000000e+00    0,000000000e+00
      996000000   -1,074404046e-01   -1,262108888e-02    5,182152987e-01    3,680965304e-01    0,000000000e+00    0,000000000e+00    0,000000000e+00    0,000000000e+00
     1010000000   -9,890094399e-02   -6,025782786e-03    6,338188052e-01    4,819003120e-02    0,000000000e+00    0,000000000e+00    0,000000000e+00    0,000000000e+00
     1024000000   -8,671281487e-02    3,194423625e-03    5,630511045e-01   -2,812044919e-01    0,000000000e+00    0,000000000e+00    0,000000000e+00    0,000000000e+00
     1038000000   -6,763511896e-02    1,771425479e-03    3,308880627e-01   -5,132099986e-01    0,000000000e+00    0,000000000e+00    0,000000000e+00    0,000000000e+00
     1052000000   -5,797152221e-02   -1,896570809e-02    1,804378442e-02   -5,888338089e-01    0,000000000e+00    0,000000000e+00    0,000000000e+00    0,000000000e+00
     1066000000   -6,826461852e-02   -4,050558060e-02   -2,880883217e-01   -4,968582690e-01    0,000000000e+00    0,000000000e+00    0,000000000e+00    0,000000000e+00
     1080000000   -8,216977119e-02   -4,380415380e-02   -4,964844286e-01   -2,529653907e-01    0,000000000e+00    0,000000000e+00    0,000000000e+00    0,000000000e+00
     1094000000   -8,867648244e-02   -2,307893522e-02   -5,340761542e-01    6,528020650e-02    0,000000000e+00    0,000000000e+00    0,000000000e+00    0,000000000e+00
     1108000000   -7,050453871e-02   -1,382728852e-02   -3,837939799e-01    3,478187323e-01    0,000000000e+00    0,000000000e+00    0,000000000e+00    0,000000000e+00
     1122000000   -4,066167027e-02   -2,933521569e-02   -1,104209051e-01    4,832671285e-01    0,000000000e+00    0,000000000e+00    0,000000000e+00    0,000000000e+00
     1136000000   -3,341935948e-02   -7,009436935e-02    1,842813939e-01    4,583760798e-01    0,000000000e+00    0,000000000e+00    0,000000000e+00    0,000000000e+00
     1150000000   -5,673412234e-02   -1,238595769e-01    4,186963439e-01    2,860985994e-01    0,000000000e+00    0,000000000e+00    0,000000000e+00    0,000000000e+00
     1164000000   -1,197542548e-01   -1,444100291e-01    5,416149497e-01    8,101594634e-03    0,000000000e+00    0,000000000e+00    0,000000000e+00    0,000000000e+00
     1178000000   -1,917278469e-01   -1,225289628e-01    4,973011911e-01   -3,118240833e-01    0,000000000e+00    0,000000000e+00    0,000000000e+00    0,000000000e+00
     1192000000   -2,367253751e-01   -6,052155420e-02    2,778970599e-01   -5,649582744e-01    0,000000000e+00    0,000000000e+00    0,000000000e+00    0,000000000e+00
     1206000000   -2,413344085e-01    1,261118520e-02   -6,679323316e-02   -6,603660583e-01    0,000000000e+00    0,000000000e+00    0,000000000e+00    0,000000000e+00
     1220000000   -2,016045004e-01    7,615767419e-02   -3,969199657e-01   -5,438374877e-01    0,000000000e+00    0,000000000e+00    0,000000000e+00    0,000000000e+00
     1234000000   -1,443585008e-01    1,094531640e-01   -6,101395488e-01   -2,698499560e-01    0,000000000e+00    0,000000000e+00    0,000000000e+00    0,000000000e+00
     1248000000   -7,458570600e-02    1,095111817e-01   -6,327431798e-01    6,441247463e-02    0,000000000e+00    0,000000000e+00    0,000000000e+00    0,000000000e+00
     1262000000   -1,357722469e-02    7,508049160e-02   -4,803970754e-01    3,503936231e-01    0,000000000e+00    0,000000000e+00    0,000000000e+00    0,000000000e+00
     1276000000    3,216186911e-02    5,154865794e-03   -2,244730741e-01    5,081214309e-01    0,000000000e+00    0,000000000e+00    0,000000000e+00    0,000000000e+00
     1290000000    3,517174721e-02   -8,355540037e-02    7,031160593e-02    5,376428962e-01    0,000000000e+00    0,000000000e+00    0,000000000e+00    0,000000000e+00
     1304000000   -1,763753779e-02   -1,748466641e-01    3,406265974e-01    4,304719269e-01    0,000000000e+00    0,000000000e+00    0,000000000e+00    0,000000000e+00
     1318000000   -1,218828410e-01   -2,268279046e-01    5,558741093e-01    2,029282898e-01    0,000000000e+00    0,000000000e+00    0,000000000e+00    0,000000000e+00
     1332000000   -2,457660586e-01   -2,054086328e-01    6,158806682e-01   -1,120852083e-01    0,000000000e+00    0,000000000e+00    0,000000000e+00    0,000000000e+00
     1346000000   -3,355394900e-01   -1,088289991e-01    4,831731021e-01   -4,319705069e-01    0,000000000e+00    0,000000000e+00    0,000000000e+00    0,000000000e+00
     1360000000   -3,471015096e-01    1,433985308e-02    1,876206398e-01   -6,079277992e-01    0,000000000e+00    0,000000000e+00    0,000000000e+00    0,000000000e+00
     1374000000   -2,945677638e-01    1,071589068e-01   -1,450166851e-01   -5,647640824e-01    0,000000000e+00    0,000000000e+00    0,000000000e+00    0,000000000e+00
     1388000000   -2,228692174e-01    1,453736722e-01   -3,817884922e-01   -3,621190488e-01    0,000000000e+00    0,000000000e+00    0,000000000e+00    0,000000000e+00
     1402000000   -1,448171139e-01    1,492686719e-01   -4,557371438e-01   -6,951344758e-02    0,000000000e+00    0,000000000e+00    0,000000000e+00    0,000000000e+00
     1416000000   -8,886717260e-02    1,307871193e-01   -3,560760915e-01    2,246217132e-01    0,000000000e+00    0,000000000e+00    0,000000000e+00    0,000000000e+00
     1430000000   -3,495004773e-02    8,020856977e-02   -1,347233504e-01    4,215855300e-01    0,000000000e+00    0,000000000e+00    0,000000000e+00    0,000000000e+00
     1444000000   -2,362468466e-02    6,467944011e-03    1,546822339e-01    5,047172904e-01    0,000000000e+00    0,000000000e+00    0,000000000e+00    0,000000000e+00
     1458000000   -5,161411688e-02   -7,878425717e-02    4,555336833e-01    4,413923323e-01    0,000000000e+00    0,000000000e+00    0,000000000e+00    0,000000000e+00
     1472000000   -1,267874390e-01   -1,376736313e-01    7,196085453e-01    2,370955497e-01    0,000000000e+00    0,000000000e+00    0,000000000e+00    0,000000000e+00
     1486000000   -2,297775447e-01   -1,223889068e-01    8,421944976e-01   -9,549467266e-02    0,000000000e+00    0,000000000e+00    0,000000000e+00    0,000000000e+00
     1500000000   -2,946948111e-01   -5,253743380e-02    7,746289372e-01   -4,445888996e-01    0,000000000e+00    0,000000000e+00    0,000000000e+00    0,000000000e+00
