! NanoVNA-App
! Date: 2025-09-26 09:45:15
! Start: 100MHz Stop: 1,5GHz Points: 101
! S-Parameter data: F S11 S21 S12 S22
# Hz S RI R 50
!     Frequency           S11_Real           S11_Imag           S21_Real           S21_Imag           S12_Real           S12_Imag           S22_Real           S22_Imag
      100000000    3,044247441e-02    2,813908644e-02    4,339405596e-01   -6,702017188e-01    0,000000000e+00    0,000000000e+00    0,000000000e+00    0,000000000e+00
      114000000    5,648385361e-02    5,430932157e-03    5,772094242e-03   -7,919514179e-01    0,000000000e+00    0,000000000e+00    0,000000000e+00    0,000000000e+00
      128000000    6,608236581e-02   -3,715535626e-02   -4,126482606e-01   -6,708373427e-01    0,000000000e+00    0,000000000e+00    0,000000000e+00    0,000000000e+00
      142000000    4,406499863e-02   -8,279828727e-02   -7,049102783e-01   -3,516492844e-01    0,000000000e+00    0,000000000e+00    0,000000000e+00    0,000000000e+00
      156000000   -5,063538440e-03   -1,051936671e-01   -7,882704735e-01    7,640016079e-02    0,000000000e+00    0,000000000e+00    0,000000000e+00    0,000000000e+00
      170000000   -5,629100651e-02   -8,942288905e-02   -6,264308691e-01    4,899946451e-01    0,000000000e+00    0,000000000e+00    0,000000000e+00    0,000000000e+00
      184000000   -8,207716048e-02   -4,945610836e-02   -2,620900869e-01    7,527995110e-01    0,000000000e+00    0,000000000e+00    0,000000000e+00    0,000000000e+00
      198000000   -7,859131694e-02   -1,131932344e-02    1,867372543e-01    7,731427550e-01    0,000000000e+00    0,000000000e+00    0,000000000e+00    0,000000000e+00
      212000000   -6,215680018e-02    1,216358226e-02    5,721502304e-01    5,473975539e-01    0,000000000e+00    0,000000000e+00    0,000000000e+00    0,000000000e+00
      226000000   -4,370929301e-02    2,719165757e-02    7,725002766e-01    1,517678499e-01    0,000000000e+00    0,000000000e+00    0,000000000e+00    0,000000000e+00
      240000000   -1,855051331e-02    3,856422380e-02    7,269711494e-01   -2,849011123e-01    0,000000000e+00    0,000000000e+00    0,000000000e+00    0,000000000e+00
      254000000    1,717963628e-02    3,537128493e-02    4,568999112e-01   -6,226713657e-01    0,000000000e+00    0,000000000e+00    0,000000000e+00    0,000000000e+00
      268000000    4,879424721e-02    5,745448172e-03    5,683858693e-02   -7,618470192e-01    0,000000000e+00    0,000000000e+00    0,000000000e+00    0,000000000e+00
      282000000    5,344212055e-02   -4,149176180e-02   -3,512474895e-01   -6,717492938e-01    0,000000000e+00    0,000000000e+00    0,000000000e+00    0,000000000e+00
      296000000    2,429051325e-02   -7,897528261e-02   -6,541819572e-01   -3,843520284e-01    0,000000000e+00    0,000000000e+00    0,000000000e+00    0,000000000e+00
      310000000   -1,686269231e-02   -8,245368302e-02   -7,646901011e-01    2,317463234e-02    0,000000000e+00    0,000000000e+00    0,000000000e+00    0,000000000e+00
      324000000   -4,028383270e-02   -5,908467248e-02   -6,319795251e-01    4,347127378e-01    0,000000000e+00    0,000000000e+00    0,000000000e+00    0,000000000e+00
      338000000   -3,349600732e-02   -3,837738559e-02   -2,937264144e-01    7,062384486e-01    0,000000000e+00    0,000000000e+00    0,000000000e+00    0,000000000e+00
      352000000   -1,790649816e-02   -4,219935089e-02    1,294904351e-01    7,439345717e-01    0,000000000e+00    0,000000000e+00    0,000000000e+00    0,000000000e+00
      366000000   -2,068605088e-02   -6,216986477e-02    5,026559830e-01    5,541691184e-01    0,000000000e+00    0,000000000e+00    0,000000000e+00    0,000000000e+00
      380000000   -4,586690292e-02   -7,105644047e-02    7,172927260e-01    1,969918162e-01    0,000000000e+00    0,000000000e+00    0,000000000e+00    0,000000000e+00
      394000000   -6,962872297e-02   -5,511923507e-02    7,076654434e-01   -2,214118540e-01    0,000000000e+00    0,000000000e+00    0,000000000e+00    0,000000000e+00
      408000000   -7,350886613e-02   -2,978438139e-02    4,694588780e-01   -5,659950376e-01    0,000000000e+00    0,000000000e+00    0,000000000e+00    0,000000000e+00
      422000000   -6,199175492e-02   -1,436001994e-02    8,808542043e-02   -7,252927423e-01    0,000000000e+00    0,000000000e+00    0,000000000e+00    0,000000000e+00
      436000000   -5,420054123e-02   -1,030512247e-02   -3,123100400e-01   -6,506267786e-01    0,000000000e+00    0,000000000e+00    0,000000000e+00    0,000000000e+00
      450000000   -5,283173919e-02   -9,125356446e-04   -6,085232496e-01   -3,735173941e-01    0,000000000e+00    0,000000000e+00    0,000000000e+00    0,000000000e+00
      464000000   -3,811491281e-02    1,887221262e-02   -7,002079487e-01    1,928656176e-02    0,000000000e+00    0,000000000e+00    0,000000000e+00    0,000000000e+00
      478000000    1,563590835e-03    2,662585489e-02   -5,606667995e-01    3,869492710e-01    0,000000000e+00    0,000000000e+00    0,000000000e+00    0,000000000e+00
      492000000    4,570961371e-02   -4,314455669e-03   -2,596270144e-01    6,066317558e-01    0,000000000e+00    0,000000000e+00    0,000000000e+00    0,000000000e+00
      506000000    5,588601157e-02   -6,708966941e-02    9,162276983e-02    6,370860338e-01    0,000000000e+00    0,000000000e+00    0,000000000e+00    0,000000000e+00
      520000000    1,539365668e-02   -1,228185222e-01    4,026520848e-01    4,977944195e-01    0,000000000e+00    0,000000000e+00    0,000000000e+00    0,000000000e+00
      534000000   -5,223415047e-02   -1,335566789e-01    6,024414897e-01    2,210564613e-01    0,000000000e+00    0,000000000e+00    0,000000000e+00    0,000000000e+00
      548000000   -1,015733406e-01   -9,572836757e-02    6,350506544e-01   -1,292997599e-01    0,000000000e+00    0,000000000e+00    0,000000000e+00    0,000000000e+00
      562000000   -1,051864028e-01   -4,632550478e-02    4,688718617e-01   -4,500823915e-01    0,000000000e+00    0,000000000e+00    0,000000000e+00    0,000000000e+00
      576000000   -8,032172173e-02   -2,443672530e-02    1,517568082e-01   -6,288482547e-01    0,000000000e+00    0,000000000e+00    0,000000000e+00    0,000000000e+00
      590000000   -6,420411170e-02   -3,257711977e-02   -2,049411684e-01   -6,151014566e-01    0,000000000e+00    0,000000000e+00    0,000000000e+00    0,000000000e+00
      604000000   -7,184553146e-02   -4,163222015e-02   -5,024721026e-01   -4,063021839e-01    0,000000000e+00    0,000000000e+00    0,000000000e+00    0,000000000e+00
      618000000   -8,743974566e-02   -2,801963873e-02   -6,422895193e-01   -6,885285676e-02    0,000000000e+00    0,000000000e+00    0,000000000e+00    0,000000000e+00
      632000000   -8,374093473e-02    1,206265995e-03   -5,751065016e-01    2,894974351e-01    0,000000000e+00    0,000000000e+00    0,000000000e+00    0,000000000e+00
      646000000   -5,187981948e-02    1,874375343e-02   -3,257285655e-01    5,483280420e-01    0,000000000e+00    0,000000000e+00    0,000000000e+00    0,000000000e+00
      660000000   -1,845371164e-02    6,494132336e-03    1,275124308e-02    6,270771027e-01    0,000000000e+00    0,000000000e+00    0,000000000e+00    0,000000000e+00
      674000000   -6,111756433e-03   -2,426475286e-02    3,363709152e-01    5,209338069e-01    0,000000000e+00    0,000000000e+00    0,000000000e+00    0,000000000e+00
      688000000   -1,650796272e-02   -4,596076906e-02    5,549046397e-01    2,617429793e-01    0,000000000e+00    0,000000000e+00    0,000000000e+00    0,000000000e+00
      702000000   -2,857276052e-02   -5,143018067e-02    6,015126109e-01   -7,751111686e-02    0,000000000e+00    0,000000000e+00    0,000000000e+00    0,000000000e+00
      716000000   -2,813258022e-02   -5,357421562e-02    4,589961171e-01   -3,840586245e-01    0,000000000e+00    0,000000000e+00    0,000000000e+00    0,000000000e+00
      730000000   -2,318810113e-02   -6,883693486e-02    1,775368899e-01   -5,614876151e-01    0,000000000e+00    0,000000000e+00    0,000000000e+00    0,000000000e+00
      744000000   -3,517860547e-02   -9,667358547e-02   -1,473310739e-01   -5,621321201e-01    0,000000000e+00    0,000000000e+00    0,000000000e+00    0,000000000e+00
      758000000   -7,244328409e-02   -1,147019565e-01   -4,219541550e-01   -3,983215988e-01    0,000000000e+00    0,000000000e+00    0,000000000e+00    0,000000000e+00
      772000000   -1,200932637e-01   -1,010223404e-01   -5,725606680e-01   -1,127677336e-01    0,000000000e+00    0,000000000e+00    0,000000000e+00    0,000000000e+00
      786000000   -1,474430710e-01   -5,842323601e-02   -5,478637218e-01    2,153571397e-01    0,000000000e+00    0,000000000e+00    0,000000000e+00    0,000000000e+00
      800000000   -1,414140165e-01   -1,049915608e-02   -3,468234241e-01    4,789332151e-01    0,000000000e+00    0,000000000e+00    0,000000000e+00    0,000000000e+00
      814000000   -1,126884148e-01    1,626030914e-02   -3,707607090e-02    5,868062973e-01    0,000000000e+00    0,000000000e+00    0,000000000e+00    0,000000000e+00
      828000000   -8,299759030e-02    2,175168321e-02    2,770520747e-01    5,154014826e-01    0,000000000e+00    0,000000000e+00    0,000000000e+00    0,000000000e+00
      842000000   -6,341504306e-02    2,074128762e-02    5,024952888e-01    2,912945747e-01    0,000000000e+00    0,000000000e+00    0,000000000e+00    0,000000000e+00
      856000000   -4,334860668e-02    2,023884654e-02    5,711142421e-01   -1,690656692e-02    0,000000000e+00    0,000000000e+00    0,000000000e+00    0,000000000e+00
      870000000   -1,477657259e-02    9,593674913e-03    4,642476737e-01   -3,067311347e-01    0,000000000e+00    0,000000000e+00    0,000000000e+00    0,000000000e+00
      884000000    1,058211457e-02   -2,205324546e-02    2,314248234e-01   -4,897133708e-01    0,000000000e+00    0,000000000e+00    0,000000000e+00    0,000000000e+00
      898000000    1,140773389e-02   -7,322095335e-02   -5,155240744e-02   -5,292270780e-01    0,000000000e+00    0,000000000e+00    0,000000000e+00    0,000000000e+00
      912000000   -2,856717072e-02   -1,160278171e-01   -3,530194759e-01   -4,021736085e-01    0,000000000e+00    0,000000000e+00    0,000000000e+00    0,000000000e+00
      926000000   -8,387770504e-02   -1,286669672e-01   -5,362108350e-01   -1,643668264e-01    0,000000000e+00    0,000000000e+00    0,000000000e+00    0,000000000e+00
      940000000   -1,294118464e-01   -9,855714440e-02   -5,550677776e-01    1,571350396e-01    0,000000000e+00    0,000000000e+00    0,000000000e+00    0,000000000e+00
      954000000   -1,444241107e-01   -5,310206115e-02   -3,933783472e-01    4,509729147e-01    0,000000000e+00    0,000000000e+00    0,000000000e+00    0,000000000e+00
      968000000   -1,310244948e-01   -2,199149691e-02   -9,410072863e-02    6,079059243e-01    0,000000000e+00    0,000000000e+00    0,000000000e+00    0,000000000e+00
      982000000   -1,131900176e-01   -1,093303785e-02    2,473428398e-01    5,759608150e-01    0,000000000e+00    0,000000000e+00    0,000000000e+00    0,000000000e+00
      996000000   -1,028506532e-01   -1,520848088e-02    5,165497065e-01    3,680272400e-01    0,000000000e+00    0,000000000e+00    0,000000000e+00    0,000000000e+00
     1010000000   -1,042499989e-01   -4,017714411e-03    6,329172254e-01    4,763172194e-02    0,000000000e+00    0,000000000e+00    0,000000000e+00    0,000000000e+00
     1024000000   -9,232686460e-02    4,117250443e-03    5,623810887e-01   -2,810930312e-01    0,000000000e+00    0,000000000e+00    0,000000000e+00    0,000000000e+00
     1038000000   -6,618004292e-02    5,883165868e-04    3,269385695e-01   -5,128939748e-01    0,000000000e+00    0,000000000e+00    0,000000000e+00    0,000000000e+00
     1052000000   -5,936166644e-02   -2,159792557e-02    1,728178002e-02   -5,874789953e-01    0,000000000e+00    0,000000000e+00    0,000000000e+00    0,000000000e+00
     1066000000   -6,761333346e-02   -4,532661289e-02   -2,841966450e-01   -4,917103648e-01    0,000000000e+00    0,000000000e+00    0,000000000e+00    0,000000000e+00
     1080000000   -8,516315371e-02   -4,120852053e-02   -4,919436574e-01   -2,520625591e-01    0,000000000e+00    0,000000000e+00    0,000000000e+00    0,000000000e+00
     1094000000   -9,064809978e-02   -2,773134038e-02   -5,312662721e-01    6,715266407e-02    0,000000000e+00    0,000000000e+00    0,000000000e+00    0,000000000e+00
     1108000000   -7,349434495e-02   -1,247841027e-02   -3,791682124e-01    3,467935920e-01    0,000000000e+00    0,000000000e+00    0,000000000e+00    0,000000000e+00
     1122000000   -3,905812278e-02   -2,773001231e-02   -1,112332940e-01    4,873029292e-01    0,000000000e+00    0,000000000e+00    0,000000000e+00    0,000000000e+00
     1136000000   -3,332939744e-02   -7,183756679e-02    1,860415637e-01    4,595506489e-01    0,000000000e+00    0,000000000e+00    0,000000000e+00    0,000000000e+00
     1150000000   -5,565708131e-02   -1,219115183e-01    4,189885855e-01    2,841525376e-01    0,000000000e+00    0,000000000e+00    0,000000000e+00    0,000000000e+00
     1164000000   -1,207266003e-01   -1,450132430e-01    5,383715034e-01    8,608316071e-03    0,000000000e+00    0,000000000e+00    0,000000000e+00    0,000000000e+00
     1178000000   -1,904301643e-01   -1,230743974e-01    4,993591905e-01   -3,085374832e-01    0,000000000e+00    0,000000000e+00    0,000000000e+00    0,000000000e+00
     1192000000   -2,396099865e-01   -6,499942392e-02    2,736681104e-01   -5,698931217e-01    0,000000000e+00    0,000000000e+00    0,000000000e+00    0,000000000e+00
     1206000000   -2,432721853e-01    1,080250833e-02   -6,373057514e-02   -6,621313691e-01    0,000000000e+00    0,000000000e+00    0,000000000e+00    0,000000000e+00
     1220000000   -2,017768472e-01    7,386016846e-02   -3,970722258e-01   -5,480017662e-01    0,000000000e+00    0,000000000e+00    0,000000000e+00    0,000000000e+00
     1234000000   -1,456521153e-01    1,103795022e-01   -6,062845588e-01   -2,689942122e-01    0,000000000e+00    0,000000000e+00    0,000000000e+00    0,000000000e+00
     1248000000   -7,454872876e-02    1,111556217e-01   -6,301516891e-01    6,360062957e-02    0,000000000e+00    0,000000000e+00    0,000000000e+00    0,000000000e+00
     1262000000   -1,054794248e-02    7,216558605e-02   -4,765799344e-01    3,448488116e-01    0,000000000e+00    0,000000000e+00    0,000000000e+00    0,000000000e+00
     1276000000    2,980528213e-02    6,837959867e-03   -2,263906002e-01    5,167385936e-01    0,000000000e+00    0,000000000e+00    0,000000000e+00    0,000000000e+00
     1290000000    3,100117855e-02   -8,449602872e-02    6,808776408e-02    5,352890491e-01    0,000000000e+00    0,000000000e+00    0,000000000e+00    0,000000000e+00
     1304000000   -1,746315137e-02   -1,743921340e-01    3,391484320e-01    4,336548448e-01    0,000000000e+00    0,000000000e+00    0,000000000e+00    0,000000000e+00
     1318000000   -1,213082001e-01   -2,210274637e-01    5,487086177e-01    2,069585472e-01    0,000000000e+00    0,000000000e+00    0,000000000e+00    0,000000000e+00
     1332000000   -2,455733567e-01   -2,002750635e-01    6,116783619e-01   -1,114762947e-01    0,000000000e+00    0,000000000e+00    0,000000000e+00    0,000000000e+00
     1346000000   -3,316268325e-01   -1,021489054e-01    4,820942283e-01   -4,325490594e-01    0,000000000e+00    0,000000000e+00    0,000000000e+00    0,000000000e+00
     1360000000   -3,456420600e-01    1,731750369e-02    1,836340427e-01   -6,036328673e-01    0,000000000e+00    0,000000000e+00    0,000000000e+00    0,000000000e+00
     1374000000   -2,920561731e-01    1,083646715e-01   -1,479244530e-01   -5,624611974e-01    0,000000000e+00    0,000000000e+00    0,000000000e+00    0,000000000e+00
     1388000000   -2,150795609e-01    1,442009658e-01   -3,759506047e-01   -3,575709760e-01    0,000000000e+00    0,000000000e+00    0,000000000e+00    0,000000000e+00
     1402000000   -1,473769695e-01    1,509292424e-01   -4,530028403e-01   -6,626092643e-02    0,000000000e+00    0,000000000e+00    0,000000000e+00    0,000000000e+00
     1416000000   -8,660487831e-02    1,280782223e-01   -3,565850556e-01    2,344907522e-01    0,000000000e+00    0,000000000e+00    0,000000000e+00    0,000000000e+00
     1430000000   -3,613878414e-02    7,430393994e-02   -1,168859303e-01    4,092534184e-01    0,000000000e+00    0,000000000e+00    0,000000000e+00    0,000000000e+00
     1444000000   -1,831154898e-02    4,648631904e-03    1,587531567e-01    4,915219545e-01    0,000000000e+00    0,000000000e+00    0,000000000e+00    0,000000000e+00
     1458000000   -5,443181098e-02   -7,945473492e-02    4,483483434e-01    4,361066818e-01    0,000000000e+00    0,000000000e+00    0,000000000e+00    0,000000000e+00
     1472000000   -1,308181435e-01   -1,336604059e-01    7,144983411e-01    2,287776172e-01    0,000000000e+00    0,000000000e+00    0,000000000e+00    0,000000000e+00
     1486000000   -2,326049656e-01   -1,303853393e-01    8,488870263e-01   -8,242976665e-02    0,000000000e+00    0,000000000e+00    0,000000000e+00    0,000000000e+00
     1500000000   -2,946071029e-01   -5,388587341e-02    7,704874873e-01   -4,402252734e-01    0,000000000e+00    0,000000000e+00    0,000000000e+00    0,000000000e+00
