! NanoVNA-App
! Date: 2025-09-26 09:45:07
! Start: 100MHz Stop: 1,5GHz Points: 101
! S-Parameter data: F S11 S21 S12 S22
# Hz S RI R 50
!     Frequency           S11_Real           S11_Imag           S21_Real           S21_Imag           S12_Real           S12_Imag           S22_Real           S22_Imag
      100000000    3,042229079e-02    2,814329043e-02    4,339144528e-01   -6,702149510e-01    0,000000000e+00    0,000000000e+00    0,000000000e+00    0,000000000e+00
      114000000    5,646204948e-02    5,455775652e-03    5,956184585e-03   -7,920034528e-01    0,000000000e+00    0,000000000e+00    0,000000000e+00    0,000000000e+00
      128000000    6,606720388e-02   -3,716327995e-02   -4,124537706e-01   -6,708446145e-01    0,000000000e+00    0,000000000e+00    0,000000000e+00    0,000000000e+00
      142000000    4,407331720e-02   -8,275997639e-02   -7,047859430e-01   -3,514505029e-01    0,000000000e+00    0,000000000e+00    0,000000000e+00    0,000000000e+00
      156000000   -5,243805703e-03   -1,050541699e-01   -7,876628637e-01    7,697487622e-02    0,000000000e+00    0,000000000e+00    0,000000000e+00    0,000000000e+00
      170000000   -5,628440529e-02   -8,942453563e-02   -6,263174415e-01    4,897125959e-01    0,000000000e+00    0,000000000e+00    0,000000000e+00    0,000000000e+00
      184000000   -8,205529302e-02   -4,946172237e-02   -2,622359097e-01    7,527588010e-01    0,000000000e+00    0,000000000e+00    0,000000000e+00    0,000000000e+00
      198000000   -7,859315723e-02   -1,132675260e-02    1,867556572e-01    7,731385827e-01    0,000000000e+00    0,000000000e+00    0,000000000e+00    0,000000000e+00
      212000000   -6,211676076e-02    1,222098153e-02    5,720127225e-01    5,472572446e-01    0,000000000e+00    0,000000000e+00    0,000000000e+00    0,000000000e+00
      226000000   -4,367632046e-02    2,728564665e-02    7,725026011e-01    1,518012732e-01    0,000000000e+00    0,000000000e+00    0,000000000e+00    0,000000000e+00
      240000000   -1,854160614e-02    3,858267888e-02    7,271318436e-01   -2,849126160e-01    0,000000000e+00    0,000000000e+00    0,000000000e+00    0,000000000e+00
      254000000    1,714610308e-02    3,533962369e-02    4,570283592e-01   -6,222355366e-01    0,000000000e+00    0,000000000e+00    0,000000000e+00    0,000000000e+00
      268000000    4,875881225e-02    5,735912826e-03    5,694618821e-02   -7,616192698e-01    0,000000000e+00    0,000000000e+00    0,000000000e+00    0,000000000e+00
      282000000    5,340016633e-02   -4,161332920e-02   -3,514347076e-01   -6,724562645e-01    0,000000000e+00    0,000000000e+00    0,000000000e+00    0,000000000e+00
      296000000    2,420476824e-02   -7,881403714e-02   -6,545779705e-01   -3,848557174e-01    0,000000000e+00    0,000000000e+00    0,000000000e+00    0,000000000e+00
      310000000   -1,703739166e-02   -8,268831670e-02   -7,656834126e-01    2,444981597e-02    0,000000000e+00    0,000000000e+00    0,000000000e+00    0,000000000e+00
      324000000   -4,042920843e-02   -5,918871239e-02   -6,323024035e-01    4,347069860e-01    0,000000000e+00    0,000000000e+00    0,000000000e+00    0,000000000e+00
      338000000   -3,329446912e-02   -3,798350319e-02   -2,944021523e-01    7,020472884e-01    0,000000000e+00    0,000000000e+00    0,000000000e+00    0,000000000e+00
      352000000   -1,790552028e-02   -4,214302823e-02    1,278599203e-01    7,443523407e-01    0,000000000e+00    0,000000000e+00    0,000000000e+00    0,000000000e+00
      366000000   -2,094029449e-02   -6,215834990e-02    5,023514032e-01    5,546899438e-01    0,000000000e+00    0,000000000e+00    0,000000000e+00    0,000000000e+00
      380000000   -4,560024291e-02   -7,086612284e-02    7,173827291e-01    1,975126266e-01    0,000000000e+00    0,000000000e+00    0,000000000e+00    0,000000000e+00
      394000000   -6,964932382e-02   -5,546851456e-02    7,072063684e-01   -2,218551189e-01    0,000000000e+00    0,000000000e+00    0,000000000e+00    0,000000000e+00
      408000000   -7,370244712e-02   -2,960233763e-02    4,703090191e-01   -5,666248798e-01    0,000000000e+00    0,000000000e+00    0,000000000e+00    0,000000000e+00
      422000000   -6,205854192e-02   -1,464697812e-02    8,845452219e-02   -7,258492112e-01    0,000000000e+00    0,000000000e+00    0,000000000e+00    0,000000000e+00
      436000000   -5,406368896e-02   -1,057203114e-02   -3,123050630e-01   -6,516055465e-01    0,000000000e+00    0,000000000e+00    0,000000000e+00    0,000000000e+00
      450000000   -5,253341049e-02   -1,110561425e-03   -6,078969240e-01   -3,732421696e-01    0,000000000e+00    0,000000000e+00    0,000000000e+00    0,000000000e+00
      464000000   -3,810154274e-02    1,864705049e-02   -6,999704242e-01    1,902277768e-02    0,000000000e+00    0,000000000e+00    0,000000000e+00    0,000000000e+00
      478000000    1,535979216e-03    2,620512433e-02   -5,605406165e-01    3,866097331e-01    0,000000000e+00    0,000000000e+00    0,000000000e+00    0,000000000e+00
      492000000    4,570810869e-02   -4,414025228e-03   -2,595262825e-01    6,067410111e-01    0,000000000e+00    0,000000000e+00    0,000000000e+00    0,000000000e+00
      506000000    5,614423752e-02   -6,672540307e-02    9,076000750e-02    6,364793777e-01    0,000000000e+00    0,000000000e+00    0,000000000e+00    0,000000000e+00
      520000000    1,446699724e-02   -1,227953956e-01    3,979150057e-01    4,935576618e-01    0,000000000e+00    0,000000000e+00    0,000000000e+00    0,000000000e+00
      534000000   -5,221102387e-02   -1,331848204e-01    6,028314233e-01    2,217553258e-01    0,000000000e+00    0,000000000e+00    0,000000000e+00    0,000000000e+00
      548000000   -1,013843045e-01   -9,558184445e-02    6,348939538e-01   -1,284867972e-01    0,000000000e+00    0,000000000e+00    0,000000000e+00    0,000000000e+00
      562000000   -1,052514166e-01   -4,633681104e-02    4,687264562e-01   -4,497597218e-01    0,000000000e+00    0,000000000e+00    0,000000000e+00    0,000000000e+00
      576000000   -8,055554330e-02   -2,431204356e-02    1,517752856e-01   -6,276986003e-01    0,000000000e+00    0,000000000e+00    0,000000000e+00    0,000000000e+00
      590000000   -6,379089504e-02   -3,263538703e-02   -2,078569531e-01   -6,165264249e-01    0,000000000e+00    0,000000000e+00    0,000000000e+00    0,000000000e+00
      604000000   -7,207984477e-02   -4,138243198e-02   -5,022663474e-01   -4,048608243e-01    0,000000000e+00    0,000000000e+00    0,000000000e+00    0,000000000e+00
      618000000   -8,795078099e-02   -2,897539549e-02   -6,422104239e-01   -6,930439919e-02    0,000000000e+00    0,000000000e+00    0,000000000e+00    0,000000000e+00
      632000000   -8,267490566e-02    8,201378514e-04   -5,754169226e-01    2,890961468e-01    0,000000000e+00    0,000000000e+00    0,000000000e+00    0,000000000e+00
      646000000   -5,271599814e-02    1,854471304e-02   -3,259414136e-01    5,481272936e-01    0,000000000e+00    0,000000000e+00    0,000000000e+00    0,000000000e+00
      660000000   -1,909800060e-02    6,117770448e-03    1,338656154e-02    6,277558804e-01    0,000000000e+00    0,000000000e+00    0,000000000e+00    0,000000000e+00
      674000000   -6,720331032e-03   -2,384766005e-02    3,367434740e-01    5,204285979e-01    0,000000000e+00    0,000000000e+00    0,000000000e+00    0,000000000e+00
      688000000   -1,639869250e-02   -4,686770216e-02    5,548768044e-01    2,616292536e-01    0,000000000e+00    0,000000000e+00    0,000000000e+00    0,000000000e+00
      702000000   -2,879543602e-02   -5,219161510e-02    6,032996178e-01   -7,344116271e-02    0,000000000e+00    0,000000000e+00    0,000000000e+00    0,000000000e+00
      716000000   -2,822654694e-02   -5,400384590e-02    4,597525299e-01   -3,838865757e-01    0,000000000e+00    0,000000000e+00    0,000000000e+00    0,000000000e+00
      730000000   -2,395733632e-02   -6,806592643e-02    1,781476736e-01   -5,628942251e-01    0,000000000e+00    0,000000000e+00    0,000000000e+00    0,000000000e+00
      744000000   -3,612665087e-02   -9,616710246e-02   -1,469953507e-01   -5,627992749e-01    0,000000000e+00    0,000000000e+00    0,000000000e+00    0,000000000e+00
      758000000   -7,202377170e-02   -1,137742996e-01   -4,211116135e-01   -3,983103037e-01    0,000000000e+00    0,000000000e+00    0,000000000e+00    0,000000000e+00
      772000000   -1,194345355e-01   -1,006807685e-01   -5,730015635e-01   -1,128720120e-01    0,000000000e+00    0,000000000e+00    0,000000000e+00    0,000000000e+00
      786000000   -1,478002667e-01   -5,761693791e-02   -5,487566590e-01    2,154879272e-01    0,000000000e+00    0,000000000e+00    0,000000000e+00    0,000000000e+00
      800000000   -1,414270997e-01   -1,045817044e-02   -3,469548523e-01    4,788847864e-01    0,000000000e+00    0,000000000e+00    0,000000000e+00    0,000000000e+00
      814000000   -1,122987941e-01    1,688414253e-02   -3,775508702e-02    5,872037411e-01    0,000000000e+00    0,000000000e+00    0,000000000e+00    0,000000000e+00
      828000000   -8,308763802e-02    2,187184244e-02    2,762771249e-01    5,166443586e-01    0,000000000e+00    0,000000000e+00    0,000000000e+00    0,000000000e+00
      842000000   -6,351988763e-02    2,051391639e-02    5,021134615e-01    2,910494506e-01    0,000000000e+00    0,000000000e+00    0,000000000e+00    0,000000000e+00
      856000000   -4,369511083e-02    2,042789012e-02    5,703734159e-01   -1,713906229e-02    0,000000000e+00    0,000000000e+00    0,000000000e+00    0,000000000e+00
      870000000   -1,437713671e-02    9,527048096e-03    4,643061459e-01   -3,066467345e-01    0,000000000e+00    0,000000000e+00    0,000000000e+00    0,000000000e+00
      884000000    1,147535536e-02   -2,271061949e-02    2,304296792e-01   -4,895907640e-01    0,000000000e+00    0,000000000e+00    0,000000000e+00    0,000000000e+00
      898000000    1,184098236e-02   -7,315233350e-02   -5,328449979e-02   -5,290613770e-01    0,000000000e+00    0,000000000e+00    0,000000000e+00    0,000000000e+00
      912000000   -2,836293355e-02   -1,160882786e-01   -3,633096516e-01   -3,990297318e-01    0,000000000e+00    0,000000000e+00    0,000000000e+00    0,000000000e+00
      926000000   -8,236760646e-02   -1,277142912e-01   -5,342980027e-01   -1,639015228e-01    0,000000000e+00    0,000000000e+00    0,000000000e+00    0,000000000e+00
      940000000   -1,319274157e-01   -9,980914742e-02   -5,585677028e-01    1,566220671e-01    0,000000000e+00    0,000000000e+00    0,000000000e+00    0,000000000e+00
      954000000   -1,422291994e-01   -5,594383925e-02   -3,962130845e-01    4,482762814e-01    0,000000000e+00    0,000000000e+00    0,000000000e+00    0,000000000e+00
      968000000   -1,294251680e-01   -2,068584040e-02   -9,346169978e-02    6,045780182e-01    0,000000000e+00    0,000000000e+00    0,000000000e+00    0,000000000e+00
      982000000   -1,106436253e-01   -1,190961339e-02    2,460326254e-01    5,751827359e-01    0,000000000e+00    0,000000000e+00    0,000000000e+00    0,000000000e+00
      996000000   -1,047582850e-01   -1,558904815e-02    5,170758367e-01    3,664563894e-01    0,000000000e+00    0,000000000e+00    0,000000000e+00    0,000000000e+00
     1010000000   -1,012189388e-01   -3,491340438e-03    6,337805390e-01    4,859280214e-02    0,000000000e+00    0,000000000e+00    0,000000000e+00    0,000000000e+00
     1024000000   -8,881811053e-02    5,077781156e-03    5,611993074e-01   -2,808922827e-01    0,000000000e+00    0,000000000e+00    0,000000000e+00    0,000000000e+00
     1038000000   -6,828401983e-02    1,482826308e-03    3,266881704e-01   -5,150893331e-01    0,000000000e+00    0,000000000e+00    0,000000000e+00    0,000000000e+00
     1052000000   -5,699170008e-02   -1,840770058e-02    1,833600737e-02   -5,875955820e-01    0,000000000e+00    0,000000000e+00    0,000000000e+00    0,000000000e+00
     1066000000   -6,327102333e-02   -4,343780130e-02   -2,855282128e-01   -4,933756292e-01    0,000000000e+00    0,000000000e+00    0,000000000e+00    0,000000000e+00
     1080000000   -8,279724419e-02   -4,377845675e-02   -4,943279922e-01   -2,539865077e-01    0,000000000e+00    0,000000000e+00    0,000000000e+00    0,000000000e+00
     1094000000   -9,422330558e-02   -2,661752701e-02   -5,316532850e-01    6,700838357e-02    0,000000000e+00    0,000000000e+00    0,000000000e+00    0,000000000e+00
     1108000000   -7,306756079e-02   -1,376334950e-02   -3,825528324e-01    3,452288508e-01    0,000000000e+00    0,000000000e+00    0,000000000e+00    0,000000000e+00
     1122000000   -4,208379239e-02   -3,002445772e-02   -1,096232384e-01    4,852623343e-01    0,000000000e+00    0,000000000e+00    0,000000000e+00    0,000000000e+00
     1136000000   -3,269500658e-02   -6,987309456e-02    1,850736439e-01    4,562146366e-01    0,000000000e+00    0,000000000e+00    0,000000000e+00    0,000000000e+00
     1150000000   -6,100692227e-02   -1,205852553e-01    4,189850092e-01    2,861928642e-01    0,000000000e+00    0,000000000e+00    0,000000000e+00    0,000000000e+00
     1164000000   -1,172825620e-01   -1,488299519e-01    5,427557230e-01    8,202986792e-03    0,000000000e+00    0,000000000e+00    0,000000000e+00    0,000000000e+00
     1178000000   -1,939660162e-01   -1,231999323e-01    5,019578338e-01   -3,073850274e-01    0,000000000e+00    0,000000000e+00    0,000000000e+00    0,000000000e+00
     1192000000   -2,351920754e-01   -6,482247263e-02    2,764447033e-01   -5,679627061e-01    0,000000000e+00    0,000000000e+00    0,000000000e+00    0,000000000e+00
     1206000000   -2,420253754e-01    1,312448084e-02   -6,492929906e-02   -6,585550904e-01    0,000000000e+00    0,000000000e+00    0,000000000e+00    0,000000000e+00
     1220000000   -1,992367059e-01    7,470634580e-02   -3,950213194e-01   -5,464289784e-01    0,000000000e+00    0,000000000e+00    0,000000000e+00    0,000000000e+00
     1234000000   -1,401018202e-01    1,079784110e-01   -6,077983975e-01   -2,733617127e-01    0,000000000e+00    0,000000000e+00    0,000000000e+00    0,000000000e+00
     1248000000   -7,605200261e-02    1,073574424e-01   -6,314014792e-01    6,363423914e-02    0,000000000e+00    0,000000000e+00    0,000000000e+00    0,000000000e+00
     1262000000   -7,400808390e-03    7,719992101e-02   -4,839419723e-01    3,516172767e-01    0,000000000e+00    0,000000000e+00    0,000000000e+00    0,000000000e+00
     1276000000    3,241674602e-02    8,552283980e-03   -2,227435112e-01    5,130552053e-01    0,000000000e+00    0,000000000e+00    0,000000000e+00    0,000000000e+00
     1290000000    3,295534849e-02   -8,355801553e-02    6,934734434e-02    5,352473259e-01    0,000000000e+00    0,000000000e+00    0,000000000e+00    0,000000000e+00
     1304000000   -1,922315545e-02   -1,730498970e-01    3,425827920e-01    4,288311303e-01    0,000000000e+00    0,000000000e+00    0,000000000e+00    0,000000000e+00
     1318000000   -1,195386127e-01   -2,248066366e-01    5,472851396e-01    2,061935365e-01    0,000000000e+00    0,000000000e+00    0,000000000e+00    0,000000000e+00
     1332000000   -2,478901446e-01   -2,071142346e-01    6,117329001e-01   -1,204895899e-01    0,000000000e+00    0,000000000e+00    0,000000000e+00    0,000000000e+00
     1346000000   -3,375754058e-01   -1,027048752e-01    4,790172577e-01   -4,332652986e-01    0,000000000e+00    0,000000000e+00    0,000000000e+00    0,000000000e+00
     1360000000   -3,509986699e-01    1,411334239e-02    1,831578165e-01   -6,040052772e-01    0,000000000e+00    0,000000000e+00    0,000000000e+00    0,000000000e+00
     1374000000   -3,031066954e-01    1,020428240e-01   -1,512566805e-01   -5,768575668e-01    0,000000000e+00    0,000000000e+00    0,000000000e+00    0,000000000e+00
     1388000000   -2,211689949e-01    1,463513970e-01   -3,772263527e-01   -3,558271527e-01    0,000000000e+00    0,000000000e+00    0,000000000e+00    0,000000000e+00
     1402000000   -1,471188217e-01    1,506865770e-01   -4,573286772e-01   -5,849440023e-02    0,000000000e+00    0,000000000e+00    0,000000000e+00    0,000000000e+00
     1416000000   -8,465561271e-02    1,264574379e-01   -3,526747823e-01    2,212410569e-01    0,000000000e+00    0,000000000e+00    0,000000000e+00    0,000000000e+00
     1430000000   -3,826545179e-02    7,594453543e-02   -1,086941436e-01    4,241249263e-01    0,000000000e+00    0,000000000e+00    0,000000000e+00    0,000000000e+00
     1444000000   -2,211448178e-02    1,842604601e-03    1,491813660e-01    4,947504103e-01    0,000000000e+00    0,000000000e+00    0,000000000e+00    0,000000000e+00
     1458000000   -4,690378159e-02   -8,044364303e-02    4,620039165e-01    4,415213764e-01    0,000000000e+00    0,000000000e+00    0,000000000e+00    0,000000000e+00
     1472000000   -1,287179738e-01   -1,319808960e-01    7,222071290e-01    2,411536574e-01    0,000000000e+00    0,000000000e+00    0,000000000e+00    0,000000000e+00
     1486000000   -2,286608666e-01   -1,255606562e-01    8,671561480e-01   -1,058148742e-01    0,000000000e+00    0,000000000e+00    0,000000000e+00    0,000000000e+00
     1500000000   -3,010092378e-01   -5,247286335e-02    7,527018785e-01   -4,458148181e-01    0,000000000e+00    0,000000000e+00    0,000000000e+00    0,000000000e+00
