! NanoVNA-App
! Date: 2025-09-26 09:45:30
! Start: 100MHz Stop: 1,5GHz Points: 101
! S-Parameter data: F S11 S21 S12 S22
# Hz S RI R 50
!     Frequency           S11_Real           S11_Imag           S21_Real           S21_Imag           S12_Real           S12_Imag           S22_Real           S22_Imag
      100000000    3,044489957e-02    2,814599685e-02    4,339675903e-01   -6,701712608e-01    0,000000000e+00    0,000000000e+00    0,000000000e+00    0,000000000e+00
      114000000    5,651580915e-02    5,453102291e-03    5,919328425e-03   -7,919641733e-01    0,000000000e+00    0,000000000e+00    0,000000000e+00    0,000000000e+00
      128000000    6,615390629e-02   -3,719059378e-02   -4,126373827e-01   -6,711317897e-01    0,000000000e+00    0,000000000e+00    0,000000000e+00    0,000000000e+00
      142000000    4,412154108e-02   -8,282214403e-02   -7,049481273e-01   -3,518546224e-01    0,000000000e+00    0,000000000e+00    0,000000000e+00    0,000000000e+00
      156000000   -5,552550778e-03   -1,048464701e-01   -7,867400646e-01    7,638564706e-02    0,000000000e+00    0,000000000e+00    0,000000000e+00    0,000000000e+00
      170000000   -5,630024523e-02   -8,945857733e-02   -6,265454888e-01    4,899474382e-01    0,000000000e+00    0,000000000e+00    0,000000000e+00    0,000000000e+00
      184000000   -8,206059039e-02   -4,941286519e-02   -2,623737156e-01    7,527822852e-01    0,000000000e+00    0,000000000e+00    0,000000000e+00    0,000000000e+00
      198000000   -7,860784233e-02   -1,132387295e-02    1,869319826e-01    7,733413577e-01    0,000000000e+00    0,000000000e+00    0,000000000e+00    0,000000000e+00
      212000000   -6,216119602e-02    1,226657350e-02    5,719171762e-01    5,474386811e-01    0,000000000e+00    0,000000000e+00    0,000000000e+00    0,000000000e+00
      226000000   -4,371808097e-02    2,723210491e-02    7,725421190e-01    1,519413143e-01    0,000000000e+00    0,000000000e+00    0,000000000e+00    0,000000000e+00
      240000000   -1,854101568e-02    3,858558834e-02    7,271230817e-01   -2,848800421e-01    0,000000000e+00    0,000000000e+00    0,000000000e+00    0,000000000e+00
      254000000    1,715050824e-02    3,537487984e-02    4,570025206e-01   -6,222314835e-01    0,000000000e+00    0,000000000e+00    0,000000000e+00    0,000000000e+00
      268000000    4,879908636e-02    5,739453249e-03    5,710907653e-02   -7,614917159e-01    0,000000000e+00    0,000000000e+00    0,000000000e+00    0,000000000e+00
      282000000    5,333557725e-02   -4,153153673e-02   -3,513258398e-01   -6,717516780e-01    0,000000000e+00    0,000000000e+00    0,000000000e+00    0,000000000e+00
      296000000    2,427829243e-02   -7,885561138e-02   -6,542411447e-01   -3,844912350e-01    0,000000000e+00    0,000000000e+00    0,000000000e+00    0,000000000e+00
      310000000   -1,696172170e-02   -8,293801546e-02   -7,646846771e-01    2,325172722e-02    0,000000000e+00    0,000000000e+00    0,000000000e+00    0,000000000e+00
      324000000   -4,046026245e-02   -5,907514319e-02   -6,318387985e-01    4,351387024e-01    0,000000000e+00    0,000000000e+00    0,000000000e+00    0,000000000e+00
      338000000   -3,337310255e-02   -3,826698288e-02   -2,946214676e-01    7,053580880e-01    0,000000000e+00    0,000000000e+00    0,000000000e+00    0,000000000e+00
      352000000   -1,797791384e-02   -4,206437990e-02    1,295806617e-01    7,437754869e-01    0,000000000e+00    0,000000000e+00    0,000000000e+00    0,000000000e+00
      366000000   -2,078574896e-02   -6,238151342e-02    5,030242205e-01    5,539001226e-01    0,000000000e+00    0,000000000e+00    0,000000000e+00    0,000000000e+00
      380000000   -4,518284649e-02   -7,094532996e-02    7,174996138e-01    1,968533993e-01    0,000000000e+00    0,000000000e+00    0,000000000e+00    0,000000000e+00
      394000000   -6,971857697e-02   -5,560743809e-02    7,062456012e-01   -2,219883651e-01    0,000000000e+00    0,000000000e+00    0,000000000e+00    0,000000000e+00
      408000000   -7,323646545e-02   -2,980187349e-02    4,708796144e-01   -5,671712160e-01    0,000000000e+00    0,000000000e+00    0,000000000e+00    0,000000000e+00
      422000000   -6,211460754e-02   -1,450557262e-02    8,831115067e-02   -7,241865993e-01    0,000000000e+00    0,000000000e+00    0,000000000e+00    0,000000000e+00
      436000000   -5,421494693e-02   -1,061618142e-02   -3,125389814e-01   -6,523280144e-01    0,000000000e+00    0,000000000e+00    0,000000000e+00    0,000000000e+00
      450000000   -5,261523649e-02   -1,049317303e-03   -6,078201532e-01   -3,728816509e-01    0,000000000e+00    0,000000000e+00    0,000000000e+00    0,000000000e+00
      464000000   -3,839516267e-02    1,867957227e-02   -6,998801827e-01    1,927404478e-02    0,000000000e+00    0,000000000e+00    0,000000000e+00    0,000000000e+00
      478000000    1,372474944e-03    2,677466534e-02   -5,608372688e-01    3,858453631e-01    0,000000000e+00    0,000000000e+00    0,000000000e+00    0,000000000e+00
      492000000    4,578911886e-02   -4,336855374e-03   -2,601312697e-01    6,058751941e-01    0,000000000e+00    0,000000000e+00    0,000000000e+00    0,000000000e+00
      506000000    5,542526394e-02   -6,757856905e-02    8,958695084e-02    6,367997527e-01    0,000000000e+00    0,000000000e+00    0,000000000e+00    0,000000000e+00
      520000000    1,457248256e-02   -1,217527911e-01    3,997060657e-01    4,958988428e-01    0,000000000e+00    0,000000000e+00    0,000000000e+00    0,000000000e+00
      534000000   -5,268127471e-02   -1,333522201e-01    6,023772955e-01    2,213585526e-01    0,000000000e+00    0,000000000e+00    0,000000000e+00    0,000000000e+00
      548000000   -1,010901779e-01   -9,576239437e-02    6,355606914e-01   -1,288048476e-01    0,000000000e+00    0,000000000e+00    0,000000000e+00    0,000000000e+00
      562000000   -1,053081304e-01   -4,677662253e-02    4,687335491e-01   -4,503083229e-01    0,000000000e+00    0,000000000e+00    0,000000000e+00    0,000000000e+00
      576000000   -8,048889041e-02   -2,503893338e-02    1,517625153e-01   -6,285319924e-01    0,000000000e+00    0,000000000e+00    0,000000000e+00    0,000000000e+00
      590000000   -6,413242221e-02   -3,267626464e-02   -2,074722201e-01   -6,137196422e-01    0,000000000e+00    0,000000000e+00    0,000000000e+00    0,000000000e+00
      604000000   -7,231602073e-02   -4,178997129e-02   -5,034475923e-01   -4,054457545e-01    0,000000000e+00    0,000000000e+00    0,000000000e+00    0,000000000e+00
      618000000   -8,850970864e-02   -2,836567536e-02   -6,421210766e-01   -6,925940514e-02    0,000000000e+00    0,000000000e+00    0,000000000e+00    0,000000000e+00
      632000000   -8,362774551e-02    1,303514931e-03   -5,748355389e-01    2,893489003e-01    0,000000000e+00    0,000000000e+00    0,000000000e+00    0,000000000e+00
      646000000   -5,167452991e-02    1,858139783e-02   -3,254944980e-01    5,485067368e-01    0,000000000e+00    0,000000000e+00    0,000000000e+00    0,000000000e+00
      660000000   -1,858755760e-02    6,002218463e-03    1,234593987e-02    6,267300844e-01    0,000000000e+00    0,000000000e+00    0,000000000e+00    0,000000000e+00
      674000000   -5,719645415e-03   -2,344601415e-02    3,363859355e-01    5,213915706e-01    0,000000000e+00    0,000000000e+00    0,000000000e+00    0,000000000e+00
      688000000   -1,654806361e-02   -4,660055414e-02    5,553788543e-01    2,619320154e-01    0,000000000e+00    0,000000000e+00    0,000000000e+00    0,000000000e+00
      702000000   -2,825111337e-02   -5,149981380e-02    6,020023823e-01   -7,681161165e-02    0,000000000e+00    0,000000000e+00    0,000000000e+00    0,000000000e+00
      716000000   -2,778213657e-02   -5,306018144e-02    4,593027532e-01   -3,853225112e-01    0,000000000e+00    0,000000000e+00    0,000000000e+00    0,000000000e+00
      730000000   -2,293943800e-02   -6,856086850e-02    1,771684587e-01   -5,606813431e-01    0,000000000e+00    0,000000000e+00    0,000000000e+00    0,000000000e+00
      744000000   -3,597613797e-02   -9,619554132e-02   -1,459526569e-01   -5,628798008e-01    0,000000000e+00    0,000000000e+00    0,000000000e+00    0,000000000e+00
      758000000   -7,218645513e-02   -1,133382395e-01   -4,212097824e-01   -3,982409835e-01    0,000000000e+00    0,000000000e+00    0,000000000e+00    0,000000000e+00
      772000000   -1,200834215e-01   -1,013443545e-01   -5,727675557e-01   -1,125120744e-01    0,000000000e+00    0,000000000e+00    0,000000000e+00    0,000000000e+00
      786000000   -1,486255825e-01   -5,844659731e-02   -5,477946997e-01    2,158504725e-01    0,000000000e+00    0,000000000e+00    0,000000000e+00    0,000000000e+00
      800000000   -1,413943172e-01   -1,067720167e-02   -3,472810090e-01    4,790962040e-01    0,000000000e+00    0,000000000e+00    0,000000000e+00    0,000000000e+00
      814000000   -1,119858697e-01    1,665910892e-02   -3,792456165e-02    5,866705775e-01    0,000000000e+00    0,000000000e+00    0,000000000e+00    0,000000000e+00
      828000000   -8,377034217e-02    2,231919207e-02    2,772534192e-01    5,171477795e-01    0,000000000e+00    0,000000000e+00    0,000000000e+00    0,000000000e+00
      842000000   -6,320708245e-02    2,032104135e-02    5,020515323e-01    2,908827662e-01    0,000000000e+00    0,000000000e+00    0,000000000e+00    0,000000000e+00
      856000000   -4,398779199e-02    1,999549940e-02    5,709814429e-01   -1,645247079e-02    0,000000000e+00    0,000000000e+00    0,000000000e+00    0,000000000e+00
      870000000   -1,520729717e-02    9,630464949e-03    4,645939767e-01   -3,065161705e-01    0,000000000e+00    0,000000000e+00    0,000000000e+00    0,000000000e+00
      884000000    1,057626680e-02   -2,225700952e-02    2,318973839e-01   -4,894366264e-01    0,000000000e+00    0,000000000e+00    0,000000000e+00    0,000000000e+00
      898000000    1,174580958e-02   -7,341156900e-02   -5,109049752e-02   -5,294802785e-01    0,000000000e+00    0,000000000e+00    0,000000000e+00    0,000000000e+00
      912000000   -2,825281210e-02   -1,154775843e-01   -3,513797522e-01   -4,074688256e-01    0,000000000e+00    0,000000000e+00    0,000000000e+00    0,000000000e+00
      926000000   -8,125030249e-02   -1,267829090e-01   -5,332211256e-01   -1,627895236e-01    0,000000000e+00    0,000000000e+00    0,000000000e+00    0,000000000e+00
      940000000   -1,321826875e-01   -9,961871058e-02   -5,578085780e-01    1,577548832e-01    0,000000000e+00    0,000000000e+00    0,000000000e+00    0,000000000e+00
      954000000   -1,490260065e-01   -5,370908976e-02   -3,954821825e-01    4,494243264e-01    0,000000000e+00    0,000000000e+00    0,000000000e+00    0,000000000e+00
      968000000   -1,326047778e-01   -2,522324026e-02   -9,335280210e-02    6,069484353e-01    0,000000000e+00    0,000000000e+00    0,000000000e+00    0,000000000e+00
      982000000   -1,110462248e-01   -1,250088401e-02    2,485612333e-01    5,758866072e-01    0,000000000e+00    0,000000000e+00    0,000000000e+00    0,000000000e+00
      996000000   -1,059085354e-01   -1,510800049e-02    5,164821148e-01    3,657493591e-01    0,000000000e+00    0,000000000e+00    0,000000000e+00    0,000000000e+00
     1010000000   -1,011335105e-01   -4,282406531e-03    6,357949972e-01    4,951756820e-02    0,000000000e+00    0,000000000e+00    0,000000000e+00    0,000000000e+00
     1024000000   -9,017643332e-02    4,334641621e-03    5,604836941e-01   -2,806054056e-01    0,000000000e+00    0,000000000e+00    0,000000000e+00    0,000000000e+00
     1038000000   -6,999293715e-02    1,894530724e-03    3,281108439e-01   -5,144876242e-01    0,000000000e+00    0,000000000e+00    0,000000000e+00    0,000000000e+00
     1052000000   -5,965676531e-02   -1,871903986e-02    1,600564830e-02   -5,897498131e-01    0,000000000e+00    0,000000000e+00    0,000000000e+00    0,000000000e+00
     1066000000   -6,859485060e-02   -4,023623466e-02   -2,857466340e-01   -4,971253872e-01    0,000000000e+00    0,000000000e+00    0,000000000e+00    0,000000000e+00
     1080000000   -8,617840707e-02   -4,089313000e-02   -4,911633432e-01   -2,526074350e-01    0,000000000e+00    0,000000000e+00    0,000000000e+00    0,000000000e+00
     1094000000   -9,434805810e-02   -2,393225953e-02   -5,321333408e-01    6,628400832e-02    0,000000000e+00    0,000000000e+00    0,000000000e+00    0,000000000e+00
     1108000000   -7,495256513e-02   -9,928040206e-03   -3,819535375e-01    3,454547524e-01    0,000000000e+00    0,000000000e+00    0,000000000e+00    0,000000000e+00
     1122000000   -3,771363571e-02   -2,815887704e-02   -1,081604362e-01    4,862017334e-01    0,000000000e+00    0,000000000e+00    0,000000000e+00    0,000000000e+00
     1136000000   -3,312001377e-02   -7,186163962e-02    1,860989779e-01    4,584429264e-01    0,000000000e+00    0,000000000e+00    0,000000000e+00    0,000000000e+00
     1150000000   -6,171743199e-02   -1,227980629e-01    4,195798337e-01    2,850437462e-01    0,000000000e+00    0,000000000e+00    0,000000000e+00    0,000000000e+00
     1164000000   -1,177404970e-01   -1,464419365e-01    5,414854288e-01    8,488536812e-03    0,000000000e+00    0,000000000e+00    0,000000000e+00    0,000000000e+00
     1178000000   -1,889519840e-01   -1,252882332e-01    4,986810088e-01   -3,105510473e-01    0,000000000e+00    0,000000000e+00    0,000000000e+00    0,000000000e+00
     1192000000   -2,362256348e-01   -6,102014706e-02    2,761708200e-01   -5,695888996e-01    0,000000000e+00    0,000000000e+00    0,000000000e+00    0,000000000e+00
     1206000000   -2,379848659e-01    1,492166985e-02   -5,711888149e-02   -6,588766575e-01    0,000000000e+00    0,000000000e+00    0,000000000e+00    0,000000000e+00
     1220000000   -1,986170560e-01    7,599560916e-02   -3,960014284e-01   -5,503803492e-01    0,000000000e+00    0,000000000e+00    0,000000000e+00    0,000000000e+00
     1234000000   -1,455413103e-01    1,115131527e-01   -6,098852158e-01   -2,700632811e-01    0,000000000e+00    0,000000000e+00    0,000000000e+00    0,000000000e+00
     1248000000   -7,504448295e-02    1,132727638e-01   -6,324312687e-01    6,703093648e-02    0,000000000e+00    0,000000000e+00    0,000000000e+00    0,000000000e+00
     1262000000   -9,335290641e-03    7,721929252e-02   -4,788506925e-01    3,498455286e-01    0,000000000e+00    0,000000000e+00    0,000000000e+00    0,000000000e+00
     1276000000    3,165569529e-02    9,094457142e-03   -2,176587433e-01    5,137620568e-01    0,000000000e+00    0,000000000e+00    0,000000000e+00    0,000000000e+00
     1290000000    3,243039921e-02   -8,424180746e-02    6,801895052e-02    5,364028811e-01    0,000000000e+00    0,000000000e+00    0,000000000e+00    0,000000000e+00
     1304000000   -1,689297333e-02   -1,752293408e-01    3,437778950e-01    4,316917956e-01    0,000000000e+00    0,000000000e+00    0,000000000e+00    0,000000000e+00
     1318000000   -1,265632659e-01   -2,231174111e-01    5,450573564e-01    2,101097405e-01    0,000000000e+00    0,000000000e+00    0,000000000e+00    0,000000000e+00
     1332000000   -2,437024415e-01   -2,028416991e-01    6,187802553e-01   -1,150002033e-01    0,000000000e+00    0,000000000e+00    0,000000000e+00    0,000000000e+00
     1346000000   -3,346175849e-01   -1,059547812e-01    4,924399257e-01   -4,323646426e-01    0,000000000e+00    0,000000000e+00    0,000000000e+00    0,000000000e+00
     1360000000   -3,490184844e-01    1,683425158e-02    1,849106848e-01   -6,107334495e-01    0,000000000e+00    0,000000000e+00    0,000000000e+00    0,000000000e+00
     1374000000   -2,945016026e-01    1,032057703e-01   -1,443490088e-01   -5,768737197e-01    0,000000000e+00    0,000000000e+00    0,000000000e+00    0,000000000e+00
     1388000000   -2,223713100e-01    1,440915912e-01   -3,828629553e-01   -3,638620377e-01    0,000000000e+00    0,000000000e+00    0,000000000e+00    0,000000000e+00
     1402000000   -1,469179839e-01    1,508509517e-01   -4,473537207e-01   -6,132183596e-02    0,000000000e+00    0,000000000e+00    0,000000000e+00    0,000000000e+00
     1416000000   -8,894963562e-02    1,284253299e-01   -3,596655428e-01    2,284411192e-01    0,000000000e+00    0,000000000e+00    0,000000000e+00    0,000000000e+00
     1430000000   -3,437747806e-02    7,724364102e-02   -1,278387159e-01    4,160801172e-01    0,000000000e+00    0,000000000e+00    0,000000000e+00    0,000000000e+00
     1444000000   -2,057313360e-02   -1,957138767e-03    1,597567499e-01    4,986501634e-01    0,000000000e+00    0,000000000e+00    0,000000000e+00    0,000000000e+00
     1458000000   -5,791696161e-02   -8,267315477e-02    4,512222409e-01    4,293907881e-01    0,000000000e+00    0,000000000e+00    0,000000000e+00    0,000000000e+00
     1472000000   -1,316910982e-01   -1,379699558e-01    7,184911370e-01    2,385451943e-01    0,000000000e+00    0,000000000e+00    0,000000000e+00    0,000000000e+00
     1486000000   -2,325548679e-01   -1,239222363e-01    8,495400548e-01   -8,459798247e-02    0,000000000e+00    0,000000000e+00    0,000000000e+00    0,000000000e+00
     1500000000   -2,992292941e-01   -4,958071187e-02    7,592341900e-01   -4,520528913e-01    0,000000000e+00    0,000000000e+00    0,000000000e+00    0,000000000e+00
