! NanoVNA-App
! Date: 2025-09-26 09:45:08
! Start: 100MHz Stop: 1,5GHz Points: 101
! S-Parameter data: F S11 S21 S12 S22
# Hz S RI R 50
!     Frequency           S11_Real           S11_Imag           S21_Real           S21_Imag           S12_Real           S12_Imag           S22_Real           S22_Imag
      100000000    3,043328784e-02    2,813665383e-02    4,339584410e-01   -6,702120304e-01    0,000000000e+00    0,000000000e+00    0,000000000e+00    0,000000000e+00
      114000000    5,650025979e-02    5,443048198e-03    5,913265515e-03   -7,917699218e-01    0,000000000e+00    0,000000000e+00    0,000000000e+00    0,000000000e+00
      128000000    6,608534604e-02   -3,713067248e-02   -4,127590656e-01   -6,710334420e-01    0,000000000e+00    0,000000000e+00    0,000000000e+00    0,000000000e+00
      142000000    4,410804436e-02   -8,279071748e-02   -7,046956420e-01   -3,515322804e-01    0,000000000e+00    0,000000000e+00    0,000000000e+00    0,000000000e+00
      156000000   -5,821642000e-03   -1,043716967e-01   -7,859871387e-01    7,561865449e-02    0,000000000e+00    0,000000000e+00    0,000000000e+00    0,000000000e+00
      170000000   -5,630385503e-02   -8,952762932e-02   -6,267763376e-01    4,899967909e-01    0,000000000e+00    0,000000000e+00    0,000000000e+00    0,000000000e+00
      184000000   -8,206807077e-02   -4,944114760e-02   -2,622334957e-01    7,527837753e-01    0,000000000e+00    0,000000000e+00    0,000000000e+00    0,000000000e+00
      198000000   -7,857619971e-02   -1,131990552e-02    1,867057681e-01    7,733685970e-01    0,000000000e+00    0,000000000e+00    0,000000000e+00    0,000000000e+00
      212000000   -6,220208481e-02    1,216638833e-02    5,719225407e-01    5,473881960e-01    0,000000000e+00    0,000000000e+00    0,000000000e+00    0,000000000e+00
      226000000   -4,374429211e-02    2,723636664e-02    7,724144459e-01    1,517898142e-01    0,000000000e+00    0,000000000e+00    0,000000000e+00    0,000000000e+00
      240000000   -1,849476434e-02    3,860487789e-02    7,270398736e-01   -2,848935723e-01    0,000000000e+00    0,000000000e+00    0,000000000e+00    0,000000000e+00
      254000000    1,716966741e-02    3,538010269e-02    4,566910565e-01   -6,223025322e-01    0,000000000e+00    0,000000000e+00    0,000000000e+00    0,000000000e+00
      268000000    4,874770343e-02    5,732606165e-03    5,688356608e-02   -7,620001435e-01    0,000000000e+00    0,000000000e+00    0,000000000e+00    0,000000000e+00
      282000000    5,347023532e-02   -4,154107347e-02   -3,512430787e-01   -6,723417044e-01    0,000000000e+00    0,000000000e+00    0,000000000e+00    0,000000000e+00
      296000000    2,430161089e-02   -7,887095958e-02   -6,542352438e-01   -3,844253719e-01    0,000000000e+00    0,000000000e+00    0,000000000e+00    0,000000000e+00
      310000000   -1,670068130e-02   -8,277525753e-02   -7,640792131e-01    2,409536764e-02    0,000000000e+00    0,000000000e+00    0,000000000e+00    0,000000000e+00
      324000000   -4,017147049e-02   -5,901765823e-02   -6,319007277e-01    4,354684651e-01    0,000000000e+00    0,000000000e+00    0,000000000e+00    0,000000000e+00
      338000000   -3,340682760e-02   -3,778192773e-02   -2,923554480e-01    7,035301924e-01    0,000000000e+00    0,000000000e+00    0,000000000e+00    0,000000000e+00
      352000000   -1,785090007e-02   -4,196490720e-02    1,293772906e-01    7,439897060e-01    0,000000000e+00    0,000000000e+00    0,000000000e+00    0,000000000e+00
      366000000   -2,077752352e-02   -6,216124818e-02    5,023286343e-01    5,550376177e-01    0,000000000e+00    0,000000000e+00    0,000000000e+00    0,000000000e+00
      380000000   -4,554170743e-02   -7,081974298e-02    7,174519300e-01    1,972638816e-01    0,000000000e+00    0,000000000e+00    0,000000000e+00    0,000000000e+00
      394000000   -6,958997995e-02   -5,538131297e-02    7,066553235e-01   -2,221131027e-01    0,000000000e+00    0,000000000e+00    0,000000000e+00    0,000000000e+00
      408000000   -7,344567031e-02   -2,963685244e-02    4,699410498e-01   -5,656000376e-01    0,000000000e+00    0,000000000e+00    0,000000000e+00    0,000000000e+00
      422000000   -6,228819117e-02   -1,464735344e-02    8,864931017e-02   -7,250017524e-01    0,000000000e+00    0,000000000e+00    0,000000000e+00    0,000000000e+00
      436000000   -5,374184623e-02   -1,042140741e-02   -3,122480512e-01   -6,512356997e-01    0,000000000e+00    0,000000000e+00    0,000000000e+00    0,000000000e+00
      450000000   -5,277970433e-02   -1,321903081e-03   -6,082802415e-01   -3,737163246e-01    0,000000000e+00    0,000000000e+00    0,000000000e+00    0,000000000e+00
      464000000   -3,838720173e-02    1,865195483e-02   -7,005029917e-01    1,908125728e-02    0,000000000e+00    0,000000000e+00    0,000000000e+00    0,000000000e+00
      478000000    1,521212282e-03    2,669128776e-02   -5,609996915e-01    3,866026103e-01    0,000000000e+00    0,000000000e+00    0,000000000e+00    0,000000000e+00
      492000000    4,537005723e-02   -4,578684922e-03   -2,596920431e-01    6,059187055e-01    0,000000000e+00    0,000000000e+00    0,000000000e+00    0,000000000e+00
      506000000    5,554350466e-02   -6,732212752e-02    9,103047103e-02    6,369408965e-01    0,000000000e+00    0,000000000e+00    0,000000000e+00    0,000000000e+00
      520000000    1,567241922e-02   -1,224426553e-01    4,008171856e-01    4,991754293e-01    0,000000000e+00    0,000000000e+00    0,000000000e+00    0,000000000e+00
      534000000   -5,250807479e-02   -1,335617602e-01    6,023780704e-01    2,213170379e-01    0,000000000e+00    0,000000000e+00    0,000000000e+00    0,000000000e+00
      548000000   -1,014847979e-01   -9,597259760e-02    6,352602243e-01   -1,291901916e-01    0,000000000e+00    0,000000000e+00    0,000000000e+00    0,000000000e+00
      562000000   -1,050144881e-01   -4,691214487e-02    4,685356319e-01   -4,504104853e-01    0,000000000e+00    0,000000000e+00    0,000000000e+00    0,000000000e+00
      576000000   -7,998018712e-02   -2,472263016e-02    1,515326649e-01   -6,279475689e-01    0,000000000e+00    0,000000000e+00    0,000000000e+00    0,000000000e+00
      590000000   -6,404249370e-02   -3,282185644e-02   -2,081291676e-01   -6,146135330e-01    0,000000000e+00    0,000000000e+00    0,000000000e+00    0,000000000e+00
      604000000   -7,175275683e-02   -4,162380472e-02   -5,029035807e-01   -4,056161940e-01    0,000000000e+00    0,000000000e+00    0,000000000e+00    0,000000000e+00
      618000000   -8,743292838e-02   -2,826295607e-02   -6,416926384e-01   -6,962624192e-02    0,000000000e+00    0,000000000e+00    0,000000000e+00    0,000000000e+00
      632000000   -8,307431638e-02    1,525782980e-03   -5,749321580e-01    2,895981371e-01    0,000000000e+00    0,000000000e+00    0,000000000e+00    0,000000000e+00
      646000000   -5,212144926e-02    1,772590168e-02   -3,261612356e-01    5,470790267e-01    0,000000000e+00    0,000000000e+00    0,000000000e+00    0,000000000e+00
      660000000   -1,814014278e-02    5,384910852e-03    1,151025668e-02    6,275240779e-01    0,000000000e+00    0,000000000e+00    0,000000000e+00    0,000000000e+00
      674000000   -5,745262373e-03   -2,414858341e-02    3,359838128e-01    5,216518641e-01    0,000000000e+00    0,000000000e+00    0,000000000e+00    0,000000000e+00
      688000000   -1,636850461e-02   -4,649707675e-02    5,552568436e-01    2,615230680e-01    0,000000000e+00    0,000000000e+00    0,000000000e+00    0,000000000e+00
      702000000   -2,940015495e-02   -5,226568133e-02    6,043211222e-01   -7,431518286e-02    0,000000000e+00    0,000000000e+00    0,000000000e+00    0,000000000e+00
      716000000   -2,778799832e-02   -5,270347372e-02    4,595406950e-01   -3,841993511e-01    0,000000000e+00    0,000000000e+00    0,000000000e+00    0,000000000e+00
      730000000   -2,358058654e-02   -6,763187051e-02    1,778030694e-01   -5,623247027e-01    0,000000000e+00    0,000000000e+00    0,000000000e+00    0,000000000e+00
      744000000   -3,593436256e-02   -9,561417997e-02   -1,462971121e-01   -5,630875230e-01    0,000000000e+00    0,000000000e+00    0,000000000e+00    0,000000000e+00
      758000000   -7,238376141e-02   -1,144411564e-01   -4,215413928e-01   -3,979055882e-01    0,000000000e+00    0,000000000e+00    0,000000000e+00    0,000000000e+00
      772000000   -1,203587204e-01   -1,011073813e-01   -5,726932287e-01   -1,126105189e-01    0,000000000e+00    0,000000000e+00    0,000000000e+00    0,000000000e+00
      786000000   -1,485589743e-01   -5,821345001e-02   -5,477783680e-01    2,154845595e-01    0,000000000e+00    0,000000000e+00    0,000000000e+00    0,000000000e+00
      800000000   -1,414971799e-01   -1,079405751e-02   -3,469524086e-01    4,783220589e-01    0,000000000e+00    0,000000000e+00    0,000000000e+00    0,000000000e+00
      814000000   -1,118997484e-01    1,683615148e-02   -3,791654482e-02    5,872621536e-01    0,000000000e+00    0,000000000e+00    0,000000000e+00    0,000000000e+00
      828000000   -8,390512317e-02    2,232390828e-02    2,758471072e-01    5,162650943e-01    0,000000000e+00    0,000000000e+00    0,000000000e+00    0,000000000e+00
      842000000   -6,335108727e-02    2,037426829e-02    5,021875501e-01    2,916711569e-01    0,000000000e+00    0,000000000e+00    0,000000000e+00    0,000000000e+00
      856000000   -4,349589720e-02    2,025379427e-02    5,709568262e-01   -1,682093926e-02    0,000000000e+00    0,000000000e+00    0,000000000e+00    0,000000000e+00
      870000000   -1,493430045e-02    1,011485700e-02    4,644148350e-01   -3,058137894e-01    0,000000000e+00    0,000000000e+00    0,000000000e+00    0,000000000e+00
      884000000    1,054345351e-02   -2,293004282e-02    2,300564349e-01   -4,901995957e-01    0,000000000e+00    0,000000000e+00    0,000000000e+00    0,000000000e+00
      898000000    1,133101527e-02   -7,301335037e-02   -5,268812180e-02   -5,293703079e-01    0,000000000e+00    0,000000000e+00    0,000000000e+00    0,000000000e+00
      912000000   -2,836405113e-02   -1,170126274e-01   -3,575418591e-01   -4,017155766e-01    0,000000000e+00    0,000000000e+00    0,000000000e+00    0,000000000e+00
      926000000   -8,277395368e-02   -1,256617308e-01   -5,337729454e-01   -1,600931734e-01    0,000000000e+00    0,000000000e+00    0,000000000e+00    0,000000000e+00
      940000000   -1,295766085e-01   -1,020129547e-01   -5,577746034e-01    1,546792388e-01    0,000000000e+00    0,000000000e+00    0,000000000e+00    0,000000000e+00
      954000000   -1,447549015e-01   -5,770573393e-02   -3,945508003e-01    4,498353601e-01    0,000000000e+00    0,000000000e+00    0,000000000e+00    0,000000000e+00
      968000000   -1,328549981e-01   -2,134730667e-02   -9,300197661e-02    6,091119051e-01    0,000000000e+00    0,000000000e+00    0,000000000e+00    0,000000000e+00
      982000000   -1,144544855e-01   -1,247722004e-02    2,473280430e-01    5,778843164e-01    0,000000000e+00    0,000000000e+00    0,000000000e+00    0,000000000e+00
      996000000   -1,071414351e-01   -1,453910582e-02    5,168848634e-01    3,708589077e-01    0,000000000e+00    0,000000000e+00    0,000000000e+00    0,000000000e+00
     1010000000   -1,013041884e-01   -4,332494922e-03    6,350761056e-01    4,814618453e-02    0,000000000e+00    0,000000000e+00    0,000000000e+00    0,000000000e+00
     1024000000   -8,968447149e-02    4,429809749e-03    5,608582497e-01   -2,790244520e-01    0,000000000e+00    0,000000000e+00    0,000000000e+00    0,000000000e+00
     1038000000   -6,870595366e-02    1,504002023e-03    3,277781308e-01   -5,138221383e-01    0,000000000e+00    0,000000000e+00    0,000000000e+00    0,000000000e+00
     1052000000   -5,868500099e-02   -1,935596205e-02    1,835292391e-02   -5,894542336e-01    0,000000000e+00    0,000000000e+00    0,000000000e+00    0,000000000e+00
     1066000000   -6,380315125e-02   -4,487440363e-02   -2,874838114e-01   -4,975844324e-01    0,000000000e+00    0,000000000e+00    0,000000000e+00    0,000000000e+00
     1080000000   -8,763201535e-02   -4,204662517e-02   -4,939772785e-01   -2,523020208e-01    0,000000000e+00    0,000000000e+00    0,000000000e+00    0,000000000e+00
     1094000000   -9,529270232e-02   -2,572755143e-02   -5,317141414e-01    6,775678694e-02    0,000000000e+00    0,000000000e+00    0,000000000e+00    0,000000000e+00
     1108000000   -7,451683283e-02   -1,205907576e-02   -3,803196847e-01    3,484223783e-01    0,000000000e+00    0,000000000e+00    0,000000000e+00    0,000000000e+00
     1122000000   -3,935015202e-02   -2,582659386e-02   -1,088973805e-01    4,859109521e-01    0,000000000e+00    0,000000000e+00    0,000000000e+00    0,000000000e+00
     1136000000   -3,112234548e-02   -7,617899776e-02    1,827715039e-01    4,599681497e-01    0,000000000e+00    0,000000000e+00    0,000000000e+00    0,000000000e+00
     1150000000   -5,732918903e-02   -1,249476373e-01    4,209225774e-01    2,874995470e-01    0,000000000e+00    0,000000000e+00    0,000000000e+00    0,000000000e+00
     1164000000   -1,185397431e-01   -1,479067355e-01    5,416308641e-01    9,949335828e-03    0,000000000e+00    0,000000000e+00    0,000000000e+00    0,000000000e+00
     1178000000   -1,887706816e-01   -1,263154894e-01    4,979300201e-01   -3,073093891e-01    0,000000000e+00    0,000000000e+00    0,000000000e+00    0,000000000e+00
     1192000000   -2,420031130e-01   -6,647931784e-02    2,755654454e-01   -5,688747168e-01    0,000000000e+00    0,000000000e+00    0,000000000e+00    0,000000000e+00
     1206000000   -2,380427569e-01    1,644294336e-02   -6,271770597e-02   -6,589701772e-01    0,000000000e+00    0,000000000e+00    0,000000000e+00    0,000000000e+00
     1220000000   -2,047141641e-01    7,474193722e-02   -3,976464272e-01   -5,431966782e-01    0,000000000e+00    0,000000000e+00    0,000000000e+00    0,000000000e+00
     1234000000   -1,429856867e-01    1,039133146e-01   -6,064960361e-01   -2,704984546e-01    0,000000000e+00    0,000000000e+00    0,000000000e+00    0,000000000e+00
     1248000000   -7,738688588e-02    1,107164323e-01   -6,322217584e-01    6,477767974e-02    0,000000000e+00    0,000000000e+00    0,000000000e+00    0,000000000e+00
     1262000000   -8,905439638e-03    7,287303358e-02   -4,817646146e-01    3,472573459e-01    0,000000000e+00    0,000000000e+00    0,000000000e+00    0,000000000e+00
     1276000000    3,616705909e-02    9,226722643e-03   -2,197500914e-01    5,100034475e-01    0,000000000e+00    0,000000000e+00    0,000000000e+00    0,000000000e+00
     1290000000    3,375865892e-02   -8,296532929e-02    6,956382096e-02    5,359398723e-01    0,000000000e+00    0,000000000e+00    0,000000000e+00    0,000000000e+00
     1304000000   -1,991714910e-02   -1,702696681e-01    3,415165544e-01    4,343621433e-01    0,000000000e+00    0,000000000e+00    0,000000000e+00    0,000000000e+00
     1318000000   -1,184643283e-01   -2,248385400e-01    5,540241003e-01    2,087037414e-01    0,000000000e+00    0,000000000e+00    0,000000000e+00    0,000000000e+00
     1332000000   -2,489975989e-01   -2,064610571e-01    6,100851893e-01   -1,135253161e-01    0,000000000e+00    0,000000000e+00    0,000000000e+00    0,000000000e+00
     1346000000   -3,354924917e-01   -1,095390692e-01    4,905720353e-01   -4,281163812e-01    0,000000000e+00    0,000000000e+00    0,000000000e+00    0,000000000e+00
     1360000000   -3,424842060e-01    1,539433096e-02    1,870339364e-01   -6,059772968e-01    0,000000000e+00    0,000000000e+00    0,000000000e+00    0,000000000e+00
     1374000000   -2,941782176e-01    1,031886265e-01   -1,448847353e-01   -5,654044747e-01    0,000000000e+00    0,000000000e+00    0,000000000e+00    0,000000000e+00
     1388000000   -2,192064822e-01    1,473855227e-01   -3,794619739e-01   -3,617302179e-01    0,000000000e+00    0,000000000e+00    0,000000000e+00    0,000000000e+00
     1402000000   -1,449406296e-01    1,476248801e-01   -4,448538125e-01   -6,097444519e-02    0,000000000e+00    0,000000000e+00    0,000000000e+00    0,000000000e+00
     1416000000   -8,618517220e-02    1,298672557e-01   -3,560878038e-01    2,294973731e-01    0,000000000e+00    0,000000000e+00    0,000000000e+00    0,000000000e+00
     1430000000   -3,196794540e-02    8,008512855e-02   -1,177785471e-01    3,965162337e-01    0,000000000e+00    0,000000000e+00    0,000000000e+00    0,000000000e+00
     1444000000   -2,295902371e-02    6,818158436e-04    1,518469006e-01    4,896115065e-01    0,000000000e+00    0,000000000e+00    0,000000000e+00    0,000000000e+00
     1458000000   -4,909579456e-02   -7,769904286e-02    4,657253027e-01    4,374940097e-01    0,000000000e+00    0,000000000e+00    0,000000000e+00    0,000000000e+00
     1472000000   -1,315286309e-01   -1,403511763e-01    7,202534676e-01    2,239722162e-01    0,000000000e+00    0,000000000e+00    0,000000000e+00    0,000000000e+00
     1486000000   -2,318346798e-01   -1,285420656e-01    8,530985117e-01   -1,052917838e-01    0,000000000e+00    0,000000000e+00    0,000000000e+00    0,000000000e+00
     1500000000   -2,935280502e-01   -5,627101287e-02    7,634951472e-01   -4,588374794e-01    0,000000000e+00    0,000000000e+00    0,000000000e+00    0,000000000e+00
