! NanoVNA-App
! Date: 2025-09-26 09:45:44
! Start: 100MHz Stop: 1,5GHz Points: 101
! S-Parameter data: F S11 S21 S12 S22
# Hz S RI R 50
!     Frequency           S11_Real           S11_Imag           S21_Real           S21_Imag           S12_Real           S12_Imag           S22_Real           S22_Imag
      100000000    3,045656346e-02    2,813048288e-02    4,339724779e-01   -6,701656580e-01    0,000000000e+00    0,000000000e+00    0,000000000e+00    0,000000000e+00
      114000000    5,651928857e-02    5,438249093e-03    5,908761173e-03   -7,918070555e-01    0,000000000e+00    0,000000000e+00    0,000000000e+00    0,000000000e+00
      128000000    6,614816934e-02   -3,717434034e-02   -4,123163223e-01   -6,708280444e-01    0,000000000e+00    0,000000000e+00    0,000000000e+00    0,000000000e+00
      142000000    4,406891763e-02   -8,282121271e-02   -7,050681710e-01   -3,518265784e-01    0,000000000e+00    0,000000000e+00    0,000000000e+00    0,000000000e+00
      156000000   -5,404718220e-03   -1,046027616e-01   -7,873234749e-01    7,530994713e-02    0,000000000e+00    0,000000000e+00    0,000000000e+00    0,000000000e+00
      170000000   -5,627277121e-02   -8,940501511e-02   -6,263781190e-01    4,898460507e-01    0,000000000e+00    0,000000000e+00    0,000000000e+00    0,000000000e+00
      184000000   -8,206475526e-02   -4,939995706e-02   -2,621811330e-01    7,528139949e-01    0,000000000e+00    0,000000000e+00    0,000000000e+00    0,000000000e+00
      198000000   -7,861339301e-02   -1,130503044e-02    1,868267804e-01    7,728127241e-01    0,000000000e+00    0,000000000e+00    0,000000000e+00    0,000000000e+00
      212000000   -6,217188388e-02    1,225286070e-02    5,720195174e-01    5,476499200e-01    0,000000000e+00    0,000000000e+00    0,000000000e+00    0,000000000e+00
      226000000   -4,366666824e-02    2,728997357e-02    7,724686265e-01    1,518482566e-01    0,000000000e+00    0,000000000e+00    0,000000000e+00    0,000000000e+00
      240000000   -1,852634177e-02    3,859721497e-02    7,271000147e-01   -2,847149372e-01    0,000000000e+00    0,000000000e+00    0,000000000e+00    0,000000000e+00
      254000000    1,719816960e-02    3,540654480e-02    4,571827650e-01   -6,227306724e-01    0,000000000e+00    0,000000000e+00    0,000000000e+00    0,000000000e+00
      268000000    4,881956428e-02    5,749856122e-03    5,678583309e-02   -7,618060112e-01    0,000000000e+00    0,000000000e+00    0,000000000e+00    0,000000000e+00
      282000000    5,334941670e-02   -4,158024117e-02   -3,509532809e-01   -6,716518998e-01    0,000000000e+00    0,000000000e+00    0,000000000e+00    0,000000000e+00
      296000000    2,425567992e-02   -7,891014218e-02   -6,544200778e-01   -3,846905231e-01    0,000000000e+00    0,000000000e+00    0,000000000e+00    0,000000000e+00
      310000000   -1,723326743e-02   -8,251461387e-02   -7,644343376e-01    2,311526239e-02    0,000000000e+00    0,000000000e+00    0,000000000e+00    0,000000000e+00
      324000000   -4,051029682e-02   -5,886921287e-02   -6,309539676e-01    4,355017841e-01    0,000000000e+00    0,000000000e+00    0,000000000e+00    0,000000000e+00
      338000000   -3,356159106e-02   -3,792808577e-02   -2,916865647e-01    7,026311755e-01    0,000000000e+00    0,000000000e+00    0,000000000e+00    0,000000000e+00
      352000000   -1,791407168e-02   -4,210441560e-02    1,283714175e-01    7,429561019e-01    0,000000000e+00    0,000000000e+00    0,000000000e+00    0,000000000e+00
      366000000   -2,095436491e-02   -6,194255501e-02    5,013517737e-01    5,540555716e-01    0,000000000e+00    0,000000000e+00    0,000000000e+00    0,000000000e+00
      380000000   -4,541772231e-02   -7,101886719e-02    7,174021006e-01    1,970695704e-01    0,000000000e+00    0,000000000e+00    0,000000000e+00    0,000000000e+00
      394000000   -6,930588931e-02   -5,574722216e-02    7,066870928e-01   -2,221177965e-01    0,000000000e+00    0,000000000e+00    0,000000000e+00    0,000000000e+00
      408000000   -7,338695973e-02   -2,972820587e-02    4,695539474e-01   -5,662982464e-01    0,000000000e+00    0,000000000e+00    0,000000000e+00    0,000000000e+00
      422000000   -6,231643632e-02   -1,443248708e-02    8,881095052e-02   -7,249943614e-01    0,000000000e+00    0,000000000e+00    0,000000000e+00    0,000000000e+00
      436000000   -5,394893140e-02   -1,028404664e-02   -3,117504120e-01   -6,516717672e-01    0,000000000e+00    0,000000000e+00    0,000000000e+00    0,000000000e+00
      450000000   -5,215607211e-02   -1,206089626e-03   -6,074655652e-01   -3,733781576e-01    0,000000000e+00    0,000000000e+00    0,000000000e+00    0,000000000e+00
      464000000   -3,785795718e-02    1,869923063e-02   -7,000213861e-01    1,923727058e-02    0,000000000e+00    0,000000000e+00    0,000000000e+00    0,000000000e+00
      478000000    1,602073899e-03    2,644763701e-02   -5,606603026e-01    3,868229985e-01    0,000000000e+00    0,000000000e+00    0,000000000e+00    0,000000000e+00
      492000000    4,526042566e-02   -4,671556409e-03   -2,601578534e-01    6,062358618e-01    0,000000000e+00    0,000000000e+00    0,000000000e+00    0,000000000e+00
      506000000    5,570502952e-02   -6,691765785e-02    9,067188203e-02    6,367956996e-01    0,000000000e+00    0,000000000e+00    0,000000000e+00    0,000000000e+00
      520000000    1,556057949e-02   -1,220194548e-01    3,977988958e-01    4,999683499e-01    0,000000000e+00    0,000000000e+00    0,000000000e+00    0,000000000e+00
      534000000   -5,202228203e-02   -1,330298930e-01    6,025416255e-01    2,215083092e-01    0,000000000e+00    0,000000000e+00    0,000000000e+00    0,000000000e+00
      548000000   -1,009798497e-01   -9,542327374e-02    6,353860497e-01   -1,284028739e-01    0,000000000e+00    0,000000000e+00    0,000000000e+00    0,000000000e+00
      562000000   -1,051283553e-01   -4,695616290e-02    4,689338803e-01   -4,503037930e-01    0,000000000e+00    0,000000000e+00    0,000000000e+00    0,000000000e+00
      576000000   -8,031831682e-02   -2,510243654e-02    1,519058794e-01   -6,283537149e-01    0,000000000e+00    0,000000000e+00    0,000000000e+00    0,000000000e+00
      590000000   -6,403984874e-02   -3,276287019e-02   -2,077837288e-01   -6,152009368e-01    0,000000000e+00    0,000000000e+00    0,000000000e+00    0,000000000e+00
      604000000   -7,224877924e-02   -4,190054536e-02   -5,024285913e-01   -4,066380262e-01    0,000000000e+00    0,000000000e+00    0,000000000e+00    0,000000000e+00
      618000000   -8,809482306e-02   -2,859246358e-02   -6,424361467e-01   -6,965183467e-02    0,000000000e+00    0,000000000e+00    0,000000000e+00    0,000000000e+00
      632000000   -8,351428062e-02    1,787709072e-03   -5,751597881e-01    2,893909514e-01    0,000000000e+00    0,000000000e+00    0,000000000e+00    0,000000000e+00
      646000000   -5,208668113e-02    1,890841313e-02   -3,254823685e-01    5,476111174e-01    0,000000000e+00    0,000000000e+00    0,000000000e+00    0,000000000e+00
      660000000   -1,871542633e-02    6,680412218e-03    1,227800827e-02    6,273301244e-01    0,000000000e+00    0,000000000e+00    0,000000000e+00    0,000000000e+00
      674000000   -6,364286412e-03   -2,324873209e-02    3,363978565e-01    5,204241276e-01    0,000000000e+00    0,000000000e+00    0,000000000e+00    0,000000000e+00
      688000000   -1,540809497e-02   -4,684370011e-02    5,550839305e-01    2,622979879e-01    0,000000000e+00    0,000000000e+00    0,000000000e+00    0,000000000e+00
      702000000   -2,809874900e-02   -5,248967931e-02    6,028461456e-01   -7,499983162e-02    0,000000000e+00    0,000000000e+00    0,000000000e+00    0,000000000e+00
      716000000   -2,784038894e-02   -5,335306004e-02    4,591490626e-01   -3,844757974e-01    0,000000000e+00    0,000000000e+00    0,000000000e+00    0,000000000e+00
      730000000   -2,410414070e-02   -6,883170456e-02    1,777479500e-01   -5,614345074e-01    0,000000000e+00    0,000000000e+00    0,000000000e+00    0,000000000e+00
      744000000   -3,506643325e-02   -9,541597217e-02   -1,462400705e-01   -5,624848008e-01    0,000000000e+00    0,000000000e+00    0,000000000e+00    0,000000000e+00
      758000000   -7,299722731e-02   -1,143243462e-01   -4,217288494e-01   -3,977167308e-01    0,000000000e+00    0,000000000e+00    0,000000000e+00    0,000000000e+00
      772000000   -1,201069504e-01   -1,015889123e-01   -5,728027225e-01   -1,126601622e-01    0,000000000e+00    0,000000000e+00    0,000000000e+00    0,000000000e+00
      786000000   -1,475193053e-01   -5,862009898e-02   -5,478672385e-01    2,157664597e-01    0,000000000e+00    0,000000000e+00    0,000000000e+00    0,000000000e+00
      800000000   -1,404076517e-01   -1,087652426e-02   -3,467715085e-01    4,782852530e-01    0,000000000e+00    0,000000000e+00    0,000000000e+00    0,000000000e+00
      814000000   -1,122669503e-01    1,654408127e-02   -3,700557724e-02    5,877763033e-01    0,000000000e+00    0,000000000e+00    0,000000000e+00    0,000000000e+00
      828000000   -8,373942971e-02    2,205954492e-02    2,764347792e-01    5,180012584e-01    0,000000000e+00    0,000000000e+00    0,000000000e+00    0,000000000e+00
      842000000   -6,343896687e-02    2,039662749e-02    5,023996830e-01    2,916095853e-01    0,000000000e+00    0,000000000e+00    0,000000000e+00    0,000000000e+00
      856000000   -4,326045886e-02    1,986544207e-02    5,705547929e-01   -1,635330543e-02    0,000000000e+00    0,000000000e+00    0,000000000e+00    0,000000000e+00
      870000000   -1,432280056e-02    1,006635930e-02    4,640231133e-01   -3,059792817e-01    0,000000000e+00    0,000000000e+00    0,000000000e+00    0,000000000e+00
      884000000    1,036045328e-02   -2,282871865e-02    2,313746661e-01   -4,903712869e-01    0,000000000e+00    0,000000000e+00    0,000000000e+00    0,000000000e+00
      898000000    1,160710491e-02   -7,269649953e-02   -5,233527720e-02   -5,284997821e-01    0,000000000e+00    0,000000000e+00    0,000000000e+00    0,000000000e+00
      912000000   -2,809721790e-02   -1,157698929e-01   -3,651060164e-01   -4,004931450e-01    0,000000000e+00    0,000000000e+00    0,000000000e+00    0,000000000e+00
      926000000   -8,234219998e-02   -1,273397803e-01   -5,331805944e-01   -1,619593203e-01    0,000000000e+00    0,000000000e+00    0,000000000e+00    0,000000000e+00
      940000000   -1,278327256e-01   -1,012603119e-01   -5,567891002e-01    1,560524404e-01    0,000000000e+00    0,000000000e+00    0,000000000e+00    0,000000000e+00
      954000000   -1,469804347e-01   -5,446838588e-02   -3,967593014e-01    4,507601261e-01    0,000000000e+00    0,000000000e+00    0,000000000e+00    0,000000000e+00
      968000000   -1,285374165e-01   -2,347032912e-02   -9,339306504e-02    6,082100868e-01    0,000000000e+00    0,000000000e+00    0,000000000e+00    0,000000000e+00
      982000000   -1,101659536e-01   -1,436474826e-02    2,458522022e-01    5,761753917e-01    0,000000000e+00    0,000000000e+00    0,000000000e+00    0,000000000e+00
      996000000   -1,063703075e-01   -1,299030893e-02    5,168210864e-01    3,681495190e-01    0,000000000e+00    0,000000000e+00    0,000000000e+00    0,000000000e+00
     1010000000   -1,036610901e-01   -5,928710103e-03    6,341878772e-01    4,835866019e-02    0,000000000e+00    0,000000000e+00    0,000000000e+00    0,000000000e+00
     1024000000   -9,211351722e-02    2,189507475e-03    5,618495941e-01   -2,797477245e-01    0,000000000e+00    0,000000000e+00    0,000000000e+00    0,000000000e+00
     1038000000   -6,543986499e-02    1,183121116e-03    3,270735741e-01   -5,134000778e-01    0,000000000e+00    0,000000000e+00    0,000000000e+00    0,000000000e+00
     1052000000   -5,434941500e-02   -2,127427980e-02    1,989411004e-02   -5,886302590e-01    0,000000000e+00    0,000000000e+00    0,000000000e+00    0,000000000e+00
     1066000000   -6,274778396e-02   -4,036813602e-02   -2,828346193e-01   -4,950881302e-01    0,000000000e+00    0,000000000e+00    0,000000000e+00    0,000000000e+00
     1080000000   -8,289141953e-02   -4,156229645e-02   -4,929392338e-01   -2,535935938e-01    0,000000000e+00    0,000000000e+00    0,000000000e+00    0,000000000e+00
     1094000000   -9,001655877e-02   -2,145196870e-02   -5,316837430e-01    6,626843661e-02    0,000000000e+00    0,000000000e+00    0,000000000e+00    0,000000000e+00
     1108000000   -7,008059323e-02   -1,406534575e-02   -3,823044300e-01    3,451224267e-01    0,000000000e+00    0,000000000e+00    0,000000000e+00    0,000000000e+00
     1122000000   -3,777741641e-02   -2,897460572e-02   -1,129422411e-01    4,865813553e-01    0,000000000e+00    0,000000000e+00    0,000000000e+00    0,000000000e+00
     1136000000   -3,272274509e-02   -7,255410403e-02    1,865553111e-01    4,561848342e-01    0,000000000e+00    0,000000000e+00    0,000000000e+00    0,000000000e+00
     1150000000   -6,195204705e-02   -1,246520206e-01    4,188257456e-01    2,845373750e-01    0,000000000e+00    0,000000000e+00    0,000000000e+00    0,000000000e+00
     1164000000   -1,205556169e-01   -1,454233378e-01    5,399017334e-01    9,367308579e-03    0,000000000e+00    0,000000000e+00    0,000000000e+00    0,000000000e+00
     1178000000   -1,958291531e-01   -1,215441674e-01    5,005192757e-01   -3,092804849e-01    0,000000000e+00    0,000000000e+00    0,000000000e+00    0,000000000e+00
     1192000000   -2,398517728e-01   -6,527308375e-02    2,747921050e-01   -5,660602450e-01    0,000000000e+00    0,000000000e+00    0,000000000e+00    0,000000000e+00
     1206000000   -2,382189184e-01    9,853821248e-03   -6,028696150e-02   -6,593802571e-01    0,000000000e+00    0,000000000e+00    0,000000000e+00    0,000000000e+00
     1220000000   -2,057245672e-01    7,488274574e-02   -4,008524716e-01   -5,439170599e-01    0,000000000e+00    0,000000000e+00    0,000000000e+00    0,000000000e+00
     1234000000   -1,469508559e-01    1,077689976e-01   -6,127278209e-01   -2,711970210e-01    0,000000000e+00    0,000000000e+00    0,000000000e+00    0,000000000e+00
     1248000000   -7,393942773e-02    1,110958830e-01   -6,328935027e-01    6,953831762e-02    0,000000000e+00    0,000000000e+00    0,000000000e+00    0,000000000e+00
     1262000000   -9,664404206e-03    7,598996162e-02   -4,817371964e-01    3,517756760e-01    0,000000000e+00    0,000000000e+00    0,000000000e+00    0,000000000e+00
     1276000000    3,246870637e-02    7,975819521e-03   -2,194053382e-01    5,123637319e-01    0,000000000e+00    0,000000000e+00    0,000000000e+00    0,000000000e+00
     1290000000    3,461619094e-02   -8,776780218e-02    7,010674477e-02    5,363875628e-01    0,000000000e+00    0,000000000e+00    0,000000000e+00    0,000000000e+00
     1304000000   -1,786455140e-02   -1,709406525e-01    3,398430645e-01    4,380775392e-01    0,000000000e+00    0,000000000e+00    0,000000000e+00    0,000000000e+00
     1318000000   -1,197756454e-01   -2,265167236e-01    5,528015494e-01    2,039989084e-01    0,000000000e+00    0,000000000e+00    0,000000000e+00    0,000000000e+00
     1332000000   -2,410746068e-01   -2,021208405e-01    6,172564626e-01   -1,152365953e-01    0,000000000e+00    0,000000000e+00    0,000000000e+00    0,000000000e+00
     1346000000   -3,397580385e-01   -1,077619419e-01    4,771742225e-01   -4,325659573e-01    0,000000000e+00    0,000000000e+00    0,000000000e+00    0,000000000e+00
     1360000000   -3,463677764e-01    1,617507264e-02    1,846062094e-01   -6,128790975e-01    0,000000000e+00    0,000000000e+00    0,000000000e+00    0,000000000e+00
     1374000000   -2,942537963e-01    1,095508933e-01   -1,370010674e-01   -5,651828647e-01    0,000000000e+00    0,000000000e+00    0,000000000e+00    0,000000000e+00
     1388000000   -2,168456912e-01    1,449856460e-01   -3,749289811e-01   -3,634124696e-01    0,000000000e+00    0,000000000e+00    0,000000000e+00    0,000000000e+00
     1402000000   -1,525999904e-01    1,538801491e-01   -4,570089579e-01   -5,820812657e-02    0,000000000e+00    0,000000000e+00    0,000000000e+00    0,000000000e+00
     1416000000   -8,470575511e-02    1,285430938e-01   -3,476209939e-01    2,268539220e-01    0,000000000e+00    0,000000000e+00    0,000000000e+00    0,000000000e+00
     1430000000   -4,081173241e-02    7,959666848e-02   -1,359923929e-01    4,508582652e-01    0,000000000e+00    0,000000000e+00    0,000000000e+00    0,000000000e+00
     1444000000   -1,920492575e-02    2,217305824e-03    1,608155519e-01    4,973977208e-01    0,000000000e+00    0,000000000e+00    0,000000000e+00    0,000000000e+00
     1458000000   -5,127592012e-02   -7,952619344e-02    4,467771947e-01    4,395710230e-01    0,000000000e+00    0,000000000e+00    0,000000000e+00    0,000000000e+00
     1472000000   -1,326850206e-01   -1,331287175e-01    7,155561447e-01    2,362774312e-01    0,000000000e+00    0,000000000e+00    0,000000000e+00    0,000000000e+00
     1486000000   -2,237419486e-01   -1,212691218e-01    8,565798998e-01   -8,949918300e-02    0,000000000e+00    0,000000000e+00    0,000000000e+00    0,000000000e+00
     1500000000   -2,899076939e-01   -5,196822062e-02    7,735699415e-01   -4,478957057e-01    0,000000000e+00    0,000000000e+00    0,000000000e+00    0,000000000e+00
