! NanoVNA-App
! Date: 2025-09-26 09:45:00
! Start: 100MHz Stop: 1,5GHz Points: 101
! S-Parameter data: F S11 S21 S12 S22
# Hz S RI R 50
!     Frequency           S11_Real           S11_Imag           S21_Real           S21_Imag           S12_Real           S12_Imag           S22_Real           S22_Imag
      100000000    3,030961193e-02    2,808029205e-02    4,337842166e-01   -6,700912118e-01    0,000000000e+00    0,000000000e+00    0,000000000e+00    0,000000000e+00
      114000000    5,634745955e-02    5,480207037e-03    5,965045653e-03   -7,917861938e-01    0,000000000e+00    0,000000000e+00    0,000000000e+00    0,000000000e+00
      128000000    6,599951535e-02   -3,706638515e-02   -4,124375284e-01   -6,707348228e-01    0,000000000e+00    0,000000000e+00    0,000000000e+00    0,000000000e+00
      142000000    4,397857562e-02   -8,266574144e-02   -7,050381303e-01   -3,515174389e-01    0,000000000e+00    0,000000000e+00    0,000000000e+00    0,000000000e+00
      156000000   -5,380136427e-03   -1,048887372e-01   -7,871087790e-01    7,687678933e-02    0,000000000e+00    0,000000000e+00    0,000000000e+00    0,000000000e+00
      170000000   -5,626192316e-02   -8,929599822e-02   -6,262405515e-01    4,900540411e-01    0,000000000e+00    0,000000000e+00    0,000000000e+00    0,000000000e+00
      184000000   -8,192998171e-02   -4,928791896e-02   -2,622456551e-01    7,530150414e-01    0,000000000e+00    0,000000000e+00    0,000000000e+00    0,000000000e+00
      198000000   -7,835317403e-02   -1,126319077e-02    1,868933439e-01    7,733196020e-01    0,000000000e+00    0,000000000e+00    0,000000000e+00    0,000000000e+00
      212000000   -6,187717617e-02    1,213047188e-02    5,718584061e-01    5,472871065e-01    0,000000000e+00    0,000000000e+00    0,000000000e+00    0,000000000e+00
      226000000   -4,353362694e-02    2,712777257e-02    7,723294497e-01    1,517621130e-01    0,000000000e+00    0,000000000e+00    0,000000000e+00    0,000000000e+00
      240000000   -1,842265390e-02    3,840483725e-02    7,268743515e-01   -2,849913239e-01    0,000000000e+00    0,000000000e+00    0,000000000e+00    0,000000000e+00
      254000000    1,717158780e-02    3,510360792e-02    4,568090737e-01   -6,226974130e-01    0,000000000e+00    0,000000000e+00    0,000000000e+00    0,000000000e+00
      268000000    4,868281633e-02    5,509008653e-03    5,691130087e-02   -7,615785599e-01    0,000000000e+00    0,000000000e+00    0,000000000e+00    0,000000000e+00
      282000000    5,313282087e-02   -4,162759334e-02   -3,512376249e-01   -6,723539233e-01    0,000000000e+00    0,000000000e+00    0,000000000e+00    0,000000000e+00
      296000000    2,390847728e-02   -7,886886597e-02   -6,541508436e-01   -3,847047389e-01    0,000000000e+00    0,000000000e+00    0,000000000e+00    0,000000000e+00
      310000000   -1,700327545e-02   -8,253164589e-02   -7,643764615e-01    2,415331826e-02    0,000000000e+00    0,000000000e+00    0,000000000e+00    0,000000000e+00
      324000000   -4,023555294e-02   -5,894361436e-02   -6,309916377e-01    4,351149797e-01    0,000000000e+00    0,000000000e+00    0,000000000e+00    0,000000000e+00
      338000000   -3,339303285e-02   -3,767069429e-02   -2,945239246e-01    7,017805576e-01    0,000000000e+00    0,000000000e+00    0,000000000e+00    0,000000000e+00
      352000000   -1,762398891e-02   -4,175132141e-02    1,299967468e-01    7,443199754e-01    0,000000000e+00    0,000000000e+00    0,000000000e+00    0,000000000e+00
      366000000   -2,050573193e-02   -6,190023944e-02    5,025908351e-01    5,532930493e-01    0,000000000e+00    0,000000000e+00    0,000000000e+00    0,000000000e+00
      380000000   -4,526522011e-02   -7,091335207e-02    7,172367573e-01    1,966534257e-01    0,000000000e+00    0,000000000e+00    0,000000000e+00    0,000000000e+00
      394000000   -6,923378259e-02   -5,557615682e-02    7,055929899e-01   -2,219366878e-01    0,000000000e+00    0,000000000e+00    0,000000000e+00    0,000000000e+00
      408000000   -7,330311835e-02   -2,997755446e-02    4,696966410e-01   -5,660917759e-01    0,000000000e+00    0,000000000e+00    0,000000000e+00    0,000000000e+00
      422000000   -6,189238280e-02   -1,469849516e-02    8,783495426e-02   -7,245585918e-01    0,000000000e+00    0,000000000e+00    0,000000000e+00    0,000000000e+00
      436000000   -5,416456982e-02   -1,080836728e-02   -3,128791153e-01   -6,515861154e-01    0,000000000e+00    0,000000000e+00    0,000000000e+00    0,000000000e+00
      450000000   -5,242447555e-02   -1,087006298e-03   -6,080791354e-01   -3,733354807e-01    0,000000000e+00    0,000000000e+00    0,000000000e+00    0,000000000e+00
      464000000   -3,861775249e-02    1,861520298e-02   -7,001272440e-01    1,943102293e-02    0,000000000e+00    0,000000000e+00    0,000000000e+00    0,000000000e+00
      478000000    1,095268759e-03    2,695850655e-02   -5,610233545e-01    3,875465989e-01    0,000000000e+00    0,000000000e+00    0,000000000e+00    0,000000000e+00
      492000000    4,568637535e-02   -4,135744646e-03   -2,594728470e-01    6,069201827e-01    0,000000000e+00    0,000000000e+00    0,000000000e+00    0,000000000e+00
      506000000    5,617991090e-02   -6,730076671e-02    9,108033031e-02    6,364011765e-01    0,000000000e+00    0,000000000e+00    0,000000000e+00    0,000000000e+00
      520000000    1,509342808e-02   -1,230766177e-01    3,958392143e-01    4,949793220e-01    0,000000000e+00    0,000000000e+00    0,000000000e+00    0,000000000e+00
      534000000   -5,320632458e-02   -1,342325062e-01    6,014101505e-01    2,202847600e-01    0,000000000e+00    0,000000000e+00    0,000000000e+00    0,000000000e+00
      548000000   -1,025780290e-01   -9,507969767e-02    6,340054870e-01   -1,288422048e-01    0,000000000e+00    0,000000000e+00    0,000000000e+00    0,000000000e+00
      562000000   -1,056123599e-01   -4,570567235e-02    4,680472612e-01   -4,489537776e-01    0,000000000e+00    0,000000000e+00    0,000000000e+00    0,000000000e+00
      576000000   -8,016739786e-02   -2,295739576e-02    1,514342278e-01   -6,274631023e-01    0,000000000e+00    0,000000000e+00    0,000000000e+00    0,000000000e+00
      590000000   -6,276648492e-02   -3,205563501e-02   -2,041036785e-01   -6,138445139e-01    0,000000000e+00    0,000000000e+00    0,000000000e+00    0,000000000e+00
      604000000   -7,087070495e-02   -4,195117205e-02   -5,019121766e-01   -4,060211480e-01    0,000000000e+00    0,000000000e+00    0,000000000e+00    0,000000000e+00
      618000000   -8,759026229e-02   -2,963428199e-02   -6,412457228e-01   -6,976046413e-02    0,000000000e+00    0,000000000e+00    0,000000000e+00    0,000000000e+00
      632000000   -8,374349028e-02    3,680771624e-05   -5,753374696e-01    2,884698212e-01    0,000000000e+00    0,000000000e+00    0,000000000e+00    0,000000000e+00
      646000000   -5,268563703e-02    1,773599535e-02   -3,262401819e-01    5,469604135e-01    0,000000000e+00    0,000000000e+00    0,000000000e+00    0,000000000e+00
      660000000   -1,894278638e-02    5,886686035e-03    1,192229148e-02    6,266115308e-01    0,000000000e+00    0,000000000e+00    0,000000000e+00    0,000000000e+00
      674000000   -7,367193699e-03   -2,331726067e-02    3,352376819e-01    5,209522843e-01    0,000000000e+00    0,000000000e+00    0,000000000e+00    0,000000000e+00
      688000000   -1,701444201e-02   -4,571883008e-02    5,545881987e-01    2,616087496e-01    0,000000000e+00    0,000000000e+00    0,000000000e+00    0,000000000e+00
      702000000   -2,814561874e-02   -5,079147592e-02    6,049705148e-01   -7,464576513e-02    0,000000000e+00    0,000000000e+00    0,000000000e+00    0,000000000e+00
      716000000   -2,803866006e-02   -5,351126567e-02    4,597415924e-01   -3,847898841e-01    0,000000000e+00    0,000000000e+00    0,000000000e+00    0,000000000e+00
      730000000   -2,298563346e-02   -6,797951460e-02    1,787067950e-01   -5,603014827e-01    0,000000000e+00    0,000000000e+00    0,000000000e+00    0,000000000e+00
      744000000   -3,555683792e-02   -9,560248256e-02   -1,458865255e-01   -5,628490448e-01    0,000000000e+00    0,000000000e+00    0,000000000e+00    0,000000000e+00
      758000000   -7,332135737e-02   -1,141140386e-01   -4,206942320e-01   -3,980890214e-01    0,000000000e+00    0,000000000e+00    0,000000000e+00    0,000000000e+00
      772000000   -1,194392592e-01   -1,011883542e-01   -5,729231238e-01   -1,128955111e-01    0,000000000e+00    0,000000000e+00    0,000000000e+00    0,000000000e+00
      786000000   -1,487725228e-01   -5,827040970e-02   -5,480853319e-01    2,156550288e-01    0,000000000e+00    0,000000000e+00    0,000000000e+00    0,000000000e+00
      800000000   -1,405551881e-01   -9,918667376e-03   -3,470699787e-01    4,777081013e-01    0,000000000e+00    0,000000000e+00    0,000000000e+00    0,000000000e+00
      814000000   -1,114848703e-01    1,697145775e-02   -3,803822026e-02    5,873111486e-01    0,000000000e+00    0,000000000e+00    0,000000000e+00    0,000000000e+00
      828000000   -8,321060985e-02    2,147947066e-02    2,766700685e-01    5,163809657e-01    0,000000000e+00    0,000000000e+00    0,000000000e+00    0,000000000e+00
      842000000   -6,331727654e-02    1,987555437e-02    5,019289255e-01    2,908675373e-01    0,000000000e+00    0,000000000e+00    0,000000000e+00    0,000000000e+00
      856000000   -4,276455939e-02    1,968031563e-02    5,702221394e-01   -1,660772786e-02    0,000000000e+00    0,000000000e+00    0,000000000e+00    0,000000000e+00
      870000000   -1,457110979e-02    9,617819451e-03    4,644567668e-01   -3,060590327e-01    0,000000000e+00    0,000000000e+00    0,000000000e+00    0,000000000e+00
      884000000    1,044951566e-02   -2,328547277e-02    2,313386053e-01   -4,888567626e-01    0,000000000e+00    0,000000000e+00    0,000000000e+00    0,000000000e+00
      898000000    1,078122761e-02   -7,363370806e-02   -5,263034999e-02   -5,293900967e-01    0,000000000e+00    0,000000000e+00    0,000000000e+00    0,000000000e+00
      912000000   -2,865644172e-02   -1,157453135e-01   -3,526484668e-01   -4,013731480e-01    0,000000000e+00    0,000000000e+00    0,000000000e+00    0,000000000e+00
      926000000   -8,327531070e-02   -1,278537661e-01   -5,337817669e-01   -1,643132567e-01    0,000000000e+00    0,000000000e+00    0,000000000e+00    0,000000000e+00
      940000000   -1,322052181e-01   -9,840466827e-02   -5,563676953e-01    1,570868045e-01    0,000000000e+00    0,000000000e+00    0,000000000e+00    0,000000000e+00
      954000000   -1,477493793e-01   -5,263518542e-02   -3,977617025e-01    4,473740458e-01    0,000000000e+00    0,000000000e+00    0,000000000e+00    0,000000000e+00
      968000000   -1,330954283e-01   -2,327266708e-02   -9,401287884e-02    6,067849398e-01    0,000000000e+00    0,000000000e+00    0,000000000e+00    0,000000000e+00
      982000000   -1,129649431e-01   -1,560814865e-02    2,457494289e-01    5,751785040e-01    0,000000000e+00    0,000000000e+00    0,000000000e+00    0,000000000e+00
      996000000   -1,034042835e-01   -1,594544761e-02    5,172975659e-01    3,688541949e-01    0,000000000e+00    0,000000000e+00    0,000000000e+00    0,000000000e+00
     1010000000   -1,013543084e-01   -8,935762569e-03    6,334325075e-01    4,726910219e-02    0,000000000e+00    0,000000000e+00    0,000000000e+00    0,000000000e+00
     1024000000   -8,786579221e-02    9,700568626e-05    5,608108640e-01   -2,799550891e-01    0,000000000e+00    0,000000000e+00    0,000000000e+00    0,000000000e+00
     1038000000   -6,620547175e-02   -2,584428526e-03    3,310126662e-01   -5,137057900e-01    0,000000000e+00    0,000000000e+00    0,000000000e+00    0,000000000e+00
     1052000000   -5,989871174e-02   -2,201123349e-02    1,842185669e-02   -5,884048343e-01    0,000000000e+00    0,000000000e+00    0,000000000e+00    0,000000000e+00
     1066000000   -6,669526547e-02   -4,408309981e-02   -2,813466489e-01   -4,940867126e-01    0,000000000e+00    0,000000000e+00    0,000000000e+00    0,000000000e+00
     1080000000   -8,504602313e-02   -4,051128030e-02   -4,919823110e-01   -2,502283752e-01    0,000000000e+00    0,000000000e+00    0,000000000e+00    0,000000000e+00
     1094000000   -9,346001595e-02   -2,135130204e-02   -5,303556323e-01    6,823018193e-02    0,000000000e+00    0,000000000e+00    0,000000000e+00    0,000000000e+00
     1108000000   -6,884486973e-02   -1,324364450e-02   -3,830345571e-01    3,447193205e-01    0,000000000e+00    0,000000000e+00    0,000000000e+00    0,000000000e+00
     1122000000   -4,206453264e-02   -2,816865779e-02   -1,098529175e-01    4,883976579e-01    0,000000000e+00    0,000000000e+00    0,000000000e+00    0,000000000e+00
     1136000000   -3,022027947e-02   -7,381001860e-02    1,816149950e-01    4,604238570e-01    0,000000000e+00    0,000000000e+00    0,000000000e+00    0,000000000e+00
     1150000000   -5,836485326e-02   -1,234809309e-01    4,185182154e-01    2,870724499e-01    0,000000000e+00    0,000000000e+00    0,000000000e+00    0,000000000e+00
     1164000000   -1,211490184e-01   -1,488551199e-01    5,396657586e-01    8,535067551e-03    0,000000000e+00    0,000000000e+00    0,000000000e+00    0,000000000e+00
     1178000000   -1,950263232e-01   -1,234443858e-01    4,993826449e-01   -3,067246675e-01    0,000000000e+00    0,000000000e+00    0,000000000e+00    0,000000000e+00
     1192000000   -2,356524169e-01   -6,430359185e-02    2,777093947e-01   -5,641030669e-01    0,000000000e+00    0,000000000e+00    0,000000000e+00    0,000000000e+00
     1206000000   -2,395682633e-01    1,057695970e-02   -6,478191167e-02   -6,621814370e-01    0,000000000e+00    0,000000000e+00    0,000000000e+00    0,000000000e+00
     1220000000   -2,002301514e-01    7,171006501e-02   -3,953763843e-01   -5,447558165e-01    0,000000000e+00    0,000000000e+00    0,000000000e+00    0,000000000e+00
     1234000000   -1,472068131e-01    1,074494347e-01   -6,078077555e-01   -2,701677680e-01    0,000000000e+00    0,000000000e+00    0,000000000e+00    0,000000000e+00
     1248000000   -7,073888928e-02    1,062318161e-01   -6,344139576e-01    6,336220354e-02    0,000000000e+00    0,000000000e+00    0,000000000e+00    0,000000000e+00
     1262000000   -6,392652169e-03    7,590430975e-02   -4,812802374e-01    3,493043482e-01    0,000000000e+00    0,000000000e+00    0,000000000e+00    0,000000000e+00
     1276000000    3,274913132e-02    2,471129876e-03   -2,217897475e-01    5,075818300e-01    0,000000000e+00    0,000000000e+00    0,000000000e+00    0,000000000e+00
     1290000000    3,466982394e-02   -8,750692010e-02    7,049704343e-02    5,327602029e-01    0,000000000e+00    0,000000000e+00    0,000000000e+00    0,000000000e+00
     1304000000   -1,950537227e-02   -1,728611141e-01    3,431326747e-01    4,339874983e-01    0,000000000e+00    0,000000000e+00    0,000000000e+00    0,000000000e+00
     1318000000   -1,259758323e-01   -2,240180671e-01    5,501356125e-01    2,045575529e-01    0,000000000e+00    0,000000000e+00    0,000000000e+00    0,000000000e+00
     1332000000   -2,456981838e-01   -2,054429948e-01    6,123123169e-01   -1,232520714e-01    0,000000000e+00    0,000000000e+00    0,000000000e+00    0,000000000e+00
     1346000000   -3,358720243e-01   -1,038726568e-01    4,793299139e-01   -4,289793372e-01    0,000000000e+00    0,000000000e+00    0,000000000e+00    0,000000000e+00
     1360000000   -3,438748121e-01    1,175380219e-02    1,867207289e-01   -6,066698432e-01    0,000000000e+00    0,000000000e+00    0,000000000e+00    0,000000000e+00
     1374000000   -2,970044315e-01    1,094519645e-01   -1,462233812e-01   -5,729674697e-01    0,000000000e+00    0,000000000e+00    0,000000000e+00    0,000000000e+00
     1388000000   -2,218273282e-01    1,481924951e-01   -3,735469580e-01   -3,567396700e-01    0,000000000e+00    0,000000000e+00    0,000000000e+00    0,000000000e+00
     1402000000   -1,452776492e-01    1,482758373e-01   -4,529573023e-01   -5,992283300e-02    0,000000000e+00    0,000000000e+00    0,000000000e+00    0,000000000e+00
     1416000000   -8,270233870e-02    1,243030503e-01   -3,564149439e-01    2,269878089e-01    0,000000000e+00    0,000000000e+00    0,000000000e+00    0,000000000e+00
     1430000000   -4,090141878e-02    7,783845812e-02   -1,461849660e-01    4,341280162e-01    0,000000000e+00    0,000000000e+00    0,000000000e+00    0,000000000e+00
     1444000000   -1,739590429e-02    1,923562144e-03    1,640525609e-01    4,927320778e-01    0,000000000e+00    0,000000000e+00    0,000000000e+00    0,000000000e+00
     1458000000   -5,305611342e-02   -8,188269287e-02    4,526849687e-01    4,337027371e-01    0,000000000e+00    0,000000000e+00    0,000000000e+00    0,000000000e+00
     1472000000   -1,301440299e-01   -1,381510198e-01    7,280723453e-01    2,394952476e-01    0,000000000e+00    0,000000000e+00    0,000000000e+00    0,000000000e+00
     1486000000   -2,293557972e-01   -1,270314306e-01    8,502115607e-01   -1,058501527e-01    0,000000000e+00    0,000000000e+00    0,000000000e+00    0,000000000e+00
     1500000000   -2,952071130e-01   -6,107527763e-02    7,693478465e-01   -4,598354399e-01    0,000000000e+00    0,000000000e+00    0,000000000e+00    0,000000000e+00
