! NanoVNA-App
! Date: 2025-09-26 09:45:11
! Start: 100MHz Stop: 1,5GHz Points: 101
! S-Parameter data: F S11 S21 S12 S22
# Hz S RI R 50
!     Frequency           S11_Real           S11_Imag           S21_Real           S21_Imag           S12_Real           S12_Imag           S22_Real           S22_Imag
      100000000    3,043286502e-02    2,813306265e-02    4,339517653e-01   -6,701812744e-01    0,000000000e+00    0,000000000e+00    0,000000000e+00    0,000000000e+00
      114000000    5,649409443e-02    5,451065022e-03    5,816363264e-03   -7,919878960e-01    0,000000000e+00    0,000000000e+00    0,000000000e+00    0,000000000e+00
      128000000    6,612343341e-02   -3,713080660e-02   -4,126990438e-01   -6,709010005e-01    0,000000000e+00    0,000000000e+00    0,000000000e+00    0,000000000e+00
      142000000    4,408055916e-02   -8,276764303e-02   -7,047082782e-01   -3,515281677e-01    0,000000000e+00    0,000000000e+00    0,000000000e+00    0,000000000e+00
      156000000   -5,371772218e-03   -1,046209037e-01   -7,873666286e-01    7,543412596e-02    0,000000000e+00    0,000000000e+00    0,000000000e+00    0,000000000e+00
      170000000   -5,628333241e-02   -8,949150890e-02   -6,264998317e-01    4,897650480e-01    0,000000000e+00    0,000000000e+00    0,000000000e+00    0,000000000e+00
      184000000   -8,206696808e-02   -4,945308343e-02   -2,621682286e-01    7,532737851e-01    0,000000000e+00    0,000000000e+00    0,000000000e+00    0,000000000e+00
      198000000   -7,859443873e-02   -1,132612489e-02    1,868390888e-01    7,731784582e-01    0,000000000e+00    0,000000000e+00    0,000000000e+00    0,000000000e+00
      212000000   -6,213216856e-02    1,218796987e-02    5,718295574e-01    5,473450422e-01    0,000000000e+00    0,000000000e+00    0,000000000e+00    0,000000000e+00
      226000000   -4,374521598e-02    2,722055465e-02    7,725244164e-01    1,517880559e-01    0,000000000e+00    0,000000000e+00    0,000000000e+00    0,000000000e+00
      240000000   -1,850875095e-02    3,857980296e-02    7,271021605e-01   -2,847171724e-01    0,000000000e+00    0,000000000e+00    0,000000000e+00    0,000000000e+00
      254000000    1,710399985e-02    3,536406532e-02    4,570414126e-01   -6,227294207e-01    0,000000000e+00    0,000000000e+00    0,000000000e+00    0,000000000e+00
      268000000    4,878530651e-02    5,715616979e-03    5,689995736e-02   -7,618593574e-01    0,000000000e+00    0,000000000e+00    0,000000000e+00    0,000000000e+00
      282000000    5,330656096e-02   -4,150937125e-02   -3,511132598e-01   -6,719385982e-01    0,000000000e+00    0,000000000e+00    0,000000000e+00    0,000000000e+00
      296000000    2,420490794e-02   -7,884979993e-02   -6,545960903e-01   -3,846486509e-01    0,000000000e+00    0,000000000e+00    0,000000000e+00    0,000000000e+00
      310000000   -1,688901149e-02   -8,247534186e-02   -7,658359408e-01    2,430809103e-02    0,000000000e+00    0,000000000e+00    0,000000000e+00    0,000000000e+00
      324000000   -4,022111371e-02   -5,920097977e-02   -6,317209005e-01    4,345926344e-01    0,000000000e+00    0,000000000e+00    0,000000000e+00    0,000000000e+00
      338000000   -3,366588801e-02   -3,821870685e-02   -2,932764590e-01    7,068318129e-01    0,000000000e+00    0,000000000e+00    0,000000000e+00    0,000000000e+00
      352000000   -1,810212992e-02   -4,221792519e-02    1,291899383e-01    7,437553406e-01    0,000000000e+00    0,000000000e+00    0,000000000e+00    0,000000000e+00
      366000000   -2,090178244e-02   -6,202181429e-02    5,021289587e-01    5,546231270e-01    0,000000000e+00    0,000000000e+00    0,000000000e+00    0,000000000e+00
      380000000   -4,539648443e-02   -7,118431479e-02    7,172071934e-01    1,965772063e-01    0,000000000e+00    0,000000000e+00    0,000000000e+00    0,000000000e+00
      394000000   -6,989604235e-02   -5,578858778e-02    7,057423592e-01   -2,221337110e-01    0,000000000e+00    0,000000000e+00    0,000000000e+00    0,000000000e+00
      408000000   -7,313262671e-02   -2,987473272e-02    4,700432718e-01   -5,671159625e-01    0,000000000e+00    0,000000000e+00    0,000000000e+00    0,000000000e+00
      422000000   -6,214320287e-02   -1,460060477e-02    8,831707388e-02   -7,247036099e-01    0,000000000e+00    0,000000000e+00    0,000000000e+00    0,000000000e+00
      436000000   -5,440365151e-02   -1,053923089e-02   -3,126409650e-01   -6,520571113e-01    0,000000000e+00    0,000000000e+00    0,000000000e+00    0,000000000e+00
      450000000   -5,263019726e-02   -1,124855131e-03   -6,082870364e-01   -3,739617467e-01    0,000000000e+00    0,000000000e+00    0,000000000e+00    0,000000000e+00
      464000000   -3,844792023e-02    1,897800341e-02   -7,001336217e-01    1,933417283e-02    0,000000000e+00    0,000000000e+00    0,000000000e+00    0,000000000e+00
      478000000    1,480753650e-03    2,676377818e-02   -5,610637665e-01    3,863584399e-01    0,000000000e+00    0,000000000e+00    0,000000000e+00    0,000000000e+00
      492000000    4,538628086e-02   -4,168040119e-03   -2,603498399e-01    6,055288315e-01    0,000000000e+00    0,000000000e+00    0,000000000e+00    0,000000000e+00
      506000000    5,568417907e-02   -6,667435169e-02    9,062685817e-02    6,365851164e-01    0,000000000e+00    0,000000000e+00    0,000000000e+00    0,000000000e+00
      520000000    1,544256229e-02   -1,220575720e-01    3,996617496e-01    4,978297949e-01    0,000000000e+00    0,000000000e+00    0,000000000e+00    0,000000000e+00
      534000000   -5,211450532e-02   -1,333299577e-01    6,020607352e-01    2,216636240e-01    0,000000000e+00    0,000000000e+00    0,000000000e+00    0,000000000e+00
      548000000   -1,018447056e-01   -9,570384771e-02    6,343453526e-01   -1,288798451e-01    0,000000000e+00    0,000000000e+00    0,000000000e+00    0,000000000e+00
      562000000   -1,053427607e-01   -4,676407203e-02    4,683778286e-01   -4,499282539e-01    0,000000000e+00    0,000000000e+00    0,000000000e+00    0,000000000e+00
      576000000   -7,997847348e-02   -2,473911457e-02    1,518386602e-01   -6,286004782e-01    0,000000000e+00    0,000000000e+00    0,000000000e+00    0,000000000e+00
      590000000   -6,429773569e-02   -3,263839707e-02   -2,048670650e-01   -6,151266694e-01    0,000000000e+00    0,000000000e+00    0,000000000e+00    0,000000000e+00
      604000000   -7,181547582e-02   -4,167894274e-02   -5,023649931e-01   -4,066705108e-01    0,000000000e+00    0,000000000e+00    0,000000000e+00    0,000000000e+00
      618000000   -8,815743774e-02   -2,881753072e-02   -6,422913074e-01   -6,956488639e-02    0,000000000e+00    0,000000000e+00    0,000000000e+00    0,000000000e+00
      632000000   -8,329664916e-02    9,012195515e-04   -5,750339627e-01    2,891685963e-01    0,000000000e+00    0,000000000e+00    0,000000000e+00    0,000000000e+00
      646000000   -5,204283446e-02    1,795760915e-02   -3,264289498e-01    5,478428006e-01    0,000000000e+00    0,000000000e+00    0,000000000e+00    0,000000000e+00
      660000000   -1,834527217e-02    5,511310883e-03    1,303334255e-02    6,284550428e-01    0,000000000e+00    0,000000000e+00    0,000000000e+00    0,000000000e+00
      674000000   -6,295032334e-03   -2,314990386e-02    3,366007507e-01    5,219393969e-01    0,000000000e+00    0,000000000e+00    0,000000000e+00    0,000000000e+00
      688000000   -1,628981531e-02   -4,610881209e-02    5,555565953e-01    2,619535625e-01    0,000000000e+00    0,000000000e+00    0,000000000e+00    0,000000000e+00
      702000000   -2,823456004e-02   -5,310836807e-02    6,048208475e-01   -7,519591600e-02    0,000000000e+00    0,000000000e+00    0,000000000e+00    0,000000000e+00
      716000000   -2,886659838e-02   -5,308275670e-02    4,594473243e-01   -3,847202957e-01    0,000000000e+00    0,000000000e+00    0,000000000e+00    0,000000000e+00
      730000000   -2,403458767e-02   -6,861290336e-02    1,780127436e-01   -5,618434548e-01    0,000000000e+00    0,000000000e+00    0,000000000e+00    0,000000000e+00
      744000000   -3,572418541e-02   -9,667737782e-02   -1,456596553e-01   -5,624582767e-01    0,000000000e+00    0,000000000e+00    0,000000000e+00    0,000000000e+00
      758000000   -7,250554860e-02   -1,134639382e-01   -4,212479889e-01   -3,993718028e-01    0,000000000e+00    0,000000000e+00    0,000000000e+00    0,000000000e+00
      772000000   -1,199471131e-01   -1,003387123e-01   -5,730365515e-01   -1,126429290e-01    0,000000000e+00    0,000000000e+00    0,000000000e+00    0,000000000e+00
      786000000   -1,480738074e-01   -5,771083757e-02   -5,483099818e-01    2,159216255e-01    0,000000000e+00    0,000000000e+00    0,000000000e+00    0,000000000e+00
      800000000   -1,411890686e-01   -1,058693975e-02   -3,472874165e-01    4,779655933e-01    0,000000000e+00    0,000000000e+00    0,000000000e+00    0,000000000e+00
      814000000   -1,123680025e-01    1,611386612e-02   -3,805531561e-02    5,872597098e-01    0,000000000e+00    0,000000000e+00    0,000000000e+00    0,000000000e+00
      828000000   -8,363629133e-02    2,160933055e-02    2,769973874e-01    5,162130594e-01    0,000000000e+00    0,000000000e+00    0,000000000e+00    0,000000000e+00
      842000000   -6,411834806e-02    2,038453706e-02    5,024564266e-01    2,916784585e-01    0,000000000e+00    0,000000000e+00    0,000000000e+00    0,000000000e+00
      856000000   -4,406286031e-02    1,981623843e-02    5,710172653e-01   -1,647584513e-02    0,000000000e+00    0,000000000e+00    0,000000000e+00    0,000000000e+00
      870000000   -1,477938145e-02    1,030338835e-02    4,643401206e-01   -3,066313267e-01    0,000000000e+00    0,000000000e+00    0,000000000e+00    0,000000000e+00
      884000000    1,055885199e-02   -2,244543657e-02    2,316228151e-01   -4,886875451e-01    0,000000000e+00    0,000000000e+00    0,000000000e+00    0,000000000e+00
      898000000    1,167818066e-02   -7,294646651e-02   -5,268430337e-02   -5,287933350e-01    0,000000000e+00    0,000000000e+00    0,000000000e+00    0,000000000e+00
      912000000   -2,896457352e-02   -1,160354838e-01   -3,628866673e-01   -4,149043560e-01    0,000000000e+00    0,000000000e+00    0,000000000e+00    0,000000000e+00
      926000000   -8,405277133e-02   -1,287092566e-01   -5,359489322e-01   -1,626954973e-01    0,000000000e+00    0,000000000e+00    0,000000000e+00    0,000000000e+00
      940000000   -1,312117577e-01   -1,021462753e-01   -5,565269589e-01    1,547078043e-01    0,000000000e+00    0,000000000e+00    0,000000000e+00    0,000000000e+00
      954000000   -1,447269619e-01   -5,819368362e-02   -3,943801820e-01    4,506709278e-01    0,000000000e+00    0,000000000e+00    0,000000000e+00    0,000000000e+00
      968000000   -1,335011721e-01   -2,088883147e-02   -9,355171025e-02    6,075826287e-01    0,000000000e+00    0,000000000e+00    0,000000000e+00    0,000000000e+00
      982000000   -1,152039766e-01   -1,486441400e-02    2,462966144e-01    5,779101253e-01    0,000000000e+00    0,000000000e+00    0,000000000e+00    0,000000000e+00
      996000000   -1,058669835e-01   -1,544921752e-02    5,189229250e-01    3,677994609e-01    0,000000000e+00    0,000000000e+00    0,000000000e+00    0,000000000e+00
     1010000000   -1,017676219e-01   -8,708626963e-03    6,344198585e-01    4,920087010e-02    0,000000000e+00    0,000000000e+00    0,000000000e+00    0,000000000e+00
     1024000000   -9,134384990e-02    4,491577391e-03    5,601142645e-01   -2,794761658e-01    0,000000000e+00    0,000000000e+00    0,000000000e+00    0,000000000e+00
     1038000000   -7,038119435e-02   -1,979968045e-03    3,289178312e-01   -5,108091831e-01    0,000000000e+00    0,000000000e+00    0,000000000e+00    0,000000000e+00
     1052000000   -5,550028756e-02   -1,862282492e-02    1,634188183e-02   -5,879391432e-01    0,000000000e+00    0,000000000e+00    0,000000000e+00    0,000000000e+00
     1066000000   -6,535811722e-02   -3,867920488e-02   -2,842357755e-01   -4,955258369e-01    0,000000000e+00    0,000000000e+00    0,000000000e+00    0,000000000e+00
     1080000000   -8,498273790e-02   -4,649228975e-02   -4,940465093e-01   -2,527408898e-01    0,000000000e+00    0,000000000e+00    0,000000000e+00    0,000000000e+00
     1094000000   -8,969075233e-02   -2,649888955e-02   -5,344447494e-01    6,650855392e-02    0,000000000e+00    0,000000000e+00    0,000000000e+00    0,000000000e+00
     1108000000   -7,428827137e-02   -1,290726103e-02   -3,845342696e-01    3,451249301e-01    0,000000000e+00    0,000000000e+00    0,000000000e+00    0,000000000e+00
     1122000000   -4,031517357e-02   -2,494095452e-02   -1,104853749e-01    4,868441224e-01    0,000000000e+00    0,000000000e+00    0,000000000e+00    0,000000000e+00
     1136000000   -3,129599243e-02   -7,461629808e-02    1,841232032e-01    4,568749368e-01    0,000000000e+00    0,000000000e+00    0,000000000e+00    0,000000000e+00
     1150000000   -5,805306137e-02   -1,242328361e-01    4,200074673e-01    2,887978256e-01    0,000000000e+00    0,000000000e+00    0,000000000e+00    0,000000000e+00
     1164000000   -1,236951202e-01   -1,428878903e-01    5,441331863e-01    6,934033241e-03    0,000000000e+00    0,000000000e+00    0,000000000e+00    0,000000000e+00
     1178000000   -1,933763325e-01   -1,241082549e-01    4,986198545e-01   -3,095756173e-01    0,000000000e+00    0,000000000e+00    0,000000000e+00    0,000000000e+00
     1192000000   -2,415900081e-01   -6,421346217e-02    2,764005661e-01   -5,679189563e-01    0,000000000e+00    0,000000000e+00    0,000000000e+00    0,000000000e+00
     1206000000   -2,414203286e-01    1,094503235e-02   -6,350370497e-02   -6,585956812e-01    0,000000000e+00    0,000000000e+00    0,000000000e+00    0,000000000e+00
     1220000000   -2,040850669e-01    7,396399975e-02   -3,964360654e-01   -5,488361716e-01    0,000000000e+00    0,000000000e+00    0,000000000e+00    0,000000000e+00
     1234000000   -1,431173533e-01    1,055592522e-01   -6,075686812e-01   -2,728896439e-01    0,000000000e+00    0,000000000e+00    0,000000000e+00    0,000000000e+00
     1248000000   -7,099194080e-02    1,083414853e-01   -6,311024427e-01    6,276269257e-02    0,000000000e+00    0,000000000e+00    0,000000000e+00    0,000000000e+00
     1262000000   -6,618526299e-03    7,534256577e-02   -4,778225422e-01    3,487448394e-01    0,000000000e+00    0,000000000e+00    0,000000000e+00    0,000000000e+00
     1276000000    3,462653607e-02    5,949663930e-03   -2,181143165e-01    5,101135373e-01    0,000000000e+00    0,000000000e+00    0,000000000e+00    0,000000000e+00
     1290000000    3,175565973e-02   -8,568651229e-02    6,800172478e-02    5,357467532e-01    0,000000000e+00    0,000000000e+00    0,000000000e+00    0,000000000e+00
     1304000000   -1,875890233e-02   -1,770876348e-01    3,415980935e-01    4,290840328e-01    0,000000000e+00    0,000000000e+00    0,000000000e+00    0,000000000e+00
     1318000000   -1,199073344e-01   -2,268581092e-01    5,449530482e-01    2,076926529e-01    0,000000000e+00    0,000000000e+00    0,000000000e+00    0,000000000e+00
     1332000000   -2,469411641e-01   -2,000798434e-01    6,133655310e-01   -1,136990413e-01    0,000000000e+00    0,000000000e+00    0,000000000e+00    0,000000000e+00
     1346000000   -3,320696950e-01   -1,049532816e-01    4,860733151e-01   -4,323220551e-01    0,000000000e+00    0,000000000e+00    0,000000000e+00    0,000000000e+00
     1360000000   -3,439492285e-01    1,624165848e-02    1,925091296e-01   -6,032910943e-01    0,000000000e+00    0,000000000e+00    0,000000000e+00    0,000000000e+00
     1374000000   -2,992804348e-01    1,051868349e-01   -1,490868032e-01   -5,637966990e-01    0,000000000e+00    0,000000000e+00    0,000000000e+00    0,000000000e+00
     1388000000   -2,216825634e-01    1,478384882e-01   -3,714268804e-01   -3,612774611e-01    0,000000000e+00    0,000000000e+00    0,000000000e+00    0,000000000e+00
     1402000000   -1,460478604e-01    1,505195498e-01   -4,408908486e-01   -5,935798958e-02    0,000000000e+00    0,000000000e+00    0,000000000e+00    0,000000000e+00
     1416000000   -8,395387232e-02    1,298684627e-01   -3,446456790e-01    2,299099565e-01    0,000000000e+00    0,000000000e+00    0,000000000e+00    0,000000000e+00
     1430000000   -4,106372595e-02    7,481921464e-02   -1,546649933e-01    4,260376394e-01    0,000000000e+00    0,000000000e+00    0,000000000e+00    0,000000000e+00
     1444000000   -2,087718621e-02    5,355427042e-03    1,693939567e-01    4,993512928e-01    0,000000000e+00    0,000000000e+00    0,000000000e+00    0,000000000e+00
     1458000000   -4,955974594e-02   -8,008008450e-02    4,625481963e-01    4,314679503e-01    0,000000000e+00    0,000000000e+00    0,000000000e+00    0,000000000e+00
     1472000000   -1,307741106e-01   -1,374772936e-01    7,357438207e-01    2,386423200e-01    0,000000000e+00    0,000000000e+00    0,000000000e+00    0,000000000e+00
     1486000000   -2,284058630e-01   -1,250443906e-01    8,559556603e-01   -8,745015413e-02    0,000000000e+00    0,000000000e+00    0,000000000e+00    0,000000000e+00
     1500000000   -2,943663001e-01   -4,846788198e-02    7,820626497e-01   -4,368514419e-01    0,000000000e+00    0,000000000e+00    0,000000000e+00    0,000000000e+00
