! NanoVNA-App
! Date: 2025-09-26 09:45:37
! Start: 100MHz Stop: 1,5GHz Points: 101
! S-Parameter data: F S11 S21 S12 S22
# Hz S RI R 50
!     Frequency           S11_Real           S11_Imag           S21_Real           S21_Imag           S12_Real           S12_Imag           S22_Real           S22_Imag
      100000000    3,044329025e-02    2,813377045e-02    4,339402020e-01   -6,701298952e-01    0,000000000e+00    0,000000000e+00    0,000000000e+00    0,000000000e+00
      114000000    5,647232383e-02    5,434997845e-03    5,899116397e-03   -7,918851376e-01    0,000000000e+00    0,000000000e+00    0,000000000e+00    0,000000000e+00
      128000000    6,617774814e-02   -3,717952594e-02   -4,126581252e-01   -6,710287929e-01    0,000000000e+00    0,000000000e+00    0,000000000e+00    0,000000000e+00
      142000000    4,406154528e-02   -8,280803263e-02   -7,051433921e-01   -3,516617715e-01    0,000000000e+00    0,000000000e+00    0,000000000e+00    0,000000000e+00
      156000000   -5,019532517e-03   -1,052032337e-01   -7,879549265e-01    7,697769254e-02    0,000000000e+00    0,000000000e+00    0,000000000e+00    0,000000000e+00
      170000000   -5,625403300e-02   -8,943735063e-02   -6,261159778e-01    4,897260964e-01    0,000000000e+00    0,000000000e+00    0,000000000e+00    0,000000000e+00
      184000000   -8,210024983e-02   -4,943165928e-02   -2,621560991e-01    7,529295087e-01    0,000000000e+00    0,000000000e+00    0,000000000e+00    0,000000000e+00
      198000000   -7,861340791e-02   -1,133965701e-02    1,863055229e-01    7,731537223e-01    0,000000000e+00    0,000000000e+00    0,000000000e+00    0,000000000e+00
      212000000   -6,218958274e-02    1,219744049e-02    5,721317530e-01    5,474599600e-01    0,000000000e+00    0,000000000e+00    0,000000000e+00    0,000000000e+00
      226000000   -4,366736487e-02    2,731094137e-02    7,723916769e-01    1,517668217e-01    0,000000000e+00    0,000000000e+00    0,000000000e+00    0,000000000e+00
      240000000   -1,851749793e-02    3,860778362e-02    7,270096540e-01   -2,846355140e-01    0,000000000e+00    0,000000000e+00    0,000000000e+00    0,000000000e+00
      254000000    1,718662120e-02    3,540238366e-02    4,568729401e-01   -6,223236322e-01    0,000000000e+00    0,000000000e+00    0,000000000e+00    0,000000000e+00
      268000000    4,876275733e-02    5,660122260e-03    5,704300851e-02   -7,616919279e-01    0,000000000e+00    0,000000000e+00    0,000000000e+00    0,000000000e+00
      282000000    5,335761234e-02   -4,161472991e-02   -3,512019217e-01   -6,719166040e-01    0,000000000e+00    0,000000000e+00    0,000000000e+00    0,000000000e+00
      296000000    2,417676710e-02   -7,884786278e-02   -6,544851661e-01   -3,843487799e-01    0,000000000e+00    0,000000000e+00    0,000000000e+00    0,000000000e+00
      310000000   -1,698966324e-02   -8,256383240e-02   -7,657335997e-01    2,438627928e-02    0,000000000e+00    0,000000000e+00    0,000000000e+00    0,000000000e+00
      324000000   -4,052875564e-02   -5,897448584e-02   -6,323134899e-01    4,349737167e-01    0,000000000e+00    0,000000000e+00    0,000000000e+00    0,000000000e+00
      338000000   -3,375431523e-02   -3,785378486e-02   -2,923289239e-01    7,033196688e-01    0,000000000e+00    0,000000000e+00    0,000000000e+00    0,000000000e+00
      352000000   -1,802406274e-02   -4,222824052e-02    1,290398538e-01    7,438353300e-01    0,000000000e+00    0,000000000e+00    0,000000000e+00    0,000000000e+00
      366000000   -2,084472962e-02   -6,193674356e-02    5,031098127e-01    5,540825725e-01    0,000000000e+00    0,000000000e+00    0,000000000e+00    0,000000000e+00
      380000000   -4,559781775e-02   -7,104303688e-02    7,171519995e-01    1,965656132e-01    0,000000000e+00    0,000000000e+00    0,000000000e+00    0,000000000e+00
      394000000   -6,951481104e-02   -5,544402823e-02    7,074373960e-01   -2,216760665e-01    0,000000000e+00    0,000000000e+00    0,000000000e+00    0,000000000e+00
      408000000   -7,321966439e-02   -2,987201884e-02    4,701913297e-01   -5,679118633e-01    0,000000000e+00    0,000000000e+00    0,000000000e+00    0,000000000e+00
      422000000   -6,218338013e-02   -1,422940567e-02    8,872143179e-02   -7,248980403e-01    0,000000000e+00    0,000000000e+00    0,000000000e+00    0,000000000e+00
      436000000   -5,404653400e-02   -1,055400260e-02   -3,127188683e-01   -6,520638466e-01    0,000000000e+00    0,000000000e+00    0,000000000e+00    0,000000000e+00
      450000000   -5,250994489e-02   -1,142595662e-03   -6,079814434e-01   -3,727571070e-01    0,000000000e+00    0,000000000e+00    0,000000000e+00    0,000000000e+00
      464000000   -3,822909668e-02    1,860466227e-02   -7,002118230e-01    1,905293949e-02    0,000000000e+00    0,000000000e+00    0,000000000e+00    0,000000000e+00
      478000000    1,461262116e-03    2,612154745e-02   -5,611103773e-01    3,860258460e-01    0,000000000e+00    0,000000000e+00    0,000000000e+00    0,000000000e+00
      492000000    4,545783997e-02   -4,218874499e-03   -2,604101896e-01    6,061662436e-01    0,000000000e+00    0,000000000e+00    0,000000000e+00    0,000000000e+00
      506000000    5,581051111e-02   -6,707869470e-02    9,055476636e-02    6,371477246e-01    0,000000000e+00    0,000000000e+00    0,000000000e+00    0,000000000e+00
      520000000    1,544482727e-02   -1,226335689e-01    3,996191621e-01    4,958276749e-01    0,000000000e+00    0,000000000e+00    0,000000000e+00    0,000000000e+00
      534000000   -5,212953687e-02   -1,328484416e-01    6,023409963e-01    2,217206955e-01    0,000000000e+00    0,000000000e+00    0,000000000e+00    0,000000000e+00
      548000000   -1,010619029e-01   -9,590686113e-02    6,357963085e-01   -1,288092136e-01    0,000000000e+00    0,000000000e+00    0,000000000e+00    0,000000000e+00
      562000000   -1,047022045e-01   -4,661631957e-02    4,689332843e-01   -4,494251609e-01    0,000000000e+00    0,000000000e+00    0,000000000e+00    0,000000000e+00
      576000000   -8,017399907e-02   -2,444420569e-02    1,518013030e-01   -6,288399696e-01    0,000000000e+00    0,000000000e+00    0,000000000e+00    0,000000000e+00
      590000000   -6,413779408e-02   -3,288292512e-02   -2,080015987e-01   -6,158823967e-01    0,000000000e+00    0,000000000e+00    0,000000000e+00    0,000000000e+00
      604000000   -7,196820527e-02   -4,145331308e-02   -5,022665858e-01   -4,052966833e-01    0,000000000e+00    0,000000000e+00    0,000000000e+00    0,000000000e+00
      618000000   -8,825141191e-02   -2,885222249e-02   -6,420952678e-01   -6,931965798e-02    0,000000000e+00    0,000000000e+00    0,000000000e+00    0,000000000e+00
      632000000   -8,357477933e-02    1,696114778e-03   -5,749678612e-01    2,898465693e-01    0,000000000e+00    0,000000000e+00    0,000000000e+00    0,000000000e+00
      646000000   -5,176630244e-02    1,834353246e-02   -3,264245391e-01    5,480149984e-01    0,000000000e+00    0,000000000e+00    0,000000000e+00    0,000000000e+00
      660000000   -1,880110614e-02    5,764489062e-03    1,337073371e-02    6,270491481e-01    0,000000000e+00    0,000000000e+00    0,000000000e+00    0,000000000e+00
      674000000   -5,817034747e-03   -2,343295701e-02    3,361333311e-01    5,207709670e-01    0,000000000e+00    0,000000000e+00    0,000000000e+00    0,000000000e+00
      688000000   -1,566683315e-02   -4,595834389e-02    5,548611283e-01    2,619914711e-01    0,000000000e+00    0,000000000e+00    0,000000000e+00    0,000000000e+00
      702000000   -2,837262489e-02   -5,296291411e-02    6,012231708e-01   -7,691145688e-02    0,000000000e+00    0,000000000e+00    0,000000000e+00    0,000000000e+00
      716000000   -2,852330357e-02   -5,407056585e-02    4,591588676e-01   -3,851016462e-01    0,000000000e+00    0,000000000e+00    0,000000000e+00    0,000000000e+00
      730000000   -2,391005866e-02   -6,810127199e-02    1,783619076e-01   -5,615477562e-01    0,000000000e+00    0,000000000e+00    0,000000000e+00    0,000000000e+00
      744000000   -3,577901796e-02   -9,550773352e-02   -1,462547928e-01   -5,623353720e-01    0,000000000e+00    0,000000000e+00    0,000000000e+00    0,000000000e+00
      758000000   -7,212540507e-02   -1,139470488e-01   -4,216630757e-01   -3,980025947e-01    0,000000000e+00    0,000000000e+00    0,000000000e+00    0,000000000e+00
      772000000   -1,190637499e-01   -1,006225869e-01   -5,728909969e-01   -1,131539419e-01    0,000000000e+00    0,000000000e+00    0,000000000e+00    0,000000000e+00
      786000000   -1,478439271e-01   -5,867271125e-02   -5,481245518e-01    2,156086266e-01    0,000000000e+00    0,000000000e+00    0,000000000e+00    0,000000000e+00
      800000000   -1,407496631e-01   -9,996528737e-03   -3,466408253e-01    4,786302447e-01    0,000000000e+00    0,000000000e+00    0,000000000e+00    0,000000000e+00
      814000000   -1,119325310e-01    1,590638235e-02   -3,780831024e-02    5,884639621e-01    0,000000000e+00    0,000000000e+00    0,000000000e+00    0,000000000e+00
      828000000   -8,344569057e-02    2,124550752e-02    2,763033807e-01    5,160958767e-01    0,000000000e+00    0,000000000e+00    0,000000000e+00    0,000000000e+00
      842000000   -6,370814145e-02    2,008134127e-02    5,017790198e-01    2,913671732e-01    0,000000000e+00    0,000000000e+00    0,000000000e+00    0,000000000e+00
      856000000   -4,305818677e-02    1,974820346e-02    5,707818866e-01   -1,640047319e-02    0,000000000e+00    0,000000000e+00    0,000000000e+00    0,000000000e+00
      870000000   -1,453158446e-02    1,010282058e-02    4,642842114e-01   -3,061316311e-01    0,000000000e+00    0,000000000e+00    0,000000000e+00    0,000000000e+00
      884000000    1,041696686e-02   -2,266775444e-02    2,304107249e-01   -4,895024598e-01    0,000000000e+00    0,000000000e+00    0,000000000e+00    0,000000000e+00
      898000000    1,151548605e-02   -7,291823626e-02   -5,303581059e-02   -5,293585658e-01    0,000000000e+00    0,000000000e+00    0,000000000e+00    0,000000000e+00
      912000000   -2,909117378e-02   -1,152179763e-01   -3,651828170e-01   -4,136961997e-01    0,000000000e+00    0,000000000e+00    0,000000000e+00    0,000000000e+00
      926000000   -8,232122660e-02   -1,253946126e-01   -5,341886878e-01   -1,596963406e-01    0,000000000e+00    0,000000000e+00    0,000000000e+00    0,000000000e+00
      940000000   -1,302004308e-01   -1,029454544e-01   -5,560334325e-01    1,553925574e-01    0,000000000e+00    0,000000000e+00    0,000000000e+00    0,000000000e+00
      954000000   -1,464607716e-01   -5,265821144e-02   -3,935892582e-01    4,498151541e-01    0,000000000e+00    0,000000000e+00    0,000000000e+00    0,000000000e+00
      968000000   -1,292265952e-01   -2,452290803e-02   -9,073189646e-02    6,076671481e-01    0,000000000e+00    0,000000000e+00    0,000000000e+00    0,000000000e+00
      982000000   -1,141278744e-01   -1,192083582e-02    2,442153394e-01    5,757230520e-01    0,000000000e+00    0,000000000e+00    0,000000000e+00    0,000000000e+00
      996000000   -1,026554182e-01   -1,481641177e-02    5,183659792e-01    3,679277599e-01    0,000000000e+00    0,000000000e+00    0,000000000e+00    0,000000000e+00
     1010000000   -1,036628261e-01   -7,824290544e-03    6,340441108e-01    4,711989313e-02    0,000000000e+00    0,000000000e+00    0,000000000e+00    0,000000000e+00
     1024000000   -8,789718896e-02    3,721332178e-03    5,617231131e-01   -2,801012397e-01    0,000000000e+00    0,000000000e+00    0,000000000e+00    0,000000000e+00
     1038000000   -6,942465901e-02   -3,404277842e-03    3,291210532e-01   -5,113157034e-01    0,000000000e+00    0,000000000e+00    0,000000000e+00    0,000000000e+00
     1052000000   -5,687391758e-02   -1,849079691e-02    1,629053056e-02   -5,890803337e-01    0,000000000e+00    0,000000000e+00    0,000000000e+00    0,000000000e+00
     1066000000   -6,460297108e-02   -4,377027228e-02   -2,817698121e-01   -4,922081530e-01    0,000000000e+00    0,000000000e+00    0,000000000e+00    0,000000000e+00
     1080000000   -8,851214498e-02   -4,078996554e-02   -4,933108091e-01   -2,539846897e-01    0,000000000e+00    0,000000000e+00    0,000000000e+00    0,000000000e+00
     1094000000   -9,503488988e-02   -2,403413691e-02   -5,325645804e-01    6,663107872e-02    0,000000000e+00    0,000000000e+00    0,000000000e+00    0,000000000e+00
     1108000000   -6,786555052e-02   -1,090002619e-02   -3,824689388e-01    3,455327451e-01    0,000000000e+00    0,000000000e+00    0,000000000e+00    0,000000000e+00
     1122000000   -4,280121624e-02   -2,768656611e-02   -1,101031229e-01    4,869927764e-01    0,000000000e+00    0,000000000e+00    0,000000000e+00    0,000000000e+00
     1136000000   -3,184562922e-02   -7,270443439e-02    1,864794642e-01    4,598814547e-01    0,000000000e+00    0,000000000e+00    0,000000000e+00    0,000000000e+00
     1150000000   -6,190571189e-02   -1,229634658e-01    4,168747663e-01    2,867983580e-01    0,000000000e+00    0,000000000e+00    0,000000000e+00    0,000000000e+00
     1164000000   -1,254574507e-01   -1,497315764e-01    5,419902802e-01    1,082074456e-02    0,000000000e+00    0,000000000e+00    0,000000000e+00    0,000000000e+00
     1178000000   -1,953485310e-01   -1,290474236e-01    4,990442991e-01   -3,064970970e-01    0,000000000e+00    0,000000000e+00    0,000000000e+00    0,000000000e+00
     1192000000   -2,368105799e-01   -6,485408545e-02    2,792997658e-01   -5,715542436e-01    0,000000000e+00    0,000000000e+00    0,000000000e+00    0,000000000e+00
     1206000000   -2,377311885e-01    1,022931747e-02   -6,184456125e-02   -6,618195772e-01    0,000000000e+00    0,000000000e+00    0,000000000e+00    0,000000000e+00
     1220000000   -2,051829845e-01    7,489939779e-02   -4,003220797e-01   -5,452126265e-01    0,000000000e+00    0,000000000e+00    0,000000000e+00    0,000000000e+00
     1234000000   -1,417020410e-01    1,058276594e-01   -6,066361070e-01   -2,730492651e-01    0,000000000e+00    0,000000000e+00    0,000000000e+00    0,000000000e+00
     1248000000   -7,805331796e-02    1,048512682e-01   -6,346207857e-01    6,166680902e-02    0,000000000e+00    0,000000000e+00    0,000000000e+00    0,000000000e+00
     1262000000   -1,294089667e-02    7,295582443e-02   -4,846004248e-01    3,510085642e-01    0,000000000e+00    0,000000000e+00    0,000000000e+00    0,000000000e+00
     1276000000    3,102352843e-02    5,480053369e-03   -2,237991393e-01    5,097998977e-01    0,000000000e+00    0,000000000e+00    0,000000000e+00    0,000000000e+00
     1290000000    3,737197444e-02   -8,274863660e-02    7,201582938e-02    5,362898111e-01    0,000000000e+00    0,000000000e+00    0,000000000e+00    0,000000000e+00
     1304000000   -2,093138173e-02   -1,727183759e-01    3,362207115e-01    4,271250367e-01    0,000000000e+00    0,000000000e+00    0,000000000e+00    0,000000000e+00
     1318000000   -1,230839789e-01   -2,206230611e-01    5,511097312e-01    2,114499509e-01    0,000000000e+00    0,000000000e+00    0,000000000e+00    0,000000000e+00
     1332000000   -2,464681119e-01   -2,040696442e-01    6,138967872e-01   -1,158010364e-01    0,000000000e+00    0,000000000e+00    0,000000000e+00    0,000000000e+00
     1346000000   -3,368960917e-01   -1,048356518e-01    4,871293306e-01   -4,275258482e-01    0,000000000e+00    0,000000000e+00    0,000000000e+00    0,000000000e+00
     1360000000   -3,461960554e-01    1,197829749e-02    1,908065677e-01   -6,112472415e-01    0,000000000e+00    0,000000000e+00    0,000000000e+00    0,000000000e+00
     1374000000   -2,919178605e-01    1,068463996e-01   -1,335544288e-01   -5,740557909e-01    0,000000000e+00    0,000000000e+00    0,000000000e+00    0,000000000e+00
     1388000000   -2,207890600e-01    1,488370448e-01   -3,800019026e-01   -3,515325785e-01    0,000000000e+00    0,000000000e+00    0,000000000e+00    0,000000000e+00
     1402000000   -1,477696002e-01    1,593617201e-01   -4,521702230e-01   -5,959541723e-02    0,000000000e+00    0,000000000e+00    0,000000000e+00    0,000000000e+00
     1416000000   -8,251985908e-02    1,278043836e-01   -3,544826210e-01    2,318027169e-01    0,000000000e+00    0,000000000e+00    0,000000000e+00    0,000000000e+00
     1430000000   -3,661990911e-02    7,621353120e-02   -1,543319374e-01    4,159641564e-01    0,000000000e+00    0,000000000e+00    0,000000000e+00    0,000000000e+00
     1444000000   -2,149450965e-02    3,740010085e-03    1,481907964e-01    4,913954735e-01    0,000000000e+00    0,000000000e+00    0,000000000e+00    0,000000000e+00
     1458000000   -5,064763874e-02   -7,743596286e-02    4,641416073e-01    4,482320249e-01    0,000000000e+00    0,000000000e+00    0,000000000e+00    0,000000000e+00
     1472000000   -1,331981868e-01   -1,283068955e-01    7,192552090e-01    2,409546822e-01    0,000000000e+00    0,000000000e+00    0,000000000e+00    0,000000000e+00
     1486000000   -2,296741754e-01   -1,214461103e-01    8,411142826e-01   -9,792897105e-02    0,000000000e+00    0,000000000e+00    0,000000000e+00    0,000000000e+00
     1500000000   -2,910168767e-01   -5,258227512e-02    7,830801010e-01   -4,516782463e-01    0,000000000e+00    0,000000000e+00    0,000000000e+00    0,000000000e+00
