! NanoVNA-App
! Date: 2025-09-26 09:45:28
! Start: 100MHz Stop: 1,5GHz Points: 101
! S-Parameter data: F S11 S21 S12 S22
# Hz S RI R 50
!     Frequency           S11_Real           S11_Imag           S21_Real           S21_Imag           S12_Real           S12_Imag           S22_Real           S22_Imag
      100000000    3,043792583e-02    2,813643776e-02    4,339186847e-01   -6,701285839e-01    0,000000000e+00    0,000000000e+00    0,000000000e+00    0,000000000e+00
      114000000    5,649847165e-02    5,461187568e-03    5,850709975e-03   -7,919781804e-01    0,000000000e+00    0,000000000e+00    0,000000000e+00    0,000000000e+00
      128000000    6,612626463e-02   -3,717599809e-02   -4,126071334e-01   -6,708691716e-01    0,000000000e+00    0,000000000e+00    0,000000000e+00    0,000000000e+00
      142000000    4,408296943e-02   -8,278416097e-02   -7,047340274e-01   -3,517518342e-01    0,000000000e+00    0,000000000e+00    0,000000000e+00    0,000000000e+00
      156000000   -5,134177860e-03   -1,051850542e-01   -7,878368497e-01    7,704071701e-02    0,000000000e+00    0,000000000e+00    0,000000000e+00    0,000000000e+00
      170000000   -5,631956458e-02   -8,946922421e-02   -6,264773607e-01    4,899404645e-01    0,000000000e+00    0,000000000e+00    0,000000000e+00    0,000000000e+00
      184000000   -8,211123943e-02   -4,942355677e-02   -2,622462213e-01    7,530233860e-01    0,000000000e+00    0,000000000e+00    0,000000000e+00    0,000000000e+00
      198000000   -7,859652489e-02   -1,127542369e-02    1,869484782e-01    7,729908228e-01    0,000000000e+00    0,000000000e+00    0,000000000e+00    0,000000000e+00
      212000000   -6,211987883e-02    1,225689799e-02    5,720677972e-01    5,472269654e-01    0,000000000e+00    0,000000000e+00    0,000000000e+00    0,000000000e+00
      226000000   -4,366971180e-02    2,728356794e-02    7,723247409e-01    1,517467052e-01    0,000000000e+00    0,000000000e+00    0,000000000e+00    0,000000000e+00
      240000000   -1,850081980e-02    3,858957067e-02    7,270972133e-01   -2,848197520e-01    0,000000000e+00    0,000000000e+00    0,000000000e+00    0,000000000e+00
      254000000    1,718614995e-02    3,535872325e-02    4,570628107e-01   -6,227452159e-01    0,000000000e+00    0,000000000e+00    0,000000000e+00    0,000000000e+00
      268000000    4,878931120e-02    5,726187024e-03    5,706219375e-02   -7,615396976e-01    0,000000000e+00    0,000000000e+00    0,000000000e+00    0,000000000e+00
      282000000    5,335555598e-02   -4,152616113e-02   -3,514229357e-01   -6,722166538e-01    0,000000000e+00    0,000000000e+00    0,000000000e+00    0,000000000e+00
      296000000    2,418260463e-02   -7,886620611e-02   -6,539636850e-01   -3,844447434e-01    0,000000000e+00    0,000000000e+00    0,000000000e+00    0,000000000e+00
      310000000   -1,695785299e-02   -8,256644011e-02   -7,654162645e-01    2,401865833e-02    0,000000000e+00    0,000000000e+00    0,000000000e+00    0,000000000e+00
      324000000   -4,037279263e-02   -5,894068629e-02   -6,316678524e-01    4,345537722e-01    0,000000000e+00    0,000000000e+00    0,000000000e+00    0,000000000e+00
      338000000   -3,355051950e-02   -3,820615262e-02   -2,942865789e-01    7,053210139e-01    0,000000000e+00    0,000000000e+00    0,000000000e+00    0,000000000e+00
      352000000   -1,782708615e-02   -4,224373400e-02    1,298664361e-01    7,447766662e-01    0,000000000e+00    0,000000000e+00    0,000000000e+00    0,000000000e+00
      366000000   -2,096023969e-02   -6,191992015e-02    5,023503900e-01    5,544480681e-01    0,000000000e+00    0,000000000e+00    0,000000000e+00    0,000000000e+00
      380000000   -4,566160217e-02   -7,080423087e-02    7,170798182e-01    1,969150156e-01    0,000000000e+00    0,000000000e+00    0,000000000e+00    0,000000000e+00
      394000000   -6,967392564e-02   -5,536132678e-02    7,059465647e-01   -2,216409147e-01    0,000000000e+00    0,000000000e+00    0,000000000e+00    0,000000000e+00
      408000000   -7,321938872e-02   -2,983057126e-02    4,703222215e-01   -5,667249560e-01    0,000000000e+00    0,000000000e+00    0,000000000e+00    0,000000000e+00
      422000000   -6,200588867e-02   -1,454684697e-02    8,843007684e-02   -7,250220180e-01    0,000000000e+00    0,000000000e+00    0,000000000e+00    0,000000000e+00
      436000000   -5,400968716e-02   -1,049151458e-02   -3,124582469e-01   -6,521522403e-01    0,000000000e+00    0,000000000e+00    0,000000000e+00    0,000000000e+00
      450000000   -5,220375955e-02   -1,273996895e-03   -6,078232527e-01   -3,732948601e-01    0,000000000e+00    0,000000000e+00    0,000000000e+00    0,000000000e+00
      464000000   -3,796339408e-02    1,870098710e-02   -6,998761892e-01    1,922127046e-02    0,000000000e+00    0,000000000e+00    0,000000000e+00    0,000000000e+00
      478000000    1,477411948e-03    2,657986432e-02   -5,607408881e-01    3,866606951e-01    0,000000000e+00    0,000000000e+00    0,000000000e+00    0,000000000e+00
      492000000    4,589796811e-02   -4,211148247e-03   -2,602480352e-01    6,062821746e-01    0,000000000e+00    0,000000000e+00    0,000000000e+00    0,000000000e+00
      506000000    5,579208210e-02   -6,703917682e-02    9,051696956e-02    6,371824145e-01    0,000000000e+00    0,000000000e+00    0,000000000e+00    0,000000000e+00
      520000000    1,544813719e-02   -1,218046024e-01    3,969463706e-01    4,973860681e-01    0,000000000e+00    0,000000000e+00    0,000000000e+00    0,000000000e+00
      534000000   -5,211989582e-02   -1,327323467e-01    6,024885774e-01    2,219360322e-01    0,000000000e+00    0,000000000e+00    0,000000000e+00    0,000000000e+00
      548000000   -1,010966524e-01   -9,531570971e-02    6,354967356e-01   -1,286262423e-01    0,000000000e+00    0,000000000e+00    0,000000000e+00    0,000000000e+00
      562000000   -1,051560417e-01   -4,706683010e-02    4,689701796e-01   -4,504334331e-01    0,000000000e+00    0,000000000e+00    0,000000000e+00    0,000000000e+00
      576000000   -7,999626547e-02   -2,496818826e-02    1,516446769e-01   -6,288457513e-01    0,000000000e+00    0,000000000e+00    0,000000000e+00    0,000000000e+00
      590000000   -6,405770779e-02   -3,285717964e-02   -2,079183906e-01   -6,159103513e-01    0,000000000e+00    0,000000000e+00    0,000000000e+00    0,000000000e+00
      604000000   -7,190007716e-02   -4,136827588e-02   -5,025757551e-01   -4,056667387e-01    0,000000000e+00    0,000000000e+00    0,000000000e+00    0,000000000e+00
      618000000   -8,805620670e-02   -2,895115130e-02   -6,422137618e-01   -6,950460374e-02    0,000000000e+00    0,000000000e+00    0,000000000e+00    0,000000000e+00
      632000000   -8,321432024e-02    9,907691274e-04   -5,756204724e-01    2,891170382e-01    0,000000000e+00    0,000000000e+00    0,000000000e+00    0,000000000e+00
      646000000   -5,163727328e-02    1,803697087e-02   -3,262855709e-01    5,477388501e-01    0,000000000e+00    0,000000000e+00    0,000000000e+00    0,000000000e+00
      660000000   -1,784138009e-02    6,012908183e-03    1,162115950e-02    6,285433173e-01    0,000000000e+00    0,000000000e+00    0,000000000e+00    0,000000000e+00
      674000000   -6,626133341e-03   -2,340785041e-02    3,360509574e-01    5,208711028e-01    0,000000000e+00    0,000000000e+00    0,000000000e+00    0,000000000e+00
      688000000   -1,666978747e-02   -4,648941010e-02    5,550121069e-01    2,619317472e-01    0,000000000e+00    0,000000000e+00    0,000000000e+00    0,000000000e+00
      702000000   -2,977832220e-02   -5,236325786e-02    6,052573323e-01   -7,655660063e-02    0,000000000e+00    0,000000000e+00    0,000000000e+00    0,000000000e+00
      716000000   -2,899230085e-02   -5,349249020e-02    4,596309960e-01   -3,844169378e-01    0,000000000e+00    0,000000000e+00    0,000000000e+00    0,000000000e+00
      730000000   -2,316477895e-02   -6,822019070e-02    1,769441217e-01   -5,610727668e-01    0,000000000e+00    0,000000000e+00    0,000000000e+00    0,000000000e+00
      744000000   -3,565109521e-02   -9,664665908e-02   -1,466270536e-01   -5,621738434e-01    0,000000000e+00    0,000000000e+00    0,000000000e+00    0,000000000e+00
      758000000   -7,212115079e-02   -1,142487898e-01   -4,215655029e-01   -3,983131349e-01    0,000000000e+00    0,000000000e+00    0,000000000e+00    0,000000000e+00
      772000000   -1,204431802e-01   -1,012070775e-01   -5,722582340e-01   -1,129284576e-01    0,000000000e+00    0,000000000e+00    0,000000000e+00    0,000000000e+00
      786000000   -1,483423859e-01   -5,797214434e-02   -5,480027795e-01    2,150403112e-01    0,000000000e+00    0,000000000e+00    0,000000000e+00    0,000000000e+00
      800000000   -1,413073987e-01   -1,074224804e-02   -3,468979299e-01    4,780494273e-01    0,000000000e+00    0,000000000e+00    0,000000000e+00    0,000000000e+00
      814000000   -1,114299968e-01    1,662579924e-02   -3,816942871e-02    5,877812505e-01    0,000000000e+00    0,000000000e+00    0,000000000e+00    0,000000000e+00
      828000000   -8,334355056e-02    2,167457156e-02    2,777172923e-01    5,162760615e-01    0,000000000e+00    0,000000000e+00    0,000000000e+00    0,000000000e+00
      842000000   -6,368833035e-02    2,067818679e-02    5,021650195e-01    2,912074924e-01    0,000000000e+00    0,000000000e+00    0,000000000e+00    0,000000000e+00
      856000000   -4,380067438e-02    2,024628222e-02    5,707608461e-01   -1,697215438e-02    0,000000000e+00    0,000000000e+00    0,000000000e+00    0,000000000e+00
      870000000   -1,507688779e-02    9,315527976e-03    4,637377560e-01   -3,058168590e-01    0,000000000e+00    0,000000000e+00    0,000000000e+00    0,000000000e+00
      884000000    1,003140397e-02   -2,265436947e-02    2,312414944e-01   -4,893206358e-01    0,000000000e+00    0,000000000e+00    0,000000000e+00    0,000000000e+00
      898000000    1,184828021e-02   -7,313134521e-02   -5,224069953e-02   -5,275049806e-01    0,000000000e+00    0,000000000e+00    0,000000000e+00    0,000000000e+00
      912000000   -2,849936113e-02   -1,159074754e-01   -3,582807779e-01   -3,986051679e-01    0,000000000e+00    0,000000000e+00    0,000000000e+00    0,000000000e+00
      926000000   -8,352224529e-02   -1,282926500e-01   -5,344700813e-01   -1,646760851e-01    0,000000000e+00    0,000000000e+00    0,000000000e+00    0,000000000e+00
      940000000   -1,313636750e-01   -9,886067361e-02   -5,573934317e-01    1,572729051e-01    0,000000000e+00    0,000000000e+00    0,000000000e+00    0,000000000e+00
      954000000   -1,443179399e-01   -5,793885514e-02   -3,956823349e-01    4,493065476e-01    0,000000000e+00    0,000000000e+00    0,000000000e+00    0,000000000e+00
      968000000   -1,298041493e-01   -2,563497983e-02   -9,334527701e-02    6,054552197e-01    0,000000000e+00    0,000000000e+00    0,000000000e+00    0,000000000e+00
      982000000   -1,099277511e-01   -1,536793355e-02    2,474431098e-01    5,767733455e-01    0,000000000e+00    0,000000000e+00    0,000000000e+00    0,000000000e+00
      996000000   -1,027445421e-01   -1,458216459e-02    5,161405802e-01    3,667020202e-01    0,000000000e+00    0,000000000e+00    0,000000000e+00    0,000000000e+00
     1010000000   -9,886798263e-02   -6,653344724e-03    6,358786821e-01    4,846983403e-02    0,000000000e+00    0,000000000e+00    0,000000000e+00    0,000000000e+00
     1024000000   -8,994554728e-02    4,203166172e-04    5,610239506e-01   -2,785986662e-01    0,000000000e+00    0,000000000e+00    0,000000000e+00    0,000000000e+00
     1038000000   -6,922704726e-02    1,099927118e-03    3,275780678e-01   -5,139006376e-01    0,000000000e+00    0,000000000e+00    0,000000000e+00    0,000000000e+00
     1052000000   -5,763642862e-02   -1,852845773e-02    1,755357720e-02   -5,887014270e-01    0,000000000e+00    0,000000000e+00    0,000000000e+00    0,000000000e+00
     1066000000   -6,616279483e-02   -4,446910322e-02   -2,897672653e-01   -4,925441444e-01    0,000000000e+00    0,000000000e+00    0,000000000e+00    0,000000000e+00
     1080000000   -8,251404762e-02   -4,556985199e-02   -4,927753806e-01   -2,518287897e-01    0,000000000e+00    0,000000000e+00    0,000000000e+00    0,000000000e+00
     1094000000   -8,834401518e-02   -2,570505813e-02   -5,330895782e-01    6,479153782e-02    0,000000000e+00    0,000000000e+00    0,000000000e+00    0,000000000e+00
     1108000000   -7,379257679e-02   -1,163503341e-02   -3,824004233e-01    3,463781178e-01    0,000000000e+00    0,000000000e+00    0,000000000e+00    0,000000000e+00
     1122000000   -3,907465562e-02   -2,596332692e-02   -1,129257753e-01    4,866039455e-01    0,000000000e+00    0,000000000e+00    0,000000000e+00    0,000000000e+00
     1136000000   -2,943509631e-02   -7,609620690e-02    1,822700948e-01    4,573931396e-01    0,000000000e+00    0,000000000e+00    0,000000000e+00    0,000000000e+00
     1150000000   -5,694140121e-02   -1,254599690e-01    4,198651016e-01    2,896389663e-01    0,000000000e+00    0,000000000e+00    0,000000000e+00    0,000000000e+00
     1164000000   -1,236189380e-01   -1,443876624e-01    5,422614217e-01    9,635071270e-03    0,000000000e+00    0,000000000e+00    0,000000000e+00    0,000000000e+00
     1178000000   -1,958843768e-01   -1,228345037e-01    4,965748489e-01   -3,075989783e-01    0,000000000e+00    0,000000000e+00    0,000000000e+00    0,000000000e+00
     1192000000   -2,410637587e-01   -6,092652678e-02    2,799239159e-01   -5,676912069e-01    0,000000000e+00    0,000000000e+00    0,000000000e+00    0,000000000e+00
     1206000000   -2,347500324e-01    1,256262232e-02   -6,107751653e-02   -6,618270278e-01    0,000000000e+00    0,000000000e+00    0,000000000e+00    0,000000000e+00
     1220000000   -2,011430711e-01    7,257152349e-02   -3,992584646e-01   -5,464512706e-01    0,000000000e+00    0,000000000e+00    0,000000000e+00    0,000000000e+00
     1234000000   -1,420066655e-01    1,118322536e-01   -6,119325161e-01   -2,715367079e-01    0,000000000e+00    0,000000000e+00    0,000000000e+00    0,000000000e+00
     1248000000   -7,511653006e-02    1,068700776e-01   -6,325848699e-01    6,251072139e-02    0,000000000e+00    0,000000000e+00    0,000000000e+00    0,000000000e+00
     1262000000   -7,683225442e-03    7,122407854e-02   -4,831627309e-01    3,488927484e-01    0,000000000e+00    0,000000000e+00    0,000000000e+00    0,000000000e+00
     1276000000    3,419547901e-02    3,617851529e-03   -2,202008963e-01    5,120074749e-01    0,000000000e+00    0,000000000e+00    0,000000000e+00    0,000000000e+00
     1290000000    3,628861532e-02   -8,681064099e-02    7,310220599e-02    5,403182507e-01    0,000000000e+00    0,000000000e+00    0,000000000e+00    0,000000000e+00
     1304000000   -1,547261514e-02   -1,732006669e-01    3,453250229e-01    4,333833158e-01    0,000000000e+00    0,000000000e+00    0,000000000e+00    0,000000000e+00
     1318000000   -1,197914258e-01   -2,241972089e-01    5,483818650e-01    2,083666623e-01    0,000000000e+00    0,000000000e+00    0,000000000e+00    0,000000000e+00
     1332000000   -2,469093949e-01   -2,019986212e-01    6,183732748e-01   -1,110544801e-01    0,000000000e+00    0,000000000e+00    0,000000000e+00    0,000000000e+00
     1346000000   -3,334828615e-01   -1,046145633e-01    4,830017686e-01   -4,273288250e-01    0,000000000e+00    0,000000000e+00    0,000000000e+00    0,000000000e+00
     1360000000   -3,477157354e-01    1,519668475e-02    1,875890046e-01   -6,100902557e-01    0,000000000e+00    0,000000000e+00    0,000000000e+00    0,000000000e+00
     1374000000   -2,964781225e-01    1,068234369e-01   -1,479739994e-01   -5,654559731e-01    0,000000000e+00    0,000000000e+00    0,000000000e+00    0,000000000e+00
     1388000000   -2,256835103e-01    1,461615413e-01   -3,827674389e-01   -3,592166305e-01    0,000000000e+00    0,000000000e+00    0,000000000e+00    0,000000000e+00
     1402000000   -1,492200941e-01    1,526332349e-01   -4,512040019e-01   -5,356870219e-02    0,000000000e+00    0,000000000e+00    0,000000000e+00    0,000000000e+00
     1416000000   -8,720197529e-02    1,291607320e-01   -3,490161300e-01    2,345048338e-01    0,000000000e+00    0,000000000e+00    0,000000000e+00    0,000000000e+00
     1430000000   -4,110939801e-02    7,660048455e-02   -1,505329758e-01    4,192915857e-01    0,000000000e+00    0,000000000e+00    0,000000000e+00    0,000000000e+00
     1444000000   -2,226270363e-02    3,900521668e-03    1,535140127e-01    5,005686283e-01    0,000000000e+00    0,000000000e+00    0,000000000e+00    0,000000000e+00
     1458000000   -5,160530657e-02   -7,629992813e-02    4,643062949e-01    4,367002249e-01    0,000000000e+00    0,000000000e+00    0,000000000e+00    0,000000000e+00
     1472000000   -1,300930530e-01   -1,359221637e-01    7,342329621e-01    2,432006299e-01    0,000000000e+00    0,000000000e+00    0,000000000e+00    0,000000000e+00
     1486000000   -2,292229533e-01   -1,251475364e-01    8,438450098e-01   -9,241397679e-02    0,000000000e+00    0,000000000e+00    0,000000000e+00    0,000000000e+00
     1500000000   -2,878705859e-01   -5,922392756e-02    7,639645338e-01   -4,496258795e-01    0,000000000e+00    0,000000000e+00    0,000000000e+00    0,000000000e+00
