! NanoVNA-App
! Date: 2025-09-25 15:58:02
! Start: 100MHz Stop: 1,5GHz Points: 101
! S-Parameter data: F S11 S21 S12 S22
# Hz S RI R 50
!     Frequency           S11_Real           S11_Imag           S21_Real           S21_Imag           S12_Real           S12_Imag           S22_Real           S22_Imag
      100000000   -2,822794393e-02   -2,838199027e-03    3,722575903e-01   -7,224406600e-01    0,000000000e+00    0,000000000e+00    0,000000000e+00    0,000000000e+00
      114000000   -1,566295885e-02    1,287169289e-02   -9,139336646e-02   -8,048264384e-01    0,000000000e+00    0,000000000e+00    0,000000000e+00    0,000000000e+00
      128000000    4,345607944e-03    1,190507319e-02   -5,158748627e-01   -6,189326048e-01    0,000000000e+00    0,000000000e+00    0,000000000e+00    0,000000000e+00
      142000000    1,548716705e-02   -1,805627369e-03   -7,674067020e-01   -2,341420501e-01    0,000000000e+00    0,000000000e+00    0,000000000e+00    0,000000000e+00
      156000000    1,584739797e-02   -1,280148420e-02   -7,634097338e-01    2,219515443e-01    0,000000000e+00    0,000000000e+00    0,000000000e+00    0,000000000e+00
      170000000    1,768396422e-02   -2,100069076e-02   -5,154547095e-01    6,061846614e-01    0,000000000e+00    0,000000000e+00    0,000000000e+00    0,000000000e+00
      184000000    2,197505161e-02   -3,558735549e-02   -9,855189919e-02    7,858589292e-01    0,000000000e+00    0,000000000e+00    0,000000000e+00    0,000000000e+00
      198000000    1,404280588e-02   -6,064661592e-02    3,459081054e-01    7,106807828e-01    0,000000000e+00    0,000000000e+00    0,000000000e+00    0,000000000e+00
      212000000   -1,769671589e-02   -7,918353379e-02    6,807069778e-01    4,063179493e-01    0,000000000e+00    0,000000000e+00    0,000000000e+00    0,000000000e+00
      226000000   -6,033071131e-02   -6,669993699e-02    7,958164215e-01   -3,554074839e-02    0,000000000e+00    0,000000000e+00    0,000000000e+00    0,000000000e+00
      240000000   -8,054270595e-02   -2,268224396e-02    6,415159702e-01   -4,719636142e-01    0,000000000e+00    0,000000000e+00    0,000000000e+00    0,000000000e+00
      254000000   -6,082016975e-02    1,982120611e-02    2,709769309e-01   -7,421718240e-01    0,000000000e+00    0,000000000e+00    0,000000000e+00    0,000000000e+00
      268000000   -2,088841051e-02    3,083286993e-02   -1,810107529e-01   -7,609652877e-01    0,000000000e+00    0,000000000e+00    0,000000000e+00    0,000000000e+00
      282000000    6,941224448e-03    1,376325358e-02   -5,635564327e-01   -5,326889753e-01    0,000000000e+00    0,000000000e+00    0,000000000e+00    0,000000000e+00
      296000000    1,239622477e-02   -6,328132469e-03   -7,603290081e-01   -1,342597008e-01    0,000000000e+00    0,000000000e+00    0,000000000e+00    0,000000000e+00
      310000000    1,359388325e-02   -1,457982976e-02   -7,076908350e-01    3,049996495e-01    0,000000000e+00    0,000000000e+00    0,000000000e+00    0,000000000e+00
      324000000    2,245069854e-02   -2,467997372e-02   -4,212711155e-01    6,400243640e-01    0,000000000e+00    0,000000000e+00    0,000000000e+00    0,000000000e+00
      338000000    2,845406719e-02   -5,069508776e-02   -3,830565372e-03    7,581162453e-01    0,000000000e+00    0,000000000e+00    0,000000000e+00    0,000000000e+00
      352000000    1,044568513e-02   -8,272944391e-02    4,111807346e-01    6,353577375e-01    0,000000000e+00    0,000000000e+00    0,000000000e+00    0,000000000e+00
      366000000   -3,165551275e-02   -9,368058294e-02    6,933328509e-01    3,036702871e-01    0,000000000e+00    0,000000000e+00    0,000000000e+00    0,000000000e+00
      380000000   -6,755890697e-02   -6,874140352e-02    7,459104061e-01   -1,341536641e-01    0,000000000e+00    0,000000000e+00    0,000000000e+00    0,000000000e+00
      394000000   -6,858274341e-02   -3,061321191e-02    5,387374163e-01   -5,299993753e-01    0,000000000e+00    0,000000000e+00    0,000000000e+00    0,000000000e+00
      408000000   -4,278162494e-02   -1,525081601e-02    1,501349062e-01   -7,339960337e-01    0,000000000e+00    0,000000000e+00    0,000000000e+00    0,000000000e+00
      422000000   -2,599013597e-02   -3,118049912e-02   -2,794739008e-01   -6,901571155e-01    0,000000000e+00    0,000000000e+00    0,000000000e+00    0,000000000e+00
      436000000   -3,928547725e-02   -4,921223596e-02   -6,099474430e-01   -4,200179875e-01    0,000000000e+00    0,000000000e+00    0,000000000e+00    0,000000000e+00
      450000000   -6,481394172e-02   -3,918215260e-02   -7,372490168e-01   -7,680872455e-03    0,000000000e+00    0,000000000e+00    0,000000000e+00    0,000000000e+00
      464000000   -6,792241335e-02   -6,275421008e-03   -6,078142524e-01    4,059645236e-01    0,000000000e+00    0,000000000e+00    0,000000000e+00    0,000000000e+00
      478000000   -3,845560178e-02    1,624539308e-02   -2,675334513e-01    6,705521941e-01    0,000000000e+00    0,000000000e+00    0,000000000e+00    0,000000000e+00
      492000000   -5,319685675e-03    6,668799557e-03    1,520614475e-01    6,963074803e-01    0,000000000e+00    0,000000000e+00    0,000000000e+00    0,000000000e+00
      506000000    6,792753935e-03   -2,012252063e-02    5,074381232e-01    4,887851477e-01    0,000000000e+00    0,000000000e+00    0,000000000e+00    0,000000000e+00
      520000000    8,629133226e-04   -3,816415370e-02    6,906045079e-01    1,208620071e-01    0,000000000e+00    0,000000000e+00    0,000000000e+00    0,000000000e+00
      534000000   -3,274760908e-03   -4,548620805e-02    6,322517991e-01   -2,820577621e-01    0,000000000e+00    0,000000000e+00    0,000000000e+00    0,000000000e+00
      548000000    1,453992794e-03   -5,964101851e-02    3,598961234e-01   -5,791686177e-01    0,000000000e+00    0,000000000e+00    0,000000000e+00    0,000000000e+00
      562000000   -7,915591821e-03   -8,842649311e-02   -2,724699117e-02   -6,728211641e-01    0,000000000e+00    0,000000000e+00    0,000000000e+00    0,000000000e+00
      576000000   -4,527017474e-02   -1,098304912e-01   -4,013596177e-01   -5,383955240e-01    0,000000000e+00    0,000000000e+00    0,000000000e+00    0,000000000e+00
      590000000   -9,469436109e-02   -9,341657162e-02   -6,387234330e-01   -2,172359675e-01    0,000000000e+00    0,000000000e+00    0,000000000e+00    0,000000000e+00
      604000000   -1,115955636e-01   -4,149515927e-02   -6,469585299e-01    1,981185824e-01    0,000000000e+00    0,000000000e+00    0,000000000e+00    0,000000000e+00
      618000000   -7,635006309e-02   -2,331601921e-03   -4,021424949e-01    5,364794731e-01    0,000000000e+00    0,000000000e+00    0,000000000e+00    0,000000000e+00
      632000000   -3,028310835e-02   -2,122224867e-02   -1,162661891e-02    6,557807326e-01    0,000000000e+00    0,000000000e+00    0,000000000e+00    0,000000000e+00
      646000000   -3,686368093e-02   -7,729255408e-02    3,666306138e-01    5,274461508e-01    0,000000000e+00    0,000000000e+00    0,000000000e+00    0,000000000e+00
      660000000   -1,116844937e-01   -9,921529889e-02    6,006916165e-01    1,934053451e-01    0,000000000e+00    0,000000000e+00    0,000000000e+00    0,000000000e+00
      674000000   -1,998125017e-01   -2,298906073e-02    5,654969215e-01   -2,394852489e-01    0,000000000e+00    0,000000000e+00    0,000000000e+00    0,000000000e+00
      688000000   -1,782556027e-01    1,443143934e-01    2,096141577e-01   -5,220698118e-01    0,000000000e+00    0,000000000e+00    0,000000000e+00    0,000000000e+00
      702000000    2,605369687e-02    2,447659373e-01   -1,977044791e-01   -3,993979394e-01    0,000000000e+00    0,000000000e+00    0,000000000e+00    0,000000000e+00
      716000000    2,633270025e-01    1,109913290e-01   -2,729974985e-01   -8,377820998e-02    0,000000000e+00    0,000000000e+00    0,000000000e+00    0,000000000e+00
      730000000    3,030239642e-01   -1,859729290e-01   -1,072605923e-01    3,225708008e-02    0,000000000e+00    0,000000000e+00    0,000000000e+00    0,000000000e+00
      744000000    9,416233003e-02   -4,272764623e-01   -4,262288287e-02   -6,487331539e-02    0,000000000e+00    0,000000000e+00    0,000000000e+00    0,000000000e+00
      758000000   -2,582374811e-01   -4,304709733e-01   -1,755100042e-01   -1,250477135e-01    0,000000000e+00    0,000000000e+00    0,000000000e+00    0,000000000e+00
      772000000   -4,856798351e-01   -1,189027578e-01   -3,363794386e-01    3,811001033e-02    0,000000000e+00    0,000000000e+00    0,000000000e+00    0,000000000e+00
      786000000   -3,424088061e-01    2,209039181e-01   -2,621912360e-01    3,166983724e-01    0,000000000e+00    0,000000000e+00    0,000000000e+00    0,000000000e+00
      800000000   -4,029451311e-02    2,771397233e-01    3,371513216e-03    4,366310537e-01    0,000000000e+00    0,000000000e+00    0,000000000e+00    0,000000000e+00
      814000000    1,442495286e-01    1,252703965e-01    2,638482451e-01    3,596085906e-01    0,000000000e+00    0,000000000e+00    0,000000000e+00    0,000000000e+00
      828000000    1,676168740e-01   -7,012257725e-02    4,332419336e-01    1,568018347e-01    0,000000000e+00    0,000000000e+00    0,000000000e+00    0,000000000e+00
      842000000    6,737609208e-02   -2,176896483e-01    4,664860964e-01   -1,197753921e-01    0,000000000e+00    0,000000000e+00    0,000000000e+00    0,000000000e+00
      856000000   -1,067311764e-01   -2,634012699e-01    3,196392357e-01   -3,943569064e-01    0,000000000e+00    0,000000000e+00    0,000000000e+00    0,000000000e+00
      870000000   -2,737246156e-01   -1,680463254e-01   -1,373770414e-03   -5,262993574e-01    0,000000000e+00    0,000000000e+00    0,000000000e+00    0,000000000e+00
      884000000   -3,205297589e-01    3,536763415e-02   -3,485113680e-01   -3,937049210e-01    0,000000000e+00    0,000000000e+00    0,000000000e+00    0,000000000e+00
      898000000   -1,910424680e-01    2,058478296e-01   -4,886436462e-01   -6,358679384e-02    0,000000000e+00    0,000000000e+00    0,000000000e+00    0,000000000e+00
      912000000    5,899273790e-03    2,194496393e-01   -3,964194655e-01    2,658865750e-01    0,000000000e+00    0,000000000e+00    0,000000000e+00    0,000000000e+00
      926000000    1,492882967e-01    1,135747954e-01   -1,707921922e-01    4,159404933e-01    0,000000000e+00    0,000000000e+00    0,000000000e+00    0,000000000e+00
      940000000    1,975476295e-01   -4,809850827e-02    6,446087360e-02    4,246909916e-01    0,000000000e+00    0,000000000e+00    0,000000000e+00    0,000000000e+00
      954000000    1,552108675e-01   -2,043039054e-01    2,630653083e-01    3,422662616e-01    0,000000000e+00    0,000000000e+00    0,000000000e+00    0,000000000e+00
      968000000    2,214910462e-02   -3,150014579e-01    4,106092751e-01    1,781064868e-01    0,000000000e+00    0,000000000e+00    0,000000000e+00    0,000000000e+00
      982000000   -1,624775529e-01   -3,274684548e-01    4,745435119e-01   -6,765296310e-02    0,000000000e+00    0,000000000e+00    0,000000000e+00    0,000000000e+00
      996000000   -3,249645233e-01   -2,070531100e-01    3,692543507e-01   -3,562009931e-01    0,000000000e+00    0,000000000e+00    0,000000000e+00    0,000000000e+00
     1010000000   -3,431078196e-01   -5,607267842e-03    4,437319934e-02   -5,259172916e-01    0,000000000e+00    0,000000000e+00    0,000000000e+00    0,000000000e+00
     1024000000   -2,040736675e-01    9,478836507e-02   -3,443150520e-01   -3,825248778e-01    0,000000000e+00    0,000000000e+00    0,000000000e+00    0,000000000e+00
     1038000000   -1,322924644e-01    1,220259909e-02   -4,820246100e-01    6,057727337e-02    0,000000000e+00    0,000000000e+00    0,000000000e+00    0,000000000e+00
     1052000000   -2,899430692e-01    5,081352964e-02   -9,630401433e-02    3,727346957e-01    0,000000000e+00    0,000000000e+00    0,000000000e+00    0,000000000e+00
     1066000000   -1,482115090e-01    2,983272672e-01    1,459686309e-01    1,357419938e-01    0,000000000e+00    0,000000000e+00    0,000000000e+00    0,000000000e+00
     1080000000    1,023949683e-01    2,478617430e-01    9,017209709e-02    2,005220391e-02    0,000000000e+00    0,000000000e+00    0,000000000e+00    0,000000000e+00
     1094000000    2,192280591e-01    8,816521615e-02    6,866142899e-02    9,751255624e-03    0,000000000e+00    0,000000000e+00    0,000000000e+00    0,000000000e+00
     1108000000    2,421855181e-01   -8,468057960e-02    8,001445234e-02   -9,170845733e-04    0,000000000e+00    0,000000000e+00    0,000000000e+00    0,000000000e+00
     1122000000    1,841859818e-01   -2,491934597e-01    1,039444208e-01   -2,726256289e-02    0,000000000e+00    0,000000000e+00    0,000000000e+00    0,000000000e+00
     1136000000    5,069496483e-02   -3,799073994e-01    1,257995963e-01   -7,462643087e-02    0,000000000e+00    0,000000000e+00    0,000000000e+00    0,000000000e+00
     1150000000   -1,519810557e-01   -4,244455099e-01    1,378746778e-01   -1,529868990e-01    0,000000000e+00    0,000000000e+00    0,000000000e+00    0,000000000e+00
     1164000000   -3,751340508e-01   -3,223364055e-01    9,902372211e-02   -2,794969678e-01    0,000000000e+00    0,000000000e+00    0,000000000e+00    0,000000000e+00
     1178000000   -4,645386040e-01   -8,412776142e-02   -1,031102464e-01   -4,044838548e-01    0,000000000e+00    0,000000000e+00    0,000000000e+00    0,000000000e+00
     1192000000   -3,721693456e-01    3,295249492e-02   -4,623540342e-01   -1,977756023e-01    0,000000000e+00    0,000000000e+00    0,000000000e+00    0,000000000e+00
     1206000000   -4,133709967e-01    1,313922554e-01   -2,695997357e-01    2,346729785e-01    0,000000000e+00    0,000000000e+00    0,000000000e+00    0,000000000e+00
     1220000000   -2,786034346e-01    3,304356039e-01   -3,914993722e-03    1,634454429e-01    0,000000000e+00    0,000000000e+00    0,000000000e+00    0,000000000e+00
     1234000000   -5,146882683e-02    3,446188867e-01    1,962728612e-02    5,471125990e-02    0,000000000e+00    0,000000000e+00    0,000000000e+00    0,000000000e+00
     1248000000    1,222470924e-01    2,546640635e-01    6,983998464e-04    2,472897246e-02    0,000000000e+00    0,000000000e+00    0,000000000e+00    0,000000000e+00
     1262000000    2,102857977e-01    1,051975489e-01    1,304561505e-03    3,051091358e-02    0,000000000e+00    0,000000000e+00    0,000000000e+00    0,000000000e+00
     1276000000    2,384720296e-01   -5,527103320e-02    3,276055306e-02    3,738253936e-02    0,000000000e+00    0,000000000e+00    0,000000000e+00    0,000000000e+00
     1290000000    1,941919029e-01   -2,135235816e-01    5,787429214e-02    2,566737682e-02    0,000000000e+00    0,000000000e+00    0,000000000e+00    0,000000000e+00
     1304000000    8,606341481e-02   -3,589581251e-01    8,027561009e-02    2,157292183e-04    0,000000000e+00    0,000000000e+00    0,000000000e+00    0,000000000e+00
     1318000000   -1,046079099e-01   -4,482086897e-01    8,076889813e-02   -1,746053994e-02    0,000000000e+00    0,000000000e+00    0,000000000e+00    0,000000000e+00
     1332000000   -3,544737995e-01   -4,373150766e-01    8,456403017e-02   -1,998638175e-02    0,000000000e+00    0,000000000e+00    0,000000000e+00    0,000000000e+00
     1346000000   -5,881944299e-01   -2,397307307e-01    1,125460118e-01   -6,677379832e-03    0,000000000e+00    0,000000000e+00    0,000000000e+00    0,000000000e+00
     1360000000   -6,474391222e-01    6,611911207e-02    1,527302712e-01   -1,678304747e-02    0,000000000e+00    0,000000000e+00    0,000000000e+00    0,000000000e+00
     1374000000   -4,921560287e-01    3,268817067e-01    1,620922685e-01   -5,572797358e-02    0,000000000e+00    0,000000000e+00    0,000000000e+00    0,000000000e+00
     1388000000   -2,541479468e-01    4,324018955e-01    1,631158590e-01   -7,621517777e-02    0,000000000e+00    0,000000000e+00    0,000000000e+00    0,000000000e+00
     1402000000   -4,745420441e-02    3,897303343e-01    1,472488493e-01   -9,387043864e-02    0,000000000e+00    0,000000000e+00    0,000000000e+00    0,000000000e+00
     1416000000    9,842463583e-02    2,807784975e-01    1,194514781e-01   -9,273070097e-02    0,000000000e+00    0,000000000e+00    0,000000000e+00    0,000000000e+00
     1430000000    1,916870773e-01    1,454357803e-01    1,051894799e-01   -7,403173298e-02    0,000000000e+00    0,000000000e+00    0,000000000e+00    0,000000000e+00
     1444000000    2,134614885e-01   -1,007020753e-02    1,192576066e-01   -1,407058258e-02    0,000000000e+00    0,000000000e+00    0,000000000e+00    0,000000000e+00
     1458000000    1,813499779e-01   -1,817515790e-01    1,498263180e-01    1,993094943e-02    0,000000000e+00    0,000000000e+00    0,000000000e+00    0,000000000e+00
     1472000000    6,553538889e-02   -3,450747132e-01    1,924668998e-01    7,457052171e-02    0,000000000e+00    0,000000000e+00    0,000000000e+00    0,000000000e+00
     1486000000   -1,373865753e-01   -4,663351476e-01    3,051773012e-01    9,955739975e-02    0,000000000e+00    0,000000000e+00    0,000000000e+00    0,000000000e+00
     1500000000   -4,457434416e-01   -4,676903188e-01    4,101896584e-01    7,414320111e-02    0,000000000e+00    0,000000000e+00    0,000000000e+00    0,000000000e+00
