! NanoVNA-App
! Date: 2025-09-25 16:01:44
! Start: 100MHz Stop: 1,5GHz Points: 101
! S-Parameter data: F S11 S21 S12 S22
# Hz S RI R 50
!     Frequency           S11_Real           S11_Imag           S21_Real           S21_Imag           S12_Real           S12_Imag           S22_Real           S22_Imag
      100000000   -2,829004452e-02   -2,869786695e-03    3,723112047e-01   -7,223623991e-01    0,000000000e+00    0,000000000e+00    0,000000000e+00    0,000000000e+00
      114000000   -1,573470421e-02    1,289311238e-02   -9,114541113e-02   -8,046030402e-01    0,000000000e+00    0,000000000e+00    0,000000000e+00    0,000000000e+00
      128000000    4,355131183e-03    1,195108797e-02   -5,158920288e-01   -6,188179851e-01    0,000000000e+00    0,000000000e+00    0,000000000e+00    0,000000000e+00
      142000000    1,547434554e-02   -1,743026078e-03   -7,673141360e-01   -2,340778410e-01    0,000000000e+00    0,000000000e+00    0,000000000e+00    0,000000000e+00
      156000000    1,658962108e-02   -1,311288495e-02   -7,644858956e-01    2,249858230e-01    0,000000000e+00    0,000000000e+00    0,000000000e+00    0,000000000e+00
      170000000    1,763831079e-02   -2,099869214e-02   -5,153710842e-01    6,060682535e-01    0,000000000e+00    0,000000000e+00    0,000000000e+00    0,000000000e+00
      184000000    2,203399502e-02   -3,554141149e-02   -9,827074409e-02    7,856916189e-01    0,000000000e+00    0,000000000e+00    0,000000000e+00    0,000000000e+00
      198000000    1,401812118e-02   -6,067744642e-02    3,463757634e-01    7,107846141e-01    0,000000000e+00    0,000000000e+00    0,000000000e+00    0,000000000e+00
      212000000   -1,767632365e-02   -7,910886407e-02    6,807347536e-01    4,062152505e-01    0,000000000e+00    0,000000000e+00    0,000000000e+00    0,000000000e+00
      226000000   -6,033089757e-02   -6,665339321e-02    7,958621383e-01   -3,553593531e-02    0,000000000e+00    0,000000000e+00    0,000000000e+00    0,000000000e+00
      240000000   -8,054698259e-02   -2,270317078e-02    6,417264342e-01   -4,718508422e-01    0,000000000e+00    0,000000000e+00    0,000000000e+00    0,000000000e+00
      254000000   -6,080077589e-02    1,981928945e-02    2,712137997e-01   -7,417799234e-01    0,000000000e+00    0,000000000e+00    0,000000000e+00    0,000000000e+00
      268000000   -2,097342536e-02    3,090933152e-02   -1,812209636e-01   -7,611152530e-01    0,000000000e+00    0,000000000e+00    0,000000000e+00    0,000000000e+00
      282000000    6,919793319e-03    1,378259808e-02   -5,629948974e-01   -5,323818922e-01    0,000000000e+00    0,000000000e+00    0,000000000e+00    0,000000000e+00
      296000000    1,246228628e-02   -6,219402887e-03   -7,605656981e-01   -1,342593282e-01    0,000000000e+00    0,000000000e+00    0,000000000e+00    0,000000000e+00
      310000000    1,362259500e-02   -1,451975387e-02   -7,085047960e-01    3,039656878e-01    0,000000000e+00    0,000000000e+00    0,000000000e+00    0,000000000e+00
      324000000    2,254235372e-02   -2,454805747e-02   -4,218063653e-01    6,406283975e-01    0,000000000e+00    0,000000000e+00    0,000000000e+00    0,000000000e+00
      338000000    2,846656181e-02   -5,079781264e-02   -2,771510975e-03    7,608925700e-01    0,000000000e+00    0,000000000e+00    0,000000000e+00    0,000000000e+00
      352000000    1,004419569e-02   -8,293855190e-02    4,117762148e-01    6,349707842e-01    0,000000000e+00    0,000000000e+00    0,000000000e+00    0,000000000e+00
      366000000   -3,180578724e-02   -9,356522560e-02    6,936298013e-01    3,041678667e-01    0,000000000e+00    0,000000000e+00    0,000000000e+00    0,000000000e+00
      380000000   -6,766644865e-02   -6,888690591e-02    7,457156181e-01   -1,344113648e-01    0,000000000e+00    0,000000000e+00    0,000000000e+00    0,000000000e+00
      394000000   -6,857370585e-02   -3,057206236e-02    5,402123928e-01   -5,283630490e-01    0,000000000e+00    0,000000000e+00    0,000000000e+00    0,000000000e+00
      408000000   -4,291001335e-02   -1,521972753e-02    1,497144699e-01   -7,344555855e-01    0,000000000e+00    0,000000000e+00    0,000000000e+00    0,000000000e+00
      422000000   -2,585803717e-02   -3,126034141e-02   -2,786841393e-01   -6,899938583e-01    0,000000000e+00    0,000000000e+00    0,000000000e+00    0,000000000e+00
      436000000   -3,940642253e-02   -4,905232787e-02   -6,106464863e-01   -4,198449850e-01    0,000000000e+00    0,000000000e+00    0,000000000e+00    0,000000000e+00
      450000000   -6,472986937e-02   -3,893751651e-02   -7,369629145e-01   -7,512558252e-03    0,000000000e+00    0,000000000e+00    0,000000000e+00    0,000000000e+00
      464000000   -6,740255654e-02   -6,486676168e-03   -6,079427600e-01    4,062079489e-01    0,000000000e+00    0,000000000e+00    0,000000000e+00    0,000000000e+00
      478000000   -3,864394501e-02    1,598380506e-02   -2,672834098e-01    6,698123813e-01    0,000000000e+00    0,000000000e+00    0,000000000e+00    0,000000000e+00
      492000000   -5,493237171e-03    6,346446928e-03    1,507854313e-01    6,949344873e-01    0,000000000e+00    0,000000000e+00    0,000000000e+00    0,000000000e+00
      506000000    7,384655066e-03   -1,995162666e-02    5,081570148e-01    4,882057905e-01    0,000000000e+00    0,000000000e+00    0,000000000e+00    0,000000000e+00
      520000000    3,555272415e-04   -3,868000954e-02    6,894652843e-01    1,211472452e-01    0,000000000e+00    0,000000000e+00    0,000000000e+00    0,000000000e+00
      534000000   -2,858786844e-03   -4,540875554e-02    6,327143312e-01   -2,817993164e-01    0,000000000e+00    0,000000000e+00    0,000000000e+00    0,000000000e+00
      548000000    7,089215214e-04   -5,979833752e-02    3,600288332e-01   -5,804971457e-01    0,000000000e+00    0,000000000e+00    0,000000000e+00    0,000000000e+00
      562000000   -8,069119416e-03   -8,838671446e-02   -2,640096471e-02   -6,722203493e-01    0,000000000e+00    0,000000000e+00    0,000000000e+00    0,000000000e+00
      576000000   -4,575001821e-02   -1,093228012e-01   -4,011311531e-01   -5,387417078e-01    0,000000000e+00    0,000000000e+00    0,000000000e+00    0,000000000e+00
      590000000   -9,492953867e-02   -9,342676401e-02   -6,406158209e-01   -2,201290876e-01    0,000000000e+00    0,000000000e+00    0,000000000e+00    0,000000000e+00
      604000000   -1,118297353e-01   -4,097734392e-02   -6,476691961e-01    1,991524249e-01    0,000000000e+00    0,000000000e+00    0,000000000e+00    0,000000000e+00
      618000000   -7,608000189e-02   -2,136302879e-03   -4,020766020e-01    5,359525681e-01    0,000000000e+00    0,000000000e+00    0,000000000e+00    0,000000000e+00
      632000000   -3,034537844e-02   -2,111083269e-02   -1,167126466e-02    6,551156640e-01    0,000000000e+00    0,000000000e+00    0,000000000e+00    0,000000000e+00
      646000000   -3,587351739e-02   -7,665032893e-02    3,667195737e-01    5,277908444e-01    0,000000000e+00    0,000000000e+00    0,000000000e+00    0,000000000e+00
      660000000   -1,117506996e-01   -9,994307160e-02    6,006236672e-01    1,931599677e-01    0,000000000e+00    0,000000000e+00    0,000000000e+00    0,000000000e+00
      674000000   -2,003116459e-01   -2,384831384e-02    5,656366348e-01   -2,396171987e-01    0,000000000e+00    0,000000000e+00    0,000000000e+00    0,000000000e+00
      688000000   -1,780025363e-01    1,445907503e-01    2,102018744e-01   -5,226859450e-01    0,000000000e+00    0,000000000e+00    0,000000000e+00    0,000000000e+00
      702000000    2,593289129e-02    2,453469932e-01   -1,994695514e-01   -4,027471244e-01    0,000000000e+00    0,000000000e+00    0,000000000e+00    0,000000000e+00
      716000000    2,632915676e-01    1,102908999e-01   -2,733937502e-01   -8,374373615e-02    0,000000000e+00    0,000000000e+00    0,000000000e+00    0,000000000e+00
      730000000    3,039499819e-01   -1,864877194e-01   -1,071752086e-01    3,252274916e-02    0,000000000e+00    0,000000000e+00    0,000000000e+00    0,000000000e+00
      744000000    9,361726791e-02   -4,281817377e-01   -4,202014208e-02   -6,472092122e-02    0,000000000e+00    0,000000000e+00    0,000000000e+00    0,000000000e+00
      758000000   -2,595431507e-01   -4,291035533e-01   -1,750914752e-01   -1,255372018e-01    0,000000000e+00    0,000000000e+00    0,000000000e+00    0,000000000e+00
      772000000   -4,862716794e-01   -1,195421442e-01   -3,357500136e-01    3,824333474e-02    0,000000000e+00    0,000000000e+00    0,000000000e+00    0,000000000e+00
      786000000   -3,411915004e-01    2,209454626e-01   -2,631073594e-01    3,161674440e-01    0,000000000e+00    0,000000000e+00    0,000000000e+00    0,000000000e+00
      800000000   -4,108177125e-02    2,768102884e-01    2,288246062e-03    4,364033937e-01    0,000000000e+00    0,000000000e+00    0,000000000e+00    0,000000000e+00
      814000000    1,444232166e-01    1,259648055e-01    2,636973262e-01    3,596260846e-01    0,000000000e+00    0,000000000e+00    0,000000000e+00    0,000000000e+00
      828000000    1,678993553e-01   -7,035190612e-02    4,329120219e-01    1,570803672e-01    0,000000000e+00    0,000000000e+00    0,000000000e+00    0,000000000e+00
      842000000    6,708730757e-02   -2,186843157e-01    4,664829373e-01   -1,201088354e-01    0,000000000e+00    0,000000000e+00    0,000000000e+00    0,000000000e+00
      856000000   -1,071161777e-01   -2,643443048e-01    3,196927309e-01   -3,942923546e-01    0,000000000e+00    0,000000000e+00    0,000000000e+00    0,000000000e+00
      870000000   -2,750330269e-01   -1,678415984e-01   -2,437183168e-03   -5,269809961e-01    0,000000000e+00    0,000000000e+00    0,000000000e+00    0,000000000e+00
      884000000   -3,211914003e-01    3,567078337e-02   -3,480917513e-01   -3,923571408e-01    0,000000000e+00    0,000000000e+00    0,000000000e+00    0,000000000e+00
      898000000   -1,925333887e-01    2,068053633e-01   -4,898895621e-01   -6,300778687e-02    0,000000000e+00    0,000000000e+00    0,000000000e+00    0,000000000e+00
      912000000    5,899609998e-03    2,197317183e-01   -4,103048444e-01    2,765469253e-01    0,000000000e+00    0,000000000e+00    0,000000000e+00    0,000000000e+00
      926000000    1,485432833e-01    1,123403609e-01   -1,705195010e-01    4,153693914e-01    0,000000000e+00    0,000000000e+00    0,000000000e+00    0,000000000e+00
      940000000    1,991149485e-01   -4,763943702e-02    6,249606982e-02    4,238890707e-01    0,000000000e+00    0,000000000e+00    0,000000000e+00    0,000000000e+00
      954000000    1,536008418e-01   -2,054163814e-01    2,611669302e-01    3,411955237e-01    0,000000000e+00    0,000000000e+00    0,000000000e+00    0,000000000e+00
      968000000    2,662215941e-02   -3,157002032e-01    4,108029306e-01    1,797426641e-01    0,000000000e+00    0,000000000e+00    0,000000000e+00    0,000000000e+00
      982000000   -1,588487178e-01   -3,327986002e-01    4,749367237e-01   -6,724928319e-02    0,000000000e+00    0,000000000e+00    0,000000000e+00    0,000000000e+00
      996000000   -3,236494362e-01   -2,100506276e-01    3,682048619e-01   -3,556159139e-01    0,000000000e+00    0,000000000e+00    0,000000000e+00    0,000000000e+00
     1010000000   -3,402256072e-01   -5,576893687e-03    4,107282683e-02   -5,230790973e-01    0,000000000e+00    0,000000000e+00    0,000000000e+00    0,000000000e+00
     1024000000   -2,082678676e-01    9,091810137e-02   -3,465110660e-01   -3,798684180e-01    0,000000000e+00    0,000000000e+00    0,000000000e+00    0,000000000e+00
     1038000000   -1,351535171e-01    1,280156057e-02   -4,830128551e-01    6,302443147e-02    0,000000000e+00    0,000000000e+00    0,000000000e+00    0,000000000e+00
     1052000000   -2,860170007e-01    5,067104101e-02   -9,324891120e-02    3,723655641e-01    0,000000000e+00    0,000000000e+00    0,000000000e+00    0,000000000e+00
     1066000000   -1,444513649e-01    2,926856875e-01    1,446837038e-01    1,334550232e-01    0,000000000e+00    0,000000000e+00    0,000000000e+00    0,000000000e+00
     1080000000    1,027538925e-01    2,510666847e-01    9,077836573e-02    1,940192096e-02    0,000000000e+00    0,000000000e+00    0,000000000e+00    0,000000000e+00
     1094000000    2,217880636e-01    8,540436625e-02    6,895596534e-02    1,236934215e-02    0,000000000e+00    0,000000000e+00    0,000000000e+00    0,000000000e+00
     1108000000    2,413065881e-01   -8,534215391e-02    8,008490503e-02   -5,651495303e-04    0,000000000e+00    0,000000000e+00    0,000000000e+00    0,000000000e+00
     1122000000    1,813088655e-01   -2,508419752e-01    1,017992795e-01   -2,466050163e-02    0,000000000e+00    0,000000000e+00    0,000000000e+00    0,000000000e+00
     1136000000    4,678603634e-02   -3,802115023e-01    1,256818473e-01   -7,484073937e-02    0,000000000e+00    0,000000000e+00    0,000000000e+00    0,000000000e+00
     1150000000   -1,585551500e-01   -4,268058836e-01    1,378672570e-01   -1,528592855e-01    0,000000000e+00    0,000000000e+00    0,000000000e+00    0,000000000e+00
     1164000000   -3,783722520e-01   -3,248614371e-01    1,004724056e-01   -2,778297961e-01    0,000000000e+00    0,000000000e+00    0,000000000e+00    0,000000000e+00
     1178000000   -4,699988067e-01   -8,724933118e-02   -1,054635867e-01   -4,067902267e-01    0,000000000e+00    0,000000000e+00    0,000000000e+00    0,000000000e+00
     1192000000   -3,693919182e-01    4,295436665e-02   -4,646262527e-01   -1,946793050e-01    0,000000000e+00    0,000000000e+00    0,000000000e+00    0,000000000e+00
     1206000000   -4,166911840e-01    1,295496076e-01   -2,776579857e-01    2,352234125e-01    0,000000000e+00    0,000000000e+00    0,000000000e+00    0,000000000e+00
     1220000000   -2,721523941e-01    3,287326097e-01   -4,922293592e-03    1,637558192e-01    0,000000000e+00    0,000000000e+00    0,000000000e+00    0,000000000e+00
     1234000000   -4,459756240e-02    3,493202925e-01    2,391707711e-02    5,525875464e-02    0,000000000e+00    0,000000000e+00    0,000000000e+00    0,000000000e+00
     1248000000    1,223813668e-01    2,512697279e-01    2,739592222e-03    3,348172829e-02    0,000000000e+00    0,000000000e+00    0,000000000e+00    0,000000000e+00
     1262000000    2,133604586e-01    9,811367840e-02    4,625420552e-03    3,027547710e-02    0,000000000e+00    0,000000000e+00    0,000000000e+00    0,000000000e+00
     1276000000    2,323651016e-01   -5,527792126e-02    2,420040034e-02    3,825936094e-02    0,000000000e+00    0,000000000e+00    0,000000000e+00    0,000000000e+00
     1290000000    1,900359988e-01   -2,173525095e-01    5,296011269e-02    2,406303957e-02    0,000000000e+00    0,000000000e+00    0,000000000e+00    0,000000000e+00
     1304000000    8,654358238e-02   -3,548194170e-01    7,678116113e-02    8,500831202e-03    0,000000000e+00    0,000000000e+00    0,000000000e+00    0,000000000e+00
     1318000000   -1,077195480e-01   -4,469718635e-01    8,217120916e-02   -1,243225485e-02    0,000000000e+00    0,000000000e+00    0,000000000e+00    0,000000000e+00
     1332000000   -3,566583991e-01   -4,327890873e-01    9,438768029e-02   -1,479483768e-02    0,000000000e+00    0,000000000e+00    0,000000000e+00    0,000000000e+00
     1346000000   -5,932274461e-01   -2,506037652e-01    1,085795686e-01   -1,034948509e-02    0,000000000e+00    0,000000000e+00    0,000000000e+00    0,000000000e+00
     1360000000   -6,500396729e-01    7,584939897e-02    1,362808049e-01   -1,155820675e-02    0,000000000e+00    0,000000000e+00    0,000000000e+00    0,000000000e+00
     1374000000   -4,871558845e-01    3,330536783e-01    1,666829884e-01   -4,824268818e-02    0,000000000e+00    0,000000000e+00    0,000000000e+00    0,000000000e+00
     1388000000   -2,521128058e-01    4,235164523e-01    1,632380635e-01   -8,786453307e-02    0,000000000e+00    0,000000000e+00    0,000000000e+00    0,000000000e+00
     1402000000   -4,437868670e-02    3,882327676e-01    1,472311616e-01   -1,006752700e-01    0,000000000e+00    0,000000000e+00    0,000000000e+00    0,000000000e+00
     1416000000    9,900163859e-02    2,898112237e-01    1,158584505e-01   -8,313009888e-02    0,000000000e+00    0,000000000e+00    0,000000000e+00    0,000000000e+00
     1430000000    1,820529997e-01    1,537715048e-01    1,080167890e-01   -5,622934550e-02    0,000000000e+00    0,000000000e+00    0,000000000e+00    0,000000000e+00
     1444000000    2,164634317e-01   -8,715462871e-03    1,234597415e-01   -2,392996289e-02    0,000000000e+00    0,000000000e+00    0,000000000e+00    0,000000000e+00
     1458000000    1,773984581e-01   -1,763780117e-01    1,353756189e-01    2,209610119e-02    0,000000000e+00    0,000000000e+00    0,000000000e+00    0,000000000e+00
     1472000000    6,838039309e-02   -3,485192955e-01    1,902572364e-01    5,169766769e-02    0,000000000e+00    0,000000000e+00    0,000000000e+00    0,000000000e+00
     1486000000   -1,355783790e-01   -4,741632640e-01    2,967909276e-01    8,734868467e-02    0,000000000e+00    0,000000000e+00    0,000000000e+00    0,000000000e+00
     1500000000   -4,359695017e-01   -4,814141989e-01    4,201107621e-01    3,228847682e-02    0,000000000e+00    0,000000000e+00    0,000000000e+00    0,000000000e+00
