! NanoVNA-App
! Date: 2025-09-25 15:56:54
! Start: 100MHz Stop: 1,5GHz Points: 101
! S-Parameter data: F S11 S21 S12 S22
# Hz S RI R 50
!     Frequency           S11_Real           S11_Imag           S21_Real           S21_Imag           S12_Real           S12_Imag           S22_Real           S22_Imag
      100000000   -2,818055078e-02   -2,835256979e-03    3,722154796e-01   -7,225106955e-01    0,000000000e+00    0,000000000e+00    0,000000000e+00    0,000000000e+00
      114000000   -1,560467854e-02    1,290052664e-02   -9,120969474e-02   -8,046863079e-01    0,000000000e+00    0,000000000e+00    0,000000000e+00    0,000000000e+00
      128000000    4,417400341e-03    1,188400201e-02   -5,158990622e-01   -6,186857224e-01    0,000000000e+00    0,000000000e+00    0,000000000e+00    0,000000000e+00
      142000000    1,550405659e-02   -1,814572141e-03   -7,674793601e-01   -2,342847437e-01    0,000000000e+00    0,000000000e+00    0,000000000e+00    0,000000000e+00
      156000000    1,668998040e-02   -1,314198598e-02   -7,645453215e-01    2,248619646e-01    0,000000000e+00    0,000000000e+00    0,000000000e+00    0,000000000e+00
      170000000    1,760892756e-02   -2,097508684e-02   -5,154873729e-01    6,062449217e-01    0,000000000e+00    0,000000000e+00    0,000000000e+00    0,000000000e+00
      184000000    2,200340293e-02   -3,558928519e-02   -9,840599447e-02    7,860376239e-01    0,000000000e+00    0,000000000e+00    0,000000000e+00    0,000000000e+00
      198000000    1,402046997e-02   -6,068084389e-02    3,459470570e-01    7,108121514e-01    0,000000000e+00    0,000000000e+00    0,000000000e+00    0,000000000e+00
      212000000   -1,768100075e-02   -7,912112772e-02    6,806201935e-01    4,062204063e-01    0,000000000e+00    0,000000000e+00    0,000000000e+00    0,000000000e+00
      226000000   -6,030385196e-02   -6,662610173e-02    7,957140207e-01   -3,562743962e-02    0,000000000e+00    0,000000000e+00    0,000000000e+00    0,000000000e+00
      240000000   -8,052879572e-02   -2,273345366e-02    6,415010095e-01   -4,718431830e-01    0,000000000e+00    0,000000000e+00    0,000000000e+00    0,000000000e+00
      254000000   -6,082233042e-02    1,978093758e-02    2,709565461e-01   -7,420070767e-01    0,000000000e+00    0,000000000e+00    0,000000000e+00    0,000000000e+00
      268000000   -2,099191211e-02    3,086610883e-02   -1,812023073e-01   -7,609527707e-01    0,000000000e+00    0,000000000e+00    0,000000000e+00    0,000000000e+00
      282000000    6,890409160e-03    1,378118712e-02   -5,631802678e-01   -5,323097706e-01    0,000000000e+00    0,000000000e+00    0,000000000e+00    0,000000000e+00
      296000000    1,227837428e-02   -6,231386214e-03   -7,602969408e-01   -1,341917366e-01    0,000000000e+00    0,000000000e+00    0,000000000e+00    0,000000000e+00
      310000000    1,354463771e-02   -1,464843005e-02   -7,094296217e-01    3,036851585e-01    0,000000000e+00    0,000000000e+00    0,000000000e+00    0,000000000e+00
      324000000    2,259317786e-02   -2,454405650e-02   -4,216548800e-01    6,390948892e-01    0,000000000e+00    0,000000000e+00    0,000000000e+00    0,000000000e+00
      338000000    2,844011597e-02   -5,090226233e-02   -5,065728910e-04    7,622853518e-01    0,000000000e+00    0,000000000e+00    0,000000000e+00    0,000000000e+00
      352000000    1,022487320e-02   -8,287075162e-02    4,111306369e-01    6,357299089e-01    0,000000000e+00    0,000000000e+00    0,000000000e+00    0,000000000e+00
      366000000   -3,196451813e-02   -9,378419071e-02    6,929152608e-01    3,041797280e-01    0,000000000e+00    0,000000000e+00    0,000000000e+00    0,000000000e+00
      380000000   -6,746282429e-02   -6,902305037e-02    7,456998825e-01   -1,339666247e-01    0,000000000e+00    0,000000000e+00    0,000000000e+00    0,000000000e+00
      394000000   -6,875042617e-02   -3,056300059e-02    5,395705104e-01   -5,284177661e-01    0,000000000e+00    0,000000000e+00    0,000000000e+00    0,000000000e+00
      408000000   -4,283273965e-02   -1,576631516e-02    1,493272334e-01   -7,342902422e-01    0,000000000e+00    0,000000000e+00    0,000000000e+00    0,000000000e+00
      422000000   -2,621655539e-02   -3,113626875e-02   -2,784847319e-01   -6,895652413e-01    0,000000000e+00    0,000000000e+00    0,000000000e+00    0,000000000e+00
      436000000   -3,942108527e-02   -4,910189286e-02   -6,102351546e-01   -4,192796648e-01    0,000000000e+00    0,000000000e+00    0,000000000e+00    0,000000000e+00
      450000000   -6,456989795e-02   -3,925898671e-02   -7,366318703e-01   -7,428789511e-03    0,000000000e+00    0,000000000e+00    0,000000000e+00    0,000000000e+00
      464000000   -6,747853756e-02   -6,337662227e-03   -6,075452566e-01    4,061315060e-01    0,000000000e+00    0,000000000e+00    0,000000000e+00    0,000000000e+00
      478000000   -3,847092390e-02    1,622280665e-02   -2,675188482e-01    6,702619195e-01    0,000000000e+00    0,000000000e+00    0,000000000e+00    0,000000000e+00
      492000000   -5,440948997e-03    6,393252406e-03    1,513608247e-01    6,951774359e-01    0,000000000e+00    0,000000000e+00    0,000000000e+00    0,000000000e+00
      506000000    6,764099468e-03   -2,006640099e-02    5,079805851e-01    4,888895154e-01    0,000000000e+00    0,000000000e+00    0,000000000e+00    0,000000000e+00
      520000000    4,469575942e-04   -3,840186819e-02    6,905595660e-01    1,208104342e-01    0,000000000e+00    0,000000000e+00    0,000000000e+00    0,000000000e+00
      534000000   -2,920509782e-03   -4,542518780e-02    6,327251196e-01   -2,819758058e-01    0,000000000e+00    0,000000000e+00    0,000000000e+00    0,000000000e+00
      548000000    9,451560909e-04   -6,004963815e-02    3,596350253e-01   -5,785079002e-01    0,000000000e+00    0,000000000e+00    0,000000000e+00    0,000000000e+00
      562000000   -7,512356155e-03   -8,852607012e-02   -2,652275562e-02   -6,726812720e-01    0,000000000e+00    0,000000000e+00    0,000000000e+00    0,000000000e+00
      576000000   -4,548187181e-02   -1,095600352e-01   -4,004503489e-01   -5,380176902e-01    0,000000000e+00    0,000000000e+00    0,000000000e+00    0,000000000e+00
      590000000   -9,479566664e-02   -9,362676740e-02   -6,411978006e-01   -2,193753123e-01    0,000000000e+00    0,000000000e+00    0,000000000e+00    0,000000000e+00
      604000000   -1,116465777e-01   -4,099657014e-02   -6,476374865e-01    1,985436380e-01    0,000000000e+00    0,000000000e+00    0,000000000e+00    0,000000000e+00
      618000000   -7,618713379e-02   -2,426574007e-03   -4,017052650e-01    5,351703167e-01    0,000000000e+00    0,000000000e+00    0,000000000e+00    0,000000000e+00
      632000000   -3,006572649e-02   -2,095128223e-02   -1,225848310e-02    6,549838185e-01    0,000000000e+00    0,000000000e+00    0,000000000e+00    0,000000000e+00
      646000000   -3,660882637e-02   -7,610253990e-02    3,659726381e-01    5,265476108e-01    0,000000000e+00    0,000000000e+00    0,000000000e+00    0,000000000e+00
      660000000   -1,113628075e-01   -1,002062261e-01    6,008783579e-01    1,931075305e-01    0,000000000e+00    0,000000000e+00    0,000000000e+00    0,000000000e+00
      674000000   -1,989845335e-01   -2,345740795e-02    5,649083853e-01   -2,399929464e-01    0,000000000e+00    0,000000000e+00    0,000000000e+00    0,000000000e+00
      688000000   -1,789134294e-01    1,445653588e-01    2,096178979e-01   -5,213406086e-01    0,000000000e+00    0,000000000e+00    0,000000000e+00    0,000000000e+00
      702000000    2,717370912e-02    2,472320497e-01   -2,014535815e-01   -4,016383886e-01    0,000000000e+00    0,000000000e+00    0,000000000e+00    0,000000000e+00
      716000000    2,644161582e-01    1,107480228e-01   -2,721580863e-01   -8,316275477e-02    0,000000000e+00    0,000000000e+00    0,000000000e+00    0,000000000e+00
      730000000    3,031645119e-01   -1,868303120e-01   -1,061177477e-01    3,177648038e-02    0,000000000e+00    0,000000000e+00    0,000000000e+00    0,000000000e+00
      744000000    9,385501593e-02   -4,280852079e-01   -4,234406725e-02   -6,586658955e-02    0,000000000e+00    0,000000000e+00    0,000000000e+00    0,000000000e+00
      758000000   -2,598333359e-01   -4,298051298e-01   -1,759353727e-01   -1,258821934e-01    0,000000000e+00    0,000000000e+00    0,000000000e+00    0,000000000e+00
      772000000   -4,849239886e-01   -1,202990934e-01   -3,368346393e-01    3,862787411e-02    0,000000000e+00    0,000000000e+00    0,000000000e+00    0,000000000e+00
      786000000   -3,412573934e-01    2,204661071e-01   -2,628238797e-01    3,170671165e-01    0,000000000e+00    0,000000000e+00    0,000000000e+00    0,000000000e+00
      800000000   -4,060708359e-02    2,765585780e-01    2,866322640e-03    4,369300604e-01    0,000000000e+00    0,000000000e+00    0,000000000e+00    0,000000000e+00
      814000000    1,439720839e-01    1,250180751e-01    2,641511261e-01    3,586951792e-01    0,000000000e+00    0,000000000e+00    0,000000000e+00    0,000000000e+00
      828000000    1,677029431e-01   -7,035222650e-02    4,328254461e-01    1,567507237e-01    0,000000000e+00    0,000000000e+00    0,000000000e+00    0,000000000e+00
      842000000    6,658286601e-02   -2,180329412e-01    4,669060409e-01   -1,200744137e-01    0,000000000e+00    0,000000000e+00    0,000000000e+00    0,000000000e+00
      856000000   -1,060348451e-01   -2,628157437e-01    3,204937577e-01   -3,948861063e-01    0,000000000e+00    0,000000000e+00    0,000000000e+00    0,000000000e+00
      870000000   -2,747365832e-01   -1,684412956e-01   -2,277069725e-03   -5,270255804e-01    0,000000000e+00    0,000000000e+00    0,000000000e+00    0,000000000e+00
      884000000   -3,203245997e-01    3,492711112e-02   -3,475153744e-01   -3,932233155e-01    0,000000000e+00    0,000000000e+00    0,000000000e+00    0,000000000e+00
      898000000   -1,925880611e-01    2,062974870e-01   -4,896329045e-01   -6,295533478e-02    0,000000000e+00    0,000000000e+00    0,000000000e+00    0,000000000e+00
      912000000    6,964241620e-03    2,190477848e-01   -3,966402113e-01    2,663027346e-01    0,000000000e+00    0,000000000e+00    0,000000000e+00    0,000000000e+00
      926000000    1,486724317e-01    1,131961793e-01   -1,716756225e-01    4,160694778e-01    0,000000000e+00    0,000000000e+00    0,000000000e+00    0,000000000e+00
      940000000    1,989457309e-01   -4,473488033e-02    6,414134800e-02    4,251413047e-01    0,000000000e+00    0,000000000e+00    0,000000000e+00    0,000000000e+00
      954000000    1,520585120e-01   -2,006382942e-01    2,610468268e-01    3,407689333e-01    0,000000000e+00    0,000000000e+00    0,000000000e+00    0,000000000e+00
      968000000    2,780765854e-02   -3,146358728e-01    4,106284976e-01    1,789038032e-01    0,000000000e+00    0,000000000e+00    0,000000000e+00    0,000000000e+00
      982000000   -1,611205786e-01   -3,293952644e-01    4,739479423e-01   -6,680329144e-02    0,000000000e+00    0,000000000e+00    0,000000000e+00    0,000000000e+00
      996000000   -3,269754946e-01   -2,076649964e-01    3,678213656e-01   -3,570735753e-01    0,000000000e+00    0,000000000e+00    0,000000000e+00    0,000000000e+00
     1010000000   -3,420009613e-01   -9,620832279e-03    4,323939979e-02   -5,235223174e-01    0,000000000e+00    0,000000000e+00    0,000000000e+00    0,000000000e+00
     1024000000   -2,055577189e-01    9,606851637e-02   -3,482159078e-01   -3,793325424e-01    0,000000000e+00    0,000000000e+00    0,000000000e+00    0,000000000e+00
     1038000000   -1,328931749e-01    8,944489062e-03   -4,824239016e-01    6,352413446e-02    0,000000000e+00    0,000000000e+00    0,000000000e+00    0,000000000e+00
     1052000000   -2,843750417e-01    5,582484975e-02   -9,594053030e-02    3,712584376e-01    0,000000000e+00    0,000000000e+00    0,000000000e+00    0,000000000e+00
     1066000000   -1,493823677e-01    2,896318436e-01    1,435421258e-01    1,329207271e-01    0,000000000e+00    0,000000000e+00    0,000000000e+00    0,000000000e+00
     1080000000    9,816851467e-02    2,525806427e-01    9,273461252e-02    2,071213908e-02    0,000000000e+00    0,000000000e+00    0,000000000e+00    0,000000000e+00
     1094000000    2,171483040e-01    8,945629001e-02    7,108409703e-02    8,893127553e-03    0,000000000e+00    0,000000000e+00    0,000000000e+00    0,000000000e+00
     1108000000    2,394722402e-01   -8,720449358e-02    8,270752430e-02    8,834422333e-04    0,000000000e+00    0,000000000e+00    0,000000000e+00    0,000000000e+00
     1122000000    1,842623055e-01   -2,538408041e-01    1,049216166e-01   -2,680417523e-02    0,000000000e+00    0,000000000e+00    0,000000000e+00    0,000000000e+00
     1136000000    5,198409036e-02   -3,809396625e-01    1,251929998e-01   -7,181799412e-02    0,000000000e+00    0,000000000e+00    0,000000000e+00    0,000000000e+00
     1150000000   -1,515010297e-01   -4,216688275e-01    1,390716136e-01   -1,527273953e-01    0,000000000e+00    0,000000000e+00    0,000000000e+00    0,000000000e+00
     1164000000   -3,746794164e-01   -3,230296671e-01    9,902283549e-02   -2,786560059e-01    0,000000000e+00    0,000000000e+00    0,000000000e+00    0,000000000e+00
     1178000000   -4,660233259e-01   -8,264413476e-02   -1,038678288e-01   -4,073201120e-01    0,000000000e+00    0,000000000e+00    0,000000000e+00    0,000000000e+00
     1192000000   -3,718895614e-01    3,777960688e-02   -4,637284577e-01   -2,011087686e-01    0,000000000e+00    0,000000000e+00    0,000000000e+00    0,000000000e+00
     1206000000   -4,173264205e-01    1,328204423e-01   -2,777139544e-01    2,359599620e-01    0,000000000e+00    0,000000000e+00    0,000000000e+00    0,000000000e+00
     1220000000   -2,742600441e-01    3,259861767e-01   -6,974912249e-03    1,627236754e-01    0,000000000e+00    0,000000000e+00    0,000000000e+00    0,000000000e+00
     1234000000   -4,144419357e-02    3,452812731e-01    2,302806638e-02    5,601122230e-02    0,000000000e+00    0,000000000e+00    0,000000000e+00    0,000000000e+00
     1248000000    1,255318820e-01    2,462932318e-01    5,359590054e-03    2,422774397e-02    0,000000000e+00    0,000000000e+00    0,000000000e+00    0,000000000e+00
     1262000000    2,154020667e-01    1,030695289e-01    2,605860587e-03    3,183169663e-02    0,000000000e+00    0,000000000e+00    0,000000000e+00    0,000000000e+00
     1276000000    2,335860133e-01   -6,090462580e-02    2,702962793e-02    3,007511795e-02    0,000000000e+00    0,000000000e+00    0,000000000e+00    0,000000000e+00
     1290000000    1,951582134e-01   -2,145441324e-01    6,217983365e-02    2,300897986e-02    0,000000000e+00    0,000000000e+00    0,000000000e+00    0,000000000e+00
     1304000000    8,232225478e-02   -3,588542640e-01    7,427833974e-02   -1,125370269e-03    0,000000000e+00    0,000000000e+00    0,000000000e+00    0,000000000e+00
     1318000000   -1,000232697e-01   -4,499281645e-01    8,436844498e-02   -1,283025742e-02    0,000000000e+00    0,000000000e+00    0,000000000e+00    0,000000000e+00
     1332000000   -3,523214459e-01   -4,341355264e-01    8,966923505e-02   -1,689302735e-02    0,000000000e+00    0,000000000e+00    0,000000000e+00    0,000000000e+00
     1346000000   -5,857665539e-01   -2,490638196e-01    1,082860008e-01   -1,323196571e-02    0,000000000e+00    0,000000000e+00    0,000000000e+00    0,000000000e+00
     1360000000   -6,522812843e-01    7,362747937e-02    1,361566931e-01   -1,335012447e-02    0,000000000e+00    0,000000000e+00    0,000000000e+00    0,000000000e+00
     1374000000   -4,899604619e-01    3,361476064e-01    1,760764867e-01   -4,053716734e-02    0,000000000e+00    0,000000000e+00    0,000000000e+00    0,000000000e+00
     1388000000   -2,512640357e-01    4,282878339e-01    1,658561528e-01   -8,053952456e-02    0,000000000e+00    0,000000000e+00    0,000000000e+00    0,000000000e+00
     1402000000   -4,812871665e-02    3,840938210e-01    1,442252696e-01   -1,002805009e-01    0,000000000e+00    0,000000000e+00    0,000000000e+00    0,000000000e+00
     1416000000    9,989981353e-02    2,878296673e-01    1,207872778e-01   -7,988151908e-02    0,000000000e+00    0,000000000e+00    0,000000000e+00    0,000000000e+00
     1430000000    1,881818473e-01    1,456193477e-01    1,183482260e-01   -8,030420542e-02    0,000000000e+00    0,000000000e+00    0,000000000e+00    0,000000000e+00
     1444000000    2,169394344e-01   -9,031074122e-03    1,201580018e-01   -1,801512577e-02    0,000000000e+00    0,000000000e+00    0,000000000e+00    0,000000000e+00
     1458000000    1,794344187e-01   -1,835396886e-01    1,399177015e-01    7,380287163e-03    0,000000000e+00    0,000000000e+00    0,000000000e+00    0,000000000e+00
     1472000000    7,002566755e-02   -3,509643376e-01    1,909094751e-01    5,423995107e-02    0,000000000e+00    0,000000000e+00    0,000000000e+00    0,000000000e+00
     1486000000   -1,495856792e-01   -4,787084460e-01    3,014580309e-01    7,979802042e-02    0,000000000e+00    0,000000000e+00    0,000000000e+00    0,000000000e+00
     1500000000   -4,435513914e-01   -4,697347581e-01    4,075737000e-01    6,495022774e-02    0,000000000e+00    0,000000000e+00    0,000000000e+00    0,000000000e+00
