! NanoVNA-App
! Date: 2025-09-25 16:02:46
! Start: 100MHz Stop: 1,5GHz Points: 101
! S-Parameter data: F S11 S21 S12 S22
# Hz S RI R 50
!     Frequency           S11_Real           S11_Imag           S21_Real           S21_Imag           S12_Real           S12_Imag           S22_Real           S22_Imag
      100000000   -2,830570564e-02   -2,891168231e-03    3,722966909e-01   -7,224538922e-01    0,000000000e+00    0,000000000e+00    0,000000000e+00    0,000000000e+00
      114000000   -1,574544981e-02    1,294952817e-02   -9,138386697e-02   -8,047682643e-01    0,000000000e+00    0,000000000e+00    0,000000000e+00    0,000000000e+00
      128000000    4,356803373e-03    1,198651548e-02   -5,157119632e-01   -6,187387109e-01    0,000000000e+00    0,000000000e+00    0,000000000e+00    0,000000000e+00
      142000000    1,547631994e-02   -1,692983205e-03   -7,674303055e-01   -2,341559231e-01    0,000000000e+00    0,000000000e+00    0,000000000e+00    0,000000000e+00
      156000000    1,744663529e-02   -1,386949513e-02   -7,678120136e-01    2,273372263e-01    0,000000000e+00    0,000000000e+00    0,000000000e+00    0,000000000e+00
      170000000    1,766770706e-02   -2,099540085e-02   -5,152754784e-01    6,062476635e-01    0,000000000e+00    0,000000000e+00    0,000000000e+00    0,000000000e+00
      184000000    2,202096581e-02   -3,556546941e-02   -9,821580350e-02    7,861244082e-01    0,000000000e+00    0,000000000e+00    0,000000000e+00    0,000000000e+00
      198000000    1,399588026e-02   -6,063693017e-02    3,458238840e-01    7,107807994e-01    0,000000000e+00    0,000000000e+00    0,000000000e+00    0,000000000e+00
      212000000   -1,768115163e-02   -7,910188287e-02    6,808966994e-01    4,062891304e-01    0,000000000e+00    0,000000000e+00    0,000000000e+00    0,000000000e+00
      226000000   -6,028374285e-02   -6,664686650e-02    7,957504392e-01   -3,554968908e-02    0,000000000e+00    0,000000000e+00    0,000000000e+00    0,000000000e+00
      240000000   -8,056158572e-02   -2,268458903e-02    6,416102648e-01   -4,716560245e-01    0,000000000e+00    0,000000000e+00    0,000000000e+00    0,000000000e+00
      254000000   -6,078407541e-02    1,977299340e-02    2,709251344e-01   -7,423726320e-01    0,000000000e+00    0,000000000e+00    0,000000000e+00    0,000000000e+00
      268000000   -2,096613310e-02    3,088692762e-02   -1,810615957e-01   -7,608862519e-01    0,000000000e+00    0,000000000e+00    0,000000000e+00    0,000000000e+00
      282000000    6,912212819e-03    1,376033295e-02   -5,635873675e-01   -5,325506926e-01    0,000000000e+00    0,000000000e+00    0,000000000e+00    0,000000000e+00
      296000000    1,233923994e-02   -6,222093478e-03   -7,604762316e-01   -1,344084740e-01    0,000000000e+00    0,000000000e+00    0,000000000e+00    0,000000000e+00
      310000000    1,364824176e-02   -1,439208165e-02   -7,078242302e-01    3,047313094e-01    0,000000000e+00    0,000000000e+00    0,000000000e+00    0,000000000e+00
      324000000    2,260969952e-02   -2,451118827e-02   -4,208582938e-01    6,397237182e-01    0,000000000e+00    0,000000000e+00    0,000000000e+00    0,000000000e+00
      338000000    2,835503966e-02   -5,055807531e-02   -7,980196970e-04    7,628906369e-01    0,000000000e+00    0,000000000e+00    0,000000000e+00    0,000000000e+00
      352000000    1,023589168e-02   -8,277279139e-02    4,113038182e-01    6,353659630e-01    0,000000000e+00    0,000000000e+00    0,000000000e+00    0,000000000e+00
      366000000   -3,180174902e-02   -9,385167807e-02    6,934074163e-01    3,037874401e-01    0,000000000e+00    0,000000000e+00    0,000000000e+00    0,000000000e+00
      380000000   -6,757415831e-02   -6,885142624e-02    7,458730340e-01   -1,347764432e-01    0,000000000e+00    0,000000000e+00    0,000000000e+00    0,000000000e+00
      394000000   -6,856669486e-02   -3,038091585e-02    5,395634174e-01   -5,291408300e-01    0,000000000e+00    0,000000000e+00    0,000000000e+00    0,000000000e+00
      408000000   -4,246332124e-02   -1,577172428e-02    1,501536965e-01   -7,364934087e-01    0,000000000e+00    0,000000000e+00    0,000000000e+00    0,000000000e+00
      422000000   -2,611667290e-02   -3,108061850e-02   -2,798508108e-01   -6,900083423e-01    0,000000000e+00    0,000000000e+00    0,000000000e+00    0,000000000e+00
      436000000   -3,959222510e-02   -4,877944291e-02   -6,105289459e-01   -4,193960428e-01    0,000000000e+00    0,000000000e+00    0,000000000e+00    0,000000000e+00
      450000000   -6,453775615e-02   -3,907366097e-02   -7,370308042e-01   -7,915183902e-03    0,000000000e+00    0,000000000e+00    0,000000000e+00    0,000000000e+00
      464000000   -6,728124619e-02   -6,393189076e-03   -6,078923941e-01    4,068882763e-01    0,000000000e+00    0,000000000e+00    0,000000000e+00    0,000000000e+00
      478000000   -3,859145567e-02    1,613623090e-02   -2,676459849e-01    6,707606912e-01    0,000000000e+00    0,000000000e+00    0,000000000e+00    0,000000000e+00
      492000000   -5,222730339e-03    6,141238846e-03    1,520486474e-01    6,962687969e-01    0,000000000e+00    0,000000000e+00    0,000000000e+00    0,000000000e+00
      506000000    7,009356748e-03   -2,034721524e-02    5,079416037e-01    4,892358780e-01    0,000000000e+00    0,000000000e+00    0,000000000e+00    0,000000000e+00
      520000000    6,630357238e-04   -3,884521499e-02    6,907532811e-01    1,229226962e-01    0,000000000e+00    0,000000000e+00    0,000000000e+00    0,000000000e+00
      534000000   -2,740071155e-03   -4,515665770e-02    6,330549717e-01   -2,822228968e-01    0,000000000e+00    0,000000000e+00    0,000000000e+00    0,000000000e+00
      548000000    1,098866924e-03   -5,985103920e-02    3,605590165e-01   -5,795626640e-01    0,000000000e+00    0,000000000e+00    0,000000000e+00    0,000000000e+00
      562000000   -7,929708809e-03   -8,832006156e-02   -2,694790810e-02   -6,737262607e-01    0,000000000e+00    0,000000000e+00    0,000000000e+00    0,000000000e+00
      576000000   -4,563938454e-02   -1,095459089e-01   -4,016487002e-01   -5,384529829e-01    0,000000000e+00    0,000000000e+00    0,000000000e+00    0,000000000e+00
      590000000   -9,489192814e-02   -9,353791922e-02   -6,424032450e-01   -2,182563543e-01    0,000000000e+00    0,000000000e+00    0,000000000e+00    0,000000000e+00
      604000000   -1,113357246e-01   -4,111675173e-02   -6,470191479e-01    1,983602792e-01    0,000000000e+00    0,000000000e+00    0,000000000e+00    0,000000000e+00
      618000000   -7,599017769e-02   -2,654949669e-03   -4,024454355e-01    5,350795984e-01    0,000000000e+00    0,000000000e+00    0,000000000e+00    0,000000000e+00
      632000000   -3,016769141e-02   -2,062182128e-02   -1,192975044e-02    6,555339694e-01    0,000000000e+00    0,000000000e+00    0,000000000e+00    0,000000000e+00
      646000000   -3,596951440e-02   -7,694732398e-02    3,654508591e-01    5,275988579e-01    0,000000000e+00    0,000000000e+00    0,000000000e+00    0,000000000e+00
      660000000   -1,120323911e-01   -9,977488965e-02    6,012715101e-01    1,930394322e-01    0,000000000e+00    0,000000000e+00    0,000000000e+00    0,000000000e+00
      674000000   -1,997676045e-01   -2,435030416e-02    5,662868619e-01   -2,395137399e-01    0,000000000e+00    0,000000000e+00    0,000000000e+00    0,000000000e+00
      688000000   -1,779612303e-01    1,445846260e-01    2,103914320e-01   -5,224831700e-01    0,000000000e+00    0,000000000e+00    0,000000000e+00    0,000000000e+00
      702000000    2,384622209e-02    2,439914942e-01   -1,931598932e-01   -4,067931771e-01    0,000000000e+00    0,000000000e+00    0,000000000e+00    0,000000000e+00
      716000000    2,633560002e-01    1,108027920e-01   -2,743283808e-01   -8,409307897e-02    0,000000000e+00    0,000000000e+00    0,000000000e+00    0,000000000e+00
      730000000    3,032626510e-01   -1,854723990e-01   -1,081602126e-01    3,317887709e-02    0,000000000e+00    0,000000000e+00    0,000000000e+00    0,000000000e+00
      744000000    9,442985058e-02   -4,274362624e-01   -4,220205918e-02   -6,373035163e-02    0,000000000e+00    0,000000000e+00    0,000000000e+00    0,000000000e+00
      758000000   -2,573311925e-01   -4,311430752e-01   -1,742308736e-01   -1,252357066e-01    0,000000000e+00    0,000000000e+00    0,000000000e+00    0,000000000e+00
      772000000   -4,865558743e-01   -1,198357716e-01   -3,357364833e-01    3,785999864e-02    0,000000000e+00    0,000000000e+00    0,000000000e+00    0,000000000e+00
      786000000   -3,412144482e-01    2,218224555e-01   -2,632400990e-01    3,157849312e-01    0,000000000e+00    0,000000000e+00    0,000000000e+00    0,000000000e+00
      800000000   -4,096097127e-02    2,777166963e-01    1,917302841e-03    4,363752902e-01    0,000000000e+00    0,000000000e+00    0,000000000e+00    0,000000000e+00
      814000000    1,446667314e-01    1,265005469e-01    2,630987167e-01    3,595238328e-01    0,000000000e+00    0,000000000e+00    0,000000000e+00    0,000000000e+00
      828000000    1,680976301e-01   -6,981088221e-02    4,327422380e-01    1,571355462e-01    0,000000000e+00    0,000000000e+00    0,000000000e+00    0,000000000e+00
      842000000    6,716182828e-02   -2,185320556e-01    4,665027261e-01   -1,197507083e-01    0,000000000e+00    0,000000000e+00    0,000000000e+00    0,000000000e+00
      856000000   -1,061103120e-01   -2,637001872e-01    3,206129074e-01   -3,943357170e-01    0,000000000e+00    0,000000000e+00    0,000000000e+00    0,000000000e+00
      870000000   -2,750950456e-01   -1,691193283e-01   -3,053204855e-03   -5,269591212e-01    0,000000000e+00    0,000000000e+00    0,000000000e+00    0,000000000e+00
      884000000   -3,203411400e-01    3,528891876e-02   -3,471397161e-01   -3,920422792e-01    0,000000000e+00    0,000000000e+00    0,000000000e+00    0,000000000e+00
      898000000   -1,928884834e-01    2,070908546e-01   -4,896760881e-01   -6,271208078e-02    0,000000000e+00    0,000000000e+00    0,000000000e+00    0,000000000e+00
      912000000    7,341328077e-03    2,192872614e-01   -4,096754789e-01    2,789895833e-01    0,000000000e+00    0,000000000e+00    0,000000000e+00    0,000000000e+00
      926000000    1,491731405e-01    1,127427593e-01   -1,701985002e-01    4,141912758e-01    0,000000000e+00    0,000000000e+00    0,000000000e+00    0,000000000e+00
      940000000    2,009105980e-01   -4,435371980e-02    6,315840781e-02    4,248620272e-01    0,000000000e+00    0,000000000e+00    0,000000000e+00    0,000000000e+00
      954000000    1,547803730e-01   -2,043983936e-01    2,602811456e-01    3,407849967e-01    0,000000000e+00    0,000000000e+00    0,000000000e+00    0,000000000e+00
      968000000    2,492327988e-02   -3,163642287e-01    4,102494717e-01    1,781586558e-01    0,000000000e+00    0,000000000e+00    0,000000000e+00    0,000000000e+00
      982000000   -1,619948596e-01   -3,301385641e-01    4,753324091e-01   -6,809087843e-02    0,000000000e+00    0,000000000e+00    0,000000000e+00    0,000000000e+00
      996000000   -3,239479959e-01   -2,127139866e-01    3,670023978e-01   -3,558021188e-01    0,000000000e+00    0,000000000e+00    0,000000000e+00    0,000000000e+00
     1010000000   -3,390783072e-01   -8,582937531e-03    4,127596319e-02   -5,238239169e-01    0,000000000e+00    0,000000000e+00    0,000000000e+00    0,000000000e+00
     1024000000   -2,088741213e-01    9,576234221e-02   -3,439573944e-01   -3,811574876e-01    0,000000000e+00    0,000000000e+00    0,000000000e+00    0,000000000e+00
     1038000000   -1,368794441e-01    9,766639210e-03   -4,802317321e-01    6,273680180e-02    0,000000000e+00    0,000000000e+00    0,000000000e+00    0,000000000e+00
     1052000000   -2,863825560e-01    5,533064529e-02   -9,653332829e-02    3,726120889e-01    0,000000000e+00    0,000000000e+00    0,000000000e+00    0,000000000e+00
     1066000000   -1,478172839e-01    2,979942560e-01    1,433060467e-01    1,300172359e-01    0,000000000e+00    0,000000000e+00    0,000000000e+00    0,000000000e+00
     1080000000    1,033355519e-01    2,470675707e-01    9,085720032e-02    2,187677100e-02    0,000000000e+00    0,000000000e+00    0,000000000e+00    0,000000000e+00
     1094000000    2,179937661e-01    9,143514186e-02    6,816548854e-02    9,709456936e-03    0,000000000e+00    0,000000000e+00    0,000000000e+00    0,000000000e+00
     1108000000    2,397194505e-01   -8,795841783e-02    7,921875268e-02   -8,869200974e-05    0,000000000e+00    0,000000000e+00    0,000000000e+00    0,000000000e+00
     1122000000    1,866572648e-01   -2,501668036e-01    1,032006666e-01   -2,536553517e-02    0,000000000e+00    0,000000000e+00    0,000000000e+00    0,000000000e+00
     1136000000    4,942062125e-02   -3,748511374e-01    1,264610589e-01   -7,084212452e-02    0,000000000e+00    0,000000000e+00    0,000000000e+00    0,000000000e+00
     1150000000   -1,578916162e-01   -4,221401215e-01    1,365189701e-01   -1,487738639e-01    0,000000000e+00    0,000000000e+00    0,000000000e+00    0,000000000e+00
     1164000000   -3,757731616e-01   -3,211803734e-01    9,876163304e-02   -2,771787643e-01    0,000000000e+00    0,000000000e+00    0,000000000e+00    0,000000000e+00
     1178000000   -4,653424323e-01   -8,345062286e-02   -1,022455543e-01   -4,028839469e-01    0,000000000e+00    0,000000000e+00    0,000000000e+00    0,000000000e+00
     1192000000   -3,736149967e-01    3,660304844e-02   -4,590013325e-01   -1,971548349e-01    0,000000000e+00    0,000000000e+00    0,000000000e+00    0,000000000e+00
     1206000000   -4,117863178e-01    1,342357099e-01   -2,718564272e-01    2,374915779e-01    0,000000000e+00    0,000000000e+00    0,000000000e+00    0,000000000e+00
     1220000000   -2,782779336e-01    3,288712204e-01   -6,017062813e-03    1,647693366e-01    0,000000000e+00    0,000000000e+00    0,000000000e+00    0,000000000e+00
     1234000000   -4,771304503e-02    3,453417718e-01    1,787747070e-02    5,078214034e-02    0,000000000e+00    0,000000000e+00    0,000000000e+00    0,000000000e+00
     1248000000    1,223578230e-01    2,471825778e-01    8,376940154e-03    2,351675741e-02    0,000000000e+00    0,000000000e+00    0,000000000e+00    0,000000000e+00
     1262000000    2,081399411e-01    1,018186212e-01    1,160677522e-03    2,906143665e-02    0,000000000e+00    0,000000000e+00    0,000000000e+00    0,000000000e+00
     1276000000    2,330610007e-01   -5,747828260e-02    2,392848022e-02    3,458580002e-02    0,000000000e+00    0,000000000e+00    0,000000000e+00    0,000000000e+00
     1290000000    1,926671863e-01   -2,161780596e-01    5,241843313e-02    2,410303615e-02    0,000000000e+00    0,000000000e+00    0,000000000e+00    0,000000000e+00
     1304000000    8,423258364e-02   -3,597269952e-01    7,743286341e-02    2,711469308e-03    0,000000000e+00    0,000000000e+00    0,000000000e+00    0,000000000e+00
     1318000000   -1,053819135e-01   -4,448716342e-01    8,398391306e-02   -8,763055317e-03    0,000000000e+00    0,000000000e+00    0,000000000e+00    0,000000000e+00
     1332000000   -3,550114930e-01   -4,356113374e-01    8,305191994e-02   -1,766938902e-02    0,000000000e+00    0,000000000e+00    0,000000000e+00    0,000000000e+00
     1346000000   -5,863313079e-01   -2,469759434e-01    1,029568538e-01   -1,687663794e-02    0,000000000e+00    0,000000000e+00    0,000000000e+00    0,000000000e+00
     1360000000   -6,520528197e-01    7,877695560e-02    1,450789720e-01   -1,023441833e-02    0,000000000e+00    0,000000000e+00    0,000000000e+00    0,000000000e+00
     1374000000   -4,908801913e-01    3,248992562e-01    1,661736816e-01   -5,500269309e-02    0,000000000e+00    0,000000000e+00    0,000000000e+00    0,000000000e+00
     1388000000   -2,534538805e-01    4,263782203e-01    1,553354412e-01   -8,758008480e-02    0,000000000e+00    0,000000000e+00    0,000000000e+00    0,000000000e+00
     1402000000   -4,844365641e-02    3,931806087e-01    1,423819363e-01   -9,777751565e-02    0,000000000e+00    0,000000000e+00    0,000000000e+00    0,000000000e+00
     1416000000    1,052720323e-01    2,905643880e-01    1,145673767e-01   -8,476553857e-02    0,000000000e+00    0,000000000e+00    0,000000000e+00    0,000000000e+00
     1430000000    1,808595806e-01    1,475633085e-01    1,224429682e-01   -5,112373084e-02    0,000000000e+00    0,000000000e+00    0,000000000e+00    0,000000000e+00
     1444000000    2,161031365e-01   -1,073991973e-02    1,230493486e-01   -2,015618421e-02    0,000000000e+00    0,000000000e+00    0,000000000e+00    0,000000000e+00
     1458000000    1,824418902e-01   -1,783781946e-01    1,429357678e-01    1,025425270e-02    0,000000000e+00    0,000000000e+00    0,000000000e+00    0,000000000e+00
     1472000000    6,463365257e-02   -3,543093801e-01    1,914615780e-01    6,371579319e-02    0,000000000e+00    0,000000000e+00    0,000000000e+00    0,000000000e+00
     1486000000   -1,393954009e-01   -4,772027433e-01    2,916979790e-01    8,283444494e-02    0,000000000e+00    0,000000000e+00    0,000000000e+00    0,000000000e+00
     1500000000   -4,452667534e-01   -4,690672457e-01    4,039099813e-01    6,527741998e-02    0,000000000e+00    0,000000000e+00    0,000000000e+00    0,000000000e+00
