! NanoVNA-App
! Date: 2025-09-25 16:02:26
! Start: 100MHz Stop: 1,5GHz Points: 101
! S-Parameter data: F S11 S21 S12 S22
# Hz S RI R 50
!     Frequency           S11_Real           S11_Imag           S21_Real           S21_Imag           S12_Real           S12_Imag           S22_Real           S22_Imag
      100000000   -2,830146439e-02   -2,877180465e-03    3,722825944e-01   -7,223913074e-01    0,000000000e+00    0,000000000e+00    0,000000000e+00    0,000000000e+00
      114000000   -1,572454348e-02    1,290734857e-02   -9,125132859e-02   -8,045891523e-01    0,000000000e+00    0,000000000e+00    0,000000000e+00    0,000000000e+00
      128000000    4,310708027e-03    1,194459572e-02   -5,159565210e-01   -6,187779903e-01    0,000000000e+00    0,000000000e+00    0,000000000e+00    0,000000000e+00
      142000000    1,548975799e-02   -1,710615586e-03   -7,673974037e-01   -2,342193723e-01    0,000000000e+00    0,000000000e+00    0,000000000e+00    0,000000000e+00
      156000000    1,690083183e-02   -1,384641323e-02   -7,704445124e-01    2,263353318e-01    0,000000000e+00    0,000000000e+00    0,000000000e+00    0,000000000e+00
      170000000    1,763279177e-02   -2,101194859e-02   -5,152953863e-01    6,060662866e-01    0,000000000e+00    0,000000000e+00    0,000000000e+00    0,000000000e+00
      184000000    2,200666443e-02   -3,553703427e-02   -9,828988463e-02    7,857303619e-01    0,000000000e+00    0,000000000e+00    0,000000000e+00    0,000000000e+00
      198000000    1,401014533e-02   -6,065306440e-02    3,461178839e-01    7,108976841e-01    0,000000000e+00    0,000000000e+00    0,000000000e+00    0,000000000e+00
      212000000   -1,768073440e-02   -7,913600653e-02    6,808069348e-01    4,061753750e-01    0,000000000e+00    0,000000000e+00    0,000000000e+00    0,000000000e+00
      226000000   -6,031121686e-02   -6,659844518e-02    7,957979441e-01   -3,566773608e-02    0,000000000e+00    0,000000000e+00    0,000000000e+00    0,000000000e+00
      240000000   -8,056148887e-02   -2,272932604e-02    6,416655779e-01   -4,716839790e-01    0,000000000e+00    0,000000000e+00    0,000000000e+00    0,000000000e+00
      254000000   -6,077600643e-02    1,980908029e-02    2,708688974e-01   -7,422609329e-01    0,000000000e+00    0,000000000e+00    0,000000000e+00    0,000000000e+00
      268000000   -2,090710215e-02    3,087162226e-02   -1,814083904e-01   -7,610819340e-01    0,000000000e+00    0,000000000e+00    0,000000000e+00    0,000000000e+00
      282000000    6,929046940e-03    1,373849995e-02   -5,630073547e-01   -5,326086879e-01    0,000000000e+00    0,000000000e+00    0,000000000e+00    0,000000000e+00
      296000000    1,236760803e-02   -6,354435347e-03   -7,604310513e-01   -1,343574226e-01    0,000000000e+00    0,000000000e+00    0,000000000e+00    0,000000000e+00
      310000000    1,364797913e-02   -1,450940594e-02   -7,089701891e-01    3,048739731e-01    0,000000000e+00    0,000000000e+00    0,000000000e+00    0,000000000e+00
      324000000    2,249037661e-02   -2,471196279e-02   -4,216553271e-01    6,391288638e-01    0,000000000e+00    0,000000000e+00    0,000000000e+00    0,000000000e+00
      338000000    2,841566689e-02   -5,062560737e-02   -3,018327756e-03    7,577059269e-01    0,000000000e+00    0,000000000e+00    0,000000000e+00    0,000000000e+00
      352000000    1,011391450e-02   -8,296728134e-02    4,115554988e-01    6,343848109e-01    0,000000000e+00    0,000000000e+00    0,000000000e+00    0,000000000e+00
      366000000   -3,191040829e-02   -9,375670552e-02    6,935988665e-01    3,041681945e-01    0,000000000e+00    0,000000000e+00    0,000000000e+00    0,000000000e+00
      380000000   -6,770717353e-02   -6,873698533e-02    7,455668449e-01   -1,340648532e-01    0,000000000e+00    0,000000000e+00    0,000000000e+00    0,000000000e+00
      394000000   -6,866632402e-02   -3,043692373e-02    5,398281217e-01   -5,288328528e-01    0,000000000e+00    0,000000000e+00    0,000000000e+00    0,000000000e+00
      408000000   -4,278094694e-02   -1,549280062e-02    1,502722502e-01   -7,336827517e-01    0,000000000e+00    0,000000000e+00    0,000000000e+00    0,000000000e+00
      422000000   -2,603510022e-02   -3,111826070e-02   -2,790110409e-01   -6,899407506e-01    0,000000000e+00    0,000000000e+00    0,000000000e+00    0,000000000e+00
      436000000   -3,919310495e-02   -4,904005304e-02   -6,101990938e-01   -4,194734097e-01    0,000000000e+00    0,000000000e+00    0,000000000e+00    0,000000000e+00
      450000000   -6,465771049e-02   -3,889200836e-02   -7,372527719e-01   -7,914636284e-03    0,000000000e+00    0,000000000e+00    0,000000000e+00    0,000000000e+00
      464000000   -6,747032702e-02   -6,710693706e-03   -6,077367663e-01    4,060328007e-01    0,000000000e+00    0,000000000e+00    0,000000000e+00    0,000000000e+00
      478000000   -3,905136138e-02    1,629411429e-02   -2,676350772e-01    6,699381471e-01    0,000000000e+00    0,000000000e+00    0,000000000e+00    0,000000000e+00
      492000000   -5,072284490e-03    6,210749969e-03    1,528680176e-01    6,952440143e-01    0,000000000e+00    0,000000000e+00    0,000000000e+00    0,000000000e+00
      506000000    7,264194544e-03   -2,017185278e-02    5,078575015e-01    4,890142083e-01    0,000000000e+00    0,000000000e+00    0,000000000e+00    0,000000000e+00
      520000000    6,882374873e-04   -3,871764988e-02    6,896321774e-01    1,209247038e-01    0,000000000e+00    0,000000000e+00    0,000000000e+00    0,000000000e+00
      534000000   -3,346461337e-03   -4,572085664e-02    6,329914331e-01   -2,821325958e-01    0,000000000e+00    0,000000000e+00    0,000000000e+00    0,000000000e+00
      548000000    7,537794299e-04   -5,950251967e-02    3,597008288e-01   -5,799474120e-01    0,000000000e+00    0,000000000e+00    0,000000000e+00    0,000000000e+00
      562000000   -7,547158748e-03   -8,830057085e-02   -2,664810047e-02   -6,730368137e-01    0,000000000e+00    0,000000000e+00    0,000000000e+00    0,000000000e+00
      576000000   -4,535270855e-02   -1,098634228e-01   -4,016740024e-01   -5,385915637e-01    0,000000000e+00    0,000000000e+00    0,000000000e+00    0,000000000e+00
      590000000   -9,497578442e-02   -9,357753396e-02   -6,394600272e-01   -2,173743248e-01    0,000000000e+00    0,000000000e+00    0,000000000e+00    0,000000000e+00
      604000000   -1,117350683e-01   -4,180280864e-02   -6,479595304e-01    1,981259435e-01    0,000000000e+00    0,000000000e+00    0,000000000e+00    0,000000000e+00
      618000000   -7,627967000e-02   -2,242754912e-03   -4,018722475e-01    5,372284651e-01    0,000000000e+00    0,000000000e+00    0,000000000e+00    0,000000000e+00
      632000000   -3,032500856e-02   -2,127656713e-02   -1,264558081e-02    6,550753117e-01    0,000000000e+00    0,000000000e+00    0,000000000e+00    0,000000000e+00
      646000000   -3,620315716e-02   -7,620297372e-02    3,661524057e-01    5,279864669e-01    0,000000000e+00    0,000000000e+00    0,000000000e+00    0,000000000e+00
      660000000   -1,120227799e-01   -9,942009300e-02    6,012876034e-01    1,938258708e-01    0,000000000e+00    0,000000000e+00    0,000000000e+00    0,000000000e+00
      674000000   -2,000976801e-01   -2,329523675e-02    5,654143095e-01   -2,395590693e-01    0,000000000e+00    0,000000000e+00    0,000000000e+00    0,000000000e+00
      688000000   -1,782815605e-01    1,445454061e-01    2,105904073e-01   -5,221340060e-01    0,000000000e+00    0,000000000e+00    0,000000000e+00    0,000000000e+00
      702000000    2,434480377e-02    2,467012554e-01   -2,027113438e-01   -4,107258022e-01    0,000000000e+00    0,000000000e+00    0,000000000e+00    0,000000000e+00
      716000000    2,633161247e-01    1,104196012e-01   -2,741075158e-01   -8,403977007e-02    0,000000000e+00    0,000000000e+00    0,000000000e+00    0,000000000e+00
      730000000    3,036625981e-01   -1,854643673e-01   -1,079085097e-01    3,256677464e-02    0,000000000e+00    0,000000000e+00    0,000000000e+00    0,000000000e+00
      744000000    9,462040663e-02   -4,277124107e-01   -4,209789261e-02   -6,436407566e-02    0,000000000e+00    0,000000000e+00    0,000000000e+00    0,000000000e+00
      758000000   -2,601348460e-01   -4,304737747e-01   -1,747377217e-01   -1,254376769e-01    0,000000000e+00    0,000000000e+00    0,000000000e+00    0,000000000e+00
      772000000   -4,857065976e-01   -1,187369674e-01   -3,357529044e-01    3,764998168e-02    0,000000000e+00    0,000000000e+00    0,000000000e+00    0,000000000e+00
      786000000   -3,427979052e-01    2,221109718e-01   -2,626806200e-01    3,156008422e-01    0,000000000e+00    0,000000000e+00    0,000000000e+00    0,000000000e+00
      800000000   -4,080453888e-02    2,772293091e-01    2,218218986e-03    4,365964532e-01    0,000000000e+00    0,000000000e+00    0,000000000e+00    0,000000000e+00
      814000000    1,447137892e-01    1,256064773e-01    2,634833157e-01    3,590386212e-01    0,000000000e+00    0,000000000e+00    0,000000000e+00    0,000000000e+00
      828000000    1,684733629e-01   -7,026278973e-02    4,330299795e-01    1,569956690e-01    0,000000000e+00    0,000000000e+00    0,000000000e+00    0,000000000e+00
      842000000    6,748036295e-02   -2,182771266e-01    4,661747217e-01   -1,201677322e-01    0,000000000e+00    0,000000000e+00    0,000000000e+00    0,000000000e+00
      856000000   -1,074963436e-01   -2,636446953e-01    3,197652400e-01   -3,946691751e-01    0,000000000e+00    0,000000000e+00    0,000000000e+00    0,000000000e+00
      870000000   -2,756634951e-01   -1,686656624e-01   -2,541399095e-03   -5,276470184e-01    0,000000000e+00    0,000000000e+00    0,000000000e+00    0,000000000e+00
      884000000   -3,205103278e-01    3,507876769e-02   -3,486151099e-01   -3,925050795e-01    0,000000000e+00    0,000000000e+00    0,000000000e+00    0,000000000e+00
      898000000   -1,915411055e-01    2,066380531e-01   -4,878607690e-01   -6,217051670e-02    0,000000000e+00    0,000000000e+00    0,000000000e+00    0,000000000e+00
      912000000    6,114815827e-03    2,196089476e-01   -4,076738954e-01    2,773981392e-01    0,000000000e+00    0,000000000e+00    0,000000000e+00    0,000000000e+00
      926000000    1,524843127e-01    1,131430417e-01   -1,673472971e-01    4,163650870e-01    0,000000000e+00    0,000000000e+00    0,000000000e+00    0,000000000e+00
      940000000    2,001125365e-01   -4,436850920e-02    6,292454153e-02    4,248641133e-01    0,000000000e+00    0,000000000e+00    0,000000000e+00    0,000000000e+00
      954000000    1,547702551e-01   -2,003759146e-01    2,622473836e-01    3,425420821e-01    0,000000000e+00    0,000000000e+00    0,000000000e+00    0,000000000e+00
      968000000    2,373654395e-02   -3,139912188e-01    4,107017815e-01    1,794102937e-01    0,000000000e+00    0,000000000e+00    0,000000000e+00    0,000000000e+00
      982000000   -1,596448869e-01   -3,333217800e-01    4,743975401e-01   -6,570513546e-02    0,000000000e+00    0,000000000e+00    0,000000000e+00    0,000000000e+00
      996000000   -3,239782751e-01   -2,075629383e-01    3,671678305e-01   -3,560686111e-01    0,000000000e+00    0,000000000e+00    0,000000000e+00    0,000000000e+00
     1010000000   -3,419718146e-01   -9,287876077e-03    4,322096705e-02   -5,250936747e-01    0,000000000e+00    0,000000000e+00    0,000000000e+00    0,000000000e+00
     1024000000   -2,087787539e-01    9,422298521e-02   -3,466950357e-01   -3,804004192e-01    0,000000000e+00    0,000000000e+00    0,000000000e+00    0,000000000e+00
     1038000000   -1,330080181e-01    1,063698065e-02   -4,834766388e-01    6,514751166e-02    0,000000000e+00    0,000000000e+00    0,000000000e+00    0,000000000e+00
     1052000000   -2,882012725e-01    5,081111565e-02   -9,251746535e-02    3,735778332e-01    0,000000000e+00    0,000000000e+00    0,000000000e+00    0,000000000e+00
     1066000000   -1,508261710e-01    2,987844944e-01    1,435023248e-01    1,332570314e-01    0,000000000e+00    0,000000000e+00    0,000000000e+00    0,000000000e+00
     1080000000    9,624391049e-02    2,478017658e-01    9,039271623e-02    2,321974933e-02    0,000000000e+00    0,000000000e+00    0,000000000e+00    0,000000000e+00
     1094000000    2,224886715e-01    9,066226333e-02    6,714171171e-02    1,094516553e-02    0,000000000e+00    0,000000000e+00    0,000000000e+00    0,000000000e+00
     1108000000    2,441991270e-01   -8,999956399e-02    8,003374934e-02    1,485534303e-04    0,000000000e+00    0,000000000e+00    0,000000000e+00    0,000000000e+00
     1122000000    1,825680137e-01   -2,499083281e-01    1,024452373e-01   -2,522255480e-02    0,000000000e+00    0,000000000e+00    0,000000000e+00    0,000000000e+00
     1136000000    4,652678967e-02   -3,789082766e-01    1,259063035e-01   -7,411652058e-02    0,000000000e+00    0,000000000e+00    0,000000000e+00    0,000000000e+00
     1150000000   -1,548833996e-01   -4,203792810e-01    1,392330080e-01   -1,525612772e-01    0,000000000e+00    0,000000000e+00    0,000000000e+00    0,000000000e+00
     1164000000   -3,794516027e-01   -3,197228909e-01    9,572869539e-02   -2,762953341e-01    0,000000000e+00    0,000000000e+00    0,000000000e+00    0,000000000e+00
     1178000000   -4,628744721e-01   -8,883258700e-02   -1,056691036e-01   -4,037796855e-01    0,000000000e+00    0,000000000e+00    0,000000000e+00    0,000000000e+00
     1192000000   -3,770346940e-01    3,877016157e-02   -4,633335769e-01   -1,960968375e-01    0,000000000e+00    0,000000000e+00    0,000000000e+00    0,000000000e+00
     1206000000   -4,167695343e-01    1,332827955e-01   -2,727147937e-01    2,379049510e-01    0,000000000e+00    0,000000000e+00    0,000000000e+00    0,000000000e+00
     1220000000   -2,732133567e-01    3,348042071e-01    2,498124493e-03    1,675328463e-01    0,000000000e+00    0,000000000e+00    0,000000000e+00    0,000000000e+00
     1234000000   -4,611051455e-02    3,463379443e-01    2,627868205e-02    5,178740993e-02    0,000000000e+00    0,000000000e+00    0,000000000e+00    0,000000000e+00
     1248000000    1,257195622e-01    2,470569909e-01    8,611781523e-03    2,654985525e-02    0,000000000e+00    0,000000000e+00    0,000000000e+00    0,000000000e+00
     1262000000    2,136620879e-01    1,072856933e-01    2,642645966e-03    3,054323234e-02    0,000000000e+00    0,000000000e+00    0,000000000e+00    0,000000000e+00
     1276000000    2,325835377e-01   -5,544657260e-02    2,287879214e-02    3,477328271e-02    0,000000000e+00    0,000000000e+00    0,000000000e+00    0,000000000e+00
     1290000000    1,977401972e-01   -2,152990103e-01    5,992386118e-02    2,301549539e-02    0,000000000e+00    0,000000000e+00    0,000000000e+00    0,000000000e+00
     1304000000    8,513420075e-02   -3,518519402e-01    7,631782442e-02    6,774990819e-03    0,000000000e+00    0,000000000e+00    0,000000000e+00    0,000000000e+00
     1318000000   -1,044196859e-01   -4,425728023e-01    8,113353699e-02   -7,632233668e-03    0,000000000e+00    0,000000000e+00    0,000000000e+00    0,000000000e+00
     1332000000   -3,587886691e-01   -4,362288117e-01    8,177921176e-02   -1,215836965e-02    0,000000000e+00    0,000000000e+00    0,000000000e+00    0,000000000e+00
     1346000000   -5,939189792e-01   -2,490291893e-01    1,095754430e-01   -4,496351816e-03    0,000000000e+00    0,000000000e+00    0,000000000e+00    0,000000000e+00
     1360000000   -6,466975212e-01    6,512664258e-02    1,478436738e-01   -7,248401642e-03    0,000000000e+00    0,000000000e+00    0,000000000e+00    0,000000000e+00
     1374000000   -4,938730597e-01    3,421223462e-01    1,701954752e-01   -3,998552635e-02    0,000000000e+00    0,000000000e+00    0,000000000e+00    0,000000000e+00
     1388000000   -2,475474179e-01    4,242434204e-01    1,659897864e-01   -8,543138951e-02    0,000000000e+00    0,000000000e+00    0,000000000e+00    0,000000000e+00
     1402000000   -4,699072987e-02    3,899784684e-01    1,364314109e-01   -9,941542894e-02    0,000000000e+00    0,000000000e+00    0,000000000e+00    0,000000000e+00
     1416000000    1,023974642e-01    2,880113423e-01    1,256200224e-01   -7,983546704e-02    0,000000000e+00    0,000000000e+00    0,000000000e+00    0,000000000e+00
     1430000000    1,912036240e-01    1,500945687e-01    1,331105977e-01   -4,536759481e-02    0,000000000e+00    0,000000000e+00    0,000000000e+00    0,000000000e+00
     1444000000    2,123982459e-01   -1,204081345e-02    1,115386933e-01   -2,601578832e-02    0,000000000e+00    0,000000000e+00    0,000000000e+00    0,000000000e+00
     1458000000    1,830132753e-01   -1,840438098e-01    1,450540125e-01    2,937027253e-02    0,000000000e+00    0,000000000e+00    0,000000000e+00    0,000000000e+00
     1472000000    6,534043700e-02   -3,442110121e-01    1,838623434e-01    6,962310523e-02    0,000000000e+00    0,000000000e+00    0,000000000e+00    0,000000000e+00
     1486000000   -1,440734714e-01   -4,721557200e-01    2,847209275e-01    9,251865000e-02    0,000000000e+00    0,000000000e+00    0,000000000e+00    0,000000000e+00
     1500000000   -4,415917099e-01   -4,693923295e-01    4,046974778e-01    6,889113784e-02    0,000000000e+00    0,000000000e+00    0,000000000e+00    0,000000000e+00
