! NanoVNA-App
! Date: 2025-09-25 16:03:03
! Start: 100MHz Stop: 1,5GHz Points: 101
! S-Parameter data: F S11 S21 S12 S22
# Hz S RI R 50
!     Frequency           S11_Real           S11_Imag           S21_Real           S21_Imag           S12_Real           S12_Imag           S22_Real           S22_Imag
      100000000   -2,830908634e-02   -2,886336995e-03    3,723090887e-01   -7,224825621e-01    0,000000000e+00    0,000000000e+00    0,000000000e+00    0,000000000e+00
      114000000   -1,577676460e-02    1,291192044e-02   -9,112595022e-02   -8,046922684e-01    0,000000000e+00    0,000000000e+00    0,000000000e+00    0,000000000e+00
      128000000    4,326582421e-03    1,197024435e-02   -5,159686208e-01   -6,187623739e-01    0,000000000e+00    0,000000000e+00    0,000000000e+00    0,000000000e+00
      142000000    1,548638660e-02   -1,700232504e-03   -7,673901320e-01   -2,341670245e-01    0,000000000e+00    0,000000000e+00    0,000000000e+00    0,000000000e+00
      156000000    1,664558984e-02   -1,303290669e-02   -7,645399570e-01    2,250118703e-01    0,000000000e+00    0,000000000e+00    0,000000000e+00    0,000000000e+00
      170000000    1,770214550e-02   -2,095211297e-02   -5,154532790e-01    6,063320041e-01    0,000000000e+00    0,000000000e+00    0,000000000e+00    0,000000000e+00
      184000000    2,203236893e-02   -3,557662666e-02   -9,791765362e-02    7,860206366e-01    0,000000000e+00    0,000000000e+00    0,000000000e+00    0,000000000e+00
      198000000    1,399608329e-02   -6,062956899e-02    3,458777368e-01    7,106174827e-01    0,000000000e+00    0,000000000e+00    0,000000000e+00    0,000000000e+00
      212000000   -1,767287776e-02   -7,911591977e-02    6,807307601e-01    4,062426686e-01    0,000000000e+00    0,000000000e+00    0,000000000e+00    0,000000000e+00
      226000000   -6,030590460e-02   -6,670276821e-02    7,957820892e-01   -3,550941125e-02    0,000000000e+00    0,000000000e+00    0,000000000e+00    0,000000000e+00
      240000000   -8,048658073e-02   -2,279552445e-02    6,415676475e-01   -4,715942442e-01    0,000000000e+00    0,000000000e+00    0,000000000e+00    0,000000000e+00
      254000000   -6,079238281e-02    1,982856542e-02    2,714111507e-01   -7,420533299e-01    0,000000000e+00    0,000000000e+00    0,000000000e+00    0,000000000e+00
      268000000   -2,097827382e-02    3,089795262e-02   -1,810776293e-01   -7,605921626e-01    0,000000000e+00    0,000000000e+00    0,000000000e+00    0,000000000e+00
      282000000    6,975894794e-03    1,375811547e-02   -5,635505915e-01   -5,327129364e-01    0,000000000e+00    0,000000000e+00    0,000000000e+00    0,000000000e+00
      296000000    1,235536486e-02   -6,238918751e-03   -7,605303526e-01   -1,343745142e-01    0,000000000e+00    0,000000000e+00    0,000000000e+00    0,000000000e+00
      310000000    1,359511632e-02   -1,456707437e-02   -7,079511285e-01    3,037720919e-01    0,000000000e+00    0,000000000e+00    0,000000000e+00    0,000000000e+00
      324000000    2,227833867e-02   -2,470775507e-02   -4,214433730e-01    6,397826076e-01    0,000000000e+00    0,000000000e+00    0,000000000e+00    0,000000000e+00
      338000000    2,868224122e-02   -5,077218637e-02   -2,950663213e-03    7,600482106e-01    0,000000000e+00    0,000000000e+00    0,000000000e+00    0,000000000e+00
      352000000    9,857394733e-03   -8,284913003e-02    4,110057950e-01    6,366817951e-01    0,000000000e+00    0,000000000e+00    0,000000000e+00    0,000000000e+00
      366000000   -3,168024495e-02   -9,371574968e-02    6,937006116e-01    3,036293089e-01    0,000000000e+00    0,000000000e+00    0,000000000e+00    0,000000000e+00
      380000000   -6,744207442e-02   -6,873408705e-02    7,461689711e-01   -1,342740208e-01    0,000000000e+00    0,000000000e+00    0,000000000e+00    0,000000000e+00
      394000000   -6,868429482e-02   -3,061780706e-02    5,396357179e-01   -5,291134715e-01    0,000000000e+00    0,000000000e+00    0,000000000e+00    0,000000000e+00
      408000000   -4,266867787e-02   -1,571928896e-02    1,507537812e-01   -7,348381877e-01    0,000000000e+00    0,000000000e+00    0,000000000e+00    0,000000000e+00
      422000000   -2,614745870e-02   -3,132707998e-02   -2,789062262e-01   -6,908289790e-01    0,000000000e+00    0,000000000e+00    0,000000000e+00    0,000000000e+00
      436000000   -3,927199543e-02   -4,891050607e-02   -6,106750965e-01   -4,194375277e-01    0,000000000e+00    0,000000000e+00    0,000000000e+00    0,000000000e+00
      450000000   -6,465284526e-02   -3,914780915e-02   -7,370617986e-01   -7,932285778e-03    0,000000000e+00    0,000000000e+00    0,000000000e+00    0,000000000e+00
      464000000   -6,789974868e-02   -6,157281809e-03   -6,086709499e-01    4,058085084e-01    0,000000000e+00    0,000000000e+00    0,000000000e+00    0,000000000e+00
      478000000   -3,873658553e-02    1,619471982e-02   -2,676897943e-01    6,702741385e-01    0,000000000e+00    0,000000000e+00    0,000000000e+00    0,000000000e+00
      492000000   -5,067929626e-03    6,163094193e-03    1,525478512e-01    6,950200796e-01    0,000000000e+00    0,000000000e+00    0,000000000e+00    0,000000000e+00
      506000000    7,032657042e-03   -1,990705170e-02    5,081871748e-01    4,888056517e-01    0,000000000e+00    0,000000000e+00    0,000000000e+00    0,000000000e+00
      520000000    7,930008578e-04   -3,827511519e-02    6,890406609e-01    1,236046851e-01    0,000000000e+00    0,000000000e+00    0,000000000e+00    0,000000000e+00
      534000000   -3,006373998e-03   -4,553082213e-02    6,328555346e-01   -2,820359468e-01    0,000000000e+00    0,000000000e+00    0,000000000e+00    0,000000000e+00
      548000000    8,711012197e-04   -5,948392302e-02    3,597916067e-01   -5,790448189e-01    0,000000000e+00    0,000000000e+00    0,000000000e+00    0,000000000e+00
      562000000   -7,397309877e-03   -8,857657015e-02   -2,610215545e-02   -6,738820672e-01    0,000000000e+00    0,000000000e+00    0,000000000e+00    0,000000000e+00
      576000000   -4,544655979e-02   -1,098818108e-01   -4,003778994e-01   -5,388244390e-01    0,000000000e+00    0,000000000e+00    0,000000000e+00    0,000000000e+00
      590000000   -9,487362951e-02   -9,363916516e-02   -6,412178874e-01   -2,165316343e-01    0,000000000e+00    0,000000000e+00    0,000000000e+00    0,000000000e+00
      604000000   -1,120595932e-01   -4,114316776e-02   -6,481002569e-01    1,986958236e-01    0,000000000e+00    0,000000000e+00    0,000000000e+00    0,000000000e+00
      618000000   -7,546718419e-02   -2,061253414e-03   -4,018398821e-01    5,357194543e-01    0,000000000e+00    0,000000000e+00    0,000000000e+00    0,000000000e+00
      632000000   -2,970188111e-02   -2,073626779e-02   -1,219698694e-02    6,558072567e-01    0,000000000e+00    0,000000000e+00    0,000000000e+00    0,000000000e+00
      646000000   -3,638988361e-02   -7,590740174e-02    3,656598032e-01    5,272982717e-01    0,000000000e+00    0,000000000e+00    0,000000000e+00    0,000000000e+00
      660000000   -1,110204160e-01   -9,992849082e-02    6,016002297e-01    1,937582791e-01    0,000000000e+00    0,000000000e+00    0,000000000e+00    0,000000000e+00
      674000000   -1,987173408e-01   -2,386133745e-02    5,658334494e-01   -2,394356877e-01    0,000000000e+00    0,000000000e+00    0,000000000e+00    0,000000000e+00
      688000000   -1,790955812e-01    1,435878575e-01    2,100755125e-01   -5,226814151e-01    0,000000000e+00    0,000000000e+00    0,000000000e+00    0,000000000e+00
      702000000    2,592938766e-02    2,451699227e-01   -1,969515532e-01   -4,006353319e-01    0,000000000e+00    0,000000000e+00    0,000000000e+00    0,000000000e+00
      716000000    2,632930279e-01    1,115482897e-01   -2,743884623e-01   -8,419609070e-02    0,000000000e+00    0,000000000e+00    0,000000000e+00    0,000000000e+00
      730000000    3,041161895e-01   -1,858088076e-01   -1,087019742e-01    3,294208646e-02    0,000000000e+00    0,000000000e+00    0,000000000e+00    0,000000000e+00
      744000000    9,490297735e-02   -4,273573160e-01   -4,204148427e-02   -6,385743618e-02    0,000000000e+00    0,000000000e+00    0,000000000e+00    0,000000000e+00
      758000000   -2,591926455e-01   -4,310578406e-01   -1,739899218e-01   -1,251621097e-01    0,000000000e+00    0,000000000e+00    0,000000000e+00    0,000000000e+00
      772000000   -4,858021140e-01   -1,192803532e-01   -3,356754780e-01    3,740489110e-02    0,000000000e+00    0,000000000e+00    0,000000000e+00    0,000000000e+00
      786000000   -3,425824344e-01    2,227072716e-01   -2,628871202e-01    3,160670400e-01    0,000000000e+00    0,000000000e+00    0,000000000e+00    0,000000000e+00
      800000000   -4,140143469e-02    2,776851952e-01    2,119629877e-03    4,368183911e-01    0,000000000e+00    0,000000000e+00    0,000000000e+00    0,000000000e+00
      814000000    1,442625225e-01    1,252195537e-01    2,633587718e-01    3,594792783e-01    0,000000000e+00    0,000000000e+00    0,000000000e+00    0,000000000e+00
      828000000    1,685045063e-01   -7,047805935e-02    4,327779114e-01    1,572086811e-01    0,000000000e+00    0,000000000e+00    0,000000000e+00    0,000000000e+00
      842000000    6,722173095e-02   -2,182819992e-01    4,662519097e-01   -1,203922778e-01    0,000000000e+00    0,000000000e+00    0,000000000e+00    0,000000000e+00
      856000000   -1,070129350e-01   -2,645318806e-01    3,191985786e-01   -3,952312469e-01    0,000000000e+00    0,000000000e+00    0,000000000e+00    0,000000000e+00
      870000000   -2,745834887e-01   -1,691033989e-01   -3,140500979e-03   -5,275461674e-01    0,000000000e+00    0,000000000e+00    0,000000000e+00    0,000000000e+00
      884000000   -3,201023638e-01    3,511730209e-02   -3,481590152e-01   -3,916672170e-01    0,000000000e+00    0,000000000e+00    0,000000000e+00    0,000000000e+00
      898000000   -1,919241846e-01    2,060479075e-01   -4,886665642e-01   -6,255588681e-02    0,000000000e+00    0,000000000e+00    0,000000000e+00    0,000000000e+00
      912000000    6,592438091e-03    2,191008180e-01   -4,110281765e-01    2,734126747e-01    0,000000000e+00    0,000000000e+00    0,000000000e+00    0,000000000e+00
      926000000    1,494561285e-01    1,117233336e-01   -1,708619297e-01    4,161602557e-01    0,000000000e+00    0,000000000e+00    0,000000000e+00    0,000000000e+00
      940000000    1,987872571e-01   -4,488004744e-02    6,354667991e-02    4,261119962e-01    0,000000000e+00    0,000000000e+00    0,000000000e+00    0,000000000e+00
      954000000    1,525051743e-01   -2,010587156e-01    2,616493106e-01    3,416531384e-01    0,000000000e+00    0,000000000e+00    0,000000000e+00    0,000000000e+00
      968000000    2,216549963e-02   -3,136293888e-01    4,114456177e-01    1,788660735e-01    0,000000000e+00    0,000000000e+00    0,000000000e+00    0,000000000e+00
      982000000   -1,652598381e-01   -3,316566050e-01    4,726275206e-01   -6,768392026e-02    0,000000000e+00    0,000000000e+00    0,000000000e+00    0,000000000e+00
      996000000   -3,252546787e-01   -2,063670158e-01    3,679428101e-01   -3,558005393e-01    0,000000000e+00    0,000000000e+00    0,000000000e+00    0,000000000e+00
     1010000000   -3,398248255e-01   -9,977470152e-03    4,210824519e-02   -5,239965320e-01    0,000000000e+00    0,000000000e+00    0,000000000e+00    0,000000000e+00
     1024000000   -2,090389878e-01    9,242849052e-02   -3,453605771e-01   -3,823158145e-01    0,000000000e+00    0,000000000e+00    0,000000000e+00    0,000000000e+00
     1038000000   -1,330685616e-01    1,242305711e-02   -4,827360809e-01    6,210998073e-02    0,000000000e+00    0,000000000e+00    0,000000000e+00    0,000000000e+00
     1052000000   -2,870372236e-01    4,994555190e-02   -9,548400342e-02    3,718974590e-01    0,000000000e+00    0,000000000e+00    0,000000000e+00    0,000000000e+00
     1066000000   -1,474462301e-01    2,913319170e-01    1,460939646e-01    1,337968111e-01    0,000000000e+00    0,000000000e+00    0,000000000e+00    0,000000000e+00
     1080000000    9,590931237e-02    2,508319020e-01    9,051990509e-02    2,133879438e-02    0,000000000e+00    0,000000000e+00    0,000000000e+00    0,000000000e+00
     1094000000    2,233453542e-01    9,092434496e-02    6,941380352e-02    8,897880092e-03    0,000000000e+00    0,000000000e+00    0,000000000e+00    0,000000000e+00
     1108000000    2,415525913e-01   -8,927215636e-02    8,123263717e-02    3,818684490e-04    0,000000000e+00    0,000000000e+00    0,000000000e+00    0,000000000e+00
     1122000000    1,802785397e-01   -2,517535090e-01    1,029225141e-01   -2,588088252e-02    0,000000000e+00    0,000000000e+00    0,000000000e+00    0,000000000e+00
     1136000000    5,267283320e-02   -3,749893904e-01    1,273197532e-01   -7,122284919e-02    0,000000000e+00    0,000000000e+00    0,000000000e+00    0,000000000e+00
     1150000000   -1,557884812e-01   -4,216727316e-01    1,373863369e-01   -1,494595408e-01    0,000000000e+00    0,000000000e+00    0,000000000e+00    0,000000000e+00
     1164000000   -3,741548657e-01   -3,241340816e-01    9,840600193e-02   -2,748543024e-01    0,000000000e+00    0,000000000e+00    0,000000000e+00    0,000000000e+00
     1178000000   -4,679868221e-01   -9,009063244e-02   -1,037682667e-01   -4,071700871e-01    0,000000000e+00    0,000000000e+00    0,000000000e+00    0,000000000e+00
     1192000000   -3,728871644e-01    3,443716839e-02   -4,628096521e-01   -1,975359917e-01    0,000000000e+00    0,000000000e+00    0,000000000e+00    0,000000000e+00
     1206000000   -4,117386639e-01    1,372648627e-01   -2,736339271e-01    2,356724590e-01    0,000000000e+00    0,000000000e+00    0,000000000e+00    0,000000000e+00
     1220000000   -2,773608565e-01    3,322202563e-01   -4,758559633e-03    1,657432914e-01    0,000000000e+00    0,000000000e+00    0,000000000e+00    0,000000000e+00
     1234000000   -4,882468283e-02    3,502695262e-01    2,164823189e-02    5,530260503e-02    0,000000000e+00    0,000000000e+00    0,000000000e+00    0,000000000e+00
     1248000000    1,276993155e-01    2,504127920e-01    1,706530806e-03    2,515750565e-02    0,000000000e+00    0,000000000e+00    0,000000000e+00    0,000000000e+00
     1262000000    2,132647932e-01    1,056289002e-01    6,794772111e-03    3,016778640e-02    0,000000000e+00    0,000000000e+00    0,000000000e+00    0,000000000e+00
     1276000000    2,346371710e-01   -5,945819244e-02    2,568291500e-02    3,292481601e-02    0,000000000e+00    0,000000000e+00    0,000000000e+00    0,000000000e+00
     1290000000    1,919987053e-01   -2,120213062e-01    5,805718154e-02    2,649594843e-02    0,000000000e+00    0,000000000e+00    0,000000000e+00    0,000000000e+00
     1304000000    8,029968292e-02   -3,554181457e-01    7,157886028e-02    6,710418034e-03    0,000000000e+00    0,000000000e+00    0,000000000e+00    0,000000000e+00
     1318000000   -1,010875255e-01   -4,458842278e-01    8,807922900e-02   -1,293351781e-02    0,000000000e+00    0,000000000e+00    0,000000000e+00    0,000000000e+00
     1332000000   -3,543220460e-01   -4,328354299e-01    8,358065039e-02   -1,974659786e-02    0,000000000e+00    0,000000000e+00    0,000000000e+00    0,000000000e+00
     1346000000   -5,925463438e-01   -2,470338047e-01    1,051161885e-01   -7,582322694e-03    0,000000000e+00    0,000000000e+00    0,000000000e+00    0,000000000e+00
     1360000000   -6,495758295e-01    7,315252721e-02    1,409607381e-01   -1,864748448e-02    0,000000000e+00    0,000000000e+00    0,000000000e+00    0,000000000e+00
     1374000000   -4,955357909e-01    3,345993757e-01    1,622778475e-01   -4,481796175e-02    0,000000000e+00    0,000000000e+00    0,000000000e+00    0,000000000e+00
     1388000000   -2,480958849e-01    4,283029437e-01    1,705173552e-01   -8,794595301e-02    0,000000000e+00    0,000000000e+00    0,000000000e+00    0,000000000e+00
     1402000000   -4,508832097e-02    3,909695148e-01    1,351906210e-01   -9,269668162e-02    0,000000000e+00    0,000000000e+00    0,000000000e+00    0,000000000e+00
     1416000000    1,071465313e-01    2,900326252e-01    1,246550456e-01   -8,822881430e-02    0,000000000e+00    0,000000000e+00    0,000000000e+00    0,000000000e+00
     1430000000    1,897618920e-01    1,562055200e-01    1,092857569e-01   -4,338483885e-02    0,000000000e+00    0,000000000e+00    0,000000000e+00    0,000000000e+00
     1444000000    2,114115357e-01   -6,787946913e-03    1,127427444e-01   -2,153852023e-02    0,000000000e+00    0,000000000e+00    0,000000000e+00    0,000000000e+00
     1458000000    1,797931194e-01   -1,821452826e-01    1,540014595e-01    2,283299901e-02    0,000000000e+00    0,000000000e+00    0,000000000e+00    0,000000000e+00
     1472000000    6,976246089e-02   -3,465759754e-01    1,921765655e-01    7,663816214e-02    0,000000000e+00    0,000000000e+00    0,000000000e+00    0,000000000e+00
     1486000000   -1,473873854e-01   -4,739262164e-01    2,854103446e-01    9,487355500e-02    0,000000000e+00    0,000000000e+00    0,000000000e+00    0,000000000e+00
     1500000000   -4,381118715e-01   -4,693049192e-01    4,154898226e-01    6,021196395e-02    0,000000000e+00    0,000000000e+00    0,000000000e+00    0,000000000e+00
