! NanoVNA-App
! Date: 2025-09-25 16:02:16
! Start: 100MHz Stop: 1,5GHz Points: 101
! S-Parameter data: F S11 S21 S12 S22
# Hz S RI R 50
!     Frequency           S11_Real           S11_Imag           S21_Real           S21_Imag           S12_Real           S12_Imag           S22_Real           S22_Imag
      100000000   -2,827734873e-02   -2,877619816e-03    3,722833991e-01   -7,224331498e-01    0,000000000e+00    0,000000000e+00    0,000000000e+00    0,000000000e+00
      114000000   -1,573814079e-02    1,293070521e-02   -9,141018987e-02   -8,047451377e-01    0,000000000e+00    0,000000000e+00    0,000000000e+00    0,000000000e+00
      128000000    4,346743692e-03    1,193207223e-02   -5,159708858e-01   -6,190658808e-01    0,000000000e+00    0,000000000e+00    0,000000000e+00    0,000000000e+00
      142000000    1,547649968e-02   -1,721247914e-03   -7,675219774e-01   -2,342353314e-01    0,000000000e+00    0,000000000e+00    0,000000000e+00    0,000000000e+00
      156000000    1,518993359e-02   -1,347800344e-02   -7,682794333e-01    2,213749737e-01    0,000000000e+00    0,000000000e+00    0,000000000e+00    0,000000000e+00
      170000000    1,766868867e-02   -2,096578293e-02   -5,153551698e-01    6,059712768e-01    0,000000000e+00    0,000000000e+00    0,000000000e+00    0,000000000e+00
      184000000    2,203531377e-02   -3,553522751e-02   -9,823083133e-02    7,859060168e-01    0,000000000e+00    0,000000000e+00    0,000000000e+00    0,000000000e+00
      198000000    1,402758993e-02   -6,066562980e-02    3,459122181e-01    7,108272314e-01    0,000000000e+00    0,000000000e+00    0,000000000e+00    0,000000000e+00
      212000000   -1,767461933e-02   -7,912026346e-02    6,808176041e-01    4,061249793e-01    0,000000000e+00    0,000000000e+00    0,000000000e+00    0,000000000e+00
      226000000   -6,031317264e-02   -6,662260741e-02    7,958689332e-01   -3,552584723e-02    0,000000000e+00    0,000000000e+00    0,000000000e+00    0,000000000e+00
      240000000   -8,057536930e-02   -2,276708744e-02    6,418498755e-01   -4,717848599e-01    0,000000000e+00    0,000000000e+00    0,000000000e+00    0,000000000e+00
      254000000   -6,085112318e-02    1,975620538e-02    2,711908221e-01   -7,422661185e-01    0,000000000e+00    0,000000000e+00    0,000000000e+00    0,000000000e+00
      268000000   -2,094319277e-02    3,087492287e-02   -1,811418235e-01   -7,609671950e-01    0,000000000e+00    0,000000000e+00    0,000000000e+00    0,000000000e+00
      282000000    6,984178908e-03    1,368885022e-02   -5,629740357e-01   -5,325835943e-01    0,000000000e+00    0,000000000e+00    0,000000000e+00    0,000000000e+00
      296000000    1,246833242e-02   -6,300680339e-03   -7,605015635e-01   -1,343202740e-01    0,000000000e+00    0,000000000e+00    0,000000000e+00    0,000000000e+00
      310000000    1,354240440e-02   -1,471377909e-02   -7,075607181e-01    3,033575714e-01    0,000000000e+00    0,000000000e+00    0,000000000e+00    0,000000000e+00
      324000000    2,243757620e-02   -2,462866530e-02   -4,206012189e-01    6,399741173e-01    0,000000000e+00    0,000000000e+00    0,000000000e+00    0,000000000e+00
      338000000    2,859606408e-02   -5,084626377e-02   -3,024705453e-03    7,600619197e-01    0,000000000e+00    0,000000000e+00    0,000000000e+00    0,000000000e+00
      352000000    9,987251833e-03   -8,328045160e-02    4,118568003e-01    6,354340911e-01    0,000000000e+00    0,000000000e+00    0,000000000e+00    0,000000000e+00
      366000000   -3,175265342e-02   -9,370166808e-02    6,931877136e-01    3,042470515e-01    0,000000000e+00    0,000000000e+00    0,000000000e+00    0,000000000e+00
      380000000   -6,751502305e-02   -6,871476769e-02    7,456973791e-01   -1,336906254e-01    0,000000000e+00    0,000000000e+00    0,000000000e+00    0,000000000e+00
      394000000   -6,827965379e-02   -3,053078987e-02    5,389555693e-01   -5,295238495e-01    0,000000000e+00    0,000000000e+00    0,000000000e+00    0,000000000e+00
      408000000   -4,258341342e-02   -1,544688828e-02    1,504629552e-01   -7,331360579e-01    0,000000000e+00    0,000000000e+00    0,000000000e+00    0,000000000e+00
      422000000   -2,597971819e-02   -3,132084012e-02   -2,787427008e-01   -6,903005838e-01    0,000000000e+00    0,000000000e+00    0,000000000e+00    0,000000000e+00
      436000000   -3,913749009e-02   -4,905262962e-02   -6,101427078e-01   -4,198509753e-01    0,000000000e+00    0,000000000e+00    0,000000000e+00    0,000000000e+00
      450000000   -6,493198127e-02   -3,915407509e-02   -7,374663353e-01   -7,663109340e-03    0,000000000e+00    0,000000000e+00    0,000000000e+00    0,000000000e+00
      464000000   -6,788678467e-02   -6,374239922e-03   -6,084471345e-01    4,062297642e-01    0,000000000e+00    0,000000000e+00    0,000000000e+00    0,000000000e+00
      478000000   -3,875133768e-02    1,583069377e-02   -2,674043179e-01    6,695344448e-01    0,000000000e+00    0,000000000e+00    0,000000000e+00    0,000000000e+00
      492000000   -5,110647064e-03    6,550888997e-03    1,524241269e-01    6,959633827e-01    0,000000000e+00    0,000000000e+00    0,000000000e+00    0,000000000e+00
      506000000    6,967726629e-03   -2,029421180e-02    5,086966157e-01    4,878496528e-01    0,000000000e+00    0,000000000e+00    0,000000000e+00    0,000000000e+00
      520000000    8,172220550e-04   -3,878290951e-02    6,896637678e-01    1,224941462e-01    0,000000000e+00    0,000000000e+00    0,000000000e+00    0,000000000e+00
      534000000   -2,954518422e-03   -4,562484100e-02    6,328095198e-01   -2,819433808e-01    0,000000000e+00    0,000000000e+00    0,000000000e+00    0,000000000e+00
      548000000    8,716958109e-04   -5,982314795e-02    3,596761227e-01   -5,787767768e-01    0,000000000e+00    0,000000000e+00    0,000000000e+00    0,000000000e+00
      562000000   -7,685423829e-03   -8,826019615e-02   -2,627688274e-02   -6,720774770e-01    0,000000000e+00    0,000000000e+00    0,000000000e+00    0,000000000e+00
      576000000   -4,548513517e-02   -1,099167243e-01   -4,014524221e-01   -5,383677483e-01    0,000000000e+00    0,000000000e+00    0,000000000e+00    0,000000000e+00
      590000000   -9,484285861e-02   -9,357304871e-02   -6,415338516e-01   -2,194523811e-01    0,000000000e+00    0,000000000e+00    0,000000000e+00    0,000000000e+00
      604000000   -1,115840524e-01   -4,086736217e-02   -6,476708055e-01    1,987903118e-01    0,000000000e+00    0,000000000e+00    0,000000000e+00    0,000000000e+00
      618000000   -7,587398589e-02   -1,780884224e-03   -4,026671946e-01    5,366444588e-01    0,000000000e+00    0,000000000e+00    0,000000000e+00    0,000000000e+00
      632000000   -3,041740321e-02   -2,074865438e-02   -1,202489715e-02    6,562032104e-01    0,000000000e+00    0,000000000e+00    0,000000000e+00    0,000000000e+00
      646000000   -3,575857356e-02   -7,684023678e-02    3,663702011e-01    5,282875896e-01    0,000000000e+00    0,000000000e+00    0,000000000e+00    0,000000000e+00
      660000000   -1,107742563e-01   -9,924982488e-02    6,010954976e-01    1,933003664e-01    0,000000000e+00    0,000000000e+00    0,000000000e+00    0,000000000e+00
      674000000   -1,996959150e-01   -2,449403889e-02    5,656470656e-01   -2,400930077e-01    0,000000000e+00    0,000000000e+00    0,000000000e+00    0,000000000e+00
      688000000   -1,781878769e-01    1,450533867e-01    2,105785757e-01   -5,218343139e-01    0,000000000e+00    0,000000000e+00    0,000000000e+00    0,000000000e+00
      702000000    2,423567325e-02    2,469795644e-01   -2,004924268e-01   -4,103012085e-01    0,000000000e+00    0,000000000e+00    0,000000000e+00    0,000000000e+00
      716000000    2,636329830e-01    1,105781049e-01   -2,738118470e-01   -8,415146172e-02    0,000000000e+00    0,000000000e+00    0,000000000e+00    0,000000000e+00
      730000000    3,040057421e-01   -1,860177815e-01   -1,077818573e-01    3,273796290e-02    0,000000000e+00    0,000000000e+00    0,000000000e+00    0,000000000e+00
      744000000    9,504279494e-02   -4,273689091e-01   -4,267325625e-02   -6,419122219e-02    0,000000000e+00    0,000000000e+00    0,000000000e+00    0,000000000e+00
      758000000   -2,581726313e-01   -4,299599528e-01   -1,752588600e-01   -1,253152639e-01    0,000000000e+00    0,000000000e+00    0,000000000e+00    0,000000000e+00
      772000000   -4,864438176e-01   -1,205382198e-01   -3,361147940e-01    3,770381585e-02    0,000000000e+00    0,000000000e+00    0,000000000e+00    0,000000000e+00
      786000000   -3,427282274e-01    2,207025886e-01   -2,627706826e-01    3,171883523e-01    0,000000000e+00    0,000000000e+00    0,000000000e+00    0,000000000e+00
      800000000   -4,069783911e-02    2,775471509e-01    1,665759133e-03    4,363904297e-01    0,000000000e+00    0,000000000e+00    0,000000000e+00    0,000000000e+00
      814000000    1,446855664e-01    1,249287650e-01    2,639462054e-01    3,589177132e-01    0,000000000e+00    0,000000000e+00    0,000000000e+00    0,000000000e+00
      828000000    1,678458303e-01   -7,017859817e-02    4,324856102e-01    1,568725556e-01    0,000000000e+00    0,000000000e+00    0,000000000e+00    0,000000000e+00
      842000000    6,682926416e-02   -2,188182473e-01    4,668659568e-01   -1,199435592e-01    0,000000000e+00    0,000000000e+00    0,000000000e+00    0,000000000e+00
      856000000   -1,065280959e-01   -2,636443973e-01    3,198637068e-01   -3,940109015e-01    0,000000000e+00    0,000000000e+00    0,000000000e+00    0,000000000e+00
      870000000   -2,746042907e-01   -1,678675264e-01   -2,309936797e-03   -5,257108808e-01    0,000000000e+00    0,000000000e+00    0,000000000e+00    0,000000000e+00
      884000000   -3,209019601e-01    3,603595495e-02   -3,481366634e-01   -3,921799958e-01    0,000000000e+00    0,000000000e+00    0,000000000e+00    0,000000000e+00
      898000000   -1,915049553e-01    2,063236833e-01   -4,888006747e-01   -6,303827465e-02    0,000000000e+00    0,000000000e+00    0,000000000e+00    0,000000000e+00
      912000000    6,756161340e-03    2,195806950e-01   -4,117692113e-01    2,735277116e-01    0,000000000e+00    0,000000000e+00    0,000000000e+00    0,000000000e+00
      926000000    1,513483822e-01    1,135208979e-01   -1,684378982e-01    4,179855287e-01    0,000000000e+00    0,000000000e+00    0,000000000e+00    0,000000000e+00
      940000000    1,991929561e-01   -4,879617319e-02    6,277749687e-02    4,240172803e-01    0,000000000e+00    0,000000000e+00    0,000000000e+00    0,000000000e+00
      954000000    1,532408297e-01   -2,002225667e-01    2,614025176e-01    3,426873088e-01    0,000000000e+00    0,000000000e+00    0,000000000e+00    0,000000000e+00
      968000000    2,674337290e-02   -3,154246211e-01    4,107256234e-01    1,784915775e-01    0,000000000e+00    0,000000000e+00    0,000000000e+00    0,000000000e+00
      982000000   -1,636315286e-01   -3,321930170e-01    4,758821428e-01   -6,723269075e-02    0,000000000e+00    0,000000000e+00    0,000000000e+00    0,000000000e+00
      996000000   -3,279334605e-01   -2,117985934e-01    3,673573136e-01   -3,564209938e-01    0,000000000e+00    0,000000000e+00    0,000000000e+00    0,000000000e+00
     1010000000   -3,423585296e-01   -4,923322238e-03    4,213368520e-02   -5,250347853e-01    0,000000000e+00    0,000000000e+00    0,000000000e+00    0,000000000e+00
     1024000000   -2,090048343e-01    9,520494938e-02   -3,476498127e-01   -3,809721470e-01    0,000000000e+00    0,000000000e+00    0,000000000e+00    0,000000000e+00
     1038000000   -1,375800818e-01    6,762719713e-03   -4,796574414e-01    6,473130733e-02    0,000000000e+00    0,000000000e+00    0,000000000e+00    0,000000000e+00
     1052000000   -2,897177935e-01    5,123376474e-02   -9,253374487e-02    3,722776473e-01    0,000000000e+00    0,000000000e+00    0,000000000e+00    0,000000000e+00
     1066000000   -1,450277865e-01    2,943107188e-01    1,411111504e-01    1,297634095e-01    0,000000000e+00    0,000000000e+00    0,000000000e+00    0,000000000e+00
     1080000000    9,727727622e-02    2,505313754e-01    8,840446919e-02    2,251119167e-02    0,000000000e+00    0,000000000e+00    0,000000000e+00    0,000000000e+00
     1094000000    2,176526338e-01    8,754660934e-02    7,096172124e-02    8,694139309e-03    0,000000000e+00    0,000000000e+00    0,000000000e+00    0,000000000e+00
     1108000000    2,451908439e-01   -9,043221176e-02    7,887718827e-02    1,057538786e-03    0,000000000e+00    0,000000000e+00    0,000000000e+00    0,000000000e+00
     1122000000    1,872863621e-01   -2,504282296e-01    1,034463570e-01   -2,534546517e-02    0,000000000e+00    0,000000000e+00    0,000000000e+00    0,000000000e+00
     1136000000    5,091719329e-02   -3,772799969e-01    1,282452494e-01   -7,495103031e-02    0,000000000e+00    0,000000000e+00    0,000000000e+00    0,000000000e+00
     1150000000   -1,562595069e-01   -4,270215631e-01    1,392636299e-01   -1,471617520e-01    0,000000000e+00    0,000000000e+00    0,000000000e+00    0,000000000e+00
     1164000000   -3,752985895e-01   -3,274308443e-01    9,800232947e-02   -2,797067165e-01    0,000000000e+00    0,000000000e+00    0,000000000e+00    0,000000000e+00
     1178000000   -4,625946879e-01   -8,697471023e-02   -1,062528268e-01   -4,075043499e-01    0,000000000e+00    0,000000000e+00    0,000000000e+00    0,000000000e+00
     1192000000   -3,696577549e-01    3,739623725e-02   -4,606342614e-01   -1,996074468e-01    0,000000000e+00    0,000000000e+00    0,000000000e+00    0,000000000e+00
     1206000000   -4,139643013e-01    1,367477626e-01   -2,746023238e-01    2,398760766e-01    0,000000000e+00    0,000000000e+00    0,000000000e+00    0,000000000e+00
     1220000000   -2,753078938e-01    3,353948891e-01   -1,715555205e-03    1,665111333e-01    0,000000000e+00    0,000000000e+00    0,000000000e+00    0,000000000e+00
     1234000000   -4,841337353e-02    3,511959910e-01    2,144624107e-02    5,373396724e-02    0,000000000e+00    0,000000000e+00    0,000000000e+00    0,000000000e+00
     1248000000    1,213798746e-01    2,432492673e-01    2,991608111e-03    2,216649242e-02    0,000000000e+00    0,000000000e+00    0,000000000e+00    0,000000000e+00
     1262000000    2,147803307e-01    1,015875638e-01    4,548999481e-03    2,861404791e-02    0,000000000e+00    0,000000000e+00    0,000000000e+00    0,000000000e+00
     1276000000    2,321528196e-01   -5,960176140e-02    2,563270181e-02    3,311925009e-02    0,000000000e+00    0,000000000e+00    0,000000000e+00    0,000000000e+00
     1290000000    1,962064058e-01   -2,168590128e-01    5,902304873e-02    2,484829351e-02    0,000000000e+00    0,000000000e+00    0,000000000e+00    0,000000000e+00
     1304000000    7,989237458e-02   -3,579844534e-01    7,010938227e-02    4,686089233e-03    0,000000000e+00    0,000000000e+00    0,000000000e+00    0,000000000e+00
     1318000000   -1,015720814e-01   -4,439140856e-01    8,309086412e-02   -9,337374009e-03    0,000000000e+00    0,000000000e+00    0,000000000e+00    0,000000000e+00
     1332000000   -3,532010615e-01   -4,379765093e-01    9,578200430e-02   -2,016616613e-02    0,000000000e+00    0,000000000e+00    0,000000000e+00    0,000000000e+00
     1346000000   -5,889486670e-01   -2,471547127e-01    1,009094492e-01   -4,300115630e-03    0,000000000e+00    0,000000000e+00    0,000000000e+00    0,000000000e+00
     1360000000   -6,513030529e-01    7,165633142e-02    1,475587636e-01   -1,581464149e-02    0,000000000e+00    0,000000000e+00    0,000000000e+00    0,000000000e+00
     1374000000   -4,859658182e-01    3,366875052e-01    1,726764739e-01   -4,702618346e-02    0,000000000e+00    0,000000000e+00    0,000000000e+00    0,000000000e+00
     1388000000   -2,553335726e-01    4,234117270e-01    1,595840305e-01   -9,376659989e-02    0,000000000e+00    0,000000000e+00    0,000000000e+00    0,000000000e+00
     1402000000   -5,015711859e-02    3,939746916e-01    1,337196529e-01   -9,571737796e-02    0,000000000e+00    0,000000000e+00    0,000000000e+00    0,000000000e+00
     1416000000    1,006101817e-01    2,863341272e-01    1,164880395e-01   -8,712575585e-02    0,000000000e+00    0,000000000e+00    0,000000000e+00    0,000000000e+00
     1430000000    1,881073415e-01    1,561175436e-01    1,126732305e-01   -4,940710962e-02    0,000000000e+00    0,000000000e+00    0,000000000e+00    0,000000000e+00
     1444000000    2,136261463e-01   -1,445520297e-02    1,232413128e-01   -3,682730719e-02    0,000000000e+00    0,000000000e+00    0,000000000e+00    0,000000000e+00
     1458000000    1,803243309e-01   -1,811065823e-01    1,549642235e-01    2,073959261e-02    0,000000000e+00    0,000000000e+00    0,000000000e+00    0,000000000e+00
     1472000000    6,779985130e-02   -3,463114202e-01    2,011530846e-01    7,457307726e-02    0,000000000e+00    0,000000000e+00    0,000000000e+00    0,000000000e+00
     1486000000   -1,436889321e-01   -4,781475067e-01    2,904916406e-01    8,314822614e-02    0,000000000e+00    0,000000000e+00    0,000000000e+00    0,000000000e+00
     1500000000   -4,442549050e-01   -4,684445560e-01    4,052486718e-01    7,287467271e-02    0,000000000e+00    0,000000000e+00    0,000000000e+00    0,000000000e+00
