! NanoVNA-App
! Date: 2025-09-25 16:00:17
! Start: 100MHz Stop: 1,5GHz Points: 101
! S-Parameter data: F S11 S21 S12 S22
# Hz S RI R 50
!     Frequency           S11_Real           S11_Imag           S21_Real           S21_Imag           S12_Real           S12_Imag           S22_Real           S22_Imag
      100000000   -2,826590464e-02   -2,862734022e-03    3,722676039e-01   -7,224064469e-01    0,000000000e+00    0,000000000e+00    0,000000000e+00    0,000000000e+00
      114000000   -1,570186391e-02    1,287386380e-02   -9,136456996e-02   -8,047248721e-01    0,000000000e+00    0,000000000e+00    0,000000000e+00    0,000000000e+00
      128000000    4,371813964e-03    1,195790246e-02   -5,159876347e-01   -6,188122034e-01    0,000000000e+00    0,000000000e+00    0,000000000e+00    0,000000000e+00
      142000000    1,546904817e-02   -1,772293705e-03   -7,675794363e-01   -2,341724634e-01    0,000000000e+00    0,000000000e+00    0,000000000e+00    0,000000000e+00
      156000000    1,575617678e-02   -1,273760013e-02   -7,632342577e-01    2,218584120e-01    0,000000000e+00    0,000000000e+00    0,000000000e+00    0,000000000e+00
      170000000    1,768487878e-02   -2,096969448e-02   -5,154477358e-01    6,061509252e-01    0,000000000e+00    0,000000000e+00    0,000000000e+00    0,000000000e+00
      184000000    2,207000181e-02   -3,553610668e-02   -9,812368453e-02    7,858039737e-01    0,000000000e+00    0,000000000e+00    0,000000000e+00    0,000000000e+00
      198000000    1,404877286e-02   -6,066060066e-02    3,460167944e-01    7,105861902e-01    0,000000000e+00    0,000000000e+00    0,000000000e+00    0,000000000e+00
      212000000   -1,765069738e-02   -7,912153006e-02    6,807263494e-01    4,063399434e-01    0,000000000e+00    0,000000000e+00    0,000000000e+00    0,000000000e+00
      226000000   -6,031618640e-02   -6,661634147e-02    7,957096100e-01   -3,573947027e-02    0,000000000e+00    0,000000000e+00    0,000000000e+00    0,000000000e+00
      240000000   -8,052127063e-02   -2,270554751e-02    6,415308118e-01   -4,719468653e-01    0,000000000e+00    0,000000000e+00    0,000000000e+00    0,000000000e+00
      254000000   -6,085445732e-02    1,978093386e-02    2,711267769e-01   -7,421458364e-01    0,000000000e+00    0,000000000e+00    0,000000000e+00    0,000000000e+00
      268000000   -2,095459029e-02    3,081987239e-02   -1,812667847e-01   -7,613022327e-01    0,000000000e+00    0,000000000e+00    0,000000000e+00    0,000000000e+00
      282000000    6,916772574e-03    1,376294345e-02   -5,629477501e-01   -5,325146317e-01    0,000000000e+00    0,000000000e+00    0,000000000e+00    0,000000000e+00
      296000000    1,244975161e-02   -6,230783649e-03   -7,603995204e-01   -1,342971474e-01    0,000000000e+00    0,000000000e+00    0,000000000e+00    0,000000000e+00
      310000000    1,343465503e-02   -1,452482492e-02   -7,080504298e-01    3,045737147e-01    0,000000000e+00    0,000000000e+00    0,000000000e+00    0,000000000e+00
      324000000    2,232446522e-02   -2,467968687e-02   -4,213370681e-01    6,393636465e-01    0,000000000e+00    0,000000000e+00    0,000000000e+00    0,000000000e+00
      338000000    2,824182063e-02   -5,069426075e-02   -4,363923799e-03    7,587383986e-01    0,000000000e+00    0,000000000e+00    0,000000000e+00    0,000000000e+00
      352000000    1,011517178e-02   -8,289916813e-02    4,119341373e-01    6,353369951e-01    0,000000000e+00    0,000000000e+00    0,000000000e+00    0,000000000e+00
      366000000   -3,175820783e-02   -9,418822825e-02    6,930518150e-01    3,037957251e-01    0,000000000e+00    0,000000000e+00    0,000000000e+00    0,000000000e+00
      380000000   -6,759880483e-02   -6,893061846e-02    7,461124659e-01   -1,347232759e-01    0,000000000e+00    0,000000000e+00    0,000000000e+00    0,000000000e+00
      394000000   -6,850156188e-02   -3,048646636e-02    5,398081541e-01   -5,276253819e-01    0,000000000e+00    0,000000000e+00    0,000000000e+00    0,000000000e+00
      408000000   -4,269003496e-02   -1,541818958e-02    1,490540951e-01   -7,334444523e-01    0,000000000e+00    0,000000000e+00    0,000000000e+00    0,000000000e+00
      422000000   -2,616444603e-02   -3,087477572e-02   -2,788418829e-01   -6,895427704e-01    0,000000000e+00    0,000000000e+00    0,000000000e+00    0,000000000e+00
      436000000   -3,921660408e-02   -4,908084869e-02   -6,102473736e-01   -4,199643731e-01    0,000000000e+00    0,000000000e+00    0,000000000e+00    0,000000000e+00
      450000000   -6,451634318e-02   -3,901128843e-02   -7,370854020e-01   -7,587316446e-03    0,000000000e+00    0,000000000e+00    0,000000000e+00    0,000000000e+00
      464000000   -6,750532985e-02   -6,129231770e-03   -6,079105139e-01    4,066713154e-01    0,000000000e+00    0,000000000e+00    0,000000000e+00    0,000000000e+00
      478000000   -3,830315173e-02    1,620070450e-02   -2,676806152e-01    6,699767709e-01    0,000000000e+00    0,000000000e+00    0,000000000e+00    0,000000000e+00
      492000000   -5,115058273e-03    6,156141870e-03    1,520100683e-01    6,948900223e-01    0,000000000e+00    0,000000000e+00    0,000000000e+00    0,000000000e+00
      506000000    6,834391970e-03   -2,009462751e-02    5,080416799e-01    4,890983105e-01    0,000000000e+00    0,000000000e+00    0,000000000e+00    0,000000000e+00
      520000000    7,486306713e-04   -3,839158639e-02    6,881484985e-01    1,223967075e-01    0,000000000e+00    0,000000000e+00    0,000000000e+00    0,000000000e+00
      534000000   -2,850000979e-03   -4,557227716e-02    6,327494979e-01   -2,823285162e-01    0,000000000e+00    0,000000000e+00    0,000000000e+00    0,000000000e+00
      548000000    1,338366885e-03   -5,944604427e-02    3,604968190e-01   -5,791687369e-01    0,000000000e+00    0,000000000e+00    0,000000000e+00    0,000000000e+00
      562000000   -7,318773773e-03   -8,841134608e-02   -2,719517425e-02   -6,727067828e-01    0,000000000e+00    0,000000000e+00    0,000000000e+00    0,000000000e+00
      576000000   -4,564335942e-02   -1,099431440e-01   -4,016295671e-01   -5,385565162e-01    0,000000000e+00    0,000000000e+00    0,000000000e+00    0,000000000e+00
      590000000   -9,466522187e-02   -9,348072857e-02   -6,402417421e-01   -2,166624665e-01    0,000000000e+00    0,000000000e+00    0,000000000e+00    0,000000000e+00
      604000000   -1,113577262e-01   -4,134789109e-02   -6,470445395e-01    1,986804605e-01    0,000000000e+00    0,000000000e+00    0,000000000e+00    0,000000000e+00
      618000000   -7,614783943e-02   -2,609167015e-03   -4,024310112e-01    5,352565646e-01    0,000000000e+00    0,000000000e+00    0,000000000e+00    0,000000000e+00
      632000000   -3,033353016e-02   -2,149838768e-02   -1,248778123e-02    6,544998288e-01    0,000000000e+00    0,000000000e+00    0,000000000e+00    0,000000000e+00
      646000000   -3,608435765e-02   -7,736696303e-02    3,661145270e-01    5,278443694e-01    0,000000000e+00    0,000000000e+00    0,000000000e+00    0,000000000e+00
      660000000   -1,125295013e-01   -9,947007149e-02    6,010084152e-01    1,929836124e-01    0,000000000e+00    0,000000000e+00    0,000000000e+00    0,000000000e+00
      674000000   -2,005274743e-01   -2,367357910e-02    5,648829341e-01   -2,400850058e-01    0,000000000e+00    0,000000000e+00    0,000000000e+00    0,000000000e+00
      688000000   -1,785614192e-01    1,454766840e-01    2,088216692e-01   -5,227649808e-01    0,000000000e+00    0,000000000e+00    0,000000000e+00    0,000000000e+00
      702000000    2,522717603e-02    2,462646663e-01   -2,014093101e-01   -4,061843753e-01    0,000000000e+00    0,000000000e+00    0,000000000e+00    0,000000000e+00
      716000000    2,644045651e-01    1,102750152e-01   -2,729674876e-01   -8,307298273e-02    0,000000000e+00    0,000000000e+00    0,000000000e+00    0,000000000e+00
      730000000    3,039764166e-01   -1,862360537e-01   -1,066692248e-01    3,176717460e-02    0,000000000e+00    0,000000000e+00    0,000000000e+00    0,000000000e+00
      744000000    9,348244220e-02   -4,274088442e-01   -4,234806076e-02   -6,559237838e-02    0,000000000e+00    0,000000000e+00    0,000000000e+00    0,000000000e+00
      758000000   -2,594796419e-01   -4,299631417e-01   -1,759068817e-01   -1,253883094e-01    0,000000000e+00    0,000000000e+00    0,000000000e+00    0,000000000e+00
      772000000   -4,852608144e-01   -1,199842095e-01   -3,369461000e-01    3,871896863e-02    0,000000000e+00    0,000000000e+00    0,000000000e+00    0,000000000e+00
      786000000   -3,409172297e-01    2,206094563e-01   -2,626559734e-01    3,170363009e-01    0,000000000e+00    0,000000000e+00    0,000000000e+00    0,000000000e+00
      800000000   -4,033157229e-02    2,761240900e-01    3,443136113e-03    4,372175932e-01    0,000000000e+00    0,000000000e+00    0,000000000e+00    0,000000000e+00
      814000000    1,446093768e-01    1,250219196e-01    2,637811601e-01    3,589160740e-01    0,000000000e+00    0,000000000e+00    0,000000000e+00    0,000000000e+00
      828000000    1,676148772e-01   -7,040728629e-02    4,333176613e-01    1,565637887e-01    0,000000000e+00    0,000000000e+00    0,000000000e+00    0,000000000e+00
      842000000    6,757473201e-02   -2,180638313e-01    4,665617645e-01   -1,206798702e-01    0,000000000e+00    0,000000000e+00    0,000000000e+00    0,000000000e+00
      856000000   -1,072101891e-01   -2,643014193e-01    3,201184273e-01   -3,952415586e-01    0,000000000e+00    0,000000000e+00    0,000000000e+00    0,000000000e+00
      870000000   -2,751195133e-01   -1,685686409e-01   -2,736402908e-03   -5,277335048e-01    0,000000000e+00    0,000000000e+00    0,000000000e+00    0,000000000e+00
      884000000   -3,204581738e-01    3,611477837e-02   -3,480083048e-01   -3,920185268e-01    0,000000000e+00    0,000000000e+00    0,000000000e+00    0,000000000e+00
      898000000   -1,917372793e-01    2,062680721e-01   -4,886582494e-01   -6,288465858e-02    0,000000000e+00    0,000000000e+00    0,000000000e+00    0,000000000e+00
      912000000    6,962812971e-03    2,185624987e-01   -3,950178325e-01    2,748799026e-01    0,000000000e+00    0,000000000e+00    0,000000000e+00    0,000000000e+00
      926000000    1,491313875e-01    1,116073132e-01   -1,686485708e-01    4,147363305e-01    0,000000000e+00    0,000000000e+00    0,000000000e+00    0,000000000e+00
      940000000    1,985783428e-01   -4,772579670e-02    6,500057131e-02    4,241640270e-01    0,000000000e+00    0,000000000e+00    0,000000000e+00    0,000000000e+00
      954000000    1,530793607e-01   -2,052540332e-01    2,602635920e-01    3,410233855e-01    0,000000000e+00    0,000000000e+00    0,000000000e+00    0,000000000e+00
      968000000    2,614171244e-02   -3,151403368e-01    4,113345742e-01    1,781769991e-01    0,000000000e+00    0,000000000e+00    0,000000000e+00    0,000000000e+00
      982000000   -1,635585576e-01   -3,313995898e-01    4,735157788e-01   -6,776363403e-02    0,000000000e+00    0,000000000e+00    0,000000000e+00    0,000000000e+00
      996000000   -3,248941302e-01   -2,072050422e-01    3,669625819e-01   -3,556029797e-01    0,000000000e+00    0,000000000e+00    0,000000000e+00    0,000000000e+00
     1010000000   -3,398329914e-01   -9,746730328e-03    4,058386013e-02   -5,238694549e-01    0,000000000e+00    0,000000000e+00    0,000000000e+00    0,000000000e+00
     1024000000   -2,089178115e-01    9,486657381e-02   -3,450671434e-01   -3,805726469e-01    0,000000000e+00    0,000000000e+00    0,000000000e+00    0,000000000e+00
     1038000000   -1,393940300e-01    9,409057908e-03   -4,816482663e-01    6,575242430e-02    0,000000000e+00    0,000000000e+00    0,000000000e+00    0,000000000e+00
     1052000000   -2,908389568e-01    5,542436987e-02   -9,340460598e-02    3,714905381e-01    0,000000000e+00    0,000000000e+00    0,000000000e+00    0,000000000e+00
     1066000000   -1,449224651e-01    2,971825004e-01    1,392631084e-01    1,302948892e-01    0,000000000e+00    0,000000000e+00    0,000000000e+00    0,000000000e+00
     1080000000    9,997826070e-02    2,527167499e-01    8,867112547e-02    2,224904858e-02    0,000000000e+00    0,000000000e+00    0,000000000e+00    0,000000000e+00
     1094000000    2,228101492e-01    8,652804792e-02    6,956110150e-02    1,223372482e-02    0,000000000e+00    0,000000000e+00    0,000000000e+00    0,000000000e+00
     1108000000    2,435022295e-01   -8,907254040e-02    8,133281022e-02    4,561064416e-04    0,000000000e+00    0,000000000e+00    0,000000000e+00    0,000000000e+00
     1122000000    1,851981878e-01   -2,487905920e-01    1,050783917e-01   -2,680684440e-02    0,000000000e+00    0,000000000e+00    0,000000000e+00    0,000000000e+00
     1136000000    5,256355181e-02   -3,759725988e-01    1,279918700e-01   -7,252646238e-02    0,000000000e+00    0,000000000e+00    0,000000000e+00    0,000000000e+00
     1150000000   -1,531551629e-01   -4,260041416e-01    1,371037662e-01   -1,500967443e-01    0,000000000e+00    0,000000000e+00    0,000000000e+00    0,000000000e+00
     1164000000   -3,738636971e-01   -3,260097206e-01    9,947448969e-02   -2,785080075e-01    0,000000000e+00    0,000000000e+00    0,000000000e+00    0,000000000e+00
     1178000000   -4,681183994e-01   -8,939103037e-02   -1,056621149e-01   -4,055303633e-01    0,000000000e+00    0,000000000e+00    0,000000000e+00    0,000000000e+00
     1192000000   -3,726137877e-01    4,021382704e-02   -4,618215561e-01   -1,921558976e-01    0,000000000e+00    0,000000000e+00    0,000000000e+00    0,000000000e+00
     1206000000   -4,109084308e-01    1,330601424e-01   -2,709540725e-01    2,359406203e-01    0,000000000e+00    0,000000000e+00    0,000000000e+00    0,000000000e+00
     1220000000   -2,780662179e-01    3,292031884e-01   -8,764316328e-03    1,648863405e-01    0,000000000e+00    0,000000000e+00    0,000000000e+00    0,000000000e+00
     1234000000   -4,620569944e-02    3,508193493e-01    2,559664659e-02    5,633192137e-02    0,000000000e+00    0,000000000e+00    0,000000000e+00    0,000000000e+00
     1248000000    1,217989326e-01    2,452901006e-01    6,453878246e-03    2,055852674e-02    0,000000000e+00    0,000000000e+00    0,000000000e+00    0,000000000e+00
     1262000000    2,115414441e-01    1,071410999e-01    3,769234288e-03    3,401612863e-02    0,000000000e+00    0,000000000e+00    0,000000000e+00    0,000000000e+00
     1276000000    2,317062765e-01   -5,589916557e-02    2,471125312e-02    3,358500078e-02    0,000000000e+00    0,000000000e+00    0,000000000e+00    0,000000000e+00
     1290000000    1,987363100e-01   -2,107284963e-01    6,035984308e-02    2,542171814e-02    0,000000000e+00    0,000000000e+00    0,000000000e+00    0,000000000e+00
     1304000000    8,230163157e-02   -3,619688749e-01    7,336276770e-02    2,666337183e-03    0,000000000e+00    0,000000000e+00    0,000000000e+00    0,000000000e+00
     1318000000   -1,045415178e-01   -4,431439340e-01    8,297626674e-02   -1,201233547e-02    0,000000000e+00    0,000000000e+00    0,000000000e+00    0,000000000e+00
     1332000000   -3,535632491e-01   -4,374167323e-01    8,435112238e-02   -1,966958866e-02    0,000000000e+00    0,000000000e+00    0,000000000e+00    0,000000000e+00
     1346000000   -5,907335877e-01   -2,456131727e-01    1,127262712e-01   -1,194131467e-02    0,000000000e+00    0,000000000e+00    0,000000000e+00    0,000000000e+00
     1360000000   -6,457084417e-01    7,096989453e-02    1,450984776e-01   -1,497473195e-02    0,000000000e+00    0,000000000e+00    0,000000000e+00    0,000000000e+00
     1374000000   -4,957615733e-01    3,393431008e-01    1,705992073e-01   -4,330309480e-02    0,000000000e+00    0,000000000e+00    0,000000000e+00    0,000000000e+00
     1388000000   -2,518988252e-01    4,219095707e-01    1,594754606e-01   -8,710522950e-02    0,000000000e+00    0,000000000e+00    0,000000000e+00    0,000000000e+00
     1402000000   -4,350805283e-02    3,928687572e-01    1,446634978e-01   -9,496892989e-02    0,000000000e+00    0,000000000e+00    0,000000000e+00    0,000000000e+00
     1416000000    9,709961712e-02    2,851577401e-01    1,161118448e-01   -8,537036926e-02    0,000000000e+00    0,000000000e+00    0,000000000e+00    0,000000000e+00
     1430000000    1,926367432e-01    1,448161155e-01    1,153570786e-01   -7,974655181e-02    0,000000000e+00    0,000000000e+00    0,000000000e+00    0,000000000e+00
     1444000000    2,157555819e-01   -7,647837512e-03    1,129125804e-01   -1,932975650e-02    0,000000000e+00    0,000000000e+00    0,000000000e+00    0,000000000e+00
     1458000000    1,782745719e-01   -1,863499135e-01    1,372127086e-01    1,430771966e-02    0,000000000e+00    0,000000000e+00    0,000000000e+00    0,000000000e+00
     1472000000    6,835918874e-02   -3,511016965e-01    1,903128475e-01    6,427157670e-02    0,000000000e+00    0,000000000e+00    0,000000000e+00    0,000000000e+00
     1486000000   -1,399064809e-01   -4,694476128e-01    2,798416317e-01    8,871400356e-02    0,000000000e+00    0,000000000e+00    0,000000000e+00    0,000000000e+00
     1500000000   -4,333672822e-01   -4,689152837e-01    4,029215872e-01    5,098396912e-02    0,000000000e+00    0,000000000e+00    0,000000000e+00    0,000000000e+00
