! NanoVNA-App
! Date: 2025-09-25 16:00:45
! Start: 100MHz Stop: 1,5GHz Points: 101
! S-Parameter data: F S11 S21 S12 S22
# Hz S RI R 50
!     Frequency           S11_Real           S11_Imag           S21_Real           S21_Imag           S12_Real           S12_Imag           S22_Real           S22_Imag
      100000000   -2,827881090e-02   -2,866366412e-03    3,723232150e-01   -7,223992348e-01    0,000000000e+00    0,000000000e+00    0,000000000e+00    0,000000000e+00
      114000000   -1,571420580e-02    1,290219650e-02   -9,113226831e-02   -8,045377731e-01    0,000000000e+00    0,000000000e+00    0,000000000e+00    0,000000000e+00
      128000000    4,341709893e-03    1,196277421e-02   -5,159170628e-01   -6,187202930e-01    0,000000000e+00    0,000000000e+00    0,000000000e+00    0,000000000e+00
      142000000    1,546926796e-02   -1,727385446e-03   -7,674255967e-01   -2,341482937e-01    0,000000000e+00    0,000000000e+00    0,000000000e+00    0,000000000e+00
      156000000    1,584452763e-02   -1,288155466e-02   -7,632958293e-01    2,217776477e-01    0,000000000e+00    0,000000000e+00    0,000000000e+00    0,000000000e+00
      170000000    1,772073656e-02   -2,095904388e-02   -5,159356594e-01    6,064346433e-01    0,000000000e+00    0,000000000e+00    0,000000000e+00    0,000000000e+00
      184000000    2,202796377e-02   -3,558782861e-02   -9,801172465e-02    7,862834930e-01    0,000000000e+00    0,000000000e+00    0,000000000e+00    0,000000000e+00
      198000000    1,404641476e-02   -6,066118926e-02    3,458938301e-01    7,105552554e-01    0,000000000e+00    0,000000000e+00    0,000000000e+00    0,000000000e+00
      212000000   -1,767317764e-02   -7,915125787e-02    6,808689237e-01    4,061852694e-01    0,000000000e+00    0,000000000e+00    0,000000000e+00    0,000000000e+00
      226000000   -6,031135842e-02   -6,661838293e-02    7,957635522e-01   -3,561513498e-02    0,000000000e+00    0,000000000e+00    0,000000000e+00    0,000000000e+00
      240000000   -8,050787449e-02   -2,272343822e-02    6,416253448e-01   -4,718519151e-01    0,000000000e+00    0,000000000e+00    0,000000000e+00    0,000000000e+00
      254000000   -6,077333167e-02    1,984396763e-02    2,710648179e-01   -7,419580221e-01    0,000000000e+00    0,000000000e+00    0,000000000e+00    0,000000000e+00
      268000000   -2,091075666e-02    3,080139682e-02   -1,810939014e-01   -7,615751624e-01    0,000000000e+00    0,000000000e+00    0,000000000e+00    0,000000000e+00
      282000000    6,924340501e-03    1,381252520e-02   -5,632295609e-01   -5,325734019e-01    0,000000000e+00    0,000000000e+00    0,000000000e+00    0,000000000e+00
      296000000    1,235696673e-02   -6,299078465e-03   -7,603204250e-01   -1,344060451e-01    0,000000000e+00    0,000000000e+00    0,000000000e+00    0,000000000e+00
      310000000    1,354172919e-02   -1,454308070e-02   -7,098709941e-01    3,041771054e-01    0,000000000e+00    0,000000000e+00    0,000000000e+00    0,000000000e+00
      324000000    2,262603864e-02   -2,442442439e-02   -4,216923714e-01    6,396472454e-01    0,000000000e+00    0,000000000e+00    0,000000000e+00    0,000000000e+00
      338000000    2,820127271e-02   -5,059165880e-02   -2,757225418e-03    7,583735585e-01    0,000000000e+00    0,000000000e+00    0,000000000e+00    0,000000000e+00
      352000000    1,014510170e-02   -8,271768689e-02    4,123368561e-01    6,353523135e-01    0,000000000e+00    0,000000000e+00    0,000000000e+00    0,000000000e+00
      366000000   -3,170464560e-02   -9,364618361e-02    6,930717230e-01    3,041742146e-01    0,000000000e+00    0,000000000e+00    0,000000000e+00    0,000000000e+00
      380000000   -6,769520789e-02   -6,884742528e-02    7,458078861e-01   -1,346948892e-01    0,000000000e+00    0,000000000e+00    0,000000000e+00    0,000000000e+00
      394000000   -6,880453229e-02   -3,044742160e-02    5,395219326e-01   -5,274226069e-01    0,000000000e+00    0,000000000e+00    0,000000000e+00    0,000000000e+00
      408000000   -4,285865277e-02   -1,560969278e-02    1,491273791e-01   -7,352115512e-01    0,000000000e+00    0,000000000e+00    0,000000000e+00    0,000000000e+00
      422000000   -2,604527213e-02   -3,098011017e-02   -2,787923813e-01   -6,900770068e-01    0,000000000e+00    0,000000000e+00    0,000000000e+00    0,000000000e+00
      436000000   -3,934670612e-02   -4,913133010e-02   -6,108679175e-01   -4,195404649e-01    0,000000000e+00    0,000000000e+00    0,000000000e+00    0,000000000e+00
      450000000   -6,449794024e-02   -3,907850012e-02   -7,371272445e-01   -7,631475572e-03    0,000000000e+00    0,000000000e+00    0,000000000e+00    0,000000000e+00
      464000000   -6,766289473e-02   -6,605393719e-03   -6,076729298e-01    4,063165486e-01    0,000000000e+00    0,000000000e+00    0,000000000e+00    0,000000000e+00
      478000000   -3,873337060e-02    1,582563855e-02   -2,675290704e-01    6,699662209e-01    0,000000000e+00    0,000000000e+00    0,000000000e+00    0,000000000e+00
      492000000   -5,167044699e-03    6,521441974e-03    1,521189660e-01    6,955023408e-01    0,000000000e+00    0,000000000e+00    0,000000000e+00    0,000000000e+00
      506000000    6,982651539e-03   -2,013303153e-02    5,076067448e-01    4,890505075e-01    0,000000000e+00    0,000000000e+00    0,000000000e+00    0,000000000e+00
      520000000    8,194351103e-04   -3,874704614e-02    6,894450188e-01    1,220985502e-01    0,000000000e+00    0,000000000e+00    0,000000000e+00    0,000000000e+00
      534000000   -3,198406892e-03   -4,563086852e-02    6,318736076e-01   -2,825551033e-01    0,000000000e+00    0,000000000e+00    0,000000000e+00    0,000000000e+00
      548000000    9,205985116e-04   -5,935239047e-02    3,601997197e-01   -5,795487761e-01    0,000000000e+00    0,000000000e+00    0,000000000e+00    0,000000000e+00
      562000000   -7,892602123e-03   -8,854445070e-02   -2,720761299e-02   -6,721728444e-01    0,000000000e+00    0,000000000e+00    0,000000000e+00    0,000000000e+00
      576000000   -4,579222202e-02   -1,098983362e-01   -4,013675749e-01   -5,391565561e-01    0,000000000e+00    0,000000000e+00    0,000000000e+00    0,000000000e+00
      590000000   -9,459080547e-02   -9,341573715e-02   -6,390286684e-01   -2,182426453e-01    0,000000000e+00    0,000000000e+00    0,000000000e+00    0,000000000e+00
      604000000   -1,113540456e-01   -4,104757681e-02   -6,474045515e-01    1,985042244e-01    0,000000000e+00    0,000000000e+00    0,000000000e+00    0,000000000e+00
      618000000   -7,544878125e-02   -1,940958551e-03   -4,023267031e-01    5,361147523e-01    0,000000000e+00    0,000000000e+00    0,000000000e+00    0,000000000e+00
      632000000   -2,988456190e-02   -2,161620744e-02   -1,178216003e-02    6,548715830e-01    0,000000000e+00    0,000000000e+00    0,000000000e+00    0,000000000e+00
      646000000   -3,594889492e-02   -7,710378617e-02    3,663335443e-01    5,271707177e-01    0,000000000e+00    0,000000000e+00    0,000000000e+00    0,000000000e+00
      660000000   -1,109167710e-01   -9,999538958e-02    6,010266542e-01    1,932244748e-01    0,000000000e+00    0,000000000e+00    0,000000000e+00    0,000000000e+00
      674000000   -2,001090199e-01   -2,395506576e-02    5,650470257e-01   -2,400820851e-01    0,000000000e+00    0,000000000e+00    0,000000000e+00    0,000000000e+00
      688000000   -1,792870611e-01    1,451606601e-01    2,100615650e-01   -5,217206478e-01    0,000000000e+00    0,000000000e+00    0,000000000e+00    0,000000000e+00
      702000000    2,806749754e-02    2,459381372e-01   -1,996812224e-01   -4,001281261e-01    0,000000000e+00    0,000000000e+00    0,000000000e+00    0,000000000e+00
      716000000    2,631191015e-01    1,100691855e-01   -2,733603418e-01   -8,363420516e-02    0,000000000e+00    0,000000000e+00    0,000000000e+00    0,000000000e+00
      730000000    3,038504720e-01   -1,868318170e-01   -1,071190014e-01    3,238141909e-02    0,000000000e+00    0,000000000e+00    0,000000000e+00    0,000000000e+00
      744000000    9,346748888e-02   -4,273155928e-01   -4,239342362e-02   -6,497632712e-02    0,000000000e+00    0,000000000e+00    0,000000000e+00    0,000000000e+00
      758000000   -2,604280710e-01   -4,290174842e-01   -1,756267101e-01   -1,256329417e-01    0,000000000e+00    0,000000000e+00    0,000000000e+00    0,000000000e+00
      772000000   -4,861424267e-01   -1,195498407e-01   -3,361639977e-01    3,847569227e-02    0,000000000e+00    0,000000000e+00    0,000000000e+00    0,000000000e+00
      786000000   -3,408421576e-01    2,217204273e-01   -2,634569705e-01    3,170363307e-01    0,000000000e+00    0,000000000e+00    0,000000000e+00    0,000000000e+00
      800000000   -4,109742865e-02    2,766070366e-01    3,050708678e-03    4,371768236e-01    0,000000000e+00    0,000000000e+00    0,000000000e+00    0,000000000e+00
      814000000    1,445772350e-01    1,254564971e-01    2,638499737e-01    3,588420153e-01    0,000000000e+00    0,000000000e+00    0,000000000e+00    0,000000000e+00
      828000000    1,678030789e-01   -6,983722001e-02    4,332011044e-01    1,564304531e-01    0,000000000e+00    0,000000000e+00    0,000000000e+00    0,000000000e+00
      842000000    6,742116064e-02   -2,189065963e-01    4,666574895e-01   -1,198436320e-01    0,000000000e+00    0,000000000e+00    0,000000000e+00    0,000000000e+00
      856000000   -1,072151810e-01   -2,634650171e-01    3,191581964e-01   -3,944328129e-01    0,000000000e+00    0,000000000e+00    0,000000000e+00    0,000000000e+00
      870000000   -2,750308812e-01   -1,682406217e-01   -2,749842126e-03   -5,259336233e-01    0,000000000e+00    0,000000000e+00    0,000000000e+00    0,000000000e+00
      884000000   -3,200747371e-01    3,597730398e-02   -3,484792709e-01   -3,926590681e-01    0,000000000e+00    0,000000000e+00    0,000000000e+00    0,000000000e+00
      898000000   -1,930085570e-01    2,068994343e-01   -4,893399477e-01   -6,238035858e-02    0,000000000e+00    0,000000000e+00    0,000000000e+00    0,000000000e+00
      912000000    7,547403220e-03    2,197412848e-01   -4,062710702e-01    2,651792467e-01    0,000000000e+00    0,000000000e+00    0,000000000e+00    0,000000000e+00
      926000000    1,511042267e-01    1,123380288e-01   -1,668722034e-01    4,149743021e-01    0,000000000e+00    0,000000000e+00    0,000000000e+00    0,000000000e+00
      940000000    2,007829696e-01   -4,588584974e-02    6,416988373e-02    4,254631996e-01    0,000000000e+00    0,000000000e+00    0,000000000e+00    0,000000000e+00
      954000000    1,525908411e-01   -2,038034797e-01    2,609601021e-01    3,409311175e-01    0,000000000e+00    0,000000000e+00    0,000000000e+00    0,000000000e+00
      968000000    2,357576415e-02   -3,120721579e-01    4,105026722e-01    1,805726886e-01    0,000000000e+00    0,000000000e+00    0,000000000e+00    0,000000000e+00
      982000000   -1,638009995e-01   -3,298690021e-01    4,737323523e-01   -6,597735733e-02    0,000000000e+00    0,000000000e+00    0,000000000e+00    0,000000000e+00
      996000000   -3,230970800e-01   -2,090289891e-01    3,676396906e-01   -3,565225899e-01    0,000000000e+00    0,000000000e+00    0,000000000e+00    0,000000000e+00
     1010000000   -3,413416743e-01   -9,660446085e-03    4,388508946e-02   -5,236764550e-01    0,000000000e+00    0,000000000e+00    0,000000000e+00    0,000000000e+00
     1024000000   -2,068532258e-01    9,559168667e-02   -3,440614045e-01   -3,795157075e-01    0,000000000e+00    0,000000000e+00    0,000000000e+00    0,000000000e+00
     1038000000   -1,391538531e-01    9,977370501e-03   -4,818096161e-01    6,415194273e-02    0,000000000e+00    0,000000000e+00    0,000000000e+00    0,000000000e+00
     1052000000   -2,853283882e-01    5,378024280e-02   -9,353736043e-02    3,724861145e-01    0,000000000e+00    0,000000000e+00    0,000000000e+00    0,000000000e+00
     1066000000   -1,512922943e-01    2,944760323e-01    1,420859993e-01    1,309393048e-01    0,000000000e+00    0,000000000e+00    0,000000000e+00    0,000000000e+00
     1080000000    1,015850827e-01    2,530854642e-01    9,014977515e-02    2,107386850e-02    0,000000000e+00    0,000000000e+00    0,000000000e+00    0,000000000e+00
     1094000000    2,210595012e-01    8,480361104e-02    6,869199127e-02    9,807904251e-03    0,000000000e+00    0,000000000e+00    0,000000000e+00    0,000000000e+00
     1108000000    2,431515157e-01   -9,089189768e-02    8,152808994e-02    1,946096192e-03    0,000000000e+00    0,000000000e+00    0,000000000e+00    0,000000000e+00
     1122000000    1,818657219e-01   -2,514682412e-01    1,058457941e-01   -2,724907734e-02    0,000000000e+00    0,000000000e+00    0,000000000e+00    0,000000000e+00
     1136000000    4,624006525e-02   -3,811123073e-01    1,238095015e-01   -7,405973971e-02    0,000000000e+00    0,000000000e+00    0,000000000e+00    0,000000000e+00
     1150000000   -1,541047990e-01   -4,218468666e-01    1,367042512e-01   -1,517804861e-01    0,000000000e+00    0,000000000e+00    0,000000000e+00    0,000000000e+00
     1164000000   -3,791144788e-01   -3,270646930e-01    9,990916401e-02   -2,767921984e-01    0,000000000e+00    0,000000000e+00    0,000000000e+00    0,000000000e+00
     1178000000   -4,675756097e-01   -8,521048725e-02   -1,062776074e-01   -4,062667191e-01    0,000000000e+00    0,000000000e+00    0,000000000e+00    0,000000000e+00
     1192000000   -3,760176003e-01    3,785261884e-02   -4,605242908e-01   -1,959710270e-01    0,000000000e+00    0,000000000e+00    0,000000000e+00    0,000000000e+00
     1206000000   -4,123364091e-01    1,341072470e-01   -2,714578807e-01    2,394676208e-01    0,000000000e+00    0,000000000e+00    0,000000000e+00    0,000000000e+00
     1220000000   -2,752130032e-01    3,271906376e-01   -2,505910583e-03    1,616481096e-01    0,000000000e+00    0,000000000e+00    0,000000000e+00    0,000000000e+00
     1234000000   -4,542246833e-02    3,458364606e-01    2,875873074e-02    5,031922460e-02    0,000000000e+00    0,000000000e+00    0,000000000e+00    0,000000000e+00
     1248000000    1,241434142e-01    2,479423285e-01    5,864398554e-03    2,277928032e-02    0,000000000e+00    0,000000000e+00    0,000000000e+00    0,000000000e+00
     1262000000    2,105304450e-01    1,001878157e-01    2,977288095e-03    2,831481583e-02    0,000000000e+00    0,000000000e+00    0,000000000e+00    0,000000000e+00
     1276000000    2,323264182e-01   -5,451749638e-02    2,481479384e-02    3,673862293e-02    0,000000000e+00    0,000000000e+00    0,000000000e+00    0,000000000e+00
     1290000000    1,985440701e-01   -2,147670835e-01    5,493295565e-02    2,656606212e-02    0,000000000e+00    0,000000000e+00    0,000000000e+00    0,000000000e+00
     1304000000    8,302683383e-02   -3,593735099e-01    7,195857167e-02    5,939446390e-03    0,000000000e+00    0,000000000e+00    0,000000000e+00    0,000000000e+00
     1318000000   -1,008658707e-01   -4,471463263e-01    8,546719700e-02   -9,601539932e-03    0,000000000e+00    0,000000000e+00    0,000000000e+00    0,000000000e+00
     1332000000   -3,567272127e-01   -4,341015816e-01    8,993759006e-02   -1,130620204e-02    0,000000000e+00    0,000000000e+00    0,000000000e+00    0,000000000e+00
     1346000000   -5,849837661e-01   -2,464921325e-01    1,022186875e-01   -6,413055584e-03    0,000000000e+00    0,000000000e+00    0,000000000e+00    0,000000000e+00
     1360000000   -6,495446563e-01    7,419998944e-02    1,357218623e-01   -1,267734449e-02    0,000000000e+00    0,000000000e+00    0,000000000e+00    0,000000000e+00
     1374000000   -4,924448729e-01    3,373399973e-01    1,728587449e-01   -5,007831380e-02    0,000000000e+00    0,000000000e+00    0,000000000e+00    0,000000000e+00
     1388000000   -2,542273998e-01    4,249809980e-01    1,693686247e-01   -9,210992604e-02    0,000000000e+00    0,000000000e+00    0,000000000e+00    0,000000000e+00
     1402000000   -4,636679217e-02    3,899696171e-01    1,380286962e-01   -9,329105169e-02    0,000000000e+00    0,000000000e+00    0,000000000e+00    0,000000000e+00
     1416000000    9,699538350e-02    2,831274867e-01    1,201867908e-01   -9,852320701e-02    0,000000000e+00    0,000000000e+00    0,000000000e+00    0,000000000e+00
     1430000000    1,935712099e-01    1,361018270e-01    1,065409482e-01   -7,667078823e-02    0,000000000e+00    0,000000000e+00    0,000000000e+00    0,000000000e+00
     1444000000    2,185381353e-01   -9,214620106e-03    1,317446083e-01   -2,001678571e-02    0,000000000e+00    0,000000000e+00    0,000000000e+00    0,000000000e+00
     1458000000    1,815533042e-01   -1,878353059e-01    1,464527696e-01    1,302078366e-02    0,000000000e+00    0,000000000e+00    0,000000000e+00    0,000000000e+00
     1472000000    6,150610745e-02   -3,483458161e-01    1,908099055e-01    6,265746057e-02    0,000000000e+00    0,000000000e+00    0,000000000e+00    0,000000000e+00
     1486000000   -1,457106024e-01   -4,791666865e-01    2,928093374e-01    9,099930525e-02    0,000000000e+00    0,000000000e+00    0,000000000e+00    0,000000000e+00
     1500000000   -4,364468753e-01   -4,728650749e-01    4,078972638e-01    7,184347510e-02    0,000000000e+00    0,000000000e+00    0,000000000e+00    0,000000000e+00
