! NanoVNA-App
! Date: 2025-09-25 15:56:28
! Start: 100MHz Stop: 1,5GHz Points: 101
! S-Parameter data: F S11 S21 S12 S22
# Hz S RI R 50
!     Frequency           S11_Real           S11_Imag           S21_Real           S21_Imag           S12_Real           S12_Imag           S22_Real           S22_Imag
      100000000   -2,818714455e-02   -2,831699559e-03    3,722479343e-01   -7,224645615e-01    0,000000000e+00    0,000000000e+00    0,000000000e+00    0,000000000e+00
      114000000   -1,561651193e-02    1,286982838e-02   -9,133562446e-02   -8,047731519e-01    0,000000000e+00    0,000000000e+00    0,000000000e+00    0,000000000e+00
      128000000    4,461172968e-03    1,187763084e-02   -5,159384012e-01   -6,187875271e-01    0,000000000e+00    0,000000000e+00    0,000000000e+00    0,000000000e+00
      142000000    1,551651582e-02   -1,821874059e-03   -7,672426701e-01   -2,340126038e-01    0,000000000e+00    0,000000000e+00    0,000000000e+00    0,000000000e+00
      156000000    1,586332545e-02   -1,289291214e-02   -7,633690834e-01    2,218482643e-01    0,000000000e+00    0,000000000e+00    0,000000000e+00    0,000000000e+00
      170000000    1,759103313e-02   -2,104290947e-02   -5,154965520e-01    6,060874462e-01    0,000000000e+00    0,000000000e+00    0,000000000e+00    0,000000000e+00
      184000000    2,201900072e-02   -3,558121994e-02   -9,837396443e-02    7,858746648e-01    0,000000000e+00    0,000000000e+00    0,000000000e+00    0,000000000e+00
      198000000    1,400977280e-02   -6,063091755e-02    3,461699188e-01    7,107959390e-01    0,000000000e+00    0,000000000e+00    0,000000000e+00    0,000000000e+00
      212000000   -1,768803038e-02   -7,916262001e-02    6,804330349e-01    4,063466489e-01    0,000000000e+00    0,000000000e+00    0,000000000e+00    0,000000000e+00
      226000000   -6,036068499e-02   -6,667950749e-02    7,958045602e-01   -3,557641432e-02    0,000000000e+00    0,000000000e+00    0,000000000e+00    0,000000000e+00
      240000000   -8,062736690e-02   -2,280411124e-02    6,416435838e-01   -4,714610279e-01    0,000000000e+00    0,000000000e+00    0,000000000e+00    0,000000000e+00
      254000000   -6,081412360e-02    1,972604170e-02    2,709616423e-01   -7,418321967e-01    0,000000000e+00    0,000000000e+00    0,000000000e+00    0,000000000e+00
      268000000   -2,092476375e-02    3,086492606e-02   -1,811531782e-01   -7,606772184e-01    0,000000000e+00    0,000000000e+00    0,000000000e+00    0,000000000e+00
      282000000    6,882714573e-03    1,374562550e-02   -5,631839037e-01   -5,324407220e-01    0,000000000e+00    0,000000000e+00    0,000000000e+00    0,000000000e+00
      296000000    1,242387202e-02   -6,159244105e-03   -7,605067492e-01   -1,344533712e-01    0,000000000e+00    0,000000000e+00    0,000000000e+00    0,000000000e+00
      310000000    1,350472867e-02   -1,470749546e-02   -7,099696398e-01    3,047099411e-01    0,000000000e+00    0,000000000e+00    0,000000000e+00    0,000000000e+00
      324000000    2,256727405e-02   -2,463342994e-02   -4,210848808e-01    6,397657394e-01    0,000000000e+00    0,000000000e+00    0,000000000e+00    0,000000000e+00
      338000000    2,816855349e-02   -5,062481388e-02   -1,235812670e-03    7,600586414e-01    0,000000000e+00    0,000000000e+00    0,000000000e+00    0,000000000e+00
      352000000    1,030365750e-02   -8,304513246e-02    4,120161235e-01    6,341582537e-01    0,000000000e+00    0,000000000e+00    0,000000000e+00    0,000000000e+00
      366000000   -3,157482669e-02   -9,381314367e-02    6,935907006e-01    3,038946688e-01    0,000000000e+00    0,000000000e+00    0,000000000e+00    0,000000000e+00
      380000000   -6,765303761e-02   -6,879755110e-02    7,459692359e-01   -1,342917234e-01    0,000000000e+00    0,000000000e+00    0,000000000e+00    0,000000000e+00
      394000000   -6,850912422e-02   -3,065742552e-02    5,384013653e-01   -5,272836685e-01    0,000000000e+00    0,000000000e+00    0,000000000e+00    0,000000000e+00
      408000000   -4,274575412e-02   -1,537414175e-02    1,488241255e-01   -7,323528528e-01    0,000000000e+00    0,000000000e+00    0,000000000e+00    0,000000000e+00
      422000000   -2,622256987e-02   -3,100840189e-02   -2,792110145e-01   -6,893604398e-01    0,000000000e+00    0,000000000e+00    0,000000000e+00    0,000000000e+00
      436000000   -3,922488913e-02   -4,921263084e-02   -6,101790667e-01   -4,197550118e-01    0,000000000e+00    0,000000000e+00    0,000000000e+00    0,000000000e+00
      450000000   -6,461888552e-02   -3,919889033e-02   -7,373074293e-01   -7,693848573e-03    0,000000000e+00    0,000000000e+00    0,000000000e+00    0,000000000e+00
      464000000   -6,748241186e-02   -5,926406011e-03   -6,078020930e-01    4,057432115e-01    0,000000000e+00    0,000000000e+00    0,000000000e+00    0,000000000e+00
      478000000   -3,887944669e-02    1,616730168e-02   -2,680784166e-01    6,698753834e-01    0,000000000e+00    0,000000000e+00    0,000000000e+00    0,000000000e+00
      492000000   -4,916299600e-03    6,442463957e-03    1,522535384e-01    6,949632168e-01    0,000000000e+00    0,000000000e+00    0,000000000e+00    0,000000000e+00
      506000000    6,870191079e-03   -2,021025307e-02    5,086049438e-01    4,879143834e-01    0,000000000e+00    0,000000000e+00    0,000000000e+00    0,000000000e+00
      520000000    8,025157149e-04   -3,914572299e-02    6,894993782e-01    1,206735596e-01    0,000000000e+00    0,000000000e+00    0,000000000e+00    0,000000000e+00
      534000000   -3,245638683e-03   -4,535562173e-02    6,320917606e-01   -2,821515203e-01    0,000000000e+00    0,000000000e+00    0,000000000e+00    0,000000000e+00
      548000000    8,545763558e-04   -6,008713692e-02    3,601005375e-01   -5,794227123e-01    0,000000000e+00    0,000000000e+00    0,000000000e+00    0,000000000e+00
      562000000   -8,053590544e-03   -8,805874735e-02   -2,793699875e-02   -6,727675796e-01    0,000000000e+00    0,000000000e+00    0,000000000e+00    0,000000000e+00
      576000000   -4,480618984e-02   -1,096929610e-01   -4,004776180e-01   -5,379378200e-01    0,000000000e+00    0,000000000e+00    0,000000000e+00    0,000000000e+00
      590000000   -9,459285438e-02   -9,362949431e-02   -6,398463845e-01   -2,196025848e-01    0,000000000e+00    0,000000000e+00    0,000000000e+00    0,000000000e+00
      604000000   -1,114026755e-01   -4,139495641e-02   -6,470443010e-01    1,980169266e-01    0,000000000e+00    0,000000000e+00    0,000000000e+00    0,000000000e+00
      618000000   -7,521164417e-02   -1,978629036e-03   -4,013498425e-01    5,362716913e-01    0,000000000e+00    0,000000000e+00    0,000000000e+00    0,000000000e+00
      632000000   -2,998299524e-02   -2,077678218e-02   -1,116104890e-02    6,550296545e-01    0,000000000e+00    0,000000000e+00    0,000000000e+00    0,000000000e+00
      646000000   -3,617189825e-02   -7,721868157e-02    3,656223416e-01    5,266495943e-01    0,000000000e+00    0,000000000e+00    0,000000000e+00    0,000000000e+00
      660000000   -1,112991348e-01   -1,001235023e-01    6,013344526e-01    1,938408464e-01    0,000000000e+00    0,000000000e+00    0,000000000e+00    0,000000000e+00
      674000000   -1,993011683e-01   -2,374363691e-02    5,653212070e-01   -2,396949083e-01    0,000000000e+00    0,000000000e+00    0,000000000e+00    0,000000000e+00
      688000000   -1,784367710e-01    1,452422589e-01    2,097209394e-01   -5,214169025e-01    0,000000000e+00    0,000000000e+00    0,000000000e+00    0,000000000e+00
      702000000    2,533965372e-02    2,465930581e-01   -2,023585290e-01   -4,044780135e-01    0,000000000e+00    0,000000000e+00    0,000000000e+00    0,000000000e+00
      716000000    2,633342147e-01    1,106377915e-01   -2,721113265e-01   -8,330467343e-02    0,000000000e+00    0,000000000e+00    0,000000000e+00    0,000000000e+00
      730000000    3,032152057e-01   -1,867715120e-01   -1,062696651e-01    3,184257075e-02    0,000000000e+00    0,000000000e+00    0,000000000e+00    0,000000000e+00
      744000000    9,252239764e-02   -4,269165993e-01   -4,226742685e-02   -6,575614214e-02    0,000000000e+00    0,000000000e+00    0,000000000e+00    0,000000000e+00
      758000000   -2,584087253e-01   -4,287536144e-01   -1,758968681e-01   -1,258343458e-01    0,000000000e+00    0,000000000e+00    0,000000000e+00    0,000000000e+00
      772000000   -4,846330583e-01   -1,182518452e-01   -3,367405534e-01    3,823850676e-02    0,000000000e+00    0,000000000e+00    0,000000000e+00    0,000000000e+00
      786000000   -3,420412838e-01    2,219372988e-01   -2,626077533e-01    3,174861968e-01    0,000000000e+00    0,000000000e+00    0,000000000e+00    0,000000000e+00
      800000000   -4,123999923e-02    2,761977017e-01    2,855794737e-03    4,365301728e-01    0,000000000e+00    0,000000000e+00    0,000000000e+00    0,000000000e+00
      814000000    1,442087591e-01    1,255144328e-01    2,642803192e-01    3,594954312e-01    0,000000000e+00    0,000000000e+00    0,000000000e+00    0,000000000e+00
      828000000    1,675426960e-01   -6,976453960e-02    4,332744777e-01    1,565974653e-01    0,000000000e+00    0,000000000e+00    0,000000000e+00    0,000000000e+00
      842000000    6,669880450e-02   -2,184459418e-01    4,663340151e-01   -1,203828529e-01    0,000000000e+00    0,000000000e+00    0,000000000e+00    0,000000000e+00
      856000000   -1,065105051e-01   -2,626802921e-01    3,200424612e-01   -3,934663832e-01    0,000000000e+00    0,000000000e+00    0,000000000e+00    0,000000000e+00
      870000000   -2,748070061e-01   -1,675463915e-01   -2,907564864e-03   -5,269649625e-01    0,000000000e+00    0,000000000e+00    0,000000000e+00    0,000000000e+00
      884000000   -3,202371597e-01    3,608747199e-02   -3,474255204e-01   -3,928976357e-01    0,000000000e+00    0,000000000e+00    0,000000000e+00    0,000000000e+00
      898000000   -1,926954389e-01    2,062420696e-01   -4,894350171e-01   -6,250942498e-02    0,000000000e+00    0,000000000e+00    0,000000000e+00    0,000000000e+00
      912000000    6,137354765e-03    2,185056359e-01   -4,088737071e-01    2,770939171e-01    0,000000000e+00    0,000000000e+00    0,000000000e+00    0,000000000e+00
      926000000    1,501158774e-01    1,138822287e-01   -1,680765152e-01    4,178794026e-01    0,000000000e+00    0,000000000e+00    0,000000000e+00    0,000000000e+00
      940000000    1,987623870e-01   -4,692976922e-02    6,464922428e-02    4,235710204e-01    0,000000000e+00    0,000000000e+00    0,000000000e+00    0,000000000e+00
      954000000    1,505207121e-01   -2,016430050e-01    2,625917792e-01    3,429570794e-01    0,000000000e+00    0,000000000e+00    0,000000000e+00    0,000000000e+00
      968000000    2,591416985e-02   -3,118024468e-01    4,102910757e-01    1,792235225e-01    0,000000000e+00    0,000000000e+00    0,000000000e+00    0,000000000e+00
      982000000   -1,650071889e-01   -3,307368755e-01    4,745109677e-01   -6,743596494e-02    0,000000000e+00    0,000000000e+00    0,000000000e+00    0,000000000e+00
      996000000   -3,223887682e-01   -2,079994529e-01    3,692206740e-01   -3,563240170e-01    0,000000000e+00    0,000000000e+00    0,000000000e+00    0,000000000e+00
     1010000000   -3,396358490e-01   -1,004887931e-02    4,081420600e-02   -5,237749219e-01    0,000000000e+00    0,000000000e+00    0,000000000e+00    0,000000000e+00
     1024000000   -2,033668458e-01    9,485708922e-02   -3,435994387e-01   -3,806618154e-01    0,000000000e+00    0,000000000e+00    0,000000000e+00    0,000000000e+00
     1038000000   -1,355524808e-01    6,741123740e-03   -4,827509522e-01    6,358412653e-02    0,000000000e+00    0,000000000e+00    0,000000000e+00    0,000000000e+00
     1052000000   -2,888301015e-01    5,403785035e-02   -9,536699206e-02    3,733754754e-01    0,000000000e+00    0,000000000e+00    0,000000000e+00    0,000000000e+00
     1066000000   -1,516522169e-01    2,941902280e-01    1,458091885e-01    1,313883215e-01    0,000000000e+00    0,000000000e+00    0,000000000e+00    0,000000000e+00
     1080000000    9,939574450e-02    2,527857125e-01    9,355805069e-02    2,241793089e-02    0,000000000e+00    0,000000000e+00    0,000000000e+00    0,000000000e+00
     1094000000    2,177464068e-01    9,201718867e-02    6,914176792e-02    9,450824000e-03    0,000000000e+00    0,000000000e+00    0,000000000e+00    0,000000000e+00
     1108000000    2,392753363e-01   -8,956190944e-02    8,099447191e-02   -6,300735986e-04    0,000000000e+00    0,000000000e+00    0,000000000e+00    0,000000000e+00
     1122000000    1,833212376e-01   -2,482485175e-01    1,025420800e-01   -2,599589154e-02    0,000000000e+00    0,000000000e+00    0,000000000e+00    0,000000000e+00
     1136000000    4,996502027e-02   -3,758016825e-01    1,243728176e-01   -7,461906224e-02    0,000000000e+00    0,000000000e+00    0,000000000e+00    0,000000000e+00
     1150000000   -1,554167867e-01   -4,269357920e-01    1,399739534e-01   -1,524955034e-01    0,000000000e+00    0,000000000e+00    0,000000000e+00    0,000000000e+00
     1164000000   -3,742792904e-01   -3,258890510e-01    9,799550474e-02   -2,762671411e-01    0,000000000e+00    0,000000000e+00    0,000000000e+00    0,000000000e+00
     1178000000   -4,608681798e-01   -8,798882365e-02   -1,068947315e-01   -4,089649320e-01    0,000000000e+00    0,000000000e+00    0,000000000e+00    0,000000000e+00
     1192000000   -3,726908565e-01    3,856456652e-02   -4,649437070e-01   -1,960876286e-01    0,000000000e+00    0,000000000e+00    0,000000000e+00    0,000000000e+00
     1206000000   -4,142414629e-01    1,317273229e-01   -2,758901417e-01    2,383715957e-01    0,000000000e+00    0,000000000e+00    0,000000000e+00    0,000000000e+00
     1220000000   -2,720206082e-01    3,307825625e-01   -1,947553246e-03    1,644135565e-01    0,000000000e+00    0,000000000e+00    0,000000000e+00    0,000000000e+00
     1234000000   -4,799408093e-02    3,475664854e-01    2,301860414e-02    5,041951686e-02    0,000000000e+00    0,000000000e+00    0,000000000e+00    0,000000000e+00
     1248000000    1,183638200e-01    2,506424189e-01   -4,047530703e-03    2,740582824e-02    0,000000000e+00    0,000000000e+00    0,000000000e+00    0,000000000e+00
     1262000000    2,057035416e-01    1,005698815e-01    1,572250738e-03    2,900244482e-02    0,000000000e+00    0,000000000e+00    0,000000000e+00    0,000000000e+00
     1276000000    2,346988767e-01   -5,543523282e-02    2,212792821e-02    4,055879638e-02    0,000000000e+00    0,000000000e+00    0,000000000e+00    0,000000000e+00
     1290000000    1,935212463e-01   -2,116877884e-01    5,541835725e-02    2,354487032e-02    0,000000000e+00    0,000000000e+00    0,000000000e+00    0,000000000e+00
     1304000000    8,640704304e-02   -3,562152088e-01    8,267346025e-02    8,656022139e-03    0,000000000e+00    0,000000000e+00    0,000000000e+00    0,000000000e+00
     1318000000   -1,042990685e-01   -4,473206401e-01    8,233354241e-02   -8,533311076e-03    0,000000000e+00    0,000000000e+00    0,000000000e+00    0,000000000e+00
     1332000000   -3,530414701e-01   -4,368722141e-01    9,628636390e-02   -1,239144616e-02    0,000000000e+00    0,000000000e+00    0,000000000e+00    0,000000000e+00
     1346000000   -5,858811140e-01   -2,459464520e-01    1,072123051e-01   -2,728833584e-03    0,000000000e+00    0,000000000e+00    0,000000000e+00    0,000000000e+00
     1360000000   -6,503896117e-01    6,578119844e-02    1,425197572e-01   -2,094648033e-02    0,000000000e+00    0,000000000e+00    0,000000000e+00    0,000000000e+00
     1374000000   -4,907624424e-01    3,318273127e-01    1,613305658e-01   -4,580200836e-02    0,000000000e+00    0,000000000e+00    0,000000000e+00    0,000000000e+00
     1388000000   -2,475740612e-01    4,256153405e-01    1,718886346e-01   -8,256615698e-02    0,000000000e+00    0,000000000e+00    0,000000000e+00    0,000000000e+00
     1402000000   -4,384738579e-02    3,906873465e-01    1,437069923e-01   -9,808936715e-02    0,000000000e+00    0,000000000e+00    0,000000000e+00    0,000000000e+00
     1416000000    9,895698726e-02    2,812964320e-01    1,179152280e-01   -8,572092652e-02    0,000000000e+00    0,000000000e+00    0,000000000e+00    0,000000000e+00
     1430000000    1,919513792e-01    1,464231461e-01    1,462112069e-01   -7,177051157e-02    0,000000000e+00    0,000000000e+00    0,000000000e+00    0,000000000e+00
     1444000000    2,178723067e-01   -1,120223757e-02    1,282335818e-01   -2,616826631e-02    0,000000000e+00    0,000000000e+00    0,000000000e+00    0,000000000e+00
     1458000000    1,804122776e-01   -1,828441620e-01    1,455234587e-01    7,528302260e-03    0,000000000e+00    0,000000000e+00    0,000000000e+00    0,000000000e+00
     1472000000    7,728014141e-02   -3,473864794e-01    2,048284113e-01    6,491979212e-02    0,000000000e+00    0,000000000e+00    0,000000000e+00    0,000000000e+00
     1486000000   -1,443475038e-01   -4,716311097e-01    3,020712733e-01    1,031176373e-01    0,000000000e+00    0,000000000e+00    0,000000000e+00    0,000000000e+00
     1500000000   -4,562978446e-01   -4,768213928e-01    3,996060789e-01    6,055560336e-02    0,000000000e+00    0,000000000e+00    0,000000000e+00    0,000000000e+00
