! NanoVNA-App
! Date: 2025-09-25 16:02:08
! Start: 100MHz Stop: 1,5GHz Points: 101
! S-Parameter data: F S11 S21 S12 S22
# Hz S RI R 50
!     Frequency           S11_Real           S11_Imag           S21_Real           S21_Imag           S12_Real           S12_Imag           S22_Real           S22_Imag
      100000000   -2,830527723e-02   -2,872903831e-03    3,723022938e-01   -7,224044204e-01    0,000000000e+00    0,000000000e+00    0,000000000e+00    0,000000000e+00
      114000000   -1,573787443e-02    1,288572513e-02   -9,134797752e-02   -8,047634363e-01    0,000000000e+00    0,000000000e+00    0,000000000e+00    0,000000000e+00
      128000000    4,361085128e-03    1,195899025e-02   -5,159593821e-01   -6,189131737e-01    0,000000000e+00    0,000000000e+00    0,000000000e+00    0,000000000e+00
      142000000    1,547591388e-02   -1,721724635e-03   -7,674716711e-01   -2,342075557e-01    0,000000000e+00    0,000000000e+00    0,000000000e+00    0,000000000e+00
      156000000    1,622643881e-02   -1,370711252e-02   -7,706738710e-01    2,249583155e-01    0,000000000e+00    0,000000000e+00    0,000000000e+00    0,000000000e+00
      170000000    1,770190895e-02   -2,094734646e-02   -5,152175426e-01    6,059523225e-01    0,000000000e+00    0,000000000e+00    0,000000000e+00    0,000000000e+00
      184000000    2,197419107e-02   -3,557629511e-02   -9,827157855e-02    7,863405347e-01    0,000000000e+00    0,000000000e+00    0,000000000e+00    0,000000000e+00
      198000000    1,407300588e-02   -6,066113338e-02    3,456931710e-01    7,105692029e-01    0,000000000e+00    0,000000000e+00    0,000000000e+00    0,000000000e+00
      212000000   -1,769086346e-02   -7,915710658e-02    6,808637381e-01    4,062608480e-01    0,000000000e+00    0,000000000e+00    0,000000000e+00    0,000000000e+00
      226000000   -6,028614193e-02   -6,660486013e-02    7,958284616e-01   -3,561377153e-02    0,000000000e+00    0,000000000e+00    0,000000000e+00    0,000000000e+00
      240000000   -8,052523434e-02   -2,267379500e-02    6,417289972e-01   -4,717339873e-01    0,000000000e+00    0,000000000e+00    0,000000000e+00    0,000000000e+00
      254000000   -6,074101478e-02    1,986392029e-02    2,714068592e-01   -7,418947816e-01    0,000000000e+00    0,000000000e+00    0,000000000e+00    0,000000000e+00
      268000000   -2,098514326e-02    3,086156584e-02   -1,810141653e-01   -7,612967491e-01    0,000000000e+00    0,000000000e+00    0,000000000e+00    0,000000000e+00
      282000000    6,913673598e-03    1,368077751e-02   -5,634741187e-01   -5,327715874e-01    0,000000000e+00    0,000000000e+00    0,000000000e+00    0,000000000e+00
      296000000    1,245217957e-02   -6,351500284e-03   -7,604998946e-01   -1,342187673e-01    0,000000000e+00    0,000000000e+00    0,000000000e+00    0,000000000e+00
      310000000    1,372200903e-02   -1,453907043e-02   -7,085784078e-01    3,038355708e-01    0,000000000e+00    0,000000000e+00    0,000000000e+00    0,000000000e+00
      324000000    2,233132906e-02   -2,471672371e-02   -4,217095077e-01    6,396003366e-01    0,000000000e+00    0,000000000e+00    0,000000000e+00    0,000000000e+00
      338000000    2,841947600e-02   -5,068210512e-02   -2,391742542e-03    7,587676048e-01    0,000000000e+00    0,000000000e+00    0,000000000e+00    0,000000000e+00
      352000000    1,026774943e-02   -8,312439919e-02    4,113102555e-01    6,355044842e-01    0,000000000e+00    0,000000000e+00    0,000000000e+00    0,000000000e+00
      366000000   -3,191889077e-02   -9,377013892e-02    6,932054758e-01    3,042250872e-01    0,000000000e+00    0,000000000e+00    0,000000000e+00    0,000000000e+00
      380000000   -6,796883792e-02   -6,862317771e-02    7,458779812e-01   -1,343484074e-01    0,000000000e+00    0,000000000e+00    0,000000000e+00    0,000000000e+00
      394000000   -6,865912676e-02   -3,043235652e-02    5,395424962e-01   -5,275448561e-01    0,000000000e+00    0,000000000e+00    0,000000000e+00    0,000000000e+00
      408000000   -4,272822291e-02   -1,520365383e-02    1,496951729e-01   -7,336047292e-01    0,000000000e+00    0,000000000e+00    0,000000000e+00    0,000000000e+00
      422000000   -2,588869445e-02   -3,136005998e-02   -2,791990936e-01   -6,888853312e-01    0,000000000e+00    0,000000000e+00    0,000000000e+00    0,000000000e+00
      436000000   -3,943137079e-02   -4,919600859e-02   -6,106785536e-01   -4,192508757e-01    0,000000000e+00    0,000000000e+00    0,000000000e+00    0,000000000e+00
      450000000   -6,454700232e-02   -3,932550550e-02   -7,372001410e-01   -7,632578723e-03    0,000000000e+00    0,000000000e+00    0,000000000e+00    0,000000000e+00
      464000000   -6,748113781e-02   -5,789664574e-03   -6,074870825e-01    4,060586393e-01    0,000000000e+00    0,000000000e+00    0,000000000e+00    0,000000000e+00
      478000000   -3,879211843e-02    1,571135409e-02   -2,674002945e-01    6,695118546e-01    0,000000000e+00    0,000000000e+00    0,000000000e+00    0,000000000e+00
      492000000   -5,261565093e-03    6,188894156e-03    1,516859680e-01    6,950752735e-01    0,000000000e+00    0,000000000e+00    0,000000000e+00    0,000000000e+00
      506000000    6,789644714e-03   -2,010475658e-02    5,078058839e-01    4,885216951e-01    0,000000000e+00    0,000000000e+00    0,000000000e+00    0,000000000e+00
      520000000    5,023698322e-04   -3,868366778e-02    6,895775795e-01    1,222203523e-01    0,000000000e+00    0,000000000e+00    0,000000000e+00    0,000000000e+00
      534000000   -2,977228025e-03   -4,545456544e-02    6,330700517e-01   -2,819949389e-01    0,000000000e+00    0,000000000e+00    0,000000000e+00    0,000000000e+00
      548000000    1,085622120e-03   -5,980683118e-02    3,601740599e-01   -5,791621208e-01    0,000000000e+00    0,000000000e+00    0,000000000e+00    0,000000000e+00
      562000000   -7,534492761e-03   -8,892057836e-02   -2,600467578e-02   -6,729881167e-01    0,000000000e+00    0,000000000e+00    0,000000000e+00    0,000000000e+00
      576000000   -4,549928010e-02   -1,093928516e-01   -4,010607004e-01   -5,381593108e-01    0,000000000e+00    0,000000000e+00    0,000000000e+00    0,000000000e+00
      590000000   -9,491410106e-02   -9,354167432e-02   -6,422645450e-01   -2,190208435e-01    0,000000000e+00    0,000000000e+00    0,000000000e+00    0,000000000e+00
      604000000   -1,116277799e-01   -4,108980671e-02   -6,476718783e-01    1,981094331e-01    0,000000000e+00    0,000000000e+00    0,000000000e+00    0,000000000e+00
      618000000   -7,639877498e-02   -2,617051825e-03   -4,018805027e-01    5,354198217e-01    0,000000000e+00    0,000000000e+00    0,000000000e+00    0,000000000e+00
      632000000   -3,015204705e-02   -2,069437504e-02   -1,251672115e-02    6,554073691e-01    0,000000000e+00    0,000000000e+00    0,000000000e+00    0,000000000e+00
      646000000   -3,569225222e-02   -7,672672719e-02    3,663582504e-01    5,281863213e-01    0,000000000e+00    0,000000000e+00    0,000000000e+00    0,000000000e+00
      660000000   -1,109619737e-01   -9,914185852e-02    6,012801528e-01    1,938457489e-01    0,000000000e+00    0,000000000e+00    0,000000000e+00    0,000000000e+00
      674000000   -1,991260648e-01   -2,321327105e-02    5,655614138e-01   -2,393188030e-01    0,000000000e+00    0,000000000e+00    0,000000000e+00    0,000000000e+00
      688000000   -1,788050979e-01    1,449560821e-01    2,094007283e-01   -5,227405429e-01    0,000000000e+00    0,000000000e+00    0,000000000e+00    0,000000000e+00
      702000000    2,573501319e-02    2,465645522e-01   -2,030344158e-01   -4,059990048e-01    0,000000000e+00    0,000000000e+00    0,000000000e+00    0,000000000e+00
      716000000    2,636169791e-01    1,105685607e-01   -2,738565207e-01   -8,409252763e-02    0,000000000e+00    0,000000000e+00    0,000000000e+00    0,000000000e+00
      730000000    3,036524653e-01   -1,861079186e-01   -1,079422012e-01    3,269063681e-02    0,000000000e+00    0,000000000e+00    0,000000000e+00    0,000000000e+00
      744000000    9,379696101e-02   -4,268462658e-01   -4,239729047e-02   -6,418664753e-02    0,000000000e+00    0,000000000e+00    0,000000000e+00    0,000000000e+00
      758000000   -2,579093575e-01   -4,294927716e-01   -1,752066314e-01   -1,252407581e-01    0,000000000e+00    0,000000000e+00    0,000000000e+00    0,000000000e+00
      772000000   -4,866642356e-01   -1,199014559e-01   -3,357645869e-01    3,768819198e-02    0,000000000e+00    0,000000000e+00    0,000000000e+00    0,000000000e+00
      786000000   -3,428271413e-01    2,211405933e-01   -2,629992068e-01    3,163160682e-01    0,000000000e+00    0,000000000e+00    0,000000000e+00    0,000000000e+00
      800000000   -4,118348286e-02    2,768907249e-01    3,319712821e-03    4,361718297e-01    0,000000000e+00    0,000000000e+00    0,000000000e+00    0,000000000e+00
      814000000    1,442245245e-01    1,259861588e-01    2,633164823e-01    3,586990833e-01    0,000000000e+00    0,000000000e+00    0,000000000e+00    0,000000000e+00
      828000000    1,679707170e-01   -7,004204392e-02    4,332607687e-01    1,569976807e-01    0,000000000e+00    0,000000000e+00    0,000000000e+00    0,000000000e+00
      842000000    6,778027117e-02   -2,184944898e-01    4,667321146e-01   -1,196023077e-01    0,000000000e+00    0,000000000e+00    0,000000000e+00    0,000000000e+00
      856000000   -1,061778739e-01   -2,637672722e-01    3,193563521e-01   -3,948608935e-01    0,000000000e+00    0,000000000e+00    0,000000000e+00    0,000000000e+00
      870000000   -2,754132748e-01   -1,684927344e-01   -3,156390274e-03   -5,269396901e-01    0,000000000e+00    0,000000000e+00    0,000000000e+00    0,000000000e+00
      884000000   -3,209685981e-01    3,527954221e-02   -3,492130935e-01   -3,932170570e-01    0,000000000e+00    0,000000000e+00    0,000000000e+00    0,000000000e+00
      898000000   -1,913836151e-01    2,066072524e-01   -4,882574975e-01   -6,235105917e-02    0,000000000e+00    0,000000000e+00    0,000000000e+00    0,000000000e+00
      912000000    6,383489817e-03    2,201969475e-01   -3,931469619e-01    2,718149722e-01    0,000000000e+00    0,000000000e+00    0,000000000e+00    0,000000000e+00
      926000000    1,518024504e-01    1,133308113e-01   -1,683401614e-01    4,164071679e-01    0,000000000e+00    0,000000000e+00    0,000000000e+00    0,000000000e+00
      940000000    1,977220029e-01   -4,671626166e-02    6,467527896e-02    4,241037071e-01    0,000000000e+00    0,000000000e+00    0,000000000e+00    0,000000000e+00
      954000000    1,537486017e-01   -2,049006075e-01    2,615413070e-01    3,407652378e-01    0,000000000e+00    0,000000000e+00    0,000000000e+00    0,000000000e+00
      968000000    2,222011425e-02   -3,124361634e-01    4,128978252e-01    1,788104177e-01    0,000000000e+00    0,000000000e+00    0,000000000e+00    0,000000000e+00
      982000000   -1,646892875e-01   -3,306734562e-01    4,749087989e-01   -6,717128307e-02    0,000000000e+00    0,000000000e+00    0,000000000e+00    0,000000000e+00
      996000000   -3,285544515e-01   -2,108957022e-01    3,689972162e-01   -3,574470878e-01    0,000000000e+00    0,000000000e+00    0,000000000e+00    0,000000000e+00
     1010000000   -3,389415145e-01   -4,559766967e-03    4,073964432e-02   -5,254488587e-01    0,000000000e+00    0,000000000e+00    0,000000000e+00    0,000000000e+00
     1024000000   -2,069399059e-01    9,560117871e-02   -3,457296193e-01   -3,799259365e-01    0,000000000e+00    0,000000000e+00    0,000000000e+00    0,000000000e+00
     1038000000   -1,380945444e-01    9,591013193e-03   -4,812906981e-01    6,499651074e-02    0,000000000e+00    0,000000000e+00    0,000000000e+00    0,000000000e+00
     1052000000   -2,907774150e-01    5,325578526e-02   -9,283480793e-02    3,700256348e-01    0,000000000e+00    0,000000000e+00    0,000000000e+00    0,000000000e+00
     1066000000   -1,511703432e-01    2,942257226e-01    1,420690119e-01    1,329569072e-01    0,000000000e+00    0,000000000e+00    0,000000000e+00    0,000000000e+00
     1080000000    1,021056622e-01    2,473001182e-01    8,868462592e-02    2,159093320e-02    0,000000000e+00    0,000000000e+00    0,000000000e+00    0,000000000e+00
     1094000000    2,189440876e-01    9,046120197e-02    6,733644009e-02    9,637734853e-03    0,000000000e+00    0,000000000e+00    0,000000000e+00    0,000000000e+00
     1108000000    2,399353832e-01   -8,865414560e-02    8,231832832e-02   -9,850021452e-04    0,000000000e+00    0,000000000e+00    0,000000000e+00    0,000000000e+00
     1122000000    1,831957996e-01   -2,543785572e-01    1,040402427e-01   -2,525227331e-02    0,000000000e+00    0,000000000e+00    0,000000000e+00    0,000000000e+00
     1136000000    5,108228698e-02   -3,813151717e-01    1,255070567e-01   -7,148655504e-02    0,000000000e+00    0,000000000e+00    0,000000000e+00    0,000000000e+00
     1150000000   -1,566609144e-01   -4,206668139e-01    1,375977695e-01   -1,526117474e-01    0,000000000e+00    0,000000000e+00    0,000000000e+00    0,000000000e+00
     1164000000   -3,831861615e-01   -3,220914900e-01    1,005633324e-01   -2,755164206e-01    0,000000000e+00    0,000000000e+00    0,000000000e+00    0,000000000e+00
     1178000000   -4,612695277e-01   -8,870692551e-02   -1,026898772e-01   -4,064402282e-01    0,000000000e+00    0,000000000e+00    0,000000000e+00    0,000000000e+00
     1192000000   -3,716241419e-01    3,740208596e-02   -4,621933699e-01   -1,973403692e-01    0,000000000e+00    0,000000000e+00    0,000000000e+00    0,000000000e+00
     1206000000   -4,181839526e-01    1,302431226e-01   -2,759721875e-01    2,371019125e-01    0,000000000e+00    0,000000000e+00    0,000000000e+00    0,000000000e+00
     1220000000   -2,744057775e-01    3,364524841e-01   -1,793193282e-03    1,627991050e-01    0,000000000e+00    0,000000000e+00    0,000000000e+00    0,000000000e+00
     1234000000   -4,462193325e-02    3,463908434e-01    2,525660396e-02    5,479895324e-02    0,000000000e+00    0,000000000e+00    0,000000000e+00    0,000000000e+00
     1248000000    1,278945059e-01    2,468456775e-01    3,332172753e-03    2,395739220e-02    0,000000000e+00    0,000000000e+00    0,000000000e+00    0,000000000e+00
     1262000000    2,135467529e-01    1,070014983e-01    5,647583399e-03    3,052381612e-02    0,000000000e+00    0,000000000e+00    0,000000000e+00    0,000000000e+00
     1276000000    2,372508794e-01   -5,653770640e-02    2,920844406e-02    3,895286843e-02    0,000000000e+00    0,000000000e+00    0,000000000e+00    0,000000000e+00
     1290000000    1,904651672e-01   -2,156344652e-01    5,137663335e-02    2,725704014e-02    0,000000000e+00    0,000000000e+00    0,000000000e+00    0,000000000e+00
     1304000000    8,657687157e-02   -3,568583727e-01    7,549077272e-02    6,835456472e-03    0,000000000e+00    0,000000000e+00    0,000000000e+00    0,000000000e+00
     1318000000   -1,002562121e-01   -4,491061270e-01    8,747069538e-02   -6,690383423e-03    0,000000000e+00    0,000000000e+00    0,000000000e+00    0,000000000e+00
     1332000000   -3,522538245e-01   -4,338651597e-01    8,989538997e-02   -9,076164104e-03    0,000000000e+00    0,000000000e+00    0,000000000e+00    0,000000000e+00
     1346000000   -5,935131907e-01   -2,438969314e-01    1,115450412e-01   -1,044498198e-02    0,000000000e+00    0,000000000e+00    0,000000000e+00    0,000000000e+00
     1360000000   -6,506783366e-01    7,523433119e-02    1,446273923e-01   -1,676420122e-02    0,000000000e+00    0,000000000e+00    0,000000000e+00    0,000000000e+00
     1374000000   -4,893309772e-01    3,261931837e-01    1,640842855e-01   -5,680080503e-02    0,000000000e+00    0,000000000e+00    0,000000000e+00    0,000000000e+00
     1388000000   -2,552745342e-01    4,332389832e-01    1,497956663e-01   -7,789015025e-02    0,000000000e+00    0,000000000e+00    0,000000000e+00    0,000000000e+00
     1402000000   -4,204798490e-02    3,903423548e-01    1,473693252e-01   -1,009085551e-01    0,000000000e+00    0,000000000e+00    0,000000000e+00    0,000000000e+00
     1416000000    1,027045324e-01    2,876327932e-01    1,285909563e-01   -8,902665973e-02    0,000000000e+00    0,000000000e+00    0,000000000e+00    0,000000000e+00
     1430000000    1,883917004e-01    1,523506939e-01    1,304700524e-01   -4,097816721e-02    0,000000000e+00    0,000000000e+00    0,000000000e+00    0,000000000e+00
     1444000000    2,096450031e-01   -1,398136653e-02    1,175795719e-01   -2,241774276e-02    0,000000000e+00    0,000000000e+00    0,000000000e+00    0,000000000e+00
     1458000000    1,788187772e-01   -1,863930672e-01    1,359125227e-01    1,699862443e-02    0,000000000e+00    0,000000000e+00    0,000000000e+00    0,000000000e+00
     1472000000    6,308522820e-02   -3,492696583e-01    1,954628825e-01    5,284818634e-02    0,000000000e+00    0,000000000e+00    0,000000000e+00    0,000000000e+00
     1486000000   -1,416471899e-01   -4,678672850e-01    2,898531854e-01    9,989506751e-02    0,000000000e+00    0,000000000e+00    0,000000000e+00    0,000000000e+00
     1500000000   -4,401833415e-01   -4,782964587e-01    4,181156158e-01    5,446255580e-02    0,000000000e+00    0,000000000e+00    0,000000000e+00    0,000000000e+00
