! NanoVNA-App
! Date: 2025-09-25 15:58:21
! Start: 100MHz Stop: 1,5GHz Points: 101
! S-Parameter data: F S11 S21 S12 S22
# Hz S RI R 50
!     Frequency           S11_Real           S11_Imag           S21_Real           S21_Imag           S12_Real           S12_Imag           S22_Real           S22_Imag
      100000000   -2,823686600e-02   -2,844195114e-03    3,722912371e-01   -7,224814892e-01    0,000000000e+00    0,000000000e+00    0,000000000e+00    0,000000000e+00
      114000000   -1,564523019e-02    1,288174372e-02   -9,129811823e-02   -8,045130372e-01    0,000000000e+00    0,000000000e+00    0,000000000e+00    0,000000000e+00
      128000000    4,385885317e-03    1,190353557e-02   -5,157951117e-01   -6,185445189e-01    0,000000000e+00    0,000000000e+00    0,000000000e+00    0,000000000e+00
      142000000    1,548997313e-02   -1,787839574e-03   -7,673454881e-01   -2,340803295e-01    0,000000000e+00    0,000000000e+00    0,000000000e+00    0,000000000e+00
      156000000    1,559406146e-02   -1,365010813e-02   -7,701333761e-01    2,231287062e-01    0,000000000e+00    0,000000000e+00    0,000000000e+00    0,000000000e+00
      170000000    1,758932136e-02   -2,104116604e-02   -5,154785514e-01    6,062138081e-01    0,000000000e+00    0,000000000e+00    0,000000000e+00    0,000000000e+00
      184000000    2,201461233e-02   -3,555315360e-02   -9,826022387e-02    7,857633233e-01    0,000000000e+00    0,000000000e+00    0,000000000e+00    0,000000000e+00
      198000000    1,398656238e-02   -6,066440046e-02    3,459978700e-01    7,104086876e-01    0,000000000e+00    0,000000000e+00    0,000000000e+00    0,000000000e+00
      212000000   -1,768195815e-02   -7,911547273e-02    6,805607080e-01    4,060484469e-01    0,000000000e+00    0,000000000e+00    0,000000000e+00    0,000000000e+00
      226000000   -6,033291295e-02   -6,667634100e-02    7,956419587e-01   -3,543105721e-02    0,000000000e+00    0,000000000e+00    0,000000000e+00    0,000000000e+00
      240000000   -8,051623404e-02   -2,279943787e-02    6,415805221e-01   -4,717231393e-01    0,000000000e+00    0,000000000e+00    0,000000000e+00    0,000000000e+00
      254000000   -6,080799922e-02    1,980272681e-02    2,709074020e-01   -7,420721650e-01    0,000000000e+00    0,000000000e+00    0,000000000e+00    0,000000000e+00
      268000000   -2,090898156e-02    3,082499467e-02   -1,809530705e-01   -7,607902288e-01    0,000000000e+00    0,000000000e+00    0,000000000e+00    0,000000000e+00
      282000000    6,897854619e-03    1,379531994e-02   -5,629124045e-01   -5,326197743e-01    0,000000000e+00    0,000000000e+00    0,000000000e+00    0,000000000e+00
      296000000    1,245027874e-02   -6,165843923e-03   -7,606245279e-01   -1,344496757e-01    0,000000000e+00    0,000000000e+00    0,000000000e+00    0,000000000e+00
      310000000    1,364903338e-02   -1,458031405e-02   -7,077429295e-01    3,055183291e-01    0,000000000e+00    0,000000000e+00    0,000000000e+00    0,000000000e+00
      324000000    2,253681421e-02   -2,469081059e-02   -4,212513566e-01    6,387684941e-01    0,000000000e+00    0,000000000e+00    0,000000000e+00    0,000000000e+00
      338000000    2,807624266e-02   -5,043019354e-02   -9,907811182e-04    7,596666813e-01    0,000000000e+00    0,000000000e+00    0,000000000e+00    0,000000000e+00
      352000000    1,030370034e-02   -8,270554245e-02    4,107484221e-01    6,355475187e-01    0,000000000e+00    0,000000000e+00    0,000000000e+00    0,000000000e+00
      366000000   -3,159746528e-02   -9,373430908e-02    6,936530471e-01    3,036285341e-01    0,000000000e+00    0,000000000e+00    0,000000000e+00    0,000000000e+00
      380000000   -6,757226586e-02   -6,874282658e-02    7,461244464e-01   -1,339460760e-01    0,000000000e+00    0,000000000e+00    0,000000000e+00    0,000000000e+00
      394000000   -6,850086153e-02   -3,059708513e-02    5,398029089e-01   -5,291928649e-01    0,000000000e+00    0,000000000e+00    0,000000000e+00    0,000000000e+00
      408000000   -4,268547148e-02   -1,574830152e-02    1,494371444e-01   -7,351825237e-01    0,000000000e+00    0,000000000e+00    0,000000000e+00    0,000000000e+00
      422000000   -2,627200447e-02   -3,091243841e-02   -2,788808048e-01   -6,890842915e-01    0,000000000e+00    0,000000000e+00    0,000000000e+00    0,000000000e+00
      436000000   -3,927050531e-02   -4,910224304e-02   -6,103485227e-01   -4,192611575e-01    0,000000000e+00    0,000000000e+00    0,000000000e+00    0,000000000e+00
      450000000   -6,502161175e-02   -3,928094730e-02   -7,372266650e-01   -7,453804836e-03    0,000000000e+00    0,000000000e+00    0,000000000e+00    0,000000000e+00
      464000000   -6,743873656e-02   -6,171288434e-03   -6,076529026e-01    4,059323370e-01    0,000000000e+00    0,000000000e+00    0,000000000e+00    0,000000000e+00
      478000000   -3,865959868e-02    1,574021392e-02   -2,676699460e-01    6,703301668e-01    0,000000000e+00    0,000000000e+00    0,000000000e+00    0,000000000e+00
      492000000   -4,933432676e-03    6,178191397e-03    1,511476338e-01    6,955259442e-01    0,000000000e+00    0,000000000e+00    0,000000000e+00    0,000000000e+00
      506000000    6,706913467e-03   -2,026011050e-02    5,073116422e-01    4,882445633e-01    0,000000000e+00    0,000000000e+00    0,000000000e+00    0,000000000e+00
      520000000    5,642761244e-04   -3,880270943e-02    6,904208660e-01    1,218127385e-01    0,000000000e+00    0,000000000e+00    0,000000000e+00    0,000000000e+00
      534000000   -3,070789389e-03   -4,522599652e-02    6,325413585e-01   -2,817080915e-01    0,000000000e+00    0,000000000e+00    0,000000000e+00    0,000000000e+00
      548000000    1,202591695e-03   -5,988602713e-02    3,600795865e-01   -5,796210170e-01    0,000000000e+00    0,000000000e+00    0,000000000e+00    0,000000000e+00
      562000000   -8,205190301e-03   -8,860700577e-02   -2,668235637e-02   -6,727936268e-01    0,000000000e+00    0,000000000e+00    0,000000000e+00    0,000000000e+00
      576000000   -4,543026909e-02   -1,098730043e-01   -4,014207721e-01   -5,379891992e-01    0,000000000e+00    0,000000000e+00    0,000000000e+00    0,000000000e+00
      590000000   -9,481562674e-02   -9,366034716e-02   -6,394352913e-01   -2,177084386e-01    0,000000000e+00    0,000000000e+00    0,000000000e+00    0,000000000e+00
      604000000   -1,118925661e-01   -4,144989699e-02   -6,477257013e-01    1,977362335e-01    0,000000000e+00    0,000000000e+00    0,000000000e+00    0,000000000e+00
      618000000   -7,593970746e-02   -2,808702644e-03   -4,016450047e-01    5,351187587e-01    0,000000000e+00    0,000000000e+00    0,000000000e+00    0,000000000e+00
      632000000   -2,963448875e-02   -2,144810371e-02   -1,151283085e-02    6,553075314e-01    0,000000000e+00    0,000000000e+00    0,000000000e+00    0,000000000e+00
      646000000   -3,594714776e-02   -7,668126374e-02    3,667103946e-01    5,275572538e-01    0,000000000e+00    0,000000000e+00    0,000000000e+00    0,000000000e+00
      660000000   -1,116107032e-01   -1,004518270e-01    6,005750895e-01    1,931810826e-01    0,000000000e+00    0,000000000e+00    0,000000000e+00    0,000000000e+00
      674000000   -1,999036819e-01   -2,323000878e-02    5,651867390e-01   -2,396765053e-01    0,000000000e+00    0,000000000e+00    0,000000000e+00    0,000000000e+00
      688000000   -1,779570282e-01    1,443047374e-01    2,097752094e-01   -5,215296745e-01    0,000000000e+00    0,000000000e+00    0,000000000e+00    0,000000000e+00
      702000000    2,612333000e-02    2,456838936e-01   -2,026110739e-01   -3,987683952e-01    0,000000000e+00    0,000000000e+00    0,000000000e+00    0,000000000e+00
      716000000    2,631015778e-01    1,108357161e-01   -2,730841339e-01   -8,388300985e-02    0,000000000e+00    0,000000000e+00    0,000000000e+00    0,000000000e+00
      730000000    3,029705286e-01   -1,860853434e-01   -1,070398018e-01    3,243819624e-02    0,000000000e+00    0,000000000e+00    0,000000000e+00    0,000000000e+00
      744000000    9,393022954e-02   -4,275816977e-01   -4,270440713e-02   -6,474138051e-02    0,000000000e+00    0,000000000e+00    0,000000000e+00    0,000000000e+00
      758000000   -2,591545582e-01   -4,284150004e-01   -1,748665571e-01   -1,255199313e-01    0,000000000e+00    0,000000000e+00    0,000000000e+00    0,000000000e+00
      772000000   -4,844464064e-01   -1,199171767e-01   -3,363969922e-01    3,820773214e-02    0,000000000e+00    0,000000000e+00    0,000000000e+00    0,000000000e+00
      786000000   -3,409876227e-01    2,217821330e-01   -2,622634470e-01    3,164499998e-01    0,000000000e+00    0,000000000e+00    0,000000000e+00    0,000000000e+00
      800000000   -4,126556590e-02    2,766773403e-01    2,696334384e-03    4,365765750e-01    0,000000000e+00    0,000000000e+00    0,000000000e+00    0,000000000e+00
      814000000    1,445489675e-01    1,250593364e-01    2,631393969e-01    3,591693640e-01    0,000000000e+00    0,000000000e+00    0,000000000e+00    0,000000000e+00
      828000000    1,681236327e-01   -6,996971369e-02    4,329555035e-01    1,566046476e-01    0,000000000e+00    0,000000000e+00    0,000000000e+00    0,000000000e+00
      842000000    6,773971766e-02   -2,179560214e-01    4,670321345e-01   -1,201140359e-01    0,000000000e+00    0,000000000e+00    0,000000000e+00    0,000000000e+00
      856000000   -1,066439003e-01   -2,642016411e-01    3,202227652e-01   -3,943382204e-01    0,000000000e+00    0,000000000e+00    0,000000000e+00    0,000000000e+00
      870000000   -2,746151984e-01   -1,678765416e-01   -2,137599047e-03   -5,259715915e-01    0,000000000e+00    0,000000000e+00    0,000000000e+00    0,000000000e+00
      884000000   -3,211733401e-01    3,535015136e-02   -3,490193188e-01   -3,933373690e-01    0,000000000e+00    0,000000000e+00    0,000000000e+00    0,000000000e+00
      898000000   -1,919518262e-01    2,067147046e-01   -4,886339009e-01   -6,215828657e-02    0,000000000e+00    0,000000000e+00    0,000000000e+00    0,000000000e+00
      912000000    7,657928858e-03    2,192783505e-01   -4,077321291e-01    2,798725963e-01    0,000000000e+00    0,000000000e+00    0,000000000e+00    0,000000000e+00
      926000000    1,512805372e-01    1,130323410e-01   -1,671115160e-01    4,169135094e-01    0,000000000e+00    0,000000000e+00    0,000000000e+00    0,000000000e+00
      940000000    1,981054693e-01   -4,706058651e-02    6,241720542e-02    4,236381948e-01    0,000000000e+00    0,000000000e+00    0,000000000e+00    0,000000000e+00
      954000000    1,521910280e-01   -2,004678398e-01    2,613179684e-01    3,429448009e-01    0,000000000e+00    0,000000000e+00    0,000000000e+00    0,000000000e+00
      968000000    2,235543728e-02   -3,141285479e-01    4,113606811e-01    1,799033433e-01    0,000000000e+00    0,000000000e+00    0,000000000e+00    0,000000000e+00
      982000000   -1,635388136e-01   -3,336342871e-01    4,763633013e-01   -6,581177562e-02    0,000000000e+00    0,000000000e+00    0,000000000e+00    0,000000000e+00
      996000000   -3,256680071e-01   -2,120655775e-01    3,690358400e-01   -3,557625413e-01    0,000000000e+00    0,000000000e+00    0,000000000e+00    0,000000000e+00
     1010000000   -3,376207352e-01   -7,832228206e-03    4,232664034e-02   -5,245302916e-01    0,000000000e+00    0,000000000e+00    0,000000000e+00    0,000000000e+00
     1024000000   -2,084186524e-01    9,203364700e-02   -3,447535634e-01   -3,792867661e-01    0,000000000e+00    0,000000000e+00    0,000000000e+00    0,000000000e+00
     1038000000   -1,358748823e-01    1,126775239e-02   -4,841369689e-01    6,273964047e-02    0,000000000e+00    0,000000000e+00    0,000000000e+00    0,000000000e+00
     1052000000   -2,841478884e-01    5,333458260e-02   -9,810458869e-02    3,738694787e-01    0,000000000e+00    0,000000000e+00    0,000000000e+00    0,000000000e+00
     1066000000   -1,451482922e-01    2,938257754e-01    1,423565596e-01    1,333318204e-01    0,000000000e+00    0,000000000e+00    0,000000000e+00    0,000000000e+00
     1080000000    1,023155823e-01    2,524584830e-01    9,041550756e-02    2,262309566e-02    0,000000000e+00    0,000000000e+00    0,000000000e+00    0,000000000e+00
     1094000000    2,201448530e-01    9,188238531e-02    6,932336837e-02    9,211346507e-03    0,000000000e+00    0,000000000e+00    0,000000000e+00    0,000000000e+00
     1108000000    2,450259477e-01   -8,791757375e-02    8,267731220e-02   -6,293877377e-04    0,000000000e+00    0,000000000e+00    0,000000000e+00    0,000000000e+00
     1122000000    1,883843839e-01   -2,510695755e-01    1,035726815e-01   -2,536243945e-02    0,000000000e+00    0,000000000e+00    0,000000000e+00    0,000000000e+00
     1136000000    4,724261910e-02   -3,792519569e-01    1,264239699e-01   -7,139891386e-02    0,000000000e+00    0,000000000e+00    0,000000000e+00    0,000000000e+00
     1150000000   -1,557283401e-01   -4,226303995e-01    1,370953470e-01   -1,514601707e-01    0,000000000e+00    0,000000000e+00    0,000000000e+00    0,000000000e+00
     1164000000   -3,822777271e-01   -3,239211142e-01    9,880357981e-02   -2,771830559e-01    0,000000000e+00    0,000000000e+00    0,000000000e+00    0,000000000e+00
     1178000000   -4,682778716e-01   -8,791069686e-02   -1,052339450e-01   -4,064454138e-01    0,000000000e+00    0,000000000e+00    0,000000000e+00    0,000000000e+00
     1192000000   -3,734854460e-01    3,461834416e-02   -4,630514681e-01   -1,956388503e-01    0,000000000e+00    0,000000000e+00    0,000000000e+00    0,000000000e+00
     1206000000   -4,157110155e-01    1,295981258e-01   -2,736023068e-01    2,357540429e-01    0,000000000e+00    0,000000000e+00    0,000000000e+00    0,000000000e+00
     1220000000   -2,737684846e-01    3,308555484e-01    9,719837690e-04    1,650968939e-01    0,000000000e+00    0,000000000e+00    0,000000000e+00    0,000000000e+00
     1234000000   -4,639657587e-02    3,502280116e-01    2,274989337e-02    6,008864567e-02    0,000000000e+00    0,000000000e+00    0,000000000e+00    0,000000000e+00
     1248000000    1,207842529e-01    2,509192228e-01   -2,599167870e-03    2,116370946e-02    0,000000000e+00    0,000000000e+00    0,000000000e+00    0,000000000e+00
     1262000000    2,148306519e-01    1,021766141e-01    5,627261475e-03    3,136833385e-02    0,000000000e+00    0,000000000e+00    0,000000000e+00    0,000000000e+00
     1276000000    2,355378419e-01   -5,412752181e-02    2,819911577e-02    3,845525533e-02    0,000000000e+00    0,000000000e+00    0,000000000e+00    0,000000000e+00
     1290000000    1,962005198e-01   -2,180151790e-01    5,660201237e-02    2,481540293e-02    0,000000000e+00    0,000000000e+00    0,000000000e+00    0,000000000e+00
     1304000000    8,203527331e-02   -3,562566340e-01    7,666472346e-02    1,190599799e-02    0,000000000e+00    0,000000000e+00    0,000000000e+00    0,000000000e+00
     1318000000   -9,908996522e-02   -4,490940273e-01    8,487799019e-02   -9,226140566e-03    0,000000000e+00    0,000000000e+00    0,000000000e+00    0,000000000e+00
     1332000000   -3,557760715e-01   -4,350119531e-01    7,921326160e-02   -1,059865765e-02    0,000000000e+00    0,000000000e+00    0,000000000e+00    0,000000000e+00
     1346000000   -5,932633281e-01   -2,514246404e-01    9,742730856e-02   -5,421288777e-03    0,000000000e+00    0,000000000e+00    0,000000000e+00    0,000000000e+00
     1360000000   -6,521596313e-01    7,654910535e-02    1,359671652e-01   -9,406868368e-03    0,000000000e+00    0,000000000e+00    0,000000000e+00    0,000000000e+00
     1374000000   -4,880693555e-01    3,332631588e-01    1,715113521e-01   -5,548465624e-02    0,000000000e+00    0,000000000e+00    0,000000000e+00    0,000000000e+00
     1388000000   -2,539957166e-01    4,303898811e-01    1,613805741e-01   -8,441361785e-02    0,000000000e+00    0,000000000e+00    0,000000000e+00    0,000000000e+00
     1402000000   -4,296876118e-02    3,897311687e-01    1,501181573e-01   -9,960605949e-02    0,000000000e+00    0,000000000e+00    0,000000000e+00    0,000000000e+00
     1416000000    1,013313234e-01    2,851610780e-01    1,268759519e-01   -7,608064264e-02    0,000000000e+00    0,000000000e+00    0,000000000e+00    0,000000000e+00
     1430000000    1,844122112e-01    1,536888182e-01    1,221905872e-01   -3,831405193e-02    0,000000000e+00    0,000000000e+00    0,000000000e+00    0,000000000e+00
     1444000000    2,164169103e-01   -8,069529198e-03    1,277129948e-01   -2,662372962e-02    0,000000000e+00    0,000000000e+00    0,000000000e+00    0,000000000e+00
     1458000000    1,783688217e-01   -1,841740757e-01    1,379018277e-01    1,580047607e-02    0,000000000e+00    0,000000000e+00    0,000000000e+00    0,000000000e+00
     1472000000    7,340056449e-02   -3,514215946e-01    2,043539435e-01    5,217794329e-02    0,000000000e+00    0,000000000e+00    0,000000000e+00    0,000000000e+00
     1486000000   -1,327306628e-01   -4,775170386e-01    3,050748706e-01    9,559386969e-02    0,000000000e+00    0,000000000e+00    0,000000000e+00    0,000000000e+00
     1500000000   -4,356028438e-01   -4,595365524e-01    4,134089947e-01    6,089684740e-02    0,000000000e+00    0,000000000e+00    0,000000000e+00    0,000000000e+00
