! NanoVNA-App
! Date: 2025-09-25 15:56:07
! Start: 100MHz Stop: 1,5GHz Points: 101
! S-Parameter data: F S11 S21 S12 S22
# Hz S RI R 50
!     Frequency           S11_Real           S11_Imag           S21_Real           S21_Imag           S12_Real           S12_Imag           S22_Real           S22_Imag
      100000000   -2,819947340e-02   -2,830053447e-03    3,722291291e-01   -7,225059271e-01    0,000000000e+00    0,000000000e+00    0,000000000e+00    0,000000000e+00
      114000000   -1,559099648e-02    1,287741307e-02   -9,117107093e-02   -8,046014905e-01    0,000000000e+00    0,000000000e+00    0,000000000e+00    0,000000000e+00
      128000000    4,440554418e-03    1,186246052e-02   -5,156308413e-01   -6,186909676e-01    0,000000000e+00    0,000000000e+00    0,000000000e+00    0,000000000e+00
      142000000    1,548535191e-02   -1,860575634e-03   -7,674971223e-01   -2,341522872e-01    0,000000000e+00    0,000000000e+00    0,000000000e+00    0,000000000e+00
      156000000    1,558488794e-02   -1,372564770e-02   -7,701096535e-01    2,231926918e-01    0,000000000e+00    0,000000000e+00    0,000000000e+00    0,000000000e+00
      170000000    1,764583401e-02   -2,099679224e-02   -5,154656768e-01    6,061256528e-01    0,000000000e+00    0,000000000e+00    0,000000000e+00    0,000000000e+00
      184000000    2,202981710e-02   -3,553814813e-02   -9,850691259e-02    7,856875062e-01    0,000000000e+00    0,000000000e+00    0,000000000e+00    0,000000000e+00
      198000000    1,401012484e-02   -6,067123264e-02    3,463706672e-01    7,110187411e-01    0,000000000e+00    0,000000000e+00    0,000000000e+00    0,000000000e+00
      212000000   -1,761085726e-02   -7,915879786e-02    6,805827022e-01    4,063670933e-01    0,000000000e+00    0,000000000e+00    0,000000000e+00    0,000000000e+00
      226000000   -6,028568372e-02   -6,665224582e-02    7,956009507e-01   -3,564727306e-02    0,000000000e+00    0,000000000e+00    0,000000000e+00    0,000000000e+00
      240000000   -8,056557924e-02   -2,277404070e-02    6,416138411e-01   -4,715208113e-01    0,000000000e+00    0,000000000e+00    0,000000000e+00    0,000000000e+00
      254000000   -6,083955988e-02    1,973289251e-02    2,711012661e-01   -7,415389419e-01    0,000000000e+00    0,000000000e+00    0,000000000e+00    0,000000000e+00
      268000000   -2,090479806e-02    3,083307296e-02   -1,812049299e-01   -7,611470222e-01    0,000000000e+00    0,000000000e+00    0,000000000e+00    0,000000000e+00
      282000000    6,938828155e-03    1,371502690e-02   -5,629525185e-01   -5,327105522e-01    0,000000000e+00    0,000000000e+00    0,000000000e+00    0,000000000e+00
      296000000    1,231505070e-02   -6,307953969e-03   -7,600719929e-01   -1,342088878e-01    0,000000000e+00    0,000000000e+00    0,000000000e+00    0,000000000e+00
      310000000    1,346281078e-02   -1,463660877e-02   -7,089068294e-01    3,040824533e-01    0,000000000e+00    0,000000000e+00    0,000000000e+00    0,000000000e+00
      324000000    2,257296443e-02   -2,489987575e-02   -4,217049479e-01    6,392580271e-01    0,000000000e+00    0,000000000e+00    0,000000000e+00    0,000000000e+00
      338000000    2,798006870e-02   -5,087229982e-02   -3,090467653e-04    7,600691915e-01    0,000000000e+00    0,000000000e+00    0,000000000e+00    0,000000000e+00
      352000000    1,025121938e-02   -8,283041418e-02    4,117782712e-01    6,351689696e-01    0,000000000e+00    0,000000000e+00    0,000000000e+00    0,000000000e+00
      366000000   -3,190072998e-02   -9,381417930e-02    6,927673817e-01    3,041253984e-01    0,000000000e+00    0,000000000e+00    0,000000000e+00    0,000000000e+00
      380000000   -6,773232669e-02   -6,889154017e-02    7,455042601e-01   -1,345015764e-01    0,000000000e+00    0,000000000e+00    0,000000000e+00    0,000000000e+00
      394000000   -6,853759289e-02   -3,054185957e-02    5,396625400e-01   -5,280328393e-01    0,000000000e+00    0,000000000e+00    0,000000000e+00    0,000000000e+00
      408000000   -4,279784113e-02   -1,555918809e-02    1,518114060e-01   -7,330873609e-01    0,000000000e+00    0,000000000e+00    0,000000000e+00    0,000000000e+00
      422000000   -2,610427514e-02   -3,110942058e-02   -2,792026103e-01   -6,904844642e-01    0,000000000e+00    0,000000000e+00    0,000000000e+00    0,000000000e+00
      436000000   -3,934659809e-02   -4,897769541e-02   -6,099821925e-01   -4,196487367e-01    0,000000000e+00    0,000000000e+00    0,000000000e+00    0,000000000e+00
      450000000   -6,487955153e-02   -3,901211545e-02   -7,368702292e-01   -7,690778933e-03    0,000000000e+00    0,000000000e+00    0,000000000e+00    0,000000000e+00
      464000000   -6,800777465e-02   -6,049655844e-03   -6,078994274e-01    4,061900675e-01    0,000000000e+00    0,000000000e+00    0,000000000e+00    0,000000000e+00
      478000000   -3,843903914e-02    1,593087427e-02   -2,683283389e-01    6,700800061e-01    0,000000000e+00    0,000000000e+00    0,000000000e+00    0,000000000e+00
      492000000   -5,096606445e-03    6,087816786e-03    1,521201432e-01    6,944942474e-01    0,000000000e+00    0,000000000e+00    0,000000000e+00    0,000000000e+00
      506000000    6,999639329e-03   -2,027472295e-02    5,079623461e-01    4,874953330e-01    0,000000000e+00    0,000000000e+00    0,000000000e+00    0,000000000e+00
      520000000    5,539832273e-05   -3,860436380e-02    6,897692680e-01    1,212546304e-01    0,000000000e+00    0,000000000e+00    0,000000000e+00    0,000000000e+00
      534000000   -3,324125893e-03   -4,572275653e-02    6,327666044e-01   -2,820817530e-01    0,000000000e+00    0,000000000e+00    0,000000000e+00    0,000000000e+00
      548000000    1,072462765e-03   -6,017474830e-02    3,605553806e-01   -5,795288682e-01    0,000000000e+00    0,000000000e+00    0,000000000e+00    0,000000000e+00
      562000000   -7,808591239e-03   -8,867084235e-02   -2,668074332e-02   -6,726623178e-01    0,000000000e+00    0,000000000e+00    0,000000000e+00    0,000000000e+00
      576000000   -4,510828480e-02   -1,096885353e-01   -4,010579586e-01   -5,380639434e-01    0,000000000e+00    0,000000000e+00    0,000000000e+00    0,000000000e+00
      590000000   -9,485092014e-02   -9,339240193e-02   -6,410071254e-01   -2,167970389e-01    0,000000000e+00    0,000000000e+00    0,000000000e+00    0,000000000e+00
      604000000   -1,113818735e-01   -4,106922448e-02   -6,470986605e-01    1,980141550e-01    0,000000000e+00    0,000000000e+00    0,000000000e+00    0,000000000e+00
      618000000   -7,556749135e-02   -1,952553168e-03   -4,019952416e-01    5,358663797e-01    0,000000000e+00    0,000000000e+00    0,000000000e+00    0,000000000e+00
      632000000   -3,008985147e-02   -2,079043724e-02   -1,255830657e-02    6,554598808e-01    0,000000000e+00    0,000000000e+00    0,000000000e+00    0,000000000e+00
      646000000   -3,586429730e-02   -7,685382664e-02    3,661205173e-01    5,272065401e-01    0,000000000e+00    0,000000000e+00    0,000000000e+00    0,000000000e+00
      660000000   -1,110441163e-01   -9,946612269e-02    6,008731723e-01    1,932930648e-01    0,000000000e+00    0,000000000e+00    0,000000000e+00    0,000000000e+00
      674000000   -2,002903074e-01   -2,325798757e-02    5,648409724e-01   -2,399348319e-01    0,000000000e+00    0,000000000e+00    0,000000000e+00    0,000000000e+00
      688000000   -1,792934984e-01    1,453008801e-01    2,087747753e-01   -5,215833783e-01    0,000000000e+00    0,000000000e+00    0,000000000e+00    0,000000000e+00
      702000000    2,635331079e-02    2,455537617e-01   -1,960435361e-01   -4,031598270e-01    0,000000000e+00    0,000000000e+00    0,000000000e+00    0,000000000e+00
      716000000    2,639325857e-01    1,109027863e-01   -2,722636461e-01   -8,330786228e-02    0,000000000e+00    0,000000000e+00    0,000000000e+00    0,000000000e+00
      730000000    3,030471504e-01   -1,862221360e-01   -1,061500460e-01    3,132702783e-02    0,000000000e+00    0,000000000e+00    0,000000000e+00    0,000000000e+00
      744000000    9,269580245e-02   -4,271174371e-01   -4,230553657e-02   -6,591765583e-02    0,000000000e+00    0,000000000e+00    0,000000000e+00    0,000000000e+00
      758000000   -2,596569955e-01   -4,294772148e-01   -1,758942008e-01   -1,252209395e-01    0,000000000e+00    0,000000000e+00    0,000000000e+00    0,000000000e+00
      772000000   -4,839017391e-01   -1,201991662e-01   -3,364095688e-01    3,856354579e-02    0,000000000e+00    0,000000000e+00    0,000000000e+00    0,000000000e+00
      786000000   -3,403357565e-01    2,210523337e-01   -2,629996240e-01    3,163949847e-01    0,000000000e+00    0,000000000e+00    0,000000000e+00    0,000000000e+00
      800000000   -4,031588882e-02    2,764340639e-01    2,347240690e-03    4,362848997e-01    0,000000000e+00    0,000000000e+00    0,000000000e+00    0,000000000e+00
      814000000    1,445382386e-01    1,250873506e-01    2,644537985e-01    3,598803580e-01    0,000000000e+00    0,000000000e+00    0,000000000e+00    0,000000000e+00
      828000000    1,674176604e-01   -7,020998001e-02    4,327568114e-01    1,571474373e-01    0,000000000e+00    0,000000000e+00    0,000000000e+00    0,000000000e+00
      842000000    6,730796397e-02   -2,185119241e-01    4,666035771e-01   -1,199664101e-01    0,000000000e+00    0,000000000e+00    0,000000000e+00    0,000000000e+00
      856000000   -1,077505723e-01   -2,637293339e-01    3,187788725e-01   -3,944838345e-01    0,000000000e+00    0,000000000e+00    0,000000000e+00    0,000000000e+00
      870000000   -2,741741240e-01   -1,688669771e-01   -2,480897587e-03   -5,271842480e-01    0,000000000e+00    0,000000000e+00    0,000000000e+00    0,000000000e+00
      884000000   -3,211166263e-01    3,533672541e-02   -3,485082686e-01   -3,931825757e-01    0,000000000e+00    0,000000000e+00    0,000000000e+00    0,000000000e+00
      898000000   -1,916530281e-01    2,053729892e-01   -4,892657399e-01   -6,336443126e-02    0,000000000e+00    0,000000000e+00    0,000000000e+00    0,000000000e+00
      912000000    7,170545869e-03    2,201677412e-01   -4,092454314e-01    2,753849328e-01    0,000000000e+00    0,000000000e+00    0,000000000e+00    0,000000000e+00
      926000000    1,491974443e-01    1,116265431e-01   -1,711678207e-01    4,149273932e-01    0,000000000e+00    0,000000000e+00    0,000000000e+00    0,000000000e+00
      940000000    1,996364444e-01   -4,753774032e-02    6,282307208e-02    4,255530834e-01    0,000000000e+00    0,000000000e+00    0,000000000e+00    0,000000000e+00
      954000000    1,554355025e-01   -2,027430385e-01    2,616110742e-01    3,422463834e-01    0,000000000e+00    0,000000000e+00    0,000000000e+00    0,000000000e+00
      968000000    2,414560504e-02   -3,167195022e-01    4,126168489e-01    1,791215539e-01    0,000000000e+00    0,000000000e+00    0,000000000e+00    0,000000000e+00
      982000000   -1,590484530e-01   -3,313086629e-01    4,754147232e-01   -6,640800089e-02    0,000000000e+00    0,000000000e+00    0,000000000e+00    0,000000000e+00
      996000000   -3,263245225e-01   -2,105107456e-01    3,680496514e-01   -3,572032452e-01    0,000000000e+00    0,000000000e+00    0,000000000e+00    0,000000000e+00
     1010000000   -3,409007192e-01   -9,858117439e-03    4,269348457e-02   -5,242207646e-01    0,000000000e+00    0,000000000e+00    0,000000000e+00    0,000000000e+00
     1024000000   -2,072582096e-01    9,610609710e-02   -3,456836641e-01   -3,801359534e-01    0,000000000e+00    0,000000000e+00    0,000000000e+00    0,000000000e+00
     1038000000   -1,356126964e-01    8,774794638e-03   -4,814865589e-01    6,190563738e-02    0,000000000e+00    0,000000000e+00    0,000000000e+00    0,000000000e+00
     1052000000   -2,874980569e-01    5,462991819e-02   -9,608829021e-02    3,728151321e-01    0,000000000e+00    0,000000000e+00    0,000000000e+00    0,000000000e+00
     1066000000   -1,455820352e-01    2,904429734e-01    1,413727105e-01    1,356071234e-01    0,000000000e+00    0,000000000e+00    0,000000000e+00    0,000000000e+00
     1080000000    9,805437922e-02    2,473486215e-01    9,168197215e-02    2,186085843e-02    0,000000000e+00    0,000000000e+00    0,000000000e+00    0,000000000e+00
     1094000000    2,179965228e-01    9,191649407e-02    7,157434523e-02    7,528696209e-03    0,000000000e+00    0,000000000e+00    0,000000000e+00    0,000000000e+00
     1108000000    2,396286428e-01   -8,646319062e-02    8,069537580e-02    7,295586984e-04    0,000000000e+00    0,000000000e+00    0,000000000e+00    0,000000000e+00
     1122000000    1,857297122e-01   -2,491117567e-01    1,040199921e-01   -2,551945113e-02    0,000000000e+00    0,000000000e+00    0,000000000e+00    0,000000000e+00
     1136000000    5,194308236e-02   -3,758719265e-01    1,249091551e-01   -7,232283056e-02    0,000000000e+00    0,000000000e+00    0,000000000e+00    0,000000000e+00
     1150000000   -1,577419490e-01   -4,241918027e-01    1,340205371e-01   -1,512647271e-01    0,000000000e+00    0,000000000e+00    0,000000000e+00    0,000000000e+00
     1164000000   -3,782529533e-01   -3,274169266e-01    9,454213828e-02   -2,770088911e-01    0,000000000e+00    0,000000000e+00    0,000000000e+00    0,000000000e+00
     1178000000   -4,673906267e-01   -8,602079749e-02   -1,046062186e-01   -4,028905332e-01    0,000000000e+00    0,000000000e+00    0,000000000e+00    0,000000000e+00
     1192000000   -3,710415363e-01    4,352744669e-02   -4,603398144e-01   -1,970580816e-01    0,000000000e+00    0,000000000e+00    0,000000000e+00    0,000000000e+00
     1206000000   -4,147243798e-01    1,293782741e-01   -2,766240239e-01    2,381895483e-01    0,000000000e+00    0,000000000e+00    0,000000000e+00    0,000000000e+00
     1220000000   -2,717319429e-01    3,275341094e-01   -5,100394133e-03    1,638728678e-01    0,000000000e+00    0,000000000e+00    0,000000000e+00    0,000000000e+00
     1234000000   -4,311631247e-02    3,536750078e-01    2,308420464e-02    5,597561598e-02    0,000000000e+00    0,000000000e+00    0,000000000e+00    0,000000000e+00
     1248000000    1,185894683e-01    2,517336309e-01   -7,949006394e-04    2,960155718e-02    0,000000000e+00    0,000000000e+00    0,000000000e+00    0,000000000e+00
     1262000000    2,168336213e-01    1,054051816e-01    7,598341443e-03    3,181570023e-02    0,000000000e+00    0,000000000e+00    0,000000000e+00    0,000000000e+00
     1276000000    2,368266433e-01   -5,366551504e-02    2,255082317e-02    3,991616517e-02    0,000000000e+00    0,000000000e+00    0,000000000e+00    0,000000000e+00
     1290000000    1,929520667e-01   -2,128043622e-01    5,935138464e-02    2,898549102e-02    0,000000000e+00    0,000000000e+00    0,000000000e+00    0,000000000e+00
     1304000000    8,177314699e-02   -3,550635278e-01    7,339657098e-02    6,099423394e-03    0,000000000e+00    0,000000000e+00    0,000000000e+00    0,000000000e+00
     1318000000   -1,022047922e-01   -4,455133379e-01    8,627422154e-02   -7,476284634e-03    0,000000000e+00    0,000000000e+00    0,000000000e+00    0,000000000e+00
     1332000000   -3,576013744e-01   -4,329755902e-01    8,893714845e-02   -2,086302266e-02    0,000000000e+00    0,000000000e+00    0,000000000e+00    0,000000000e+00
     1346000000   -5,887622833e-01   -2,533135712e-01    1,031537950e-01   -7,839215919e-03    0,000000000e+00    0,000000000e+00    0,000000000e+00    0,000000000e+00
     1360000000   -6,493408680e-01    7,008901238e-02    1,411781609e-01   -1,688567363e-02    0,000000000e+00    0,000000000e+00    0,000000000e+00    0,000000000e+00
     1374000000   -4,915001988e-01    3,287905753e-01    1,588536054e-01   -5,059761181e-02    0,000000000e+00    0,000000000e+00    0,000000000e+00    0,000000000e+00
     1388000000   -2,536192834e-01    4,322313964e-01    1,645610631e-01   -7,422294468e-02    0,000000000e+00    0,000000000e+00    0,000000000e+00    0,000000000e+00
     1402000000   -4,049948230e-02    3,918930888e-01    1,463341564e-01   -9,095596522e-02    0,000000000e+00    0,000000000e+00    0,000000000e+00    0,000000000e+00
     1416000000    1,076717079e-01    2,847152054e-01    1,311255544e-01   -8,224476874e-02    0,000000000e+00    0,000000000e+00    0,000000000e+00    0,000000000e+00
     1430000000    1,898703724e-01    1,394303143e-01    1,026527360e-01   -8,279819787e-02    0,000000000e+00    0,000000000e+00    0,000000000e+00    0,000000000e+00
     1444000000    2,169909328e-01   -8,284081705e-03    1,280863434e-01   -2,381943353e-02    0,000000000e+00    0,000000000e+00    0,000000000e+00    0,000000000e+00
     1458000000    1,804450899e-01   -1,815616041e-01    1,419008523e-01    2,229573578e-02    0,000000000e+00    0,000000000e+00    0,000000000e+00    0,000000000e+00
     1472000000    7,080822438e-02   -3,394742310e-01    2,115751058e-01    8,229273558e-02    0,000000000e+00    0,000000000e+00    0,000000000e+00    0,000000000e+00
     1486000000   -1,448716968e-01   -4,639682770e-01    2,785277367e-01    9,771651030e-02    0,000000000e+00    0,000000000e+00    0,000000000e+00    0,000000000e+00
     1500000000   -4,311234057e-01   -4,726727009e-01    4,096794724e-01    6,884910911e-02    0,000000000e+00    0,000000000e+00    0,000000000e+00    0,000000000e+00
