! NanoVNA-App
! Date: 2025-09-25 16:02:56
! Start: 100MHz Stop: 1,5GHz Points: 101
! S-Parameter data: F S11 S21 S12 S22
# Hz S RI R 50
!     Frequency           S11_Real           S11_Imag           S21_Real           S21_Imag           S12_Real           S12_Imag           S22_Real           S22_Imag
      100000000   -2,829485945e-02   -2,878862433e-03    3,723045290e-01   -7,224209309e-01    0,000000000e+00    0,000000000e+00    0,000000000e+00    0,000000000e+00
      114000000   -1,575635932e-02    1,292199083e-02   -9,119629115e-02   -8,049180508e-01    0,000000000e+00    0,000000000e+00    0,000000000e+00    0,000000000e+00
      128000000    4,327896982e-03    1,198188402e-02   -5,158544183e-01   -6,188157201e-01    0,000000000e+00    0,000000000e+00    0,000000000e+00    0,000000000e+00
      142000000    1,545655448e-02   -1,674681087e-03   -7,673608065e-01   -2,341240495e-01    0,000000000e+00    0,000000000e+00    0,000000000e+00    0,000000000e+00
      156000000    1,700889692e-02   -1,334447972e-02   -7,658100724e-01    2,261464596e-01    0,000000000e+00    0,000000000e+00    0,000000000e+00    0,000000000e+00
      170000000    1,772242971e-02   -2,099588700e-02   -5,155800581e-01    6,064856052e-01    0,000000000e+00    0,000000000e+00    0,000000000e+00    0,000000000e+00
      184000000    2,203392610e-02   -3,556783870e-02   -9,829317033e-02    7,860428691e-01    0,000000000e+00    0,000000000e+00    0,000000000e+00    0,000000000e+00
      198000000    1,407143287e-02   -6,062366068e-02    3,460290134e-01    7,107015252e-01    0,000000000e+00    0,000000000e+00    0,000000000e+00    0,000000000e+00
      212000000   -1,767709479e-02   -7,910483330e-02    6,808488965e-01    4,062701464e-01    0,000000000e+00    0,000000000e+00    0,000000000e+00    0,000000000e+00
      226000000   -6,031520665e-02   -6,664318591e-02    7,957937717e-01   -3,551579267e-02    0,000000000e+00    0,000000000e+00    0,000000000e+00    0,000000000e+00
      240000000   -8,050372452e-02   -2,281954139e-02    6,416651011e-01   -4,719353914e-01    0,000000000e+00    0,000000000e+00    0,000000000e+00    0,000000000e+00
      254000000   -6,074015051e-02    1,979867928e-02    2,714014947e-01   -7,419742346e-01    0,000000000e+00    0,000000000e+00    0,000000000e+00    0,000000000e+00
      268000000   -2,097534016e-02    3,090587072e-02   -1,811045408e-01   -7,609744072e-01    0,000000000e+00    0,000000000e+00    0,000000000e+00    0,000000000e+00
      282000000    6,883491762e-03    1,379182097e-02   -5,632739067e-01   -5,326222777e-01    0,000000000e+00    0,000000000e+00    0,000000000e+00    0,000000000e+00
      296000000    1,232748106e-02   -6,208863109e-03   -7,604845762e-01   -1,344486177e-01    0,000000000e+00    0,000000000e+00    0,000000000e+00    0,000000000e+00
      310000000    1,369573176e-02   -1,458193269e-02   -7,086522579e-01    3,032635748e-01    0,000000000e+00    0,000000000e+00    0,000000000e+00    0,000000000e+00
      324000000    2,249578945e-02   -2,459130809e-02   -4,213432670e-01    6,401227117e-01    0,000000000e+00    0,000000000e+00    0,000000000e+00    0,000000000e+00
      338000000    2,835098095e-02   -5,104267970e-02   -7,809742820e-04    7,605823874e-01    0,000000000e+00    0,000000000e+00    0,000000000e+00    0,000000000e+00
      352000000    1,022195257e-02   -8,281117678e-02    4,125096798e-01    6,349465847e-01    0,000000000e+00    0,000000000e+00    0,000000000e+00    0,000000000e+00
      366000000   -3,206269816e-02   -9,368939698e-02    6,932770610e-01    3,037865162e-01    0,000000000e+00    0,000000000e+00    0,000000000e+00    0,000000000e+00
      380000000   -6,794906408e-02   -6,881597638e-02    7,457085252e-01   -1,344016641e-01    0,000000000e+00    0,000000000e+00    0,000000000e+00    0,000000000e+00
      394000000   -6,850884855e-02   -3,073685057e-02    5,386993885e-01   -5,295994282e-01    0,000000000e+00    0,000000000e+00    0,000000000e+00    0,000000000e+00
      408000000   -4,275333136e-02   -1,580482349e-02    1,499303430e-01   -7,333607078e-01    0,000000000e+00    0,000000000e+00    0,000000000e+00    0,000000000e+00
      422000000   -2,617659979e-02   -3,137062863e-02   -2,793578506e-01   -6,900705695e-01    0,000000000e+00    0,000000000e+00    0,000000000e+00    0,000000000e+00
      436000000   -3,929478303e-02   -4,903189465e-02   -6,097930670e-01   -4,194858968e-01    0,000000000e+00    0,000000000e+00    0,000000000e+00    0,000000000e+00
      450000000   -6,505798548e-02   -3,930372000e-02   -7,374221087e-01   -7,714421023e-03    0,000000000e+00    0,000000000e+00    0,000000000e+00    0,000000000e+00
      464000000   -6,783365458e-02   -6,189936306e-03   -6,074674129e-01    4,065334499e-01    0,000000000e+00    0,000000000e+00    0,000000000e+00    0,000000000e+00
      478000000   -3,838359565e-02    1,635365561e-02   -2,679408193e-01    6,701877117e-01    0,000000000e+00    0,000000000e+00    0,000000000e+00    0,000000000e+00
      492000000   -5,338518415e-03    6,012369879e-03    1,514803171e-01    6,951098442e-01    0,000000000e+00    0,000000000e+00    0,000000000e+00    0,000000000e+00
      506000000    6,744961720e-03   -2,013370581e-02    5,073783398e-01    4,882070124e-01    0,000000000e+00    0,000000000e+00    0,000000000e+00    0,000000000e+00
      520000000    2,471239131e-04   -3,876106068e-02    6,899669170e-01    1,211833283e-01    0,000000000e+00    0,000000000e+00    0,000000000e+00    0,000000000e+00
      534000000   -2,899784129e-03   -4,519715533e-02    6,325931549e-01   -2,815491855e-01    0,000000000e+00    0,000000000e+00    0,000000000e+00    0,000000000e+00
      548000000    1,014926704e-03   -5,938046798e-02    3,603148162e-01   -5,798250437e-01    0,000000000e+00    0,000000000e+00    0,000000000e+00    0,000000000e+00
      562000000   -7,857919671e-03   -8,847543597e-02   -2,667657100e-02   -6,727001071e-01    0,000000000e+00    0,000000000e+00    0,000000000e+00    0,000000000e+00
      576000000   -4,505740479e-02   -1,097757444e-01   -4,017102122e-01   -5,381243229e-01    0,000000000e+00    0,000000000e+00    0,000000000e+00    0,000000000e+00
      590000000   -9,487394989e-02   -9,330776334e-02   -6,424393654e-01   -2,175579816e-01    0,000000000e+00    0,000000000e+00    0,000000000e+00    0,000000000e+00
      604000000   -1,121366993e-01   -4,129902646e-02   -6,478374004e-01    1,985761374e-01    0,000000000e+00    0,000000000e+00    0,000000000e+00    0,000000000e+00
      618000000   -7,622584701e-02   -2,728659660e-03   -4,018266499e-01    5,354080200e-01    0,000000000e+00    0,000000000e+00    0,000000000e+00    0,000000000e+00
      632000000   -2,986914106e-02   -2,051829733e-02   -1,224750001e-02    6,552052498e-01    0,000000000e+00    0,000000000e+00    0,000000000e+00    0,000000000e+00
      646000000   -3,644134849e-02   -7,710386813e-02    3,659528792e-01    5,275942087e-01    0,000000000e+00    0,000000000e+00    0,000000000e+00    0,000000000e+00
      660000000   -1,114666536e-01   -9,908607602e-02    6,012018323e-01    1,941922754e-01    0,000000000e+00    0,000000000e+00    0,000000000e+00    0,000000000e+00
      674000000   -1,992823482e-01   -2,316656895e-02    5,652655959e-01   -2,396917790e-01    0,000000000e+00    0,000000000e+00    0,000000000e+00    0,000000000e+00
      688000000   -1,786796004e-01    1,433844566e-01    2,095047683e-01   -5,227035284e-01    0,000000000e+00    0,000000000e+00    0,000000000e+00    0,000000000e+00
      702000000    2,565540187e-02    2,437165827e-01   -1,977228671e-01   -4,015403986e-01    0,000000000e+00    0,000000000e+00    0,000000000e+00    0,000000000e+00
      716000000    2,634539604e-01    1,109480038e-01   -2,743283808e-01   -8,465828747e-02    0,000000000e+00    0,000000000e+00    0,000000000e+00    0,000000000e+00
      730000000    3,041969240e-01   -1,860468835e-01   -1,083225608e-01    3,329478949e-02    0,000000000e+00    0,000000000e+00    0,000000000e+00    0,000000000e+00
      744000000    9,359253943e-02   -4,272995889e-01   -4,198945686e-02   -6,370554864e-02    0,000000000e+00    0,000000000e+00    0,000000000e+00    0,000000000e+00
      758000000   -2,596249878e-01   -4,303365946e-01   -1,747123003e-01   -1,252186298e-01    0,000000000e+00    0,000000000e+00    0,000000000e+00    0,000000000e+00
      772000000   -4,867161214e-01   -1,207940653e-01   -3,357053697e-01    3,745252639e-02    0,000000000e+00    0,000000000e+00    0,000000000e+00    0,000000000e+00
      786000000   -3,429895937e-01    2,214385271e-01   -2,626613081e-01    3,162851036e-01    0,000000000e+00    0,000000000e+00    0,000000000e+00    0,000000000e+00
      800000000   -4,117221385e-02    2,770162821e-01    3,124242881e-03    4,363383651e-01    0,000000000e+00    0,000000000e+00    0,000000000e+00    0,000000000e+00
      814000000    1,447625309e-01    1,260596663e-01    2,636038065e-01    3,598768413e-01    0,000000000e+00    0,000000000e+00    0,000000000e+00    0,000000000e+00
      828000000    1,683419347e-01   -6,982821226e-02    4,324715137e-01    1,565840244e-01    0,000000000e+00    0,000000000e+00    0,000000000e+00    0,000000000e+00
      842000000    6,756271422e-02   -2,185836881e-01    4,665954709e-01   -1,199252829e-01    0,000000000e+00    0,000000000e+00    0,000000000e+00    0,000000000e+00
      856000000   -1,064147279e-01   -2,637974918e-01    3,193229139e-01   -3,947227001e-01    0,000000000e+00    0,000000000e+00    0,000000000e+00    0,000000000e+00
      870000000   -2,751729190e-01   -1,679653376e-01   -2,317666309e-03   -5,262187719e-01    0,000000000e+00    0,000000000e+00    0,000000000e+00    0,000000000e+00
      884000000   -3,202525377e-01    3,520851955e-02   -3,464646339e-01   -3,930718005e-01    0,000000000e+00    0,000000000e+00    0,000000000e+00    0,000000000e+00
      898000000   -1,918768734e-01    2,070619166e-01   -4,883435071e-01   -6,236405298e-02    0,000000000e+00    0,000000000e+00    0,000000000e+00    0,000000000e+00
      912000000    7,370136213e-03    2,187443823e-01   -4,089134037e-01    2,717193663e-01    0,000000000e+00    0,000000000e+00    0,000000000e+00    0,000000000e+00
      926000000    1,508218646e-01    1,142482758e-01   -1,691951901e-01    4,164037108e-01    0,000000000e+00    0,000000000e+00    0,000000000e+00    0,000000000e+00
      940000000    1,992276013e-01   -4,459729046e-02    6,236306950e-02    4,252738059e-01    0,000000000e+00    0,000000000e+00    0,000000000e+00    0,000000000e+00
      954000000    1,540052742e-01   -2,047942579e-01    2,622752190e-01    3,394553661e-01    0,000000000e+00    0,000000000e+00    0,000000000e+00    0,000000000e+00
      968000000    2,680080384e-02   -3,159541786e-01    4,090270996e-01    1,796395928e-01    0,000000000e+00    0,000000000e+00    0,000000000e+00    0,000000000e+00
      982000000   -1,592728347e-01   -3,301042914e-01    4,744945467e-01   -6,587751955e-02    0,000000000e+00    0,000000000e+00    0,000000000e+00    0,000000000e+00
      996000000   -3,235536218e-01   -2,071392983e-01    3,671394289e-01   -3,564526141e-01    0,000000000e+00    0,000000000e+00    0,000000000e+00    0,000000000e+00
     1010000000   -3,430014551e-01   -7,669786923e-03    4,225005955e-02   -5,227525830e-01    0,000000000e+00    0,000000000e+00    0,000000000e+00    0,000000000e+00
     1024000000   -2,075950652e-01    9,056874365e-02   -3,436735868e-01   -3,823462725e-01    0,000000000e+00    0,000000000e+00    0,000000000e+00    0,000000000e+00
     1038000000   -1,369645745e-01    1,160639431e-02   -4,809785187e-01    6,219736487e-02    0,000000000e+00    0,000000000e+00    0,000000000e+00    0,000000000e+00
     1052000000   -2,835054696e-01    5,131798610e-02   -9,584067762e-02    3,714305460e-01    0,000000000e+00    0,000000000e+00    0,000000000e+00    0,000000000e+00
     1066000000   -1,456118375e-01    2,923322916e-01    1,446251869e-01    1,327394545e-01    0,000000000e+00    0,000000000e+00    0,000000000e+00    0,000000000e+00
     1080000000    1,034356505e-01    2,482849956e-01    9,102568775e-02    1,963680051e-02    0,000000000e+00    0,000000000e+00    0,000000000e+00    0,000000000e+00
     1094000000    2,184768021e-01    8,812823147e-02    6,827431172e-02    1,135601755e-02    0,000000000e+00    0,000000000e+00    0,000000000e+00    0,000000000e+00
     1108000000    2,395777106e-01   -8,967901766e-02    8,112108707e-02    1,909506624e-03    0,000000000e+00    0,000000000e+00    0,000000000e+00    0,000000000e+00
     1122000000    1,827457547e-01   -2,485449910e-01    1,026725322e-01   -2,416617237e-02    0,000000000e+00    0,000000000e+00    0,000000000e+00    0,000000000e+00
     1136000000    4,583486542e-02   -3,765086234e-01    1,252830178e-01   -7,512860745e-02    0,000000000e+00    0,000000000e+00    0,000000000e+00    0,000000000e+00
     1150000000   -1,575569808e-01   -4,246221185e-01    1,398939788e-01   -1,520850956e-01    0,000000000e+00    0,000000000e+00    0,000000000e+00    0,000000000e+00
     1164000000   -3,784582913e-01   -3,216795325e-01    9,696850181e-02   -2,766999900e-01    0,000000000e+00    0,000000000e+00    0,000000000e+00    0,000000000e+00
     1178000000   -4,641301930e-01   -9,111532569e-02   -1,043452919e-01   -4,046108425e-01    0,000000000e+00    0,000000000e+00    0,000000000e+00    0,000000000e+00
     1192000000   -3,717292249e-01    3,660352156e-02   -4,616154134e-01   -1,940670758e-01    0,000000000e+00    0,000000000e+00    0,000000000e+00    0,000000000e+00
     1206000000   -4,178653359e-01    1,306081265e-01   -2,759752870e-01    2,386830002e-01    0,000000000e+00    0,000000000e+00    0,000000000e+00    0,000000000e+00
     1220000000   -2,769235671e-01    3,301078975e-01   -8,370723575e-03    1,623258442e-01    0,000000000e+00    0,000000000e+00    0,000000000e+00    0,000000000e+00
     1234000000   -4,666178301e-02    3,547680378e-01    3,129953891e-02    5,831978098e-02    0,000000000e+00    0,000000000e+00    0,000000000e+00    0,000000000e+00
     1248000000    1,252584457e-01    2,552667856e-01    1,451869728e-03    2,650827728e-02    0,000000000e+00    0,000000000e+00    0,000000000e+00    0,000000000e+00
     1262000000    2,086857855e-01    1,045014337e-01    2,357668709e-03    3,004261479e-02    0,000000000e+00    0,000000000e+00    0,000000000e+00    0,000000000e+00
     1276000000    2,304652333e-01   -5,795585364e-02    2,862480469e-02    3,248728067e-02    0,000000000e+00    0,000000000e+00    0,000000000e+00    0,000000000e+00
     1290000000    1,928469837e-01   -2,113062441e-01    5,701031908e-02    2,491541207e-02    0,000000000e+00    0,000000000e+00    0,000000000e+00    0,000000000e+00
     1304000000    8,834723383e-02   -3,575447202e-01    7,882766426e-02    3,337741131e-03    0,000000000e+00    0,000000000e+00    0,000000000e+00    0,000000000e+00
     1318000000   -1,064787284e-01   -4,514568150e-01    7,730821520e-02   -8,126894012e-03    0,000000000e+00    0,000000000e+00    0,000000000e+00    0,000000000e+00
     1332000000   -3,600514829e-01   -4,352342784e-01    8,686930686e-02   -1,453853305e-02    0,000000000e+00    0,000000000e+00    0,000000000e+00    0,000000000e+00
     1346000000   -5,915988088e-01   -2,486143559e-01    1,035067737e-01   -4,944506101e-03    0,000000000e+00    0,000000000e+00    0,000000000e+00    0,000000000e+00
     1360000000   -6,434962749e-01    7,083642483e-02    1,389989406e-01   -2,004169486e-02    0,000000000e+00    0,000000000e+00    0,000000000e+00    0,000000000e+00
     1374000000   -4,891111255e-01    3,348155320e-01    1,695655584e-01   -5,416110530e-02    0,000000000e+00    0,000000000e+00    0,000000000e+00    0,000000000e+00
     1388000000   -2,495835125e-01    4,257524014e-01    1,555985808e-01   -8,927587420e-02    0,000000000e+00    0,000000000e+00    0,000000000e+00    0,000000000e+00
     1402000000   -4,493679106e-02    3,925781846e-01    1,391919702e-01   -9,310815483e-02    0,000000000e+00    0,000000000e+00    0,000000000e+00    0,000000000e+00
     1416000000    1,007332206e-01    2,855824530e-01    1,144400686e-01   -9,284071624e-02    0,000000000e+00    0,000000000e+00    0,000000000e+00    0,000000000e+00
     1430000000    1,826044172e-01    1,541878730e-01    8,608362824e-02   -5,012240633e-02    0,000000000e+00    0,000000000e+00    0,000000000e+00    0,000000000e+00
     1444000000    2,120743245e-01   -8,004102856e-03    1,138598472e-01   -1,843248121e-02    0,000000000e+00    0,000000000e+00    0,000000000e+00    0,000000000e+00
     1458000000    1,761738807e-01   -1,878419966e-01    1,352898926e-01    1,595167257e-02    0,000000000e+00    0,000000000e+00    0,000000000e+00    0,000000000e+00
     1472000000    6,757588685e-02   -3,463406265e-01    2,032125592e-01    7,453297824e-02    0,000000000e+00    0,000000000e+00    0,000000000e+00    0,000000000e+00
     1486000000   -1,440466642e-01   -4,683511257e-01    2,839808464e-01    1,005318984e-01    0,000000000e+00    0,000000000e+00    0,000000000e+00    0,000000000e+00
     1500000000   -4,423682988e-01   -4,688899219e-01    4,176425338e-01    6,528437883e-02    0,000000000e+00    0,000000000e+00    0,000000000e+00    0,000000000e+00
