! NanoVNA-App
! Date: 2025-09-25 15:55:45
! Start: 100MHz Stop: 1,5GHz Points: 101
! S-Parameter data: F S11 S21 S12 S22
# Hz S RI R 50
!     Frequency           S11_Real           S11_Imag           S21_Real           S21_Imag           S12_Real           S12_Imag           S22_Real           S22_Imag
      100000000   -2,817950211e-02   -2,823296003e-03    3,722156584e-01   -7,224315405e-01    0,000000000e+00    0,000000000e+00    0,000000000e+00    0,000000000e+00
      114000000   -1,561434101e-02    1,287210360e-02   -9,133802354e-02   -8,047831059e-01    0,000000000e+00    0,000000000e+00    0,000000000e+00    0,000000000e+00
      128000000    4,473290872e-03    1,183104143e-02   -5,158905387e-01   -6,187674403e-01    0,000000000e+00    0,000000000e+00    0,000000000e+00    0,000000000e+00
      142000000    1,549812220e-02   -1,852139598e-03   -7,674039602e-01   -2,341888398e-01    0,000000000e+00    0,000000000e+00    0,000000000e+00    0,000000000e+00
      156000000    1,666821353e-02   -1,314385515e-02   -7,645348907e-01    2,249424756e-01    0,000000000e+00    0,000000000e+00    0,000000000e+00    0,000000000e+00
      170000000    1,757212728e-02   -2,104683965e-02   -5,154636502e-01    6,060404778e-01    0,000000000e+00    0,000000000e+00    0,000000000e+00    0,000000000e+00
      184000000    2,197656222e-02   -3,556459770e-02   -9,817239642e-02    7,855445147e-01    0,000000000e+00    0,000000000e+00    0,000000000e+00    0,000000000e+00
      198000000    1,406310685e-02   -6,068445370e-02    3,459006846e-01    7,110583782e-01    0,000000000e+00    0,000000000e+00    0,000000000e+00    0,000000000e+00
      212000000   -1,765307039e-02   -7,915619761e-02    6,807343960e-01    4,062611461e-01    0,000000000e+00    0,000000000e+00    0,000000000e+00    0,000000000e+00
      226000000   -6,030591950e-02   -6,660968810e-02    7,957791686e-01   -3,563917056e-02    0,000000000e+00    0,000000000e+00    0,000000000e+00    0,000000000e+00
      240000000   -8,051977307e-02   -2,282732353e-02    6,415386200e-01   -4,716739058e-01    0,000000000e+00    0,000000000e+00    0,000000000e+00    0,000000000e+00
      254000000   -6,078829989e-02    1,978090405e-02    2,710193992e-01   -7,422731519e-01    0,000000000e+00    0,000000000e+00    0,000000000e+00    0,000000000e+00
      268000000   -2,095465362e-02    3,085617535e-02   -1,811206192e-01   -7,610398531e-01    0,000000000e+00    0,000000000e+00    0,000000000e+00    0,000000000e+00
      282000000    6,868482102e-03    1,367846224e-02   -5,633674860e-01   -5,327739716e-01    0,000000000e+00    0,000000000e+00    0,000000000e+00    0,000000000e+00
      296000000    1,236558985e-02   -6,265697069e-03   -7,604382634e-01   -1,343072951e-01    0,000000000e+00    0,000000000e+00    0,000000000e+00    0,000000000e+00
      310000000    1,344009861e-02   -1,463536266e-02   -7,084568143e-01    3,033646345e-01    0,000000000e+00    0,000000000e+00    0,000000000e+00    0,000000000e+00
      324000000    2,256026492e-02   -2,450220287e-02   -4,215878844e-01    6,387695670e-01    0,000000000e+00    0,000000000e+00    0,000000000e+00    0,000000000e+00
      338000000    2,845801041e-02   -5,049985647e-02   -4,053002689e-03    7,626867294e-01    0,000000000e+00    0,000000000e+00    0,000000000e+00    0,000000000e+00
      352000000    9,981282055e-03   -8,308108151e-02    4,110430777e-01    6,346052885e-01    0,000000000e+00    0,000000000e+00    0,000000000e+00    0,000000000e+00
      366000000   -3,178732842e-02   -9,370309114e-02    6,927573681e-01    3,041794598e-01    0,000000000e+00    0,000000000e+00    0,000000000e+00    0,000000000e+00
      380000000   -6,754092872e-02   -6,912538409e-02    7,453703284e-01   -1,349052936e-01    0,000000000e+00    0,000000000e+00    0,000000000e+00    0,000000000e+00
      394000000   -6,843995303e-02   -3,054359369e-02    5,388839841e-01   -5,276067257e-01    0,000000000e+00    0,000000000e+00    0,000000000e+00    0,000000000e+00
      408000000   -4,304809496e-02   -1,569455117e-02    1,497708559e-01   -7,353546023e-01    0,000000000e+00    0,000000000e+00    0,000000000e+00    0,000000000e+00
      422000000   -2,601768263e-02   -3,116132133e-02   -2,792039812e-01   -6,892783046e-01    0,000000000e+00    0,000000000e+00    0,000000000e+00    0,000000000e+00
      436000000   -3,930186853e-02   -4,902718589e-02   -6,099324226e-01   -4,189965725e-01    0,000000000e+00    0,000000000e+00    0,000000000e+00    0,000000000e+00
      450000000   -6,472075731e-02   -3,901994228e-02   -7,364865541e-01   -7,493150420e-03    0,000000000e+00    0,000000000e+00    0,000000000e+00    0,000000000e+00
      464000000   -6,769357622e-02   -6,525701378e-03   -6,078646183e-01    4,052647054e-01    0,000000000e+00    0,000000000e+00    0,000000000e+00    0,000000000e+00
      478000000   -3,894155845e-02    1,614072360e-02   -2,681679428e-01    6,701460481e-01    0,000000000e+00    0,000000000e+00    0,000000000e+00    0,000000000e+00
      492000000   -5,355921108e-03    6,093506236e-03    1,515485346e-01    6,945113540e-01    0,000000000e+00    0,000000000e+00    0,000000000e+00    0,000000000e+00
      506000000    6,629275624e-03   -2,028476633e-02    5,073011518e-01    4,882192314e-01    0,000000000e+00    0,000000000e+00    0,000000000e+00    0,000000000e+00
      520000000    3,853629751e-04   -3,870938346e-02    6,894599199e-01    1,200870872e-01    0,000000000e+00    0,000000000e+00    0,000000000e+00    0,000000000e+00
      534000000   -2,843967872e-03   -4,537512362e-02    6,331607699e-01   -2,817051113e-01    0,000000000e+00    0,000000000e+00    0,000000000e+00    0,000000000e+00
      548000000    9,583447245e-04   -5,946212634e-02    3,598371446e-01   -5,790688396e-01    0,000000000e+00    0,000000000e+00    0,000000000e+00    0,000000000e+00
      562000000   -7,686580066e-03   -8,863893151e-02   -2,590947971e-02   -6,718896031e-01    0,000000000e+00    0,000000000e+00    0,000000000e+00    0,000000000e+00
      576000000   -4,495197535e-02   -1,092913598e-01   -3,998262882e-01   -5,380356908e-01    0,000000000e+00    0,000000000e+00    0,000000000e+00    0,000000000e+00
      590000000   -9,469100833e-02   -9,343180060e-02   -6,383375525e-01   -2,183410823e-01    0,000000000e+00    0,000000000e+00    0,000000000e+00    0,000000000e+00
      604000000   -1,116725579e-01   -4,134471714e-02   -6,478306651e-01    1,979118139e-01    0,000000000e+00    0,000000000e+00    0,000000000e+00    0,000000000e+00
      618000000   -7,566697896e-02   -1,847618609e-03   -4,022153914e-01    5,348798037e-01    0,000000000e+00    0,000000000e+00    0,000000000e+00    0,000000000e+00
      632000000   -2,965601347e-02   -2,158147842e-02   -1,197985280e-02    6,556538343e-01    0,000000000e+00    0,000000000e+00    0,000000000e+00    0,000000000e+00
      646000000   -3,698514029e-02   -7,675479352e-02    3,659477532e-01    5,282016993e-01    0,000000000e+00    0,000000000e+00    0,000000000e+00    0,000000000e+00
      660000000   -1,110363379e-01   -9,936880320e-02    6,010468006e-01    1,930170655e-01    0,000000000e+00    0,000000000e+00    0,000000000e+00    0,000000000e+00
      674000000   -1,994481236e-01   -2,423783578e-02    5,650750995e-01   -2,394602299e-01    0,000000000e+00    0,000000000e+00    0,000000000e+00    0,000000000e+00
      688000000   -1,781756431e-01    1,448051482e-01    2,091717422e-01   -5,211240649e-01    0,000000000e+00    0,000000000e+00    0,000000000e+00    0,000000000e+00
      702000000    2,651647665e-02    2,487682104e-01   -2,018790990e-01   -4,033556283e-01    0,000000000e+00    0,000000000e+00    0,000000000e+00    0,000000000e+00
      716000000    2,637308538e-01    1,111022606e-01   -2,720708251e-01   -8,344194293e-02    0,000000000e+00    0,000000000e+00    0,000000000e+00    0,000000000e+00
      730000000    3,030786216e-01   -1,858158112e-01   -1,065099761e-01    3,169220686e-02    0,000000000e+00    0,000000000e+00    0,000000000e+00    0,000000000e+00
      744000000    9,349203110e-02   -4,272091985e-01   -4,218099639e-02   -6,569378823e-02    0,000000000e+00    0,000000000e+00    0,000000000e+00    0,000000000e+00
      758000000   -2,591527700e-01   -4,289931953e-01   -1,760580242e-01   -1,262375414e-01    0,000000000e+00    0,000000000e+00    0,000000000e+00    0,000000000e+00
      772000000   -4,853641987e-01   -1,198395342e-01   -3,365280926e-01    3,840078041e-02    0,000000000e+00    0,000000000e+00    0,000000000e+00    0,000000000e+00
      786000000   -3,417693079e-01    2,206241041e-01   -2,626112998e-01    3,172203600e-01    0,000000000e+00    0,000000000e+00    0,000000000e+00    0,000000000e+00
      800000000   -4,136043042e-02    2,769326568e-01    2,419399563e-03    4,362200201e-01    0,000000000e+00    0,000000000e+00    0,000000000e+00    0,000000000e+00
      814000000    1,437149793e-01    1,254694760e-01    2,641609311e-01    3,601247966e-01    0,000000000e+00    0,000000000e+00    0,000000000e+00    0,000000000e+00
      828000000    1,678374112e-01   -6,963821501e-02    4,327734411e-01    1,562959999e-01    0,000000000e+00    0,000000000e+00    0,000000000e+00    0,000000000e+00
      842000000    6,759292632e-02   -2,186446041e-01    4,664741755e-01   -1,202972829e-01    0,000000000e+00    0,000000000e+00    0,000000000e+00    0,000000000e+00
      856000000   -1,059216186e-01   -2,637870312e-01    3,204533458e-01   -3,948248625e-01    0,000000000e+00    0,000000000e+00    0,000000000e+00    0,000000000e+00
      870000000   -2,746955752e-01   -1,689069867e-01   -3,179515479e-03   -5,279309750e-01    0,000000000e+00    0,000000000e+00    0,000000000e+00    0,000000000e+00
      884000000   -3,201834261e-01    3,516205028e-02   -3,474057615e-01   -3,939975798e-01    0,000000000e+00    0,000000000e+00    0,000000000e+00    0,000000000e+00
      898000000   -1,919281036e-01    2,069283575e-01   -4,881479442e-01   -6,296246499e-02    0,000000000e+00    0,000000000e+00    0,000000000e+00    0,000000000e+00
      912000000    6,683839485e-03    2,185973674e-01   -4,012022913e-01    2,813881934e-01    0,000000000e+00    0,000000000e+00    0,000000000e+00    0,000000000e+00
      926000000    1,506087482e-01    1,116591543e-01   -1,681910157e-01    4,140955210e-01    0,000000000e+00    0,000000000e+00    0,000000000e+00    0,000000000e+00
      940000000    1,968831122e-01   -4,548615217e-02    6,185081974e-02    4,260444641e-01    0,000000000e+00    0,000000000e+00    0,000000000e+00    0,000000000e+00
      954000000    1,511037648e-01   -2,031807303e-01    2,597828805e-01    3,411130309e-01    0,000000000e+00    0,000000000e+00    0,000000000e+00    0,000000000e+00
      968000000    2,396037616e-02   -3,167396188e-01    4,115536511e-01    1,786131561e-01    0,000000000e+00    0,000000000e+00    0,000000000e+00    0,000000000e+00
      982000000   -1,639770865e-01   -3,290131986e-01    4,756342173e-01   -6,768076122e-02    0,000000000e+00    0,000000000e+00    0,000000000e+00    0,000000000e+00
      996000000   -3,220679164e-01   -2,100414336e-01    3,695144951e-01   -3,561295271e-01    0,000000000e+00    0,000000000e+00    0,000000000e+00    0,000000000e+00
     1010000000   -3,428501189e-01   -1,017482486e-02    4,473619163e-02   -5,233152509e-01    0,000000000e+00    0,000000000e+00    0,000000000e+00    0,000000000e+00
     1024000000   -2,031531632e-01    9,159158170e-02   -3,470230103e-01   -3,784300089e-01    0,000000000e+00    0,000000000e+00    0,000000000e+00    0,000000000e+00
     1038000000   -1,364265531e-01    8,999835700e-03   -4,818825424e-01    6,178946048e-02    0,000000000e+00    0,000000000e+00    0,000000000e+00    0,000000000e+00
     1052000000   -2,867747843e-01    4,773745686e-02   -9,883938730e-02    3,741242588e-01    0,000000000e+00    0,000000000e+00    0,000000000e+00    0,000000000e+00
     1066000000   -1,466680020e-01    2,895137668e-01    1,460953802e-01    1,367725283e-01    0,000000000e+00    0,000000000e+00    0,000000000e+00    0,000000000e+00
     1080000000    9,572536498e-02    2,486944944e-01    9,411054850e-02    2,107920684e-02    0,000000000e+00    0,000000000e+00    0,000000000e+00    0,000000000e+00
     1094000000    2,213684618e-01    8,539729565e-02    6,988099962e-02    9,625956416e-03    0,000000000e+00    0,000000000e+00    0,000000000e+00    0,000000000e+00
     1108000000    2,397965491e-01   -8,611117303e-02    8,300416917e-02   -2,244221047e-03    0,000000000e+00    0,000000000e+00    0,000000000e+00    0,000000000e+00
     1122000000    1,829808205e-01   -2,520200908e-01    1,042397171e-01   -2,566192672e-02    0,000000000e+00    0,000000000e+00    0,000000000e+00    0,000000000e+00
     1136000000    4,754384235e-02   -3,773524165e-01    1,254758090e-01   -7,407779992e-02    0,000000000e+00    0,000000000e+00    0,000000000e+00    0,000000000e+00
     1150000000   -1,562550217e-01   -4,209445119e-01    1,363787651e-01   -1,529752910e-01    0,000000000e+00    0,000000000e+00    0,000000000e+00    0,000000000e+00
     1164000000   -3,757193089e-01   -3,252253532e-01    9,999987483e-02   -2,778225243e-01    0,000000000e+00    0,000000000e+00    0,000000000e+00    0,000000000e+00
     1178000000   -4,664420485e-01   -9,012044966e-02   -1,061146036e-01   -4,067338109e-01    0,000000000e+00    0,000000000e+00    0,000000000e+00    0,000000000e+00
     1192000000   -3,724043369e-01    3,472912312e-02   -4,589127600e-01   -1,999213547e-01    0,000000000e+00    0,000000000e+00    0,000000000e+00    0,000000000e+00
     1206000000   -4,181920588e-01    1,347405761e-01   -2,774403095e-01    2,385423928e-01    0,000000000e+00    0,000000000e+00    0,000000000e+00    0,000000000e+00
     1220000000   -2,743885517e-01    3,327899277e-01    5,066839512e-04    1,658766568e-01    0,000000000e+00    0,000000000e+00    0,000000000e+00    0,000000000e+00
     1234000000   -5,025469512e-02    3,517865837e-01    2,541427501e-02    5,592805147e-02    0,000000000e+00    0,000000000e+00    0,000000000e+00    0,000000000e+00
     1248000000    1,233485416e-01    2,441694587e-01   -5,823723041e-04    2,257478423e-02    0,000000000e+00    0,000000000e+00    0,000000000e+00    0,000000000e+00
     1262000000    2,136664391e-01    1,007384360e-01    6,062482949e-03    2,908735722e-02    0,000000000e+00    0,000000000e+00    0,000000000e+00    0,000000000e+00
     1276000000    2,362212539e-01   -5,627686903e-02    3,118805028e-02    3,743416443e-02    0,000000000e+00    0,000000000e+00    0,000000000e+00    0,000000000e+00
     1290000000    1,926281005e-01   -2,110521644e-01    5,593982339e-02    2,803756855e-02    0,000000000e+00    0,000000000e+00    0,000000000e+00    0,000000000e+00
     1304000000    8,107667416e-02   -3,580882549e-01    7,365414500e-02    1,043856330e-02    0,000000000e+00    0,000000000e+00    0,000000000e+00    0,000000000e+00
     1318000000   -1,050712615e-01   -4,507811069e-01    8,257174492e-02   -1,720912009e-02    0,000000000e+00    0,000000000e+00    0,000000000e+00    0,000000000e+00
     1332000000   -3,512706757e-01   -4,325406551e-01    9,167058766e-02   -1,833624393e-02    0,000000000e+00    0,000000000e+00    0,000000000e+00    0,000000000e+00
     1346000000   -5,881238580e-01   -2,450861335e-01    1,115411445e-01   -7,631450891e-03    0,000000000e+00    0,000000000e+00    0,000000000e+00    0,000000000e+00
     1360000000   -6,461772323e-01    6,458612531e-02    1,479989588e-01   -2,166393027e-02    0,000000000e+00    0,000000000e+00    0,000000000e+00    0,000000000e+00
     1374000000   -4,872108102e-01    3,299686909e-01    1,784491241e-01   -5,525923148e-02    0,000000000e+00    0,000000000e+00    0,000000000e+00    0,000000000e+00
     1388000000   -2,546766102e-01    4,269808829e-01    1,587395668e-01   -7,932642847e-02    0,000000000e+00    0,000000000e+00    0,000000000e+00    0,000000000e+00
     1402000000   -4,233404249e-02    3,904590309e-01    1,453952938e-01   -8,177981526e-02    0,000000000e+00    0,000000000e+00    0,000000000e+00    0,000000000e+00
     1416000000    9,775577486e-02    2,861347198e-01    1,175861359e-01   -7,814647257e-02    0,000000000e+00    0,000000000e+00    0,000000000e+00    0,000000000e+00
     1430000000    1,902852058e-01    1,509061605e-01    1,109856069e-01   -6,306713074e-02    0,000000000e+00    0,000000000e+00    0,000000000e+00    0,000000000e+00
     1444000000    2,167818546e-01   -1,652745903e-02    1,245168000e-01   -3,697089851e-02    0,000000000e+00    0,000000000e+00    0,000000000e+00    0,000000000e+00
     1458000000    1,864400357e-01   -1,801742762e-01    1,586531550e-01    2,563918941e-02    0,000000000e+00    0,000000000e+00    0,000000000e+00    0,000000000e+00
     1472000000    6,452344358e-02   -3,469989300e-01    1,873772591e-01    6,643374264e-02    0,000000000e+00    0,000000000e+00    0,000000000e+00    0,000000000e+00
     1486000000   -1,418737024e-01   -4,846455753e-01    2,895165086e-01    8,867429942e-02    0,000000000e+00    0,000000000e+00    0,000000000e+00    0,000000000e+00
     1500000000   -4,422732890e-01   -4,707726240e-01    4,121340513e-01    6,768669933e-02    0,000000000e+00    0,000000000e+00    0,000000000e+00    0,000000000e+00
