! NanoVNA-App
! Date: 2025-09-25 15:57:38
! Start: 100MHz Stop: 1,5GHz Points: 101
! S-Parameter data: F S11 S21 S12 S22
# Hz S RI R 50
!     Frequency           S11_Real           S11_Imag           S21_Real           S21_Imag           S12_Real           S12_Imag           S22_Real           S22_Imag
      100000000   -2,822377719e-02   -2,844202798e-03    3,722360730e-01   -7,224649787e-01    0,000000000e+00    0,000000000e+00    0,000000000e+00    0,000000000e+00
      114000000   -1,566490345e-02    1,287413947e-02   -9,137216210e-02   -8,048189878e-01    0,000000000e+00    0,000000000e+00    0,000000000e+00    0,000000000e+00
      128000000    4,408193752e-03    1,192446705e-02   -5,161032677e-01   -6,189716458e-01    0,000000000e+00    0,000000000e+00    0,000000000e+00    0,000000000e+00
      142000000    1,547229011e-02   -1,820254140e-03   -7,675137520e-01   -2,341488302e-01    0,000000000e+00    0,000000000e+00    0,000000000e+00    0,000000000e+00
      156000000    1,559491083e-02   -1,367817726e-02   -7,700732350e-01    2,231734395e-01    0,000000000e+00    0,000000000e+00    0,000000000e+00    0,000000000e+00
      170000000    1,758482493e-02   -2,104247175e-02   -5,155304074e-01    6,060892940e-01    0,000000000e+00    0,000000000e+00    0,000000000e+00    0,000000000e+00
      184000000    2,203755639e-02   -3,557318076e-02   -9,841342270e-02    7,860701084e-01    0,000000000e+00    0,000000000e+00    0,000000000e+00    0,000000000e+00
      198000000    1,405809540e-02   -6,068471074e-02    3,461516201e-01    7,109028697e-01    0,000000000e+00    0,000000000e+00    0,000000000e+00    0,000000000e+00
      212000000   -1,770113409e-02   -7,913809270e-02    6,807915568e-01    4,060878158e-01    0,000000000e+00    0,000000000e+00    0,000000000e+00    0,000000000e+00
      226000000   -6,038018316e-02   -6,663785130e-02    7,957900167e-01   -3,556509316e-02    0,000000000e+00    0,000000000e+00    0,000000000e+00    0,000000000e+00
      240000000   -8,058173954e-02   -2,273463272e-02    6,416988373e-01   -4,717200100e-01    0,000000000e+00    0,000000000e+00    0,000000000e+00    0,000000000e+00
      254000000   -6,083520129e-02    1,981874928e-02    2,709914446e-01   -7,421253920e-01    0,000000000e+00    0,000000000e+00    0,000000000e+00    0,000000000e+00
      268000000   -2,099140175e-02    3,080306388e-02   -1,811241210e-01   -7,606573701e-01    0,000000000e+00    0,000000000e+00    0,000000000e+00    0,000000000e+00
      282000000    6,896142848e-03    1,377048716e-02   -5,632509589e-01   -5,323481560e-01    0,000000000e+00    0,000000000e+00    0,000000000e+00    0,000000000e+00
      296000000    1,228247117e-02   -6,286621094e-03   -7,602437139e-01   -1,342608482e-01    0,000000000e+00    0,000000000e+00    0,000000000e+00    0,000000000e+00
      310000000    1,342455670e-02   -1,453416329e-02   -7,085546851e-01    3,031874299e-01    0,000000000e+00    0,000000000e+00    0,000000000e+00    0,000000000e+00
      324000000    2,251684479e-02   -2,455825731e-02   -4,217078984e-01    6,397535205e-01    0,000000000e+00    0,000000000e+00    0,000000000e+00    0,000000000e+00
      338000000    2,834785730e-02   -5,071576312e-02   -3,011439228e-03    7,596991062e-01    0,000000000e+00    0,000000000e+00    0,000000000e+00    0,000000000e+00
      352000000    1,018961053e-02   -8,277001977e-02    4,111679196e-01    6,352384686e-01    0,000000000e+00    0,000000000e+00    0,000000000e+00    0,000000000e+00
      366000000   -3,174860030e-02   -9,402354062e-02    6,933606267e-01    3,037854433e-01    0,000000000e+00    0,000000000e+00    0,000000000e+00    0,000000000e+00
      380000000   -6,751653552e-02   -6,881474704e-02    7,459550500e-01   -1,341135055e-01    0,000000000e+00    0,000000000e+00    0,000000000e+00    0,000000000e+00
      394000000   -6,871879846e-02   -3,065662086e-02    5,388748050e-01   -5,294675231e-01    0,000000000e+00    0,000000000e+00    0,000000000e+00    0,000000000e+00
      408000000   -4,272606224e-02   -1,549625304e-02    1,497214139e-01   -7,335838675e-01    0,000000000e+00    0,000000000e+00    0,000000000e+00    0,000000000e+00
      422000000   -2,614774927e-02   -3,125740960e-02   -2,786893845e-01   -6,900966167e-01    0,000000000e+00    0,000000000e+00    0,000000000e+00    0,000000000e+00
      436000000   -3,894078359e-02   -4,907648638e-02   -6,096251011e-01   -4,195514023e-01    0,000000000e+00    0,000000000e+00    0,000000000e+00    0,000000000e+00
      450000000   -6,453970820e-02   -3,928221390e-02   -7,368201017e-01   -7,587460801e-03    0,000000000e+00    0,000000000e+00    0,000000000e+00    0,000000000e+00
      464000000   -6,761606038e-02   -6,400938146e-03   -6,078919172e-01    4,060973227e-01    0,000000000e+00    0,000000000e+00    0,000000000e+00    0,000000000e+00
      478000000   -3,872616962e-02    1,588403992e-02   -2,672741413e-01    6,697951555e-01    0,000000000e+00    0,000000000e+00    0,000000000e+00    0,000000000e+00
      492000000   -5,118345376e-03    6,188969593e-03    1,528576165e-01    6,947192550e-01    0,000000000e+00    0,000000000e+00    0,000000000e+00    0,000000000e+00
      506000000    6,693895906e-03   -2,011472173e-02    5,074920654e-01    4,884234667e-01    0,000000000e+00    0,000000000e+00    0,000000000e+00    0,000000000e+00
      520000000    8,057503728e-04   -3,865303844e-02    6,892645955e-01    1,229580715e-01    0,000000000e+00    0,000000000e+00    0,000000000e+00    0,000000000e+00
      534000000   -3,015327267e-03   -4,536074400e-02    6,321472526e-01   -2,817055583e-01    0,000000000e+00    0,000000000e+00    0,000000000e+00    0,000000000e+00
      548000000    7,931687287e-04   -5,938850343e-02    3,598628044e-01   -5,792388320e-01    0,000000000e+00    0,000000000e+00    0,000000000e+00    0,000000000e+00
      562000000   -7,688223850e-03   -8,859140426e-02   -2,647184953e-02   -6,720631123e-01    0,000000000e+00    0,000000000e+00    0,000000000e+00    0,000000000e+00
      576000000   -4,523647204e-02   -1,094238237e-01   -4,010367393e-01   -5,386421680e-01    0,000000000e+00    0,000000000e+00    0,000000000e+00    0,000000000e+00
      590000000   -9,471720457e-02   -9,325555712e-02   -6,418861747e-01   -2,173060030e-01    0,000000000e+00    0,000000000e+00    0,000000000e+00    0,000000000e+00
      604000000   -1,113280430e-01   -4,089302570e-02   -6,468374729e-01    1,988157332e-01    0,000000000e+00    0,000000000e+00    0,000000000e+00    0,000000000e+00
      618000000   -7,549792528e-02   -1,904897741e-03   -4,008899331e-01    5,367582440e-01    0,000000000e+00    0,000000000e+00    0,000000000e+00    0,000000000e+00
      632000000   -3,015884571e-02   -2,083392255e-02   -1,159684081e-02    6,554923654e-01    0,000000000e+00    0,000000000e+00    0,000000000e+00    0,000000000e+00
      646000000   -3,707925975e-02   -7,649262995e-02    3,662316799e-01    5,276840329e-01    0,000000000e+00    0,000000000e+00    0,000000000e+00    0,000000000e+00
      660000000   -1,112975702e-01   -9,939785302e-02    6,006510854e-01    1,933996081e-01    0,000000000e+00    0,000000000e+00    0,000000000e+00    0,000000000e+00
      674000000   -1,991719157e-01   -2,418278717e-02    5,652045608e-01   -2,398655117e-01    0,000000000e+00    0,000000000e+00    0,000000000e+00    0,000000000e+00
      688000000   -1,791876853e-01    1,446657479e-01    2,081697881e-01   -5,218667388e-01    0,000000000e+00    0,000000000e+00    0,000000000e+00    0,000000000e+00
      702000000    2,519137599e-02    2,458671331e-01   -2,007885426e-01   -4,065811932e-01    0,000000000e+00    0,000000000e+00    0,000000000e+00    0,000000000e+00
      716000000    2,635723948e-01    1,105651855e-01   -2,721360326e-01   -8,270633221e-02    0,000000000e+00    0,000000000e+00    0,000000000e+00    0,000000000e+00
      730000000    3,029907346e-01   -1,867305636e-01   -1,059813648e-01    3,163691610e-02    0,000000000e+00    0,000000000e+00    0,000000000e+00    0,000000000e+00
      744000000    9,390655905e-02   -4,274505973e-01   -4,223012924e-02   -6,618240476e-02    0,000000000e+00    0,000000000e+00    0,000000000e+00    0,000000000e+00
      758000000   -2,593857646e-01   -4,289121330e-01   -1,761936545e-01   -1,259458214e-01    0,000000000e+00    0,000000000e+00    0,000000000e+00    0,000000000e+00
      772000000   -4,840690494e-01   -1,189662442e-01   -3,373011351e-01    3,825366870e-02    0,000000000e+00    0,000000000e+00    0,000000000e+00    0,000000000e+00
      786000000   -3,408187926e-01    2,223840505e-01   -2,624005377e-01    3,167881966e-01    0,000000000e+00    0,000000000e+00    0,000000000e+00    0,000000000e+00
      800000000   -4,032459483e-02    2,760548294e-01    3,590919077e-03    4,370658398e-01    0,000000000e+00    0,000000000e+00    0,000000000e+00    0,000000000e+00
      814000000    1,446898580e-01    1,253421456e-01    2,638684809e-01    3,599228263e-01    0,000000000e+00    0,000000000e+00    0,000000000e+00    0,000000000e+00
      828000000    1,676370800e-01   -7,049044967e-02    4,331779778e-01    1,564983279e-01    0,000000000e+00    0,000000000e+00    0,000000000e+00    0,000000000e+00
      842000000    6,752487272e-02   -2,182160318e-01    4,670177102e-01   -1,207524985e-01    0,000000000e+00    0,000000000e+00    0,000000000e+00    0,000000000e+00
      856000000   -1,072288081e-01   -2,644688189e-01    3,199891448e-01   -3,956515193e-01    0,000000000e+00    0,000000000e+00    0,000000000e+00    0,000000000e+00
      870000000   -2,748943269e-01   -1,689465791e-01   -3,119418863e-03   -5,259207487e-01    0,000000000e+00    0,000000000e+00    0,000000000e+00    0,000000000e+00
      884000000   -3,199662268e-01    3,510422632e-02   -3,467508852e-01   -3,926329017e-01    0,000000000e+00    0,000000000e+00    0,000000000e+00    0,000000000e+00
      898000000   -1,918132901e-01    2,067178786e-01   -4,886267483e-01   -6,222407892e-02    0,000000000e+00    0,000000000e+00    0,000000000e+00    0,000000000e+00
      912000000    6,166768260e-03    2,193803042e-01   -3,960635364e-01    2,648265958e-01    0,000000000e+00    0,000000000e+00    0,000000000e+00    0,000000000e+00
      926000000    1,488133520e-01    1,122968420e-01   -1,703618765e-01    4,165283442e-01    0,000000000e+00    0,000000000e+00    0,000000000e+00    0,000000000e+00
      940000000    1,979220212e-01   -4,757428542e-02    6,339627504e-02    4,247493446e-01    0,000000000e+00    0,000000000e+00    0,000000000e+00    0,000000000e+00
      954000000    1,540675014e-01   -2,001392245e-01    2,603850961e-01    3,425535858e-01    0,000000000e+00    0,000000000e+00    0,000000000e+00    0,000000000e+00
      968000000    2,690729685e-02   -3,161117136e-01    4,107823968e-01    1,797042936e-01    0,000000000e+00    0,000000000e+00    0,000000000e+00    0,000000000e+00
      982000000   -1,603058726e-01   -3,308071494e-01    4,758335054e-01   -6,652943790e-02    0,000000000e+00    0,000000000e+00    0,000000000e+00    0,000000000e+00
      996000000   -3,277604878e-01   -2,076812536e-01    3,688465655e-01   -3,544840813e-01    0,000000000e+00    0,000000000e+00    0,000000000e+00    0,000000000e+00
     1010000000   -3,391620815e-01   -4,939819220e-03    4,253933206e-02   -5,232948065e-01    0,000000000e+00    0,000000000e+00    0,000000000e+00    0,000000000e+00
     1024000000   -2,054312378e-01    9,542081505e-02   -3,443173766e-01   -3,796151876e-01    0,000000000e+00    0,000000000e+00    0,000000000e+00    0,000000000e+00
     1038000000   -1,323922724e-01    9,159539826e-03   -4,828113914e-01    6,283777207e-02    0,000000000e+00    0,000000000e+00    0,000000000e+00    0,000000000e+00
     1052000000   -2,855053544e-01    5,603559315e-02   -9,750887752e-02    3,733676970e-01    0,000000000e+00    0,000000000e+00    0,000000000e+00    0,000000000e+00
     1066000000   -1,459179819e-01    2,958664894e-01    1,436232328e-01    1,338402331e-01    0,000000000e+00    0,000000000e+00    0,000000000e+00    0,000000000e+00
     1080000000    9,871295094e-02    2,531897128e-01    9,124383330e-02    1,908574998e-02    0,000000000e+00    0,000000000e+00    0,000000000e+00    0,000000000e+00
     1094000000    2,174223661e-01    8,564538509e-02    6,950198114e-02    1,028168947e-02    0,000000000e+00    0,000000000e+00    0,000000000e+00    0,000000000e+00
     1108000000    2,435667962e-01   -8,933969587e-02    8,257617801e-02   -7,280949503e-04    0,000000000e+00    0,000000000e+00    0,000000000e+00    0,000000000e+00
     1122000000    1,865851134e-01   -2,488713861e-01    1,055501178e-01   -2,727307193e-02    0,000000000e+00    0,000000000e+00    0,000000000e+00    0,000000000e+00
     1136000000    5,171994492e-02   -3,802450001e-01    1,253518313e-01   -7,689309865e-02    0,000000000e+00    0,000000000e+00    0,000000000e+00    0,000000000e+00
     1150000000   -1,590810716e-01   -4,237880409e-01    1,364703625e-01   -1,495979726e-01    0,000000000e+00    0,000000000e+00    0,000000000e+00    0,000000000e+00
     1164000000   -3,770250082e-01   -3,283170462e-01    9,923362732e-02   -2,793833315e-01    0,000000000e+00    0,000000000e+00    0,000000000e+00    0,000000000e+00
     1178000000   -4,658674896e-01   -8,183330297e-02   -1,025078222e-01   -4,051224291e-01    0,000000000e+00    0,000000000e+00    0,000000000e+00    0,000000000e+00
     1192000000   -3,745489419e-01    3,977627680e-02   -4,647842050e-01   -1,943319142e-01    0,000000000e+00    0,000000000e+00    0,000000000e+00    0,000000000e+00
     1206000000   -4,204306006e-01    1,312844306e-01   -2,765475810e-01    2,348926961e-01    0,000000000e+00    0,000000000e+00    0,000000000e+00    0,000000000e+00
     1220000000   -2,775749862e-01    3,266352117e-01   -2,186217112e-03    1,619127989e-01    0,000000000e+00    0,000000000e+00    0,000000000e+00    0,000000000e+00
     1234000000   -4,759589210e-02    3,519787788e-01    2,724773251e-02    5,601434782e-02    0,000000000e+00    0,000000000e+00    0,000000000e+00    0,000000000e+00
     1248000000    1,232888550e-01    2,491007745e-01    6,598634645e-03    2,666515112e-02    0,000000000e+00    0,000000000e+00    0,000000000e+00    0,000000000e+00
     1262000000    2,168227583e-01    1,022524759e-01    5,145925563e-03    3,265141696e-02    0,000000000e+00    0,000000000e+00    0,000000000e+00    0,000000000e+00
     1276000000    2,361216992e-01   -5,464144796e-02    2,891591191e-02    3,651987016e-02    0,000000000e+00    0,000000000e+00    0,000000000e+00    0,000000000e+00
     1290000000    1,932132393e-01   -2,113701999e-01    5,527120456e-02    2,700436488e-02    0,000000000e+00    0,000000000e+00    0,000000000e+00    0,000000000e+00
     1304000000    8,357805014e-02   -3,536394835e-01    7,298516482e-02    6,758553442e-03    0,000000000e+00    0,000000000e+00    0,000000000e+00    0,000000000e+00
     1318000000   -1,053424254e-01   -4,441600740e-01    7,973123342e-02   -5,811190233e-03    0,000000000e+00    0,000000000e+00    0,000000000e+00    0,000000000e+00
     1332000000   -3,576654792e-01   -4,366638660e-01    8,874845505e-02   -1,567219570e-02    0,000000000e+00    0,000000000e+00    0,000000000e+00    0,000000000e+00
     1346000000   -5,871762633e-01   -2,510786057e-01    1,072069779e-01   -1,240342390e-02    0,000000000e+00    0,000000000e+00    0,000000000e+00    0,000000000e+00
     1360000000   -6,542738676e-01    7,486016303e-02    1,357782334e-01   -1,088411268e-02    0,000000000e+00    0,000000000e+00    0,000000000e+00    0,000000000e+00
     1374000000   -4,922868013e-01    3,302961588e-01    1,572370827e-01   -4,908090457e-02    0,000000000e+00    0,000000000e+00    0,000000000e+00    0,000000000e+00
     1388000000   -2,465509921e-01    4,229609668e-01    1,715588868e-01   -8,082288504e-02    0,000000000e+00    0,000000000e+00    0,000000000e+00    0,000000000e+00
     1402000000   -4,454480112e-02    3,898410201e-01    1,409881115e-01   -1,024961248e-01    0,000000000e+00    0,000000000e+00    0,000000000e+00    0,000000000e+00
     1416000000    9,994730353e-02    2,824314237e-01    1,289581358e-01   -9,074757248e-02    0,000000000e+00    0,000000000e+00    0,000000000e+00    0,000000000e+00
     1430000000    1,874410063e-01    1,459148526e-01    1,000047773e-01   -5,723251030e-02    0,000000000e+00    0,000000000e+00    0,000000000e+00    0,000000000e+00
     1444000000    2,176188827e-01   -1,081265230e-02    1,272469014e-01   -1,929534227e-02    0,000000000e+00    0,000000000e+00    0,000000000e+00    0,000000000e+00
     1458000000    1,807675958e-01   -1,857722253e-01    1,432392895e-01    1,096573751e-02    0,000000000e+00    0,000000000e+00    0,000000000e+00    0,000000000e+00
     1472000000    6,868919730e-02   -3,409434557e-01    1,863846630e-01    6,924195588e-02    0,000000000e+00    0,000000000e+00    0,000000000e+00    0,000000000e+00
     1486000000   -1,325535625e-01   -4,705550969e-01    3,056699634e-01    9,756281227e-02    0,000000000e+00    0,000000000e+00    0,000000000e+00    0,000000000e+00
     1500000000   -4,470733106e-01   -4,855476320e-01    3,932738602e-01    4,040475935e-02    0,000000000e+00    0,000000000e+00    0,000000000e+00    0,000000000e+00
