! NanoVNA-App
! Date: 2025-09-25 15:56:35
! Start: 100MHz Stop: 1,5GHz Points: 101
! S-Parameter data: F S11 S21 S12 S22
# Hz S RI R 50
!     Frequency           S11_Real           S11_Imag           S21_Real           S21_Imag           S12_Real           S12_Imag           S22_Real           S22_Imag
      100000000   -2,820067666e-02   -2,821695292e-03    3,722863495e-01   -7,224582434e-01    0,000000000e+00    0,000000000e+00    0,000000000e+00    0,000000000e+00
      114000000   -1,561682113e-02    1,286640391e-02   -9,132011235e-02   -8,046905398e-01    0,000000000e+00    0,000000000e+00    0,000000000e+00    0,000000000e+00
      128000000    4,437661264e-03    1,189151686e-02   -5,160350800e-01   -6,187949181e-01    0,000000000e+00    0,000000000e+00    0,000000000e+00    0,000000000e+00
      142000000    1,548565645e-02   -1,818973687e-03   -7,674601078e-01   -2,340909690e-01    0,000000000e+00    0,000000000e+00    0,000000000e+00    0,000000000e+00
      156000000    1,700699329e-02   -1,342192385e-02   -7,657282352e-01    2,261659950e-01    0,000000000e+00    0,000000000e+00    0,000000000e+00    0,000000000e+00
      170000000    1,766181551e-02   -2,105816454e-02   -5,155625343e-01    6,061177254e-01    0,000000000e+00    0,000000000e+00    0,000000000e+00    0,000000000e+00
      184000000    2,201753296e-02   -3,556686267e-02   -9,831234813e-02    7,860423923e-01    0,000000000e+00    0,000000000e+00    0,000000000e+00    0,000000000e+00
      198000000    1,403048355e-02   -6,065414101e-02    3,461402655e-01    7,107009888e-01    0,000000000e+00    0,000000000e+00    0,000000000e+00    0,000000000e+00
      212000000   -1,771608368e-02   -7,915134728e-02    6,807387471e-01    4,062214494e-01    0,000000000e+00    0,000000000e+00    0,000000000e+00    0,000000000e+00
      226000000   -6,037551165e-02   -6,664096564e-02    7,957143188e-01   -3,559090197e-02    0,000000000e+00    0,000000000e+00    0,000000000e+00    0,000000000e+00
      240000000   -8,053523302e-02   -2,285805903e-02    6,415497065e-01   -4,718867540e-01    0,000000000e+00    0,000000000e+00    0,000000000e+00    0,000000000e+00
      254000000   -6,081205606e-02    1,979083009e-02    2,712314725e-01   -7,417555451e-01    0,000000000e+00    0,000000000e+00    0,000000000e+00    0,000000000e+00
      268000000   -2,089980058e-02    3,087521158e-02   -1,808379591e-01   -7,605202794e-01    0,000000000e+00    0,000000000e+00    0,000000000e+00    0,000000000e+00
      282000000    6,909382530e-03    1,375832967e-02   -5,632526278e-01   -5,324885845e-01    0,000000000e+00    0,000000000e+00    0,000000000e+00    0,000000000e+00
      296000000    1,233152486e-02   -6,218264345e-03   -7,602906227e-01   -1,343055367e-01    0,000000000e+00    0,000000000e+00    0,000000000e+00    0,000000000e+00
      310000000    1,373189129e-02   -1,457588933e-02   -7,083338499e-01    3,051811755e-01    0,000000000e+00    0,000000000e+00    0,000000000e+00    0,000000000e+00
      324000000    2,260165475e-02   -2,475173585e-02   -4,210135937e-01    6,405772567e-01    0,000000000e+00    0,000000000e+00    0,000000000e+00    0,000000000e+00
      338000000    2,847555093e-02   -5,080946162e-02   -4,254311323e-03    7,581455112e-01    0,000000000e+00    0,000000000e+00    0,000000000e+00    0,000000000e+00
      352000000    1,004038937e-02   -8,270824701e-02    4,106744528e-01    6,354942322e-01    0,000000000e+00    0,000000000e+00    0,000000000e+00    0,000000000e+00
      366000000   -3,165562451e-02   -9,382914752e-02    6,931976676e-01    3,046329021e-01    0,000000000e+00    0,000000000e+00    0,000000000e+00    0,000000000e+00
      380000000   -6,756179035e-02   -6,906485558e-02    7,454363704e-01   -1,344305128e-01    0,000000000e+00    0,000000000e+00    0,000000000e+00    0,000000000e+00
      394000000   -6,869889051e-02   -3,047126159e-02    5,387523770e-01   -5,272118449e-01    0,000000000e+00    0,000000000e+00    0,000000000e+00    0,000000000e+00
      408000000   -4,265940934e-02   -1,555894502e-02    1,497071981e-01   -7,336884141e-01    0,000000000e+00    0,000000000e+00    0,000000000e+00    0,000000000e+00
      422000000   -2,631719224e-02   -3,114940599e-02   -2,796629369e-01   -6,901801825e-01    0,000000000e+00    0,000000000e+00    0,000000000e+00    0,000000000e+00
      436000000   -3,921039775e-02   -4,899603873e-02   -6,102463603e-01   -4,192341566e-01    0,000000000e+00    0,000000000e+00    0,000000000e+00    0,000000000e+00
      450000000   -6,496158242e-02   -3,896856308e-02   -7,368345857e-01   -7,498175837e-03    0,000000000e+00    0,000000000e+00    0,000000000e+00    0,000000000e+00
      464000000   -6,791136414e-02   -6,239192560e-03   -6,074662209e-01    4,057211876e-01    0,000000000e+00    0,000000000e+00    0,000000000e+00    0,000000000e+00
      478000000   -3,890058026e-02    1,596033759e-02   -2,670053542e-01    6,703883410e-01    0,000000000e+00    0,000000000e+00    0,000000000e+00    0,000000000e+00
      492000000   -5,276980344e-03    6,171632092e-03    1,511673331e-01    6,940396428e-01    0,000000000e+00    0,000000000e+00    0,000000000e+00    0,000000000e+00
      506000000    6,915871520e-03   -2,049754933e-02    5,075770617e-01    4,876370728e-01    0,000000000e+00    0,000000000e+00    0,000000000e+00    0,000000000e+00
      520000000    4,766838974e-04   -3,869998083e-02    6,885083914e-01    1,217793450e-01    0,000000000e+00    0,000000000e+00    0,000000000e+00    0,000000000e+00
      534000000   -3,199348459e-03   -4,543356970e-02    6,321582198e-01   -2,814511061e-01    0,000000000e+00    0,000000000e+00    0,000000000e+00    0,000000000e+00
      548000000    6,344094290e-04   -5,986752361e-02    3,599837124e-01   -5,791633129e-01    0,000000000e+00    0,000000000e+00    0,000000000e+00    0,000000000e+00
      562000000   -7,749763317e-03   -8,817199618e-02   -2,693522535e-02   -6,718065739e-01    0,000000000e+00    0,000000000e+00    0,000000000e+00    0,000000000e+00
      576000000   -4,562577605e-02   -1,093280688e-01   -4,010427594e-01   -5,381265879e-01    0,000000000e+00    0,000000000e+00    0,000000000e+00    0,000000000e+00
      590000000   -9,473658353e-02   -9,334147722e-02   -6,390453577e-01   -2,194519937e-01    0,000000000e+00    0,000000000e+00    0,000000000e+00    0,000000000e+00
      604000000   -1,120119020e-01   -4,120352492e-02   -6,473783851e-01    1,985275149e-01    0,000000000e+00    0,000000000e+00    0,000000000e+00    0,000000000e+00
      618000000   -7,552401721e-02   -2,072933363e-03   -4,028168023e-01    5,355331302e-01    0,000000000e+00    0,000000000e+00    0,000000000e+00    0,000000000e+00
      632000000   -2,959517762e-02   -2,169364505e-02   -1,239125617e-02    6,553806067e-01    0,000000000e+00    0,000000000e+00    0,000000000e+00    0,000000000e+00
      646000000   -3,703849763e-02   -7,697996497e-02    3,656556904e-01    5,277186036e-01    0,000000000e+00    0,000000000e+00    0,000000000e+00    0,000000000e+00
      660000000   -1,121627390e-01   -1,004901007e-01    6,012556553e-01    1,933129430e-01    0,000000000e+00    0,000000000e+00    0,000000000e+00    0,000000000e+00
      674000000   -1,990212947e-01   -2,393955179e-02    5,648816824e-01   -2,398859411e-01    0,000000000e+00    0,000000000e+00    0,000000000e+00    0,000000000e+00
      688000000   -1,781282574e-01    1,448843479e-01    2,086580247e-01   -5,209537745e-01    0,000000000e+00    0,000000000e+00    0,000000000e+00    0,000000000e+00
      702000000    2,583785169e-02    2,474854290e-01   -2,030785531e-01   -4,095494151e-01    0,000000000e+00    0,000000000e+00    0,000000000e+00    0,000000000e+00
      716000000    2,640781403e-01    1,108282804e-01   -2,720519602e-01   -8,314654231e-02    0,000000000e+00    0,000000000e+00    0,000000000e+00    0,000000000e+00
      730000000    3,034610748e-01   -1,859994978e-01   -1,067660525e-01    3,160242736e-02    0,000000000e+00    0,000000000e+00    0,000000000e+00    0,000000000e+00
      744000000    9,274747223e-02   -4,275854826e-01   -4,210495204e-02   -6,573144346e-02    0,000000000e+00    0,000000000e+00    0,000000000e+00    0,000000000e+00
      758000000   -2,577129900e-01   -4,279895425e-01   -1,758390814e-01   -1,259863079e-01    0,000000000e+00    0,000000000e+00    0,000000000e+00    0,000000000e+00
      772000000   -4,845876992e-01   -1,184244379e-01   -3,366424739e-01    3,847270086e-02    0,000000000e+00    0,000000000e+00    0,000000000e+00    0,000000000e+00
      786000000   -3,414485753e-01    2,219888121e-01   -2,632389069e-01    3,166761398e-01    0,000000000e+00    0,000000000e+00    0,000000000e+00    0,000000000e+00
      800000000   -4,093473777e-02    2,766932845e-01    3,471964737e-03    4,367957413e-01    0,000000000e+00    0,000000000e+00    0,000000000e+00    0,000000000e+00
      814000000    1,443802863e-01    1,258695275e-01    2,644104660e-01    3,591194451e-01    0,000000000e+00    0,000000000e+00    0,000000000e+00    0,000000000e+00
      828000000    1,680282503e-01   -6,993073970e-02    4,327857196e-01    1,566189378e-01    0,000000000e+00    0,000000000e+00    0,000000000e+00    0,000000000e+00
      842000000    6,789334863e-02   -2,178734243e-01    4,669572413e-01   -1,200880483e-01    0,000000000e+00    0,000000000e+00    0,000000000e+00    0,000000000e+00
      856000000   -1,065825224e-01   -2,638018131e-01    3,199875355e-01   -3,944150805e-01    0,000000000e+00    0,000000000e+00    0,000000000e+00    0,000000000e+00
      870000000   -2,734935880e-01   -1,678582579e-01   -2,618995029e-03   -5,271204114e-01    0,000000000e+00    0,000000000e+00    0,000000000e+00    0,000000000e+00
      884000000   -3,206058741e-01    3,480863571e-02   -3,468785584e-01   -3,931136131e-01    0,000000000e+00    0,000000000e+00    0,000000000e+00    0,000000000e+00
      898000000   -1,918726116e-01    2,058856189e-01   -4,892017245e-01   -6,348385662e-02    0,000000000e+00    0,000000000e+00    0,000000000e+00    0,000000000e+00
      912000000    6,579622626e-03    2,198233008e-01   -3,936909437e-01    2,723712921e-01    0,000000000e+00    0,000000000e+00    0,000000000e+00    0,000000000e+00
      926000000    1,498033255e-01    1,115146279e-01   -1,691352129e-01    4,137483835e-01    0,000000000e+00    0,000000000e+00    0,000000000e+00    0,000000000e+00
      940000000    1,992435753e-01   -4,695875570e-02    6,415531039e-02    4,235600531e-01    0,000000000e+00    0,000000000e+00    0,000000000e+00    0,000000000e+00
      954000000    1,504357457e-01   -2,013033628e-01    2,593853474e-01    3,415391147e-01    0,000000000e+00    0,000000000e+00    0,000000000e+00    0,000000000e+00
      968000000    2,352952398e-02   -3,156057000e-01    4,093551040e-01    1,778027266e-01    0,000000000e+00    0,000000000e+00    0,000000000e+00    0,000000000e+00
      982000000   -1,617633253e-01   -3,276567161e-01    4,735915959e-01   -6,599544734e-02    0,000000000e+00    0,000000000e+00    0,000000000e+00    0,000000000e+00
      996000000   -3,233169615e-01   -2,113489062e-01    3,694451749e-01   -3,571776748e-01    0,000000000e+00    0,000000000e+00    0,000000000e+00    0,000000000e+00
     1010000000   -3,440218568e-01   -6,164522376e-03    4,360207915e-02   -5,255777836e-01    0,000000000e+00    0,000000000e+00    0,000000000e+00    0,000000000e+00
     1024000000   -2,099978924e-01    9,332396835e-02   -3,426019251e-01   -3,818681836e-01    0,000000000e+00    0,000000000e+00    0,000000000e+00    0,000000000e+00
     1038000000   -1,356565058e-01    7,269235794e-03   -4,808231890e-01    6,149246171e-02    0,000000000e+00    0,000000000e+00    0,000000000e+00    0,000000000e+00
     1052000000   -2,859168947e-01    5,081568286e-02   -9,579668194e-02    3,733604848e-01    0,000000000e+00    0,000000000e+00    0,000000000e+00    0,000000000e+00
     1066000000   -1,444380581e-01    2,952890694e-01    1,428382695e-01    1,324701309e-01    0,000000000e+00    0,000000000e+00    0,000000000e+00    0,000000000e+00
     1080000000    1,019217446e-01    2,516837716e-01    9,272106737e-02    2,083743364e-02    0,000000000e+00    0,000000000e+00    0,000000000e+00    0,000000000e+00
     1094000000    2,170697898e-01    9,294015169e-02    7,108501345e-02    9,651101194e-03    0,000000000e+00    0,000000000e+00    0,000000000e+00    0,000000000e+00
     1108000000    2,393625826e-01   -8,580445498e-02    8,262617141e-02    2,417989745e-04    0,000000000e+00    0,000000000e+00    0,000000000e+00    0,000000000e+00
     1122000000    1,864631772e-01   -2,482453734e-01    1,013520658e-01   -2,853210829e-02    0,000000000e+00    0,000000000e+00    0,000000000e+00    0,000000000e+00
     1136000000    4,857388884e-02   -3,753784001e-01    1,270218641e-01   -7,360147685e-02    0,000000000e+00    0,000000000e+00    0,000000000e+00    0,000000000e+00
     1150000000   -1,533209383e-01   -4,243318141e-01    1,377678514e-01   -1,493449807e-01    0,000000000e+00    0,000000000e+00    0,000000000e+00    0,000000000e+00
     1164000000   -3,781646490e-01   -3,277928531e-01    9,825325012e-02   -2,746626437e-01    0,000000000e+00    0,000000000e+00    0,000000000e+00    0,000000000e+00
     1178000000   -4,684082866e-01   -8,546423167e-02   -1,037668809e-01   -4,059193730e-01    0,000000000e+00    0,000000000e+00    0,000000000e+00    0,000000000e+00
     1192000000   -3,756843507e-01    3,612179682e-02   -4,663470685e-01   -1,965261847e-01    0,000000000e+00    0,000000000e+00    0,000000000e+00    0,000000000e+00
     1206000000   -4,123561978e-01    1,344846487e-01   -2,750581205e-01    2,360344678e-01    0,000000000e+00    0,000000000e+00    0,000000000e+00    0,000000000e+00
     1220000000   -2,774422765e-01    3,350420296e-01   -5,345170386e-03    1,653615981e-01    0,000000000e+00    0,000000000e+00    0,000000000e+00    0,000000000e+00
     1234000000   -4,375510663e-02    3,528144956e-01    2,176602930e-02    5,399463326e-02    0,000000000e+00    0,000000000e+00    0,000000000e+00    0,000000000e+00
     1248000000    1,219901964e-01    2,539891303e-01    8,314538747e-03    3,302131593e-02    0,000000000e+00    0,000000000e+00    0,000000000e+00    0,000000000e+00
     1262000000    2,099739164e-01    1,040903330e-01    1,852170564e-03    3,326665983e-02    0,000000000e+00    0,000000000e+00    0,000000000e+00    0,000000000e+00
     1276000000    2,369799614e-01   -5,860161036e-02    2,585799806e-02    3,501728550e-02    0,000000000e+00    0,000000000e+00    0,000000000e+00    0,000000000e+00
     1290000000    1,957646906e-01   -2,135977149e-01    6,010692194e-02    2,026822418e-02    0,000000000e+00    0,000000000e+00    0,000000000e+00    0,000000000e+00
     1304000000    8,315372467e-02   -3,517053425e-01    8,095589280e-02    7,771487813e-03    0,000000000e+00    0,000000000e+00    0,000000000e+00    0,000000000e+00
     1318000000   -1,004077271e-01   -4,494555295e-01    8,836875111e-02   -1,376090571e-02    0,000000000e+00    0,000000000e+00    0,000000000e+00    0,000000000e+00
     1332000000   -3,558599353e-01   -4,373301864e-01    8,175338060e-02   -1,522502024e-02    0,000000000e+00    0,000000000e+00    0,000000000e+00    0,000000000e+00
     1346000000   -5,925968289e-01   -2,487104982e-01    1,069928706e-01   -3,022923600e-03    0,000000000e+00    0,000000000e+00    0,000000000e+00    0,000000000e+00
     1360000000   -6,488912702e-01    7,510764897e-02    1,444184780e-01   -1,206548698e-02    0,000000000e+00    0,000000000e+00    0,000000000e+00    0,000000000e+00
     1374000000   -4,944155216e-01    3,355661035e-01    1,744650006e-01   -5,372504890e-02    0,000000000e+00    0,000000000e+00    0,000000000e+00    0,000000000e+00
     1388000000   -2,552945316e-01    4,251491129e-01    1,595609933e-01   -8,482010663e-02    0,000000000e+00    0,000000000e+00    0,000000000e+00    0,000000000e+00
     1402000000   -4,789870232e-02    3,840243518e-01    1,418613493e-01   -1,015188843e-01    0,000000000e+00    0,000000000e+00    0,000000000e+00    0,000000000e+00
     1416000000    1,053531989e-01    2,848019004e-01    1,360730231e-01   -8,689651638e-02    0,000000000e+00    0,000000000e+00    0,000000000e+00    0,000000000e+00
     1430000000    1,915039718e-01    1,523619890e-01    1,436447650e-01   -4,773103446e-02    0,000000000e+00    0,000000000e+00    0,000000000e+00    0,000000000e+00
     1444000000    2,171694338e-01   -8,329196833e-03    1,196977943e-01   -1,748828962e-02    0,000000000e+00    0,000000000e+00    0,000000000e+00    0,000000000e+00
     1458000000    1,789045483e-01   -1,835407913e-01    1,544276774e-01    1,937034167e-02    0,000000000e+00    0,000000000e+00    0,000000000e+00    0,000000000e+00
     1472000000    7,125197351e-02   -3,534829319e-01    2,015599906e-01    5,587290600e-02    0,000000000e+00    0,000000000e+00    0,000000000e+00    0,000000000e+00
     1486000000   -1,293359399e-01   -4,774036109e-01    3,084377348e-01    8,623168617e-02    0,000000000e+00    0,000000000e+00    0,000000000e+00    0,000000000e+00
     1500000000   -4,478195012e-01   -4,747143388e-01    3,934057057e-01    4,284083843e-02    0,000000000e+00    0,000000000e+00    0,000000000e+00    0,000000000e+00
