! NanoVNA-App
! Date: 2025-09-25 16:01:25
! Start: 100MHz Stop: 1,5GHz Points: 101
! S-Parameter data: F S11 S21 S12 S22
# Hz S RI R 50
!     Frequency           S11_Real           S11_Imag           S21_Real           S21_Imag           S12_Real           S12_Imag           S22_Real           S22_Imag
      100000000   -2,828256600e-02   -2,859375207e-03    3,723102212e-01   -7,223951221e-01    0,000000000e+00    0,000000000e+00    0,000000000e+00    0,000000000e+00
      114000000   -1,570966840e-02    1,290259976e-02   -9,131009877e-02   -8,049246669e-01    0,000000000e+00    0,000000000e+00    0,000000000e+00    0,000000000e+00
      128000000    4,312626086e-03    1,198101323e-02   -5,157613158e-01   -6,188020110e-01    0,000000000e+00    0,000000000e+00    0,000000000e+00    0,000000000e+00
      142000000    1,548368763e-02   -1,740752952e-03   -7,674238086e-01   -2,341853529e-01    0,000000000e+00    0,000000000e+00    0,000000000e+00    0,000000000e+00
      156000000    1,564143784e-02   -1,365212165e-02   -7,700661421e-01    2,231255621e-01    0,000000000e+00    0,000000000e+00    0,000000000e+00    0,000000000e+00
      170000000    1,765294001e-02   -2,094674669e-02   -5,154045224e-01    6,061028838e-01    0,000000000e+00    0,000000000e+00    0,000000000e+00    0,000000000e+00
      184000000    2,201916836e-02   -3,552613035e-02   -9,841407090e-02    7,861377001e-01    0,000000000e+00    0,000000000e+00    0,000000000e+00    0,000000000e+00
      198000000    1,402937248e-02   -6,065176427e-02    3,460080028e-01    7,107536197e-01    0,000000000e+00    0,000000000e+00    0,000000000e+00    0,000000000e+00
      212000000   -1,765954122e-02   -7,916548103e-02    6,807913780e-01    4,063016772e-01    0,000000000e+00    0,000000000e+00    0,000000000e+00    0,000000000e+00
      226000000   -6,029182673e-02   -6,663423032e-02    7,957391739e-01   -3,560665250e-02    0,000000000e+00    0,000000000e+00    0,000000000e+00    0,000000000e+00
      240000000   -8,049464971e-02   -2,269557863e-02    6,416811347e-01   -4,719870687e-01    0,000000000e+00    0,000000000e+00    0,000000000e+00    0,000000000e+00
      254000000   -6,078452617e-02    1,981662959e-02    2,709791362e-01   -7,422606945e-01    0,000000000e+00    0,000000000e+00    0,000000000e+00    0,000000000e+00
      268000000   -2,086048760e-02    3,088954650e-02   -1,810162514e-01   -7,610222101e-01    0,000000000e+00    0,000000000e+00    0,000000000e+00    0,000000000e+00
      282000000    6,916749291e-03    1,375679020e-02   -5,633032322e-01   -5,323891044e-01    0,000000000e+00    0,000000000e+00    0,000000000e+00    0,000000000e+00
      296000000    1,239853166e-02   -6,209049840e-03   -7,607185841e-01   -1,343602389e-01    0,000000000e+00    0,000000000e+00    0,000000000e+00    0,000000000e+00
      310000000    1,367902849e-02   -1,455482375e-02   -7,080478072e-01    3,036167920e-01    0,000000000e+00    0,000000000e+00    0,000000000e+00    0,000000000e+00
      324000000    2,236435004e-02   -2,479054406e-02   -4,221471250e-01    6,401651502e-01    0,000000000e+00    0,000000000e+00    0,000000000e+00    0,000000000e+00
      338000000    2,838206291e-02   -5,046692118e-02   -3,088441445e-04    7,604411840e-01    0,000000000e+00    0,000000000e+00    0,000000000e+00    0,000000000e+00
      352000000    1,027446426e-02   -8,266857266e-02    4,121377170e-01    6,354200244e-01    0,000000000e+00    0,000000000e+00    0,000000000e+00    0,000000000e+00
      366000000   -3,165151924e-02   -9,381261468e-02    6,928124428e-01    3,039501309e-01    0,000000000e+00    0,000000000e+00    0,000000000e+00    0,000000000e+00
      380000000   -6,756891310e-02   -6,864179671e-02    7,458655834e-01   -1,340049058e-01    0,000000000e+00    0,000000000e+00    0,000000000e+00    0,000000000e+00
      394000000   -6,851837784e-02   -3,048713692e-02    5,411602855e-01   -5,290252566e-01    0,000000000e+00    0,000000000e+00    0,000000000e+00    0,000000000e+00
      408000000   -4,278225079e-02   -1,556758769e-02    1,507978886e-01   -7,343920469e-01    0,000000000e+00    0,000000000e+00    0,000000000e+00    0,000000000e+00
      422000000   -2,621744759e-02   -3,120803647e-02   -2,795283198e-01   -6,905354857e-01    0,000000000e+00    0,000000000e+00    0,000000000e+00    0,000000000e+00
      436000000   -3,957010433e-02   -4,902768508e-02   -6,103419662e-01   -4,198763967e-01    0,000000000e+00    0,000000000e+00    0,000000000e+00    0,000000000e+00
      450000000   -6,486450881e-02   -3,911542892e-02   -7,374576926e-01   -7,646399084e-03    0,000000000e+00    0,000000000e+00    0,000000000e+00    0,000000000e+00
      464000000   -6,799259782e-02   -6,495483685e-03   -6,081528068e-01    4,064854085e-01    0,000000000e+00    0,000000000e+00    0,000000000e+00    0,000000000e+00
      478000000   -3,870541975e-02    1,581069641e-02   -2,682379484e-01    6,698904634e-01    0,000000000e+00    0,000000000e+00    0,000000000e+00    0,000000000e+00
      492000000   -5,213958211e-03    6,651504431e-03    1,518711597e-01    6,956770420e-01    0,000000000e+00    0,000000000e+00    0,000000000e+00    0,000000000e+00
      506000000    7,076795213e-03   -2,035406418e-02    5,076175332e-01    4,884530306e-01    0,000000000e+00    0,000000000e+00    0,000000000e+00    0,000000000e+00
      520000000    8,570711943e-04   -3,899268061e-02    6,908730268e-01    1,219982356e-01    0,000000000e+00    0,000000000e+00    0,000000000e+00    0,000000000e+00
      534000000   -3,290995723e-03   -4,553877562e-02    6,321086884e-01   -2,819810510e-01    0,000000000e+00    0,000000000e+00    0,000000000e+00    0,000000000e+00
      548000000    7,559624501e-04   -5,979107320e-02    3,605570197e-01   -5,798287988e-01    0,000000000e+00    0,000000000e+00    0,000000000e+00    0,000000000e+00
      562000000   -8,021102287e-03   -8,825194836e-02   -2,710165083e-02   -6,723131537e-01    0,000000000e+00    0,000000000e+00    0,000000000e+00    0,000000000e+00
      576000000   -4,558203742e-02   -1,094893664e-01   -4,012698531e-01   -5,382426381e-01    0,000000000e+00    0,000000000e+00    0,000000000e+00    0,000000000e+00
      590000000   -9,483049810e-02   -9,345143288e-02   -6,403523684e-01   -2,198411077e-01    0,000000000e+00    0,000000000e+00    0,000000000e+00    0,000000000e+00
      604000000   -1,119209528e-01   -4,107955843e-02   -6,476608515e-01    1,986299753e-01    0,000000000e+00    0,000000000e+00    0,000000000e+00    0,000000000e+00
      618000000   -7,544823736e-02   -2,188576851e-03   -4,014666378e-01    5,358850360e-01    0,000000000e+00    0,000000000e+00    0,000000000e+00    0,000000000e+00
      632000000   -3,031991236e-02   -2,107126452e-02   -1,288036630e-02    6,551306248e-01    0,000000000e+00    0,000000000e+00    0,000000000e+00    0,000000000e+00
      646000000   -3,601664677e-02   -7,655233145e-02    3,659930527e-01    5,274502039e-01    0,000000000e+00    0,000000000e+00    0,000000000e+00    0,000000000e+00
      660000000   -1,113591418e-01   -9,926012903e-02    6,006671786e-01    1,939355433e-01    0,000000000e+00    0,000000000e+00    0,000000000e+00    0,000000000e+00
      674000000   -1,996223181e-01   -2,322409861e-02    5,651057959e-01   -2,402130514e-01    0,000000000e+00    0,000000000e+00    0,000000000e+00    0,000000000e+00
      688000000   -1,787406653e-01    1,453627199e-01    2,095558941e-01   -5,215315819e-01    0,000000000e+00    0,000000000e+00    0,000000000e+00    0,000000000e+00
      702000000    2,437642775e-02    2,474360764e-01   -2,032808363e-01   -4,111050963e-01    0,000000000e+00    0,000000000e+00    0,000000000e+00    0,000000000e+00
      716000000    2,629608214e-01    1,106255352e-01   -2,738518119e-01   -8,377125114e-02    0,000000000e+00    0,000000000e+00    0,000000000e+00    0,000000000e+00
      730000000    3,038129210e-01   -1,861046106e-01   -1,068723202e-01    3,249442205e-02    0,000000000e+00    0,000000000e+00    0,000000000e+00    0,000000000e+00
      744000000    9,430053085e-02   -4,284889400e-01   -4,211024567e-02   -6,430906057e-02    0,000000000e+00    0,000000000e+00    0,000000000e+00    0,000000000e+00
      758000000   -2,586903870e-01   -4,300164580e-01   -1,754617393e-01   -1,254338175e-01    0,000000000e+00    0,000000000e+00    0,000000000e+00    0,000000000e+00
      772000000   -4,852592349e-01   -1,188921705e-01   -3,362948895e-01    3,797363862e-02    0,000000000e+00    0,000000000e+00    0,000000000e+00    0,000000000e+00
      786000000   -3,413195908e-01    2,210429311e-01   -2,632370591e-01    3,170499504e-01    0,000000000e+00    0,000000000e+00    0,000000000e+00    0,000000000e+00
      800000000   -4,137190804e-02    2,764021456e-01    2,866025781e-03    4,369542599e-01    0,000000000e+00    0,000000000e+00    0,000000000e+00    0,000000000e+00
      814000000    1,438899487e-01    1,256040037e-01    2,634157836e-01    3,597783148e-01    0,000000000e+00    0,000000000e+00    0,000000000e+00    0,000000000e+00
      828000000    1,679829210e-01   -7,040005922e-02    4,332676530e-01    1,565682292e-01    0,000000000e+00    0,000000000e+00    0,000000000e+00    0,000000000e+00
      842000000    6,737498194e-02   -2,183014750e-01    4,665153325e-01   -1,201537326e-01    0,000000000e+00    0,000000000e+00    0,000000000e+00    0,000000000e+00
      856000000   -1,069025844e-01   -2,634365559e-01    3,199368119e-01   -3,937570155e-01    0,000000000e+00    0,000000000e+00    0,000000000e+00    0,000000000e+00
      870000000   -2,743360102e-01   -1,682263017e-01   -2,335910220e-03   -5,270234346e-01    0,000000000e+00    0,000000000e+00    0,000000000e+00    0,000000000e+00
      884000000   -3,212972879e-01    3,589345515e-02   -3,482263386e-01   -3,928897381e-01    0,000000000e+00    0,000000000e+00    0,000000000e+00    0,000000000e+00
      898000000   -1,910213083e-01    2,065960467e-01   -4,885880351e-01   -6,235253811e-02    0,000000000e+00    0,000000000e+00    0,000000000e+00    0,000000000e+00
      912000000    7,442574948e-03    2,190901786e-01   -4,115928710e-01    2,739463151e-01    0,000000000e+00    0,000000000e+00    0,000000000e+00    0,000000000e+00
      926000000    1,489714384e-01    1,124765053e-01   -1,699864268e-01    4,144967794e-01    0,000000000e+00    0,000000000e+00    0,000000000e+00    0,000000000e+00
      940000000    2,001902610e-01   -4,452454671e-02    6,351995468e-02    4,233927727e-01    0,000000000e+00    0,000000000e+00    0,000000000e+00    0,000000000e+00
      954000000    1,533768177e-01   -1,997593492e-01    2,623590231e-01    3,408310711e-01    0,000000000e+00    0,000000000e+00    0,000000000e+00    0,000000000e+00
      968000000    2,179645374e-02   -3,127782047e-01    4,108313620e-01    1,780598909e-01    0,000000000e+00    0,000000000e+00    0,000000000e+00    0,000000000e+00
      982000000   -1,599787176e-01   -3,302843571e-01    4,739996195e-01   -6,785816699e-02    0,000000000e+00    0,000000000e+00    0,000000000e+00    0,000000000e+00
      996000000   -3,260952532e-01   -2,113954425e-01    3,687357605e-01   -3,558894694e-01    0,000000000e+00    0,000000000e+00    0,000000000e+00    0,000000000e+00
     1010000000   -3,402625918e-01   -9,309284389e-03    4,229924455e-02   -5,223637819e-01    0,000000000e+00    0,000000000e+00    0,000000000e+00    0,000000000e+00
     1024000000   -2,028373629e-01    9,217320383e-02   -3,455676138e-01   -3,784027398e-01    0,000000000e+00    0,000000000e+00    0,000000000e+00    0,000000000e+00
     1038000000   -1,337971389e-01    1,139908284e-02   -4,854942262e-01    6,258543581e-02    0,000000000e+00    0,000000000e+00    0,000000000e+00    0,000000000e+00
     1052000000   -2,890395224e-01    5,028974265e-02   -9,595616907e-02    3,742122352e-01    0,000000000e+00    0,000000000e+00    0,000000000e+00    0,000000000e+00
     1066000000   -1,455758214e-01    2,927118838e-01    1,442593485e-01    1,311061382e-01    0,000000000e+00    0,000000000e+00    0,000000000e+00    0,000000000e+00
     1080000000    9,636750817e-02    2,491709292e-01    8,963230997e-02    1,898054034e-02    0,000000000e+00    0,000000000e+00    0,000000000e+00    0,000000000e+00
     1094000000    2,231539786e-01    8,945436031e-02    6,794913858e-02    1,096113678e-02    0,000000000e+00    0,000000000e+00    0,000000000e+00    0,000000000e+00
     1108000000    2,417040616e-01   -8,980881423e-02    8,189974725e-02    1,293794921e-04    0,000000000e+00    0,000000000e+00    0,000000000e+00    0,000000000e+00
     1122000000    1,870274246e-01   -2,540154755e-01    1,052033827e-01   -2,730737440e-02    0,000000000e+00    0,000000000e+00    0,000000000e+00    0,000000000e+00
     1136000000    4,743858427e-02   -3,793469071e-01    1,243860498e-01   -7,302707434e-02    0,000000000e+00    0,000000000e+00    0,000000000e+00    0,000000000e+00
     1150000000   -1,551489532e-01   -4,209460914e-01    1,382907927e-01   -1,487063617e-01    0,000000000e+00    0,000000000e+00    0,000000000e+00    0,000000000e+00
     1164000000   -3,735581934e-01   -3,278857768e-01    9,817477316e-02   -2,772882283e-01    0,000000000e+00    0,000000000e+00    0,000000000e+00    0,000000000e+00
     1178000000   -4,694695473e-01   -8,684635162e-02   -1,062396392e-01   -4,059545696e-01    0,000000000e+00    0,000000000e+00    0,000000000e+00    0,000000000e+00
     1192000000   -3,761790097e-01    3,555664048e-02   -4,624566436e-01   -1,960819364e-01    0,000000000e+00    0,000000000e+00    0,000000000e+00    0,000000000e+00
     1206000000   -4,148731828e-01    1,359332651e-01   -2,771537304e-01    2,408289462e-01    0,000000000e+00    0,000000000e+00    0,000000000e+00    0,000000000e+00
     1220000000   -2,701785862e-01    3,278999031e-01   -4,138559569e-03    1,635600626e-01    0,000000000e+00    0,000000000e+00    0,000000000e+00    0,000000000e+00
     1234000000   -4,389140382e-02    3,479259908e-01    2,849675529e-02    5,236024410e-02    0,000000000e+00    0,000000000e+00    0,000000000e+00    0,000000000e+00
     1248000000    1,168072373e-01    2,529100180e-01    6,463319063e-03    2,496760525e-02    0,000000000e+00    0,000000000e+00    0,000000000e+00    0,000000000e+00
     1262000000    2,154597193e-01    1,021977589e-01    6,072472781e-03    2,753486671e-02    0,000000000e+00    0,000000000e+00    0,000000000e+00    0,000000000e+00
     1276000000    2,330339998e-01   -6,123497710e-02    2,269281074e-02    3,052486666e-02    0,000000000e+00    0,000000000e+00    0,000000000e+00    0,000000000e+00
     1290000000    1,929433495e-01   -2,177690417e-01    5,484354869e-02    2,017215453e-02    0,000000000e+00    0,000000000e+00    0,000000000e+00    0,000000000e+00
     1304000000    8,053831011e-02   -3,564887047e-01    7,038091123e-02    4,129172303e-03    0,000000000e+00    0,000000000e+00    0,000000000e+00    0,000000000e+00
     1318000000   -1,033497751e-01   -4,495399892e-01    8,124583960e-02   -1,730965637e-02    0,000000000e+00    0,000000000e+00    0,000000000e+00    0,000000000e+00
     1332000000   -3,551434875e-01   -4,364970028e-01    8,606801927e-02   -2,248826623e-02    0,000000000e+00    0,000000000e+00    0,000000000e+00    0,000000000e+00
     1346000000   -5,890951753e-01   -2,460391819e-01    1,070071310e-01   -9,407329373e-03    0,000000000e+00    0,000000000e+00    0,000000000e+00    0,000000000e+00
     1360000000   -6,468316317e-01    7,361991704e-02    1,452264935e-01   -2,389490977e-02    0,000000000e+00    0,000000000e+00    0,000000000e+00    0,000000000e+00
     1374000000   -4,958011508e-01    3,316408098e-01    1,653535962e-01   -4,664155468e-02    0,000000000e+00    0,000000000e+00    0,000000000e+00    0,000000000e+00
     1388000000   -2,513750494e-01    4,236970544e-01    1,651394516e-01   -9,418205172e-02    0,000000000e+00    0,000000000e+00    0,000000000e+00    0,000000000e+00
     1402000000   -4,243241623e-02    3,888780475e-01    1,481991857e-01   -9,265176952e-02    0,000000000e+00    0,000000000e+00    0,000000000e+00    0,000000000e+00
     1416000000    1,056609601e-01    2,883425951e-01    1,285884678e-01   -8,469438553e-02    0,000000000e+00    0,000000000e+00    0,000000000e+00    0,000000000e+00
     1430000000    1,940483749e-01    1,516819447e-01    1,387255937e-01   -6,128790602e-02    0,000000000e+00    0,000000000e+00    0,000000000e+00    0,000000000e+00
     1444000000    2,129944265e-01   -1,070576534e-02    1,301258206e-01   -2,646427415e-02    0,000000000e+00    0,000000000e+00    0,000000000e+00    0,000000000e+00
     1458000000    1,820222288e-01   -1,856024265e-01    1,411338001e-01    9,790593758e-03    0,000000000e+00    0,000000000e+00    0,000000000e+00    0,000000000e+00
     1472000000    6,920124590e-02   -3,535483778e-01    2,049381286e-01    6,002085283e-02    0,000000000e+00    0,000000000e+00    0,000000000e+00    0,000000000e+00
     1486000000   -1,404413879e-01   -4,711745679e-01    3,061128855e-01    1,014670283e-01    0,000000000e+00    0,000000000e+00    0,000000000e+00    0,000000000e+00
     1500000000   -4,448334575e-01   -4,715114534e-01    3,907847106e-01    4,454452544e-02    0,000000000e+00    0,000000000e+00    0,000000000e+00    0,000000000e+00
