! NanoVNA-App
! Date: 2025-09-25 16:02:35
! Start: 100MHz Stop: 1,5GHz Points: 101
! S-Parameter data: F S11 S21 S12 S22
# Hz S RI R 50
!     Frequency           S11_Real           S11_Imag           S21_Real           S21_Imag           S12_Real           S12_Imag           S22_Real           S22_Imag
      100000000   -2,830593474e-02   -2,886981936e-03    3,723243773e-01   -7,224484086e-01    0,000000000e+00    0,000000000e+00    0,000000000e+00    0,000000000e+00
      114000000   -1,577200182e-02    1,288297027e-02   -9,126088768e-02   -8,046111465e-01    0,000000000e+00    0,000000000e+00    0,000000000e+00    0,000000000e+00
      128000000    4,348625895e-03    1,195603143e-02   -5,159839988e-01   -6,188783050e-01    0,000000000e+00    0,000000000e+00    0,000000000e+00    0,000000000e+00
      142000000    1,548120659e-02   -1,708420110e-03   -7,673894763e-01   -2,341426611e-01    0,000000000e+00    0,000000000e+00    0,000000000e+00    0,000000000e+00
      156000000    1,734745875e-02   -1,374509931e-02   -7,667097449e-01    2,268844545e-01    0,000000000e+00    0,000000000e+00    0,000000000e+00    0,000000000e+00
      170000000    1,766397804e-02   -2,092870511e-02   -5,153667331e-01    6,062933803e-01    0,000000000e+00    0,000000000e+00    0,000000000e+00    0,000000000e+00
      184000000    2,199409343e-02   -3,554101661e-02   -9,851948917e-02    7,860972285e-01    0,000000000e+00    0,000000000e+00    0,000000000e+00    0,000000000e+00
      198000000    1,399277523e-02   -6,066601351e-02    3,460878730e-01    7,107379436e-01    0,000000000e+00    0,000000000e+00    0,000000000e+00    0,000000000e+00
      212000000   -1,768472046e-02   -7,911618799e-02    6,809037924e-01    4,061084390e-01    0,000000000e+00    0,000000000e+00    0,000000000e+00    0,000000000e+00
      226000000   -6,028207019e-02   -6,657958031e-02    7,958713174e-01   -3,565315157e-02    0,000000000e+00    0,000000000e+00    0,000000000e+00    0,000000000e+00
      240000000   -8,053479344e-02   -2,273268439e-02    6,417703629e-01   -4,716015458e-01    0,000000000e+00    0,000000000e+00    0,000000000e+00    0,000000000e+00
      254000000   -6,079179421e-02    1,987545937e-02    2,707667053e-01   -7,420648336e-01    0,000000000e+00    0,000000000e+00    0,000000000e+00    0,000000000e+00
      268000000   -2,098865435e-02    3,080336563e-02   -1,812652498e-01   -7,609522939e-01    0,000000000e+00    0,000000000e+00    0,000000000e+00    0,000000000e+00
      282000000    6,922974717e-03    1,379511598e-02   -5,632094145e-01   -5,323924422e-01    0,000000000e+00    0,000000000e+00    0,000000000e+00    0,000000000e+00
      296000000    1,248372998e-02   -6,280864589e-03   -7,604345679e-01   -1,343816817e-01    0,000000000e+00    0,000000000e+00    0,000000000e+00    0,000000000e+00
      310000000    1,360503957e-02   -1,453244686e-02   -7,091180682e-01    3,054570854e-01    0,000000000e+00    0,000000000e+00    0,000000000e+00    0,000000000e+00
      324000000    2,256714180e-02   -2,469271049e-02   -4,213069081e-01    6,394165754e-01    0,000000000e+00    0,000000000e+00    0,000000000e+00    0,000000000e+00
      338000000    2,815422788e-02   -5,061049014e-02   -4,693396389e-03    7,589907646e-01    0,000000000e+00    0,000000000e+00    0,000000000e+00    0,000000000e+00
      352000000    1,040894445e-02   -8,285463601e-02    4,125885963e-01    6,348072886e-01    0,000000000e+00    0,000000000e+00    0,000000000e+00    0,000000000e+00
      366000000   -3,184220567e-02   -9,372980148e-02    6,926996112e-01    3,044015169e-01    0,000000000e+00    0,000000000e+00    0,000000000e+00    0,000000000e+00
      380000000   -6,740064174e-02   -6,878716499e-02    7,462419271e-01   -1,343378276e-01    0,000000000e+00    0,000000000e+00    0,000000000e+00    0,000000000e+00
      394000000   -6,859676540e-02   -3,038378432e-02    5,392293930e-01   -5,292694569e-01    0,000000000e+00    0,000000000e+00    0,000000000e+00    0,000000000e+00
      408000000   -4,280927405e-02   -1,572334766e-02    1,503192633e-01   -7,349845171e-01    0,000000000e+00    0,000000000e+00    0,000000000e+00    0,000000000e+00
      422000000   -2,588618733e-02   -3,121524677e-02   -2,789713144e-01   -6,894608140e-01    0,000000000e+00    0,000000000e+00    0,000000000e+00    0,000000000e+00
      436000000   -3,911588714e-02   -4,924928024e-02   -6,103337407e-01   -4,198983312e-01    0,000000000e+00    0,000000000e+00    0,000000000e+00    0,000000000e+00
      450000000   -6,481648237e-02   -3,891305253e-02   -7,372254133e-01   -7,610894274e-03    0,000000000e+00    0,000000000e+00    0,000000000e+00    0,000000000e+00
      464000000   -6,756290793e-02   -6,484048907e-03   -6,077333093e-01    4,061169028e-01    0,000000000e+00    0,000000000e+00    0,000000000e+00    0,000000000e+00
      478000000   -3,818121552e-02    1,596623845e-02   -2,674341500e-01    6,705872416e-01    0,000000000e+00    0,000000000e+00    0,000000000e+00    0,000000000e+00
      492000000   -5,209734663e-03    6,328571122e-03    1,513959169e-01    6,945815682e-01    0,000000000e+00    0,000000000e+00    0,000000000e+00    0,000000000e+00
      506000000    6,908537820e-03   -2,006308176e-02    5,080667734e-01    4,884247482e-01    0,000000000e+00    0,000000000e+00    0,000000000e+00    0,000000000e+00
      520000000    7,523442036e-04   -3,844031692e-02    6,890318394e-01    1,215991154e-01    0,000000000e+00    0,000000000e+00    0,000000000e+00    0,000000000e+00
      534000000   -2,886744216e-03   -4,535244778e-02    6,330927014e-01   -2,819724679e-01    0,000000000e+00    0,000000000e+00    0,000000000e+00    0,000000000e+00
      548000000    1,051067025e-03   -5,946902186e-02    3,605095744e-01   -5,790778995e-01    0,000000000e+00    0,000000000e+00    0,000000000e+00    0,000000000e+00
      562000000   -7,837287150e-03   -8,836522698e-02   -2,695079148e-02   -6,726609468e-01    0,000000000e+00    0,000000000e+00    0,000000000e+00    0,000000000e+00
      576000000   -4,556568339e-02   -1,097471640e-01   -4,013962150e-01   -5,383297205e-01    0,000000000e+00    0,000000000e+00    0,000000000e+00    0,000000000e+00
      590000000   -9,482997656e-02   -9,366336465e-02   -6,412115693e-01   -2,201967984e-01    0,000000000e+00    0,000000000e+00    0,000000000e+00    0,000000000e+00
      604000000   -1,117365882e-01   -4,130263627e-02   -6,473190188e-01    1,979846954e-01    0,000000000e+00    0,000000000e+00    0,000000000e+00    0,000000000e+00
      618000000   -7,575003058e-02   -2,317087026e-03   -4,021730721e-01    5,355688930e-01    0,000000000e+00    0,000000000e+00    0,000000000e+00    0,000000000e+00
      632000000   -2,972231247e-02   -2,073497511e-02   -1,259142719e-02    6,551996469e-01    0,000000000e+00    0,000000000e+00    0,000000000e+00    0,000000000e+00
      646000000   -3,625295311e-02   -7,719968259e-02    3,660264611e-01    5,278089046e-01    0,000000000e+00    0,000000000e+00    0,000000000e+00    0,000000000e+00
      660000000   -1,114691049e-01   -9,945884347e-02    6,003668904e-01    1,932959408e-01    0,000000000e+00    0,000000000e+00    0,000000000e+00    0,000000000e+00
      674000000   -2,001448870e-01   -2,361533232e-02    5,655707121e-01   -2,404854298e-01    0,000000000e+00    0,000000000e+00    0,000000000e+00    0,000000000e+00
      688000000   -1,781444103e-01    1,446937174e-01    2,101985961e-01   -5,218622684e-01    0,000000000e+00    0,000000000e+00    0,000000000e+00    0,000000000e+00
      702000000    2,581522986e-02    2,449330539e-01   -1,999769807e-01   -4,039193094e-01    0,000000000e+00    0,000000000e+00    0,000000000e+00    0,000000000e+00
      716000000    2,630745173e-01    1,104863584e-01   -2,741139233e-01   -8,427131921e-02    0,000000000e+00    0,000000000e+00    0,000000000e+00    0,000000000e+00
      730000000    3,036616147e-01   -1,852690130e-01   -1,081063747e-01    3,278071061e-02    0,000000000e+00    0,000000000e+00    0,000000000e+00    0,000000000e+00
      744000000    9,514896572e-02   -4,264960587e-01   -4,241902381e-02   -6,409974396e-02    0,000000000e+00    0,000000000e+00    0,000000000e+00    0,000000000e+00
      758000000   -2,576405108e-01   -4,294872880e-01   -1,747991443e-01   -1,252240837e-01    0,000000000e+00    0,000000000e+00    0,000000000e+00    0,000000000e+00
      772000000   -4,861778319e-01   -1,209761873e-01   -3,361039758e-01    3,785423189e-02    0,000000000e+00    0,000000000e+00    0,000000000e+00    0,000000000e+00
      786000000   -3,426060379e-01    2,224826962e-01   -2,631767690e-01    3,160381913e-01    0,000000000e+00    0,000000000e+00    0,000000000e+00    0,000000000e+00
      800000000   -4,074828327e-02    2,770581841e-01    2,775331261e-03    4,361229539e-01    0,000000000e+00    0,000000000e+00    0,000000000e+00    0,000000000e+00
      814000000    1,445610076e-01    1,253491342e-01    2,642326057e-01    3,597257137e-01    0,000000000e+00    0,000000000e+00    0,000000000e+00    0,000000000e+00
      828000000    1,679389030e-01   -6,959025562e-02    4,330426753e-01    1,564650238e-01    0,000000000e+00    0,000000000e+00    0,000000000e+00    0,000000000e+00
      842000000    6,730607897e-02   -2,183962315e-01    4,663786590e-01   -1,194822192e-01    0,000000000e+00    0,000000000e+00    0,000000000e+00    0,000000000e+00
      856000000   -1,062586084e-01   -2,643685639e-01    3,204286993e-01   -3,944272995e-01    0,000000000e+00    0,000000000e+00    0,000000000e+00    0,000000000e+00
      870000000   -2,748577297e-01   -1,687989831e-01   -2,385655884e-03   -5,267746449e-01    0,000000000e+00    0,000000000e+00    0,000000000e+00    0,000000000e+00
      884000000   -3,215671480e-01    3,630036488e-02   -3,483628631e-01   -3,914693892e-01    0,000000000e+00    0,000000000e+00    0,000000000e+00    0,000000000e+00
      898000000   -1,921741515e-01    2,063354105e-01   -4,885924160e-01   -6,262450665e-02    0,000000000e+00    0,000000000e+00    0,000000000e+00    0,000000000e+00
      912000000    6,218822207e-03    2,188354284e-01   -3,962928951e-01    2,774125040e-01    0,000000000e+00    0,000000000e+00    0,000000000e+00    0,000000000e+00
      926000000    1,495195180e-01    1,117680892e-01   -1,708654910e-01    4,155781567e-01    0,000000000e+00    0,000000000e+00    0,000000000e+00    0,000000000e+00
      940000000    1,998131126e-01   -4,782390222e-02    6,404790282e-02    4,236087799e-01    0,000000000e+00    0,000000000e+00    0,000000000e+00    0,000000000e+00
      954000000    1,520532817e-01   -2,013938427e-01    2,612193227e-01    3,418908715e-01    0,000000000e+00    0,000000000e+00    0,000000000e+00    0,000000000e+00
      968000000    2,195071429e-02   -3,138422966e-01    4,099886715e-01    1,783044934e-01    0,000000000e+00    0,000000000e+00    0,000000000e+00    0,000000000e+00
      982000000   -1,588805318e-01   -3,305076063e-01    4,747666121e-01   -6,627348065e-02    0,000000000e+00    0,000000000e+00    0,000000000e+00    0,000000000e+00
      996000000   -3,273524642e-01   -2,109282464e-01    3,683369458e-01   -3,574119508e-01    0,000000000e+00    0,000000000e+00    0,000000000e+00    0,000000000e+00
     1010000000   -3,415448070e-01   -1,126123965e-02    4,217144474e-02   -5,258507133e-01    0,000000000e+00    0,000000000e+00    0,000000000e+00    0,000000000e+00
     1024000000   -2,086586803e-01    9,446622431e-02   -3,471292853e-01   -3,801138699e-01    0,000000000e+00    0,000000000e+00    0,000000000e+00    0,000000000e+00
     1038000000   -1,379444897e-01    9,102383628e-03   -4,808741212e-01    6,433308870e-02    0,000000000e+00    0,000000000e+00    0,000000000e+00    0,000000000e+00
     1052000000   -2,856832743e-01    5,598140135e-02   -9,567647427e-02    3,723984361e-01    0,000000000e+00    0,000000000e+00    0,000000000e+00    0,000000000e+00
     1066000000   -1,478243619e-01    2,969294488e-01    1,425460130e-01    1,298180372e-01    0,000000000e+00    0,000000000e+00    0,000000000e+00    0,000000000e+00
     1080000000    1,046545133e-01    2,498495728e-01    9,028778970e-02    2,140578069e-02    0,000000000e+00    0,000000000e+00    0,000000000e+00    0,000000000e+00
     1094000000    2,239667326e-01    8,979959786e-02    6,765784323e-02    9,362603538e-03    0,000000000e+00    0,000000000e+00    0,000000000e+00    0,000000000e+00
     1108000000    2,412478775e-01   -9,054906666e-02    8,192853630e-02    1,541428152e-03    0,000000000e+00    0,000000000e+00    0,000000000e+00    0,000000000e+00
     1122000000    1,832762063e-01   -2,543210089e-01    1,039582118e-01   -2,700741589e-02    0,000000000e+00    0,000000000e+00    0,000000000e+00    0,000000000e+00
     1136000000    5,142302066e-02   -3,813429475e-01    1,276886165e-01   -7,200580090e-02    0,000000000e+00    0,000000000e+00    0,000000000e+00    0,000000000e+00
     1150000000   -1,516758800e-01   -4,239238501e-01    1,386810392e-01   -1,486133933e-01    0,000000000e+00    0,000000000e+00    0,000000000e+00    0,000000000e+00
     1164000000   -3,748277128e-01   -3,229025304e-01    9,759034216e-02   -2,787849605e-01    0,000000000e+00    0,000000000e+00    0,000000000e+00    0,000000000e+00
     1178000000   -4,653465748e-01   -8,862340450e-02   -1,059353426e-01   -4,051767886e-01    0,000000000e+00    0,000000000e+00    0,000000000e+00    0,000000000e+00
     1192000000   -3,764456809e-01    3,951606899e-02   -4,622026086e-01   -1,930644959e-01    0,000000000e+00    0,000000000e+00    0,000000000e+00    0,000000000e+00
     1206000000   -4,191169441e-01    1,325429231e-01   -2,752068341e-01    2,386367768e-01    0,000000000e+00    0,000000000e+00    0,000000000e+00    0,000000000e+00
     1220000000   -2,741216421e-01    3,343816400e-01   -2,960795071e-03    1,655624062e-01    0,000000000e+00    0,000000000e+00    0,000000000e+00    0,000000000e+00
     1234000000   -4,544133320e-02    3,527924716e-01    2,137964778e-02    5,286392570e-02    0,000000000e+00    0,000000000e+00    0,000000000e+00    0,000000000e+00
     1248000000    1,191646829e-01    2,548715770e-01    7,876008167e-04    2,499490604e-02    0,000000000e+00    0,000000000e+00    0,000000000e+00    0,000000000e+00
     1262000000    2,167131901e-01    1,012115106e-01    7,313510403e-03    2,969863079e-02    0,000000000e+00    0,000000000e+00    0,000000000e+00    0,000000000e+00
     1276000000    2,338847816e-01   -6,227412447e-02    3,100251220e-02    3,212872893e-02    0,000000000e+00    0,000000000e+00    0,000000000e+00    0,000000000e+00
     1290000000    1,930824369e-01   -2,133229822e-01    5,845246091e-02    2,975285240e-02    0,000000000e+00    0,000000000e+00    0,000000000e+00    0,000000000e+00
     1304000000    8,136428893e-02   -3,534030914e-01    7,576741278e-02    4,561656620e-03    0,000000000e+00    0,000000000e+00    0,000000000e+00    0,000000000e+00
     1318000000   -9,865570068e-02   -4,451740086e-01    8,325393498e-02   -1,246553473e-02    0,000000000e+00    0,000000000e+00    0,000000000e+00    0,000000000e+00
     1332000000   -3,519191146e-01   -4,366717935e-01    9,008187801e-02   -2,067746781e-02    0,000000000e+00    0,000000000e+00    0,000000000e+00    0,000000000e+00
     1346000000   -5,937227607e-01   -2,495705634e-01    1,062277183e-01   -4,105423577e-03    0,000000000e+00    0,000000000e+00    0,000000000e+00    0,000000000e+00
     1360000000   -6,491234303e-01    7,042053342e-02    1,381907165e-01   -1,359630655e-02    0,000000000e+00    0,000000000e+00    0,000000000e+00    0,000000000e+00
     1374000000   -4,888331294e-01    3,317949176e-01    1,765551120e-01   -4,543147981e-02    0,000000000e+00    0,000000000e+00    0,000000000e+00    0,000000000e+00
     1388000000   -2,547499537e-01    4,227582216e-01    1,617468596e-01   -8,668383956e-02    0,000000000e+00    0,000000000e+00    0,000000000e+00    0,000000000e+00
     1402000000   -4,522051290e-02    3,944763541e-01    1,335641891e-01   -8,873172104e-02    0,000000000e+00    0,000000000e+00    0,000000000e+00    0,000000000e+00
     1416000000    9,975244850e-02    2,863520384e-01    1,128958687e-01   -8,062469959e-02    0,000000000e+00    0,000000000e+00    0,000000000e+00    0,000000000e+00
     1430000000    1,883307099e-01    1,484395415e-01    1,432174742e-01   -7,124252617e-02    0,000000000e+00    0,000000000e+00    0,000000000e+00    0,000000000e+00
     1444000000    2,109062970e-01   -5,431285128e-03    1,191822812e-01   -1,628436893e-02    0,000000000e+00    0,000000000e+00    0,000000000e+00    0,000000000e+00
     1458000000    1,747404337e-01   -1,786220372e-01    1,345549822e-01    2,440495417e-02    0,000000000e+00    0,000000000e+00    0,000000000e+00    0,000000000e+00
     1472000000    6,199338660e-02   -3,497670591e-01    1,926921159e-01    5,483788624e-02    0,000000000e+00    0,000000000e+00    0,000000000e+00    0,000000000e+00
     1486000000   -1,427497715e-01   -4,615388811e-01    2,953726053e-01    1,012512371e-01    0,000000000e+00    0,000000000e+00    0,000000000e+00    0,000000000e+00
     1500000000   -4,406506717e-01   -4,811367989e-01    4,051266909e-01    4,361605644e-02    0,000000000e+00    0,000000000e+00    0,000000000e+00    0,000000000e+00
