! NanoVNA-App
! Date: 2025-09-25 15:59:19
! Start: 100MHz Stop: 1,5GHz Points: 101
! S-Parameter data: F S11 S21 S12 S22
# Hz S RI R 50
!     Frequency           S11_Real           S11_Imag           S21_Real           S21_Imag           S12_Real           S12_Imag           S22_Real           S22_Imag
      100000000   -2,825938724e-02   -2,858347259e-03    3,723011911e-01   -7,224290371e-01    0,000000000e+00    0,000000000e+00    0,000000000e+00    0,000000000e+00
      114000000   -1,570121571e-02    1,290045585e-02   -9,117699414e-02   -8,047437668e-01    0,000000000e+00    0,000000000e+00    0,000000000e+00    0,000000000e+00
      128000000    4,375626333e-03    1,193123683e-02   -5,160254836e-01   -6,188784838e-01    0,000000000e+00    0,000000000e+00    0,000000000e+00    0,000000000e+00
      142000000    1,547354180e-02   -1,741279732e-03   -7,672761083e-01   -2,340721488e-01    0,000000000e+00    0,000000000e+00    0,000000000e+00    0,000000000e+00
      156000000    1,656562462e-02   -1,311282255e-02   -7,645851374e-01    2,249788344e-01    0,000000000e+00    0,000000000e+00    0,000000000e+00    0,000000000e+00
      170000000    1,767682657e-02   -2,098768204e-02   -5,155875683e-01    6,061592102e-01    0,000000000e+00    0,000000000e+00    0,000000000e+00    0,000000000e+00
      184000000    2,204548195e-02   -3,554342315e-02   -9,827105701e-02    7,861915827e-01    0,000000000e+00    0,000000000e+00    0,000000000e+00    0,000000000e+00
      198000000    1,401001588e-02   -6,067059189e-02    3,457852006e-01    7,105012536e-01    0,000000000e+00    0,000000000e+00    0,000000000e+00    0,000000000e+00
      212000000   -1,766442694e-02   -7,912099361e-02    6,808156967e-01    4,061504006e-01    0,000000000e+00    0,000000000e+00    0,000000000e+00    0,000000000e+00
      226000000   -6,032856926e-02   -6,662186235e-02    7,958462834e-01   -3,554842249e-02    0,000000000e+00    0,000000000e+00    0,000000000e+00    0,000000000e+00
      240000000   -8,055217564e-02   -2,268827334e-02    6,414954066e-01   -4,719619751e-01    0,000000000e+00    0,000000000e+00    0,000000000e+00    0,000000000e+00
      254000000   -6,076192111e-02    1,976913214e-02    2,710729837e-01   -7,421326637e-01    0,000000000e+00    0,000000000e+00    0,000000000e+00    0,000000000e+00
      268000000   -2,098478936e-02    3,086093254e-02   -1,810661703e-01   -7,604570985e-01    0,000000000e+00    0,000000000e+00    0,000000000e+00    0,000000000e+00
      282000000    6,994582713e-03    1,379520819e-02   -5,630485415e-01   -5,325121880e-01    0,000000000e+00    0,000000000e+00    0,000000000e+00    0,000000000e+00
      296000000    1,231174264e-02   -6,290810648e-03   -7,604089975e-01   -1,343349218e-01    0,000000000e+00    0,000000000e+00    0,000000000e+00    0,000000000e+00
      310000000    1,362454798e-02   -1,456284057e-02   -7,085074186e-01    3,037186563e-01    0,000000000e+00    0,000000000e+00    0,000000000e+00    0,000000000e+00
      324000000    2,279746160e-02   -2,470874228e-02   -4,216832817e-01    6,392074823e-01    0,000000000e+00    0,000000000e+00    0,000000000e+00    0,000000000e+00
      338000000    2,808256261e-02   -5,069204420e-02   -2,539188368e-03    7,576152086e-01    0,000000000e+00    0,000000000e+00    0,000000000e+00    0,000000000e+00
      352000000    1,005064137e-02   -8,311001956e-02    4,122052789e-01    6,346407533e-01    0,000000000e+00    0,000000000e+00    0,000000000e+00    0,000000000e+00
      366000000   -3,184637427e-02   -9,369598329e-02    6,925840378e-01    3,040527701e-01    0,000000000e+00    0,000000000e+00    0,000000000e+00    0,000000000e+00
      380000000   -6,752666831e-02   -6,889535487e-02    7,461593151e-01   -1,343507767e-01    0,000000000e+00    0,000000000e+00    0,000000000e+00    0,000000000e+00
      394000000   -6,820673496e-02   -3,054572456e-02    5,381891131e-01   -5,288748145e-01    0,000000000e+00    0,000000000e+00    0,000000000e+00    0,000000000e+00
      408000000   -4,268537089e-02   -1,546753384e-02    1,498111635e-01   -7,351790071e-01    0,000000000e+00    0,000000000e+00    0,000000000e+00    0,000000000e+00
      422000000   -2,603855729e-02   -3,106425516e-02   -2,796369195e-01   -6,895397902e-01    0,000000000e+00    0,000000000e+00    0,000000000e+00    0,000000000e+00
      436000000   -3,920735419e-02   -4,880052060e-02   -6,101132631e-01   -4,192438722e-01    0,000000000e+00    0,000000000e+00    0,000000000e+00    0,000000000e+00
      450000000   -6,501530111e-02   -3,898619860e-02   -7,372734547e-01   -7,793671917e-03    0,000000000e+00    0,000000000e+00    0,000000000e+00    0,000000000e+00
      464000000   -6,737351418e-02   -6,104762200e-03   -6,075627804e-01    4,062525034e-01    0,000000000e+00    0,000000000e+00    0,000000000e+00    0,000000000e+00
      478000000   -3,857790306e-02    1,597324759e-02   -2,676416337e-01    6,705507040e-01    0,000000000e+00    0,000000000e+00    0,000000000e+00    0,000000000e+00
      492000000   -5,073414650e-03    6,326609757e-03    1,525534838e-01    6,947730780e-01    0,000000000e+00    0,000000000e+00    0,000000000e+00    0,000000000e+00
      506000000    6,869700737e-03   -2,029067837e-02    5,079346299e-01    4,876466393e-01    0,000000000e+00    0,000000000e+00    0,000000000e+00    0,000000000e+00
      520000000    6,660845829e-04   -3,822531551e-02    6,898955703e-01    1,209005564e-01    0,000000000e+00    0,000000000e+00    0,000000000e+00    0,000000000e+00
      534000000   -2,867722418e-03   -4,554191232e-02    6,328822374e-01   -2,823286951e-01    0,000000000e+00    0,000000000e+00    0,000000000e+00    0,000000000e+00
      548000000    7,603361737e-04   -5,965307355e-02    3,597370982e-01   -5,799082518e-01    0,000000000e+00    0,000000000e+00    0,000000000e+00    0,000000000e+00
      562000000   -7,859545760e-03   -8,882828802e-02   -2,691831067e-02   -6,725472212e-01    0,000000000e+00    0,000000000e+00    0,000000000e+00    0,000000000e+00
      576000000   -4,540841654e-02   -1,096454710e-01   -4,015069008e-01   -5,378826261e-01    0,000000000e+00    0,000000000e+00    0,000000000e+00    0,000000000e+00
      590000000   -9,490047395e-02   -9,340311587e-02   -6,394787431e-01   -2,170793414e-01    0,000000000e+00    0,000000000e+00    0,000000000e+00    0,000000000e+00
      604000000   -1,118168905e-01   -4,133765027e-02   -6,474516988e-01    1,985063851e-01    0,000000000e+00    0,000000000e+00    0,000000000e+00    0,000000000e+00
      618000000   -7,619807124e-02   -1,855750219e-03   -4,021510184e-01    5,357391238e-01    0,000000000e+00    0,000000000e+00    0,000000000e+00    0,000000000e+00
      632000000   -3,045398556e-02   -2,131102793e-02   -1,108525414e-02    6,555004716e-01    0,000000000e+00    0,000000000e+00    0,000000000e+00    0,000000000e+00
      646000000   -3,609072044e-02   -7,621442527e-02    3,667296171e-01    5,274158716e-01    0,000000000e+00    0,000000000e+00    0,000000000e+00    0,000000000e+00
      660000000   -1,116826311e-01   -9,905020148e-02    6,008507013e-01    1,933724880e-01    0,000000000e+00    0,000000000e+00    0,000000000e+00    0,000000000e+00
      674000000   -1,998502612e-01   -2,319225855e-02    5,646207333e-01   -2,399453819e-01    0,000000000e+00    0,000000000e+00    0,000000000e+00    0,000000000e+00
      688000000   -1,796095967e-01    1,449007541e-01    2,088988572e-01   -5,227398872e-01    0,000000000e+00    0,000000000e+00    0,000000000e+00    0,000000000e+00
      702000000    2,523696795e-02    2,478743941e-01   -2,037577778e-01   -4,100003242e-01    0,000000000e+00    0,000000000e+00    0,000000000e+00    0,000000000e+00
      716000000    2,637014091e-01    1,110977381e-01   -2,729319334e-01   -8,344642818e-02    0,000000000e+00    0,000000000e+00    0,000000000e+00    0,000000000e+00
      730000000    3,039327562e-01   -1,863808781e-01   -1,073202714e-01    3,213816881e-02    0,000000000e+00    0,000000000e+00    0,000000000e+00    0,000000000e+00
      744000000    9,467431903e-02   -4,273859262e-01   -4,207920656e-02   -6,522152573e-02    0,000000000e+00    0,000000000e+00    0,000000000e+00    0,000000000e+00
      758000000   -2,587088943e-01   -4,285726845e-01   -1,759392768e-01   -1,255280077e-01    0,000000000e+00    0,000000000e+00    0,000000000e+00    0,000000000e+00
      772000000   -4,855478406e-01   -1,183993593e-01   -3,363457322e-01    3,861146420e-02    0,000000000e+00    0,000000000e+00    0,000000000e+00    0,000000000e+00
      786000000   -3,410832882e-01    2,214751393e-01   -2,632217407e-01    3,165985644e-01    0,000000000e+00    0,000000000e+00    0,000000000e+00    0,000000000e+00
      800000000   -4,154040664e-02    2,761259973e-01    2,717997646e-03    4,363333881e-01    0,000000000e+00    0,000000000e+00    0,000000000e+00    0,000000000e+00
      814000000    1,448043287e-01    1,255283803e-01    2,634805739e-01    3,586209416e-01    0,000000000e+00    0,000000000e+00    0,000000000e+00    0,000000000e+00
      828000000    1,677791625e-01   -7,021691650e-02    4,327243567e-01    1,571408510e-01    0,000000000e+00    0,000000000e+00    0,000000000e+00    0,000000000e+00
      842000000    6,784752011e-02   -2,183648199e-01    4,668695331e-01   -1,204160750e-01    0,000000000e+00    0,000000000e+00    0,000000000e+00    0,000000000e+00
      856000000   -1,062358692e-01   -2,629994750e-01    3,196802735e-01   -3,948299885e-01    0,000000000e+00    0,000000000e+00    0,000000000e+00    0,000000000e+00
      870000000   -2,748306394e-01   -1,676561087e-01   -2,498616930e-03   -5,272710919e-01    0,000000000e+00    0,000000000e+00    0,000000000e+00    0,000000000e+00
      884000000   -3,197976947e-01    3,510226682e-02   -3,476876020e-01   -3,935899138e-01    0,000000000e+00    0,000000000e+00    0,000000000e+00    0,000000000e+00
      898000000   -1,929153055e-01    2,063377947e-01   -4,894290864e-01   -6,328901649e-02    0,000000000e+00    0,000000000e+00    0,000000000e+00    0,000000000e+00
      912000000    7,529661525e-03    2,196222544e-01   -4,072034359e-01    2,652179301e-01    0,000000000e+00    0,000000000e+00    0,000000000e+00    0,000000000e+00
      926000000    1,510139853e-01    1,119791120e-01   -1,696648896e-01    4,151983559e-01    0,000000000e+00    0,000000000e+00    0,000000000e+00    0,000000000e+00
      940000000    2,015555799e-01   -4,678294435e-02    6,540384144e-02    4,257132411e-01    0,000000000e+00    0,000000000e+00    0,000000000e+00    0,000000000e+00
      954000000    1,514531374e-01   -2,034374923e-01    2,609413564e-01    3,420529068e-01    0,000000000e+00    0,000000000e+00    0,000000000e+00    0,000000000e+00
      968000000    2,424096502e-02   -3,166100085e-01    4,112458527e-01    1,783683747e-01    0,000000000e+00    0,000000000e+00    0,000000000e+00    0,000000000e+00
      982000000   -1,632336378e-01   -3,292118609e-01    4,755307138e-01   -6,727934629e-02    0,000000000e+00    0,000000000e+00    0,000000000e+00    0,000000000e+00
      996000000   -3,280890286e-01   -2,090272605e-01    3,671261072e-01   -3,551692665e-01    0,000000000e+00    0,000000000e+00    0,000000000e+00    0,000000000e+00
     1010000000   -3,428432643e-01   -8,176348172e-03    4,051004723e-02   -5,262514353e-01    0,000000000e+00    0,000000000e+00    0,000000000e+00    0,000000000e+00
     1024000000   -2,039661109e-01    9,489747882e-02   -3,453005850e-01   -3,805616200e-01    0,000000000e+00    0,000000000e+00    0,000000000e+00    0,000000000e+00
     1038000000   -1,363472939e-01    6,622926798e-03   -4,830794036e-01    6,498686224e-02    0,000000000e+00    0,000000000e+00    0,000000000e+00    0,000000000e+00
     1052000000   -2,917602062e-01    5,517139658e-02   -9,250126779e-02    3,703375459e-01    0,000000000e+00    0,000000000e+00    0,000000000e+00    0,000000000e+00
     1066000000   -1,433521956e-01    2,927495539e-01    1,416033059e-01    1,335719824e-01    0,000000000e+00    0,000000000e+00    0,000000000e+00    0,000000000e+00
     1080000000    1,046651229e-01    2,491400093e-01    8,981003612e-02    2,341626771e-02    0,000000000e+00    0,000000000e+00    0,000000000e+00    0,000000000e+00
     1094000000    2,238927037e-01    8,859936893e-02    6,855703890e-02    9,169193916e-03    0,000000000e+00    0,000000000e+00    0,000000000e+00    0,000000000e+00
     1108000000    2,429760695e-01   -8,508244157e-02    8,035881817e-02   -1,261983532e-03    0,000000000e+00    0,000000000e+00    0,000000000e+00    0,000000000e+00
     1122000000    1,848856807e-01   -2,540752590e-01    1,028244495e-01   -2,685284615e-02    0,000000000e+00    0,000000000e+00    0,000000000e+00    0,000000000e+00
     1136000000    5,080294982e-02   -3,800876439e-01    1,249525696e-01   -7,474465668e-02    0,000000000e+00    0,000000000e+00    0,000000000e+00    0,000000000e+00
     1150000000   -1,517374814e-01   -4,249729812e-01    1,403356045e-01   -1,519065201e-01    0,000000000e+00    0,000000000e+00    0,000000000e+00    0,000000000e+00
     1164000000   -3,803256452e-01   -3,246375918e-01    9,849561006e-02   -2,748292685e-01    0,000000000e+00    0,000000000e+00    0,000000000e+00    0,000000000e+00
     1178000000   -4,634329379e-01   -8,300578594e-02   -1,058973670e-01   -4,082816839e-01    0,000000000e+00    0,000000000e+00    0,000000000e+00    0,000000000e+00
     1192000000   -3,785428405e-01    4,208196327e-02   -4,634864926e-01   -1,947163194e-01    0,000000000e+00    0,000000000e+00    0,000000000e+00    0,000000000e+00
     1206000000   -4,201040566e-01    1,298472136e-01   -2,753908336e-01    2,340886444e-01    0,000000000e+00    0,000000000e+00    0,000000000e+00    0,000000000e+00
     1220000000   -2,763017118e-01    3,344160318e-01   -1,775580924e-03    1,641675085e-01    0,000000000e+00    0,000000000e+00    0,000000000e+00    0,000000000e+00
     1234000000   -5,006246641e-02    3,490886986e-01    2,179076523e-02    5,514947698e-02    0,000000000e+00    0,000000000e+00    0,000000000e+00    0,000000000e+00
     1248000000    1,171503514e-01    2,471774668e-01    1,486315741e-03    2,944684401e-02    0,000000000e+00    0,000000000e+00    0,000000000e+00    0,000000000e+00
     1262000000    2,101324350e-01    9,865327179e-02    1,379515743e-03    2,735950612e-02    0,000000000e+00    0,000000000e+00    0,000000000e+00    0,000000000e+00
     1276000000    2,335862815e-01   -5,416714028e-02    2,624033205e-02    4,019653797e-02    0,000000000e+00    0,000000000e+00    0,000000000e+00    0,000000000e+00
     1290000000    1,931107044e-01   -2,130930871e-01    5,780362710e-02    2,473413199e-02    0,000000000e+00    0,000000000e+00    0,000000000e+00    0,000000000e+00
     1304000000    8,267962188e-02   -3,569227457e-01    7,337372750e-02    5,351006519e-03    0,000000000e+00    0,000000000e+00    0,000000000e+00    0,000000000e+00
     1318000000   -1,041364670e-01   -4,480921924e-01    8,340742439e-02   -1,467589755e-02    0,000000000e+00    0,000000000e+00    0,000000000e+00    0,000000000e+00
     1332000000   -3,536981642e-01   -4,319328368e-01    8,445066214e-02   -9,239245206e-03    0,000000000e+00    0,000000000e+00    0,000000000e+00    0,000000000e+00
     1346000000   -5,901169181e-01   -2,469445467e-01    1,103615090e-01   -3,909343854e-03    0,000000000e+00    0,000000000e+00    0,000000000e+00    0,000000000e+00
     1360000000   -6,544373035e-01    6,801475585e-02    1,386675090e-01   -2,240928449e-02    0,000000000e+00    0,000000000e+00    0,000000000e+00    0,000000000e+00
     1374000000   -4,880385697e-01    3,316096067e-01    1,731448025e-01   -5,384424701e-02    0,000000000e+00    0,000000000e+00    0,000000000e+00    0,000000000e+00
     1388000000   -2,503365874e-01    4,286648035e-01    1,586294770e-01   -7,748372108e-02    0,000000000e+00    0,000000000e+00    0,000000000e+00    0,000000000e+00
     1402000000   -4,521896318e-02    3,902113736e-01    1,384717524e-01   -1,036526784e-01    0,000000000e+00    0,000000000e+00    0,000000000e+00    0,000000000e+00
     1416000000    9,685710073e-02    2,872562408e-01    1,236154065e-01   -7,888003439e-02    0,000000000e+00    0,000000000e+00    0,000000000e+00    0,000000000e+00
     1430000000    1,931838393e-01    1,441897005e-01    1,117430702e-01   -8,069480211e-02    0,000000000e+00    0,000000000e+00    0,000000000e+00    0,000000000e+00
     1444000000    2,210340351e-01   -8,225586265e-03    1,249394417e-01   -1,276387926e-02    0,000000000e+00    0,000000000e+00    0,000000000e+00    0,000000000e+00
     1458000000    1,774065495e-01   -1,797408611e-01    1,386427879e-01    2,496871725e-02    0,000000000e+00    0,000000000e+00    0,000000000e+00    0,000000000e+00
     1472000000    6,151022017e-02   -3,476313353e-01    1,806149632e-01    6,067923456e-02    0,000000000e+00    0,000000000e+00    0,000000000e+00    0,000000000e+00
     1486000000   -1,435929388e-01   -4,762651920e-01    2,913166285e-01    8,780903369e-02    0,000000000e+00    0,000000000e+00    0,000000000e+00    0,000000000e+00
     1500000000   -4,560294151e-01   -4,755784273e-01    3,892130256e-01    6,688162684e-02    0,000000000e+00    0,000000000e+00    0,000000000e+00    0,000000000e+00
