! NanoVNA-App
! Date: 2025-09-25 15:56:47
! Start: 100MHz Stop: 1,5GHz Points: 101
! S-Parameter data: F S11 S21 S12 S22
# Hz S RI R 50
!     Frequency           S11_Real           S11_Imag           S21_Real           S21_Imag           S12_Real           S12_Imag           S22_Real           S22_Imag
      100000000   -2,818824351e-02   -2,829497680e-03    3,722783029e-01   -7,224682570e-01    0,000000000e+00    0,000000000e+00    0,000000000e+00    0,000000000e+00
      114000000   -1,560533047e-02    1,286515687e-02   -9,134971350e-02   -8,049142361e-01    0,000000000e+00    0,000000000e+00    0,000000000e+00    0,000000000e+00
      128000000    4,396345932e-03    1,184074674e-02   -5,159433484e-01   -6,187527180e-01    0,000000000e+00    0,000000000e+00    0,000000000e+00    0,000000000e+00
      142000000    1,548929699e-02   -1,842619851e-03   -7,672754526e-01   -2,340179533e-01    0,000000000e+00    0,000000000e+00    0,000000000e+00    0,000000000e+00
      156000000    1,614516973e-02   -1,390956901e-02   -7,708250284e-01    2,251056582e-01    0,000000000e+00    0,000000000e+00    0,000000000e+00    0,000000000e+00
      170000000    1,764034666e-02   -2,100688778e-02   -5,154574513e-01    6,065075994e-01    0,000000000e+00    0,000000000e+00    0,000000000e+00    0,000000000e+00
      184000000    2,201419510e-02   -3,556331992e-02   -9,819742292e-02    7,859894633e-01    0,000000000e+00    0,000000000e+00    0,000000000e+00    0,000000000e+00
      198000000    1,401102450e-02   -6,066831946e-02    3,458856046e-01    7,106936574e-01    0,000000000e+00    0,000000000e+00    0,000000000e+00    0,000000000e+00
      212000000   -1,765895262e-02   -7,915343344e-02    6,806944609e-01    4,062334299e-01    0,000000000e+00    0,000000000e+00    0,000000000e+00    0,000000000e+00
      226000000   -6,030910462e-02   -6,660830975e-02    7,956597805e-01   -3,567488119e-02    0,000000000e+00    0,000000000e+00    0,000000000e+00    0,000000000e+00
      240000000   -8,057811111e-02   -2,276014723e-02    6,415758133e-01   -4,717620611e-01    0,000000000e+00    0,000000000e+00    0,000000000e+00    0,000000000e+00
      254000000   -6,079075858e-02    1,977791451e-02    2,710020542e-01   -7,423228025e-01    0,000000000e+00    0,000000000e+00    0,000000000e+00    0,000000000e+00
      268000000   -2,101999894e-02    3,080276027e-02   -1,814216077e-01   -7,612792850e-01    0,000000000e+00    0,000000000e+00    0,000000000e+00    0,000000000e+00
      282000000    6,938530132e-03    1,376529969e-02   -5,634646416e-01   -5,323289633e-01    0,000000000e+00    0,000000000e+00    0,000000000e+00    0,000000000e+00
      296000000    1,243405975e-02   -6,231698673e-03   -7,603693604e-01   -1,344876140e-01    0,000000000e+00    0,000000000e+00    0,000000000e+00    0,000000000e+00
      310000000    1,377752889e-02   -1,446698140e-02   -7,092193365e-01    3,032578826e-01    0,000000000e+00    0,000000000e+00    0,000000000e+00    0,000000000e+00
      324000000    2,249463648e-02   -2,479400113e-02   -4,215300083e-01    6,393687725e-01    0,000000000e+00    0,000000000e+00    0,000000000e+00    0,000000000e+00
      338000000    2,824231423e-02   -5,037304014e-02   -2,808852587e-03    7,583725452e-01    0,000000000e+00    0,000000000e+00    0,000000000e+00    0,000000000e+00
      352000000    1,025252137e-02   -8,288601786e-02    4,115425944e-01    6,349447966e-01    0,000000000e+00    0,000000000e+00    0,000000000e+00    0,000000000e+00
      366000000   -3,182440624e-02   -9,383590519e-02    6,935573220e-01    3,039637506e-01    0,000000000e+00    0,000000000e+00    0,000000000e+00    0,000000000e+00
      380000000   -6,759294122e-02   -6,886872649e-02    7,452351451e-01   -1,343322098e-01    0,000000000e+00    0,000000000e+00    0,000000000e+00    0,000000000e+00
      394000000   -6,854957342e-02   -3,065719269e-02    5,394229889e-01   -5,285010338e-01    0,000000000e+00    0,000000000e+00    0,000000000e+00    0,000000000e+00
      408000000   -4,280814528e-02   -1,542405598e-02    1,499862969e-01   -7,329711318e-01    0,000000000e+00    0,000000000e+00    0,000000000e+00    0,000000000e+00
      422000000   -2,644479834e-02   -3,117935918e-02   -2,791837454e-01   -6,894509196e-01    0,000000000e+00    0,000000000e+00    0,000000000e+00    0,000000000e+00
      436000000   -3,933700919e-02   -4,905819893e-02   -6,104487181e-01   -4,196884930e-01    0,000000000e+00    0,000000000e+00    0,000000000e+00    0,000000000e+00
      450000000   -6,452301145e-02   -3,896348923e-02   -7,367154360e-01   -7,778131869e-03    0,000000000e+00    0,000000000e+00    0,000000000e+00    0,000000000e+00
      464000000   -6,738957763e-02   -6,310177501e-03   -6,075357199e-01    4,059982002e-01    0,000000000e+00    0,000000000e+00    0,000000000e+00    0,000000000e+00
      478000000   -3,850604221e-02    1,585567743e-02   -2,676710486e-01    6,704398394e-01    0,000000000e+00    0,000000000e+00    0,000000000e+00    0,000000000e+00
      492000000   -5,342277698e-03    6,357999519e-03    1,513022184e-01    6,949323416e-01    0,000000000e+00    0,000000000e+00    0,000000000e+00    0,000000000e+00
      506000000    6,760606077e-03   -2,043972909e-02    5,080236197e-01    4,877674580e-01    0,000000000e+00    0,000000000e+00    0,000000000e+00    0,000000000e+00
      520000000    4,320985172e-04   -3,870125860e-02    6,882099509e-01    1,218088940e-01    0,000000000e+00    0,000000000e+00    0,000000000e+00    0,000000000e+00
      534000000   -3,028163919e-03   -4,572331160e-02    6,324453354e-01   -2,819128036e-01    0,000000000e+00    0,000000000e+00    0,000000000e+00    0,000000000e+00
      548000000    7,672701613e-04   -5,965188146e-02    3,601105511e-01   -5,789112449e-01    0,000000000e+00    0,000000000e+00    0,000000000e+00    0,000000000e+00
      562000000   -7,886607200e-03   -8,826701343e-02   -2,621158585e-02   -6,723811030e-01    0,000000000e+00    0,000000000e+00    0,000000000e+00    0,000000000e+00
      576000000   -4,576296732e-02   -1,092898995e-01   -4,009567499e-01   -5,382312536e-01    0,000000000e+00    0,000000000e+00    0,000000000e+00    0,000000000e+00
      590000000   -9,463198483e-02   -9,337504953e-02   -6,420297027e-01   -2,180356383e-01    0,000000000e+00    0,000000000e+00    0,000000000e+00    0,000000000e+00
      604000000   -1,116495728e-01   -4,158203676e-02   -6,479696035e-01    1,978939623e-01    0,000000000e+00    0,000000000e+00    0,000000000e+00    0,000000000e+00
      618000000   -7,566879690e-02   -2,559145680e-03   -4,019356072e-01    5,353633761e-01    0,000000000e+00    0,000000000e+00    0,000000000e+00    0,000000000e+00
      632000000   -3,046985529e-02   -2,111400664e-02   -1,217748504e-02    6,551126242e-01    0,000000000e+00    0,000000000e+00    0,000000000e+00    0,000000000e+00
      646000000   -3,667328879e-02   -7,702919096e-02    3,662159443e-01    5,273358226e-01    0,000000000e+00    0,000000000e+00    0,000000000e+00    0,000000000e+00
      660000000   -1,118739918e-01   -9,943421930e-02    6,009579897e-01    1,931664497e-01    0,000000000e+00    0,000000000e+00    0,000000000e+00    0,000000000e+00
      674000000   -2,004285008e-01   -2,349198051e-02    5,646388531e-01   -2,395158708e-01    0,000000000e+00    0,000000000e+00    0,000000000e+00    0,000000000e+00
      688000000   -1,780158877e-01    1,451116055e-01    2,089187801e-01   -5,213684440e-01    0,000000000e+00    0,000000000e+00    0,000000000e+00    0,000000000e+00
      702000000    2,486219257e-02    2,481507659e-01   -2,034093887e-01   -4,019770324e-01    0,000000000e+00    0,000000000e+00    0,000000000e+00    0,000000000e+00
      716000000    2,641401887e-01    1,100945771e-01   -2,720636725e-01   -8,329038322e-02    0,000000000e+00    0,000000000e+00    0,000000000e+00    0,000000000e+00
      730000000    3,041104376e-01   -1,861176789e-01   -1,064414009e-01    3,154508397e-02    0,000000000e+00    0,000000000e+00    0,000000000e+00    0,000000000e+00
      744000000    9,409205616e-02   -4,270362258e-01   -4,239366204e-02   -6,591172516e-02    0,000000000e+00    0,000000000e+00    0,000000000e+00    0,000000000e+00
      758000000   -2,592709064e-01   -4,303044081e-01   -1,763546467e-01   -1,254721731e-01    0,000000000e+00    0,000000000e+00    0,000000000e+00    0,000000000e+00
      772000000   -4,840666354e-01   -1,196957007e-01   -3,371306956e-01    3,882401437e-02    0,000000000e+00    0,000000000e+00    0,000000000e+00    0,000000000e+00
      786000000   -3,417958617e-01    2,215696573e-01   -2,631345391e-01    3,166781664e-01    0,000000000e+00    0,000000000e+00    0,000000000e+00    0,000000000e+00
      800000000   -4,126349092e-02    2,762099206e-01    3,394060535e-03    4,377983212e-01    0,000000000e+00    0,000000000e+00    0,000000000e+00    0,000000000e+00
      814000000    1,440901905e-01    1,255488098e-01    2,636681497e-01    3,586854935e-01    0,000000000e+00    0,000000000e+00    0,000000000e+00    0,000000000e+00
      828000000    1,674580425e-01   -7,021269947e-02    4,326044023e-01    1,566006839e-01    0,000000000e+00    0,000000000e+00    0,000000000e+00    0,000000000e+00
      842000000    6,714464724e-02   -2,176918983e-01    4,664609134e-01   -1,197680235e-01    0,000000000e+00    0,000000000e+00    0,000000000e+00    0,000000000e+00
      856000000   -1,068404913e-01   -2,632333040e-01    3,200486600e-01   -3,947991133e-01    0,000000000e+00    0,000000000e+00    0,000000000e+00    0,000000000e+00
      870000000   -2,737966776e-01   -1,672492772e-01   -2,631870331e-03   -5,261079073e-01    0,000000000e+00    0,000000000e+00    0,000000000e+00    0,000000000e+00
      884000000   -3,199236095e-01    3,443938494e-02   -3,474493921e-01   -3,934436440e-01    0,000000000e+00    0,000000000e+00    0,000000000e+00    0,000000000e+00
      898000000   -1,924783140e-01    2,064218074e-01   -4,894989133e-01   -6,301001459e-02    0,000000000e+00    0,000000000e+00    0,000000000e+00    0,000000000e+00
      912000000    7,171607111e-03    2,187837660e-01   -3,988744915e-01    2,646926939e-01    0,000000000e+00    0,000000000e+00    0,000000000e+00    0,000000000e+00
      926000000    1,478433907e-01    1,136582419e-01   -1,717809588e-01    4,146998525e-01    0,000000000e+00    0,000000000e+00    0,000000000e+00    0,000000000e+00
      940000000    1,999540776e-01   -4,363519698e-02    6,382572651e-02    4,256249666e-01    0,000000000e+00    0,000000000e+00    0,000000000e+00    0,000000000e+00
      954000000    1,550960243e-01   -2,041239440e-01    2,617676556e-01    3,414035439e-01    0,000000000e+00    0,000000000e+00    0,000000000e+00    0,000000000e+00
      968000000    2,737960592e-02   -3,133879900e-01    4,114035070e-01    1,789042056e-01    0,000000000e+00    0,000000000e+00    0,000000000e+00    0,000000000e+00
      982000000   -1,629790217e-01   -3,331516087e-01    4,746509790e-01   -6,719911844e-02    0,000000000e+00    0,000000000e+00    0,000000000e+00    0,000000000e+00
      996000000   -3,222396076e-01   -2,116605043e-01    3,677437901e-01   -3,564945161e-01    0,000000000e+00    0,000000000e+00    0,000000000e+00    0,000000000e+00
     1010000000   -3,387337029e-01   -4,833852407e-03    4,128129780e-02   -5,252431035e-01    0,000000000e+00    0,000000000e+00    0,000000000e+00    0,000000000e+00
     1024000000   -2,063063979e-01    9,586136788e-02   -3,451695442e-01   -3,820620179e-01    0,000000000e+00    0,000000000e+00    0,000000000e+00    0,000000000e+00
     1038000000   -1,361529678e-01    1,170159504e-02   -4,819424152e-01    6,341538578e-02    0,000000000e+00    0,000000000e+00    0,000000000e+00    0,000000000e+00
     1052000000   -2,906012237e-01    5,198508874e-02   -9,595431387e-02    3,715300560e-01    0,000000000e+00    0,000000000e+00    0,000000000e+00    0,000000000e+00
     1066000000   -1,480212659e-01    2,962579727e-01    1,449036896e-01    1,345667243e-01    0,000000000e+00    0,000000000e+00    0,000000000e+00    0,000000000e+00
     1080000000    9,838216007e-02    2,537498176e-01    9,088937193e-02    1,946211234e-02    0,000000000e+00    0,000000000e+00    0,000000000e+00    0,000000000e+00
     1094000000    2,240254879e-01    9,055723995e-02    6,903298944e-02    9,866502136e-03    0,000000000e+00    0,000000000e+00    0,000000000e+00    0,000000000e+00
     1108000000    2,431154251e-01   -8,412795514e-02    8,262635022e-02   -2,349330811e-03    0,000000000e+00    0,000000000e+00    0,000000000e+00    0,000000000e+00
     1122000000    1,834422350e-01   -2,475784272e-01    1,045531258e-01   -2,628696151e-02    0,000000000e+00    0,000000000e+00    0,000000000e+00    0,000000000e+00
     1136000000    4,636375234e-02   -3,783535957e-01    1,259944737e-01   -7,618608326e-02    0,000000000e+00    0,000000000e+00    0,000000000e+00    0,000000000e+00
     1150000000   -1,543620527e-01   -4,206112027e-01    1,379678249e-01   -1,507465392e-01    0,000000000e+00    0,000000000e+00    0,000000000e+00    0,000000000e+00
     1164000000   -3,805951774e-01   -3,236268163e-01    9,878199548e-02   -2,799206376e-01    0,000000000e+00    0,000000000e+00    0,000000000e+00    0,000000000e+00
     1178000000   -4,624067843e-01   -8,633106202e-02   -1,064187214e-01   -4,037206471e-01    0,000000000e+00    0,000000000e+00    0,000000000e+00    0,000000000e+00
     1192000000   -3,740411103e-01    4,107242823e-02   -4,637860954e-01   -2,008424699e-01    0,000000000e+00    0,000000000e+00    0,000000000e+00    0,000000000e+00
     1206000000   -4,111873507e-01    1,339872628e-01   -2,744459808e-01    2,344434559e-01    0,000000000e+00    0,000000000e+00    0,000000000e+00    0,000000000e+00
     1220000000   -2,754899859e-01    3,258849084e-01   -2,098393859e-03    1,648451984e-01    0,000000000e+00    0,000000000e+00    0,000000000e+00    0,000000000e+00
     1234000000   -4,216662794e-02    3,465267718e-01    2,343776636e-02    5,636516958e-02    0,000000000e+00    0,000000000e+00    0,000000000e+00    0,000000000e+00
     1248000000    1,212837994e-01    2,496006638e-01    6,902263034e-03    2,485124581e-02    0,000000000e+00    0,000000000e+00    0,000000000e+00    0,000000000e+00
     1262000000    2,122293711e-01    9,967742115e-02    4,063827451e-03    2,948754281e-02    0,000000000e+00    0,000000000e+00    0,000000000e+00    0,000000000e+00
     1276000000    2,328808755e-01   -5,581885949e-02    2,459660545e-02    3,841187805e-02    0,000000000e+00    0,000000000e+00    0,000000000e+00    0,000000000e+00
     1290000000    1,945088804e-01   -2,137940973e-01    6,001172215e-02    2,912385017e-02    0,000000000e+00    0,000000000e+00    0,000000000e+00    0,000000000e+00
     1304000000    8,426881582e-02   -3,572022915e-01    7,998400927e-02    4,665402696e-03    0,000000000e+00    0,000000000e+00    0,000000000e+00    0,000000000e+00
     1318000000   -1,030923799e-01   -4,503837824e-01    8,099338412e-02   -1,076184679e-02    0,000000000e+00    0,000000000e+00    0,000000000e+00    0,000000000e+00
     1332000000   -3,578065932e-01   -4,364818037e-01    8,604895324e-02   -2,051774226e-02    0,000000000e+00    0,000000000e+00    0,000000000e+00    0,000000000e+00
     1346000000   -5,864443183e-01   -2,516300380e-01    1,036952361e-01   -4,814964253e-03    0,000000000e+00    0,000000000e+00    0,000000000e+00    0,000000000e+00
     1360000000   -6,488810778e-01    7,632890344e-02    1,509396136e-01   -5,308134481e-03    0,000000000e+00    0,000000000e+00    0,000000000e+00    0,000000000e+00
     1374000000   -4,934114218e-01    3,324675858e-01    1,741741896e-01   -5,234421790e-02    0,000000000e+00    0,000000000e+00    0,000000000e+00    0,000000000e+00
     1388000000   -2,471614927e-01    4,349611998e-01    1,583136320e-01   -8,311612159e-02    0,000000000e+00    0,000000000e+00    0,000000000e+00    0,000000000e+00
     1402000000   -4,184637591e-02    3,932210207e-01    1,495635509e-01   -9,717540443e-02    0,000000000e+00    0,000000000e+00    0,000000000e+00    0,000000000e+00
     1416000000    1,046368405e-01    2,825824916e-01    1,242613047e-01   -9,226533026e-02    0,000000000e+00    0,000000000e+00    0,000000000e+00    0,000000000e+00
     1430000000    1,867745221e-01    1,551434547e-01    1,277847141e-01   -5,881171301e-02    0,000000000e+00    0,000000000e+00    0,000000000e+00    0,000000000e+00
     1444000000    2,142992318e-01   -1,360711548e-02    1,185849532e-01   -2,949885093e-02    0,000000000e+00    0,000000000e+00    0,000000000e+00    0,000000000e+00
     1458000000    1,851050407e-01   -1,844659001e-01    1,473437548e-01    1,181901805e-02    0,000000000e+00    0,000000000e+00    0,000000000e+00    0,000000000e+00
     1472000000    7,279177755e-02   -3,470957875e-01    2,078710794e-01    6,141601875e-02    0,000000000e+00    0,000000000e+00    0,000000000e+00    0,000000000e+00
     1486000000   -1,409443766e-01   -4,782160223e-01    2,973218858e-01    8,083578944e-02    0,000000000e+00    0,000000000e+00    0,000000000e+00    0,000000000e+00
     1500000000   -4,294739366e-01   -4,731298983e-01    4,139496088e-01    5,790213868e-02    0,000000000e+00    0,000000000e+00    0,000000000e+00    0,000000000e+00
