! NanoVNA-App
! Date: 2025-09-25 16:02:16
! Start: 100MHz Stop: 1,5GHz Points: 101
! S-Parameter data: F S11 S21 S12 S22
# Hz S RI R 50
!     Frequency           S11_Real           S11_Imag           S21_Real           S21_Imag           S12_Real           S12_Imag           S22_Real           S22_Imag
      100000000   -2,830450796e-02   -2,873989521e-03    3,723344505e-01   -7,224475145e-01    0,000000000e+00    0,000000000e+00    0,000000000e+00    0,000000000e+00
      114000000   -1,573104784e-02    1,288902201e-02   -9,134492278e-02   -8,048946857e-01    0,000000000e+00    0,000000000e+00    0,000000000e+00    0,000000000e+00
      128000000    4,297987558e-03    1,195525751e-02   -5,157638788e-01   -6,186644435e-01    0,000000000e+00    0,000000000e+00    0,000000000e+00    0,000000000e+00
      142000000    1,547858492e-02   -1,734095509e-03   -7,674910426e-01   -2,341700643e-01    0,000000000e+00    0,000000000e+00    0,000000000e+00    0,000000000e+00
      156000000    1,584815979e-02   -1,272087358e-02   -7,633973956e-01    2,218318582e-01    0,000000000e+00    0,000000000e+00    0,000000000e+00    0,000000000e+00
      170000000    1,772541367e-02   -2,094849758e-02   -5,157871246e-01    6,066198349e-01    0,000000000e+00    0,000000000e+00    0,000000000e+00    0,000000000e+00
      184000000    2,199257538e-02   -3,558956459e-02   -9,829325229e-02    7,860860825e-01    0,000000000e+00    0,000000000e+00    0,000000000e+00    0,000000000e+00
      198000000    1,403801795e-02   -6,067676842e-02    3,459745944e-01    7,107077241e-01    0,000000000e+00    0,000000000e+00    0,000000000e+00    0,000000000e+00
      212000000   -1,768560149e-02   -7,911439240e-02    6,807902455e-01    4,063354135e-01    0,000000000e+00    0,000000000e+00    0,000000000e+00    0,000000000e+00
      226000000   -6,033665314e-02   -6,661882997e-02    7,958375216e-01   -3,567536548e-02    0,000000000e+00    0,000000000e+00    0,000000000e+00    0,000000000e+00
      240000000   -8,048093319e-02   -2,281582728e-02    6,416625381e-01   -4,718392193e-01    0,000000000e+00    0,000000000e+00    0,000000000e+00    0,000000000e+00
      254000000   -6,082348526e-02    1,975155808e-02    2,710407972e-01   -7,417982221e-01    0,000000000e+00    0,000000000e+00    0,000000000e+00    0,000000000e+00
      268000000   -2,097795531e-02    3,090122528e-02   -1,813586056e-01   -7,611464858e-01    0,000000000e+00    0,000000000e+00    0,000000000e+00    0,000000000e+00
      282000000    6,877217442e-03    1,374520455e-02   -5,629763603e-01   -5,324413180e-01    0,000000000e+00    0,000000000e+00    0,000000000e+00    0,000000000e+00
      296000000    1,249934547e-02   -6,196080707e-03   -7,605519891e-01   -1,343519688e-01    0,000000000e+00    0,000000000e+00    0,000000000e+00    0,000000000e+00
      310000000    1,347512193e-02   -1,451283414e-02   -7,096455693e-01    3,050190210e-01    0,000000000e+00    0,000000000e+00    0,000000000e+00    0,000000000e+00
      324000000    2,246883325e-02   -2,474912256e-02   -4,218490422e-01    6,390991211e-01    0,000000000e+00    0,000000000e+00    0,000000000e+00    0,000000000e+00
      338000000    2,840449475e-02   -5,086754635e-02   -7,139960653e-04    7,581428289e-01    0,000000000e+00    0,000000000e+00    0,000000000e+00    0,000000000e+00
      352000000    1,030649338e-02   -8,278480917e-02    4,115236104e-01    6,359446049e-01    0,000000000e+00    0,000000000e+00    0,000000000e+00    0,000000000e+00
      366000000   -3,186593950e-02   -9,404782206e-02    6,934129000e-01    3,037147224e-01    0,000000000e+00    0,000000000e+00    0,000000000e+00    0,000000000e+00
      380000000   -6,750244647e-02   -6,906638294e-02    7,459622622e-01   -1,347852945e-01    0,000000000e+00    0,000000000e+00    0,000000000e+00    0,000000000e+00
      394000000   -6,853453070e-02   -3,051391430e-02    5,394455194e-01   -5,281937718e-01    0,000000000e+00    0,000000000e+00    0,000000000e+00    0,000000000e+00
      408000000   -4,258359969e-02   -1,525528822e-02    1,484326571e-01   -7,335953712e-01    0,000000000e+00    0,000000000e+00    0,000000000e+00    0,000000000e+00
      422000000   -2,617204934e-02   -3,100970946e-02   -2,788769603e-01   -6,898712516e-01    0,000000000e+00    0,000000000e+00    0,000000000e+00    0,000000000e+00
      436000000   -3,931647539e-02   -4,915055260e-02   -6,109153628e-01   -4,197773933e-01    0,000000000e+00    0,000000000e+00    0,000000000e+00    0,000000000e+00
      450000000   -6,475374103e-02   -3,925590217e-02   -7,375273108e-01   -7,877729833e-03    0,000000000e+00    0,000000000e+00    0,000000000e+00    0,000000000e+00
      464000000   -6,752891093e-02   -6,584927440e-03   -6,082909703e-01    4,061608016e-01    0,000000000e+00    0,000000000e+00    0,000000000e+00    0,000000000e+00
      478000000   -3,848239779e-02    1,587116718e-02   -2,677604556e-01    6,693857312e-01    0,000000000e+00    0,000000000e+00    0,000000000e+00    0,000000000e+00
      492000000   -4,979705438e-03    6,186076440e-03    1,520553082e-01    6,951918602e-01    0,000000000e+00    0,000000000e+00    0,000000000e+00    0,000000000e+00
      506000000    6,918220315e-03   -2,024085820e-02    5,074461699e-01    4,880612493e-01    0,000000000e+00    0,000000000e+00    0,000000000e+00    0,000000000e+00
      520000000    4,024629307e-04   -3,860462457e-02    6,905198097e-01    1,212113276e-01    0,000000000e+00    0,000000000e+00    0,000000000e+00    0,000000000e+00
      534000000   -3,092178144e-03   -4,556351528e-02    6,326606274e-01   -2,821911275e-01    0,000000000e+00    0,000000000e+00    0,000000000e+00    0,000000000e+00
      548000000    1,173606142e-03   -5,998762324e-02    3,602169156e-01   -5,801478028e-01    0,000000000e+00    0,000000000e+00    0,000000000e+00    0,000000000e+00
      562000000   -7,328799460e-03   -8,877443522e-02   -2,575957030e-02   -6,731433868e-01    0,000000000e+00    0,000000000e+00    0,000000000e+00    0,000000000e+00
      576000000   -4,517981037e-02   -1,096231937e-01   -4,013926685e-01   -5,381603837e-01    0,000000000e+00    0,000000000e+00    0,000000000e+00    0,000000000e+00
      590000000   -9,484026581e-02   -9,377641976e-02   -6,411626339e-01   -2,164045423e-01    0,000000000e+00    0,000000000e+00    0,000000000e+00    0,000000000e+00
      604000000   -1,120041609e-01   -4,089348018e-02   -6,476969719e-01    1,987207681e-01    0,000000000e+00    0,000000000e+00    0,000000000e+00    0,000000000e+00
      618000000   -7,646168023e-02   -2,360643120e-03   -4,021817744e-01    5,352070332e-01    0,000000000e+00    0,000000000e+00    0,000000000e+00    0,000000000e+00
      632000000   -3,026999161e-02   -2,154522203e-02   -1,140732691e-02    6,558700204e-01    0,000000000e+00    0,000000000e+00    0,000000000e+00    0,000000000e+00
      646000000   -3,646890074e-02   -7,637544721e-02    3,660316467e-01    5,268949866e-01    0,000000000e+00    0,000000000e+00    0,000000000e+00    0,000000000e+00
      660000000   -1,110449433e-01   -1,001097709e-01    6,014099717e-01    1,933708936e-01    0,000000000e+00    0,000000000e+00    0,000000000e+00    0,000000000e+00
      674000000   -2,000014037e-01   -2,393973805e-02    5,656847954e-01   -2,394427359e-01    0,000000000e+00    0,000000000e+00    0,000000000e+00    0,000000000e+00
      688000000   -1,789696068e-01    1,437297165e-01    2,104802579e-01   -5,223000646e-01    0,000000000e+00    0,000000000e+00    0,000000000e+00    0,000000000e+00
      702000000    2,375748008e-02    2,470674813e-01   -1,985796839e-01   -4,117271900e-01    0,000000000e+00    0,000000000e+00    0,000000000e+00    0,000000000e+00
      716000000    2,637917995e-01    1,105836555e-01   -2,737743855e-01   -8,391031623e-02    0,000000000e+00    0,000000000e+00    0,000000000e+00    0,000000000e+00
      730000000    3,040128052e-01   -1,852534711e-01   -1,081373468e-01    3,290357068e-02    0,000000000e+00    0,000000000e+00    0,000000000e+00    0,000000000e+00
      744000000    9,349186718e-02   -4,281316102e-01   -4,210568592e-02   -6,371433288e-02    0,000000000e+00    0,000000000e+00    0,000000000e+00    0,000000000e+00
      758000000   -2,593327761e-01   -4,294610918e-01   -1,747492999e-01   -1,250674576e-01    0,000000000e+00    0,000000000e+00    0,000000000e+00    0,000000000e+00
      772000000   -4,863207042e-01   -1,189598516e-01   -3,359703124e-01    3,756524622e-02    0,000000000e+00    0,000000000e+00    0,000000000e+00    0,000000000e+00
      786000000   -3,414670825e-01    2,217093706e-01   -2,626189888e-01    3,161094189e-01    0,000000000e+00    0,000000000e+00    0,000000000e+00    0,000000000e+00
      800000000   -4,182523489e-02    2,769867182e-01    3,054243978e-03    4,364501834e-01    0,000000000e+00    0,000000000e+00    0,000000000e+00    0,000000000e+00
      814000000    1,444118470e-01    1,254357100e-01    2,639834881e-01    3,596289754e-01    0,000000000e+00    0,000000000e+00    0,000000000e+00    0,000000000e+00
      828000000    1,681807488e-01   -6,994220614e-02    4,326693118e-01    1,573346108e-01    0,000000000e+00    0,000000000e+00    0,000000000e+00    0,000000000e+00
      842000000    6,761354208e-02   -2,184848785e-01    4,665250778e-01   -1,204450727e-01    0,000000000e+00    0,000000000e+00    0,000000000e+00    0,000000000e+00
      856000000   -1,060204953e-01   -2,641814053e-01    3,194983602e-01   -3,945742548e-01    0,000000000e+00    0,000000000e+00    0,000000000e+00    0,000000000e+00
      870000000   -2,751173377e-01   -1,687419266e-01   -2,294834470e-03   -5,273222327e-01    0,000000000e+00    0,000000000e+00    0,000000000e+00    0,000000000e+00
      884000000   -3,206854463e-01    3,638444096e-02   -3,486802280e-01   -3,917430639e-01    0,000000000e+00    0,000000000e+00    0,000000000e+00    0,000000000e+00
      898000000   -1,912334263e-01    2,062146217e-01   -4,884672165e-01   -6,302498281e-02    0,000000000e+00    0,000000000e+00    0,000000000e+00    0,000000000e+00
      912000000    6,274298299e-03    2,192778736e-01   -4,105402231e-01    2,730558217e-01    0,000000000e+00    0,000000000e+00    0,000000000e+00    0,000000000e+00
      926000000    1,500760317e-01    1,138443947e-01   -1,685661227e-01    4,172286987e-01    0,000000000e+00    0,000000000e+00    0,000000000e+00    0,000000000e+00
      940000000    1,995620877e-01   -4,746299610e-02    6,405775994e-02    4,229628444e-01    0,000000000e+00    0,000000000e+00    0,000000000e+00    0,000000000e+00
      954000000    1,553592980e-01   -2,032587379e-01    2,622273266e-01    3,416962922e-01    0,000000000e+00    0,000000000e+00    0,000000000e+00    0,000000000e+00
      968000000    2,405195311e-02   -3,168047071e-01    4,106199145e-01    1,796362102e-01    0,000000000e+00    0,000000000e+00    0,000000000e+00    0,000000000e+00
      982000000   -1,644462198e-01   -3,340301514e-01    4,742273390e-01   -6,742046028e-02    0,000000000e+00    0,000000000e+00    0,000000000e+00    0,000000000e+00
      996000000   -3,273315430e-01   -2,068102658e-01    3,684271574e-01   -3,543240726e-01    0,000000000e+00    0,000000000e+00    0,000000000e+00    0,000000000e+00
     1010000000   -3,383760154e-01   -8,009823039e-03    4,205070063e-02   -5,239606500e-01    0,000000000e+00    0,000000000e+00    0,000000000e+00    0,000000000e+00
     1024000000   -2,086410969e-01    9,219076484e-02   -3,444249332e-01   -3,792808354e-01    0,000000000e+00    0,000000000e+00    0,000000000e+00    0,000000000e+00
     1038000000   -1,368125230e-01    8,098171093e-03   -4,833364785e-01    6,508980691e-02    0,000000000e+00    0,000000000e+00    0,000000000e+00    0,000000000e+00
     1052000000   -2,862965465e-01    5,194820091e-02   -9,498072416e-02    3,727650344e-01    0,000000000e+00    0,000000000e+00    0,000000000e+00    0,000000000e+00
     1066000000   -1,448564380e-01    2,933530509e-01    1,396625340e-01    1,291201264e-01    0,000000000e+00    0,000000000e+00    0,000000000e+00    0,000000000e+00
     1080000000    1,047562212e-01    2,474475503e-01    8,991423249e-02    2,123146504e-02    0,000000000e+00    0,000000000e+00    0,000000000e+00    0,000000000e+00
     1094000000    2,256880403e-01    9,033674002e-02    6,772199273e-02    1,115537249e-02    0,000000000e+00    0,000000000e+00    0,000000000e+00    0,000000000e+00
     1108000000    2,435143888e-01   -8,663287014e-02    7,996239513e-02    4,444392398e-04    0,000000000e+00    0,000000000e+00    0,000000000e+00    0,000000000e+00
     1122000000    1,832228154e-01   -2,533169091e-01    1,038157865e-01   -2,655612305e-02    0,000000000e+00    0,000000000e+00    0,000000000e+00    0,000000000e+00
     1136000000    5,291033536e-02   -3,787621260e-01    1,254452765e-01   -7,448954135e-02    0,000000000e+00    0,000000000e+00    0,000000000e+00    0,000000000e+00
     1150000000   -1,570787877e-01   -4,259143770e-01    1,386997551e-01   -1,522155106e-01    0,000000000e+00    0,000000000e+00    0,000000000e+00    0,000000000e+00
     1164000000   -3,749455810e-01   -3,281781375e-01    1,041577309e-01   -2,757458389e-01    0,000000000e+00    0,000000000e+00    0,000000000e+00    0,000000000e+00
     1178000000   -4,616912305e-01   -8,401080221e-02   -1,056780890e-01   -4,068018198e-01    0,000000000e+00    0,000000000e+00    0,000000000e+00    0,000000000e+00
     1192000000   -3,727170825e-01    4,018915817e-02   -4,620261490e-01   -1,966122240e-01    0,000000000e+00    0,000000000e+00    0,000000000e+00    0,000000000e+00
     1206000000   -4,193658531e-01    1,348841637e-01   -2,755883634e-01    2,367247194e-01    0,000000000e+00    0,000000000e+00    0,000000000e+00    0,000000000e+00
     1220000000   -2,798431516e-01    3,316597342e-01   -3,011262277e-03    1,611799151e-01    0,000000000e+00    0,000000000e+00    0,000000000e+00    0,000000000e+00
     1234000000   -4,765564203e-02    3,437036276e-01    2,066355571e-02    5,181702971e-02    0,000000000e+00    0,000000000e+00    0,000000000e+00    0,000000000e+00
     1248000000    1,192713752e-01    2,456942350e-01    4,897280596e-03    2,490159310e-02    0,000000000e+00    0,000000000e+00    0,000000000e+00    0,000000000e+00
     1262000000    2,159186751e-01    1,004417092e-01    6,919655018e-03    2,981488593e-02    0,000000000e+00    0,000000000e+00    0,000000000e+00    0,000000000e+00
     1276000000    2,344790548e-01   -6,081227213e-02    2,806910127e-02    3,340927884e-02    0,000000000e+00    0,000000000e+00    0,000000000e+00    0,000000000e+00
     1290000000    1,968010813e-01   -2,184415907e-01    5,455271900e-02    2,452032082e-02    0,000000000e+00    0,000000000e+00    0,000000000e+00    0,000000000e+00
     1304000000    8,319664747e-02   -3,555927277e-01    7,706008852e-02    7,231736090e-03    0,000000000e+00    0,000000000e+00    0,000000000e+00    0,000000000e+00
     1318000000   -1,050277576e-01   -4,480287135e-01    7,761730254e-02   -1,310644113e-02    0,000000000e+00    0,000000000e+00    0,000000000e+00    0,000000000e+00
     1332000000   -3,556085527e-01   -4,348530471e-01    7,700413465e-02   -1,419925876e-02    0,000000000e+00    0,000000000e+00    0,000000000e+00    0,000000000e+00
     1346000000   -5,948401690e-01   -2,483575791e-01    9,811679274e-02   -8,940789849e-03    0,000000000e+00    0,000000000e+00    0,000000000e+00    0,000000000e+00
     1360000000   -6,494083405e-01    7,116585225e-02    1,456675828e-01   -2,285202965e-02    0,000000000e+00    0,000000000e+00    0,000000000e+00    0,000000000e+00
     1374000000   -4,876046479e-01    3,307674825e-01    1,722649634e-01   -4,754779488e-02    0,000000000e+00    0,000000000e+00    0,000000000e+00    0,000000000e+00
     1388000000   -2,524267733e-01    4,274434745e-01    1,632800549e-01   -8,409780264e-02    0,000000000e+00    0,000000000e+00    0,000000000e+00    0,000000000e+00
     1402000000   -4,181187972e-02    3,912303448e-01    1,425720006e-01   -1,004186049e-01    0,000000000e+00    0,000000000e+00    0,000000000e+00    0,000000000e+00
     1416000000    1,015215814e-01    2,852797806e-01    1,254424155e-01   -8,988381177e-02    0,000000000e+00    0,000000000e+00    0,000000000e+00    0,000000000e+00
     1430000000    1,829528213e-01    1,491529644e-01    1,183358654e-01   -4,632413387e-02    0,000000000e+00    0,000000000e+00    0,000000000e+00    0,000000000e+00
     1444000000    2,083591074e-01   -9,239748120e-03    1,190468073e-01   -1,763106696e-02    0,000000000e+00    0,000000000e+00    0,000000000e+00    0,000000000e+00
     1458000000    1,785396039e-01   -1,848173589e-01    1,336811781e-01    2,560328320e-02    0,000000000e+00    0,000000000e+00    0,000000000e+00    0,000000000e+00
     1472000000    5,951268598e-02   -3,467598855e-01    1,923543513e-01    5,716413632e-02    0,000000000e+00    0,000000000e+00    0,000000000e+00    0,000000000e+00
     1486000000   -1,432559937e-01   -4,698179662e-01    2,921069860e-01    9,660930932e-02    0,000000000e+00    0,000000000e+00    0,000000000e+00    0,000000000e+00
     1500000000   -4,533538818e-01   -4,673432410e-01    3,948387206e-01    4,670712352e-02    0,000000000e+00    0,000000000e+00    0,000000000e+00    0,000000000e+00
