! NanoVNA-App
! Date: 2025-09-25 16:03:36
! Start: 100MHz Stop: 1,5GHz Points: 101
! S-Parameter data: F S11 S21 S12 S22
# Hz S RI R 50
!     Frequency           S11_Real           S11_Imag           S21_Real           S21_Imag           S12_Real           S12_Imag           S22_Real           S22_Imag
      100000000   -2,829109691e-02   -2,885766793e-03    3,722546697e-01   -7,224769592e-01    0,000000000e+00    0,000000000e+00    0,000000000e+00    0,000000000e+00
      114000000   -1,578725129e-02    1,292262785e-02   -9,125947207e-02   -8,048717380e-01    0,000000000e+00    0,000000000e+00    0,000000000e+00    0,000000000e+00
      128000000    4,240372218e-03    1,194298081e-02   -5,158618093e-01   -6,186921000e-01    0,000000000e+00    0,000000000e+00    0,000000000e+00    0,000000000e+00
      142000000    1,546813641e-02   -1,695709536e-03   -7,675563097e-01   -2,340988368e-01    0,000000000e+00    0,000000000e+00    0,000000000e+00    0,000000000e+00
      156000000    1,750794612e-02   -1,388722099e-02   -7,676078677e-01    2,273010015e-01    0,000000000e+00    0,000000000e+00    0,000000000e+00    0,000000000e+00
      170000000    1,768165268e-02   -2,099781111e-02   -5,153591633e-01    6,064094305e-01    0,000000000e+00    0,000000000e+00    0,000000000e+00    0,000000000e+00
      184000000    2,205431275e-02   -3,557257727e-02   -9,816511720e-02    7,859228849e-01    0,000000000e+00    0,000000000e+00    0,000000000e+00    0,000000000e+00
      198000000    1,403525937e-02   -6,064745411e-02    3,461198509e-01    7,107859850e-01    0,000000000e+00    0,000000000e+00    0,000000000e+00    0,000000000e+00
      212000000   -1,766822487e-02   -7,909192145e-02    6,807743907e-01    4,062702954e-01    0,000000000e+00    0,000000000e+00    0,000000000e+00    0,000000000e+00
      226000000   -6,032792851e-02   -6,656043231e-02    7,958471179e-01   -3,570117056e-02    0,000000000e+00    0,000000000e+00    0,000000000e+00    0,000000000e+00
      240000000   -8,049461246e-02   -2,274790220e-02    6,417348981e-01   -4,717275500e-01    0,000000000e+00    0,000000000e+00    0,000000000e+00    0,000000000e+00
      254000000   -6,080418080e-02    1,979295909e-02    2,710691094e-01   -7,419654131e-01    0,000000000e+00    0,000000000e+00    0,000000000e+00    0,000000000e+00
      268000000   -2,097939514e-02    3,089488484e-02   -1,810234040e-01   -7,609709501e-01    0,000000000e+00    0,000000000e+00    0,000000000e+00    0,000000000e+00
      282000000    6,887361407e-03    1,382067241e-02   -5,636061430e-01   -5,326598287e-01    0,000000000e+00    0,000000000e+00    0,000000000e+00    0,000000000e+00
      296000000    1,232070383e-02   -6,255924702e-03   -7,603440285e-01   -1,343829632e-01    0,000000000e+00    0,000000000e+00    0,000000000e+00    0,000000000e+00
      310000000    1,357932948e-02   -1,453486271e-02   -7,087777853e-01    3,032205701e-01    0,000000000e+00    0,000000000e+00    0,000000000e+00    0,000000000e+00
      324000000    2,258279175e-02   -2,462950535e-02   -4,214437604e-01    6,392290592e-01    0,000000000e+00    0,000000000e+00    0,000000000e+00    0,000000000e+00
      338000000    2,827707864e-02   -5,061140656e-02    1,281554578e-04    7,601734996e-01    0,000000000e+00    0,000000000e+00    0,000000000e+00    0,000000000e+00
      352000000    1,004667208e-02   -8,276966959e-02    4,112320542e-01    6,357917190e-01    0,000000000e+00    0,000000000e+00    0,000000000e+00    0,000000000e+00
      366000000   -3,193232045e-02   -9,362274408e-02    6,929809451e-01    3,045837581e-01    0,000000000e+00    0,000000000e+00    0,000000000e+00    0,000000000e+00
      380000000   -6,750637293e-02   -6,870888174e-02    7,464407086e-01   -1,344479918e-01    0,000000000e+00    0,000000000e+00    0,000000000e+00    0,000000000e+00
      394000000   -6,858360767e-02   -3,043260612e-02    5,400496721e-01   -5,282747746e-01    0,000000000e+00    0,000000000e+00    0,000000000e+00    0,000000000e+00
      408000000   -4,270824417e-02   -1,583477296e-02    1,488891393e-01   -7,347950935e-01    0,000000000e+00    0,000000000e+00    0,000000000e+00    0,000000000e+00
      422000000   -2,616605721e-02   -3,097463585e-02   -2,796159685e-01   -6,896464825e-01    0,000000000e+00    0,000000000e+00    0,000000000e+00    0,000000000e+00
      436000000   -3,910544887e-02   -4,881421849e-02   -6,097688675e-01   -4,193953872e-01    0,000000000e+00    0,000000000e+00    0,000000000e+00    0,000000000e+00
      450000000   -6,450352818e-02   -3,912417218e-02   -7,369921803e-01   -7,940211333e-03    0,000000000e+00    0,000000000e+00    0,000000000e+00    0,000000000e+00
      464000000   -6,774163246e-02   -6,399548613e-03   -6,082926989e-01    4,067262709e-01    0,000000000e+00    0,000000000e+00    0,000000000e+00    0,000000000e+00
      478000000   -3,838875145e-02    1,646701992e-02   -2,673995495e-01    6,704819202e-01    0,000000000e+00    0,000000000e+00    0,000000000e+00    0,000000000e+00
      492000000   -5,207385868e-03    6,162929814e-03    1,520513743e-01    6,948431730e-01    0,000000000e+00    0,000000000e+00    0,000000000e+00    0,000000000e+00
      506000000    7,116893306e-03   -2,026615851e-02    5,084342957e-01    4,883583188e-01    0,000000000e+00    0,000000000e+00    0,000000000e+00    0,000000000e+00
      520000000    4,846796219e-04   -3,861631453e-02    6,887668371e-01    1,229051501e-01    0,000000000e+00    0,000000000e+00    0,000000000e+00    0,000000000e+00
      534000000   -2,990252571e-03   -4,522404820e-02    6,325573325e-01   -2,820282578e-01    0,000000000e+00    0,000000000e+00    0,000000000e+00    0,000000000e+00
      548000000    1,043755678e-03   -5,970332399e-02    3,604179919e-01   -5,794690251e-01    0,000000000e+00    0,000000000e+00    0,000000000e+00    0,000000000e+00
      562000000   -7,994095795e-03   -8,821973950e-02   -2,692894079e-02   -6,734668016e-01    0,000000000e+00    0,000000000e+00    0,000000000e+00    0,000000000e+00
      576000000   -4,542444274e-02   -1,099700257e-01   -4,016023576e-01   -5,395013690e-01    0,000000000e+00    0,000000000e+00    0,000000000e+00    0,000000000e+00
      590000000   -9,490445256e-02   -9,377010167e-02   -6,399070621e-01   -2,197835594e-01    0,000000000e+00    0,000000000e+00    0,000000000e+00    0,000000000e+00
      604000000   -1,114702076e-01   -4,135996103e-02   -6,475600004e-01    1,984005868e-01    0,000000000e+00    0,000000000e+00    0,000000000e+00    0,000000000e+00
      618000000   -7,525537163e-02   -2,248977777e-03   -4,025034606e-01    5,363377333e-01    0,000000000e+00    0,000000000e+00    0,000000000e+00    0,000000000e+00
      632000000   -2,982721105e-02   -2,059573494e-02   -1,166130230e-02    6,557249427e-01    0,000000000e+00    0,000000000e+00    0,000000000e+00    0,000000000e+00
      646000000   -3,683961928e-02   -7,630395144e-02    3,660662174e-01    5,275065303e-01    0,000000000e+00    0,000000000e+00    0,000000000e+00    0,000000000e+00
      660000000   -1,108098105e-01   -9,994065017e-02    6,010038257e-01    1,929277629e-01    0,000000000e+00    0,000000000e+00    0,000000000e+00    0,000000000e+00
      674000000   -2,002450228e-01   -2,352830209e-02    5,657856464e-01   -2,396184951e-01    0,000000000e+00    0,000000000e+00    0,000000000e+00    0,000000000e+00
      688000000   -1,780668348e-01    1,442023516e-01    2,099663615e-01   -5,214484334e-01    0,000000000e+00    0,000000000e+00    0,000000000e+00    0,000000000e+00
      702000000    2,513312548e-02    2,448230982e-01   -1,993519515e-01   -4,007803798e-01    0,000000000e+00    0,000000000e+00    0,000000000e+00    0,000000000e+00
      716000000    2,637093067e-01    1,112340242e-01   -2,737610042e-01   -8,396714181e-02    0,000000000e+00    0,000000000e+00    0,000000000e+00    0,000000000e+00
      730000000    3,037607372e-01   -1,852700561e-01   -1,078502163e-01    3,284925595e-02    0,000000000e+00    0,000000000e+00    0,000000000e+00    0,000000000e+00
      744000000    9,366746247e-02   -4,276388586e-01   -4,213228449e-02   -6,413871050e-02    0,000000000e+00    0,000000000e+00    0,000000000e+00    0,000000000e+00
      758000000   -2,598668337e-01   -4,307544827e-01   -1,747479737e-01   -1,254585385e-01    0,000000000e+00    0,000000000e+00    0,000000000e+00    0,000000000e+00
      772000000   -4,854459167e-01   -1,189245433e-01   -3,356024623e-01    3,728482500e-02    0,000000000e+00    0,000000000e+00    0,000000000e+00    0,000000000e+00
      786000000   -3,429230750e-01    2,222257555e-01   -2,631143034e-01    3,165032268e-01    0,000000000e+00    0,000000000e+00    0,000000000e+00    0,000000000e+00
      800000000   -4,117558151e-02    2,774628699e-01    3,538054181e-03    4,365261793e-01    0,000000000e+00    0,000000000e+00    0,000000000e+00    0,000000000e+00
      814000000    1,450426131e-01    1,255681813e-01    2,631787062e-01    3,594754636e-01    0,000000000e+00    0,000000000e+00    0,000000000e+00    0,000000000e+00
      828000000    1,680489928e-01   -7,006125152e-02    4,333370626e-01    1,567807496e-01    0,000000000e+00    0,000000000e+00    0,000000000e+00    0,000000000e+00
      842000000    6,771068275e-02   -2,182714790e-01    4,665357172e-01   -1,202280000e-01    0,000000000e+00    0,000000000e+00    0,000000000e+00    0,000000000e+00
      856000000   -1,072616279e-01   -2,644054890e-01    3,201414645e-01   -3,938411474e-01    0,000000000e+00    0,000000000e+00    0,000000000e+00    0,000000000e+00
      870000000   -2,754243910e-01   -1,688086241e-01   -2,921216423e-03   -5,268182158e-01    0,000000000e+00    0,000000000e+00    0,000000000e+00    0,000000000e+00
      884000000   -3,213189542e-01    3,611610830e-02   -3,489012122e-01   -3,915642500e-01    0,000000000e+00    0,000000000e+00    0,000000000e+00    0,000000000e+00
      898000000   -1,919453293e-01    2,064081728e-01   -4,879735708e-01   -6,249891222e-02    0,000000000e+00    0,000000000e+00    0,000000000e+00    0,000000000e+00
      912000000    6,768249441e-03    2,196726799e-01   -4,076446891e-01    2,654157579e-01    0,000000000e+00    0,000000000e+00    0,000000000e+00    0,000000000e+00
      926000000    1,499717683e-01    1,115398854e-01   -1,700152159e-01    4,158984423e-01    0,000000000e+00    0,000000000e+00    0,000000000e+00    0,000000000e+00
      940000000    2,000844032e-01   -4,605456442e-02    6,489181519e-02    4,254359305e-01    0,000000000e+00    0,000000000e+00    0,000000000e+00    0,000000000e+00
      954000000    1,529947966e-01   -2,047864944e-01    2,621392906e-01    3,414504826e-01    0,000000000e+00    0,000000000e+00    0,000000000e+00    0,000000000e+00
      968000000    2,347338386e-02   -3,131214380e-01    4,089814425e-01    1,779840440e-01    0,000000000e+00    0,000000000e+00    0,000000000e+00    0,000000000e+00
      982000000   -1,613316834e-01   -3,311992586e-01    4,774443209e-01   -6,633904576e-02    0,000000000e+00    0,000000000e+00    0,000000000e+00    0,000000000e+00
      996000000   -3,233503699e-01   -2,071372718e-01    3,676391244e-01   -3,554253280e-01    0,000000000e+00    0,000000000e+00    0,000000000e+00    0,000000000e+00
     1010000000   -3,419199288e-01   -3,519490594e-03    4,154821858e-02   -5,237749815e-01    0,000000000e+00    0,000000000e+00    0,000000000e+00    0,000000000e+00
     1024000000   -2,033692002e-01    9,170943499e-02   -3,475071490e-01   -3,781941831e-01    0,000000000e+00    0,000000000e+00    0,000000000e+00    0,000000000e+00
     1038000000   -1,374372244e-01    8,996241726e-03   -4,817586541e-01    6,403321773e-02    0,000000000e+00    0,000000000e+00    0,000000000e+00    0,000000000e+00
     1052000000   -2,901955545e-01    5,298761651e-02   -9,340275824e-02    3,715127110e-01    0,000000000e+00    0,000000000e+00    0,000000000e+00    0,000000000e+00
     1066000000   -1,478445679e-01    2,990136743e-01    1,445801109e-01    1,301626563e-01    0,000000000e+00    0,000000000e+00    0,000000000e+00    0,000000000e+00
     1080000000    1,050270647e-01    2,483684868e-01    8,706059307e-02    2,077337727e-02    0,000000000e+00    0,000000000e+00    0,000000000e+00    0,000000000e+00
     1094000000    2,189604193e-01    8,710723370e-02    6,821350753e-02    9,829414077e-03    0,000000000e+00    0,000000000e+00    0,000000000e+00    0,000000000e+00
     1108000000    2,428232282e-01   -9,041163325e-02    8,056670427e-02   -4,031258286e-04    0,000000000e+00    0,000000000e+00    0,000000000e+00    0,000000000e+00
     1122000000    1,823459715e-01   -2,536248267e-01    1,026004702e-01   -2,415277250e-02    0,000000000e+00    0,000000000e+00    0,000000000e+00    0,000000000e+00
     1136000000    5,015467107e-02   -3,756096959e-01    1,252262592e-01   -7,198113203e-02    0,000000000e+00    0,000000000e+00    0,000000000e+00    0,000000000e+00
     1150000000   -1,556195319e-01   -4,250712097e-01    1,382803619e-01   -1,502729207e-01    0,000000000e+00    0,000000000e+00    0,000000000e+00    0,000000000e+00
     1164000000   -3,823972344e-01   -3,215828836e-01    1,005573720e-01   -2,770391405e-01    0,000000000e+00    0,000000000e+00    0,000000000e+00    0,000000000e+00
     1178000000   -4,615464211e-01   -8,706146479e-02   -1,024434939e-01   -4,046564400e-01    0,000000000e+00    0,000000000e+00    0,000000000e+00    0,000000000e+00
     1192000000   -3,793033063e-01    3,944542259e-02   -4,645900428e-01   -1,968728304e-01    0,000000000e+00    0,000000000e+00    0,000000000e+00    0,000000000e+00
     1206000000   -4,163605273e-01    1,325704753e-01   -2,777273059e-01    2,342690825e-01    0,000000000e+00    0,000000000e+00    0,000000000e+00    0,000000000e+00
     1220000000   -2,722530663e-01    3,321891129e-01    2,135267248e-03    1,657873243e-01    0,000000000e+00    0,000000000e+00    0,000000000e+00    0,000000000e+00
     1234000000   -4,712120071e-02    3,522320688e-01    2,930963412e-02    5,430276319e-02    0,000000000e+00    0,000000000e+00    0,000000000e+00    0,000000000e+00
     1248000000    1,189467907e-01    2,527459562e-01    3,825323074e-04    2,389341220e-02    0,000000000e+00    0,000000000e+00    0,000000000e+00    0,000000000e+00
     1262000000    2,088305056e-01    1,028851941e-01    2,272279002e-03    3,315465152e-02    0,000000000e+00    0,000000000e+00    0,000000000e+00    0,000000000e+00
     1276000000    2,330027372e-01   -5,952123180e-02    2,864561975e-02    3,486249596e-02    0,000000000e+00    0,000000000e+00    0,000000000e+00    0,000000000e+00
     1290000000    1,914819628e-01   -2,174707949e-01    5,410807207e-02    2,355477214e-02    0,000000000e+00    0,000000000e+00    0,000000000e+00    0,000000000e+00
     1304000000    8,366423845e-02   -3,595043421e-01    7,348664850e-02    3,281258512e-03    0,000000000e+00    0,000000000e+00    0,000000000e+00    0,000000000e+00
     1318000000   -1,029896587e-01   -4,456322789e-01    7,991471887e-02   -7,864761166e-03    0,000000000e+00    0,000000000e+00    0,000000000e+00    0,000000000e+00
     1332000000   -3,562802374e-01   -4,376584589e-01    9,100132436e-02   -1,426689327e-02    0,000000000e+00    0,000000000e+00    0,000000000e+00    0,000000000e+00
     1346000000   -5,878043175e-01   -2,443554699e-01    1,058237329e-01   -1,673242077e-02    0,000000000e+00    0,000000000e+00    0,000000000e+00    0,000000000e+00
     1360000000   -6,493124962e-01    7,456555218e-02    1,429242045e-01   -1,328824926e-02    0,000000000e+00    0,000000000e+00    0,000000000e+00    0,000000000e+00
     1374000000   -4,896503389e-01    3,357016444e-01    1,682052612e-01   -5,171437562e-02    0,000000000e+00    0,000000000e+00    0,000000000e+00    0,000000000e+00
     1388000000   -2,546796501e-01    4,230471849e-01    1,639793664e-01   -8,571844548e-02    0,000000000e+00    0,000000000e+00    0,000000000e+00    0,000000000e+00
     1402000000   -4,835600778e-02    3,898684382e-01    1,439140290e-01   -9,526860714e-02    0,000000000e+00    0,000000000e+00    0,000000000e+00    0,000000000e+00
     1416000000    1,028668657e-01    2,863930166e-01    1,255672127e-01   -9,005887061e-02    0,000000000e+00    0,000000000e+00    0,000000000e+00    0,000000000e+00
     1430000000    1,880500466e-01    1,412416101e-01    1,033786386e-01   -9,462072700e-02    0,000000000e+00    0,000000000e+00    0,000000000e+00    0,000000000e+00
     1444000000    2,145980895e-01   -1,397294924e-02    1,238629892e-01   -3,033545800e-02    0,000000000e+00    0,000000000e+00    0,000000000e+00    0,000000000e+00
     1458000000    1,798270494e-01   -1,853376925e-01    1,412686855e-01    1,924643479e-02    0,000000000e+00    0,000000000e+00    0,000000000e+00    0,000000000e+00
     1472000000    6,925759465e-02   -3,488080800e-01    1,875619739e-01    5,712591857e-02    0,000000000e+00    0,000000000e+00    0,000000000e+00    0,000000000e+00
     1486000000   -1,376660764e-01   -4,809687436e-01    2,994976938e-01    8,301544935e-02    0,000000000e+00    0,000000000e+00    0,000000000e+00    0,000000000e+00
     1500000000   -4,343926907e-01   -4,767566919e-01    4,165173769e-01    3,881253675e-02    0,000000000e+00    0,000000000e+00    0,000000000e+00    0,000000000e+00
