! NanoVNA-App
! Date: 2025-09-25 16:03:15
! Start: 100MHz Stop: 1,5GHz Points: 101
! S-Parameter data: F S11 S21 S12 S22
# Hz S RI R 50
!     Frequency           S11_Real           S11_Imag           S21_Real           S21_Imag           S12_Real           S12_Imag           S22_Real           S22_Imag
      100000000   -2,831188403e-02   -2,874284284e-03    3,723397851e-01   -7,224516869e-01    0,000000000e+00    0,000000000e+00    0,000000000e+00    0,000000000e+00
      114000000   -1,575116068e-02    1,289552450e-02   -9,134053439e-02   -8,046886921e-01    0,000000000e+00    0,000000000e+00    0,000000000e+00    0,000000000e+00
      128000000    4,342766013e-03    1,197523624e-02   -5,160009265e-01   -6,189391613e-01    0,000000000e+00    0,000000000e+00    0,000000000e+00    0,000000000e+00
      142000000    1,546834223e-02   -1,695111860e-03   -7,674160004e-01   -2,341272086e-01    0,000000000e+00    0,000000000e+00    0,000000000e+00    0,000000000e+00
      156000000    1,704779454e-02   -1,350524276e-02   -7,657858729e-01    2,261807472e-01    0,000000000e+00    0,000000000e+00    0,000000000e+00    0,000000000e+00
      170000000    1,769993454e-02   -2,100202069e-02   -5,153936744e-01    6,062069535e-01    0,000000000e+00    0,000000000e+00    0,000000000e+00    0,000000000e+00
      184000000    2,202602103e-02   -3,553856909e-02   -9,834945202e-02    7,860284448e-01    0,000000000e+00    0,000000000e+00    0,000000000e+00    0,000000000e+00
      198000000    1,403850783e-02   -6,061945483e-02    3,461440504e-01    7,108282447e-01    0,000000000e+00    0,000000000e+00    0,000000000e+00    0,000000000e+00
      212000000   -1,767795347e-02   -7,912182808e-02    6,807907224e-01    4,063746333e-01    0,000000000e+00    0,000000000e+00    0,000000000e+00    0,000000000e+00
      226000000   -6,028964370e-02   -6,664640456e-02    7,958551049e-01   -3,562495112e-02    0,000000000e+00    0,000000000e+00    0,000000000e+00    0,000000000e+00
      240000000   -8,055159450e-02   -2,276831120e-02    6,416329145e-01   -4,717930257e-01    0,000000000e+00    0,000000000e+00    0,000000000e+00    0,000000000e+00
      254000000   -6,076195464e-02    1,978279278e-02    2,711392641e-01   -7,418816090e-01    0,000000000e+00    0,000000000e+00    0,000000000e+00    0,000000000e+00
      268000000   -2,093980648e-02    3,092059493e-02   -1,811602116e-01   -7,610552907e-01    0,000000000e+00    0,000000000e+00    0,000000000e+00    0,000000000e+00
      282000000    6,920593791e-03    1,377076283e-02   -5,635192394e-01   -5,325031877e-01    0,000000000e+00    0,000000000e+00    0,000000000e+00    0,000000000e+00
      296000000    1,231506374e-02   -6,231788080e-03   -7,604962587e-01   -1,343528628e-01    0,000000000e+00    0,000000000e+00    0,000000000e+00    0,000000000e+00
      310000000    1,329650078e-02   -1,465318073e-02   -7,079789639e-01    3,034454584e-01    0,000000000e+00    0,000000000e+00    0,000000000e+00    0,000000000e+00
      324000000    2,263905481e-02   -2,476507425e-02   -4,223161936e-01    6,394199729e-01    0,000000000e+00    0,000000000e+00    0,000000000e+00    0,000000000e+00
      338000000    2,819853835e-02   -5,091147870e-02   -3,851908725e-03    7,616097927e-01    0,000000000e+00    0,000000000e+00    0,000000000e+00    0,000000000e+00
      352000000    1,009662449e-02   -8,306416124e-02    4,117549360e-01    6,348769069e-01    0,000000000e+00    0,000000000e+00    0,000000000e+00    0,000000000e+00
      366000000   -3,186335415e-02   -9,385395050e-02    6,927576661e-01    3,038345277e-01    0,000000000e+00    0,000000000e+00    0,000000000e+00    0,000000000e+00
      380000000   -6,757114828e-02   -6,866094470e-02    7,453027368e-01   -1,342005432e-01    0,000000000e+00    0,000000000e+00    0,000000000e+00    0,000000000e+00
      394000000   -6,828334928e-02   -3,033095412e-02    5,395462513e-01   -5,293301344e-01    0,000000000e+00    0,000000000e+00    0,000000000e+00    0,000000000e+00
      408000000   -4,247572646e-02   -1,569568366e-02    1,489560604e-01   -7,333776951e-01    0,000000000e+00    0,000000000e+00    0,000000000e+00    0,000000000e+00
      422000000   -2,603911422e-02   -3,090135939e-02   -2,790973485e-01   -6,893308759e-01    0,000000000e+00    0,000000000e+00    0,000000000e+00    0,000000000e+00
      436000000   -3,890678659e-02   -4,904203117e-02   -6,100417376e-01   -4,201689363e-01    0,000000000e+00    0,000000000e+00    0,000000000e+00    0,000000000e+00
      450000000   -6,468057632e-02   -3,927854076e-02   -7,371468544e-01   -7,228956558e-03    0,000000000e+00    0,000000000e+00    0,000000000e+00    0,000000000e+00
      464000000   -6,762398034e-02   -6,337367464e-03   -6,076761484e-01    4,059698582e-01    0,000000000e+00    0,000000000e+00    0,000000000e+00    0,000000000e+00
      478000000   -3,877981752e-02    1,613433100e-02   -2,679421306e-01    6,706163287e-01    0,000000000e+00    0,000000000e+00    0,000000000e+00    0,000000000e+00
      492000000   -5,325111561e-03    6,405574735e-03    1,518153995e-01    6,953853965e-01    0,000000000e+00    0,000000000e+00    0,000000000e+00    0,000000000e+00
      506000000    7,036197931e-03   -2,009957843e-02    5,083310604e-01    4,888891578e-01    0,000000000e+00    0,000000000e+00    0,000000000e+00    0,000000000e+00
      520000000    3,215617908e-04   -3,857625648e-02    6,900502443e-01    1,196710765e-01    0,000000000e+00    0,000000000e+00    0,000000000e+00    0,000000000e+00
      534000000   -2,930475632e-03   -4,543458670e-02    6,321625710e-01   -2,815609574e-01    0,000000000e+00    0,000000000e+00    0,000000000e+00    0,000000000e+00
      548000000    1,198571408e-03   -5,995343253e-02    3,606681824e-01   -5,793135762e-01    0,000000000e+00    0,000000000e+00    0,000000000e+00    0,000000000e+00
      562000000   -7,317123469e-03   -8,859737217e-02   -2,705825493e-02   -6,735675931e-01    0,000000000e+00    0,000000000e+00    0,000000000e+00    0,000000000e+00
      576000000   -4,513946921e-02   -1,094610617e-01   -4,015445411e-01   -5,381246209e-01    0,000000000e+00    0,000000000e+00    0,000000000e+00    0,000000000e+00
      590000000   -9,463305026e-02   -9,341012686e-02   -6,392750144e-01   -2,173754722e-01    0,000000000e+00    0,000000000e+00    0,000000000e+00    0,000000000e+00
      604000000   -1,117307320e-01   -4,155279323e-02   -6,476637125e-01    1,979512274e-01    0,000000000e+00    0,000000000e+00    0,000000000e+00    0,000000000e+00
      618000000   -7,630031556e-02   -2,212148625e-03   -4,018861949e-01    5,356134772e-01    0,000000000e+00    0,000000000e+00    0,000000000e+00    0,000000000e+00
      632000000   -2,942550555e-02   -2,109912038e-02   -1,136937924e-02    6,555890441e-01    0,000000000e+00    0,000000000e+00    0,000000000e+00    0,000000000e+00
      646000000   -3,606861457e-02   -7,605329901e-02    3,659878969e-01    5,270581245e-01    0,000000000e+00    0,000000000e+00    0,000000000e+00    0,000000000e+00
      660000000   -1,111460924e-01   -9,893943369e-02    6,010137200e-01    1,940455735e-01    0,000000000e+00    0,000000000e+00    0,000000000e+00    0,000000000e+00
      674000000   -1,986315250e-01   -2,406713367e-02    5,663002729e-01   -2,393780053e-01    0,000000000e+00    0,000000000e+00    0,000000000e+00    0,000000000e+00
      688000000   -1,793107390e-01    1,438592374e-01    2,105938196e-01   -5,227961540e-01    0,000000000e+00    0,000000000e+00    0,000000000e+00    0,000000000e+00
      702000000    2,401083335e-02    2,468504757e-01   -2,003947794e-01   -4,078966975e-01    0,000000000e+00    0,000000000e+00    0,000000000e+00    0,000000000e+00
      716000000    2,628425360e-01    1,106870994e-01   -2,746340036e-01   -8,450056612e-02    0,000000000e+00    0,000000000e+00    0,000000000e+00    0,000000000e+00
      730000000    3,039961457e-01   -1,856996417e-01   -1,081870794e-01    3,334297612e-02    0,000000000e+00    0,000000000e+00    0,000000000e+00    0,000000000e+00
      744000000    9,460416436e-02   -4,270719886e-01   -4,222606495e-02   -6,361008435e-02    0,000000000e+00    0,000000000e+00    0,000000000e+00    0,000000000e+00
      758000000   -2,589778900e-01   -4,311369956e-01   -1,747373492e-01   -1,249894127e-01    0,000000000e+00    0,000000000e+00    0,000000000e+00    0,000000000e+00
      772000000   -4,858081043e-01   -1,189522818e-01   -3,356821239e-01    3,766272217e-02    0,000000000e+00    0,000000000e+00    0,000000000e+00    0,000000000e+00
      786000000   -3,429991603e-01    2,224501520e-01   -2,627592981e-01    3,160623014e-01    0,000000000e+00    0,000000000e+00    0,000000000e+00    0,000000000e+00
      800000000   -4,140386730e-02    2,770186663e-01    2,826003358e-03    4,365542531e-01    0,000000000e+00    0,000000000e+00    0,000000000e+00    0,000000000e+00
      814000000    1,446976215e-01    1,255416423e-01    2,639309764e-01    3,590828180e-01    0,000000000e+00    0,000000000e+00    0,000000000e+00    0,000000000e+00
      828000000    1,679177880e-01   -7,019631565e-02    4,327037632e-01    1,569190919e-01    0,000000000e+00    0,000000000e+00    0,000000000e+00    0,000000000e+00
      842000000    6,799151748e-02   -2,182084471e-01    4,664536119e-01   -1,196788996e-01    0,000000000e+00    0,000000000e+00    0,000000000e+00    0,000000000e+00
      856000000   -1,074542925e-01   -2,645188868e-01    3,203445971e-01   -3,945576251e-01    0,000000000e+00    0,000000000e+00    0,000000000e+00    0,000000000e+00
      870000000   -2,753081322e-01   -1,682476997e-01   -2,065007342e-03   -5,263677835e-01    0,000000000e+00    0,000000000e+00    0,000000000e+00    0,000000000e+00
      884000000   -3,202644587e-01    3,534794599e-02   -3,473115265e-01   -3,938602507e-01    0,000000000e+00    0,000000000e+00    0,000000000e+00    0,000000000e+00
      898000000   -1,920021325e-01    2,069391757e-01   -4,887765646e-01   -6,241305172e-02    0,000000000e+00    0,000000000e+00    0,000000000e+00    0,000000000e+00
      912000000    6,509446539e-03    2,206050605e-01   -3,936561048e-01    2,744538784e-01    0,000000000e+00    0,000000000e+00    0,000000000e+00    0,000000000e+00
      926000000    1,503110975e-01    1,143376902e-01   -1,679274887e-01    4,168658555e-01    0,000000000e+00    0,000000000e+00    0,000000000e+00    0,000000000e+00
      940000000    2,006953657e-01   -4,756829888e-02    6,288719922e-02    4,238367081e-01    0,000000000e+00    0,000000000e+00    0,000000000e+00    0,000000000e+00
      954000000    1,515152901e-01   -2,031224519e-01    2,605915666e-01    3,401214182e-01    0,000000000e+00    0,000000000e+00    0,000000000e+00    0,000000000e+00
      968000000    2,467958629e-02   -3,139830828e-01    4,102069736e-01    1,795320809e-01    0,000000000e+00    0,000000000e+00    0,000000000e+00    0,000000000e+00
      982000000   -1,601133645e-01   -3,329332173e-01    4,746148288e-01   -6,644617021e-02    0,000000000e+00    0,000000000e+00    0,000000000e+00    0,000000000e+00
      996000000   -3,226032555e-01   -2,080967277e-01    3,689443171e-01   -3,545573652e-01    0,000000000e+00    0,000000000e+00    0,000000000e+00    0,000000000e+00
     1010000000   -3,414891660e-01   -4,781240597e-03    4,231178015e-02   -5,250869989e-01    0,000000000e+00    0,000000000e+00    0,000000000e+00    0,000000000e+00
     1024000000   -2,039970607e-01    9,169810265e-02   -3,455964625e-01   -3,828845024e-01    0,000000000e+00    0,000000000e+00    0,000000000e+00    0,000000000e+00
     1038000000   -1,376261562e-01    1,039922889e-02   -4,825223386e-01    6,179394200e-02    0,000000000e+00    0,000000000e+00    0,000000000e+00    0,000000000e+00
     1052000000   -2,832241654e-01    5,282909796e-02   -9,440411627e-02    3,746460080e-01    0,000000000e+00    0,000000000e+00    0,000000000e+00    0,000000000e+00
     1066000000   -1,468542069e-01    2,981412113e-01    1,401639283e-01    1,332977712e-01    0,000000000e+00    0,000000000e+00    0,000000000e+00    0,000000000e+00
     1080000000    9,837961197e-02    2,469080836e-01    8,939546347e-02    2,126074396e-02    0,000000000e+00    0,000000000e+00    0,000000000e+00    0,000000000e+00
     1094000000    2,186793238e-01    9,143359959e-02    7,101942599e-02    1,025482640e-02    0,000000000e+00    0,000000000e+00    0,000000000e+00    0,000000000e+00
     1108000000    2,400150448e-01   -8,752196282e-02    7,957351208e-02   -1,298005460e-03    0,000000000e+00    0,000000000e+00    0,000000000e+00    0,000000000e+00
     1122000000    1,858003139e-01   -2,498596609e-01    1,027416140e-01   -2,470549569e-02    0,000000000e+00    0,000000000e+00    0,000000000e+00    0,000000000e+00
     1136000000    4,858637974e-02   -3,812281489e-01    1,261396408e-01   -7,279650867e-02    0,000000000e+00    0,000000000e+00    0,000000000e+00    0,000000000e+00
     1150000000   -1,569969952e-01   -4,227709174e-01    1,388290375e-01   -1,505565196e-01    0,000000000e+00    0,000000000e+00    0,000000000e+00    0,000000000e+00
     1164000000   -3,740418255e-01   -3,252976537e-01    1,021258011e-01   -2,775636911e-01    0,000000000e+00    0,000000000e+00    0,000000000e+00    0,000000000e+00
     1178000000   -4,620305300e-01   -8,437106013e-02   -1,065101996e-01   -4,020088613e-01    0,000000000e+00    0,000000000e+00    0,000000000e+00    0,000000000e+00
     1192000000   -3,762716651e-01    4,032156244e-02   -4,650406539e-01   -1,968457848e-01    0,000000000e+00    0,000000000e+00    0,000000000e+00    0,000000000e+00
     1206000000   -4,101620018e-01    1,330755502e-01   -2,750454247e-01    2,384644449e-01    0,000000000e+00    0,000000000e+00    0,000000000e+00    0,000000000e+00
     1220000000   -2,744475007e-01    3,348944187e-01   -4,317868501e-03    1,685808152e-01    0,000000000e+00    0,000000000e+00    0,000000000e+00    0,000000000e+00
     1234000000   -4,940411821e-02    3,544203639e-01    2,047091722e-02    5,481974781e-02    0,000000000e+00    0,000000000e+00    0,000000000e+00    0,000000000e+00
     1248000000    1,241181791e-01    2,500475347e-01    4,109187983e-03    2,637830563e-02    0,000000000e+00    0,000000000e+00    0,000000000e+00    0,000000000e+00
     1262000000    2,151224315e-01    1,029764414e-01    5,475001410e-03    3,181837499e-02    0,000000000e+00    0,000000000e+00    0,000000000e+00    0,000000000e+00
     1276000000    2,376221865e-01   -5,478986725e-02    2,608879469e-02    3,703645244e-02    0,000000000e+00    0,000000000e+00    0,000000000e+00    0,000000000e+00
     1290000000    1,958385259e-01   -2,167679220e-01    5,979036167e-02    1,907360926e-02    0,000000000e+00    0,000000000e+00    0,000000000e+00    0,000000000e+00
     1304000000    8,789125830e-02   -3,540851772e-01    8,064344525e-02    6,289840676e-03    0,000000000e+00    0,000000000e+00    0,000000000e+00    0,000000000e+00
     1318000000   -1,013004780e-01   -4,499967396e-01    8,598016202e-02   -1,317517180e-02    0,000000000e+00    0,000000000e+00    0,000000000e+00    0,000000000e+00
     1332000000   -3,571352363e-01   -4,368314743e-01    8,180456609e-02   -2,020044066e-02    0,000000000e+00    0,000000000e+00    0,000000000e+00    0,000000000e+00
     1346000000   -5,918110013e-01   -2,505765855e-01    1,048672795e-01   -1,298589818e-02    0,000000000e+00    0,000000000e+00    0,000000000e+00    0,000000000e+00
     1360000000   -6,521440148e-01    7,006354630e-02    1,487893611e-01   -1,509391330e-02    0,000000000e+00    0,000000000e+00    0,000000000e+00    0,000000000e+00
     1374000000   -4,863460958e-01    3,324431479e-01    1,742414236e-01   -4,780662060e-02    0,000000000e+00    0,000000000e+00    0,000000000e+00    0,000000000e+00
     1388000000   -2,488934696e-01    4,278834462e-01    1,706903279e-01   -9,011089057e-02    0,000000000e+00    0,000000000e+00    0,000000000e+00    0,000000000e+00
     1402000000   -3,975798562e-02    3,897598088e-01    1,392452121e-01   -9,747410566e-02    0,000000000e+00    0,000000000e+00    0,000000000e+00    0,000000000e+00
     1416000000    9,949065745e-02    2,855201066e-01    1,129866391e-01   -8,791842312e-02    0,000000000e+00    0,000000000e+00    0,000000000e+00    0,000000000e+00
     1430000000    1,891074628e-01    1,543494314e-01    1,140540689e-01   -4,933974147e-02    0,000000000e+00    0,000000000e+00    0,000000000e+00    0,000000000e+00
     1444000000    2,106479555e-01   -1,360349450e-02    1,133478656e-01   -2,292169444e-02    0,000000000e+00    0,000000000e+00    0,000000000e+00    0,000000000e+00
     1458000000    1,807354242e-01   -1,861250848e-01    1,398147941e-01    9,765269235e-03    0,000000000e+00    0,000000000e+00    0,000000000e+00    0,000000000e+00
     1472000000    7,295250893e-02   -3,492868245e-01    2,125600576e-01    6,962684542e-02    0,000000000e+00    0,000000000e+00    0,000000000e+00    0,000000000e+00
     1486000000   -1,473667771e-01   -4,613288641e-01    2,839841545e-01    1,029725224e-01    0,000000000e+00    0,000000000e+00    0,000000000e+00    0,000000000e+00
     1500000000   -4,447973073e-01   -4,740361571e-01    3,953503370e-01    5,106860772e-02    0,000000000e+00    0,000000000e+00    0,000000000e+00    0,000000000e+00
