! NanoVNA-App
! Date: 2025-09-25 15:55:52
! Start: 100MHz Stop: 1,5GHz Points: 101
! S-Parameter data: F S11 S21 S12 S22
# Hz S RI R 50
!     Frequency           S11_Real           S11_Imag           S21_Real           S21_Imag           S12_Real           S12_Imag           S22_Real           S22_Imag
      100000000   -2,818058990e-02   -2,818541136e-03    3,722347617e-01   -7,224462628e-01    0,000000000e+00    0,000000000e+00    0,000000000e+00    0,000000000e+00
      114000000   -1,558875013e-02    1,287419442e-02   -9,140602499e-02   -8,046719432e-01    0,000000000e+00    0,000000000e+00    0,000000000e+00    0,000000000e+00
      128000000    4,415772390e-03    1,190198399e-02   -5,159291029e-01   -6,186708212e-01    0,000000000e+00    0,000000000e+00    0,000000000e+00    0,000000000e+00
      142000000    1,550478861e-02   -1,843739999e-03   -7,674268484e-01   -2,342200875e-01    0,000000000e+00    0,000000000e+00    0,000000000e+00    0,000000000e+00
      156000000    1,704846509e-02   -1,344083436e-02   -7,658039927e-01    2,261629850e-01    0,000000000e+00    0,000000000e+00    0,000000000e+00    0,000000000e+00
      170000000    1,764739119e-02   -2,098974772e-02   -5,156599879e-01    6,061398387e-01    0,000000000e+00    0,000000000e+00    0,000000000e+00    0,000000000e+00
      184000000    2,198430896e-02   -3,561108932e-02   -9,821672738e-02    7,855088115e-01    0,000000000e+00    0,000000000e+00    0,000000000e+00    0,000000000e+00
      198000000    1,402327511e-02   -6,061705574e-02    3,462180495e-01    7,110357881e-01    0,000000000e+00    0,000000000e+00    0,000000000e+00    0,000000000e+00
      212000000   -1,768723689e-02   -7,910995930e-02    6,806584001e-01    4,061320126e-01    0,000000000e+00    0,000000000e+00    0,000000000e+00    0,000000000e+00
      226000000   -6,031686813e-02   -6,665506214e-02    7,957181931e-01   -3,549285606e-02    0,000000000e+00    0,000000000e+00    0,000000000e+00    0,000000000e+00
      240000000   -8,049771190e-02   -2,281044982e-02    6,414235234e-01   -4,716543257e-01    0,000000000e+00    0,000000000e+00    0,000000000e+00    0,000000000e+00
      254000000   -6,073121354e-02    1,980964094e-02    2,712322176e-01   -7,417756319e-01    0,000000000e+00    0,000000000e+00    0,000000000e+00    0,000000000e+00
      268000000   -2,095265687e-02    3,083835356e-02   -1,812480986e-01   -7,606880069e-01    0,000000000e+00    0,000000000e+00    0,000000000e+00    0,000000000e+00
      282000000    6,848089397e-03    1,373249479e-02   -5,631930232e-01   -5,323071480e-01    0,000000000e+00    0,000000000e+00    0,000000000e+00    0,000000000e+00
      296000000    1,231753547e-02   -6,107185036e-03   -7,602364421e-01   -1,344319582e-01    0,000000000e+00    0,000000000e+00    0,000000000e+00    0,000000000e+00
      310000000    1,356008742e-02   -1,443220209e-02   -7,080587745e-01    3,051035404e-01    0,000000000e+00    0,000000000e+00    0,000000000e+00    0,000000000e+00
      324000000    2,251369320e-02   -2,430441789e-02   -4,210290909e-01    6,398851871e-01    0,000000000e+00    0,000000000e+00    0,000000000e+00    0,000000000e+00
      338000000    2,836353146e-02   -5,067691579e-02   -4,538470879e-03    7,588125467e-01    0,000000000e+00    0,000000000e+00    0,000000000e+00    0,000000000e+00
      352000000    1,009532902e-02   -8,295588195e-02    4,113115370e-01    6,348472238e-01    0,000000000e+00    0,000000000e+00    0,000000000e+00    0,000000000e+00
      366000000   -3,178120404e-02   -9,389799833e-02    6,928976178e-01    3,037822247e-01    0,000000000e+00    0,000000000e+00    0,000000000e+00    0,000000000e+00
      380000000   -6,782075763e-02   -6,878918409e-02    7,454847693e-01   -1,343985200e-01    0,000000000e+00    0,000000000e+00    0,000000000e+00    0,000000000e+00
      394000000   -6,838040054e-02   -3,067914583e-02    5,402892828e-01   -5,293204188e-01    0,000000000e+00    0,000000000e+00    0,000000000e+00    0,000000000e+00
      408000000   -4,290131107e-02   -1,574790105e-02    1,514886618e-01   -7,345142961e-01    0,000000000e+00    0,000000000e+00    0,000000000e+00    0,000000000e+00
      422000000   -2,626581863e-02   -3,119287454e-02   -2,795431912e-01   -6,895613670e-01    0,000000000e+00    0,000000000e+00    0,000000000e+00    0,000000000e+00
      436000000   -3,941305727e-02   -4,876429215e-02   -6,105632186e-01   -4,196206927e-01    0,000000000e+00    0,000000000e+00    0,000000000e+00    0,000000000e+00
      450000000   -6,431327760e-02   -3,929756209e-02   -7,364470363e-01   -7,632205728e-03    0,000000000e+00    0,000000000e+00    0,000000000e+00    0,000000000e+00
      464000000   -6,777774543e-02   -6,333798170e-03   -6,082074046e-01    4,059766233e-01    0,000000000e+00    0,000000000e+00    0,000000000e+00    0,000000000e+00
      478000000   -3,874154016e-02    1,605977304e-02   -2,679330707e-01    6,700709462e-01    0,000000000e+00    0,000000000e+00    0,000000000e+00    0,000000000e+00
      492000000   -5,200129002e-03    6,444543134e-03    1,517771631e-01    6,953494549e-01    0,000000000e+00    0,000000000e+00    0,000000000e+00    0,000000000e+00
      506000000    6,879955065e-03   -2,029438876e-02    5,078334212e-01    4,887947440e-01    0,000000000e+00    0,000000000e+00    0,000000000e+00    0,000000000e+00
      520000000    4,907608381e-04   -3,847136348e-02    6,881562471e-01    1,212069839e-01    0,000000000e+00    0,000000000e+00    0,000000000e+00    0,000000000e+00
      534000000   -2,921252511e-03   -4,540707543e-02    6,326944232e-01   -2,819131613e-01    0,000000000e+00    0,000000000e+00    0,000000000e+00    0,000000000e+00
      548000000    1,016642433e-03   -5,929754674e-02    3,594716191e-01   -5,787464976e-01    0,000000000e+00    0,000000000e+00    0,000000000e+00    0,000000000e+00
      562000000   -7,859569043e-03   -8,889602125e-02   -2,589194663e-02   -6,731284261e-01    0,000000000e+00    0,000000000e+00    0,000000000e+00    0,000000000e+00
      576000000   -4,553586617e-02   -1,093798056e-01   -4,013519585e-01   -5,384186506e-01    0,000000000e+00    0,000000000e+00    0,000000000e+00    0,000000000e+00
      590000000   -9,471231699e-02   -9,355264902e-02   -6,401216984e-01   -2,199488431e-01    0,000000000e+00    0,000000000e+00    0,000000000e+00    0,000000000e+00
      604000000   -1,118026748e-01   -4,092768952e-02   -6,473137736e-01    1,984402537e-01    0,000000000e+00    0,000000000e+00    0,000000000e+00    0,000000000e+00
      618000000   -7,550743967e-02   -2,390372101e-03   -4,020477235e-01    5,359835625e-01    0,000000000e+00    0,000000000e+00    0,000000000e+00    0,000000000e+00
      632000000   -2,991633303e-02   -2,059844509e-02   -1,170100272e-02    6,559982300e-01    0,000000000e+00    0,000000000e+00    0,000000000e+00    0,000000000e+00
      646000000   -3,683292866e-02   -7,635748386e-02    3,666402996e-01    5,276670456e-01    0,000000000e+00    0,000000000e+00    0,000000000e+00    0,000000000e+00
      660000000   -1,122246832e-01   -1,002311409e-01    6,011307836e-01    1,939523518e-01    0,000000000e+00    0,000000000e+00    0,000000000e+00    0,000000000e+00
      674000000   -1,996185780e-01   -2,444225736e-02    5,654417276e-01   -2,395604849e-01    0,000000000e+00    0,000000000e+00    0,000000000e+00    0,000000000e+00
      688000000   -1,795578748e-01    1,451007575e-01    2,093992531e-01   -5,217304230e-01    0,000000000e+00    0,000000000e+00    0,000000000e+00    0,000000000e+00
      702000000    2,323277481e-02    2,463039458e-01   -1,967701912e-01   -4,094159603e-01    0,000000000e+00    0,000000000e+00    0,000000000e+00    0,000000000e+00
      716000000    2,637720406e-01    1,110950932e-01   -2,725600004e-01   -8,351702243e-02    0,000000000e+00    0,000000000e+00    0,000000000e+00    0,000000000e+00
      730000000    3,028688431e-01   -1,861945242e-01   -1,062764525e-01    3,147425875e-02    0,000000000e+00    0,000000000e+00    0,000000000e+00    0,000000000e+00
      744000000    9,431507438e-02   -4,271702468e-01   -4,233145714e-02   -6,585041434e-02    0,000000000e+00    0,000000000e+00    0,000000000e+00    0,000000000e+00
      758000000   -2,586039603e-01   -4,280237556e-01   -1,761416197e-01   -1,259376407e-01    0,000000000e+00    0,000000000e+00    0,000000000e+00    0,000000000e+00
      772000000   -4,854631722e-01   -1,190009117e-01   -3,367095292e-01    3,835951909e-02    0,000000000e+00    0,000000000e+00    0,000000000e+00    0,000000000e+00
      786000000   -3,405177593e-01    2,208973616e-01   -2,629621029e-01    3,173101544e-01    0,000000000e+00    0,000000000e+00    0,000000000e+00    0,000000000e+00
      800000000   -4,153845087e-02    2,762641907e-01    2,737401053e-03    4,359860420e-01    0,000000000e+00    0,000000000e+00    0,000000000e+00    0,000000000e+00
      814000000    1,444414705e-01    1,249365136e-01    2,639861703e-01    3,595204055e-01    0,000000000e+00    0,000000000e+00    0,000000000e+00    0,000000000e+00
      828000000    1,679869294e-01   -6,999370456e-02    4,331993163e-01    1,564555168e-01    0,000000000e+00    0,000000000e+00    0,000000000e+00    0,000000000e+00
      842000000    6,720872968e-02   -2,180705220e-01    4,664862454e-01   -1,202445775e-01    0,000000000e+00    0,000000000e+00    0,000000000e+00    0,000000000e+00
      856000000   -1,057001129e-01   -2,633990645e-01    3,194864392e-01   -3,943284452e-01    0,000000000e+00    0,000000000e+00    0,000000000e+00    0,000000000e+00
      870000000   -2,738018334e-01   -1,671561301e-01   -2,745671431e-03   -5,272662044e-01    0,000000000e+00    0,000000000e+00    0,000000000e+00    0,000000000e+00
      884000000   -3,193771243e-01    3,546719626e-02   -3,471165597e-01   -3,933874071e-01    0,000000000e+00    0,000000000e+00    0,000000000e+00    0,000000000e+00
      898000000   -1,921116412e-01    2,055980712e-01   -4,891960919e-01   -6,422309577e-02    0,000000000e+00    0,000000000e+00    0,000000000e+00    0,000000000e+00
      912000000    6,245614029e-03    2,192839682e-01   -3,985902071e-01    2,797279060e-01    0,000000000e+00    0,000000000e+00    0,000000000e+00    0,000000000e+00
      926000000    1,481849700e-01    1,125542074e-01   -1,705420315e-01    4,171048701e-01    0,000000000e+00    0,000000000e+00    0,000000000e+00    0,000000000e+00
      940000000    1,973840594e-01   -4,627446085e-02    6,223701686e-02    4,251838028e-01    0,000000000e+00    0,000000000e+00    0,000000000e+00    0,000000000e+00
      954000000    1,537819654e-01   -1,994896382e-01    2,612433434e-01    3,422178328e-01    0,000000000e+00    0,000000000e+00    0,000000000e+00    0,000000000e+00
      968000000    2,615234815e-02   -3,146672249e-01    4,110355973e-01    1,789198369e-01    0,000000000e+00    0,000000000e+00    0,000000000e+00    0,000000000e+00
      982000000   -1,596565992e-01   -3,304866552e-01    4,732069075e-01   -6,609603763e-02    0,000000000e+00    0,000000000e+00    0,000000000e+00    0,000000000e+00
      996000000   -3,271660209e-01   -2,069831640e-01    3,671523631e-01   -3,552064300e-01    0,000000000e+00    0,000000000e+00    0,000000000e+00    0,000000000e+00
     1010000000   -3,435065746e-01   -7,199684158e-03    4,299635440e-02   -5,234935284e-01    0,000000000e+00    0,000000000e+00    0,000000000e+00    0,000000000e+00
     1024000000   -2,099975348e-01    9,254629910e-02   -3,449547887e-01   -3,814231455e-01    0,000000000e+00    0,000000000e+00    0,000000000e+00    0,000000000e+00
     1038000000   -1,356173605e-01    7,677172311e-03   -4,822619855e-01    6,186432391e-02    0,000000000e+00    0,000000000e+00    0,000000000e+00    0,000000000e+00
     1052000000   -2,829290032e-01    4,816264287e-02   -9,868755937e-02    3,745135069e-01    0,000000000e+00    0,000000000e+00    0,000000000e+00    0,000000000e+00
     1066000000   -1,469413191e-01    2,950275242e-01    1,441494823e-01    1,336579621e-01    0,000000000e+00    0,000000000e+00    0,000000000e+00    0,000000000e+00
     1080000000    9,712546319e-02    2,473211288e-01    9,257169068e-02    2,143323794e-02    0,000000000e+00    0,000000000e+00    0,000000000e+00    0,000000000e+00
     1094000000    2,180136591e-01    9,167643636e-02    7,078211755e-02    9,675823152e-03    0,000000000e+00    0,000000000e+00    0,000000000e+00    0,000000000e+00
     1108000000    2,437548041e-01   -8,601365983e-02    8,137629926e-02   -1,588370884e-03    0,000000000e+00    0,000000000e+00    0,000000000e+00    0,000000000e+00
     1122000000    1,828273386e-01   -2,475406080e-01    1,032117233e-01   -2,876426280e-02    0,000000000e+00    0,000000000e+00    0,000000000e+00    0,000000000e+00
     1136000000    4,665163904e-02   -3,773603141e-01    1,256648600e-01   -7,533720136e-02    0,000000000e+00    0,000000000e+00    0,000000000e+00    0,000000000e+00
     1150000000   -1,560588181e-01   -4,245745540e-01    1,345472634e-01   -1,508362889e-01    0,000000000e+00    0,000000000e+00    0,000000000e+00    0,000000000e+00
     1164000000   -3,800739348e-01   -3,210332692e-01    9,808054566e-02   -2,739964128e-01    0,000000000e+00    0,000000000e+00    0,000000000e+00    0,000000000e+00
     1178000000   -4,681945145e-01   -8,928642422e-02   -1,084639356e-01   -4,039793015e-01    0,000000000e+00    0,000000000e+00    0,000000000e+00    0,000000000e+00
     1192000000   -3,753432930e-01    3,758450225e-02   -4,600894749e-01   -1,984499097e-01    0,000000000e+00    0,000000000e+00    0,000000000e+00    0,000000000e+00
     1206000000   -4,158919752e-01    1,367013752e-01   -2,782766521e-01    2,374418974e-01    0,000000000e+00    0,000000000e+00    0,000000000e+00    0,000000000e+00
     1220000000   -2,732347250e-01    3,281588256e-01   -1,279484364e-03    1,649291813e-01    0,000000000e+00    0,000000000e+00    0,000000000e+00    0,000000000e+00
     1234000000   -4,616219923e-02    3,502799869e-01    2,417433076e-02    5,678746849e-02    0,000000000e+00    0,000000000e+00    0,000000000e+00    0,000000000e+00
     1248000000    1,214090735e-01    2,514395416e-01   -8,063454879e-04    2,733980305e-02    0,000000000e+00    0,000000000e+00    0,000000000e+00    0,000000000e+00
     1262000000    2,157741040e-01    1,026279181e-01    6,189051550e-03    3,448411450e-02    0,000000000e+00    0,000000000e+00    0,000000000e+00    0,000000000e+00
     1276000000    2,354187220e-01   -5,350789428e-02    2,891298011e-02    3,876942769e-02    0,000000000e+00    0,000000000e+00    0,000000000e+00    0,000000000e+00
     1290000000    1,965949684e-01   -2,158139497e-01    5,902805179e-02    2,283980511e-02    0,000000000e+00    0,000000000e+00    0,000000000e+00    0,000000000e+00
     1304000000    8,164355904e-02   -3,573282659e-01    7,257610559e-02    4,108350258e-03    0,000000000e+00    0,000000000e+00    0,000000000e+00    0,000000000e+00
     1318000000   -1,063152477e-01   -4,453175366e-01    8,052884042e-02   -1,265292987e-02    0,000000000e+00    0,000000000e+00    0,000000000e+00    0,000000000e+00
     1332000000   -3,553224504e-01   -4,319456220e-01    9,212425351e-02   -1,272710226e-02    0,000000000e+00    0,000000000e+00    0,000000000e+00    0,000000000e+00
     1346000000   -5,910111666e-01   -2,451454401e-01    1,066030860e-01   -4,742611200e-03    0,000000000e+00    0,000000000e+00    0,000000000e+00    0,000000000e+00
     1360000000   -6,524047852e-01    7,550141960e-02    1,439789981e-01   -2,501986176e-02    0,000000000e+00    0,000000000e+00    0,000000000e+00    0,000000000e+00
     1374000000   -4,903636575e-01    3,345849812e-01    1,741916835e-01   -5,164481699e-02    0,000000000e+00    0,000000000e+00    0,000000000e+00    0,000000000e+00
     1388000000   -2,480850369e-01    4,291933179e-01    1,653782725e-01   -7,306969166e-02    0,000000000e+00    0,000000000e+00    0,000000000e+00    0,000000000e+00
     1402000000   -4,085032642e-02    3,871224523e-01    1,410178095e-01   -9,966003895e-02    0,000000000e+00    0,000000000e+00    0,000000000e+00    0,000000000e+00
     1416000000    1,001356915e-01    2,845853269e-01    1,201315150e-01   -9,125959128e-02    0,000000000e+00    0,000000000e+00    0,000000000e+00    0,000000000e+00
     1430000000    1,943334490e-01    1,560102552e-01    1,081904545e-01   -5,628038943e-02    0,000000000e+00    0,000000000e+00    0,000000000e+00    0,000000000e+00
     1444000000    2,180765420e-01   -9,630273096e-03    1,223687828e-01   -2,054675668e-02    0,000000000e+00    0,000000000e+00    0,000000000e+00    0,000000000e+00
     1458000000    1,792071313e-01   -1,862518787e-01    1,360918581e-01    1,496418146e-03    0,000000000e+00    0,000000000e+00    0,000000000e+00    0,000000000e+00
     1472000000    7,470866293e-02   -3,507539630e-01    2,013920099e-01    6,330356002e-02    0,000000000e+00    0,000000000e+00    0,000000000e+00    0,000000000e+00
     1486000000   -1,299879998e-01   -4,760141671e-01    3,019328415e-01    8,286982775e-02    0,000000000e+00    0,000000000e+00    0,000000000e+00    0,000000000e+00
     1500000000   -4,375734329e-01   -4,792287946e-01    4,051449597e-01    4,952207208e-02    0,000000000e+00    0,000000000e+00    0,000000000e+00    0,000000000e+00
