! NanoVNA-App
! Date: 2025-09-25 16:02:36
! Start: 100MHz Stop: 1,5GHz Points: 101
! S-Parameter data: F S11 S21 S12 S22
# Hz S RI R 50
!     Frequency           S11_Real           S11_Imag           S21_Real           S21_Imag           S12_Real           S12_Imag           S22_Real           S22_Imag
      100000000   -2,830250189e-02   -2,881042659e-03    3,722993731e-01   -7,223916054e-01    0,000000000e+00    0,000000000e+00    0,000000000e+00    0,000000000e+00
      114000000   -1,573950052e-02    1,290678419e-02   -9,131585807e-02   -8,049370646e-01    0,000000000e+00    0,000000000e+00    0,000000000e+00    0,000000000e+00
      128000000    4,327370785e-03    1,199508645e-02   -5,159333944e-01   -6,188255548e-01    0,000000000e+00    0,000000000e+00    0,000000000e+00    0,000000000e+00
      142000000    1,546530798e-02   -1,725520706e-03   -7,674924731e-01   -2,342342138e-01    0,000000000e+00    0,000000000e+00    0,000000000e+00    0,000000000e+00
      156000000    1,701861061e-02   -1,336222328e-02   -7,657206655e-01    2,262906134e-01    0,000000000e+00    0,000000000e+00    0,000000000e+00    0,000000000e+00
      170000000    1,770718582e-02   -2,098372579e-02   -5,153365135e-01    6,061764359e-01    0,000000000e+00    0,000000000e+00    0,000000000e+00    0,000000000e+00
      184000000    2,202180028e-02   -3,552224487e-02   -9,838748723e-02    7,865059972e-01    0,000000000e+00    0,000000000e+00    0,000000000e+00    0,000000000e+00
      198000000    1,398782525e-02   -6,059622020e-02    3,461283147e-01    7,106783390e-01    0,000000000e+00    0,000000000e+00    0,000000000e+00    0,000000000e+00
      212000000   -1,767785847e-02   -7,908499986e-02    6,807819605e-01    4,061957598e-01    0,000000000e+00    0,000000000e+00    0,000000000e+00    0,000000000e+00
      226000000   -6,034766138e-02   -6,657977402e-02    7,958463430e-01   -3,568963334e-02    0,000000000e+00    0,000000000e+00    0,000000000e+00    0,000000000e+00
      240000000   -8,055903763e-02   -2,272957377e-02    6,416725516e-01   -4,717231095e-01    0,000000000e+00    0,000000000e+00    0,000000000e+00    0,000000000e+00
      254000000   -6,077244505e-02    1,980471611e-02    2,711119354e-01   -7,419429421e-01    0,000000000e+00    0,000000000e+00    0,000000000e+00    0,000000000e+00
      268000000   -2,098888159e-02    3,085491061e-02   -1,813357621e-01   -7,606275678e-01    0,000000000e+00    0,000000000e+00    0,000000000e+00    0,000000000e+00
      282000000    6,908602081e-03    1,373092085e-02   -5,632631779e-01   -5,323820114e-01    0,000000000e+00    0,000000000e+00    0,000000000e+00    0,000000000e+00
      296000000    1,238699071e-02   -6,319393869e-03   -7,605344653e-01   -1,342324913e-01    0,000000000e+00    0,000000000e+00    0,000000000e+00    0,000000000e+00
      310000000    1,366797648e-02   -1,458674576e-02   -7,098246813e-01    3,047533035e-01    0,000000000e+00    0,000000000e+00    0,000000000e+00    0,000000000e+00
      324000000    2,239988931e-02   -2,477704920e-02   -4,221959710e-01    6,383908987e-01    0,000000000e+00    0,000000000e+00    0,000000000e+00    0,000000000e+00
      338000000    2,806462161e-02   -5,045048147e-02   -7,632940542e-04    7,600240111e-01    0,000000000e+00    0,000000000e+00    0,000000000e+00    0,000000000e+00
      352000000    1,002525259e-02   -8,294050395e-02    4,114885032e-01    6,353098750e-01    0,000000000e+00    0,000000000e+00    0,000000000e+00    0,000000000e+00
      366000000   -3,182959184e-02   -9,377944469e-02    6,930100322e-01    3,039861917e-01    0,000000000e+00    0,000000000e+00    0,000000000e+00    0,000000000e+00
      380000000   -6,778308004e-02   -6,877221912e-02    7,459193468e-01   -1,343324482e-01    0,000000000e+00    0,000000000e+00    0,000000000e+00    0,000000000e+00
      394000000   -6,875935942e-02   -3,051985428e-02    5,389429927e-01   -5,282428861e-01    0,000000000e+00    0,000000000e+00    0,000000000e+00    0,000000000e+00
      408000000   -4,285041615e-02   -1,549512055e-02    1,499032229e-01   -7,329181433e-01    0,000000000e+00    0,000000000e+00    0,000000000e+00    0,000000000e+00
      422000000   -2,628642321e-02   -3,109114990e-02   -2,796803117e-01   -6,897614598e-01    0,000000000e+00    0,000000000e+00    0,000000000e+00    0,000000000e+00
      436000000   -3,940064833e-02   -4,897205532e-02   -6,100188494e-01   -4,195990264e-01    0,000000000e+00    0,000000000e+00    0,000000000e+00    0,000000000e+00
      450000000   -6,442788988e-02   -3,905833885e-02   -7,369915843e-01   -7,858783007e-03    0,000000000e+00    0,000000000e+00    0,000000000e+00    0,000000000e+00
      464000000   -6,740356982e-02   -6,237421650e-03   -6,074717641e-01    4,062156379e-01    0,000000000e+00    0,000000000e+00    0,000000000e+00    0,000000000e+00
      478000000   -3,869697079e-02    1,597302966e-02   -2,676913440e-01    6,703201532e-01    0,000000000e+00    0,000000000e+00    0,000000000e+00    0,000000000e+00
      492000000   -5,417320877e-03    6,280258764e-03    1,515853256e-01    6,952860355e-01    0,000000000e+00    0,000000000e+00    0,000000000e+00    0,000000000e+00
      506000000    7,144658361e-03   -2,023419738e-02    5,086433887e-01    4,889853299e-01    0,000000000e+00    0,000000000e+00    0,000000000e+00    0,000000000e+00
      520000000    5,987646873e-04   -3,842286766e-02    6,891563535e-01    1,219949424e-01    0,000000000e+00    0,000000000e+00    0,000000000e+00    0,000000000e+00
      534000000   -3,078146139e-03   -4,574060440e-02    6,329104900e-01   -2,820357084e-01    0,000000000e+00    0,000000000e+00    0,000000000e+00    0,000000000e+00
      548000000    8,899317472e-04   -5,920280889e-02    3,599900007e-01   -5,788771510e-01    0,000000000e+00    0,000000000e+00    0,000000000e+00    0,000000000e+00
      562000000   -7,598800119e-03   -8,881520480e-02   -2,662333660e-02   -6,728861332e-01    0,000000000e+00    0,000000000e+00    0,000000000e+00    0,000000000e+00
      576000000   -4,593013600e-02   -1,094845086e-01   -4,012109339e-01   -5,388876200e-01    0,000000000e+00    0,000000000e+00    0,000000000e+00    0,000000000e+00
      590000000   -9,484878182e-02   -9,344413877e-02   -6,417722106e-01   -2,172935009e-01    0,000000000e+00    0,000000000e+00    0,000000000e+00    0,000000000e+00
      604000000   -1,115669012e-01   -4,143552855e-02   -6,474722624e-01    1,981097907e-01    0,000000000e+00    0,000000000e+00    0,000000000e+00    0,000000000e+00
      618000000   -7,548293471e-02   -2,058198210e-03   -4,016367793e-01    5,359581709e-01    0,000000000e+00    0,000000000e+00    0,000000000e+00    0,000000000e+00
      632000000   -3,010195866e-02   -2,035538107e-02   -1,184119284e-02    6,552081704e-01    0,000000000e+00    0,000000000e+00    0,000000000e+00    0,000000000e+00
      646000000   -3,663429245e-02   -7,638131082e-02    3,654788435e-01    5,275366902e-01    0,000000000e+00    0,000000000e+00    0,000000000e+00    0,000000000e+00
      660000000   -1,120535657e-01   -9,950131178e-02    6,007320881e-01    1,932820529e-01    0,000000000e+00    0,000000000e+00    0,000000000e+00    0,000000000e+00
      674000000   -1,992824376e-01   -2,318204381e-02    5,655299425e-01   -2,392796725e-01    0,000000000e+00    0,000000000e+00    0,000000000e+00    0,000000000e+00
      688000000   -1,781301945e-01    1,436421722e-01    2,105633020e-01   -5,219507217e-01    0,000000000e+00    0,000000000e+00    0,000000000e+00    0,000000000e+00
      702000000    2,604058385e-02    2,444473803e-01   -1,965351850e-01   -4,011413753e-01    0,000000000e+00    0,000000000e+00    0,000000000e+00    0,000000000e+00
      716000000    2,629612088e-01    1,115258932e-01   -2,742010355e-01   -8,445261419e-02    0,000000000e+00    0,000000000e+00    0,000000000e+00    0,000000000e+00
      730000000    3,041310310e-01   -1,854371130e-01   -1,078956798e-01    3,281042725e-02    0,000000000e+00    0,000000000e+00    0,000000000e+00    0,000000000e+00
      744000000    9,365785867e-02   -4,278635383e-01   -4,183699936e-02   -6,411400437e-02    0,000000000e+00    0,000000000e+00    0,000000000e+00    0,000000000e+00
      758000000   -2,576331496e-01   -4,301796257e-01   -1,746639907e-01   -1,255274415e-01    0,000000000e+00    0,000000000e+00    0,000000000e+00    0,000000000e+00
      772000000   -4,866451323e-01   -1,204357222e-01   -3,357348144e-01    3,752735630e-02    0,000000000e+00    0,000000000e+00    0,000000000e+00    0,000000000e+00
      786000000   -3,427042067e-01    2,210890651e-01   -2,631601095e-01    3,157538772e-01    0,000000000e+00    0,000000000e+00    0,000000000e+00    0,000000000e+00
      800000000   -4,133583605e-02    2,766778469e-01    2,494291402e-03    4,361305535e-01    0,000000000e+00    0,000000000e+00    0,000000000e+00    0,000000000e+00
      814000000    1,442381442e-01    1,262257546e-01    2,639767528e-01    3,601325452e-01    0,000000000e+00    0,000000000e+00    0,000000000e+00    0,000000000e+00
      828000000    1,677149385e-01   -7,014173269e-02    4,325054288e-01    1,562782973e-01    0,000000000e+00    0,000000000e+00    0,000000000e+00    0,000000000e+00
      842000000    6,744274497e-02   -2,187483162e-01    4,666158855e-01   -1,201577932e-01    0,000000000e+00    0,000000000e+00    0,000000000e+00    0,000000000e+00
      856000000   -1,067521647e-01   -2,646086216e-01    3,196242750e-01   -3,939532936e-01    0,000000000e+00    0,000000000e+00    0,000000000e+00    0,000000000e+00
      870000000   -2,758976221e-01   -1,682115793e-01   -1,665467978e-03   -5,255758762e-01    0,000000000e+00    0,000000000e+00    0,000000000e+00    0,000000000e+00
      884000000   -3,201985061e-01    3,522631153e-02   -3,475616276e-01   -3,922576904e-01    0,000000000e+00    0,000000000e+00    0,000000000e+00    0,000000000e+00
      898000000   -1,930962354e-01    2,068255544e-01   -4,900750816e-01   -6,287173182e-02    0,000000000e+00    0,000000000e+00    0,000000000e+00    0,000000000e+00
      912000000    6,846306380e-03    2,198234200e-01   -3,950567245e-01    2,741611004e-01    0,000000000e+00    0,000000000e+00    0,000000000e+00    0,000000000e+00
      926000000    1,495840102e-01    1,115311682e-01   -1,711420417e-01    4,154309630e-01    0,000000000e+00    0,000000000e+00    0,000000000e+00    0,000000000e+00
      940000000    1,993647218e-01   -4,457425699e-02    6,327484548e-02    4,248021245e-01    0,000000000e+00    0,000000000e+00    0,000000000e+00    0,000000000e+00
      954000000    1,533101201e-01   -2,051779032e-01    2,607963979e-01    3,413261175e-01    0,000000000e+00    0,000000000e+00    0,000000000e+00    0,000000000e+00
      968000000    2,454699017e-02   -3,135687113e-01    4,115421772e-01    1,794001162e-01    0,000000000e+00    0,000000000e+00    0,000000000e+00    0,000000000e+00
      982000000   -1,592224240e-01   -3,312224746e-01    4,758070111e-01   -6,702399254e-02    0,000000000e+00    0,000000000e+00    0,000000000e+00    0,000000000e+00
      996000000   -3,270061016e-01   -2,118527591e-01    3,686529100e-01   -3,549037874e-01    0,000000000e+00    0,000000000e+00    0,000000000e+00    0,000000000e+00
     1010000000   -3,427737653e-01   -3,714536782e-03    4,441857338e-02   -5,241371393e-01    0,000000000e+00    0,000000000e+00    0,000000000e+00    0,000000000e+00
     1024000000   -2,043079138e-01    8,945073187e-02   -3,466427922e-01   -3,794779181e-01    0,000000000e+00    0,000000000e+00    0,000000000e+00    0,000000000e+00
     1038000000   -1,366412193e-01    1,221136749e-02   -4,821354747e-01    6,301953644e-02    0,000000000e+00    0,000000000e+00    0,000000000e+00    0,000000000e+00
     1052000000   -2,844129205e-01    4,946618527e-02   -9,619984776e-02    3,743576407e-01    0,000000000e+00    0,000000000e+00    0,000000000e+00    0,000000000e+00
     1066000000   -1,430671811e-01    2,967044413e-01    1,432067305e-01    1,342011839e-01    0,000000000e+00    0,000000000e+00    0,000000000e+00    0,000000000e+00
     1080000000    1,039798334e-01    2,521893978e-01    8,863486350e-02    2,125975862e-02    0,000000000e+00    0,000000000e+00    0,000000000e+00    0,000000000e+00
     1094000000    2,217234969e-01    8,609157801e-02    6,922331452e-02    1,090182457e-02    0,000000000e+00    0,000000000e+00    0,000000000e+00    0,000000000e+00
     1108000000    2,402392626e-01   -8,495074511e-02    8,116389066e-02   -6,159369514e-05    0,000000000e+00    0,000000000e+00    0,000000000e+00    0,000000000e+00
     1122000000    1,827432066e-01   -2,514211237e-01    1,049933583e-01   -2,506422438e-02    0,000000000e+00    0,000000000e+00    0,000000000e+00    0,000000000e+00
     1136000000    4,948877171e-02   -3,766400516e-01    1,263282448e-01   -7,114339620e-02    0,000000000e+00    0,000000000e+00    0,000000000e+00    0,000000000e+00
     1150000000   -1,579114050e-01   -4,232187867e-01    1,365890503e-01   -1,501189917e-01    0,000000000e+00    0,000000000e+00    0,000000000e+00    0,000000000e+00
     1164000000   -3,816236556e-01   -3,246210814e-01    9,893361479e-02   -2,777468860e-01    0,000000000e+00    0,000000000e+00    0,000000000e+00    0,000000000e+00
     1178000000   -4,621284604e-01   -8,676040918e-02   -1,043151468e-01   -4,012654126e-01    0,000000000e+00    0,000000000e+00    0,000000000e+00    0,000000000e+00
     1192000000   -3,742051721e-01    3,554943949e-02   -4,610706568e-01   -1,960866749e-01    0,000000000e+00    0,000000000e+00    0,000000000e+00    0,000000000e+00
     1206000000   -4,146569669e-01    1,378520131e-01   -2,746120393e-01    2,378242761e-01    0,000000000e+00    0,000000000e+00    0,000000000e+00    0,000000000e+00
     1220000000   -2,739269435e-01    3,301511705e-01   -4,490329418e-03    1,665323973e-01    0,000000000e+00    0,000000000e+00    0,000000000e+00    0,000000000e+00
     1234000000   -4,226089269e-02    3,502963185e-01    2,764666080e-02    5,257676169e-02    0,000000000e+00    0,000000000e+00    0,000000000e+00    0,000000000e+00
     1248000000    1,258754134e-01    2,521855235e-01    6,096633617e-03    2,195806801e-02    0,000000000e+00    0,000000000e+00    0,000000000e+00    0,000000000e+00
     1262000000    2,156610340e-01    1,053083986e-01    5,207465496e-03    3,143195063e-02    0,000000000e+00    0,000000000e+00    0,000000000e+00    0,000000000e+00
     1276000000    2,365491390e-01   -6,187887862e-02    2,644411474e-02    3,450027108e-02    0,000000000e+00    0,000000000e+00    0,000000000e+00    0,000000000e+00
     1290000000    1,943093687e-01   -2,167717069e-01    5,013183504e-02    3,016849048e-02    0,000000000e+00    0,000000000e+00    0,000000000e+00    0,000000000e+00
     1304000000    8,821373433e-02   -3,566105366e-01    7,878044993e-02    4,136609379e-03    0,000000000e+00    0,000000000e+00    0,000000000e+00    0,000000000e+00
     1318000000   -1,022572890e-01   -4,468017519e-01    8,669061214e-02   -7,609331515e-03    0,000000000e+00    0,000000000e+00    0,000000000e+00    0,000000000e+00
     1332000000   -3,587264717e-01   -4,309477806e-01    8,792024106e-02   -1,218530815e-02    0,000000000e+00    0,000000000e+00    0,000000000e+00    0,000000000e+00
     1346000000   -5,931140184e-01   -2,432519197e-01    1,008884907e-01   -4,465508275e-03    0,000000000e+00    0,000000000e+00    0,000000000e+00    0,000000000e+00
     1360000000   -6,453328133e-01    7,760199159e-02    1,466828138e-01   -1,760031283e-02    0,000000000e+00    0,000000000e+00    0,000000000e+00    0,000000000e+00
     1374000000   -4,971224070e-01    3,345077038e-01    1,599083692e-01   -4,997600988e-02    0,000000000e+00    0,000000000e+00    0,000000000e+00    0,000000000e+00
     1388000000   -2,477931231e-01    4,219272137e-01    1,648687124e-01   -9,121032804e-02    0,000000000e+00    0,000000000e+00    0,000000000e+00    0,000000000e+00
     1402000000   -4,362264276e-02    3,923428953e-01    1,301159412e-01   -9,506550431e-02    0,000000000e+00    0,000000000e+00    0,000000000e+00    0,000000000e+00
     1416000000    9,867344797e-02    2,842402458e-01    1,220178306e-01   -9,539167583e-02    0,000000000e+00    0,000000000e+00    0,000000000e+00    0,000000000e+00
     1430000000    1,928720176e-01    1,466076076e-01    1,235257015e-01   -8,507757634e-02    0,000000000e+00    0,000000000e+00    0,000000000e+00    0,000000000e+00
     1444000000    2,198854983e-01   -9,023959748e-03    1,209118739e-01   -2,261192724e-02    0,000000000e+00    0,000000000e+00    0,000000000e+00    0,000000000e+00
     1458000000    1,816875190e-01   -1,834695637e-01    1,413314939e-01    1,140489243e-02    0,000000000e+00    0,000000000e+00    0,000000000e+00    0,000000000e+00
     1472000000    7,276300341e-02   -3,456743360e-01    1,964302063e-01    6,546124071e-02    0,000000000e+00    0,000000000e+00    0,000000000e+00    0,000000000e+00
     1486000000   -1,446285099e-01   -4,675386548e-01    2,806025147e-01    9,357475489e-02    0,000000000e+00    0,000000000e+00    0,000000000e+00    0,000000000e+00
     1500000000   -4,354889989e-01   -4,731582105e-01    4,083779156e-01    5,644700304e-02    0,000000000e+00    0,000000000e+00    0,000000000e+00    0,000000000e+00
