! NanoVNA-App
! Date: 2025-09-25 15:57:01
! Start: 100MHz Stop: 1,5GHz Points: 101
! S-Parameter data: F S11 S21 S12 S22
# Hz S RI R 50
!     Frequency           S11_Real           S11_Imag           S21_Real           S21_Imag           S12_Real           S12_Imag           S22_Real           S22_Imag
      100000000   -2,820204757e-02   -2,830863697e-03    3,721734583e-01   -7,224767208e-01    0,000000000e+00    0,000000000e+00    0,000000000e+00    0,000000000e+00
      114000000   -1,560116559e-02    1,286520343e-02   -9,127010405e-02   -8,048197031e-01    0,000000000e+00    0,000000000e+00    0,000000000e+00    0,000000000e+00
      128000000    4,400981590e-03    1,187496539e-02   -5,159662962e-01   -6,188166142e-01    0,000000000e+00    0,000000000e+00    0,000000000e+00    0,000000000e+00
      142000000    1,549895760e-02   -1,827078639e-03   -7,673339248e-01   -2,341441512e-01    0,000000000e+00    0,000000000e+00    0,000000000e+00    0,000000000e+00
      156000000    1,666233316e-02   -1,317218971e-02   -7,644833326e-01    2,250269502e-01    0,000000000e+00    0,000000000e+00    0,000000000e+00    0,000000000e+00
      170000000    1,761106029e-02   -2,098659612e-02   -5,155295134e-01    6,062828898e-01    0,000000000e+00    0,000000000e+00    0,000000000e+00    0,000000000e+00
      184000000    2,201882936e-02   -3,556992114e-02   -9,848766774e-02    7,861037254e-01    0,000000000e+00    0,000000000e+00    0,000000000e+00    0,000000000e+00
      198000000    1,399113331e-02   -6,066228077e-02    3,459706903e-01    7,107064128e-01    0,000000000e+00    0,000000000e+00    0,000000000e+00    0,000000000e+00
      212000000   -1,766091026e-02   -7,914636284e-02    6,807764173e-01    4,064141810e-01    0,000000000e+00    0,000000000e+00    0,000000000e+00    0,000000000e+00
      226000000   -6,037935987e-02   -6,662753224e-02    7,957030535e-01   -3,567894176e-02    0,000000000e+00    0,000000000e+00    0,000000000e+00    0,000000000e+00
      240000000   -8,058959246e-02   -2,275627293e-02    6,414601207e-01   -4,717129469e-01    0,000000000e+00    0,000000000e+00    0,000000000e+00    0,000000000e+00
      254000000   -6,083667651e-02    1,967866905e-02    2,710093856e-01   -7,420247197e-01    0,000000000e+00    0,000000000e+00    0,000000000e+00    0,000000000e+00
      268000000   -2,101944573e-02    3,083784133e-02   -1,813649982e-01   -7,607862353e-01    0,000000000e+00    0,000000000e+00    0,000000000e+00    0,000000000e+00
      282000000    6,919957697e-03    1,371763553e-02   -5,633425713e-01   -5,322595239e-01    0,000000000e+00    0,000000000e+00    0,000000000e+00    0,000000000e+00
      296000000    1,232789084e-02   -6,259660237e-03   -7,600247860e-01   -1,342478395e-01    0,000000000e+00    0,000000000e+00    0,000000000e+00    0,000000000e+00
      310000000    1,357821561e-02   -1,446709875e-02   -7,081273198e-01    3,036406934e-01    0,000000000e+00    0,000000000e+00    0,000000000e+00    0,000000000e+00
      324000000    2,260628156e-02   -2,481518500e-02   -4,205726683e-01    6,395050883e-01    0,000000000e+00    0,000000000e+00    0,000000000e+00    0,000000000e+00
      338000000    2,863450535e-02   -5,055448040e-02   -1,540929807e-04    7,586420774e-01    0,000000000e+00    0,000000000e+00    0,000000000e+00    0,000000000e+00
      352000000    1,006512530e-02   -8,291649073e-02    4,107809663e-01    6,358298063e-01    0,000000000e+00    0,000000000e+00    0,000000000e+00    0,000000000e+00
      366000000   -3,177007660e-02   -9,371767193e-02    6,935883164e-01    3,035812974e-01    0,000000000e+00    0,000000000e+00    0,000000000e+00    0,000000000e+00
      380000000   -6,767582893e-02   -6,892463565e-02    7,455464602e-01   -1,343883425e-01    0,000000000e+00    0,000000000e+00    0,000000000e+00    0,000000000e+00
      394000000   -6,855090708e-02   -3,066800162e-02    5,398198962e-01   -5,286097527e-01    0,000000000e+00    0,000000000e+00    0,000000000e+00    0,000000000e+00
      408000000   -4,285383224e-02   -1,573199406e-02    1,502613872e-01   -7,337273955e-01    0,000000000e+00    0,000000000e+00    0,000000000e+00    0,000000000e+00
      422000000   -2,615707926e-02   -3,113739379e-02   -2,793824077e-01   -6,889156103e-01    0,000000000e+00    0,000000000e+00    0,000000000e+00    0,000000000e+00
      436000000   -3,969266266e-02   -4,912027717e-02   -6,105264425e-01   -4,197852910e-01    0,000000000e+00    0,000000000e+00    0,000000000e+00    0,000000000e+00
      450000000   -6,481461227e-02   -3,928836435e-02   -7,372563481e-01   -7,822833955e-03    0,000000000e+00    0,000000000e+00    0,000000000e+00    0,000000000e+00
      464000000   -6,763023883e-02   -5,892524030e-03   -6,074606776e-01    4,064482152e-01    0,000000000e+00    0,000000000e+00    0,000000000e+00    0,000000000e+00
      478000000   -3,880320489e-02    1,629194990e-02   -2,672609687e-01    6,698426008e-01    0,000000000e+00    0,000000000e+00    0,000000000e+00    0,000000000e+00
      492000000   -5,297090858e-03    6,388736423e-03    1,519302726e-01    6,947731972e-01    0,000000000e+00    0,000000000e+00    0,000000000e+00    0,000000000e+00
      506000000    6,618670188e-03   -2,015600726e-02    5,075923800e-01    4,880470335e-01    0,000000000e+00    0,000000000e+00    0,000000000e+00    0,000000000e+00
      520000000    6,787334569e-04   -3,877769411e-02    6,893446445e-01    1,213559136e-01    0,000000000e+00    0,000000000e+00    0,000000000e+00    0,000000000e+00
      534000000   -3,287080908e-03   -4,523425177e-02    6,323733330e-01   -2,812075019e-01    0,000000000e+00    0,000000000e+00    0,000000000e+00    0,000000000e+00
      548000000    1,270714449e-03   -5,944186449e-02    3,607884049e-01   -5,789616704e-01    0,000000000e+00    0,000000000e+00    0,000000000e+00    0,000000000e+00
      562000000   -7,949544117e-03   -8,897230029e-02   -2,747068927e-02   -6,723275781e-01    0,000000000e+00    0,000000000e+00    0,000000000e+00    0,000000000e+00
      576000000   -4,532863945e-02   -1,093383655e-01   -4,011447430e-01   -5,378264785e-01    0,000000000e+00    0,000000000e+00    0,000000000e+00    0,000000000e+00
      590000000   -9,482315928e-02   -9,350223839e-02   -6,389301419e-01   -2,191017121e-01    0,000000000e+00    0,000000000e+00    0,000000000e+00    0,000000000e+00
      604000000   -1,113893315e-01   -4,095193371e-02   -6,473687887e-01    1,981663853e-01    0,000000000e+00    0,000000000e+00    0,000000000e+00    0,000000000e+00
      618000000   -7,610195875e-02   -2,590227872e-03   -4,022861421e-01    5,356823206e-01    0,000000000e+00    0,000000000e+00    0,000000000e+00    0,000000000e+00
      632000000   -2,985062078e-02   -2,166539431e-02   -1,134287380e-02    6,547747254e-01    0,000000000e+00    0,000000000e+00    0,000000000e+00    0,000000000e+00
      646000000   -3,591517359e-02   -7,691986859e-02    3,662362099e-01    5,272393227e-01    0,000000000e+00    0,000000000e+00    0,000000000e+00    0,000000000e+00
      660000000   -1,110821366e-01   -9,975004941e-02    6,002413630e-01    1,926927269e-01    0,000000000e+00    0,000000000e+00    0,000000000e+00    0,000000000e+00
      674000000   -1,999376118e-01   -2,292748168e-02    5,644235611e-01   -2,397177666e-01    0,000000000e+00    0,000000000e+00    0,000000000e+00    0,000000000e+00
      688000000   -1,784594953e-01    1,444005519e-01    2,091498077e-01   -5,215203762e-01    0,000000000e+00    0,000000000e+00    0,000000000e+00    0,000000000e+00
      702000000    2,588717826e-02    2,456638366e-01   -1,991376579e-01   -4,009127617e-01    0,000000000e+00    0,000000000e+00    0,000000000e+00    0,000000000e+00
      716000000    2,638727427e-01    1,099206060e-01   -2,720128298e-01   -8,266207576e-02    0,000000000e+00    0,000000000e+00    0,000000000e+00    0,000000000e+00
      730000000    3,033402562e-01   -1,865554601e-01   -1,058583334e-01    3,151825070e-02    0,000000000e+00    0,000000000e+00    0,000000000e+00    0,000000000e+00
      744000000    9,410475194e-02   -4,276888967e-01   -4,264913499e-02   -6,586560607e-02    0,000000000e+00    0,000000000e+00    0,000000000e+00    0,000000000e+00
      758000000   -2,587481141e-01   -4,305108190e-01   -1,762516946e-01   -1,258233339e-01    0,000000000e+00    0,000000000e+00    0,000000000e+00    0,000000000e+00
      772000000   -4,842399955e-01   -1,200247779e-01   -3,373849988e-01    3,876807168e-02    0,000000000e+00    0,000000000e+00    0,000000000e+00    0,000000000e+00
      786000000   -3,405611515e-01    2,206863016e-01   -2,634353340e-01    3,173418045e-01    0,000000000e+00    0,000000000e+00    0,000000000e+00    0,000000000e+00
      800000000   -4,054019228e-02    2,768136561e-01    3,390464000e-03    4,374661744e-01    0,000000000e+00    0,000000000e+00    0,000000000e+00    0,000000000e+00
      814000000    1,440155655e-01    1,247498319e-01    2,641123831e-01    3,592823148e-01    0,000000000e+00    0,000000000e+00    0,000000000e+00    0,000000000e+00
      828000000    1,673510522e-01   -7,022885978e-02    4,331331849e-01    1,567832977e-01    0,000000000e+00    0,000000000e+00    0,000000000e+00    0,000000000e+00
      842000000    6,620951742e-02   -2,185355127e-01    4,668229520e-01   -1,199489534e-01    0,000000000e+00    0,000000000e+00    0,000000000e+00    0,000000000e+00
      856000000   -1,071745604e-01   -2,640145719e-01    3,191410005e-01   -3,946691751e-01    0,000000000e+00    0,000000000e+00    0,000000000e+00    0,000000000e+00
      870000000   -2,743786871e-01   -1,686277390e-01   -2,003169153e-03   -5,270637274e-01    0,000000000e+00    0,000000000e+00    0,000000000e+00    0,000000000e+00
      884000000   -3,197458982e-01    3,554495424e-02   -3,470694125e-01   -3,931705654e-01    0,000000000e+00    0,000000000e+00    0,000000000e+00    0,000000000e+00
      898000000   -1,921512336e-01    2,059762180e-01   -4,891799986e-01   -6,334931403e-02    0,000000000e+00    0,000000000e+00    0,000000000e+00    0,000000000e+00
      912000000    6,690512411e-03    2,191926390e-01   -4,107660651e-01    2,710436881e-01    0,000000000e+00    0,000000000e+00    0,000000000e+00    0,000000000e+00
      926000000    1,507756561e-01    1,138124466e-01   -1,677387953e-01    4,167077839e-01    0,000000000e+00    0,000000000e+00    0,000000000e+00    0,000000000e+00
      940000000    1,989961118e-01   -4,397791624e-02    6,315059215e-02    4,272307456e-01    0,000000000e+00    0,000000000e+00    0,000000000e+00    0,000000000e+00
      954000000    1,539479494e-01   -2,007313371e-01    2,626005709e-01    3,412621617e-01    0,000000000e+00    0,000000000e+00    0,000000000e+00    0,000000000e+00
      968000000    2,332951501e-02   -3,125476837e-01    4,112454951e-01    1,793532521e-01    0,000000000e+00    0,000000000e+00    0,000000000e+00    0,000000000e+00
      982000000   -1,615185291e-01   -3,322292268e-01    4,770780206e-01   -6,624381244e-02    0,000000000e+00    0,000000000e+00    0,000000000e+00    0,000000000e+00
      996000000   -3,260996938e-01   -2,065968066e-01    3,686030209e-01   -3,584997654e-01    0,000000000e+00    0,000000000e+00    0,000000000e+00    0,000000000e+00
     1010000000   -3,372238874e-01   -8,620190434e-03    4,063013196e-02   -5,273310542e-01    0,000000000e+00    0,000000000e+00    0,000000000e+00    0,000000000e+00
     1024000000   -2,030733228e-01    9,462928772e-02   -3,456028700e-01   -3,819531798e-01    0,000000000e+00    0,000000000e+00    0,000000000e+00    0,000000000e+00
     1038000000   -1,364310682e-01    1,228159666e-02   -4,830356538e-01    6,330576539e-02    0,000000000e+00    0,000000000e+00    0,000000000e+00    0,000000000e+00
     1052000000   -2,852302492e-01    5,178006738e-02   -9,611322731e-02    3,720705807e-01    0,000000000e+00    0,000000000e+00    0,000000000e+00    0,000000000e+00
     1066000000   -1,463847011e-01    2,911761105e-01    1,451682597e-01    1,313219517e-01    0,000000000e+00    0,000000000e+00    0,000000000e+00    0,000000000e+00
     1080000000    1,045558453e-01    2,488204092e-01    9,178145230e-02    2,102228440e-02    0,000000000e+00    0,000000000e+00    0,000000000e+00    0,000000000e+00
     1094000000    2,189566791e-01    8,682294935e-02    7,156496495e-02    9,041797370e-03    0,000000000e+00    0,000000000e+00    0,000000000e+00    0,000000000e+00
     1108000000    2,399144173e-01   -8,510942012e-02    8,180057257e-02    4,552850442e-04    0,000000000e+00    0,000000000e+00    0,000000000e+00    0,000000000e+00
     1122000000    1,826302558e-01   -2,543421388e-01    1,034002453e-01   -2,582011372e-02    0,000000000e+00    0,000000000e+00    0,000000000e+00    0,000000000e+00
     1136000000    4,734078795e-02   -3,755221963e-01    1,264150888e-01   -7,499241084e-02    0,000000000e+00    0,000000000e+00    0,000000000e+00    0,000000000e+00
     1150000000   -1,530240476e-01   -4,208687544e-01    1,374540031e-01   -1,531760693e-01    0,000000000e+00    0,000000000e+00    0,000000000e+00    0,000000000e+00
     1164000000   -3,796196878e-01   -3,191494346e-01    9,489078820e-02   -2,781002522e-01    0,000000000e+00    0,000000000e+00    0,000000000e+00    0,000000000e+00
     1178000000   -4,660730362e-01   -8,232458681e-02   -1,069050059e-01   -4,032813013e-01    0,000000000e+00    0,000000000e+00    0,000000000e+00    0,000000000e+00
     1192000000   -3,772068620e-01    4,102811962e-02   -4,661618769e-01   -1,962072402e-01    0,000000000e+00    0,000000000e+00    0,000000000e+00    0,000000000e+00
     1206000000   -4,188535810e-01    1,316834688e-01   -2,779925466e-01    2,374990433e-01    0,000000000e+00    0,000000000e+00    0,000000000e+00    0,000000000e+00
     1220000000   -2,733694315e-01    3,252618611e-01   -5,990590900e-03    1,606046706e-01    0,000000000e+00    0,000000000e+00    0,000000000e+00    0,000000000e+00
     1234000000   -5,140924826e-02    3,480040431e-01    1,984654181e-02    5,665904656e-02    0,000000000e+00    0,000000000e+00    0,000000000e+00    0,000000000e+00
     1248000000    1,251111925e-01    2,530356646e-01    1,853735652e-03    2,845317125e-02    0,000000000e+00    0,000000000e+00    0,000000000e+00    0,000000000e+00
     1262000000    2,102006972e-01    1,059738174e-01    1,533340401e-04    3,436185047e-02    0,000000000e+00    0,000000000e+00    0,000000000e+00    0,000000000e+00
     1276000000    2,329793125e-01   -6,024948135e-02    2,690204419e-02    3,751428053e-02    0,000000000e+00    0,000000000e+00    0,000000000e+00    0,000000000e+00
     1290000000    1,921871901e-01   -2,127218843e-01    5,630052835e-02    2,782973833e-02    0,000000000e+00    0,000000000e+00    0,000000000e+00    0,000000000e+00
     1304000000    8,802787960e-02   -3,582445979e-01    8,120609820e-02    3,306342522e-03    0,000000000e+00    0,000000000e+00    0,000000000e+00    0,000000000e+00
     1318000000   -1,000613198e-01   -4,478730261e-01    9,121172130e-02   -1,246381272e-02    0,000000000e+00    0,000000000e+00    0,000000000e+00    0,000000000e+00
     1332000000   -3,570648134e-01   -4,344326556e-01    9,093945473e-02   -2,136410959e-02    0,000000000e+00    0,000000000e+00    0,000000000e+00    0,000000000e+00
     1346000000   -5,896254182e-01   -2,480645925e-01    1,135952696e-01   -8,265949786e-03    0,000000000e+00    0,000000000e+00    0,000000000e+00    0,000000000e+00
     1360000000   -6,517561078e-01    6,925395876e-02    1,324119717e-01   -1,427188888e-02    0,000000000e+00    0,000000000e+00    0,000000000e+00    0,000000000e+00
     1374000000   -4,940660000e-01    3,368124962e-01    1,647751927e-01   -5,372257903e-02    0,000000000e+00    0,000000000e+00    0,000000000e+00    0,000000000e+00
     1388000000   -2,544794977e-01    4,261870086e-01    1,669850647e-01   -7,549454272e-02    0,000000000e+00    0,000000000e+00    0,000000000e+00    0,000000000e+00
     1402000000   -4,485375434e-02    3,934737146e-01    1,398414969e-01   -9,816613048e-02    0,000000000e+00    0,000000000e+00    0,000000000e+00    0,000000000e+00
     1416000000    1,058942154e-01    2,824776769e-01    1,308385730e-01   -8,589964360e-02    0,000000000e+00    0,000000000e+00    0,000000000e+00    0,000000000e+00
     1430000000    1,941281408e-01    1,454367489e-01    1,290066838e-01   -8,376631141e-02    0,000000000e+00    0,000000000e+00    0,000000000e+00    0,000000000e+00
     1444000000    2,122028768e-01   -9,884564206e-03    1,149802729e-01   -2,524711750e-02    0,000000000e+00    0,000000000e+00    0,000000000e+00    0,000000000e+00
     1458000000    1,770909578e-01   -1,837560833e-01    1,418007463e-01    1,256125141e-02    0,000000000e+00    0,000000000e+00    0,000000000e+00    0,000000000e+00
     1472000000    6,790716946e-02   -3,442323506e-01    1,950539500e-01    7,598323375e-02    0,000000000e+00    0,000000000e+00    0,000000000e+00    0,000000000e+00
     1486000000   -1,469809115e-01   -4,723262489e-01    2,787199914e-01    9,383181483e-02    0,000000000e+00    0,000000000e+00    0,000000000e+00    0,000000000e+00
     1500000000   -4,472100437e-01   -4,766197205e-01    3,905725181e-01    5,777044594e-02    0,000000000e+00    0,000000000e+00    0,000000000e+00    0,000000000e+00
