! NanoVNA-App
! Date: 2025-09-25 15:56:51
! Start: 100MHz Stop: 1,5GHz Points: 101
! S-Parameter data: F S11 S21 S12 S22
# Hz S RI R 50
!     Frequency           S11_Real           S11_Imag           S21_Real           S21_Imag           S12_Real           S12_Imag           S22_Real           S22_Imag
      100000000   -2,819783799e-02   -2,823272021e-03    3,722229004e-01   -7,224767804e-01    0,000000000e+00    0,000000000e+00    0,000000000e+00    0,000000000e+00
      114000000   -1,561375987e-02    1,284176018e-02   -9,141314775e-02   -8,047819734e-01    0,000000000e+00    0,000000000e+00    0,000000000e+00    0,000000000e+00
      128000000    4,383441992e-03    1,190642081e-02   -5,158561468e-01   -6,187596321e-01    0,000000000e+00    0,000000000e+00    0,000000000e+00    0,000000000e+00
      142000000    1,550213434e-02   -1,845982275e-03   -7,675513625e-01   -2,341678590e-01    0,000000000e+00    0,000000000e+00    0,000000000e+00    0,000000000e+00
      156000000    1,513279323e-02   -1,359026600e-02   -7,683551908e-01    2,214440405e-01    0,000000000e+00    0,000000000e+00    0,000000000e+00    0,000000000e+00
      170000000    1,762206107e-02   -2,105117217e-02   -5,152528286e-01    6,059684753e-01    0,000000000e+00    0,000000000e+00    0,000000000e+00    0,000000000e+00
      184000000    2,199307270e-02   -3,556692600e-02   -9,826889634e-02    7,858106494e-01    0,000000000e+00    0,000000000e+00    0,000000000e+00    0,000000000e+00
      198000000    1,402242947e-02   -6,065848470e-02    3,460866511e-01    7,109171748e-01    0,000000000e+00    0,000000000e+00    0,000000000e+00    0,000000000e+00
      212000000   -1,767793670e-02   -7,913482189e-02    6,806185842e-01    4,064772129e-01    0,000000000e+00    0,000000000e+00    0,000000000e+00    0,000000000e+00
      226000000   -6,039415672e-02   -6,663767993e-02    7,957726717e-01   -3,556567430e-02    0,000000000e+00    0,000000000e+00    0,000000000e+00    0,000000000e+00
      240000000   -8,062694967e-02   -2,279196307e-02    6,416377425e-01   -4,717130065e-01    0,000000000e+00    0,000000000e+00    0,000000000e+00    0,000000000e+00
      254000000   -6,084828824e-02    1,978819445e-02    2,706713974e-01   -7,415871620e-01    0,000000000e+00    0,000000000e+00    0,000000000e+00    0,000000000e+00
      268000000   -2,099157311e-02    3,075994551e-02   -1,812141687e-01   -7,606943846e-01    0,000000000e+00    0,000000000e+00    0,000000000e+00    0,000000000e+00
      282000000    6,928673945e-03    1,368297916e-02   -5,631617308e-01   -5,323534012e-01    0,000000000e+00    0,000000000e+00    0,000000000e+00    0,000000000e+00
      296000000    1,241828967e-02   -6,295967381e-03   -7,603392005e-01   -1,343906969e-01    0,000000000e+00    0,000000000e+00    0,000000000e+00    0,000000000e+00
      310000000    1,349631883e-02   -1,441425830e-02   -7,094822526e-01    3,048403263e-01    0,000000000e+00    0,000000000e+00    0,000000000e+00    0,000000000e+00
      324000000    2,249050513e-02   -2,454959415e-02   -4,220782220e-01    6,387841105e-01    0,000000000e+00    0,000000000e+00    0,000000000e+00    0,000000000e+00
      338000000    2,842064016e-02   -5,070495233e-02   -9,259665385e-04    7,597463131e-01    0,000000000e+00    0,000000000e+00    0,000000000e+00    0,000000000e+00
      352000000    9,853020310e-03   -8,301673084e-02    4,111872017e-01    6,344973445e-01    0,000000000e+00    0,000000000e+00    0,000000000e+00    0,000000000e+00
      366000000   -3,165923432e-02   -9,361794591e-02    6,938689947e-01    3,042329848e-01    0,000000000e+00    0,000000000e+00    0,000000000e+00    0,000000000e+00
      380000000   -6,744417548e-02   -6,892707199e-02    7,460231781e-01   -1,342194527e-01    0,000000000e+00    0,000000000e+00    0,000000000e+00    0,000000000e+00
      394000000   -6,854142994e-02   -3,022619709e-02    5,399662256e-01   -5,283810496e-01    0,000000000e+00    0,000000000e+00    0,000000000e+00    0,000000000e+00
      408000000   -4,281272739e-02   -1,553282700e-02    1,508713365e-01   -7,360194325e-01    0,000000000e+00    0,000000000e+00    0,000000000e+00    0,000000000e+00
      422000000   -2,605814300e-02   -3,119838797e-02   -2,795986533e-01   -6,897794604e-01    0,000000000e+00    0,000000000e+00    0,000000000e+00    0,000000000e+00
      436000000   -3,935199976e-02   -4,897709191e-02   -6,106333733e-01   -4,196997583e-01    0,000000000e+00    0,000000000e+00    0,000000000e+00    0,000000000e+00
      450000000   -6,455865502e-02   -3,896016255e-02   -7,368646860e-01   -7,473750971e-03    0,000000000e+00    0,000000000e+00    0,000000000e+00    0,000000000e+00
      464000000   -6,790895760e-02   -6,172298919e-03   -6,081018448e-01    4,062642753e-01    0,000000000e+00    0,000000000e+00    0,000000000e+00    0,000000000e+00
      478000000   -3,848094121e-02    1,622238941e-02   -2,671053112e-01    6,695924401e-01    0,000000000e+00    0,000000000e+00    0,000000000e+00    0,000000000e+00
      492000000   -5,045532715e-03    6,683343556e-03    1,512862742e-01    6,955907345e-01    0,000000000e+00    0,000000000e+00    0,000000000e+00    0,000000000e+00
      506000000    6,787512917e-03   -2,055238746e-02    5,081905127e-01    4,887691736e-01    0,000000000e+00    0,000000000e+00    0,000000000e+00    0,000000000e+00
      520000000    3,786780871e-04   -3,852592036e-02    6,892397404e-01    1,212338731e-01    0,000000000e+00    0,000000000e+00    0,000000000e+00    0,000000000e+00
      534000000   -3,008990549e-03   -4,533167928e-02    6,328935027e-01   -2,817451060e-01    0,000000000e+00    0,000000000e+00    0,000000000e+00    0,000000000e+00
      548000000    7,443308714e-04   -5,933625624e-02    3,603489399e-01   -5,790369511e-01    0,000000000e+00    0,000000000e+00    0,000000000e+00    0,000000000e+00
      562000000   -8,100800216e-03   -8,848095685e-02   -2,631633915e-02   -6,723335981e-01    0,000000000e+00    0,000000000e+00    0,000000000e+00    0,000000000e+00
      576000000   -4,527885094e-02   -1,093264520e-01   -3,999122679e-01   -5,392091274e-01    0,000000000e+00    0,000000000e+00    0,000000000e+00    0,000000000e+00
      590000000   -9,463900328e-02   -9,355825186e-02   -6,403736472e-01   -2,169640511e-01    0,000000000e+00    0,000000000e+00    0,000000000e+00    0,000000000e+00
      604000000   -1,119273901e-01   -4,090649262e-02   -6,476303339e-01    1,988734156e-01    0,000000000e+00    0,000000000e+00    0,000000000e+00    0,000000000e+00
      618000000   -7,522121072e-02   -2,461548429e-03   -4,015414417e-01    5,354602933e-01    0,000000000e+00    0,000000000e+00    0,000000000e+00    0,000000000e+00
      632000000   -2,927492559e-02   -2,094022557e-02   -1,248294953e-02    6,552476287e-01    0,000000000e+00    0,000000000e+00    0,000000000e+00    0,000000000e+00
      646000000   -3,603040427e-02   -7,645139843e-02    3,655643463e-01    5,268491507e-01    0,000000000e+00    0,000000000e+00    0,000000000e+00    0,000000000e+00
      660000000   -1,117556617e-01   -9,913137555e-02    6,012649536e-01    1,935752481e-01    0,000000000e+00    0,000000000e+00    0,000000000e+00    0,000000000e+00
      674000000   -1,994838715e-01   -2,401585318e-02    5,650873184e-01   -2,398357987e-01    0,000000000e+00    0,000000000e+00    0,000000000e+00    0,000000000e+00
      688000000   -1,795245409e-01    1,444660127e-01    2,086047828e-01   -5,218505263e-01    0,000000000e+00    0,000000000e+00    0,000000000e+00    0,000000000e+00
      702000000    2,623939700e-02    2,453969121e-01   -1,990848333e-01   -4,013358057e-01    0,000000000e+00    0,000000000e+00    0,000000000e+00    0,000000000e+00
      716000000    2,636324763e-01    1,109468564e-01   -2,719607651e-01   -8,317810297e-02    0,000000000e+00    0,000000000e+00    0,000000000e+00    0,000000000e+00
      730000000    3,031350374e-01   -1,859700233e-01   -1,061374545e-01    3,163321316e-02    0,000000000e+00    0,000000000e+00    0,000000000e+00    0,000000000e+00
      744000000    9,373210371e-02   -4,272974730e-01   -4,244272411e-02   -6,607333571e-02    0,000000000e+00    0,000000000e+00    0,000000000e+00    0,000000000e+00
      758000000   -2,600310445e-01   -4,298561513e-01   -1,762370020e-01   -1,256425083e-01    0,000000000e+00    0,000000000e+00    0,000000000e+00    0,000000000e+00
      772000000   -4,837424159e-01   -1,194102839e-01   -3,369569480e-01    3,848279640e-02    0,000000000e+00    0,000000000e+00    0,000000000e+00    0,000000000e+00
      786000000   -3,422942758e-01    2,211954147e-01   -2,633683085e-01    3,171464801e-01    0,000000000e+00    0,000000000e+00    0,000000000e+00    0,000000000e+00
      800000000   -4,087035358e-02    2,770114541e-01    3,736393992e-03    4,368451536e-01    0,000000000e+00    0,000000000e+00    0,000000000e+00    0,000000000e+00
      814000000    1,441885680e-01    1,253373623e-01    2,641768754e-01    3,595197201e-01    0,000000000e+00    0,000000000e+00    0,000000000e+00    0,000000000e+00
      828000000    1,676105857e-01   -7,021479309e-02    4,331633449e-01    1,566471756e-01    0,000000000e+00    0,000000000e+00    0,000000000e+00    0,000000000e+00
      842000000    6,732244045e-02   -2,175121307e-01    4,668733180e-01   -1,195726767e-01    0,000000000e+00    0,000000000e+00    0,000000000e+00    0,000000000e+00
      856000000   -1,069816425e-01   -2,631290257e-01    3,207581639e-01   -3,944683075e-01    0,000000000e+00    0,000000000e+00    0,000000000e+00    0,000000000e+00
      870000000   -2,740233839e-01   -1,681507230e-01   -7,026060484e-04   -5,267754793e-01    0,000000000e+00    0,000000000e+00    0,000000000e+00    0,000000000e+00
      884000000   -3,202383816e-01    3,607517108e-02   -3,474256098e-01   -3,926320970e-01    0,000000000e+00    0,000000000e+00    0,000000000e+00    0,000000000e+00
      898000000   -1,926772445e-01    2,068192214e-01   -4,893184304e-01   -6,342618912e-02    0,000000000e+00    0,000000000e+00    0,000000000e+00    0,000000000e+00
      912000000    6,615668070e-03    2,189771235e-01   -4,048206210e-01    2,656118572e-01    0,000000000e+00    0,000000000e+00    0,000000000e+00    0,000000000e+00
      926000000    1,499108225e-01    1,114154905e-01   -1,686263829e-01    4,141384065e-01    0,000000000e+00    0,000000000e+00    0,000000000e+00    0,000000000e+00
      940000000    1,976220608e-01   -4,478261247e-02    6,207929552e-02    4,264653623e-01    0,000000000e+00    0,000000000e+00    0,000000000e+00    0,000000000e+00
      954000000    1,512726545e-01   -2,021677345e-01    2,614890933e-01    3,401714861e-01    0,000000000e+00    0,000000000e+00    0,000000000e+00    0,000000000e+00
      968000000    2,584881335e-02   -3,116976619e-01    4,135676622e-01    1,796821058e-01    0,000000000e+00    0,000000000e+00    0,000000000e+00    0,000000000e+00
      982000000   -1,630533636e-01   -3,290855885e-01    4,758098423e-01   -6,713528186e-02    0,000000000e+00    0,000000000e+00    0,000000000e+00    0,000000000e+00
      996000000   -3,261333406e-01   -2,067399919e-01    3,668056428e-01   -3,556487560e-01    0,000000000e+00    0,000000000e+00    0,000000000e+00    0,000000000e+00
     1010000000   -3,423800170e-01   -9,409308434e-03    4,236100987e-02   -5,246374011e-01    0,000000000e+00    0,000000000e+00    0,000000000e+00    0,000000000e+00
     1024000000   -2,044153661e-01    9,142064303e-02   -3,446770310e-01   -3,809745908e-01    0,000000000e+00    0,000000000e+00    0,000000000e+00    0,000000000e+00
     1038000000   -1,328595281e-01    1,111767907e-02   -4,805865586e-01    6,244108081e-02    0,000000000e+00    0,000000000e+00    0,000000000e+00    0,000000000e+00
     1052000000   -2,863577604e-01    5,716193095e-02   -9,591716528e-02    3,715987504e-01    0,000000000e+00    0,000000000e+00    0,000000000e+00    0,000000000e+00
     1066000000   -1,458122879e-01    2,930166125e-01    1,446513236e-01    1,377401650e-01    0,000000000e+00    0,000000000e+00    0,000000000e+00    0,000000000e+00
     1080000000    1,012478396e-01    2,530133128e-01    9,207268804e-02    2,139237337e-02    0,000000000e+00    0,000000000e+00    0,000000000e+00    0,000000000e+00
     1094000000    2,164778113e-01    9,252002835e-02    7,025726140e-02    1,038503367e-02    0,000000000e+00    0,000000000e+00    0,000000000e+00    0,000000000e+00
     1108000000    2,392219901e-01   -8,743262291e-02    8,117996901e-02   -2,910370473e-03    0,000000000e+00    0,000000000e+00    0,000000000e+00    0,000000000e+00
     1122000000    1,844140887e-01   -2,488914132e-01    1,026202738e-01   -2,827100642e-02    0,000000000e+00    0,000000000e+00    0,000000000e+00    0,000000000e+00
     1136000000    4,864681512e-02   -3,765546978e-01    1,232586503e-01   -7,252182811e-02    0,000000000e+00    0,000000000e+00    0,000000000e+00    0,000000000e+00
     1150000000   -1,510666311e-01   -4,220643342e-01    1,370594203e-01   -1,517501026e-01    0,000000000e+00    0,000000000e+00    0,000000000e+00    0,000000000e+00
     1164000000   -3,796138763e-01   -3,275900781e-01    9,454637766e-02   -2,759363055e-01    0,000000000e+00    0,000000000e+00    0,000000000e+00    0,000000000e+00
     1178000000   -4,671091437e-01   -8,303709328e-02   -1,052432805e-01   -4,062405527e-01    0,000000000e+00    0,000000000e+00    0,000000000e+00    0,000000000e+00
     1192000000   -3,794322014e-01    3,972937167e-02   -4,621945918e-01   -1,965323985e-01    0,000000000e+00    0,000000000e+00    0,000000000e+00    0,000000000e+00
     1206000000   -4,160005152e-01    1,300984472e-01   -2,766643763e-01    2,362876981e-01    0,000000000e+00    0,000000000e+00    0,000000000e+00    0,000000000e+00
     1220000000   -2,754411101e-01    3,263219297e-01   -3,107328434e-03    1,593227983e-01    0,000000000e+00    0,000000000e+00    0,000000000e+00    0,000000000e+00
     1234000000   -4,875665531e-02    3,465123773e-01    2,313849702e-02    5,212768167e-02    0,000000000e+00    0,000000000e+00    0,000000000e+00    0,000000000e+00
     1248000000    1,189716756e-01    2,441456914e-01   -1,965658972e-03    2,244119160e-02    0,000000000e+00    0,000000000e+00    0,000000000e+00    0,000000000e+00
     1262000000    2,106868327e-01    1,075864360e-01    6,912092213e-03    3,347735107e-02    0,000000000e+00    0,000000000e+00    0,000000000e+00    0,000000000e+00
     1276000000    2,318346351e-01   -5,459373072e-02    2,650459670e-02    3,856012970e-02    0,000000000e+00    0,000000000e+00    0,000000000e+00    0,000000000e+00
     1290000000    1,981221735e-01   -2,127571255e-01    5,700784549e-02    2,380520478e-02    0,000000000e+00    0,000000000e+00    0,000000000e+00    0,000000000e+00
     1304000000    8,523238450e-02   -3,588760793e-01    7,537932694e-02    3,161346773e-03    0,000000000e+00    0,000000000e+00    0,000000000e+00    0,000000000e+00
     1318000000   -1,007289588e-01   -4,480709434e-01    8,127917349e-02   -1,303414255e-02    0,000000000e+00    0,000000000e+00    0,000000000e+00    0,000000000e+00
     1332000000   -3,548903763e-01   -4,315981269e-01    8,233644068e-02   -2,185559645e-02    0,000000000e+00    0,000000000e+00    0,000000000e+00    0,000000000e+00
     1346000000   -5,880765319e-01   -2,479559034e-01    9,999570251e-02   -3,589967964e-04    0,000000000e+00    0,000000000e+00    0,000000000e+00    0,000000000e+00
     1360000000   -6,515106559e-01    7,091274858e-02    1,411100477e-01   -1,209403668e-02    0,000000000e+00    0,000000000e+00    0,000000000e+00    0,000000000e+00
     1374000000   -4,920594096e-01    3,395911753e-01    1,582284421e-01   -4,772188514e-02    0,000000000e+00    0,000000000e+00    0,000000000e+00    0,000000000e+00
     1388000000   -2,494649440e-01    4,287807941e-01    1,615950763e-01   -7,355401665e-02    0,000000000e+00    0,000000000e+00    0,000000000e+00    0,000000000e+00
     1402000000   -4,313354567e-02    3,916289508e-01    1,375449449e-01   -8,666135371e-02    0,000000000e+00    0,000000000e+00    0,000000000e+00    0,000000000e+00
     1416000000    9,784919024e-02    2,792988420e-01    1,242034286e-01   -8,959020674e-02    0,000000000e+00    0,000000000e+00    0,000000000e+00    0,000000000e+00
     1430000000    1,920114309e-01    1,453728080e-01    1,204671413e-01   -6,527135521e-02    0,000000000e+00    0,000000000e+00    0,000000000e+00    0,000000000e+00
     1444000000    2,151499689e-01   -1,278376952e-02    1,172479764e-01   -2,032556012e-02    0,000000000e+00    0,000000000e+00    0,000000000e+00    0,000000000e+00
     1458000000    1,835886687e-01   -1,790795475e-01    1,445888877e-01    2,220068313e-02    0,000000000e+00    0,000000000e+00    0,000000000e+00    0,000000000e+00
     1472000000    7,385640591e-02   -3,464655280e-01    2,062678486e-01    7,463107258e-02    0,000000000e+00    0,000000000e+00    0,000000000e+00    0,000000000e+00
     1486000000   -1,414201558e-01   -4,796421230e-01    3,019188046e-01    7,714676112e-02    0,000000000e+00    0,000000000e+00    0,000000000e+00    0,000000000e+00
     1500000000   -4,467777610e-01   -4,748227000e-01    4,095630944e-01    4,667285457e-02    0,000000000e+00    0,000000000e+00    0,000000000e+00    0,000000000e+00
