! NanoVNA-App
! Date: 2025-09-25 16:00:59
! Start: 100MHz Stop: 1,5GHz Points: 101
! S-Parameter data: F S11 S21 S12 S22
# Hz S RI R 50
!     Frequency           S11_Real           S11_Imag           S21_Real           S21_Imag           S12_Real           S12_Imag           S22_Real           S22_Imag
      100000000   -2,827391773e-02   -2,865257673e-03    3,722968698e-01   -7,223644853e-01    0,000000000e+00    0,000000000e+00    0,000000000e+00    0,000000000e+00
      114000000   -1,569602266e-02    1,288300753e-02   -9,125954658e-02   -8,048983812e-01    0,000000000e+00    0,000000000e+00    0,000000000e+00    0,000000000e+00
      128000000    4,341180902e-03    1,192059647e-02   -5,158867836e-01   -6,186667085e-01    0,000000000e+00    0,000000000e+00    0,000000000e+00    0,000000000e+00
      142000000    1,547003258e-02   -1,735579572e-03   -7,672385573e-01   -2,340637445e-01    0,000000000e+00    0,000000000e+00    0,000000000e+00    0,000000000e+00
      156000000    1,617158949e-02   -1,384244859e-02   -7,706314921e-01    2,249750793e-01    0,000000000e+00    0,000000000e+00    0,000000000e+00    0,000000000e+00
      170000000    1,766249165e-02   -2,097108029e-02   -5,154364109e-01    6,058166027e-01    0,000000000e+00    0,000000000e+00    0,000000000e+00    0,000000000e+00
      184000000    2,206495591e-02   -3,553520143e-02   -9,821733832e-02    7,861697078e-01    0,000000000e+00    0,000000000e+00    0,000000000e+00    0,000000000e+00
      198000000    1,403707080e-02   -6,062578782e-02    3,458561301e-01    7,108390331e-01    0,000000000e+00    0,000000000e+00    0,000000000e+00    0,000000000e+00
      212000000   -1,769838855e-02   -7,912775874e-02    6,807960868e-01    4,062304497e-01    0,000000000e+00    0,000000000e+00    0,000000000e+00    0,000000000e+00
      226000000   -6,029272079e-02   -6,667759269e-02    7,956900001e-01   -3,559048846e-02    0,000000000e+00    0,000000000e+00    0,000000000e+00    0,000000000e+00
      240000000   -8,050094545e-02   -2,276021056e-02    6,414706111e-01   -4,717224836e-01    0,000000000e+00    0,000000000e+00    0,000000000e+00    0,000000000e+00
      254000000   -6,081771478e-02    1,982785761e-02    2,708784044e-01   -7,418081760e-01    0,000000000e+00    0,000000000e+00    0,000000000e+00    0,000000000e+00
      268000000   -2,087972313e-02    3,083742596e-02   -1,812653244e-01   -7,609365582e-01    0,000000000e+00    0,000000000e+00    0,000000000e+00    0,000000000e+00
      282000000    6,998173427e-03    1,376971044e-02   -5,634460449e-01   -5,325763822e-01    0,000000000e+00    0,000000000e+00    0,000000000e+00    0,000000000e+00
      296000000    1,249397174e-02   -6,272227503e-03   -7,604855299e-01   -1,343663186e-01    0,000000000e+00    0,000000000e+00    0,000000000e+00    0,000000000e+00
      310000000    1,354352199e-02   -1,469103154e-02   -7,085453272e-01    3,031696677e-01    0,000000000e+00    0,000000000e+00    0,000000000e+00    0,000000000e+00
      324000000    2,242791466e-02   -2,486571111e-02   -4,214234948e-01    6,396688223e-01    0,000000000e+00    0,000000000e+00    0,000000000e+00    0,000000000e+00
      338000000    2,861138992e-02   -5,071475729e-02   -2,904055407e-03    7,622171044e-01    0,000000000e+00    0,000000000e+00    0,000000000e+00    0,000000000e+00
      352000000    9,959548712e-03   -8,300711215e-02    4,119716287e-01    6,354563236e-01    0,000000000e+00    0,000000000e+00    0,000000000e+00    0,000000000e+00
      366000000   -3,193508834e-02   -9,350254387e-02    6,933595538e-01    3,043776155e-01    0,000000000e+00    0,000000000e+00    0,000000000e+00    0,000000000e+00
      380000000   -6,769398600e-02   -6,883145869e-02    7,456621528e-01   -1,337885410e-01    0,000000000e+00    0,000000000e+00    0,000000000e+00    0,000000000e+00
      394000000   -6,877625734e-02   -3,052623756e-02    5,389362574e-01   -5,295319557e-01    0,000000000e+00    0,000000000e+00    0,000000000e+00    0,000000000e+00
      408000000   -4,301540554e-02   -1,570942998e-02    1,478518993e-01   -7,337759137e-01    0,000000000e+00    0,000000000e+00    0,000000000e+00    0,000000000e+00
      422000000   -2,596093155e-02   -3,125493973e-02   -2,786093056e-01   -6,899098158e-01    0,000000000e+00    0,000000000e+00    0,000000000e+00    0,000000000e+00
      436000000   -3,948278725e-02   -4,899490997e-02   -6,108763814e-01   -4,203539491e-01    0,000000000e+00    0,000000000e+00    0,000000000e+00    0,000000000e+00
      450000000   -6,464584917e-02   -3,889020532e-02   -7,370707393e-01   -7,509967778e-03    0,000000000e+00    0,000000000e+00    0,000000000e+00    0,000000000e+00
      464000000   -6,772727519e-02   -6,004240364e-03   -6,079931259e-01    4,066059887e-01    0,000000000e+00    0,000000000e+00    0,000000000e+00    0,000000000e+00
      478000000   -3,901950642e-02    1,654013246e-02   -2,681764960e-01    6,708453298e-01    0,000000000e+00    0,000000000e+00    0,000000000e+00    0,000000000e+00
      492000000   -4,967858084e-03    6,166409701e-03    1,517157257e-01    6,945601106e-01    0,000000000e+00    0,000000000e+00    0,000000000e+00    0,000000000e+00
      506000000    6,791030522e-03   -1,996557973e-02    5,075636506e-01    4,885593355e-01    0,000000000e+00    0,000000000e+00    0,000000000e+00    0,000000000e+00
      520000000    2,462834818e-04   -3,867448494e-02    6,900103092e-01    1,206142902e-01    0,000000000e+00    0,000000000e+00    0,000000000e+00    0,000000000e+00
      534000000   -3,245576285e-03   -4,550198466e-02    6,329941154e-01   -2,812807262e-01    0,000000000e+00    0,000000000e+00    0,000000000e+00    0,000000000e+00
      548000000    9,658630588e-04   -5,998513103e-02    3,606902063e-01   -5,801219344e-01    0,000000000e+00    0,000000000e+00    0,000000000e+00    0,000000000e+00
      562000000   -8,060789667e-03   -8,828298002e-02   -2,670487948e-02   -6,728729010e-01    0,000000000e+00    0,000000000e+00    0,000000000e+00    0,000000000e+00
      576000000   -4,527104273e-02   -1,096968353e-01   -4,008366764e-01   -5,387073755e-01    0,000000000e+00    0,000000000e+00    0,000000000e+00    0,000000000e+00
      590000000   -9,491191804e-02   -9,333284944e-02   -6,396023631e-01   -2,178530991e-01    0,000000000e+00    0,000000000e+00    0,000000000e+00    0,000000000e+00
      604000000   -1,120790392e-01   -4,136579111e-02   -6,478427052e-01    1,984811872e-01    0,000000000e+00    0,000000000e+00    0,000000000e+00    0,000000000e+00
      618000000   -7,572596520e-02   -2,015925245e-03   -4,022049010e-01    5,364525318e-01    0,000000000e+00    0,000000000e+00    0,000000000e+00    0,000000000e+00
      632000000   -3,036616184e-02   -2,088330872e-02   -1,174233668e-02    6,551625133e-01    0,000000000e+00    0,000000000e+00    0,000000000e+00    0,000000000e+00
      646000000   -3,582695872e-02   -7,688655704e-02    3,656143546e-01    5,264992118e-01    0,000000000e+00    0,000000000e+00    0,000000000e+00    0,000000000e+00
      660000000   -1,114106327e-01   -9,922302514e-02    6,007751226e-01    1,940310001e-01    0,000000000e+00    0,000000000e+00    0,000000000e+00    0,000000000e+00
      674000000   -1,997598112e-01   -2,431439981e-02    5,649805069e-01   -2,400938421e-01    0,000000000e+00    0,000000000e+00    0,000000000e+00    0,000000000e+00
      688000000   -1,780348122e-01    1,441380531e-01    2,100365907e-01   -5,214612484e-01    0,000000000e+00    0,000000000e+00    0,000000000e+00    0,000000000e+00
      702000000    2,555516921e-02    2,476751953e-01   -2,016157955e-01   -4,041603208e-01    0,000000000e+00    0,000000000e+00    0,000000000e+00    0,000000000e+00
      716000000    2,640390396e-01    1,110651791e-01   -2,734349370e-01   -8,379405737e-02    0,000000000e+00    0,000000000e+00    0,000000000e+00    0,000000000e+00
      730000000    3,035235703e-01   -1,857523024e-01   -1,069561616e-01    3,208899871e-02    0,000000000e+00    0,000000000e+00    0,000000000e+00    0,000000000e+00
      744000000    9,378053993e-02   -4,280489981e-01   -4,216917604e-02   -6,500519812e-02    0,000000000e+00    0,000000000e+00    0,000000000e+00    0,000000000e+00
      758000000   -2,577501535e-01   -4,295868874e-01   -1,755879521e-01   -1,253101975e-01    0,000000000e+00    0,000000000e+00    0,000000000e+00    0,000000000e+00
      772000000   -4,861128926e-01   -1,198299229e-01   -3,362521827e-01    3,797830269e-02    0,000000000e+00    0,000000000e+00    0,000000000e+00    0,000000000e+00
      786000000   -3,411900401e-01    2,225040495e-01   -2,632887363e-01    3,163612187e-01    0,000000000e+00    0,000000000e+00    0,000000000e+00    0,000000000e+00
      800000000   -4,135989025e-02    2,765016854e-01    2,876640065e-03    4,377241135e-01    0,000000000e+00    0,000000000e+00    0,000000000e+00    0,000000000e+00
      814000000    1,444598287e-01    1,251204759e-01    2,636761963e-01    3,596677780e-01    0,000000000e+00    0,000000000e+00    0,000000000e+00    0,000000000e+00
      828000000    1,679133773e-01   -6,986594200e-02    4,328417480e-01    1,569652855e-01    0,000000000e+00    0,000000000e+00    0,000000000e+00    0,000000000e+00
      842000000    6,689261645e-02   -2,186303586e-01    4,666473866e-01   -1,201644689e-01    0,000000000e+00    0,000000000e+00    0,000000000e+00    0,000000000e+00
      856000000   -1,064016223e-01   -2,630881667e-01    3,202663660e-01   -3,940832913e-01    0,000000000e+00    0,000000000e+00    0,000000000e+00    0,000000000e+00
      870000000   -2,741783857e-01   -1,689881980e-01   -2,793773543e-03   -5,278641582e-01    0,000000000e+00    0,000000000e+00    0,000000000e+00    0,000000000e+00
      884000000   -3,212697506e-01    3,603801876e-02   -3,487820327e-01   -3,916827142e-01    0,000000000e+00    0,000000000e+00    0,000000000e+00    0,000000000e+00
      898000000   -1,923366487e-01    2,061531246e-01   -4,883580506e-01   -6,252724677e-02    0,000000000e+00    0,000000000e+00    0,000000000e+00    0,000000000e+00
      912000000    6,699922029e-03    2,192016840e-01   -4,088425040e-01    2,762560844e-01    0,000000000e+00    0,000000000e+00    0,000000000e+00    0,000000000e+00
      926000000    1,513898671e-01    1,132011041e-01   -1,667143404e-01    4,154852033e-01    0,000000000e+00    0,000000000e+00    0,000000000e+00    0,000000000e+00
      940000000    1,978068650e-01   -4,754895344e-02    6,307567656e-02    4,231512547e-01    0,000000000e+00    0,000000000e+00    0,000000000e+00    0,000000000e+00
      954000000    1,528863609e-01   -2,036936730e-01    2,609728873e-01    3,412117660e-01    0,000000000e+00    0,000000000e+00    0,000000000e+00    0,000000000e+00
      968000000    2,668323368e-02   -3,145954013e-01    4,120187461e-01    1,795593351e-01    0,000000000e+00    0,000000000e+00    0,000000000e+00    0,000000000e+00
      982000000   -1,635258049e-01   -3,325658143e-01    4,743525684e-01   -6,812477857e-02    0,000000000e+00    0,000000000e+00    0,000000000e+00    0,000000000e+00
      996000000   -3,240019083e-01   -2,128248662e-01    3,689102829e-01   -3,561959267e-01    0,000000000e+00    0,000000000e+00    0,000000000e+00    0,000000000e+00
     1010000000   -3,439427614e-01   -7,581168320e-03    4,190833122e-02   -5,254245996e-01    0,000000000e+00    0,000000000e+00    0,000000000e+00    0,000000000e+00
     1024000000   -2,021598965e-01    9,328958392e-02   -3,480660915e-01   -3,813448548e-01    0,000000000e+00    0,000000000e+00    0,000000000e+00    0,000000000e+00
     1038000000   -1,357733607e-01    6,371355150e-03   -4,832442105e-01    6,355048716e-02    0,000000000e+00    0,000000000e+00    0,000000000e+00    0,000000000e+00
     1052000000   -2,876458764e-01    5,000798777e-02   -9,450589120e-02    3,732502162e-01    0,000000000e+00    0,000000000e+00    0,000000000e+00    0,000000000e+00
     1066000000   -1,496219784e-01    2,999403179e-01    1,408451200e-01    1,316316128e-01    0,000000000e+00    0,000000000e+00    0,000000000e+00    0,000000000e+00
     1080000000    1,052345410e-01    2,502958179e-01    9,059396386e-02    2,227350697e-02    0,000000000e+00    0,000000000e+00    0,000000000e+00    0,000000000e+00
     1094000000    2,238237560e-01    8,872756362e-02    6,918159127e-02    1,052953675e-02    0,000000000e+00    0,000000000e+00    0,000000000e+00    0,000000000e+00
     1108000000    2,438176274e-01   -8,578711003e-02    8,011756092e-02   -7,785909111e-04    0,000000000e+00    0,000000000e+00    0,000000000e+00    0,000000000e+00
     1122000000    1,830915362e-01   -2,499770820e-01    1,019108742e-01   -2,651456930e-02    0,000000000e+00    0,000000000e+00    0,000000000e+00    0,000000000e+00
     1136000000    5,151903629e-02   -3,764946759e-01    1,276787072e-01   -7,245834917e-02    0,000000000e+00    0,000000000e+00    0,000000000e+00    0,000000000e+00
     1150000000   -1,521194875e-01   -4,240149558e-01    1,403981149e-01   -1,506234109e-01    0,000000000e+00    0,000000000e+00    0,000000000e+00    0,000000000e+00
     1164000000   -3,813034594e-01   -3,270241618e-01    9,885369241e-02   -2,785176635e-01    0,000000000e+00    0,000000000e+00    0,000000000e+00    0,000000000e+00
     1178000000   -4,650152624e-01   -9,101573378e-02   -1,050723940e-01   -4,036046565e-01    0,000000000e+00    0,000000000e+00    0,000000000e+00    0,000000000e+00
     1192000000   -3,726756871e-01    3,557058424e-02   -4,622441530e-01   -1,988820881e-01    0,000000000e+00    0,000000000e+00    0,000000000e+00    0,000000000e+00
     1206000000   -4,166378677e-01    1,352286935e-01   -2,749924064e-01    2,400145233e-01    0,000000000e+00    0,000000000e+00    0,000000000e+00    0,000000000e+00
     1220000000   -2,739558518e-01    3,309769630e-01   -1,891985594e-04    1,704256982e-01    0,000000000e+00    0,000000000e+00    0,000000000e+00    0,000000000e+00
     1234000000   -4,496602714e-02    3,469268978e-01    2,366279624e-02    5,167032778e-02    0,000000000e+00    0,000000000e+00    0,000000000e+00    0,000000000e+00
     1248000000    1,249619648e-01    2,465320230e-01    6,908202078e-03    2,159587666e-02    0,000000000e+00    0,000000000e+00    0,000000000e+00    0,000000000e+00
     1262000000    2,084389925e-01    1,059275120e-01    3,046601778e-04    2,971077524e-02    0,000000000e+00    0,000000000e+00    0,000000000e+00    0,000000000e+00
     1276000000    2,372548133e-01   -5,447974429e-02    2,713167109e-02    3,651451319e-02    0,000000000e+00    0,000000000e+00    0,000000000e+00    0,000000000e+00
     1290000000    1,951980144e-01   -2,111901343e-01    5,777097866e-02    2,745676413e-02    0,000000000e+00    0,000000000e+00    0,000000000e+00    0,000000000e+00
     1304000000    8,552537858e-02   -3,565988243e-01    8,178240061e-02    8,375172503e-03    0,000000000e+00    0,000000000e+00    0,000000000e+00    0,000000000e+00
     1318000000   -1,025640368e-01   -4,482651949e-01    8,183041960e-02   -1,550089940e-02    0,000000000e+00    0,000000000e+00    0,000000000e+00    0,000000000e+00
     1332000000   -3,592446446e-01   -4,318489134e-01    8,544338495e-02   -8,491116576e-03    0,000000000e+00    0,000000000e+00    0,000000000e+00    0,000000000e+00
     1346000000   -5,905874968e-01   -2,438259423e-01    1,021648422e-01   -2,375859040e-04    0,000000000e+00    0,000000000e+00    0,000000000e+00    0,000000000e+00
     1360000000   -6,524134874e-01    7,045503706e-02    1,427318752e-01   -1,859439537e-02    0,000000000e+00    0,000000000e+00    0,000000000e+00    0,000000000e+00
     1374000000   -4,941543341e-01    3,341416419e-01    1,637140214e-01   -6,086334214e-02    0,000000000e+00    0,000000000e+00    0,000000000e+00    0,000000000e+00
     1388000000   -2,564806640e-01    4,280055165e-01    1,631857604e-01   -7,481029630e-02    0,000000000e+00    0,000000000e+00    0,000000000e+00    0,000000000e+00
     1402000000   -4,903585091e-02    3,909303844e-01    1,355593950e-01   -9,819564223e-02    0,000000000e+00    0,000000000e+00    0,000000000e+00    0,000000000e+00
     1416000000    9,979388118e-02    2,840050161e-01    1,203896776e-01   -8,695285022e-02    0,000000000e+00    0,000000000e+00    0,000000000e+00    0,000000000e+00
     1430000000    1,859033853e-01    1,449116617e-01    9,167346358e-02   -6,979607046e-02    0,000000000e+00    0,000000000e+00    0,000000000e+00    0,000000000e+00
     1444000000    2,139236182e-01   -1,444235630e-02    1,196704283e-01   -3,619484231e-02    0,000000000e+00    0,000000000e+00    0,000000000e+00    0,000000000e+00
     1458000000    1,824281216e-01   -1,809393913e-01    1,515146345e-01    1,638001949e-02    0,000000000e+00    0,000000000e+00    0,000000000e+00    0,000000000e+00
     1472000000    7,127085328e-02   -3,506833911e-01    2,066129744e-01    6,156192720e-02    0,000000000e+00    0,000000000e+00    0,000000000e+00    0,000000000e+00
     1486000000   -1,356677860e-01   -4,669314623e-01    2,955270708e-01    1,031237766e-01    0,000000000e+00    0,000000000e+00    0,000000000e+00    0,000000000e+00
     1500000000   -4,379172027e-01   -4,734846056e-01    4,031516612e-01    6,921795756e-02    0,000000000e+00    0,000000000e+00    0,000000000e+00    0,000000000e+00
