! NanoVNA-App
! Date: 2025-09-25 15:58:06
! Start: 100MHz Stop: 1,5GHz Points: 101
! S-Parameter data: F S11 S21 S12 S22
# Hz S RI R 50
!     Frequency           S11_Real           S11_Imag           S21_Real           S21_Imag           S12_Real           S12_Imag           S22_Real           S22_Imag
      100000000   -2,821972966e-02   -2,841046546e-03    3,722631633e-01   -7,224395871e-01    0,000000000e+00    0,000000000e+00    0,000000000e+00    0,000000000e+00
      114000000   -1,567386277e-02    1,286111120e-02   -9,137456119e-02   -8,047397733e-01    0,000000000e+00    0,000000000e+00    0,000000000e+00    0,000000000e+00
      128000000    4,360489547e-03    1,193886623e-02   -5,158175230e-01   -6,188040376e-01    0,000000000e+00    0,000000000e+00    0,000000000e+00    0,000000000e+00
      142000000    1,549103390e-02   -1,790046226e-03   -7,673223019e-01   -2,341132611e-01    0,000000000e+00    0,000000000e+00    0,000000000e+00    0,000000000e+00
      156000000    1,573226787e-02   -1,285498869e-02   -7,634128928e-01    2,218813747e-01    0,000000000e+00    0,000000000e+00    0,000000000e+00    0,000000000e+00
      170000000    1,763859205e-02   -2,099775709e-02   -5,155689120e-01    6,059088707e-01    0,000000000e+00    0,000000000e+00    0,000000000e+00    0,000000000e+00
      184000000    2,199728414e-02   -3,559985757e-02   -9,839969873e-02    7,862392068e-01    0,000000000e+00    0,000000000e+00    0,000000000e+00    0,000000000e+00
      198000000    1,399127487e-02   -6,066131964e-02    3,459085226e-01    7,109786868e-01    0,000000000e+00    0,000000000e+00    0,000000000e+00    0,000000000e+00
      212000000   -1,766509190e-02   -7,913056761e-02    6,805937886e-01    4,062248170e-01    0,000000000e+00    0,000000000e+00    0,000000000e+00    0,000000000e+00
      226000000   -6,030923873e-02   -6,668032706e-02    7,957201600e-01   -3,557302803e-02    0,000000000e+00    0,000000000e+00    0,000000000e+00    0,000000000e+00
      240000000   -8,055520803e-02   -2,287867106e-02    6,414594650e-01   -4,715707302e-01    0,000000000e+00    0,000000000e+00    0,000000000e+00    0,000000000e+00
      254000000   -6,081771851e-02    1,977415942e-02    2,709410489e-01   -7,419830561e-01    0,000000000e+00    0,000000000e+00    0,000000000e+00    0,000000000e+00
      268000000   -2,087792382e-02    3,090033494e-02   -1,810837984e-01   -7,609720826e-01    0,000000000e+00    0,000000000e+00    0,000000000e+00    0,000000000e+00
      282000000    6,942739245e-03    1,381472498e-02   -5,633022189e-01   -5,324485302e-01    0,000000000e+00    0,000000000e+00    0,000000000e+00    0,000000000e+00
      296000000    1,243696827e-02   -6,191734690e-03   -7,603929043e-01   -1,341017932e-01    0,000000000e+00    0,000000000e+00    0,000000000e+00    0,000000000e+00
      310000000    1,356384531e-02   -1,462301891e-02   -7,080123425e-01    3,034529984e-01    0,000000000e+00    0,000000000e+00    0,000000000e+00    0,000000000e+00
      324000000    2,246607840e-02   -2,476563118e-02   -4,210701585e-01    6,388196945e-01    0,000000000e+00    0,000000000e+00    0,000000000e+00    0,000000000e+00
      338000000    2,842302620e-02   -5,083632842e-02   -3,625817830e-03    7,603012919e-01    0,000000000e+00    0,000000000e+00    0,000000000e+00    0,000000000e+00
      352000000    1,014020015e-02   -8,309163153e-02    4,118357301e-01    6,347042322e-01    0,000000000e+00    0,000000000e+00    0,000000000e+00    0,000000000e+00
      366000000   -3,198781237e-02   -9,360870719e-02    6,925634146e-01    3,040158749e-01    0,000000000e+00    0,000000000e+00    0,000000000e+00    0,000000000e+00
      380000000   -6,737643480e-02   -6,888668984e-02    7,460455894e-01   -1,342893988e-01    0,000000000e+00    0,000000000e+00    0,000000000e+00    0,000000000e+00
      394000000   -6,863964349e-02   -3,041443042e-02    5,403811336e-01   -5,283067226e-01    0,000000000e+00    0,000000000e+00    0,000000000e+00    0,000000000e+00
      408000000   -4,302547127e-02   -1,563567854e-02    1,510070711e-01   -7,344813943e-01    0,000000000e+00    0,000000000e+00    0,000000000e+00    0,000000000e+00
      422000000   -2,631017193e-02   -3,147558868e-02   -2,787446082e-01   -6,896732450e-01    0,000000000e+00    0,000000000e+00    0,000000000e+00    0,000000000e+00
      436000000   -3,932676837e-02   -4,889325052e-02   -6,100380421e-01   -4,200952947e-01    0,000000000e+00    0,000000000e+00    0,000000000e+00    0,000000000e+00
      450000000   -6,450988352e-02   -3,917032480e-02   -7,370287776e-01   -7,756195031e-03    0,000000000e+00    0,000000000e+00    0,000000000e+00    0,000000000e+00
      464000000   -6,760732830e-02   -6,292979699e-03   -6,077310443e-01    4,063899219e-01    0,000000000e+00    0,000000000e+00    0,000000000e+00    0,000000000e+00
      478000000   -3,856054693e-02    1,648814045e-02   -2,676290274e-01    6,697180271e-01    0,000000000e+00    0,000000000e+00    0,000000000e+00    0,000000000e+00
      492000000   -5,206781905e-03    6,094196811e-03    1,519190967e-01    6,951110363e-01    0,000000000e+00    0,000000000e+00    0,000000000e+00    0,000000000e+00
      506000000    6,823397242e-03   -2,009509690e-02    5,079817772e-01    4,884280860e-01    0,000000000e+00    0,000000000e+00    0,000000000e+00    0,000000000e+00
      520000000    3,266085405e-04   -3,855844960e-02    6,895639300e-01    1,197991222e-01    0,000000000e+00    0,000000000e+00    0,000000000e+00    0,000000000e+00
      534000000   -2,999477321e-03   -4,565428942e-02    6,324273348e-01   -2,819751203e-01    0,000000000e+00    0,000000000e+00    0,000000000e+00    0,000000000e+00
      548000000    1,087252283e-03   -5,983534455e-02    3,604656756e-01   -5,794345737e-01    0,000000000e+00    0,000000000e+00    0,000000000e+00    0,000000000e+00
      562000000   -8,089315146e-03   -8,845528215e-02   -2,657323703e-02   -6,723316908e-01    0,000000000e+00    0,000000000e+00    0,000000000e+00    0,000000000e+00
      576000000   -4,536227137e-02   -1,093897223e-01   -4,009409249e-01   -5,381798744e-01    0,000000000e+00    0,000000000e+00    0,000000000e+00    0,000000000e+00
      590000000   -9,470611811e-02   -9,347173572e-02   -6,399920583e-01   -2,163684368e-01    0,000000000e+00    0,000000000e+00    0,000000000e+00    0,000000000e+00
      604000000   -1,117796302e-01   -4,105485231e-02   -6,478274465e-01    1,986084729e-01    0,000000000e+00    0,000000000e+00    0,000000000e+00    0,000000000e+00
      618000000   -7,533629239e-02   -2,502919640e-03   -4,019768536e-01    5,353648067e-01    0,000000000e+00    0,000000000e+00    0,000000000e+00    0,000000000e+00
      632000000   -3,019984625e-02   -2,160884440e-02   -1,303580869e-02    6,554592252e-01    0,000000000e+00    0,000000000e+00    0,000000000e+00    0,000000000e+00
      646000000   -3,635396808e-02   -7,728475332e-02    3,668059409e-01    5,274695158e-01    0,000000000e+00    0,000000000e+00    0,000000000e+00    0,000000000e+00
      660000000   -1,122842133e-01   -9,975173324e-02    6,006969213e-01    1,940044612e-01    0,000000000e+00    0,000000000e+00    0,000000000e+00    0,000000000e+00
      674000000   -1,989666671e-01   -2,379181795e-02    5,648469329e-01   -2,396074980e-01    0,000000000e+00    0,000000000e+00    0,000000000e+00    0,000000000e+00
      688000000   -1,794622689e-01    1,445132941e-01    2,098173797e-01   -5,227153897e-01    0,000000000e+00    0,000000000e+00    0,000000000e+00    0,000000000e+00
      702000000    2,703105099e-02    2,452603728e-01   -1,984024793e-01   -4,033799171e-01    0,000000000e+00    0,000000000e+00    0,000000000e+00    0,000000000e+00
      716000000    2,634994686e-01    1,112610027e-01   -2,731052339e-01   -8,371917903e-02    0,000000000e+00    0,000000000e+00    0,000000000e+00    0,000000000e+00
      730000000    3,039426804e-01   -1,862908304e-01   -1,067084968e-01    3,197701275e-02    0,000000000e+00    0,000000000e+00    0,000000000e+00    0,000000000e+00
      744000000    9,325604141e-02   -4,281224608e-01   -4,210253432e-02   -6,511184573e-02    0,000000000e+00    0,000000000e+00    0,000000000e+00    0,000000000e+00
      758000000   -2,595651746e-01   -4,299579859e-01   -1,757766306e-01   -1,253010780e-01    0,000000000e+00    0,000000000e+00    0,000000000e+00    0,000000000e+00
      772000000   -4,853378832e-01   -1,183309183e-01   -3,363375366e-01    3,798199445e-02    0,000000000e+00    0,000000000e+00    0,000000000e+00    0,000000000e+00
      786000000   -3,424637020e-01    2,220431566e-01   -2,624418437e-01    3,161073923e-01    0,000000000e+00    0,000000000e+00    0,000000000e+00    0,000000000e+00
      800000000   -4,051803797e-02    2,765365243e-01    3,082208801e-03    4,367774725e-01    0,000000000e+00    0,000000000e+00    0,000000000e+00    0,000000000e+00
      814000000    1,444829255e-01    1,253500730e-01    2,639602125e-01    3,594712913e-01    0,000000000e+00    0,000000000e+00    0,000000000e+00    0,000000000e+00
      828000000    1,680247337e-01   -7,027923316e-02    4,327805340e-01    1,567023247e-01    0,000000000e+00    0,000000000e+00    0,000000000e+00    0,000000000e+00
      842000000    6,766891479e-02   -2,188063562e-01    4,661756754e-01   -1,200346649e-01    0,000000000e+00    0,000000000e+00    0,000000000e+00    0,000000000e+00
      856000000   -1,068104506e-01   -2,645749748e-01    3,197904825e-01   -3,946158886e-01    0,000000000e+00    0,000000000e+00    0,000000000e+00    0,000000000e+00
      870000000   -2,750699222e-01   -1,689800620e-01   -2,189456951e-03   -5,268929005e-01    0,000000000e+00    0,000000000e+00    0,000000000e+00    0,000000000e+00
      884000000   -3,198596835e-01    3,554204479e-02   -3,475671709e-01   -3,937161267e-01    0,000000000e+00    0,000000000e+00    0,000000000e+00    0,000000000e+00
      898000000   -1,924324334e-01    2,058521211e-01   -4,895804226e-01   -6,383016706e-02    0,000000000e+00    0,000000000e+00    0,000000000e+00    0,000000000e+00
      912000000    6,432025228e-03    2,188673913e-01   -4,008867741e-01    2,807794213e-01    0,000000000e+00    0,000000000e+00    0,000000000e+00    0,000000000e+00
      926000000    1,509031951e-01    1,120034680e-01   -1,670060605e-01    4,160445333e-01    0,000000000e+00    0,000000000e+00    0,000000000e+00    0,000000000e+00
      940000000    2,009079307e-01   -4,589549825e-02    6,430524588e-02    4,230796695e-01    0,000000000e+00    0,000000000e+00    0,000000000e+00    0,000000000e+00
      954000000    1,516236961e-01   -2,029430270e-01    2,598648071e-01    3,412582576e-01    0,000000000e+00    0,000000000e+00    0,000000000e+00    0,000000000e+00
      968000000    2,406183816e-02   -3,122899234e-01    4,104827344e-01    1,783077717e-01    0,000000000e+00    0,000000000e+00    0,000000000e+00    0,000000000e+00
      982000000   -1,604367197e-01   -3,318885565e-01    4,741905928e-01   -6,508002430e-02    0,000000000e+00    0,000000000e+00    0,000000000e+00    0,000000000e+00
      996000000   -3,216911554e-01   -2,103353143e-01    3,678390682e-01   -3,567284942e-01    0,000000000e+00    0,000000000e+00    0,000000000e+00    0,000000000e+00
     1010000000   -3,388441503e-01   -5,561773665e-03    4,270211980e-02   -5,240738988e-01    0,000000000e+00    0,000000000e+00    0,000000000e+00    0,000000000e+00
     1024000000   -2,049303651e-01    9,085891396e-02   -3,447045088e-01   -3,812446892e-01    0,000000000e+00    0,000000000e+00    0,000000000e+00    0,000000000e+00
     1038000000   -1,317223310e-01    1,093188208e-02   -4,825174809e-01    6,255634129e-02    0,000000000e+00    0,000000000e+00    0,000000000e+00    0,000000000e+00
     1052000000   -2,860894501e-01    5,559532344e-02   -9,672174603e-02    3,732839525e-01    0,000000000e+00    0,000000000e+00    0,000000000e+00    0,000000000e+00
     1066000000   -1,443560123e-01    2,934014797e-01    1,403222084e-01    1,354927868e-01    0,000000000e+00    0,000000000e+00    0,000000000e+00    0,000000000e+00
     1080000000    9,928720444e-02    2,474366575e-01    9,141685069e-02    2,169252560e-02    0,000000000e+00    0,000000000e+00    0,000000000e+00    0,000000000e+00
     1094000000    2,206965983e-01    9,170147777e-02    7,152759284e-02    1,036867872e-02    0,000000000e+00    0,000000000e+00    0,000000000e+00    0,000000000e+00
     1108000000    2,394170761e-01   -8,591096103e-02    8,258836716e-02    6,784210564e-04    0,000000000e+00    0,000000000e+00    0,000000000e+00    0,000000000e+00
     1122000000    1,845133156e-01   -2,523371875e-01    1,055872068e-01   -2,632776089e-02    0,000000000e+00    0,000000000e+00    0,000000000e+00    0,000000000e+00
     1136000000    4,983429983e-02   -3,743904531e-01    1,287690103e-01   -7,476328313e-02    0,000000000e+00    0,000000000e+00    0,000000000e+00    0,000000000e+00
     1150000000   -1,583638638e-01   -4,213777483e-01    1,358435154e-01   -1,529298723e-01    0,000000000e+00    0,000000000e+00    0,000000000e+00    0,000000000e+00
     1164000000   -3,750447929e-01   -3,203411996e-01    9,786672145e-02   -2,772812247e-01    0,000000000e+00    0,000000000e+00    0,000000000e+00    0,000000000e+00
     1178000000   -4,676986933e-01   -8,437293023e-02   -1,047385782e-01   -4,014215171e-01    0,000000000e+00    0,000000000e+00    0,000000000e+00    0,000000000e+00
     1192000000   -3,774522245e-01    3,783143312e-02   -4,645916522e-01   -1,936890930e-01    0,000000000e+00    0,000000000e+00    0,000000000e+00    0,000000000e+00
     1206000000   -4,187752306e-01    1,311150342e-01   -2,747405469e-01    2,368912697e-01    0,000000000e+00    0,000000000e+00    0,000000000e+00    0,000000000e+00
     1220000000   -2,734651566e-01    3,352872431e-01   -1,651030267e-03    1,668770909e-01    0,000000000e+00    0,000000000e+00    0,000000000e+00    0,000000000e+00
     1234000000   -4,578241706e-02    3,450887501e-01    2,439077571e-02    5,406849459e-02    0,000000000e+00    0,000000000e+00    0,000000000e+00    0,000000000e+00
     1248000000    1,188761890e-01    2,490315437e-01   -3,141850233e-03    2,314267866e-02    0,000000000e+00    0,000000000e+00    0,000000000e+00    0,000000000e+00
     1262000000    2,088761479e-01    9,854294360e-02    1,498838421e-03    2,969139628e-02    0,000000000e+00    0,000000000e+00    0,000000000e+00    0,000000000e+00
     1276000000    2,359552532e-01   -5,947403982e-02    2,809921652e-02    3,489716351e-02    0,000000000e+00    0,000000000e+00    0,000000000e+00    0,000000000e+00
     1290000000    1,920347363e-01   -2,140528858e-01    5,389634892e-02    2,779311500e-02    0,000000000e+00    0,000000000e+00    0,000000000e+00    0,000000000e+00
     1304000000    8,163611591e-02   -3,572289646e-01    7,311988622e-02    3,596103983e-03    0,000000000e+00    0,000000000e+00    0,000000000e+00    0,000000000e+00
     1318000000   -1,049124226e-01   -4,525913298e-01    8,471129090e-02   -1,318794210e-02    0,000000000e+00    0,000000000e+00    0,000000000e+00    0,000000000e+00
     1332000000   -3,531073630e-01   -4,403405190e-01    9,002090991e-02   -1,692476682e-02    0,000000000e+00    0,000000000e+00    0,000000000e+00    0,000000000e+00
     1346000000   -5,947090983e-01   -2,506887615e-01    1,044099331e-01   -9,253825992e-03    0,000000000e+00    0,000000000e+00    0,000000000e+00    0,000000000e+00
     1360000000   -6,473845840e-01    7,749014348e-02    1,431119889e-01   -1,204067469e-02    0,000000000e+00    0,000000000e+00    0,000000000e+00    0,000000000e+00
     1374000000   -4,893299937e-01    3,343764544e-01    1,693054736e-01   -4,311919212e-02    0,000000000e+00    0,000000000e+00    0,000000000e+00    0,000000000e+00
     1388000000   -2,497633398e-01    4,241051674e-01    1,700016558e-01   -8,863811195e-02    0,000000000e+00    0,000000000e+00    0,000000000e+00    0,000000000e+00
     1402000000   -3,751923144e-02    3,916199803e-01    1,490715295e-01   -9,396310151e-02    0,000000000e+00    0,000000000e+00    0,000000000e+00    0,000000000e+00
     1416000000    1,033454314e-01    2,848922014e-01    1,277524084e-01   -8,946941048e-02    0,000000000e+00    0,000000000e+00    0,000000000e+00    0,000000000e+00
     1430000000    1,903375685e-01    1,489745826e-01    1,213529333e-01   -6,324721128e-02    0,000000000e+00    0,000000000e+00    0,000000000e+00    0,000000000e+00
     1444000000    2,147236615e-01   -1,080851443e-02    1,218729913e-01   -2,834012546e-02    0,000000000e+00    0,000000000e+00    0,000000000e+00    0,000000000e+00
     1458000000    1,816725284e-01   -1,834745556e-01    1,530507058e-01    1,039541606e-02    0,000000000e+00    0,000000000e+00    0,000000000e+00    0,000000000e+00
     1472000000    6,836458296e-02   -3,502371311e-01    1,961475015e-01    5,137662962e-02    0,000000000e+00    0,000000000e+00    0,000000000e+00    0,000000000e+00
     1486000000   -1,370500773e-01   -4,764235020e-01    2,946204245e-01    8,001696318e-02    0,000000000e+00    0,000000000e+00    0,000000000e+00    0,000000000e+00
     1500000000   -4,495091438e-01   -4,806965590e-01    3,926936686e-01    4,256479815e-02    0,000000000e+00    0,000000000e+00    0,000000000e+00    0,000000000e+00
