! NanoVNA-App
! Date: 2025-09-25 15:59:25
! Start: 100MHz Stop: 1,5GHz Points: 101
! S-Parameter data: F S11 S21 S12 S22
# Hz S RI R 50
!     Frequency           S11_Real           S11_Imag           S21_Real           S21_Imag           S12_Real           S12_Imag           S22_Real           S22_Imag
      100000000   -2,825088985e-02   -2,844325732e-03    3,723109365e-01   -7,224658728e-01    0,000000000e+00    0,000000000e+00    0,000000000e+00    0,000000000e+00
      114000000   -1,570036635e-02    1,289105136e-02   -9,123668820e-02   -8,047439456e-01    0,000000000e+00    0,000000000e+00    0,000000000e+00    0,000000000e+00
      128000000    4,365038127e-03    1,191777084e-02   -5,157824159e-01   -6,185614467e-01    0,000000000e+00    0,000000000e+00    0,000000000e+00    0,000000000e+00
      142000000    1,549998112e-02   -1,745599671e-03   -7,674287558e-01   -2,340238839e-01    0,000000000e+00    0,000000000e+00    0,000000000e+00    0,000000000e+00
      156000000    1,659129746e-02   -1,315251086e-02   -7,645654678e-01    2,249582857e-01    0,000000000e+00    0,000000000e+00    0,000000000e+00    0,000000000e+00
      170000000    1,766946539e-02   -2,103811316e-02   -5,152634978e-01    6,059136987e-01    0,000000000e+00    0,000000000e+00    0,000000000e+00    0,000000000e+00
      184000000    2,204091102e-02   -3,558409587e-02   -9,800200164e-02    7,858534455e-01    0,000000000e+00    0,000000000e+00    0,000000000e+00    0,000000000e+00
      198000000    1,403349452e-02   -6,066837907e-02    3,462364078e-01    7,108136415e-01    0,000000000e+00    0,000000000e+00    0,000000000e+00    0,000000000e+00
      212000000   -1,764197834e-02   -7,914345711e-02    6,807659268e-01    4,061733186e-01    0,000000000e+00    0,000000000e+00    0,000000000e+00    0,000000000e+00
      226000000   -6,029774994e-02   -6,663380563e-02    7,956430912e-01   -3,559991717e-02    0,000000000e+00    0,000000000e+00    0,000000000e+00    0,000000000e+00
      240000000   -8,052374423e-02   -2,274570055e-02    6,415535212e-01   -4,718894362e-01    0,000000000e+00    0,000000000e+00    0,000000000e+00    0,000000000e+00
      254000000   -6,082738563e-02    1,979033649e-02    2,709256411e-01   -7,417514920e-01    0,000000000e+00    0,000000000e+00    0,000000000e+00    0,000000000e+00
      268000000   -2,087959275e-02    3,086604550e-02   -1,809177846e-01   -7,605923414e-01    0,000000000e+00    0,000000000e+00    0,000000000e+00    0,000000000e+00
      282000000    6,970946211e-03    1,382042468e-02   -5,633534193e-01   -5,325853825e-01    0,000000000e+00    0,000000000e+00    0,000000000e+00    0,000000000e+00
      296000000    1,241937187e-02   -6,121878978e-03   -7,603988051e-01   -1,342807114e-01    0,000000000e+00    0,000000000e+00    0,000000000e+00    0,000000000e+00
      310000000    1,356519666e-02   -1,457154751e-02   -7,083445787e-01    3,034639359e-01    0,000000000e+00    0,000000000e+00    0,000000000e+00    0,000000000e+00
      324000000    2,256373130e-02   -2,470309474e-02   -4,221020043e-01    6,400705576e-01    0,000000000e+00    0,000000000e+00    0,000000000e+00    0,000000000e+00
      338000000    2,854822204e-02   -5,085943267e-02   -1,318924362e-03    7,609779239e-01    0,000000000e+00    0,000000000e+00    0,000000000e+00    0,000000000e+00
      352000000    1,018535811e-02   -8,291148394e-02    4,116046429e-01    6,345008612e-01    0,000000000e+00    0,000000000e+00    0,000000000e+00    0,000000000e+00
      366000000   -3,165503964e-02   -9,402289242e-02    6,937460899e-01    3,034130931e-01    0,000000000e+00    0,000000000e+00    0,000000000e+00    0,000000000e+00
      380000000   -6,757424027e-02   -6,874082237e-02    7,453952432e-01   -1,341822147e-01    0,000000000e+00    0,000000000e+00    0,000000000e+00    0,000000000e+00
      394000000   -6,848395616e-02   -3,050201759e-02    5,393518806e-01   -5,286075473e-01    0,000000000e+00    0,000000000e+00    0,000000000e+00    0,000000000e+00
      408000000   -4,286739230e-02   -1,560453605e-02    1,484798491e-01   -7,346222997e-01    0,000000000e+00    0,000000000e+00    0,000000000e+00    0,000000000e+00
      422000000   -2,583769150e-02   -3,115846217e-02   -2,789871097e-01   -6,895053983e-01    0,000000000e+00    0,000000000e+00    0,000000000e+00    0,000000000e+00
      436000000   -3,932213783e-02   -4,892019555e-02   -6,109344363e-01   -4,200188816e-01    0,000000000e+00    0,000000000e+00    0,000000000e+00    0,000000000e+00
      450000000   -6,483880430e-02   -3,885338083e-02   -7,371352315e-01   -7,856286131e-03    0,000000000e+00    0,000000000e+00    0,000000000e+00    0,000000000e+00
      464000000   -6,766141951e-02   -6,028135307e-03   -6,084785461e-01    4,060962796e-01    0,000000000e+00    0,000000000e+00    0,000000000e+00    0,000000000e+00
      478000000   -3,845633194e-02    1,589925960e-02   -2,671863139e-01    6,702534556e-01    0,000000000e+00    0,000000000e+00    0,000000000e+00    0,000000000e+00
      492000000   -5,048329011e-03    6,603892893e-03    1,522344053e-01    6,947643161e-01    0,000000000e+00    0,000000000e+00    0,000000000e+00    0,000000000e+00
      506000000    6,836899091e-03   -1,994281262e-02    5,080435872e-01    4,883842468e-01    0,000000000e+00    0,000000000e+00    0,000000000e+00    0,000000000e+00
      520000000    9,229368879e-04   -3,872049227e-02    6,894572973e-01    1,222618669e-01    0,000000000e+00    0,000000000e+00    0,000000000e+00    0,000000000e+00
      534000000   -3,245747183e-03   -4,561881348e-02    6,322361827e-01   -2,824415863e-01    0,000000000e+00    0,000000000e+00    0,000000000e+00    0,000000000e+00
      548000000    1,132257516e-03   -5,946388841e-02    3,604234457e-01   -5,787706971e-01    0,000000000e+00    0,000000000e+00    0,000000000e+00    0,000000000e+00
      562000000   -7,565826178e-03   -8,894287795e-02   -2,710724622e-02   -6,733434796e-01    0,000000000e+00    0,000000000e+00    0,000000000e+00    0,000000000e+00
      576000000   -4,555407912e-02   -1,094972640e-01   -4,008653164e-01   -5,389271975e-01    0,000000000e+00    0,000000000e+00    0,000000000e+00    0,000000000e+00
      590000000   -9,494918585e-02   -9,350414574e-02   -6,419357061e-01   -2,180572003e-01    0,000000000e+00    0,000000000e+00    0,000000000e+00    0,000000000e+00
      604000000   -1,119245514e-01   -4,121387377e-02   -6,478035450e-01    1,982315779e-01    0,000000000e+00    0,000000000e+00    0,000000000e+00    0,000000000e+00
      618000000   -7,518687844e-02   -1,811886439e-03   -4,018033147e-01    5,365253687e-01    0,000000000e+00    0,000000000e+00    0,000000000e+00    0,000000000e+00
      632000000   -2,968231216e-02   -2,169373631e-02   -1,132522430e-02    6,554011703e-01    0,000000000e+00    0,000000000e+00    0,000000000e+00    0,000000000e+00
      646000000   -3,666608408e-02   -7,637374848e-02    3,647284508e-01    5,277348161e-01    0,000000000e+00    0,000000000e+00    0,000000000e+00    0,000000000e+00
      660000000   -1,121109352e-01   -9,999062121e-02    6,010283828e-01    1,930049509e-01    0,000000000e+00    0,000000000e+00    0,000000000e+00    0,000000000e+00
      674000000   -1,994867325e-01   -2,302222513e-02    5,652310848e-01   -2,397212386e-01    0,000000000e+00    0,000000000e+00    0,000000000e+00    0,000000000e+00
      688000000   -1,781356335e-01    1,439007372e-01    2,103098780e-01   -5,213782787e-01    0,000000000e+00    0,000000000e+00    0,000000000e+00    0,000000000e+00
      702000000    2,731528692e-02    2,445140034e-01   -1,982711256e-01   -4,026500881e-01    0,000000000e+00    0,000000000e+00    0,000000000e+00    0,000000000e+00
      716000000    2,638637424e-01    1,106716543e-01   -2,730983496e-01   -8,374486119e-02    0,000000000e+00    0,000000000e+00    0,000000000e+00    0,000000000e+00
      730000000    3,035691977e-01   -1,863787472e-01   -1,072678566e-01    3,211238235e-02    0,000000000e+00    0,000000000e+00    0,000000000e+00    0,000000000e+00
      744000000    9,421810508e-02   -4,276830852e-01   -4,233472794e-02   -6,521126628e-02    0,000000000e+00    0,000000000e+00    0,000000000e+00    0,000000000e+00
      758000000   -2,594867647e-01   -4,295332134e-01   -1,760943830e-01   -1,252998561e-01    0,000000000e+00    0,000000000e+00    0,000000000e+00    0,000000000e+00
      772000000   -4,852735400e-01   -1,205144674e-01   -3,360664845e-01    3,857626766e-02    0,000000000e+00    0,000000000e+00    0,000000000e+00    0,000000000e+00
      786000000   -3,412489891e-01    2,221105248e-01   -2,620742023e-01    3,161641955e-01    0,000000000e+00    0,000000000e+00    0,000000000e+00    0,000000000e+00
      800000000   -4,091785476e-02    2,769823968e-01    2,456923714e-03    4,371046722e-01    0,000000000e+00    0,000000000e+00    0,000000000e+00    0,000000000e+00
      814000000    1,444189996e-01    1,252349615e-01    2,634976208e-01    3,589392006e-01    0,000000000e+00    0,000000000e+00    0,000000000e+00    0,000000000e+00
      828000000    1,676032692e-01   -7,016673684e-02    4,333075583e-01    1,568569839e-01    0,000000000e+00    0,000000000e+00    0,000000000e+00    0,000000000e+00
      842000000    6,698628515e-02   -2,186255604e-01    4,661792815e-01   -1,204163358e-01    0,000000000e+00    0,000000000e+00    0,000000000e+00    0,000000000e+00
      856000000   -1,064844579e-01   -2,636668980e-01    3,196064532e-01   -3,941828310e-01    0,000000000e+00    0,000000000e+00    0,000000000e+00    0,000000000e+00
      870000000   -2,741429806e-01   -1,683585197e-01   -2,072985284e-03   -5,264635682e-01    0,000000000e+00    0,000000000e+00    0,000000000e+00    0,000000000e+00
      884000000   -3,208699524e-01    3,533896059e-02   -3,488241434e-01   -3,934357464e-01    0,000000000e+00    0,000000000e+00    0,000000000e+00    0,000000000e+00
      898000000   -1,917963177e-01    2,066102624e-01   -4,883068204e-01   -6,282803416e-02    0,000000000e+00    0,000000000e+00    0,000000000e+00    0,000000000e+00
      912000000    7,607548032e-03    2,189197838e-01   -4,101243913e-01    2,757574320e-01    0,000000000e+00    0,000000000e+00    0,000000000e+00    0,000000000e+00
      926000000    1,513643712e-01    1,121656597e-01   -1,677812636e-01    4,172538817e-01    0,000000000e+00    0,000000000e+00    0,000000000e+00    0,000000000e+00
      940000000    1,995668113e-01   -4,418237507e-02    6,430136412e-02    4,253522456e-01    0,000000000e+00    0,000000000e+00    0,000000000e+00    0,000000000e+00
      954000000    1,531991661e-01   -2,044423968e-01    2,612114251e-01    3,391821086e-01    0,000000000e+00    0,000000000e+00    0,000000000e+00    0,000000000e+00
      968000000    2,643598802e-02   -3,161601424e-01    4,126027822e-01    1,786722094e-01    0,000000000e+00    0,000000000e+00    0,000000000e+00    0,000000000e+00
      982000000   -1,594393253e-01   -3,297719359e-01    4,740159512e-01   -6,651791185e-02    0,000000000e+00    0,000000000e+00    0,000000000e+00    0,000000000e+00
      996000000   -3,266058862e-01   -2,107499391e-01    3,675682843e-01   -3,565820754e-01    0,000000000e+00    0,000000000e+00    0,000000000e+00    0,000000000e+00
     1010000000   -3,418367803e-01   -5,213360302e-03    4,337169230e-02   -5,256744623e-01    0,000000000e+00    0,000000000e+00    0,000000000e+00    0,000000000e+00
     1024000000   -2,082646936e-01    9,318894893e-02   -3,475843370e-01   -3,817556798e-01    0,000000000e+00    0,000000000e+00    0,000000000e+00    0,000000000e+00
     1038000000   -1,369096935e-01    6,764163729e-03   -4,836676717e-01    6,404683739e-02    0,000000000e+00    0,000000000e+00    0,000000000e+00    0,000000000e+00
     1052000000   -2,902582586e-01    5,195093155e-02   -9,377931803e-02    3,734396100e-01    0,000000000e+00    0,000000000e+00    0,000000000e+00    0,000000000e+00
     1066000000   -1,468175054e-01    2,929935455e-01    1,418374330e-01    1,316562742e-01    0,000000000e+00    0,000000000e+00    0,000000000e+00    0,000000000e+00
     1080000000    9,638199955e-02    2,511619627e-01    9,105364233e-02    2,152122930e-02    0,000000000e+00    0,000000000e+00    0,000000000e+00    0,000000000e+00
     1094000000    2,193650007e-01    8,518943936e-02    6,931689382e-02    9,614434093e-03    0,000000000e+00    0,000000000e+00    0,000000000e+00    0,000000000e+00
     1108000000    2,406468689e-01   -8,995347470e-02    8,126164973e-02    9,673176100e-04    0,000000000e+00    0,000000000e+00    0,000000000e+00    0,000000000e+00
     1122000000    1,858547777e-01   -2,530704141e-01    1,034612283e-01   -2,780913003e-02    0,000000000e+00    0,000000000e+00    0,000000000e+00    0,000000000e+00
     1136000000    4,790024459e-02   -3,766830862e-01    1,269419640e-01   -7,302881777e-02    0,000000000e+00    0,000000000e+00    0,000000000e+00    0,000000000e+00
     1150000000   -1,520262808e-01   -4,208133221e-01    1,370002925e-01   -1,509018391e-01    0,000000000e+00    0,000000000e+00    0,000000000e+00    0,000000000e+00
     1164000000   -3,763594925e-01   -3,199449778e-01    9,653206915e-02   -2,790683806e-01    0,000000000e+00    0,000000000e+00    0,000000000e+00    0,000000000e+00
     1178000000   -4,665988386e-01   -8,291438222e-02   -1,093030721e-01   -4,050313532e-01    0,000000000e+00    0,000000000e+00    0,000000000e+00    0,000000000e+00
     1192000000   -3,747063577e-01    3,963460028e-02   -4,629115164e-01   -1,952410340e-01    0,000000000e+00    0,000000000e+00    0,000000000e+00    0,000000000e+00
     1206000000   -4,115930498e-01    1,338832527e-01   -2,736966908e-01    2,378304452e-01    0,000000000e+00    0,000000000e+00    0,000000000e+00    0,000000000e+00
     1220000000   -2,725611329e-01    3,340523839e-01   -3,167514922e-03    1,665436029e-01    0,000000000e+00    0,000000000e+00    0,000000000e+00    0,000000000e+00
     1234000000   -4,826939479e-02    3,520684540e-01    2,140689269e-02    5,866299570e-02    0,000000000e+00    0,000000000e+00    0,000000000e+00    0,000000000e+00
     1248000000    1,166908145e-01    2,477823794e-01    7,090150844e-03    2,377493680e-02    0,000000000e+00    0,000000000e+00    0,000000000e+00    0,000000000e+00
     1262000000    2,122163922e-01    1,064515933e-01    3,582378384e-03    3,376207873e-02    0,000000000e+00    0,000000000e+00    0,000000000e+00    0,000000000e+00
     1276000000    2,316522300e-01   -5,612446740e-02    2,379668877e-02    3,567201644e-02    0,000000000e+00    0,000000000e+00    0,000000000e+00    0,000000000e+00
     1290000000    1,950549781e-01   -2,161107212e-01    5,859685689e-02    2,713442221e-02    0,000000000e+00    0,000000000e+00    0,000000000e+00    0,000000000e+00
     1304000000    8,679907769e-02   -3,557802737e-01    7,953448594e-02    6,446941290e-03    0,000000000e+00    0,000000000e+00    0,000000000e+00    0,000000000e+00
     1318000000   -1,037899181e-01   -4,436113834e-01    7,955740392e-02   -9,397565387e-03    0,000000000e+00    0,000000000e+00    0,000000000e+00    0,000000000e+00
     1332000000   -3,604546785e-01   -4,311854839e-01    8,154211193e-02   -1,140045375e-02    0,000000000e+00    0,000000000e+00    0,000000000e+00    0,000000000e+00
     1346000000   -5,928216577e-01   -2,459560782e-01    1,037272662e-01   -1,871404983e-02    0,000000000e+00    0,000000000e+00    0,000000000e+00    0,000000000e+00
     1360000000   -6,481956840e-01    7,587760687e-02    1,451618969e-01   -1,073026378e-02    0,000000000e+00    0,000000000e+00    0,000000000e+00    0,000000000e+00
     1374000000   -4,929286838e-01    3,322950304e-01    1,763872802e-01   -4,912276566e-02    0,000000000e+00    0,000000000e+00    0,000000000e+00    0,000000000e+00
     1388000000   -2,473710179e-01    4,257886410e-01    1,659869403e-01   -8,518453687e-02    0,000000000e+00    0,000000000e+00    0,000000000e+00    0,000000000e+00
     1402000000   -4,376292974e-02    3,920846879e-01    1,477620304e-01   -9,252332896e-02    0,000000000e+00    0,000000000e+00    0,000000000e+00    0,000000000e+00
     1416000000    9,775868803e-02    2,932300866e-01    1,207171008e-01   -7,904237509e-02    0,000000000e+00    0,000000000e+00    0,000000000e+00    0,000000000e+00
     1430000000    1,967991740e-01    1,445694417e-01    1,322900653e-01   -8,735144138e-02    0,000000000e+00    0,000000000e+00    0,000000000e+00    0,000000000e+00
     1444000000    2,139732242e-01   -1,297930907e-02    1,157478392e-01   -2,837457322e-02    0,000000000e+00    0,000000000e+00    0,000000000e+00    0,000000000e+00
     1458000000    1,807457656e-01   -1,859492809e-01    1,534943432e-01    8,278346621e-03    0,000000000e+00    0,000000000e+00    0,000000000e+00    0,000000000e+00
     1472000000    6,147143990e-02   -3,477072716e-01    1,893671602e-01    5,377563834e-02    0,000000000e+00    0,000000000e+00    0,000000000e+00    0,000000000e+00
     1486000000   -1,354781538e-01   -4,775762856e-01    2,981188297e-01    9,136097133e-02    0,000000000e+00    0,000000000e+00    0,000000000e+00    0,000000000e+00
     1500000000   -4,359290600e-01   -4,795987606e-01    3,962437212e-01    5,023330078e-02    0,000000000e+00    0,000000000e+00    0,000000000e+00    0,000000000e+00
