! NanoVNA-App
! Date: 2025-09-25 15:57:46
! Start: 100MHz Stop: 1,5GHz Points: 101
! S-Parameter data: F S11 S21 S12 S22
# Hz S RI R 50
!     Frequency           S11_Real           S11_Imag           S21_Real           S21_Imag           S12_Real           S12_Imag           S22_Real           S22_Imag
      100000000   -2,822561190e-02   -2,837384585e-03    3,722634017e-01   -7,224784493e-01    0,000000000e+00    0,000000000e+00    0,000000000e+00    0,000000000e+00
      114000000   -1,565701887e-02    1,287847292e-02   -9,137648344e-02   -8,047475219e-01    0,000000000e+00    0,000000000e+00    0,000000000e+00    0,000000000e+00
      128000000    4,427232314e-03    1,186710410e-02   -5,158733726e-01   -6,187047958e-01    0,000000000e+00    0,000000000e+00    0,000000000e+00    0,000000000e+00
      142000000    1,548788697e-02   -1,809917274e-03   -7,673624158e-01   -2,342088521e-01    0,000000000e+00    0,000000000e+00    0,000000000e+00    0,000000000e+00
      156000000    1,695481315e-02   -1,350425370e-02   -7,657363415e-01    2,262244374e-01    0,000000000e+00    0,000000000e+00    0,000000000e+00    0,000000000e+00
      170000000    1,763182133e-02   -2,099496871e-02   -5,155410171e-01    6,063903570e-01    0,000000000e+00    0,000000000e+00    0,000000000e+00    0,000000000e+00
      184000000    2,200025320e-02   -3,555983678e-02   -9,835580736e-02    7,864856124e-01    0,000000000e+00    0,000000000e+00    0,000000000e+00    0,000000000e+00
      198000000    1,403621025e-02   -6,062319130e-02    3,460492790e-01    7,108736634e-01    0,000000000e+00    0,000000000e+00    0,000000000e+00    0,000000000e+00
      212000000   -1,769256033e-02   -7,910288870e-02    6,807913184e-01    4,062159061e-01    0,000000000e+00    0,000000000e+00    0,000000000e+00    0,000000000e+00
      226000000   -6,035747752e-02   -6,661731005e-02    7,957994938e-01   -3,567433357e-02    0,000000000e+00    0,000000000e+00    0,000000000e+00    0,000000000e+00
      240000000   -8,051235974e-02   -2,278280258e-02    6,414006948e-01   -4,716969132e-01    0,000000000e+00    0,000000000e+00    0,000000000e+00    0,000000000e+00
      254000000   -6,078798696e-02    1,974084601e-02    2,709402442e-01   -7,420759797e-01    0,000000000e+00    0,000000000e+00    0,000000000e+00    0,000000000e+00
      268000000   -2,096673846e-02    3,087918274e-02   -1,813082993e-01   -7,606450319e-01    0,000000000e+00    0,000000000e+00    0,000000000e+00    0,000000000e+00
      282000000    6,902041845e-03    1,369611733e-02   -5,634459257e-01   -5,322726965e-01    0,000000000e+00    0,000000000e+00    0,000000000e+00    0,000000000e+00
      296000000    1,243066881e-02   -6,328262854e-03   -7,604412436e-01   -1,343457103e-01    0,000000000e+00    0,000000000e+00    0,000000000e+00    0,000000000e+00
      310000000    1,368445996e-02   -1,466549933e-02   -7,077903152e-01    3,039903343e-01    0,000000000e+00    0,000000000e+00    0,000000000e+00    0,000000000e+00
      324000000    2,250498533e-02   -2,478837036e-02   -4,211843014e-01    6,395772099e-01    0,000000000e+00    0,000000000e+00    0,000000000e+00    0,000000000e+00
      338000000    2,833844908e-02   -5,078977346e-02   -5,013637710e-03    7,614228725e-01    0,000000000e+00    0,000000000e+00    0,000000000e+00    0,000000000e+00
      352000000    1,020667143e-02   -8,274865150e-02    4,112743139e-01    6,357066035e-01    0,000000000e+00    0,000000000e+00    0,000000000e+00    0,000000000e+00
      366000000   -3,191835433e-02   -9,399789572e-02    6,927861571e-01    3,039957583e-01    0,000000000e+00    0,000000000e+00    0,000000000e+00    0,000000000e+00
      380000000   -6,752590090e-02   -6,861681491e-02    7,459518909e-01   -1,341347694e-01    0,000000000e+00    0,000000000e+00    0,000000000e+00    0,000000000e+00
      394000000   -6,858150661e-02   -3,043280356e-02    5,397466421e-01   -5,277782083e-01    0,000000000e+00    0,000000000e+00    0,000000000e+00    0,000000000e+00
      408000000   -4,282121733e-02   -1,566180959e-02    1,512586772e-01   -7,328975201e-01    0,000000000e+00    0,000000000e+00    0,000000000e+00    0,000000000e+00
      422000000   -2,590980940e-02   -3,104631044e-02   -2,791670263e-01   -6,903927326e-01    0,000000000e+00    0,000000000e+00    0,000000000e+00    0,000000000e+00
      436000000   -3,941391781e-02   -4,917506501e-02   -6,100670695e-01   -4,201569557e-01    0,000000000e+00    0,000000000e+00    0,000000000e+00    0,000000000e+00
      450000000   -6,450119615e-02   -3,916547075e-02   -7,367092967e-01   -7,645693142e-03    0,000000000e+00    0,000000000e+00    0,000000000e+00    0,000000000e+00
      464000000   -6,747742742e-02   -6,442639045e-03   -6,076045632e-01    4,065111279e-01    0,000000000e+00    0,000000000e+00    0,000000000e+00    0,000000000e+00
      478000000   -3,890811279e-02    1,588772610e-02   -2,671021223e-01    6,698384285e-01    0,000000000e+00    0,000000000e+00    0,000000000e+00    0,000000000e+00
      492000000   -5,121562164e-03    6,485324819e-03    1,517107487e-01    6,951812506e-01    0,000000000e+00    0,000000000e+00    0,000000000e+00    0,000000000e+00
      506000000    7,075872738e-03   -2,043363638e-02    5,076376200e-01    4,878444970e-01    0,000000000e+00    0,000000000e+00    0,000000000e+00    0,000000000e+00
      520000000    1,011278830e-03   -3,884875402e-02    6,907220483e-01    1,229399070e-01    0,000000000e+00    0,000000000e+00    0,000000000e+00    0,000000000e+00
      534000000   -2,875239123e-03   -4,540970176e-02    6,328406930e-01   -2,822173238e-01    0,000000000e+00    0,000000000e+00    0,000000000e+00    0,000000000e+00
      548000000    1,199865714e-03   -6,005398184e-02    3,600237966e-01   -5,793190002e-01    0,000000000e+00    0,000000000e+00    0,000000000e+00    0,000000000e+00
      562000000   -7,748064119e-03   -8,847826719e-02   -2,638864703e-02   -6,738131642e-01    0,000000000e+00    0,000000000e+00    0,000000000e+00    0,000000000e+00
      576000000   -4,526704550e-02   -1,095303819e-01   -4,012337327e-01   -5,384607911e-01    0,000000000e+00    0,000000000e+00    0,000000000e+00    0,000000000e+00
      590000000   -9,470096231e-02   -9,345623106e-02   -6,414504647e-01   -2,170682549e-01    0,000000000e+00    0,000000000e+00    0,000000000e+00    0,000000000e+00
      604000000   -1,119535416e-01   -4,106766731e-02   -6,474918127e-01    1,987879127e-01    0,000000000e+00    0,000000000e+00    0,000000000e+00    0,000000000e+00
      618000000   -7,630228996e-02   -2,711680252e-03   -4,019842744e-01    5,352853537e-01    0,000000000e+00    0,000000000e+00    0,000000000e+00    0,000000000e+00
      632000000   -2,975017950e-02   -2,074026689e-02   -1,067930553e-02    6,554349661e-01    0,000000000e+00    0,000000000e+00    0,000000000e+00    0,000000000e+00
      646000000   -3,644122556e-02   -7,624205947e-02    3,652903438e-01    5,268545151e-01    0,000000000e+00    0,000000000e+00    0,000000000e+00    0,000000000e+00
      660000000   -1,107598022e-01   -9,999074787e-02    6,009340882e-01    1,928849816e-01    0,000000000e+00    0,000000000e+00    0,000000000e+00    0,000000000e+00
      674000000   -1,990739703e-01   -2,366587333e-02    5,656273365e-01   -2,400188595e-01    0,000000000e+00    0,000000000e+00    0,000000000e+00    0,000000000e+00
      688000000   -1,794670522e-01    1,443101019e-01    2,090750784e-01   -5,211220980e-01    0,000000000e+00    0,000000000e+00    0,000000000e+00    0,000000000e+00
      702000000    2,437646315e-02    2,465714365e-01   -1,981361508e-01   -4,103114903e-01    0,000000000e+00    0,000000000e+00    0,000000000e+00    0,000000000e+00
      716000000    2,634821236e-01    1,107017919e-01   -2,723333836e-01   -8,349909633e-02    0,000000000e+00    0,000000000e+00    0,000000000e+00    0,000000000e+00
      730000000    3,035719991e-01   -1,860861033e-01   -1,066289917e-01    3,169220686e-02    0,000000000e+00    0,000000000e+00    0,000000000e+00    0,000000000e+00
      744000000    9,353445470e-02   -4,278883338e-01   -4,259128869e-02   -6,564734876e-02    0,000000000e+00    0,000000000e+00    0,000000000e+00    0,000000000e+00
      758000000   -2,595449388e-01   -4,283654094e-01   -1,761460602e-01   -1,256617904e-01    0,000000000e+00    0,000000000e+00    0,000000000e+00    0,000000000e+00
      772000000   -4,842330515e-01   -1,200707778e-01   -3,366613984e-01    3,867416829e-02    0,000000000e+00    0,000000000e+00    0,000000000e+00    0,000000000e+00
      786000000   -3,421675563e-01    2,208885998e-01   -2,627164423e-01    3,169279397e-01    0,000000000e+00    0,000000000e+00    0,000000000e+00    0,000000000e+00
      800000000   -4,023258388e-02    2,768880725e-01    2,824013121e-03    4,365628958e-01    0,000000000e+00    0,000000000e+00    0,000000000e+00    0,000000000e+00
      814000000    1,441718340e-01    1,253183633e-01    2,650180459e-01    3,608250916e-01    0,000000000e+00    0,000000000e+00    0,000000000e+00    0,000000000e+00
      828000000    1,677232832e-01   -6,996125728e-02    4,324877858e-01    1,571211964e-01    0,000000000e+00    0,000000000e+00    0,000000000e+00    0,000000000e+00
      842000000    6,685399264e-02   -2,180134952e-01    4,667149782e-01   -1,209314764e-01    0,000000000e+00    0,000000000e+00    0,000000000e+00    0,000000000e+00
      856000000   -1,061005965e-01   -2,631736100e-01    3,195880055e-01   -3,949346542e-01    0,000000000e+00    0,000000000e+00    0,000000000e+00    0,000000000e+00
      870000000   -2,743110657e-01   -1,690500379e-01   -3,395312233e-03   -5,274640322e-01    0,000000000e+00    0,000000000e+00    0,000000000e+00    0,000000000e+00
      884000000   -3,197233677e-01    3,497840837e-02   -3,480873704e-01   -3,933895528e-01    0,000000000e+00    0,000000000e+00    0,000000000e+00    0,000000000e+00
      898000000   -1,914910525e-01    2,060816139e-01   -4,887434840e-01   -6,290777773e-02    0,000000000e+00    0,000000000e+00    0,000000000e+00    0,000000000e+00
      912000000    6,844676100e-03    2,181452662e-01   -4,096945822e-01    2,743049562e-01    0,000000000e+00    0,000000000e+00    0,000000000e+00    0,000000000e+00
      926000000    1,504733115e-01    1,142809764e-01   -1,687480360e-01    4,186976552e-01    0,000000000e+00    0,000000000e+00    0,000000000e+00    0,000000000e+00
      940000000    1,969997287e-01   -4,446909577e-02    6,250734627e-02    4,276480079e-01    0,000000000e+00    0,000000000e+00    0,000000000e+00    0,000000000e+00
      954000000    1,508764923e-01   -2,012504637e-01    2,602424324e-01    3,418114185e-01    0,000000000e+00    0,000000000e+00    0,000000000e+00    0,000000000e+00
      968000000    2,605765127e-02   -3,132269681e-01    4,098354280e-01    1,787686646e-01    0,000000000e+00    0,000000000e+00    0,000000000e+00    0,000000000e+00
      982000000   -1,607454568e-01   -3,295110464e-01    4,757665098e-01   -6,468935311e-02    0,000000000e+00    0,000000000e+00    0,000000000e+00    0,000000000e+00
      996000000   -3,236764371e-01   -2,119764686e-01    3,684874177e-01   -3,564989567e-01    0,000000000e+00    0,000000000e+00    0,000000000e+00    0,000000000e+00
     1010000000   -3,375260532e-01   -7,434751373e-03    4,426830262e-02   -5,254849792e-01    0,000000000e+00    0,000000000e+00    0,000000000e+00    0,000000000e+00
     1024000000   -2,088947743e-01    9,197289497e-02   -3,436917961e-01   -3,791323304e-01    0,000000000e+00    0,000000000e+00    0,000000000e+00    0,000000000e+00
     1038000000   -1,366305202e-01    1,295862813e-02   -4,830828309e-01    6,134582311e-02    0,000000000e+00    0,000000000e+00    0,000000000e+00    0,000000000e+00
     1052000000   -2,900816798e-01    5,519882590e-02   -9,540042281e-02    3,724716604e-01    0,000000000e+00    0,000000000e+00    0,000000000e+00    0,000000000e+00
     1066000000   -1,447128206e-01    2,906667292e-01    1,387460083e-01    1,348449886e-01    0,000000000e+00    0,000000000e+00    0,000000000e+00    0,000000000e+00
     1080000000    9,751760215e-02    2,483764887e-01    9,115049988e-02    2,184731700e-02    0,000000000e+00    0,000000000e+00    0,000000000e+00    0,000000000e+00
     1094000000    2,233193070e-01    9,132944793e-02    6,921866536e-02    9,644494392e-03    0,000000000e+00    0,000000000e+00    0,000000000e+00    0,000000000e+00
     1108000000    2,418346703e-01   -8,922450989e-02    8,174768090e-02   -1,334988046e-03    0,000000000e+00    0,000000000e+00    0,000000000e+00    0,000000000e+00
     1122000000    1,858505756e-01   -2,535198331e-01    1,035003141e-01   -2,682738006e-02    0,000000000e+00    0,000000000e+00    0,000000000e+00    0,000000000e+00
     1136000000    5,234516785e-02   -3,762989342e-01    1,262049973e-01   -7,320778072e-02    0,000000000e+00    0,000000000e+00    0,000000000e+00    0,000000000e+00
     1150000000   -1,546292752e-01   -4,263089895e-01    1,367994547e-01   -1,521486342e-01    0,000000000e+00    0,000000000e+00    0,000000000e+00    0,000000000e+00
     1164000000   -3,735006750e-01   -3,245756924e-01    9,575299174e-02   -2,771007717e-01    0,000000000e+00    0,000000000e+00    0,000000000e+00    0,000000000e+00
     1178000000   -4,606877565e-01   -8,482935280e-02   -1,059778035e-01   -4,061636925e-01    0,000000000e+00    0,000000000e+00    0,000000000e+00    0,000000000e+00
     1192000000   -3,728684187e-01    3,417355195e-02   -4,611196816e-01   -2,009338289e-01    0,000000000e+00    0,000000000e+00    0,000000000e+00    0,000000000e+00
     1206000000   -4,174074233e-01    1,349858195e-01   -2,745494545e-01    2,339567542e-01    0,000000000e+00    0,000000000e+00    0,000000000e+00    0,000000000e+00
     1220000000   -2,722733319e-01    3,325461149e-01   -4,404538311e-03    1,669186950e-01    0,000000000e+00    0,000000000e+00    0,000000000e+00    0,000000000e+00
     1234000000   -4,623421282e-02    3,426456749e-01    2,272536792e-02    5,207667872e-02    0,000000000e+00    0,000000000e+00    0,000000000e+00    0,000000000e+00
     1248000000    1,204509288e-01    2,480436713e-01    1,671155798e-03    2,415255085e-02    0,000000000e+00    0,000000000e+00    0,000000000e+00    0,000000000e+00
     1262000000    2,081368864e-01    1,002717465e-01    1,372747123e-03    3,269102052e-02    0,000000000e+00    0,000000000e+00    0,000000000e+00    0,000000000e+00
     1276000000    2,326612622e-01   -5,552807450e-02    2,742154151e-02    4,021590576e-02    0,000000000e+00    0,000000000e+00    0,000000000e+00    0,000000000e+00
     1290000000    1,905682385e-01   -2,146112323e-01    5,075186491e-02    2,539343201e-02    0,000000000e+00    0,000000000e+00    0,000000000e+00    0,000000000e+00
     1304000000    8,237786591e-02   -3,556307554e-01    7,331649959e-02    2,112193033e-03    0,000000000e+00    0,000000000e+00    0,000000000e+00    0,000000000e+00
     1318000000   -1,045612469e-01   -4,434878230e-01    8,414480090e-02   -9,519545361e-03    0,000000000e+00    0,000000000e+00    0,000000000e+00    0,000000000e+00
     1332000000   -3,591313064e-01   -4,358549714e-01    8,102307469e-02   -1,719001494e-02    0,000000000e+00    0,000000000e+00    0,000000000e+00    0,000000000e+00
     1346000000   -5,957831740e-01   -2,505536377e-01    9,906664491e-02   -1,184887812e-02    0,000000000e+00    0,000000000e+00    0,000000000e+00    0,000000000e+00
     1360000000   -6,456723213e-01    7,218001038e-02    1,484262049e-01   -1,112447865e-02    0,000000000e+00    0,000000000e+00    0,000000000e+00    0,000000000e+00
     1374000000   -4,917244017e-01    3,339399397e-01    1,668369323e-01   -4,989226162e-02    0,000000000e+00    0,000000000e+00    0,000000000e+00    0,000000000e+00
     1388000000   -2,557495832e-01    4,289072454e-01    1,586736441e-01   -8,355267346e-02    0,000000000e+00    0,000000000e+00    0,000000000e+00    0,000000000e+00
     1402000000   -4,142848775e-02    3,849596381e-01    1,373399049e-01   -1,015182808e-01    0,000000000e+00    0,000000000e+00    0,000000000e+00    0,000000000e+00
     1416000000    9,761821479e-02    2,887485921e-01    1,215148643e-01   -8,103763312e-02    0,000000000e+00    0,000000000e+00    0,000000000e+00    0,000000000e+00
     1430000000    1,791889668e-01    1,468192786e-01    1,195135415e-01   -4,081281275e-02    0,000000000e+00    0,000000000e+00    0,000000000e+00    0,000000000e+00
     1444000000    2,170415372e-01   -9,584540501e-03    1,287917048e-01   -2,485308796e-02    0,000000000e+00    0,000000000e+00    0,000000000e+00    0,000000000e+00
     1458000000    1,774253696e-01   -1,854065210e-01    1,350784153e-01    1,372234151e-02    0,000000000e+00    0,000000000e+00    0,000000000e+00    0,000000000e+00
     1472000000    6,756921113e-02   -3,535322845e-01    1,972931921e-01    5,487423763e-02    0,000000000e+00    0,000000000e+00    0,000000000e+00    0,000000000e+00
     1486000000   -1,262953877e-01   -4,722700417e-01    3,025565743e-01    8,439609408e-02    0,000000000e+00    0,000000000e+00    0,000000000e+00    0,000000000e+00
     1500000000   -4,462084770e-01   -4,719435275e-01    4,055816829e-01    5,916908383e-02    0,000000000e+00    0,000000000e+00    0,000000000e+00    0,000000000e+00
