! NanoVNA-App
! Date: 2025-09-25 15:57:56
! Start: 100MHz Stop: 1,5GHz Points: 101
! S-Parameter data: F S11 S21 S12 S22
# Hz S RI R 50
!     Frequency           S11_Real           S11_Imag           S21_Real           S21_Imag           S12_Real           S12_Imag           S22_Real           S22_Imag
      100000000   -2,822299860e-02   -2,835329156e-03    3,722715676e-01   -7,225163579e-01    0,000000000e+00    0,000000000e+00    0,000000000e+00    0,000000000e+00
      114000000   -1,566521823e-02    1,291755307e-02   -9,138320386e-02   -8,047970533e-01    0,000000000e+00    0,000000000e+00    0,000000000e+00    0,000000000e+00
      128000000    4,424247425e-03    1,185656432e-02   -5,158043504e-01   -6,187863946e-01    0,000000000e+00    0,000000000e+00    0,000000000e+00    0,000000000e+00
      142000000    1,548971701e-02   -1,802051789e-03   -7,674779892e-01   -2,341955155e-01    0,000000000e+00    0,000000000e+00    0,000000000e+00    0,000000000e+00
      156000000    1,661603153e-02   -1,316637266e-02   -7,645018101e-01    2,250089049e-01    0,000000000e+00    0,000000000e+00    0,000000000e+00    0,000000000e+00
      170000000    1,764730364e-02   -2,099873871e-02   -5,152696371e-01    6,058684587e-01    0,000000000e+00    0,000000000e+00    0,000000000e+00    0,000000000e+00
      184000000    2,201149799e-02   -3,556149080e-02   -9,797684103e-02    7,861475945e-01    0,000000000e+00    0,000000000e+00    0,000000000e+00    0,000000000e+00
      198000000    1,400240138e-02   -6,065533310e-02    3,458817005e-01    7,106869817e-01    0,000000000e+00    0,000000000e+00    0,000000000e+00    0,000000000e+00
      212000000   -1,766867563e-02   -7,910197973e-02    6,807186604e-01    4,063847959e-01    0,000000000e+00    0,000000000e+00    0,000000000e+00    0,000000000e+00
      226000000   -6,029135734e-02   -6,662756205e-02    7,957429886e-01   -3,575075790e-02    0,000000000e+00    0,000000000e+00    0,000000000e+00    0,000000000e+00
      240000000   -8,055082709e-02   -2,275932953e-02    6,416200399e-01   -4,716349840e-01    0,000000000e+00    0,000000000e+00    0,000000000e+00    0,000000000e+00
      254000000   -6,085865200e-02    1,976816542e-02    2,712343335e-01   -7,421617508e-01    0,000000000e+00    0,000000000e+00    0,000000000e+00    0,000000000e+00
      268000000   -2,094093896e-02    3,091154248e-02   -1,811482012e-01   -7,609319687e-01    0,000000000e+00    0,000000000e+00    0,000000000e+00    0,000000000e+00
      282000000    6,895426661e-03    1,374947559e-02   -5,631277561e-01   -5,322526097e-01    0,000000000e+00    0,000000000e+00    0,000000000e+00    0,000000000e+00
      296000000    1,244021766e-02   -6,399657577e-03   -7,605028749e-01   -1,342079937e-01    0,000000000e+00    0,000000000e+00    0,000000000e+00    0,000000000e+00
      310000000    1,359969936e-02   -1,460222993e-02   -7,090530992e-01    3,048826456e-01    0,000000000e+00    0,000000000e+00    0,000000000e+00    0,000000000e+00
      324000000    2,243182994e-02   -2,471845038e-02   -4,216484725e-01    6,392004490e-01    0,000000000e+00    0,000000000e+00    0,000000000e+00    0,000000000e+00
      338000000    2,843623981e-02   -5,043364316e-02   -2,713743306e-04    7,602076530e-01    0,000000000e+00    0,000000000e+00    0,000000000e+00    0,000000000e+00
      352000000    1,046869345e-02   -8,280073851e-02    4,114069045e-01    6,347178221e-01    0,000000000e+00    0,000000000e+00    0,000000000e+00    0,000000000e+00
      366000000   -3,190622479e-02   -9,372909367e-02    6,934067607e-01    3,036153316e-01    0,000000000e+00    0,000000000e+00    0,000000000e+00    0,000000000e+00
      380000000   -6,762717664e-02   -6,861709058e-02    7,459564805e-01   -1,346316189e-01    0,000000000e+00    0,000000000e+00    0,000000000e+00    0,000000000e+00
      394000000   -6,859631091e-02   -3,057287633e-02    5,401559472e-01   -5,292943120e-01    0,000000000e+00    0,000000000e+00    0,000000000e+00    0,000000000e+00
      408000000   -4,259078205e-02   -1,550475694e-02    1,512244046e-01   -7,331224084e-01    0,000000000e+00    0,000000000e+00    0,000000000e+00    0,000000000e+00
      422000000   -2,615481615e-02   -3,129336610e-02   -2,789379656e-01   -6,908208132e-01    0,000000000e+00    0,000000000e+00    0,000000000e+00    0,000000000e+00
      436000000   -3,928497061e-02   -4,883387685e-02   -6,102415323e-01   -4,196490645e-01    0,000000000e+00    0,000000000e+00    0,000000000e+00    0,000000000e+00
      450000000   -6,494105607e-02   -3,891634941e-02   -7,374844551e-01   -7,798278704e-03    0,000000000e+00    0,000000000e+00    0,000000000e+00    0,000000000e+00
      464000000   -6,775591522e-02   -6,580347661e-03   -6,078325510e-01    4,061688781e-01    0,000000000e+00    0,000000000e+00    0,000000000e+00    0,000000000e+00
      478000000   -3,876972571e-02    1,570049673e-02   -2,677879930e-01    6,695738435e-01    0,000000000e+00    0,000000000e+00    0,000000000e+00    0,000000000e+00
      492000000   -5,128122400e-03    6,669371855e-03    1,517055482e-01    6,953264475e-01    0,000000000e+00    0,000000000e+00    0,000000000e+00    0,000000000e+00
      506000000    7,123513613e-03   -2,032675408e-02    5,077074170e-01    4,885894656e-01    0,000000000e+00    0,000000000e+00    0,000000000e+00    0,000000000e+00
      520000000    6,723940605e-04   -3,851733729e-02    6,889116168e-01    1,221363395e-01    0,000000000e+00    0,000000000e+00    0,000000000e+00    0,000000000e+00
      534000000   -3,180651460e-03   -4,559318721e-02    6,322836280e-01   -2,815074027e-01    0,000000000e+00    0,000000000e+00    0,000000000e+00    0,000000000e+00
      548000000    7,916518953e-04   -5,982964486e-02    3,590421975e-01   -5,792027116e-01    0,000000000e+00    0,000000000e+00    0,000000000e+00    0,000000000e+00
      562000000   -7,927290164e-03   -8,877924085e-02   -2,666876279e-02   -6,730239391e-01    0,000000000e+00    0,000000000e+00    0,000000000e+00    0,000000000e+00
      576000000   -4,569899663e-02   -1,095190421e-01   -4,021497965e-01   -5,381639004e-01    0,000000000e+00    0,000000000e+00    0,000000000e+00    0,000000000e+00
      590000000   -9,468311816e-02   -9,349390119e-02   -6,394292116e-01   -2,176727355e-01    0,000000000e+00    0,000000000e+00    0,000000000e+00    0,000000000e+00
      604000000   -1,118481308e-01   -4,085792601e-02   -6,473309398e-01    1,981006265e-01    0,000000000e+00    0,000000000e+00    0,000000000e+00    0,000000000e+00
      618000000   -7,620359212e-02   -2,196906134e-03   -4,019085765e-01    5,366231203e-01    0,000000000e+00    0,000000000e+00    0,000000000e+00    0,000000000e+00
      632000000   -2,930788696e-02   -2,111106738e-02   -1,036756672e-02    6,551990509e-01    0,000000000e+00    0,000000000e+00    0,000000000e+00    0,000000000e+00
      646000000   -3,608906642e-02   -7,617861778e-02    3,651240170e-01    5,277392864e-01    0,000000000e+00    0,000000000e+00    0,000000000e+00    0,000000000e+00
      660000000   -1,115851626e-01   -9,940782189e-02    6,011762619e-01    1,931622028e-01    0,000000000e+00    0,000000000e+00    0,000000000e+00    0,000000000e+00
      674000000   -2,001255006e-01   -2,383701503e-02    5,647279620e-01   -2,401880622e-01    0,000000000e+00    0,000000000e+00    0,000000000e+00    0,000000000e+00
      688000000   -1,780426651e-01    1,448234618e-01    2,095645666e-01   -5,212236643e-01    0,000000000e+00    0,000000000e+00    0,000000000e+00    0,000000000e+00
      702000000    2,396327443e-02    2,469739765e-01   -2,011960447e-01   -4,089471400e-01    0,000000000e+00    0,000000000e+00    0,000000000e+00    0,000000000e+00
      716000000    2,641616464e-01    1,100000069e-01   -2,728948891e-01   -8,342180401e-02    0,000000000e+00    0,000000000e+00    0,000000000e+00    0,000000000e+00
      730000000    3,031150699e-01   -1,861181408e-01   -1,067446470e-01    3,222393617e-02    0,000000000e+00    0,000000000e+00    0,000000000e+00    0,000000000e+00
      744000000    9,424515814e-02   -4,271096885e-01   -4,272454605e-02   -6,527362019e-02    0,000000000e+00    0,000000000e+00    0,000000000e+00    0,000000000e+00
      758000000   -2,583010793e-01   -4,286549389e-01   -1,756257117e-01   -1,257554293e-01    0,000000000e+00    0,000000000e+00    0,000000000e+00    0,000000000e+00
      772000000   -4,845386147e-01   -1,204578578e-01   -3,359658718e-01    3,833290562e-02    0,000000000e+00    0,000000000e+00    0,000000000e+00    0,000000000e+00
      786000000   -3,409873545e-01    2,211036086e-01   -2,634155154e-01    3,162768781e-01    0,000000000e+00    0,000000000e+00    0,000000000e+00    0,000000000e+00
      800000000   -4,038479924e-02    2,759186327e-01    2,965728985e-03    4,365006089e-01    0,000000000e+00    0,000000000e+00    0,000000000e+00    0,000000000e+00
      814000000    1,440864205e-01    1,248704940e-01    2,646412849e-01    3,606509268e-01    0,000000000e+00    0,000000000e+00    0,000000000e+00    0,000000000e+00
      828000000    1,675657779e-01   -6,987215579e-02    4,326455891e-01    1,569495648e-01    0,000000000e+00    0,000000000e+00    0,000000000e+00    0,000000000e+00
      842000000    6,747483462e-02   -2,180277258e-01    4,668240547e-01   -1,198994592e-01    0,000000000e+00    0,000000000e+00    0,000000000e+00    0,000000000e+00
      856000000   -1,065504178e-01   -2,641366422e-01    3,198227584e-01   -3,949007094e-01    0,000000000e+00    0,000000000e+00    0,000000000e+00    0,000000000e+00
      870000000   -2,743990123e-01   -1,685873419e-01   -2,529304475e-03   -5,279514194e-01    0,000000000e+00    0,000000000e+00    0,000000000e+00    0,000000000e+00
      884000000   -3,203830421e-01    3,634569794e-02   -3,472348154e-01   -3,925229013e-01    0,000000000e+00    0,000000000e+00    0,000000000e+00    0,000000000e+00
      898000000   -1,915312856e-01    2,067575455e-01   -4,886265099e-01   -6,279630959e-02    0,000000000e+00    0,000000000e+00    0,000000000e+00    0,000000000e+00
      912000000    6,477980409e-03    2,194768488e-01   -4,027007520e-01    2,798671126e-01    0,000000000e+00    0,000000000e+00    0,000000000e+00    0,000000000e+00
      926000000    1,511118561e-01    1,117604822e-01   -1,678025275e-01    4,146091342e-01    0,000000000e+00    0,000000000e+00    0,000000000e+00    0,000000000e+00
      940000000    1,970789582e-01   -4,692194238e-02    6,146021187e-02    4,231666028e-01    0,000000000e+00    0,000000000e+00    0,000000000e+00    0,000000000e+00
      954000000    1,524060071e-01   -2,039004117e-01    2,625333965e-01    3,413681388e-01    0,000000000e+00    0,000000000e+00    0,000000000e+00    0,000000000e+00
      968000000    2,512703463e-02   -3,170222938e-01    4,128817320e-01    1,801850945e-01    0,000000000e+00    0,000000000e+00    0,000000000e+00    0,000000000e+00
      982000000   -1,589201987e-01   -3,328157663e-01    4,734814763e-01   -6,774435937e-02    0,000000000e+00    0,000000000e+00    0,000000000e+00    0,000000000e+00
      996000000   -3,274926543e-01   -2,098265290e-01    3,670925498e-01   -3,564261794e-01    0,000000000e+00    0,000000000e+00    0,000000000e+00    0,000000000e+00
     1010000000   -3,439641595e-01   -9,132822976e-03    4,387926683e-02   -5,239744782e-01    0,000000000e+00    0,000000000e+00    0,000000000e+00    0,000000000e+00
     1024000000   -2,066950202e-01    8,934509009e-02   -3,475246131e-01   -3,796579540e-01    0,000000000e+00    0,000000000e+00    0,000000000e+00    0,000000000e+00
     1038000000   -1,319257468e-01    7,652423810e-03   -4,832513034e-01    6,239145249e-02    0,000000000e+00    0,000000000e+00    0,000000000e+00    0,000000000e+00
     1052000000   -2,839754522e-01    5,457616597e-02   -9,674960375e-02    3,737044036e-01    0,000000000e+00    0,000000000e+00    0,000000000e+00    0,000000000e+00
     1066000000   -1,476805657e-01    2,971594930e-01    1,453300714e-01    1,322229952e-01    0,000000000e+00    0,000000000e+00    0,000000000e+00    0,000000000e+00
     1080000000    1,006639302e-01    2,522670627e-01    9,207957983e-02    2,001231350e-02    0,000000000e+00    0,000000000e+00    0,000000000e+00    0,000000000e+00
     1094000000    2,209756374e-01    8,423983306e-02    6,987577677e-02    1,038157567e-02    0,000000000e+00    0,000000000e+00    0,000000000e+00    0,000000000e+00
     1108000000    2,442018390e-01   -8,852819353e-02    8,199028671e-02   -9,859940037e-04    0,000000000e+00    0,000000000e+00    0,000000000e+00    0,000000000e+00
     1122000000    1,818735600e-01   -2,506947219e-01    1,051895916e-01   -2,792905644e-02    0,000000000e+00    0,000000000e+00    0,000000000e+00    0,000000000e+00
     1136000000    4,737694934e-02   -3,788690567e-01    1,289763451e-01   -7,631342113e-02    0,000000000e+00    0,000000000e+00    0,000000000e+00    0,000000000e+00
     1150000000   -1,552601308e-01   -4,199230373e-01    1,366344690e-01   -1,527733505e-01    0,000000000e+00    0,000000000e+00    0,000000000e+00    0,000000000e+00
     1164000000   -3,799081147e-01   -3,219348192e-01    9,740026295e-02   -2,771717906e-01    0,000000000e+00    0,000000000e+00    0,000000000e+00    0,000000000e+00
     1178000000   -4,630420208e-01   -8,587756008e-02   -1,045346782e-01   -4,056898654e-01    0,000000000e+00    0,000000000e+00    0,000000000e+00    0,000000000e+00
     1192000000   -3,752465248e-01    3,781590238e-02   -4,638902247e-01   -1,999292523e-01    0,000000000e+00    0,000000000e+00    0,000000000e+00    0,000000000e+00
     1206000000   -4,156570733e-01    1,348330081e-01   -2,754786313e-01    2,374484688e-01    0,000000000e+00    0,000000000e+00    0,000000000e+00    0,000000000e+00
     1220000000   -2,792850435e-01    3,283394277e-01   -6,809718441e-03    1,656201780e-01    0,000000000e+00    0,000000000e+00    0,000000000e+00    0,000000000e+00
     1234000000   -4,875361547e-02    3,453848958e-01    2,422882803e-02    5,730858073e-02    0,000000000e+00    0,000000000e+00    0,000000000e+00    0,000000000e+00
     1248000000    1,193189770e-01    2,502812445e-01    1,017173403e-03    2,236412466e-02    0,000000000e+00    0,000000000e+00    0,000000000e+00    0,000000000e+00
     1262000000    2,099752128e-01    1,005809009e-01    2,896759193e-03    2,962399274e-02    0,000000000e+00    0,000000000e+00    0,000000000e+00    0,000000000e+00
     1276000000    2,333611995e-01   -5,414471030e-02    2,650877647e-02    3,604435176e-02    0,000000000e+00    0,000000000e+00    0,000000000e+00    0,000000000e+00
     1290000000    1,905589402e-01   -2,132010609e-01    5,292584002e-02    2,856401168e-02    0,000000000e+00    0,000000000e+00    0,000000000e+00    0,000000000e+00
     1304000000    8,332971483e-02   -3,562259674e-01    7,011996210e-02    5,148396362e-03    0,000000000e+00    0,000000000e+00    0,000000000e+00    0,000000000e+00
     1318000000   -1,005138159e-01   -4,439175427e-01    8,833437413e-02   -1,042127889e-02    0,000000000e+00    0,000000000e+00    0,000000000e+00    0,000000000e+00
     1332000000   -3,585411310e-01   -4,352524579e-01    8,191132545e-02   -1,748359762e-02    0,000000000e+00    0,000000000e+00    0,000000000e+00    0,000000000e+00
     1346000000   -5,877764821e-01   -2,467808574e-01    1,076345518e-01   -1,027586963e-02    0,000000000e+00    0,000000000e+00    0,000000000e+00    0,000000000e+00
     1360000000   -6,495994925e-01    7,521121949e-02    1,422846168e-01   -1,811130159e-02    0,000000000e+00    0,000000000e+00    0,000000000e+00    0,000000000e+00
     1374000000   -4,889987707e-01    3,368565738e-01    1,676273346e-01   -4,653771222e-02    0,000000000e+00    0,000000000e+00    0,000000000e+00    0,000000000e+00
     1388000000   -2,523871958e-01    4,193739891e-01    1,709396392e-01   -8,995185792e-02    0,000000000e+00    0,000000000e+00    0,000000000e+00    0,000000000e+00
     1402000000   -4,520577192e-02    3,899959922e-01    1,344516873e-01   -1,028790474e-01    0,000000000e+00    0,000000000e+00    0,000000000e+00    0,000000000e+00
     1416000000    1,034364477e-01    2,906138897e-01    1,217443645e-01   -8,343972266e-02    0,000000000e+00    0,000000000e+00    0,000000000e+00    0,000000000e+00
     1430000000    1,858159453e-01    1,531559080e-01    1,287144572e-01   -4,561020061e-02    0,000000000e+00    0,000000000e+00    0,000000000e+00    0,000000000e+00
     1444000000    2,106149346e-01   -1,004415099e-02    1,121370494e-01   -3,143436089e-02    0,000000000e+00    0,000000000e+00    0,000000000e+00    0,000000000e+00
     1458000000    1,786756217e-01   -1,783965677e-01    1,426823884e-01    2,198253199e-02    0,000000000e+00    0,000000000e+00    0,000000000e+00    0,000000000e+00
     1472000000    6,417480111e-02   -3,453040719e-01    1,850687116e-01    8,121117949e-02    0,000000000e+00    0,000000000e+00    0,000000000e+00    0,000000000e+00
     1486000000   -1,308586299e-01   -4,752107561e-01    3,078238666e-01    9,957646579e-02    0,000000000e+00    0,000000000e+00    0,000000000e+00    0,000000000e+00
     1500000000   -4,428059757e-01   -4,826219082e-01    4,013521373e-01    4,627274349e-02    0,000000000e+00    0,000000000e+00    0,000000000e+00    0,000000000e+00
