! NanoVNA-App
! Date: 2025-09-25 15:57:20
! Start: 100MHz Stop: 1,5GHz Points: 101
! S-Parameter data: F S11 S21 S12 S22
# Hz S RI R 50
!     Frequency           S11_Real           S11_Imag           S21_Real           S21_Imag           S12_Real           S12_Imag           S22_Real           S22_Imag
      100000000   -2,820657194e-02   -2,841006266e-03    3,722246587e-01   -7,224848866e-01    0,000000000e+00    0,000000000e+00    0,000000000e+00    0,000000000e+00
      114000000   -1,566144638e-02    1,289870404e-02   -9,145401418e-02   -8,048174977e-01    0,000000000e+00    0,000000000e+00    0,000000000e+00    0,000000000e+00
      128000000    4,330271389e-03    1,188398805e-02   -5,158170462e-01   -6,187016368e-01    0,000000000e+00    0,000000000e+00    0,000000000e+00    0,000000000e+00
      142000000    1,548743062e-02   -1,812334289e-03   -7,674399018e-01   -2,341241091e-01    0,000000000e+00    0,000000000e+00    0,000000000e+00    0,000000000e+00
      156000000    1,586480998e-02   -1,285289973e-02   -7,633679509e-01    2,219024301e-01    0,000000000e+00    0,000000000e+00    0,000000000e+00    0,000000000e+00
      170000000    1,758799516e-02   -2,100708522e-02   -5,153968930e-01    6,061219573e-01    0,000000000e+00    0,000000000e+00    0,000000000e+00    0,000000000e+00
      184000000    2,198885195e-02   -3,555671498e-02   -9,831692278e-02    7,860685587e-01    0,000000000e+00    0,000000000e+00    0,000000000e+00    0,000000000e+00
      198000000    1,400050335e-02   -6,069053710e-02    3,458634615e-01    7,107180953e-01    0,000000000e+00    0,000000000e+00    0,000000000e+00    0,000000000e+00
      212000000   -1,770124026e-02   -7,914379239e-02    6,807317734e-01    4,062955976e-01    0,000000000e+00    0,000000000e+00    0,000000000e+00    0,000000000e+00
      226000000   -6,036205217e-02   -6,662904471e-02    7,957751155e-01   -3,558784723e-02    0,000000000e+00    0,000000000e+00    0,000000000e+00    0,000000000e+00
      240000000   -8,053569496e-02   -2,269997448e-02    6,415966153e-01   -4,718996584e-01    0,000000000e+00    0,000000000e+00    0,000000000e+00    0,000000000e+00
      254000000   -6,080557033e-02    1,984334551e-02    2,707250416e-01   -7,420352697e-01    0,000000000e+00    0,000000000e+00    0,000000000e+00    0,000000000e+00
      268000000   -2,097693086e-02    3,088876791e-02   -1,813713610e-01   -7,605928183e-01    0,000000000e+00    0,000000000e+00    0,000000000e+00    0,000000000e+00
      282000000    6,992417853e-03    1,371050160e-02   -5,630692244e-01   -5,323893428e-01    0,000000000e+00    0,000000000e+00    0,000000000e+00    0,000000000e+00
      296000000    1,245101914e-02   -6,231293548e-03   -7,605232596e-01   -1,342498660e-01    0,000000000e+00    0,000000000e+00    0,000000000e+00    0,000000000e+00
      310000000    1,344183553e-02   -1,442547049e-02   -7,090717554e-01    3,047676384e-01    0,000000000e+00    0,000000000e+00    0,000000000e+00    0,000000000e+00
      324000000    2,247958817e-02   -2,473998815e-02   -4,205421507e-01    6,387308836e-01    0,000000000e+00    0,000000000e+00    0,000000000e+00    0,000000000e+00
      338000000    2,828725614e-02   -5,096121505e-02   -1,661334769e-03    7,614012361e-01    0,000000000e+00    0,000000000e+00    0,000000000e+00    0,000000000e+00
      352000000    9,757001884e-03   -8,267200738e-02    4,108313620e-01    6,342121363e-01    0,000000000e+00    0,000000000e+00    0,000000000e+00    0,000000000e+00
      366000000   -3,183124587e-02   -9,380494803e-02    6,933453679e-01    3,036856353e-01    0,000000000e+00    0,000000000e+00    0,000000000e+00    0,000000000e+00
      380000000   -6,775462627e-02   -6,893508136e-02    7,454398274e-01   -1,341398060e-01    0,000000000e+00    0,000000000e+00    0,000000000e+00    0,000000000e+00
      394000000   -6,840267032e-02   -3,029992245e-02    5,396664143e-01   -5,286788344e-01    0,000000000e+00    0,000000000e+00    0,000000000e+00    0,000000000e+00
      408000000   -4,270142689e-02   -1,569232717e-02    1,500649899e-01   -7,342832088e-01    0,000000000e+00    0,000000000e+00    0,000000000e+00    0,000000000e+00
      422000000   -2,629975230e-02   -3,130448237e-02   -2,793685496e-01   -6,901456714e-01    0,000000000e+00    0,000000000e+00    0,000000000e+00    0,000000000e+00
      436000000   -3,942798451e-02   -4,896154255e-02   -6,102706194e-01   -4,192130566e-01    0,000000000e+00    0,000000000e+00    0,000000000e+00    0,000000000e+00
      450000000   -6,460565329e-02   -3,918545321e-02   -7,365777493e-01   -7,905206643e-03    0,000000000e+00    0,000000000e+00    0,000000000e+00    0,000000000e+00
      464000000   -6,786797941e-02   -6,258171517e-03   -6,079918146e-01    4,065957963e-01    0,000000000e+00    0,000000000e+00    0,000000000e+00    0,000000000e+00
      478000000   -3,848478571e-02    1,584228501e-02   -2,673366070e-01    6,703732610e-01    0,000000000e+00    0,000000000e+00    0,000000000e+00    0,000000000e+00
      492000000   -5,348693579e-03    6,517579313e-03    1,521804929e-01    6,948091388e-01    0,000000000e+00    0,000000000e+00    0,000000000e+00    0,000000000e+00
      506000000    7,210489362e-03   -2,020657063e-02    5,080291629e-01    4,881138802e-01    0,000000000e+00    0,000000000e+00    0,000000000e+00    0,000000000e+00
      520000000    4,727163177e-04   -3,899424896e-02    6,902932525e-01    1,213070154e-01    0,000000000e+00    0,000000000e+00    0,000000000e+00    0,000000000e+00
      534000000   -2,951475093e-03   -4,541500285e-02    6,329225898e-01   -2,821131945e-01    0,000000000e+00    0,000000000e+00    0,000000000e+00    0,000000000e+00
      548000000    7,275916287e-04   -5,940297246e-02    3,600459397e-01   -5,786390305e-01    0,000000000e+00    0,000000000e+00    0,000000000e+00    0,000000000e+00
      562000000   -7,920560427e-03   -8,818517625e-02   -2,719848603e-02   -6,728240252e-01    0,000000000e+00    0,000000000e+00    0,000000000e+00    0,000000000e+00
      576000000   -4,552272707e-02   -1,090949476e-01   -4,008358121e-01   -5,376614928e-01    0,000000000e+00    0,000000000e+00    0,000000000e+00    0,000000000e+00
      590000000   -9,487749636e-02   -9,351348877e-02   -6,392478347e-01   -2,197433710e-01    0,000000000e+00    0,000000000e+00    0,000000000e+00    0,000000000e+00
      604000000   -1,120026484e-01   -4,092768952e-02   -6,475229263e-01    1,982342750e-01    0,000000000e+00    0,000000000e+00    0,000000000e+00    0,000000000e+00
      618000000   -7,624293119e-02   -2,416687552e-03   -4,016444385e-01    5,350755453e-01    0,000000000e+00    0,000000000e+00    0,000000000e+00    0,000000000e+00
      632000000   -3,014376201e-02   -2,155716904e-02   -1,225625724e-02    6,552471519e-01    0,000000000e+00    0,000000000e+00    0,000000000e+00    0,000000000e+00
      646000000   -3,678328544e-02   -7,752419263e-02    3,662830293e-01    5,277405977e-01    0,000000000e+00    0,000000000e+00    0,000000000e+00    0,000000000e+00
      660000000   -1,114559025e-01   -1,004873216e-01    6,002447605e-01    1,926834732e-01    0,000000000e+00    0,000000000e+00    0,000000000e+00    0,000000000e+00
      674000000   -1,994757950e-01   -2,427102812e-02    5,650486946e-01   -2,399377227e-01    0,000000000e+00    0,000000000e+00    0,000000000e+00    0,000000000e+00
      688000000   -1,781467497e-01    1,453978270e-01    2,093981653e-01   -5,219218731e-01    0,000000000e+00    0,000000000e+00    0,000000000e+00    0,000000000e+00
      702000000    2,713373490e-02    2,464933097e-01   -1,985418499e-01   -4,022445679e-01    0,000000000e+00    0,000000000e+00    0,000000000e+00    0,000000000e+00
      716000000    2,634442747e-01    1,107408032e-01   -2,722998261e-01   -8,265860379e-02    0,000000000e+00    0,000000000e+00    0,000000000e+00    0,000000000e+00
      730000000    3,032883406e-01   -1,862308830e-01   -1,060691774e-01    3,144349903e-02    0,000000000e+00    0,000000000e+00    0,000000000e+00    0,000000000e+00
      744000000    9,370712191e-02   -4,276893437e-01   -4,265306890e-02   -6,586761028e-02    0,000000000e+00    0,000000000e+00    0,000000000e+00    0,000000000e+00
      758000000   -2,594675422e-01   -4,296105802e-01   -1,764543653e-01   -1,257265061e-01    0,000000000e+00    0,000000000e+00    0,000000000e+00    0,000000000e+00
      772000000   -4,854469597e-01   -1,183304340e-01   -3,368545175e-01    3,851655871e-02    0,000000000e+00    0,000000000e+00    0,000000000e+00    0,000000000e+00
      786000000   -3,403978348e-01    2,207075208e-01   -2,626076639e-01    3,172207773e-01    0,000000000e+00    0,000000000e+00    0,000000000e+00    0,000000000e+00
      800000000   -4,035115242e-02    2,766841650e-01    2,746409504e-03    4,363294840e-01    0,000000000e+00    0,000000000e+00    0,000000000e+00    0,000000000e+00
      814000000    1,442615837e-01    1,254709661e-01    2,641091049e-01    3,590518832e-01    0,000000000e+00    0,000000000e+00    0,000000000e+00    0,000000000e+00
      828000000    1,681613177e-01   -7,016623020e-02    4,333643913e-01    1,567053944e-01    0,000000000e+00    0,000000000e+00    0,000000000e+00    0,000000000e+00
      842000000    6,689162552e-02   -2,185710669e-01    4,671721160e-01   -1,203543618e-01    0,000000000e+00    0,000000000e+00    0,000000000e+00    0,000000000e+00
      856000000   -1,071001664e-01   -2,631903291e-01    3,200443089e-01   -3,939346671e-01    0,000000000e+00    0,000000000e+00    0,000000000e+00    0,000000000e+00
      870000000   -2,731994689e-01   -1,684594899e-01   -2,780626994e-03   -5,267397165e-01    0,000000000e+00    0,000000000e+00    0,000000000e+00    0,000000000e+00
      884000000   -3,207910061e-01    3,543756902e-02   -3,479665220e-01   -3,937029243e-01    0,000000000e+00    0,000000000e+00    0,000000000e+00    0,000000000e+00
      898000000   -1,922201663e-01    2,072819769e-01   -4,891010523e-01   -6,270605326e-02    0,000000000e+00    0,000000000e+00    0,000000000e+00    0,000000000e+00
      912000000    6,682705134e-03    2,188922763e-01   -3,929011524e-01    2,776328623e-01    0,000000000e+00    0,000000000e+00    0,000000000e+00    0,000000000e+00
      926000000    1,501886547e-01    1,113851070e-01   -1,681795865e-01    4,156178832e-01    0,000000000e+00    0,000000000e+00    0,000000000e+00    0,000000000e+00
      940000000    2,009893209e-01   -4,621268064e-02    6,523448974e-02    4,256972969e-01    0,000000000e+00    0,000000000e+00    0,000000000e+00    0,000000000e+00
      954000000    1,511256248e-01   -2,031312287e-01    2,603697479e-01    3,418671489e-01    0,000000000e+00    0,000000000e+00    0,000000000e+00    0,000000000e+00
      968000000    2,446575835e-02   -3,148123622e-01    4,105375707e-01    1,792743355e-01    0,000000000e+00    0,000000000e+00    0,000000000e+00    0,000000000e+00
      982000000   -1,580004543e-01   -3,313564360e-01    4,737112820e-01   -6,844639033e-02    0,000000000e+00    0,000000000e+00    0,000000000e+00    0,000000000e+00
      996000000   -3,210294247e-01   -2,085154057e-01    3,685289621e-01   -3,553330600e-01    0,000000000e+00    0,000000000e+00    0,000000000e+00    0,000000000e+00
     1010000000   -3,369405568e-01   -4,619284999e-03    3,981691226e-02   -5,247322321e-01    0,000000000e+00    0,000000000e+00    0,000000000e+00    0,000000000e+00
     1024000000   -2,057571858e-01    8,901989460e-02   -3,457024693e-01   -3,784486949e-01    0,000000000e+00    0,000000000e+00    0,000000000e+00    0,000000000e+00
     1038000000   -1,376645118e-01    1,095104124e-02   -4,822946191e-01    6,314235181e-02    0,000000000e+00    0,000000000e+00    0,000000000e+00    0,000000000e+00
     1052000000   -2,846207619e-01    5,475935712e-02   -9,626680613e-02    3,742845953e-01    0,000000000e+00    0,000000000e+00    0,000000000e+00    0,000000000e+00
     1066000000   -1,449093223e-01    2,968927920e-01    1,445677727e-01    1,363669932e-01    0,000000000e+00    0,000000000e+00    0,000000000e+00    0,000000000e+00
     1080000000    1,021710187e-01    2,465736568e-01    8,965005726e-02    2,154612541e-02    0,000000000e+00    0,000000000e+00    0,000000000e+00    0,000000000e+00
     1094000000    2,227033973e-01    8,790313452e-02    6,815202534e-02    8,195198141e-03    0,000000000e+00    0,000000000e+00    0,000000000e+00    0,000000000e+00
     1108000000    2,451397479e-01   -8,642518520e-02    8,167829365e-02    1,208818052e-03    0,000000000e+00    0,000000000e+00    0,000000000e+00    0,000000000e+00
     1122000000    1,836141944e-01   -2,490003258e-01    1,042875573e-01   -2,677766979e-02    0,000000000e+00    0,000000000e+00    0,000000000e+00    0,000000000e+00
     1136000000    4,786787182e-02   -3,741678894e-01    1,237259805e-01   -7,670200616e-02    0,000000000e+00    0,000000000e+00    0,000000000e+00    0,000000000e+00
     1150000000   -1,577219665e-01   -4,239214659e-01    1,367814243e-01   -1,516506225e-01    0,000000000e+00    0,000000000e+00    0,000000000e+00    0,000000000e+00
     1164000000   -3,807581663e-01   -3,277503848e-01    9,740397334e-02   -2,798715830e-01    0,000000000e+00    0,000000000e+00    0,000000000e+00    0,000000000e+00
     1178000000   -4,638234973e-01   -8,145332336e-02   -1,063648239e-01   -4,036000371e-01    0,000000000e+00    0,000000000e+00    0,000000000e+00    0,000000000e+00
     1192000000   -3,749337494e-01    3,917029873e-02   -4,609142244e-01   -1,956512481e-01    0,000000000e+00    0,000000000e+00    0,000000000e+00    0,000000000e+00
     1206000000   -4,184762537e-01    1,313585639e-01   -2,790682316e-01    2,332836539e-01    0,000000000e+00    0,000000000e+00    0,000000000e+00    0,000000000e+00
     1220000000   -2,795885503e-01    3,255848587e-01   -8,004680276e-03    1,610033959e-01    0,000000000e+00    0,000000000e+00    0,000000000e+00    0,000000000e+00
     1234000000   -4,689841717e-02    3,457881808e-01    2,368354425e-02    5,350698158e-02    0,000000000e+00    0,000000000e+00    0,000000000e+00    0,000000000e+00
     1248000000    1,226534322e-01    2,523610294e-01    2,053481294e-03    2,939121239e-02    0,000000000e+00    0,000000000e+00    0,000000000e+00    0,000000000e+00
     1262000000    2,135998160e-01    9,808494151e-02    2,913864795e-03    2,887825109e-02    0,000000000e+00    0,000000000e+00    0,000000000e+00    0,000000000e+00
     1276000000    2,301453203e-01   -5,311834812e-02    2,592855319e-02    3,831853718e-02    0,000000000e+00    0,000000000e+00    0,000000000e+00    0,000000000e+00
     1290000000    1,976080239e-01   -2,147262990e-01    6,232300773e-02    2,474961244e-02    0,000000000e+00    0,000000000e+00    0,000000000e+00    0,000000000e+00
     1304000000    8,135386556e-02   -3,585677743e-01    7,221215218e-02    4,600730725e-03    0,000000000e+00    0,000000000e+00    0,000000000e+00    0,000000000e+00
     1318000000   -1,075673401e-01   -4,423043132e-01    8,412248641e-02   -1,427399181e-02    0,000000000e+00    0,000000000e+00    0,000000000e+00    0,000000000e+00
     1332000000   -3,569005132e-01   -4,384626150e-01    8,878751099e-02   -1,475521084e-02    0,000000000e+00    0,000000000e+00    0,000000000e+00    0,000000000e+00
     1346000000   -5,918858647e-01   -2,431540340e-01    1,055071354e-01   -7,472323254e-03    0,000000000e+00    0,000000000e+00    0,000000000e+00    0,000000000e+00
     1360000000   -6,524736881e-01    7,109954953e-02    1,328337044e-01   -5,147962365e-03    0,000000000e+00    0,000000000e+00    0,000000000e+00    0,000000000e+00
     1374000000   -4,890893996e-01    3,360299468e-01    1,741857976e-01   -4,720650613e-02    0,000000000e+00    0,000000000e+00    0,000000000e+00    0,000000000e+00
     1388000000   -2,528104782e-01    4,319740534e-01    1,600181013e-01   -8,175325394e-02    0,000000000e+00    0,000000000e+00    0,000000000e+00    0,000000000e+00
     1402000000   -4,397579283e-02    3,838134110e-01    1,360724121e-01   -9,408557415e-02    0,000000000e+00    0,000000000e+00    0,000000000e+00    0,000000000e+00
     1416000000    1,057861224e-01    2,908207774e-01    1,305824667e-01   -7,518093288e-02    0,000000000e+00    0,000000000e+00    0,000000000e+00    0,000000000e+00
     1430000000    1,870080531e-01    1,399194598e-01    1,015375033e-01   -6,616374850e-02    0,000000000e+00    0,000000000e+00    0,000000000e+00    0,000000000e+00
     1444000000    2,198221982e-01   -1,048544236e-02    1,224537268e-01   -2,173307166e-02    0,000000000e+00    0,000000000e+00    0,000000000e+00    0,000000000e+00
     1458000000    1,814845800e-01   -1,794428974e-01    1,337870508e-01    2,813871205e-02    0,000000000e+00    0,000000000e+00    0,000000000e+00    0,000000000e+00
     1472000000    6,820713729e-02   -3,467682600e-01    2,074792087e-01    7,764127105e-02    0,000000000e+00    0,000000000e+00    0,000000000e+00    0,000000000e+00
     1486000000   -1,447301060e-01   -4,720283747e-01    2,883975506e-01    1,079971939e-01    0,000000000e+00    0,000000000e+00    0,000000000e+00    0,000000000e+00
     1500000000   -4,481556118e-01   -4,795807302e-01    3,968914747e-01    6,589137018e-02    0,000000000e+00    0,000000000e+00    0,000000000e+00    0,000000000e+00
