! NanoVNA-App
! Date: 2025-09-25 16:02:10
! Start: 100MHz Stop: 1,5GHz Points: 101
! S-Parameter data: F S11 S21 S12 S22
# Hz S RI R 50
!     Frequency           S11_Real           S11_Imag           S21_Real           S21_Imag           S12_Real           S12_Imag           S22_Real           S22_Imag
      100000000   -2,828934230e-02   -2,879395382e-03    3,722810745e-01   -7,224191427e-01    0,000000000e+00    0,000000000e+00    0,000000000e+00    0,000000000e+00
      114000000   -1,572232693e-02    1,290639583e-02   -9,111993015e-02   -8,048110008e-01    0,000000000e+00    0,000000000e+00    0,000000000e+00    0,000000000e+00
      128000000    4,331941251e-03    1,196937449e-02   -5,156998038e-01   -6,186786890e-01    0,000000000e+00    0,000000000e+00    0,000000000e+00    0,000000000e+00
      142000000    1,549075451e-02   -1,745668123e-03   -7,673875690e-01   -2,341734618e-01    0,000000000e+00    0,000000000e+00    0,000000000e+00    0,000000000e+00
      156000000    1,514500286e-02   -1,345198788e-02   -7,683378458e-01    2,213412821e-01    0,000000000e+00    0,000000000e+00    0,000000000e+00    0,000000000e+00
      170000000    1,764654182e-02   -2,097751945e-02   -5,154714584e-01    6,062377095e-01    0,000000000e+00    0,000000000e+00    0,000000000e+00    0,000000000e+00
      184000000    2,199985087e-02   -3,556947038e-02   -9,815284610e-02    7,860357761e-01    0,000000000e+00    0,000000000e+00    0,000000000e+00    0,000000000e+00
      198000000    1,405018941e-02   -6,064990535e-02    3,458867669e-01    7,106218338e-01    0,000000000e+00    0,000000000e+00    0,000000000e+00    0,000000000e+00
      212000000   -1,764390245e-02   -7,908931375e-02    6,806336045e-01    4,062409997e-01    0,000000000e+00    0,000000000e+00    0,000000000e+00    0,000000000e+00
      226000000   -6,032149494e-02   -6,662241369e-02    7,958438396e-01   -3,570719063e-02    0,000000000e+00    0,000000000e+00    0,000000000e+00    0,000000000e+00
      240000000   -8,058985323e-02   -2,275418304e-02    6,415705681e-01   -4,718270004e-01    0,000000000e+00    0,000000000e+00    0,000000000e+00    0,000000000e+00
      254000000   -6,080438197e-02    1,981087029e-02    2,710045278e-01   -7,420177460e-01    0,000000000e+00    0,000000000e+00    0,000000000e+00    0,000000000e+00
      268000000   -2,091405913e-02    3,085815534e-02   -1,809597015e-01   -7,609061599e-01    0,000000000e+00    0,000000000e+00    0,000000000e+00    0,000000000e+00
      282000000    6,918390747e-03    1,373342983e-02   -5,628939271e-01   -5,325698853e-01    0,000000000e+00    0,000000000e+00    0,000000000e+00    0,000000000e+00
      296000000    1,236010995e-02   -6,309600547e-03   -7,603846192e-01   -1,342478991e-01    0,000000000e+00    0,000000000e+00    0,000000000e+00    0,000000000e+00
      310000000    1,363088191e-02   -1,440190896e-02   -7,083106041e-01    3,053446710e-01    0,000000000e+00    0,000000000e+00    0,000000000e+00    0,000000000e+00
      324000000    2,259352058e-02   -2,470094524e-02   -4,210351110e-01    6,390819550e-01    0,000000000e+00    0,000000000e+00    0,000000000e+00    0,000000000e+00
      338000000    2,818351611e-02   -5,058242753e-02   -1,665185438e-03    7,591501474e-01    0,000000000e+00    0,000000000e+00    0,000000000e+00    0,000000000e+00
      352000000    1,026280131e-02   -8,304580301e-02    4,117762148e-01    6,356182098e-01    0,000000000e+00    0,000000000e+00    0,000000000e+00    0,000000000e+00
      366000000   -3,173420578e-02   -9,362360090e-02    6,936483383e-01    3,046517372e-01    0,000000000e+00    0,000000000e+00    0,000000000e+00    0,000000000e+00
      380000000   -6,751694530e-02   -6,904886663e-02    7,459672689e-01   -1,339021325e-01    0,000000000e+00    0,000000000e+00    0,000000000e+00    0,000000000e+00
      394000000   -6,862244010e-02   -3,027621470e-02    5,390745997e-01   -5,288954377e-01    0,000000000e+00    0,000000000e+00    0,000000000e+00    0,000000000e+00
      408000000   -4,294077680e-02   -1,562600397e-02    1,505240202e-01   -7,345151305e-01    0,000000000e+00    0,000000000e+00    0,000000000e+00    0,000000000e+00
      422000000   -2,579219826e-02   -3,120703250e-02   -2,789218426e-01   -6,898101568e-01    0,000000000e+00    0,000000000e+00    0,000000000e+00    0,000000000e+00
      436000000   -3,930984810e-02   -4,889241233e-02   -6,103217602e-01   -4,194119275e-01    0,000000000e+00    0,000000000e+00    0,000000000e+00    0,000000000e+00
      450000000   -6,474163383e-02   -3,908817098e-02   -7,370566130e-01   -7,641376462e-03    0,000000000e+00    0,000000000e+00    0,000000000e+00    0,000000000e+00
      464000000   -6,787297130e-02   -6,295520812e-03   -6,079918742e-01    4,065470397e-01    0,000000000e+00    0,000000000e+00    0,000000000e+00    0,000000000e+00
      478000000   -3,856324777e-02    1,622911170e-02   -2,672256827e-01    6,707481146e-01    0,000000000e+00    0,000000000e+00    0,000000000e+00    0,000000000e+00
      492000000   -5,299371202e-03    6,387939211e-03    1,517701745e-01    6,959339976e-01    0,000000000e+00    0,000000000e+00    0,000000000e+00    0,000000000e+00
      506000000    6,798255257e-03   -2,000159211e-02    5,074638128e-01    4,890314639e-01    0,000000000e+00    0,000000000e+00    0,000000000e+00    0,000000000e+00
      520000000    7,112033782e-04   -3,880972043e-02    6,884738207e-01    1,218487173e-01    0,000000000e+00    0,000000000e+00    0,000000000e+00    0,000000000e+00
      534000000   -3,374976572e-03   -4,543866217e-02    6,324757934e-01   -2,824301422e-01    0,000000000e+00    0,000000000e+00    0,000000000e+00    0,000000000e+00
      548000000    9,916388663e-04   -5,950438604e-02    3,604847491e-01   -5,792576075e-01    0,000000000e+00    0,000000000e+00    0,000000000e+00    0,000000000e+00
      562000000   -7,648543920e-03   -8,876252174e-02   -2,592139877e-02   -6,735430956e-01    0,000000000e+00    0,000000000e+00    0,000000000e+00    0,000000000e+00
      576000000   -4,538777471e-02   -1,100557223e-01   -4,005576372e-01   -5,385593772e-01    0,000000000e+00    0,000000000e+00    0,000000000e+00    0,000000000e+00
      590000000   -9,505555034e-02   -9,367417544e-02   -6,389740109e-01   -2,174731940e-01    0,000000000e+00    0,000000000e+00    0,000000000e+00    0,000000000e+00
      604000000   -1,115911007e-01   -4,094398767e-02   -6,479668617e-01    1,982995421e-01    0,000000000e+00    0,000000000e+00    0,000000000e+00    0,000000000e+00
      618000000   -7,567258924e-02   -2,702653874e-03   -4,020993114e-01    5,365634561e-01    0,000000000e+00    0,000000000e+00    0,000000000e+00    0,000000000e+00
      632000000   -2,942469902e-02   -2,115957066e-02   -1,200215239e-02    6,548560858e-01    0,000000000e+00    0,000000000e+00    0,000000000e+00    0,000000000e+00
      646000000   -3,685116395e-02   -7,695196569e-02    3,660755455e-01    5,273876190e-01    0,000000000e+00    0,000000000e+00    0,000000000e+00    0,000000000e+00
      660000000   -1,113065332e-01   -1,005423367e-01    6,008787155e-01    1,930939853e-01    0,000000000e+00    0,000000000e+00    0,000000000e+00    0,000000000e+00
      674000000   -1,999357045e-01   -2,331896499e-02    5,659259558e-01   -2,395521551e-01    0,000000000e+00    0,000000000e+00    0,000000000e+00    0,000000000e+00
      688000000   -1,780691445e-01    1,440394223e-01    2,099780589e-01   -5,214317441e-01    0,000000000e+00    0,000000000e+00    0,000000000e+00    0,000000000e+00
      702000000    2,686886117e-02    2,466002405e-01   -2,046431303e-01   -4,018585086e-01    0,000000000e+00    0,000000000e+00    0,000000000e+00    0,000000000e+00
      716000000    2,632011175e-01    1,106848344e-01   -2,738463283e-01   -8,411880583e-02    0,000000000e+00    0,000000000e+00    0,000000000e+00    0,000000000e+00
      730000000    3,037368655e-01   -1,854164004e-01   -1,077603400e-01    3,254410625e-02    0,000000000e+00    0,000000000e+00    0,000000000e+00    0,000000000e+00
      744000000    9,457629174e-02   -4,272634685e-01   -4,209173843e-02   -6,452628970e-02    0,000000000e+00    0,000000000e+00    0,000000000e+00    0,000000000e+00
      758000000   -2,584514916e-01   -4,290444553e-01   -1,747962981e-01   -1,256229728e-01    0,000000000e+00    0,000000000e+00    0,000000000e+00    0,000000000e+00
      772000000   -4,859213233e-01   -1,188716441e-01   -3,354180157e-01    3,780276701e-02    0,000000000e+00    0,000000000e+00    0,000000000e+00    0,000000000e+00
      786000000   -3,428606391e-01    2,224363983e-01   -2,627624273e-01    3,160144091e-01    0,000000000e+00    0,000000000e+00    0,000000000e+00    0,000000000e+00
      800000000   -4,150032252e-02    2,774583101e-01    3,335607005e-03    4,367150366e-01    0,000000000e+00    0,000000000e+00    0,000000000e+00    0,000000000e+00
      814000000    1,447055489e-01    1,256665140e-01    2,641569674e-01    3,597388864e-01    0,000000000e+00    0,000000000e+00    0,000000000e+00    0,000000000e+00
      828000000    1,677609533e-01   -7,025775313e-02    4,330255091e-01    1,561551541e-01    0,000000000e+00    0,000000000e+00    0,000000000e+00    0,000000000e+00
      842000000    6,742710620e-02   -2,180790752e-01    4,662352204e-01   -1,201519594e-01    0,000000000e+00    0,000000000e+00    0,000000000e+00    0,000000000e+00
      856000000   -1,064679921e-01   -2,639090717e-01    3,199918270e-01   -3,942976594e-01    0,000000000e+00    0,000000000e+00    0,000000000e+00    0,000000000e+00
      870000000   -2,745938599e-01   -1,681104302e-01   -1,595826237e-03   -5,273367763e-01    0,000000000e+00    0,000000000e+00    0,000000000e+00    0,000000000e+00
      884000000   -3,208954632e-01    3,595568240e-02   -3,478069305e-01   -3,907114565e-01    0,000000000e+00    0,000000000e+00    0,000000000e+00    0,000000000e+00
      898000000   -1,920825392e-01    2,068429291e-01   -4,884742498e-01   -6,254427135e-02    0,000000000e+00    0,000000000e+00    0,000000000e+00    0,000000000e+00
      912000000    6,344598252e-03    2,193176448e-01   -3,991986513e-01    2,652119994e-01    0,000000000e+00    0,000000000e+00    0,000000000e+00    0,000000000e+00
      926000000    1,501156986e-01    1,123836711e-01   -1,708538681e-01    4,155553281e-01    0,000000000e+00    0,000000000e+00    0,000000000e+00    0,000000000e+00
      940000000    2,011743486e-01   -4,537772387e-02    6,435159594e-02    4,236964285e-01    0,000000000e+00    0,000000000e+00    0,000000000e+00    0,000000000e+00
      954000000    1,561306864e-01   -2,014431357e-01    2,633065283e-01    3,411240578e-01    0,000000000e+00    0,000000000e+00    0,000000000e+00    0,000000000e+00
      968000000    2,400803380e-02   -3,125966787e-01    4,101386964e-01    1,786089391e-01    0,000000000e+00    0,000000000e+00    0,000000000e+00    0,000000000e+00
      982000000   -1,634683460e-01   -3,309097886e-01    4,741996825e-01   -6,637120247e-02    0,000000000e+00    0,000000000e+00    0,000000000e+00    0,000000000e+00
      996000000   -3,224816620e-01   -2,082696855e-01    3,671936393e-01   -3,571388125e-01    0,000000000e+00    0,000000000e+00    0,000000000e+00    0,000000000e+00
     1010000000   -3,422555625e-01   -4,093328491e-03    4,375661165e-02   -5,241870284e-01    0,000000000e+00    0,000000000e+00    0,000000000e+00    0,000000000e+00
     1024000000   -2,030666471e-01    9,185028821e-02   -3,460741341e-01   -3,797127306e-01    0,000000000e+00    0,000000000e+00    0,000000000e+00    0,000000000e+00
     1038000000   -1,331480891e-01    1,298453938e-02   -4,814890623e-01    6,329435855e-02    0,000000000e+00    0,000000000e+00    0,000000000e+00    0,000000000e+00
     1052000000   -2,892954648e-01    5,085859075e-02   -9,320534766e-02    3,716844022e-01    0,000000000e+00    0,000000000e+00    0,000000000e+00    0,000000000e+00
     1066000000   -1,490394324e-01    2,987798750e-01    1,434596181e-01    1,320916563e-01    0,000000000e+00    0,000000000e+00    0,000000000e+00    0,000000000e+00
     1080000000    9,710483998e-02    2,486916929e-01    9,019034356e-02    2,188571543e-02    0,000000000e+00    0,000000000e+00    0,000000000e+00    0,000000000e+00
     1094000000    2,190731764e-01    8,493534476e-02    6,980024278e-02    1,168257371e-02    0,000000000e+00    0,000000000e+00    0,000000000e+00    0,000000000e+00
     1108000000    2,431298047e-01   -8,445327729e-02    7,984615862e-02    6,789496983e-04    0,000000000e+00    0,000000000e+00    0,000000000e+00    0,000000000e+00
     1122000000    1,881352514e-01   -2,537639141e-01    1,019492745e-01   -2,526851557e-02    0,000000000e+00    0,000000000e+00    0,000000000e+00    0,000000000e+00
     1136000000    5,196440592e-02   -3,759451210e-01    1,247318760e-01   -7,282831520e-02    0,000000000e+00    0,000000000e+00    0,000000000e+00    0,000000000e+00
     1150000000   -1,567445248e-01   -4,256418645e-01    1,364037097e-01   -1,519858241e-01    0,000000000e+00    0,000000000e+00    0,000000000e+00    0,000000000e+00
     1164000000   -3,755159080e-01   -3,298624456e-01    9,954860061e-02   -2,767618895e-01    0,000000000e+00    0,000000000e+00    0,000000000e+00    0,000000000e+00
     1178000000   -4,630413651e-01   -8,952753991e-02   -1,031352356e-01   -4,075745940e-01    0,000000000e+00    0,000000000e+00    0,000000000e+00    0,000000000e+00
     1192000000   -3,788040876e-01    3,662861884e-02   -4,646003246e-01   -1,954515278e-01    0,000000000e+00    0,000000000e+00    0,000000000e+00    0,000000000e+00
     1206000000   -4,109464884e-01    1,365921944e-01   -2,758274972e-01    2,357964814e-01    0,000000000e+00    0,000000000e+00    0,000000000e+00    0,000000000e+00
     1220000000   -2,784133554e-01    3,350020945e-01   -2,450010274e-03    1,654244959e-01    0,000000000e+00    0,000000000e+00    0,000000000e+00    0,000000000e+00
     1234000000   -4,927334562e-02    3,525324166e-01    2,158246189e-02    5,676217005e-02    0,000000000e+00    0,000000000e+00    0,000000000e+00    0,000000000e+00
     1248000000    1,171638072e-01    2,490082234e-01    5,351088941e-03    2,210702002e-02    0,000000000e+00    0,000000000e+00    0,000000000e+00    0,000000000e+00
     1262000000    2,170229852e-01    1,028552353e-01    6,210587919e-03    3,219535574e-02    0,000000000e+00    0,000000000e+00    0,000000000e+00    0,000000000e+00
     1276000000    2,365325093e-01   -5,581797659e-02    2,842857316e-02    3,890774027e-02    0,000000000e+00    0,000000000e+00    0,000000000e+00    0,000000000e+00
     1290000000    1,933347732e-01   -2,130418122e-01    5,363318324e-02    2,601001225e-02    0,000000000e+00    0,000000000e+00    0,000000000e+00    0,000000000e+00
     1304000000    8,784627914e-02   -3,583948016e-01    7,861894369e-02    3,739619860e-03    0,000000000e+00    0,000000000e+00    0,000000000e+00    0,000000000e+00
     1318000000   -1,040050909e-01   -4,489224255e-01    8,016929030e-02   -1,172408275e-02    0,000000000e+00    0,000000000e+00    0,000000000e+00    0,000000000e+00
     1332000000   -3,528708518e-01   -4,368482828e-01    8,518711478e-02   -1,481713448e-02    0,000000000e+00    0,000000000e+00    0,000000000e+00    0,000000000e+00
     1346000000   -5,883590579e-01   -2,455709577e-01    1,086641401e-01    5,005809362e-04    0,000000000e+00    0,000000000e+00    0,000000000e+00    0,000000000e+00
     1360000000   -6,433151960e-01    6,919252127e-02    1,389348507e-01   -1,328049041e-02    0,000000000e+00    0,000000000e+00    0,000000000e+00    0,000000000e+00
     1374000000   -4,959155619e-01    3,319758773e-01    1,764318645e-01   -4,945885763e-02    0,000000000e+00    0,000000000e+00    0,000000000e+00    0,000000000e+00
     1388000000   -2,494074702e-01    4,308985174e-01    1,685784757e-01   -7,919752598e-02    0,000000000e+00    0,000000000e+00    0,000000000e+00    0,000000000e+00
     1402000000   -4,157911614e-02    3,933549523e-01    1,463436782e-01   -9,271895885e-02    0,000000000e+00    0,000000000e+00    0,000000000e+00    0,000000000e+00
     1416000000    1,044864357e-01    2,884698212e-01    1,282714605e-01   -7,560347766e-02    0,000000000e+00    0,000000000e+00    0,000000000e+00    0,000000000e+00
     1430000000    1,851136088e-01    1,499902159e-01    1,024114117e-01   -5,213521793e-02    0,000000000e+00    0,000000000e+00    0,000000000e+00    0,000000000e+00
     1444000000    2,170031369e-01   -9,517941624e-03    1,263037026e-01   -2,179736644e-02    0,000000000e+00    0,000000000e+00    0,000000000e+00    0,000000000e+00
     1458000000    1,816821545e-01   -1,812002957e-01    1,473924518e-01    2,746686526e-02    0,000000000e+00    0,000000000e+00    0,000000000e+00    0,000000000e+00
     1472000000    7,433932275e-02   -3,574377298e-01    2,065053135e-01    5,749706179e-02    0,000000000e+00    0,000000000e+00    0,000000000e+00    0,000000000e+00
     1486000000   -1,318553686e-01   -4,686684608e-01    3,044838607e-01    9,418916702e-02    0,000000000e+00    0,000000000e+00    0,000000000e+00    0,000000000e+00
     1500000000   -4,438659549e-01   -4,754841626e-01    3,923147917e-01    4,858722910e-02    0,000000000e+00    0,000000000e+00    0,000000000e+00    0,000000000e+00
