! NanoVNA-App
! Date: 2025-09-25 16:02:58
! Start: 100MHz Stop: 1,5GHz Points: 101
! S-Parameter data: F S11 S21 S12 S22
# Hz S RI R 50
!     Frequency           S11_Real           S11_Imag           S21_Real           S21_Imag           S12_Real           S12_Imag           S22_Real           S22_Imag
      100000000   -2,830743603e-02   -2,874013502e-03    3,723403215e-01   -7,224311829e-01    0,000000000e+00    0,000000000e+00    0,000000000e+00    0,000000000e+00
      114000000   -1,576475613e-02    1,290414948e-02   -9,129181504e-02   -8,046740294e-01    0,000000000e+00    0,000000000e+00    0,000000000e+00    0,000000000e+00
      128000000    4,321091343e-03    1,199932396e-02   -5,159493089e-01   -6,186690331e-01    0,000000000e+00    0,000000000e+00    0,000000000e+00    0,000000000e+00
      142000000    1,547673903e-02   -1,710186480e-03   -7,673916221e-01   -2,343202233e-01    0,000000000e+00    0,000000000e+00    0,000000000e+00    0,000000000e+00
      156000000    1,525182184e-02   -1,347141620e-02   -7,683824301e-01    2,213234156e-01    0,000000000e+00    0,000000000e+00    0,000000000e+00    0,000000000e+00
      170000000    1,767653786e-02   -2,093167044e-02   -5,154017806e-01    6,060450077e-01    0,000000000e+00    0,000000000e+00    0,000000000e+00    0,000000000e+00
      184000000    2,204135992e-02   -3,555592895e-02   -9,822630882e-02    7,859682441e-01    0,000000000e+00    0,000000000e+00    0,000000000e+00    0,000000000e+00
      198000000    1,404692791e-02   -6,062782183e-02    3,460395336e-01    7,108528018e-01    0,000000000e+00    0,000000000e+00    0,000000000e+00    0,000000000e+00
      212000000   -1,764656231e-02   -7,912749797e-02    6,807947755e-01    4,064154327e-01    0,000000000e+00    0,000000000e+00    0,000000000e+00    0,000000000e+00
      226000000   -6,028303131e-02   -6,666773558e-02    7,957580090e-01   -3,556533903e-02    0,000000000e+00    0,000000000e+00    0,000000000e+00    0,000000000e+00
      240000000   -8,050109446e-02   -2,270789258e-02    6,415618062e-01   -4,719732702e-01    0,000000000e+00    0,000000000e+00    0,000000000e+00    0,000000000e+00
      254000000   -6,082806364e-02    1,979794540e-02    2,708545029e-01   -7,417893410e-01    0,000000000e+00    0,000000000e+00    0,000000000e+00    0,000000000e+00
      268000000   -2,093736269e-02    3,093426488e-02   -1,809483021e-01   -7,607716322e-01    0,000000000e+00    0,000000000e+00    0,000000000e+00    0,000000000e+00
      282000000    6,967464462e-03    1,378736272e-02   -5,632995963e-01   -5,326332450e-01    0,000000000e+00    0,000000000e+00    0,000000000e+00    0,000000000e+00
      296000000    1,242942549e-02   -6,241953466e-03   -7,605797648e-01   -1,344495863e-01    0,000000000e+00    0,000000000e+00    0,000000000e+00    0,000000000e+00
      310000000    1,376619283e-02   -1,430456154e-02   -7,096465826e-01    3,052070439e-01    0,000000000e+00    0,000000000e+00    0,000000000e+00    0,000000000e+00
      324000000    2,240836993e-02   -2,488496155e-02   -4,214868248e-01    6,394897699e-01    0,000000000e+00    0,000000000e+00    0,000000000e+00    0,000000000e+00
      338000000    2,815433778e-02   -5,098408088e-02   -2,356054727e-03    7,608955503e-01    0,000000000e+00    0,000000000e+00    0,000000000e+00    0,000000000e+00
      352000000    1,004881412e-02   -8,294850588e-02    4,108503759e-01    6,349718571e-01    0,000000000e+00    0,000000000e+00    0,000000000e+00    0,000000000e+00
      366000000   -3,192475438e-02   -9,387509525e-02    6,932889819e-01    3,042470813e-01    0,000000000e+00    0,000000000e+00    0,000000000e+00    0,000000000e+00
      380000000   -6,762518734e-02   -6,875212491e-02    7,459689975e-01   -1,343500465e-01    0,000000000e+00    0,000000000e+00    0,000000000e+00    0,000000000e+00
      394000000   -6,864906102e-02   -3,054018319e-02    5,390671492e-01   -5,286194086e-01    0,000000000e+00    0,000000000e+00    0,000000000e+00    0,000000000e+00
      408000000   -4,278559983e-02   -1,568232663e-02    1,490894407e-01   -7,343624830e-01    0,000000000e+00    0,000000000e+00    0,000000000e+00    0,000000000e+00
      422000000   -2,615804598e-02   -3,127723187e-02   -2,795560360e-01   -6,903361082e-01    0,000000000e+00    0,000000000e+00    0,000000000e+00    0,000000000e+00
      436000000   -3,931125998e-02   -4,908955842e-02   -6,111720204e-01   -4,198030233e-01    0,000000000e+00    0,000000000e+00    0,000000000e+00    0,000000000e+00
      450000000   -6,452935189e-02   -3,940039873e-02   -7,368983626e-01   -7,585466374e-03    0,000000000e+00    0,000000000e+00    0,000000000e+00    0,000000000e+00
      464000000   -6,767247617e-02   -6,091416348e-03   -6,081946492e-01    4,066485167e-01    0,000000000e+00    0,000000000e+00    0,000000000e+00    0,000000000e+00
      478000000   -3,854157403e-02    1,632789709e-02   -2,672937810e-01    6,706033945e-01    0,000000000e+00    0,000000000e+00    0,000000000e+00    0,000000000e+00
      492000000   -5,056359805e-03    6,347822957e-03    1,515760124e-01    6,954303980e-01    0,000000000e+00    0,000000000e+00    0,000000000e+00    0,000000000e+00
      506000000    7,192460820e-03   -2,043811791e-02    5,080431104e-01    4,881752431e-01    0,000000000e+00    0,000000000e+00    0,000000000e+00    0,000000000e+00
      520000000    6,420072750e-04   -3,836843744e-02    6,884113550e-01    1,221777424e-01    0,000000000e+00    0,000000000e+00    0,000000000e+00    0,000000000e+00
      534000000   -3,278604709e-03   -4,564286396e-02    6,323732138e-01   -2,819239795e-01    0,000000000e+00    0,000000000e+00    0,000000000e+00    0,000000000e+00
      548000000    1,072504674e-03   -5,982477218e-02    3,598577380e-01   -5,803705454e-01    0,000000000e+00    0,000000000e+00    0,000000000e+00    0,000000000e+00
      562000000   -7,698694244e-03   -8,840042353e-02   -2,733715437e-02   -6,732774973e-01    0,000000000e+00    0,000000000e+00    0,000000000e+00    0,000000000e+00
      576000000   -4,547040164e-02   -1,095304787e-01   -4,003043473e-01   -5,388339162e-01    0,000000000e+00    0,000000000e+00    0,000000000e+00    0,000000000e+00
      590000000   -9,459784627e-02   -9,361456335e-02   -6,424779892e-01   -2,176645398e-01    0,000000000e+00    0,000000000e+00    0,000000000e+00    0,000000000e+00
      604000000   -1,120898649e-01   -4,111164808e-02   -6,479873061e-01    1,984388977e-01    0,000000000e+00    0,000000000e+00    0,000000000e+00    0,000000000e+00
      618000000   -7,644191384e-02   -2,336878330e-03   -4,017323256e-01    5,354157686e-01    0,000000000e+00    0,000000000e+00    0,000000000e+00    0,000000000e+00
      632000000   -3,033625148e-02   -2,139371075e-02   -1,309857983e-02    6,557015181e-01    0,000000000e+00    0,000000000e+00    0,000000000e+00    0,000000000e+00
      646000000   -3,611828387e-02   -7,614222169e-02    3,667203486e-01    5,275672674e-01    0,000000000e+00    0,000000000e+00    0,000000000e+00    0,000000000e+00
      660000000   -1,112830043e-01   -9,899786115e-02    6,016426682e-01    1,926791221e-01    0,000000000e+00    0,000000000e+00    0,000000000e+00    0,000000000e+00
      674000000   -1,984750926e-01   -2,398532070e-02    5,657432079e-01   -2,403242886e-01    0,000000000e+00    0,000000000e+00    0,000000000e+00    0,000000000e+00
      688000000   -1,793345362e-01    1,443126649e-01    2,096583247e-01   -5,220841169e-01    0,000000000e+00    0,000000000e+00    0,000000000e+00    0,000000000e+00
      702000000    2,553310618e-02    2,449973822e-01   -1,971893609e-01   -4,054830074e-01    0,000000000e+00    0,000000000e+00    0,000000000e+00    0,000000000e+00
      716000000    2,625385225e-01    1,110511944e-01   -2,741491199e-01   -8,452986181e-02    0,000000000e+00    0,000000000e+00    0,000000000e+00    0,000000000e+00
      730000000    3,041296303e-01   -1,852299720e-01   -1,084573120e-01    3,297773749e-02    0,000000000e+00    0,000000000e+00    0,000000000e+00    0,000000000e+00
      744000000    9,405327588e-02   -4,268498421e-01   -4,217279330e-02   -6,391610205e-02    0,000000000e+00    0,000000000e+00    0,000000000e+00    0,000000000e+00
      758000000   -2,597675323e-01   -4,290416539e-01   -1,742562503e-01   -1,251617968e-01    0,000000000e+00    0,000000000e+00    0,000000000e+00    0,000000000e+00
      772000000   -4,865946174e-01   -1,196216270e-01   -3,358455896e-01    3,729800880e-02    0,000000000e+00    0,000000000e+00    0,000000000e+00    0,000000000e+00
      786000000   -3,417213857e-01    2,213882804e-01   -2,628422081e-01    3,158396184e-01    0,000000000e+00    0,000000000e+00    0,000000000e+00    0,000000000e+00
      800000000   -4,151753336e-02    2,774944305e-01    2,352035372e-03    4,362338185e-01    0,000000000e+00    0,000000000e+00    0,000000000e+00    0,000000000e+00
      814000000    1,443596780e-01    1,253084987e-01    2,637462020e-01    3,597228527e-01    0,000000000e+00    0,000000000e+00    0,000000000e+00    0,000000000e+00
      828000000    1,681431979e-01   -7,038687170e-02    4,326155782e-01    1,567110866e-01    0,000000000e+00    0,000000000e+00    0,000000000e+00    0,000000000e+00
      842000000    6,814395636e-02   -2,183324695e-01    4,667704105e-01   -1,200651526e-01    0,000000000e+00    0,000000000e+00    0,000000000e+00    0,000000000e+00
      856000000   -1,072293073e-01   -2,641589046e-01    3,191341162e-01   -3,944703341e-01    0,000000000e+00    0,000000000e+00    0,000000000e+00    0,000000000e+00
      870000000   -2,745031416e-01   -1,682298779e-01   -1,624182914e-03   -5,267031789e-01    0,000000000e+00    0,000000000e+00    0,000000000e+00    0,000000000e+00
      884000000   -3,211492002e-01    3,486769646e-02   -3,489013612e-01   -3,930769861e-01    0,000000000e+00    0,000000000e+00    0,000000000e+00    0,000000000e+00
      898000000   -1,922395229e-01    2,063532323e-01   -4,888778925e-01   -6,285160035e-02    0,000000000e+00    0,000000000e+00    0,000000000e+00    0,000000000e+00
      912000000    7,753223181e-03    2,204998434e-01   -4,036692679e-01    2,636688650e-01    0,000000000e+00    0,000000000e+00    0,000000000e+00    0,000000000e+00
      926000000    1,511372775e-01    1,117362529e-01   -1,674136221e-01    4,161606431e-01    0,000000000e+00    0,000000000e+00    0,000000000e+00    0,000000000e+00
      940000000    2,010285854e-01   -4,624699056e-02    6,530745327e-02    4,260736406e-01    0,000000000e+00    0,000000000e+00    0,000000000e+00    0,000000000e+00
      954000000    1,562708020e-01   -2,040817738e-01    2,603113949e-01    3,412390053e-01    0,000000000e+00    0,000000000e+00    0,000000000e+00    0,000000000e+00
      968000000    2,749142051e-02   -3,139597476e-01    4,104135931e-01    1,784930676e-01    0,000000000e+00    0,000000000e+00    0,000000000e+00    0,000000000e+00
      982000000   -1,637140960e-01   -3,330369294e-01    4,756473303e-01   -6,603780389e-02    0,000000000e+00    0,000000000e+00    0,000000000e+00    0,000000000e+00
      996000000   -3,262980580e-01   -2,116656452e-01    3,689028621e-01   -3,557197154e-01    0,000000000e+00    0,000000000e+00    0,000000000e+00    0,000000000e+00
     1010000000   -3,430180252e-01   -4,814065527e-03    4,091517255e-02   -5,241760612e-01    0,000000000e+00    0,000000000e+00    0,000000000e+00    0,000000000e+00
     1024000000   -2,044692785e-01    9,014988691e-02   -3,441083729e-01   -3,770526946e-01    0,000000000e+00    0,000000000e+00    0,000000000e+00    0,000000000e+00
     1038000000   -1,324445754e-01    1,065240614e-02   -4,827932715e-01    6,280640513e-02    0,000000000e+00    0,000000000e+00    0,000000000e+00    0,000000000e+00
     1052000000   -2,839509249e-01    5,578971282e-02   -9,507018328e-02    3,730843663e-01    0,000000000e+00    0,000000000e+00    0,000000000e+00    0,000000000e+00
     1066000000   -1,464416981e-01    2,982689738e-01    1,413630992e-01    1,308895797e-01    0,000000000e+00    0,000000000e+00    0,000000000e+00    0,000000000e+00
     1080000000    1,000831798e-01    2,518877685e-01    9,175609797e-02    2,169895545e-02    0,000000000e+00    0,000000000e+00    0,000000000e+00    0,000000000e+00
     1094000000    2,183253020e-01    9,080272913e-02    7,006483525e-02    9,932410903e-03    0,000000000e+00    0,000000000e+00    0,000000000e+00    0,000000000e+00
     1108000000    2,441386580e-01   -8,659325540e-02    8,222850412e-02    5,114598316e-04    0,000000000e+00    0,000000000e+00    0,000000000e+00    0,000000000e+00
     1122000000    1,855381876e-01   -2,481059283e-01    1,044577658e-01   -2,590179257e-02    0,000000000e+00    0,000000000e+00    0,000000000e+00    0,000000000e+00
     1136000000    5,081541836e-02   -3,795346916e-01    1,283116788e-01   -7,348914444e-02    0,000000000e+00    0,000000000e+00    0,000000000e+00    0,000000000e+00
     1150000000   -1,599104702e-01   -4,225265980e-01    1,381513774e-01   -1,495791525e-01    0,000000000e+00    0,000000000e+00    0,000000000e+00    0,000000000e+00
     1164000000   -3,746989965e-01   -3,251281977e-01    1,013670191e-01   -2,750980556e-01    0,000000000e+00    0,000000000e+00    0,000000000e+00    0,000000000e+00
     1178000000   -4,690396190e-01   -9,103604406e-02   -1,054341272e-01   -4,081957340e-01    0,000000000e+00    0,000000000e+00    0,000000000e+00    0,000000000e+00
     1192000000   -3,769569695e-01    3,689396381e-02   -4,609267414e-01   -1,965162605e-01    0,000000000e+00    0,000000000e+00    0,000000000e+00    0,000000000e+00
     1206000000   -4,158605337e-01    1,373159885e-01   -2,707826793e-01    2,383392751e-01    0,000000000e+00    0,000000000e+00    0,000000000e+00    0,000000000e+00
     1220000000   -2,760677636e-01    3,285116553e-01   -3,798234276e-03    1,641394645e-01    0,000000000e+00    0,000000000e+00    0,000000000e+00    0,000000000e+00
     1234000000   -4,786544666e-02    3,528542817e-01    2,201602608e-02    5,172214285e-02    0,000000000e+00    0,000000000e+00    0,000000000e+00    0,000000000e+00
     1248000000    1,267149597e-01    2,501231730e-01    5,591990426e-03    2,329022810e-02    0,000000000e+00    0,000000000e+00    0,000000000e+00    0,000000000e+00
     1262000000    2,129330784e-01    1,062771454e-01    5,958927330e-03    3,195790574e-02    0,000000000e+00    0,000000000e+00    0,000000000e+00    0,000000000e+00
     1276000000    2,393689156e-01   -6,180719659e-02    3,086054884e-02    3,253415227e-02    0,000000000e+00    0,000000000e+00    0,000000000e+00    0,000000000e+00
     1290000000    1,874695867e-01   -2,160491347e-01    5,374519154e-02    2,695608512e-02    0,000000000e+00    0,000000000e+00    0,000000000e+00    0,000000000e+00
     1304000000    8,143363893e-02   -3,554479182e-01    6,969621778e-02    5,019390956e-03    0,000000000e+00    0,000000000e+00    0,000000000e+00    0,000000000e+00
     1318000000   -1,025631502e-01   -4,503771067e-01    8,396623284e-02   -1,398188900e-02    0,000000000e+00    0,000000000e+00    0,000000000e+00    0,000000000e+00
     1332000000   -3,550998271e-01   -4,290235043e-01    8,410265297e-02   -1,047115680e-02    0,000000000e+00    0,000000000e+00    0,000000000e+00    0,000000000e+00
     1346000000   -5,962960124e-01   -2,451293021e-01    9,846138209e-02   -2,735626185e-03    0,000000000e+00    0,000000000e+00    0,000000000e+00    0,000000000e+00
     1360000000   -6,447338462e-01    7,320205867e-02    1,404283196e-01   -2,240489796e-02    0,000000000e+00    0,000000000e+00    0,000000000e+00    0,000000000e+00
     1374000000   -4,922862053e-01    3,332248628e-01    1,580144763e-01   -4,670051113e-02    0,000000000e+00    0,000000000e+00    0,000000000e+00    0,000000000e+00
     1388000000   -2,448028624e-01    4,313811958e-01    1,669231951e-01   -8,140650392e-02    0,000000000e+00    0,000000000e+00    0,000000000e+00    0,000000000e+00
     1402000000   -4,228662699e-02    3,904634416e-01    1,401789486e-01   -9,084384888e-02    0,000000000e+00    0,000000000e+00    0,000000000e+00    0,000000000e+00
     1416000000    1,004980356e-01    2,824127078e-01    1,254063249e-01   -9,732207656e-02    0,000000000e+00    0,000000000e+00    0,000000000e+00    0,000000000e+00
     1430000000    1,926525384e-01    1,454209238e-01    1,151904389e-01   -9,000677615e-02    0,000000000e+00    0,000000000e+00    0,000000000e+00    0,000000000e+00
     1444000000    2,162826359e-01   -9,692130610e-03    1,226540357e-01   -1,646242850e-02    0,000000000e+00    0,000000000e+00    0,000000000e+00    0,000000000e+00
     1458000000    1,820173711e-01   -1,859729141e-01    1,459467262e-01    6,759297103e-03    0,000000000e+00    0,000000000e+00    0,000000000e+00    0,000000000e+00
     1472000000    7,607644051e-02   -3,495140672e-01    2,045727372e-01    5,934818834e-02    0,000000000e+00    0,000000000e+00    0,000000000e+00    0,000000000e+00
     1486000000   -1,332212985e-01   -4,700390399e-01    3,037338257e-01    8,398322761e-02    0,000000000e+00    0,000000000e+00    0,000000000e+00    0,000000000e+00
     1500000000   -4,321926534e-01   -4,663368762e-01    4,213974476e-01    5,728702992e-02    0,000000000e+00    0,000000000e+00    0,000000000e+00    0,000000000e+00
