! NanoVNA-App
! Date: 2025-09-25 15:58:51
! Start: 100MHz Stop: 1,5GHz Points: 101
! S-Parameter data: F S11 S21 S12 S22
# Hz S RI R 50
!     Frequency           S11_Real           S11_Imag           S21_Real           S21_Imag           S12_Real           S12_Imag           S22_Real           S22_Imag
      100000000   -2,824365161e-02   -2,846694784e-03    3,722527027e-01   -7,224407792e-01    0,000000000e+00    0,000000000e+00    0,000000000e+00    0,000000000e+00
      114000000   -1,569639146e-02    1,286633965e-02   -9,134871513e-02   -8,047656417e-01    0,000000000e+00    0,000000000e+00    0,000000000e+00    0,000000000e+00
      128000000    4,337375518e-03    1,194717363e-02   -5,157796741e-01   -6,188135147e-01    0,000000000e+00    0,000000000e+00    0,000000000e+00    0,000000000e+00
      142000000    1,546750870e-02   -1,778295613e-03   -7,675201893e-01   -2,342397869e-01    0,000000000e+00    0,000000000e+00    0,000000000e+00    0,000000000e+00
      156000000    1,745732501e-02   -1,383992285e-02   -7,677416205e-01    2,272873968e-01    0,000000000e+00    0,000000000e+00    0,000000000e+00    0,000000000e+00
      170000000    1,768618636e-02   -2,100947499e-02   -5,154392719e-01    6,063180566e-01    0,000000000e+00    0,000000000e+00    0,000000000e+00    0,000000000e+00
      184000000    2,197747119e-02   -3,555698320e-02   -9,806565195e-02    7,858856320e-01    0,000000000e+00    0,000000000e+00    0,000000000e+00    0,000000000e+00
      198000000    1,403606404e-02   -6,066086143e-02    3,461617529e-01    7,108248472e-01    0,000000000e+00    0,000000000e+00    0,000000000e+00    0,000000000e+00
      212000000   -1,773412526e-02   -7,915835828e-02    6,808085442e-01    4,063960314e-01    0,000000000e+00    0,000000000e+00    0,000000000e+00    0,000000000e+00
      226000000   -6,029833108e-02   -6,666883826e-02    7,957246304e-01   -3,561417013e-02    0,000000000e+00    0,000000000e+00    0,000000000e+00    0,000000000e+00
      240000000   -8,049848676e-02   -2,274103835e-02    6,413546205e-01   -4,717837870e-01    0,000000000e+00    0,000000000e+00    0,000000000e+00    0,000000000e+00
      254000000   -6,080724299e-02    1,983217523e-02    2,712184489e-01   -7,415376902e-01    0,000000000e+00    0,000000000e+00    0,000000000e+00    0,000000000e+00
      268000000   -2,097958513e-02    3,086987510e-02   -1,813184768e-01   -7,607421279e-01    0,000000000e+00    0,000000000e+00    0,000000000e+00    0,000000000e+00
      282000000    6,904933136e-03    1,370621193e-02   -5,631838441e-01   -5,324816704e-01    0,000000000e+00    0,000000000e+00    0,000000000e+00    0,000000000e+00
      296000000    1,234649215e-02   -6,226046477e-03   -7,604609132e-01   -1,344322115e-01    0,000000000e+00    0,000000000e+00    0,000000000e+00    0,000000000e+00
      310000000    1,374541689e-02   -1,448000036e-02   -7,088443041e-01    3,054265976e-01    0,000000000e+00    0,000000000e+00    0,000000000e+00    0,000000000e+00
      324000000    2,228555083e-02   -2,466601692e-02   -4,212616086e-01    6,394439340e-01    0,000000000e+00    0,000000000e+00    0,000000000e+00    0,000000000e+00
      338000000    2,844776027e-02   -5,059586838e-02   -5,804458633e-04    7,591746449e-01    0,000000000e+00    0,000000000e+00    0,000000000e+00    0,000000000e+00
      352000000    1,004492491e-02   -8,290935308e-02    4,115631282e-01    6,354646087e-01    0,000000000e+00    0,000000000e+00    0,000000000e+00    0,000000000e+00
      366000000   -3,193608299e-02   -9,379087389e-02    6,931475401e-01    3,035845160e-01    0,000000000e+00    0,000000000e+00    0,000000000e+00    0,000000000e+00
      380000000   -6,774787605e-02   -6,872545183e-02    7,456277609e-01   -1,341283768e-01    0,000000000e+00    0,000000000e+00    0,000000000e+00    0,000000000e+00
      394000000   -6,843745708e-02   -3,051248565e-02    5,396758914e-01   -5,297919512e-01    0,000000000e+00    0,000000000e+00    0,000000000e+00    0,000000000e+00
      408000000   -4,311102629e-02   -1,546519808e-02    1,495537460e-01   -7,345222235e-01    0,000000000e+00    0,000000000e+00    0,000000000e+00    0,000000000e+00
      422000000   -2,614028007e-02   -3,083068132e-02   -2,798961997e-01   -6,889459491e-01    0,000000000e+00    0,000000000e+00    0,000000000e+00    0,000000000e+00
      436000000   -3,939428180e-02   -4,912611470e-02   -6,106924415e-01   -4,198867977e-01    0,000000000e+00    0,000000000e+00    0,000000000e+00    0,000000000e+00
      450000000   -6,468661875e-02   -3,921452910e-02   -7,369404435e-01   -7,886293344e-03    0,000000000e+00    0,000000000e+00    0,000000000e+00    0,000000000e+00
      464000000   -6,778068095e-02   -6,055983249e-03   -6,079661846e-01    4,066044688e-01    0,000000000e+00    0,000000000e+00    0,000000000e+00    0,000000000e+00
      478000000   -3,903248534e-02    1,621479541e-02   -2,677302361e-01    6,702718139e-01    0,000000000e+00    0,000000000e+00    0,000000000e+00    0,000000000e+00
      492000000   -5,376225337e-03    6,251336541e-03    1,513117254e-01    6,949414611e-01    0,000000000e+00    0,000000000e+00    0,000000000e+00    0,000000000e+00
      506000000    7,060022093e-03   -2,017167769e-02    5,078284144e-01    4,880833924e-01    0,000000000e+00    0,000000000e+00    0,000000000e+00    0,000000000e+00
      520000000    4,014169681e-04   -3,899805993e-02    6,887050271e-01    1,214684919e-01    0,000000000e+00    0,000000000e+00    0,000000000e+00    0,000000000e+00
      534000000   -3,230472794e-03   -4,571669176e-02    6,325922608e-01   -2,821006477e-01    0,000000000e+00    0,000000000e+00    0,000000000e+00    0,000000000e+00
      548000000    8,230149979e-04   -6,012720242e-02    3,603994846e-01   -5,790791512e-01    0,000000000e+00    0,000000000e+00    0,000000000e+00    0,000000000e+00
      562000000   -7,569604553e-03   -8,874707669e-02   -2,623346448e-02   -6,728894114e-01    0,000000000e+00    0,000000000e+00    0,000000000e+00    0,000000000e+00
      576000000   -4,507650807e-02   -1,096586660e-01   -4,006787241e-01   -5,381304026e-01    0,000000000e+00    0,000000000e+00    0,000000000e+00    0,000000000e+00
      590000000   -9,467451274e-02   -9,333708137e-02   -6,391855478e-01   -2,185347825e-01    0,000000000e+00    0,000000000e+00    0,000000000e+00    0,000000000e+00
      604000000   -1,112594679e-01   -4,112332687e-02   -6,470186114e-01    1,984653324e-01    0,000000000e+00    0,000000000e+00    0,000000000e+00    0,000000000e+00
      618000000   -7,535487413e-02   -2,258659806e-03   -4,016277194e-01    5,358842015e-01    0,000000000e+00    0,000000000e+00    0,000000000e+00    0,000000000e+00
      632000000   -3,042306751e-02   -2,160135657e-02   -1,125300955e-02    6,549162865e-01    0,000000000e+00    0,000000000e+00    0,000000000e+00    0,000000000e+00
      646000000   -3,669067845e-02   -7,642171532e-02    3,662335575e-01    5,278552175e-01    0,000000000e+00    0,000000000e+00    0,000000000e+00    0,000000000e+00
      660000000   -1,114165336e-01   -1,000558436e-01    6,010516882e-01    1,936709732e-01    0,000000000e+00    0,000000000e+00    0,000000000e+00    0,000000000e+00
      674000000   -1,997886300e-01   -2,308859676e-02    5,648974180e-01   -2,399281263e-01    0,000000000e+00    0,000000000e+00    0,000000000e+00    0,000000000e+00
      688000000   -1,783954352e-01    1,442892104e-01    2,088361681e-01   -5,215879679e-01    0,000000000e+00    0,000000000e+00    0,000000000e+00    0,000000000e+00
      702000000    2,546324581e-02    2,460217923e-01   -1,988188177e-01   -4,096176624e-01    0,000000000e+00    0,000000000e+00    0,000000000e+00    0,000000000e+00
      716000000    2,645187378e-01    1,104122102e-01   -2,723440528e-01   -8,303812891e-02    0,000000000e+00    0,000000000e+00    0,000000000e+00    0,000000000e+00
      730000000    3,034528494e-01   -1,860261410e-01   -1,062527075e-01    3,184086084e-02    0,000000000e+00    0,000000000e+00    0,000000000e+00    0,000000000e+00
      744000000    9,211272001e-02   -4,273262620e-01   -4,230178148e-02   -6,593369693e-02    0,000000000e+00    0,000000000e+00    0,000000000e+00    0,000000000e+00
      758000000   -2,590141892e-01   -4,284842014e-01   -1,762860715e-01   -1,258300692e-01    0,000000000e+00    0,000000000e+00    0,000000000e+00    0,000000000e+00
      772000000   -4,850225747e-01   -1,200098470e-01   -3,368457556e-01    3,869919479e-02    0,000000000e+00    0,000000000e+00    0,000000000e+00    0,000000000e+00
      786000000   -3,413739800e-01    2,220687270e-01   -2,626874149e-01    3,170726001e-01    0,000000000e+00    0,000000000e+00    0,000000000e+00    0,000000000e+00
      800000000   -4,054364190e-02    2,767637670e-01    3,145131050e-03    4,374163449e-01    0,000000000e+00    0,000000000e+00    0,000000000e+00    0,000000000e+00
      814000000    1,445686817e-01    1,255305260e-01    2,639645040e-01    3,591430485e-01    0,000000000e+00    0,000000000e+00    0,000000000e+00    0,000000000e+00
      828000000    1,675190926e-01   -7,012211531e-02    4,332971871e-01    1,564733684e-01    0,000000000e+00    0,000000000e+00    0,000000000e+00    0,000000000e+00
      842000000    6,781044602e-02   -2,180412710e-01    4,669114053e-01   -1,201269552e-01    0,000000000e+00    0,000000000e+00    0,000000000e+00    0,000000000e+00
      856000000   -1,072128490e-01   -2,640704811e-01    3,192030787e-01   -3,941813111e-01    0,000000000e+00    0,000000000e+00    0,000000000e+00    0,000000000e+00
      870000000   -2,748876512e-01   -1,679645628e-01   -2,605853137e-03   -5,277593732e-01    0,000000000e+00    0,000000000e+00    0,000000000e+00    0,000000000e+00
      884000000   -3,201263547e-01    3,564549983e-02   -3,468371034e-01   -3,921688497e-01    0,000000000e+00    0,000000000e+00    0,000000000e+00    0,000000000e+00
      898000000   -1,922406554e-01    2,070788145e-01   -4,886660576e-01   -6,235776469e-02    0,000000000e+00    0,000000000e+00    0,000000000e+00    0,000000000e+00
      912000000    7,271543611e-03    2,191641480e-01   -4,014407098e-01    2,807953954e-01    0,000000000e+00    0,000000000e+00    0,000000000e+00    0,000000000e+00
      926000000    1,486227959e-01    1,132576019e-01   -1,692703068e-01    4,161933959e-01    0,000000000e+00    0,000000000e+00    0,000000000e+00    0,000000000e+00
      940000000    1,990830153e-01   -4,445524514e-02    6,293231994e-02    4,245289564e-01    0,000000000e+00    0,000000000e+00    0,000000000e+00    0,000000000e+00
      954000000    1,537378281e-01   -1,997264028e-01    2,609461248e-01    3,407620788e-01    0,000000000e+00    0,000000000e+00    0,000000000e+00    0,000000000e+00
      968000000    2,785176225e-02   -3,150400519e-01    4,103281796e-01    1,794168949e-01    0,000000000e+00    0,000000000e+00    0,000000000e+00    0,000000000e+00
      982000000   -1,637529582e-01   -3,338701427e-01    4,752413929e-01   -6,813762337e-02    0,000000000e+00    0,000000000e+00    0,000000000e+00    0,000000000e+00
      996000000   -3,246623874e-01   -2,131866068e-01    3,666411936e-01   -3,553755283e-01    0,000000000e+00    0,000000000e+00    0,000000000e+00    0,000000000e+00
     1010000000   -3,442746401e-01   -7,982441224e-03    4,391794279e-02   -5,254156590e-01    0,000000000e+00    0,000000000e+00    0,000000000e+00    0,000000000e+00
     1024000000   -2,033969015e-01    9,464088827e-02   -3,447125256e-01   -3,802787960e-01    0,000000000e+00    0,000000000e+00    0,000000000e+00    0,000000000e+00
     1038000000   -1,337002367e-01    7,335451897e-03   -4,822022617e-01    6,240703538e-02    0,000000000e+00    0,000000000e+00    0,000000000e+00    0,000000000e+00
     1052000000   -2,850312591e-01    5,443932861e-02   -9,321039915e-02    3,705307245e-01    0,000000000e+00    0,000000000e+00    0,000000000e+00    0,000000000e+00
     1066000000   -1,445615292e-01    2,964151800e-01    1,404980868e-01    1,303607523e-01    0,000000000e+00    0,000000000e+00    0,000000000e+00    0,000000000e+00
     1080000000    1,039216891e-01    2,471786588e-01    9,144796431e-02    2,144448273e-02    0,000000000e+00    0,000000000e+00    0,000000000e+00    0,000000000e+00
     1094000000    2,244250774e-01    8,693307638e-02    6,879662722e-02    7,418275345e-03    0,000000000e+00    0,000000000e+00    0,000000000e+00    0,000000000e+00
     1108000000    2,452300340e-01   -8,651309460e-02    8,024031669e-02   -2,381308703e-03    0,000000000e+00    0,000000000e+00    0,000000000e+00    0,000000000e+00
     1122000000    1,838760823e-01   -2,481187135e-01    1,042187810e-01   -2,787525952e-02    0,000000000e+00    0,000000000e+00    0,000000000e+00    0,000000000e+00
     1136000000    4,947792739e-02   -3,788077533e-01    1,264326423e-01   -7,503449172e-02    0,000000000e+00    0,000000000e+00    0,000000000e+00    0,000000000e+00
     1150000000   -1,572856605e-01   -4,214896858e-01    1,369527727e-01   -1,494932324e-01    0,000000000e+00    0,000000000e+00    0,000000000e+00    0,000000000e+00
     1164000000   -3,755195737e-01   -3,246851861e-01    9,580789506e-02   -2,782680094e-01    0,000000000e+00    0,000000000e+00    0,000000000e+00    0,000000000e+00
     1178000000   -4,669486880e-01   -9,121597558e-02   -1,045291275e-01   -4,084244668e-01    0,000000000e+00    0,000000000e+00    0,000000000e+00    0,000000000e+00
     1192000000   -3,702517450e-01    3,621645272e-02   -4,655800760e-01   -1,936194748e-01    0,000000000e+00    0,000000000e+00    0,000000000e+00    0,000000000e+00
     1206000000   -4,179403484e-01    1,325366050e-01   -2,750874460e-01    2,357190102e-01    0,000000000e+00    0,000000000e+00    0,000000000e+00    0,000000000e+00
     1220000000   -2,718428671e-01    3,298856020e-01   -2,086351858e-03    1,685380787e-01    0,000000000e+00    0,000000000e+00    0,000000000e+00    0,000000000e+00
     1234000000   -4,696488008e-02    3,531304300e-01    2,239464223e-02    5,894032493e-02    0,000000000e+00    0,000000000e+00    0,000000000e+00    0,000000000e+00
     1248000000    1,168584973e-01    2,491018474e-01   -2,633223776e-04    3,054129519e-02    0,000000000e+00    0,000000000e+00    0,000000000e+00    0,000000000e+00
     1262000000    2,101893276e-01    9,925702959e-02    9,604973602e-04    3,256236017e-02    0,000000000e+00    0,000000000e+00    0,000000000e+00    0,000000000e+00
     1276000000    2,342978418e-01   -6,149260700e-02    2,868352458e-02    3,544028103e-02    0,000000000e+00    0,000000000e+00    0,000000000e+00    0,000000000e+00
     1290000000    1,906925291e-01   -2,165544778e-01    5,365999788e-02    2,334358916e-02    0,000000000e+00    0,000000000e+00    0,000000000e+00    0,000000000e+00
     1304000000    8,428759873e-02   -3,550753593e-01    7,982952148e-02    1,450541615e-02    0,000000000e+00    0,000000000e+00    0,000000000e+00    0,000000000e+00
     1318000000   -1,064234450e-01   -4,485893250e-01    7,913062721e-02   -6,950240117e-03    0,000000000e+00    0,000000000e+00    0,000000000e+00    0,000000000e+00
     1332000000   -3,574942946e-01   -4,343519211e-01    8,325547725e-02   -1,123225782e-02    0,000000000e+00    0,000000000e+00    0,000000000e+00    0,000000000e+00
     1346000000   -5,932439566e-01   -2,487282008e-01    9,464158863e-02   -1,156043541e-02    0,000000000e+00    0,000000000e+00    0,000000000e+00    0,000000000e+00
     1360000000   -6,492805481e-01    7,259067893e-02    1,444169134e-01   -2,282649279e-02    0,000000000e+00    0,000000000e+00    0,000000000e+00    0,000000000e+00
     1374000000   -4,921636581e-01    3,378105164e-01    1,667927355e-01   -4,546210170e-02    0,000000000e+00    0,000000000e+00    0,000000000e+00    0,000000000e+00
     1388000000   -2,542571425e-01    4,266303480e-01    1,612479240e-01   -8,241561055e-02    0,000000000e+00    0,000000000e+00    0,000000000e+00    0,000000000e+00
     1402000000   -5,108703300e-02    3,871517479e-01    1,360209286e-01   -1,002792642e-01    0,000000000e+00    0,000000000e+00    0,000000000e+00    0,000000000e+00
     1416000000    1,046224162e-01    2,817943096e-01    1,257757843e-01   -9,465088695e-02    0,000000000e+00    0,000000000e+00    0,000000000e+00    0,000000000e+00
     1430000000    1,851246208e-01    1,424992234e-01    1,111590788e-01   -4,246678576e-02    0,000000000e+00    0,000000000e+00    0,000000000e+00    0,000000000e+00
     1444000000    2,179088891e-01   -1,154911146e-02    1,305525005e-01   -1,944913901e-02    0,000000000e+00    0,000000000e+00    0,000000000e+00    0,000000000e+00
     1458000000    1,830229461e-01   -1,841038615e-01    1,460055858e-01    2,397797443e-02    0,000000000e+00    0,000000000e+00    0,000000000e+00    0,000000000e+00
     1472000000    6,835836917e-02   -3,448963463e-01    1,883064210e-01    7,208242267e-02    0,000000000e+00    0,000000000e+00    0,000000000e+00    0,000000000e+00
     1486000000   -1,338814646e-01   -4,675455987e-01    3,069126904e-01    1,038740054e-01    0,000000000e+00    0,000000000e+00    0,000000000e+00    0,000000000e+00
     1500000000   -4,391290843e-01   -4,856559336e-01    4,042665660e-01    4,977288470e-02    0,000000000e+00    0,000000000e+00    0,000000000e+00    0,000000000e+00
