! NanoVNA-App
! Date: 2025-09-25 16:02:24
! Start: 100MHz Stop: 1,5GHz Points: 101
! S-Parameter data: F S11 S21 S12 S22
# Hz S RI R 50
!     Frequency           S11_Real           S11_Imag           S21_Real           S21_Imag           S12_Real           S12_Imag           S22_Real           S22_Imag
      100000000   -2,830717899e-02   -2,872588579e-03    3,723368347e-01   -7,224652767e-01    0,000000000e+00    0,000000000e+00    0,000000000e+00    0,000000000e+00
      114000000   -1,574259065e-02    1,292199455e-02   -9,134843946e-02   -8,045440912e-01    0,000000000e+00    0,000000000e+00    0,000000000e+00    0,000000000e+00
      128000000    4,351255484e-03    1,196094602e-02   -5,156986117e-01   -6,185842752e-01    0,000000000e+00    0,000000000e+00    0,000000000e+00    0,000000000e+00
      142000000    1,547312550e-02   -1,716340310e-03   -7,674316764e-01   -2,341122180e-01    0,000000000e+00    0,000000000e+00    0,000000000e+00    0,000000000e+00
      156000000    1,745028421e-02   -1,385800820e-02   -7,675500512e-01    2,273560315e-01    0,000000000e+00    0,000000000e+00    0,000000000e+00    0,000000000e+00
      170000000    1,768781804e-02   -2,093281783e-02   -5,153315067e-01    6,061355472e-01    0,000000000e+00    0,000000000e+00    0,000000000e+00    0,000000000e+00
      184000000    2,204767242e-02   -3,557154164e-02   -9,824588895e-02    7,858035564e-01    0,000000000e+00    0,000000000e+00    0,000000000e+00    0,000000000e+00
      198000000    1,404316444e-02   -6,064401567e-02    3,459562361e-01    7,107287645e-01    0,000000000e+00    0,000000000e+00    0,000000000e+00    0,000000000e+00
      212000000   -1,769265346e-02   -7,909638435e-02    6,808555126e-01    4,061900973e-01    0,000000000e+00    0,000000000e+00    0,000000000e+00    0,000000000e+00
      226000000   -6,027469784e-02   -6,665373594e-02    7,957889438e-01   -3,560533747e-02    0,000000000e+00    0,000000000e+00    0,000000000e+00    0,000000000e+00
      240000000   -8,053139597e-02   -2,276474051e-02    6,414431334e-01   -4,718093872e-01    0,000000000e+00    0,000000000e+00    0,000000000e+00    0,000000000e+00
      254000000   -6,080757454e-02    1,979696937e-02    2,710100710e-01   -7,420768738e-01    0,000000000e+00    0,000000000e+00    0,000000000e+00    0,000000000e+00
      268000000   -2,100662328e-02    3,086612187e-02   -1,813505441e-01   -7,609104514e-01    0,000000000e+00    0,000000000e+00    0,000000000e+00    0,000000000e+00
      282000000    6,867275573e-03    1,375011727e-02   -5,632892847e-01   -5,327487588e-01    0,000000000e+00    0,000000000e+00    0,000000000e+00    0,000000000e+00
      296000000    1,229208615e-02   -6,245866418e-03   -7,605630159e-01   -1,344452649e-01    0,000000000e+00    0,000000000e+00    0,000000000e+00    0,000000000e+00
      310000000    1,338356268e-02   -1,444023382e-02   -7,098747492e-01    3,038018942e-01    0,000000000e+00    0,000000000e+00    0,000000000e+00    0,000000000e+00
      324000000    2,249700204e-02   -2,454765886e-02   -4,208828509e-01    6,396904588e-01    0,000000000e+00    0,000000000e+00    0,000000000e+00    0,000000000e+00
      338000000    2,835962176e-02   -5,063213035e-02   -1,090178615e-03    7,628478408e-01    0,000000000e+00    0,000000000e+00    0,000000000e+00    0,000000000e+00
      352000000    1,030525472e-02   -8,307324350e-02    4,110825360e-01    6,345074773e-01    0,000000000e+00    0,000000000e+00    0,000000000e+00    0,000000000e+00
      366000000   -3,184226528e-02   -9,375765920e-02    6,929442286e-01    3,051964343e-01    0,000000000e+00    0,000000000e+00    0,000000000e+00    0,000000000e+00
      380000000   -6,769131124e-02   -6,881763041e-02    7,458097339e-01   -1,344546527e-01    0,000000000e+00    0,000000000e+00    0,000000000e+00    0,000000000e+00
      394000000   -6,832966954e-02   -3,021295741e-02    5,400265455e-01   -5,293488503e-01    0,000000000e+00    0,000000000e+00    0,000000000e+00    0,000000000e+00
      408000000   -4,296406358e-02   -1,565126516e-02    1,501612812e-01   -7,334958315e-01    0,000000000e+00    0,000000000e+00    0,000000000e+00    0,000000000e+00
      422000000   -2,599084191e-02   -3,131331876e-02   -2,791128755e-01   -6,909816265e-01    0,000000000e+00    0,000000000e+00    0,000000000e+00    0,000000000e+00
      436000000   -3,917759284e-02   -4,895566404e-02   -6,099861860e-01   -4,198218882e-01    0,000000000e+00    0,000000000e+00    0,000000000e+00    0,000000000e+00
      450000000   -6,460235268e-02   -3,911811113e-02   -7,372978926e-01   -7,376670837e-03    0,000000000e+00    0,000000000e+00    0,000000000e+00    0,000000000e+00
      464000000   -6,734206527e-02   -5,858511198e-03   -6,081577539e-01    4,061410427e-01    0,000000000e+00    0,000000000e+00    0,000000000e+00    0,000000000e+00
      478000000   -3,861043975e-02    1,578397863e-02   -2,681246996e-01    6,705060601e-01    0,000000000e+00    0,000000000e+00    0,000000000e+00    0,000000000e+00
      492000000   -5,014202092e-03    6,188612431e-03    1,518023461e-01    6,950520873e-01    0,000000000e+00    0,000000000e+00    0,000000000e+00    0,000000000e+00
      506000000    7,211056538e-03   -2,055126615e-02    5,080782175e-01    4,884706140e-01    0,000000000e+00    0,000000000e+00    0,000000000e+00    0,000000000e+00
      520000000    4,669529735e-04   -3,902582452e-02    6,894800067e-01    1,204178780e-01    0,000000000e+00    0,000000000e+00    0,000000000e+00    0,000000000e+00
      534000000   -3,178087063e-03   -4,574184492e-02    6,328939199e-01   -2,823736966e-01    0,000000000e+00    0,000000000e+00    0,000000000e+00    0,000000000e+00
      548000000    1,131400233e-03   -5,946213007e-02    3,604936004e-01   -5,792235732e-01    0,000000000e+00    0,000000000e+00    0,000000000e+00    0,000000000e+00
      562000000   -7,657030132e-03   -8,879498392e-02   -2,660914883e-02   -6,737102270e-01    0,000000000e+00    0,000000000e+00    0,000000000e+00    0,000000000e+00
      576000000   -4,548858479e-02   -1,096015498e-01   -4,007488191e-01   -5,380594730e-01    0,000000000e+00    0,000000000e+00    0,000000000e+00    0,000000000e+00
      590000000   -9,495966136e-02   -9,341167659e-02   -6,394198537e-01   -2,177052200e-01    0,000000000e+00    0,000000000e+00    0,000000000e+00    0,000000000e+00
      604000000   -1,118328199e-01   -4,083897546e-02   -6,472601295e-01    1,984846294e-01    0,000000000e+00    0,000000000e+00    0,000000000e+00    0,000000000e+00
      618000000   -7,624864578e-02   -1,970231300e-03   -4,018765986e-01    5,359914899e-01    0,000000000e+00    0,000000000e+00    0,000000000e+00    0,000000000e+00
      632000000   -3,051237948e-02   -2,060325257e-02   -1,155646704e-02    6,564381123e-01    0,000000000e+00    0,000000000e+00    0,000000000e+00    0,000000000e+00
      646000000   -3,678056970e-02   -7,710099220e-02    3,658497632e-01    5,276196599e-01    0,000000000e+00    0,000000000e+00    0,000000000e+00    0,000000000e+00
      660000000   -1,112901121e-01   -1,002854407e-01    6,014131308e-01    1,935865283e-01    0,000000000e+00    0,000000000e+00    0,000000000e+00    0,000000000e+00
      674000000   -1,997697651e-01   -2,313566767e-02    5,651195645e-01   -2,397938520e-01    0,000000000e+00    0,000000000e+00    0,000000000e+00    0,000000000e+00
      688000000   -1,787938476e-01    1,448484212e-01    2,106824666e-01   -5,228491426e-01    0,000000000e+00    0,000000000e+00    0,000000000e+00    0,000000000e+00
      702000000    2,574958280e-02    2,479767352e-01   -2,036468536e-01   -4,070119858e-01    0,000000000e+00    0,000000000e+00    0,000000000e+00    0,000000000e+00
      716000000    2,628314495e-01    1,111009419e-01   -2,740111351e-01   -8,371957392e-02    0,000000000e+00    0,000000000e+00    0,000000000e+00    0,000000000e+00
      730000000    3,040562868e-01   -1,856254041e-01   -1,077093706e-01    3,256540745e-02    0,000000000e+00    0,000000000e+00    0,000000000e+00    0,000000000e+00
      744000000    9,336721897e-02   -4,290226400e-01   -4,189756513e-02   -6,397774816e-02    0,000000000e+00    0,000000000e+00    0,000000000e+00    0,000000000e+00
      758000000   -2,586170137e-01   -4,291608930e-01   -1,751451790e-01   -1,251499653e-01    0,000000000e+00    0,000000000e+00    0,000000000e+00    0,000000000e+00
      772000000   -4,849789739e-01   -1,207988784e-01   -3,359853625e-01    3,805488348e-02    0,000000000e+00    0,000000000e+00    0,000000000e+00    0,000000000e+00
      786000000   -3,424591720e-01    2,222256362e-01   -2,626666129e-01    3,161778152e-01    0,000000000e+00    0,000000000e+00    0,000000000e+00    0,000000000e+00
      800000000   -4,083211347e-02    2,777487040e-01    2,605332760e-03    4,362055659e-01    0,000000000e+00    0,000000000e+00    0,000000000e+00    0,000000000e+00
      814000000    1,447917372e-01    1,255176514e-01    2,630561590e-01    3,589023054e-01    0,000000000e+00    0,000000000e+00    0,000000000e+00    0,000000000e+00
      828000000    1,680618823e-01   -7,073757052e-02    4,331454635e-01    1,569472849e-01    0,000000000e+00    0,000000000e+00    0,000000000e+00    0,000000000e+00
      842000000    6,762755662e-02   -2,184629738e-01    4,663966894e-01   -1,201795414e-01    0,000000000e+00    0,000000000e+00    0,000000000e+00    0,000000000e+00
      856000000   -1,064285561e-01   -2,644802034e-01    3,201766610e-01   -3,953002095e-01    0,000000000e+00    0,000000000e+00    0,000000000e+00    0,000000000e+00
      870000000   -2,752678990e-01   -1,678493321e-01   -3,193233395e-03   -5,260088444e-01    0,000000000e+00    0,000000000e+00    0,000000000e+00    0,000000000e+00
      884000000   -3,198775947e-01    3,636520356e-02   -3,476855159e-01   -3,931381106e-01    0,000000000e+00    0,000000000e+00    0,000000000e+00    0,000000000e+00
      898000000   -1,922898889e-01    2,064845860e-01   -4,890739918e-01   -6,278286129e-02    0,000000000e+00    0,000000000e+00    0,000000000e+00    0,000000000e+00
      912000000    7,318205200e-03    2,191764265e-01   -3,981271386e-01    2,802852988e-01    0,000000000e+00    0,000000000e+00    0,000000000e+00    0,000000000e+00
      926000000    1,495352089e-01    1,116759032e-01   -1,690723747e-01    4,158049524e-01    0,000000000e+00    0,000000000e+00    0,000000000e+00    0,000000000e+00
      940000000    1,992324144e-01   -4,822539166e-02    6,418707967e-02    4,237381220e-01    0,000000000e+00    0,000000000e+00    0,000000000e+00    0,000000000e+00
      954000000    1,513793766e-01   -2,014653683e-01    2,611544132e-01    3,414996266e-01    0,000000000e+00    0,000000000e+00    0,000000000e+00    0,000000000e+00
      968000000    2,546881698e-02   -3,128686845e-01    4,098740220e-01    1,804232150e-01    0,000000000e+00    0,000000000e+00    0,000000000e+00    0,000000000e+00
      982000000   -1,593555510e-01   -3,335502744e-01    4,737677574e-01   -6,699699908e-02    0,000000000e+00    0,000000000e+00    0,000000000e+00    0,000000000e+00
      996000000   -3,279210031e-01   -2,109801024e-01    3,681636751e-01   -3,570420742e-01    0,000000000e+00    0,000000000e+00    0,000000000e+00    0,000000000e+00
     1010000000   -3,391962051e-01   -4,861273803e-03    3,931195661e-02   -5,234815478e-01    0,000000000e+00    0,000000000e+00    0,000000000e+00    0,000000000e+00
     1024000000   -2,063617408e-01    8,884651959e-02   -3,465653658e-01   -3,782393634e-01    0,000000000e+00    0,000000000e+00    0,000000000e+00    0,000000000e+00
     1038000000   -1,362901181e-01    1,281011291e-02   -4,807900190e-01    6,643880904e-02    0,000000000e+00    0,000000000e+00    0,000000000e+00    0,000000000e+00
     1052000000   -2,882594168e-01    5,148379505e-02   -9,476131946e-02    3,723922968e-01    0,000000000e+00    0,000000000e+00    0,000000000e+00    0,000000000e+00
     1066000000   -1,511387974e-01    2,984621525e-01    1,408185363e-01    1,291632503e-01    0,000000000e+00    0,000000000e+00    0,000000000e+00    0,000000000e+00
     1080000000    9,727152437e-02    2,505212724e-01    9,061800689e-02    2,139050327e-02    0,000000000e+00    0,000000000e+00    0,000000000e+00    0,000000000e+00
     1094000000    2,229972482e-01    9,103279561e-02    7,002045959e-02    9,263759479e-03    0,000000000e+00    0,000000000e+00    0,000000000e+00    0,000000000e+00
     1108000000    2,435833514e-01   -8,558189124e-02    8,044386655e-02   -1,104488270e-03    0,000000000e+00    0,000000000e+00    0,000000000e+00    0,000000000e+00
     1122000000    1,845999956e-01   -2,492393553e-01    1,044341624e-01   -2,578051947e-02    0,000000000e+00    0,000000000e+00    0,000000000e+00    0,000000000e+00
     1136000000    5,190927163e-02   -3,776837289e-01    1,260445267e-01   -7,208843529e-02    0,000000000e+00    0,000000000e+00    0,000000000e+00    0,000000000e+00
     1150000000   -1,578376144e-01   -4,212579429e-01    1,386095881e-01   -1,490963250e-01    0,000000000e+00    0,000000000e+00    0,000000000e+00    0,000000000e+00
     1164000000   -3,750625253e-01   -3,273753822e-01    9,874456376e-02   -2,793565691e-01    0,000000000e+00    0,000000000e+00    0,000000000e+00    0,000000000e+00
     1178000000   -4,613469839e-01   -8,926425129e-02   -1,048322096e-01   -4,046343565e-01    0,000000000e+00    0,000000000e+00    0,000000000e+00    0,000000000e+00
     1192000000   -3,700822294e-01    3,744155541e-02   -4,647695422e-01   -1,964570731e-01    0,000000000e+00    0,000000000e+00    0,000000000e+00    0,000000000e+00
     1206000000   -4,180458784e-01    1,294048280e-01   -2,736864090e-01    2,359824181e-01    0,000000000e+00    0,000000000e+00    0,000000000e+00    0,000000000e+00
     1220000000   -2,762212753e-01    3,263295293e-01    2,061544365e-04    1,602322757e-01    0,000000000e+00    0,000000000e+00    0,000000000e+00    0,000000000e+00
     1234000000   -4,819253087e-02    3,520571291e-01    2,245578542e-02    5,424227193e-02    0,000000000e+00    0,000000000e+00    0,000000000e+00    0,000000000e+00
     1248000000    1,255984753e-01    2,499776930e-01    7,702264003e-03    2,253150754e-02    0,000000000e+00    0,000000000e+00    0,000000000e+00    0,000000000e+00
     1262000000    2,102617621e-01    9,889423847e-02    1,864221180e-03    2,802911215e-02    0,000000000e+00    0,000000000e+00    0,000000000e+00    0,000000000e+00
     1276000000    2,321736515e-01   -5,599110946e-02    2,659789659e-02    3,539522365e-02    0,000000000e+00    0,000000000e+00    0,000000000e+00    0,000000000e+00
     1290000000    1,961867660e-01   -2,152768821e-01    5,683323368e-02    2,862328291e-02    0,000000000e+00    0,000000000e+00    0,000000000e+00    0,000000000e+00
     1304000000    8,851904422e-02   -3,574581444e-01    7,852024585e-02    5,371137988e-03    0,000000000e+00    0,000000000e+00    0,000000000e+00    0,000000000e+00
     1318000000   -1,025051028e-01   -4,519942701e-01    8,603861928e-02   -1,387246884e-02    0,000000000e+00    0,000000000e+00    0,000000000e+00    0,000000000e+00
     1332000000   -3,663454354e-01   -4,344553947e-01    7,898007333e-02   -1,160573401e-02    0,000000000e+00    0,000000000e+00    0,000000000e+00    0,000000000e+00
     1346000000   -5,921307802e-01   -2,495058030e-01    9,617938846e-02   -1,027203910e-02    0,000000000e+00    0,000000000e+00    0,000000000e+00    0,000000000e+00
     1360000000   -6,461028457e-01    7,213712484e-02    1,413628161e-01   -2,394585637e-03    0,000000000e+00    0,000000000e+00    0,000000000e+00    0,000000000e+00
     1374000000   -4,932576418e-01    3,249203265e-01    1,675087363e-01   -5,874653533e-02    0,000000000e+00    0,000000000e+00    0,000000000e+00    0,000000000e+00
     1388000000   -2,505367398e-01    4,212257564e-01    1,669419259e-01   -9,287758917e-02    0,000000000e+00    0,000000000e+00    0,000000000e+00    0,000000000e+00
     1402000000   -4,752108455e-02    3,892261386e-01    1,335301399e-01   -9,693804383e-02    0,000000000e+00    0,000000000e+00    0,000000000e+00    0,000000000e+00
     1416000000    9,716176987e-02    2,880772650e-01    1,202123910e-01   -9,234075248e-02    0,000000000e+00    0,000000000e+00    0,000000000e+00    0,000000000e+00
     1430000000    1,904868931e-01    1,517862529e-01    1,242069080e-01   -6,677123904e-02    0,000000000e+00    0,000000000e+00    0,000000000e+00    0,000000000e+00
     1444000000    2,184920609e-01   -1,154392958e-02    1,256773323e-01   -2,512811497e-02    0,000000000e+00    0,000000000e+00    0,000000000e+00    0,000000000e+00
     1458000000    1,832220256e-01   -1,898597479e-01    1,363080889e-01    9,316450916e-03    0,000000000e+00    0,000000000e+00    0,000000000e+00    0,000000000e+00
     1472000000    6,626098603e-02   -3,540146947e-01    1,991083324e-01    5,326242372e-02    0,000000000e+00    0,000000000e+00    0,000000000e+00    0,000000000e+00
     1486000000   -1,461633891e-01   -4,725667536e-01    2,871546447e-01    8,922200650e-02    0,000000000e+00    0,000000000e+00    0,000000000e+00    0,000000000e+00
     1500000000   -4,396580756e-01   -4,847802818e-01    4,112024903e-01    4,858256876e-02    0,000000000e+00    0,000000000e+00    0,000000000e+00    0,000000000e+00
