! NanoVNA-App
! Date: 2025-09-25 15:57:18
! Start: 100MHz Stop: 1,5GHz Points: 101
! S-Parameter data: F S11 S21 S12 S22
# Hz S RI R 50
!     Frequency           S11_Real           S11_Imag           S21_Real           S21_Imag           S12_Real           S12_Imag           S22_Real           S22_Imag
      100000000   -2,821530402e-02   -2,833355917e-03    3,722954988e-01   -7,224699855e-01    0,000000000e+00    0,000000000e+00    0,000000000e+00    0,000000000e+00
      114000000   -1,563742198e-02    1,289898437e-02   -9,140291065e-02   -8,047659397e-01    0,000000000e+00    0,000000000e+00    0,000000000e+00    0,000000000e+00
      128000000    4,407494329e-03    1,183746383e-02   -5,159385204e-01   -6,187522411e-01    0,000000000e+00    0,000000000e+00    0,000000000e+00    0,000000000e+00
      142000000    1,549205091e-02   -1,809536130e-03   -7,674000859e-01   -2,340936810e-01    0,000000000e+00    0,000000000e+00    0,000000000e+00    0,000000000e+00
      156000000    1,618818566e-02   -1,377079729e-02   -7,705605030e-01    2,249784172e-01    0,000000000e+00    0,000000000e+00    0,000000000e+00    0,000000000e+00
      170000000    1,764517650e-02   -2,095829509e-02   -5,154972672e-01    6,058566570e-01    0,000000000e+00    0,000000000e+00    0,000000000e+00    0,000000000e+00
      184000000    2,201360650e-02   -3,559776768e-02   -9,834396839e-02    7,859809399e-01    0,000000000e+00    0,000000000e+00    0,000000000e+00    0,000000000e+00
      198000000    1,403936092e-02   -6,065751612e-02    3,461372554e-01    7,109286785e-01    0,000000000e+00    0,000000000e+00    0,000000000e+00    0,000000000e+00
      212000000   -1,774275117e-02   -7,911378890e-02    6,805993915e-01    4,061643481e-01    0,000000000e+00    0,000000000e+00    0,000000000e+00    0,000000000e+00
      226000000   -6,032334641e-02   -6,665512174e-02    7,956863642e-01   -3,546663746e-02    0,000000000e+00    0,000000000e+00    0,000000000e+00    0,000000000e+00
      240000000   -8,055276424e-02   -2,273531444e-02    6,414033175e-01   -4,717797935e-01    0,000000000e+00    0,000000000e+00    0,000000000e+00    0,000000000e+00
      254000000   -6,078986079e-02    1,981484331e-02    2,709100842e-01   -7,421776056e-01    0,000000000e+00    0,000000000e+00    0,000000000e+00    0,000000000e+00
      268000000   -2,095744945e-02    3,081837855e-02   -1,811938286e-01   -7,608695030e-01    0,000000000e+00    0,000000000e+00    0,000000000e+00    0,000000000e+00
      282000000    6,926494185e-03    1,374797896e-02   -5,631985664e-01   -5,322377086e-01    0,000000000e+00    0,000000000e+00    0,000000000e+00    0,000000000e+00
      296000000    1,236691326e-02   -6,153720431e-03   -7,603095174e-01   -1,342975199e-01    0,000000000e+00    0,000000000e+00    0,000000000e+00    0,000000000e+00
      310000000    1,353262737e-02   -1,441424619e-02   -7,092216015e-01    3,046335578e-01    0,000000000e+00    0,000000000e+00    0,000000000e+00    0,000000000e+00
      324000000    2,245754935e-02   -2,447889373e-02   -4,209644794e-01    6,397944093e-01    0,000000000e+00    0,000000000e+00    0,000000000e+00    0,000000000e+00
      338000000    2,848895080e-02   -5,047417060e-02   -2,448966727e-03    7,607190609e-01    0,000000000e+00    0,000000000e+00    0,000000000e+00    0,000000000e+00
      352000000    1,012936421e-02   -8,263631910e-02    4,118387401e-01    6,354572177e-01    0,000000000e+00    0,000000000e+00    0,000000000e+00    0,000000000e+00
      366000000   -3,166450188e-02   -9,379906207e-02    6,931284666e-01    3,040198982e-01    0,000000000e+00    0,000000000e+00    0,000000000e+00    0,000000000e+00
      380000000   -6,749942899e-02   -6,888873130e-02    7,462119460e-01   -1,340811700e-01    0,000000000e+00    0,000000000e+00    0,000000000e+00    0,000000000e+00
      394000000   -6,861983240e-02   -3,066218086e-02    5,384758711e-01   -5,289399028e-01    0,000000000e+00    0,000000000e+00    0,000000000e+00    0,000000000e+00
      408000000   -4,297297075e-02   -1,562441327e-02    1,500941813e-01   -7,343325019e-01    0,000000000e+00    0,000000000e+00    0,000000000e+00    0,000000000e+00
      422000000   -2,623493411e-02   -3,103214130e-02   -2,791009545e-01   -6,893115640e-01    0,000000000e+00    0,000000000e+00    0,000000000e+00    0,000000000e+00
      436000000   -3,942167759e-02   -4,913816974e-02   -6,100465059e-01   -4,193263650e-01    0,000000000e+00    0,000000000e+00    0,000000000e+00    0,000000000e+00
      450000000   -6,472017616e-02   -3,893989325e-02   -7,366972566e-01   -7,394130807e-03    0,000000000e+00    0,000000000e+00    0,000000000e+00    0,000000000e+00
      464000000   -6,757428497e-02   -6,366136018e-03   -6,074379086e-01    4,057390094e-01    0,000000000e+00    0,000000000e+00    0,000000000e+00    0,000000000e+00
      478000000   -3,854307905e-02    1,598163694e-02   -2,667468786e-01    6,695346236e-01    0,000000000e+00    0,000000000e+00    0,000000000e+00    0,000000000e+00
      492000000   -5,177748855e-03    6,290392485e-03    1,518179774e-01    6,946794391e-01    0,000000000e+00    0,000000000e+00    0,000000000e+00    0,000000000e+00
      506000000    6,817077287e-03   -2,013253979e-02    5,078571439e-01    4,885189235e-01    0,000000000e+00    0,000000000e+00    0,000000000e+00    0,000000000e+00
      520000000    3,640530922e-04   -3,839711845e-02    6,880473495e-01    1,222374663e-01    0,000000000e+00    0,000000000e+00    0,000000000e+00    0,000000000e+00
      534000000   -3,248017514e-03   -4,566894844e-02    6,328722835e-01   -2,820733786e-01    0,000000000e+00    0,000000000e+00    0,000000000e+00    0,000000000e+00
      548000000    1,305177109e-03   -5,996784940e-02    3,602763712e-01   -5,796199441e-01    0,000000000e+00    0,000000000e+00    0,000000000e+00    0,000000000e+00
      562000000   -8,108390495e-03   -8,844294399e-02   -2,689212933e-02   -6,725883484e-01    0,000000000e+00    0,000000000e+00    0,000000000e+00    0,000000000e+00
      576000000   -4,546224326e-02   -1,094665751e-01   -4,011862576e-01   -5,382905602e-01    0,000000000e+00    0,000000000e+00    0,000000000e+00    0,000000000e+00
      590000000   -9,469109029e-02   -9,325158596e-02   -6,409751177e-01   -2,202511132e-01    0,000000000e+00    0,000000000e+00    0,000000000e+00    0,000000000e+00
      604000000   -1,114800796e-01   -4,121959582e-02   -6,471078992e-01    1,984700710e-01    0,000000000e+00    0,000000000e+00    0,000000000e+00    0,000000000e+00
      618000000   -7,620437443e-02   -2,355196746e-03   -4,020017087e-01    5,357714295e-01    0,000000000e+00    0,000000000e+00    0,000000000e+00    0,000000000e+00
      632000000   -3,018851765e-02   -2,162338421e-02   -1,205984317e-02    6,558185816e-01    0,000000000e+00    0,000000000e+00    0,000000000e+00    0,000000000e+00
      646000000   -3,624940664e-02   -7,627326250e-02    3,654764891e-01    5,267627835e-01    0,000000000e+00    0,000000000e+00    0,000000000e+00    0,000000000e+00
      660000000   -1,111960039e-01   -1,002593637e-01    6,008190513e-01    1,938167214e-01    0,000000000e+00    0,000000000e+00    0,000000000e+00    0,000000000e+00
      674000000   -1,989745200e-01   -2,330044471e-02    5,647315979e-01   -2,397652715e-01    0,000000000e+00    0,000000000e+00    0,000000000e+00    0,000000000e+00
      688000000   -1,786374599e-01    1,445552558e-01    2,082128227e-01   -5,214746594e-01    0,000000000e+00    0,000000000e+00    0,000000000e+00    0,000000000e+00
      702000000    2,657037601e-02    2,457929552e-01   -1,996762753e-01   -4,022265077e-01    0,000000000e+00    0,000000000e+00    0,000000000e+00    0,000000000e+00
      716000000    2,644861341e-01    1,106222123e-01   -2,723947167e-01   -8,305361867e-02    0,000000000e+00    0,000000000e+00    0,000000000e+00    0,000000000e+00
      730000000    3,031909168e-01   -1,859279126e-01   -1,061308086e-01    3,164127842e-02    0,000000000e+00    0,000000000e+00    0,000000000e+00    0,000000000e+00
      744000000    9,313020855e-02   -4,270192087e-01   -4,207570106e-02   -6,608232111e-02    0,000000000e+00    0,000000000e+00    0,000000000e+00    0,000000000e+00
      758000000   -2,601657510e-01   -4,286092222e-01   -1,766809672e-01   -1,259717792e-01    0,000000000e+00    0,000000000e+00    0,000000000e+00    0,000000000e+00
      772000000   -4,839362502e-01   -1,182025447e-01   -3,371205926e-01    3,838258609e-02    0,000000000e+00    0,000000000e+00    0,000000000e+00    0,000000000e+00
      786000000   -3,417230248e-01    2,220643163e-01   -2,624603510e-01    3,165558875e-01    0,000000000e+00    0,000000000e+00    0,000000000e+00    0,000000000e+00
      800000000   -4,152340442e-02    2,758590579e-01    2,748133615e-03    4,371034503e-01    0,000000000e+00    0,000000000e+00    0,000000000e+00    0,000000000e+00
      814000000    1,439788043e-01    1,251275688e-01    2,644077241e-01    3,595131338e-01    0,000000000e+00    0,000000000e+00    0,000000000e+00    0,000000000e+00
      828000000    1,680377871e-01   -7,026659697e-02    4,328130782e-01    1,570424289e-01    0,000000000e+00    0,000000000e+00    0,000000000e+00    0,000000000e+00
      842000000    6,744755059e-02   -2,180791944e-01    4,667863250e-01   -1,202814281e-01    0,000000000e+00    0,000000000e+00    0,000000000e+00    0,000000000e+00
      856000000   -1,068704799e-01   -2,627600431e-01    3,195702732e-01   -3,942562640e-01    0,000000000e+00    0,000000000e+00    0,000000000e+00    0,000000000e+00
      870000000   -2,738690376e-01   -1,678822190e-01   -2,384632127e-03   -5,276782513e-01    0,000000000e+00    0,000000000e+00    0,000000000e+00    0,000000000e+00
      884000000   -3,203912377e-01    3,503851220e-02   -3,479524553e-01   -3,929620981e-01    0,000000000e+00    0,000000000e+00    0,000000000e+00    0,000000000e+00
      898000000   -1,923604459e-01    2,069956958e-01   -4,895018935e-01   -6,177003309e-02    0,000000000e+00    0,000000000e+00    0,000000000e+00    0,000000000e+00
      912000000    6,726303138e-03    2,179903239e-01   -4,041629434e-01    2,632611692e-01    0,000000000e+00    0,000000000e+00    0,000000000e+00    0,000000000e+00
      926000000    1,511951983e-01    1,117379740e-01   -1,684180200e-01    4,179492891e-01    0,000000000e+00    0,000000000e+00    0,000000000e+00    0,000000000e+00
      940000000    1,994691640e-01   -4,449763522e-02    6,546717882e-02    4,251873493e-01    0,000000000e+00    0,000000000e+00    0,000000000e+00    0,000000000e+00
      954000000    1,547320932e-01   -1,996959299e-01    2,610151470e-01    3,433293998e-01    0,000000000e+00    0,000000000e+00    0,000000000e+00    0,000000000e+00
      968000000    2,320291661e-02   -3,136547208e-01    4,112339318e-01    1,786418855e-01    0,000000000e+00    0,000000000e+00    0,000000000e+00    0,000000000e+00
      982000000   -1,657025814e-01   -3,308303058e-01    4,744058847e-01   -6,762439758e-02    0,000000000e+00    0,000000000e+00    0,000000000e+00    0,000000000e+00
      996000000   -3,220658898e-01   -2,083323598e-01    3,687311113e-01   -3,551613092e-01    0,000000000e+00    0,000000000e+00    0,000000000e+00    0,000000000e+00
     1010000000   -3,416787386e-01   -1,008676179e-02    4,302885011e-02   -5,246586204e-01    0,000000000e+00    0,000000000e+00    0,000000000e+00    0,000000000e+00
     1024000000   -2,086548954e-01    9,456790984e-02   -3,447248340e-01   -3,807136714e-01    0,000000000e+00    0,000000000e+00    0,000000000e+00    0,000000000e+00
     1038000000   -1,375182867e-01    8,773111738e-03   -4,816506207e-01    6,129987165e-02    0,000000000e+00    0,000000000e+00    0,000000000e+00    0,000000000e+00
     1052000000   -2,900528014e-01    4,971688613e-02   -9,520360082e-02    3,732036650e-01    0,000000000e+00    0,000000000e+00    0,000000000e+00    0,000000000e+00
     1066000000   -1,501823068e-01    2,976798415e-01    1,445541233e-01    1,303714365e-01    0,000000000e+00    0,000000000e+00    0,000000000e+00    0,000000000e+00
     1080000000    1,023678631e-01    2,469641417e-01    9,211826324e-02    2,192790061e-02    0,000000000e+00    0,000000000e+00    0,000000000e+00    0,000000000e+00
     1094000000    2,172754556e-01    8,820448816e-02    7,022136450e-02    8,394602686e-03    0,000000000e+00    0,000000000e+00    0,000000000e+00    0,000000000e+00
     1108000000    2,426905185e-01   -8,482091874e-02    8,196584135e-02   -8,827257552e-04    0,000000000e+00    0,000000000e+00    0,000000000e+00    0,000000000e+00
     1122000000    1,831193119e-01   -2,483321577e-01    1,058423147e-01   -2,623343281e-02    0,000000000e+00    0,000000000e+00    0,000000000e+00    0,000000000e+00
     1136000000    4,681438953e-02   -3,794654012e-01    1,252065599e-01   -7,517527789e-02    0,000000000e+00    0,000000000e+00    0,000000000e+00    0,000000000e+00
     1150000000   -1,534333825e-01   -4,243995547e-01    1,369212866e-01   -1,518317312e-01    0,000000000e+00    0,000000000e+00    0,000000000e+00    0,000000000e+00
     1164000000   -3,781794906e-01   -3,255396783e-01    9,695546329e-02   -2,771365643e-01    0,000000000e+00    0,000000000e+00    0,000000000e+00    0,000000000e+00
     1178000000   -4,660678208e-01   -8,814550191e-02   -1,076194718e-01   -4,027319252e-01    0,000000000e+00    0,000000000e+00    0,000000000e+00    0,000000000e+00
     1192000000   -3,749648929e-01    4,044661671e-02   -4,662695527e-01   -2,005422413e-01    0,000000000e+00    0,000000000e+00    0,000000000e+00    0,000000000e+00
     1206000000   -4,160997570e-01    1,335889101e-01   -2,769181728e-01    2,389886081e-01    0,000000000e+00    0,000000000e+00    0,000000000e+00    0,000000000e+00
     1220000000   -2,731658220e-01    3,341295719e-01   -6,479434669e-03    1,640167385e-01    0,000000000e+00    0,000000000e+00    0,000000000e+00    0,000000000e+00
     1234000000   -4,843919352e-02    3,484767973e-01    2,260020003e-02    4,845664278e-02    0,000000000e+00    0,000000000e+00    0,000000000e+00    0,000000000e+00
     1248000000    1,237074584e-01    2,464239895e-01    6,487819366e-03    2,587944642e-02    0,000000000e+00    0,000000000e+00    0,000000000e+00    0,000000000e+00
     1262000000    2,078697979e-01    9,993509948e-02   -5,422406248e-04    3,169229254e-02    0,000000000e+00    0,000000000e+00    0,000000000e+00    0,000000000e+00
     1276000000    2,353834063e-01   -5,463579670e-02    2,833637409e-02    3,704017028e-02    0,000000000e+00    0,000000000e+00    0,000000000e+00    0,000000000e+00
     1290000000    1,930447072e-01   -2,107630819e-01    5,362737179e-02    2,430325001e-02    0,000000000e+00    0,000000000e+00    0,000000000e+00    0,000000000e+00
     1304000000    7,995755970e-02   -3,566973507e-01    6,725129485e-02    2,746891929e-03    0,000000000e+00    0,000000000e+00    0,000000000e+00    0,000000000e+00
     1318000000   -1,009526849e-01   -4,454792440e-01    8,471977711e-02   -5,567939952e-03    0,000000000e+00    0,000000000e+00    0,000000000e+00    0,000000000e+00
     1332000000   -3,524603248e-01   -4,305068552e-01    9,295184165e-02   -2,168201841e-02    0,000000000e+00    0,000000000e+00    0,000000000e+00    0,000000000e+00
     1346000000   -5,898205638e-01   -2,482568175e-01    9,471493959e-02   -1,002220996e-02    0,000000000e+00    0,000000000e+00    0,000000000e+00    0,000000000e+00
     1360000000   -6,500203013e-01    7,618688047e-02    1,412019432e-01   -8,602133021e-03    0,000000000e+00    0,000000000e+00    0,000000000e+00    0,000000000e+00
     1374000000   -4,903477132e-01    3,357531726e-01    1,668768674e-01   -4,222032800e-02    0,000000000e+00    0,000000000e+00    0,000000000e+00    0,000000000e+00
     1388000000   -2,508836985e-01    4,293524027e-01    1,608570069e-01   -9,175080061e-02    0,000000000e+00    0,000000000e+00    0,000000000e+00    0,000000000e+00
     1402000000   -4,628702626e-02    3,876144588e-01    1,435856968e-01   -1,008978561e-01    0,000000000e+00    0,000000000e+00    0,000000000e+00    0,000000000e+00
     1416000000    1,014895439e-01    2,875334918e-01    1,134573743e-01   -8,380753547e-02    0,000000000e+00    0,000000000e+00    0,000000000e+00    0,000000000e+00
     1430000000    1,912581921e-01    1,530127972e-01    1,436777115e-01   -5,289936066e-02    0,000000000e+00    0,000000000e+00    0,000000000e+00    0,000000000e+00
     1444000000    2,112030834e-01   -9,434576146e-03    1,163274571e-01   -1,724540442e-02    0,000000000e+00    0,000000000e+00    0,000000000e+00    0,000000000e+00
     1458000000    1,831696182e-01   -1,812831908e-01    1,534716934e-01    1,102195866e-02    0,000000000e+00    0,000000000e+00    0,000000000e+00    0,000000000e+00
     1472000000    6,350722909e-02   -3,535352647e-01    1,876224130e-01    5,464059860e-02    0,000000000e+00    0,000000000e+00    0,000000000e+00    0,000000000e+00
     1486000000   -1,410805732e-01   -4,741638899e-01    2,909871340e-01    7,292616367e-02    0,000000000e+00    0,000000000e+00    0,000000000e+00    0,000000000e+00
     1500000000   -4,379396737e-01   -4,815703928e-01    4,243009984e-01    4,387529939e-02    0,000000000e+00    0,000000000e+00    0,000000000e+00    0,000000000e+00
