! NanoVNA-App
! Date: 2025-09-25 15:59:12
! Start: 100MHz Stop: 1,5GHz Points: 101
! S-Parameter data: F S11 S21 S12 S22
# Hz S RI R 50
!     Frequency           S11_Real           S11_Imag           S21_Real           S21_Imag           S12_Real           S12_Imag           S22_Real           S22_Imag
      100000000   -2,824063972e-02   -2,857337939e-03    3,722819388e-01   -7,224537730e-01    0,000000000e+00    0,000000000e+00    0,000000000e+00    0,000000000e+00
      114000000   -1,570270769e-02    1,288796961e-02   -9,125097841e-02   -8,046709299e-01    0,000000000e+00    0,000000000e+00    0,000000000e+00    0,000000000e+00
      128000000    4,332954064e-03    1,186926384e-02   -5,158109665e-01   -6,185938716e-01    0,000000000e+00    0,000000000e+00    0,000000000e+00    0,000000000e+00
      142000000    1,547210291e-02   -1,757723163e-03   -7,674369812e-01   -2,341789305e-01    0,000000000e+00    0,000000000e+00    0,000000000e+00    0,000000000e+00
      156000000    1,704856008e-02   -1,342230849e-02   -7,657551169e-01    2,262215763e-01    0,000000000e+00    0,000000000e+00    0,000000000e+00    0,000000000e+00
      170000000    1,773349755e-02   -2,097952925e-02   -5,157226920e-01    6,060099602e-01    0,000000000e+00    0,000000000e+00    0,000000000e+00    0,000000000e+00
      184000000    2,204715274e-02   -3,557397053e-02   -9,822116047e-02    7,857643366e-01    0,000000000e+00    0,000000000e+00    0,000000000e+00    0,000000000e+00
      198000000    1,400829945e-02   -6,065517291e-02    3,461585939e-01    7,106301188e-01    0,000000000e+00    0,000000000e+00    0,000000000e+00    0,000000000e+00
      212000000   -1,764534228e-02   -7,915404439e-02    6,805399656e-01    4,062474072e-01    0,000000000e+00    0,000000000e+00    0,000000000e+00    0,000000000e+00
      226000000   -6,035833806e-02   -6,662134081e-02    7,958161235e-01   -3,553256392e-02    0,000000000e+00    0,000000000e+00    0,000000000e+00    0,000000000e+00
      240000000   -8,054912835e-02   -2,284178697e-02    6,413789988e-01   -4,714578986e-01    0,000000000e+00    0,000000000e+00    0,000000000e+00    0,000000000e+00
      254000000   -6,079916283e-02    1,981563866e-02    2,709793150e-01   -7,420350909e-01    0,000000000e+00    0,000000000e+00    0,000000000e+00    0,000000000e+00
      268000000   -2,096519805e-02    3,079511039e-02   -1,811186820e-01   -7,608693242e-01    0,000000000e+00    0,000000000e+00    0,000000000e+00    0,000000000e+00
      282000000    6,908936892e-03    1,375643164e-02   -5,632660985e-01   -5,322412848e-01    0,000000000e+00    0,000000000e+00    0,000000000e+00    0,000000000e+00
      296000000    1,246641204e-02   -6,233741995e-03   -7,605212331e-01   -1,344605982e-01    0,000000000e+00    0,000000000e+00    0,000000000e+00    0,000000000e+00
      310000000    1,355588064e-02   -1,441274397e-02   -7,094528675e-01    3,056181669e-01    0,000000000e+00    0,000000000e+00    0,000000000e+00    0,000000000e+00
      324000000    2,253345028e-02   -2,462467924e-02   -4,209092855e-01    6,397264600e-01    0,000000000e+00    0,000000000e+00    0,000000000e+00    0,000000000e+00
      338000000    2,841531858e-02   -5,075504258e-02   -1,237158664e-03    7,594385147e-01    0,000000000e+00    0,000000000e+00    0,000000000e+00    0,000000000e+00
      352000000    1,012724917e-02   -8,283017576e-02    4,109428227e-01    6,343096495e-01    0,000000000e+00    0,000000000e+00    0,000000000e+00    0,000000000e+00
      366000000   -3,197797388e-02   -9,381636232e-02    6,929310560e-01    3,037499487e-01    0,000000000e+00    0,000000000e+00    0,000000000e+00    0,000000000e+00
      380000000   -6,747218966e-02   -6,867001206e-02    7,455558181e-01   -1,337075979e-01    0,000000000e+00    0,000000000e+00    0,000000000e+00    0,000000000e+00
      394000000   -6,854363531e-02   -3,041857667e-02    5,397850275e-01   -5,277090073e-01    0,000000000e+00    0,000000000e+00    0,000000000e+00    0,000000000e+00
      408000000   -4,287666082e-02   -1,568037830e-02    1,494065821e-01   -7,342303991e-01    0,000000000e+00    0,000000000e+00    0,000000000e+00    0,000000000e+00
      422000000   -2,590960823e-02   -3,135582432e-02   -2,790585458e-01   -6,902629733e-01    0,000000000e+00    0,000000000e+00    0,000000000e+00    0,000000000e+00
      436000000   -3,917300329e-02   -4,901909083e-02   -6,105986238e-01   -4,197746813e-01    0,000000000e+00    0,000000000e+00    0,000000000e+00    0,000000000e+00
      450000000   -6,480046362e-02   -3,921731189e-02   -7,370251417e-01   -7,789835334e-03    0,000000000e+00    0,000000000e+00    0,000000000e+00    0,000000000e+00
      464000000   -6,797284633e-02   -6,307200063e-03   -6,076058149e-01    4,057647586e-01    0,000000000e+00    0,000000000e+00    0,000000000e+00    0,000000000e+00
      478000000   -3,853685409e-02    1,576595753e-02   -2,684755027e-01    6,701418161e-01    0,000000000e+00    0,000000000e+00    0,000000000e+00    0,000000000e+00
      492000000   -5,351458210e-03    6,385605317e-03    1,520780921e-01    6,954346895e-01    0,000000000e+00    0,000000000e+00    0,000000000e+00    0,000000000e+00
      506000000    6,995613221e-03   -2,018936723e-02    5,082044005e-01    4,885035157e-01    0,000000000e+00    0,000000000e+00    0,000000000e+00    0,000000000e+00
      520000000    8,153014933e-04   -3,821667656e-02    6,897170544e-01    1,220225617e-01    0,000000000e+00    0,000000000e+00    0,000000000e+00    0,000000000e+00
      534000000   -3,141559195e-03   -4,536908492e-02    6,322001815e-01   -2,819663286e-01    0,000000000e+00    0,000000000e+00    0,000000000e+00    0,000000000e+00
      548000000    6,438168348e-04   -5,959204584e-02    3,595108986e-01   -5,787474513e-01    0,000000000e+00    0,000000000e+00    0,000000000e+00    0,000000000e+00
      562000000   -7,625668775e-03   -8,868539333e-02   -2,620095760e-02   -6,727769971e-01    0,000000000e+00    0,000000000e+00    0,000000000e+00    0,000000000e+00
      576000000   -4,547673836e-02   -1,095253006e-01   -4,013766944e-01   -5,387517214e-01    0,000000000e+00    0,000000000e+00    0,000000000e+00    0,000000000e+00
      590000000   -9,484366328e-02   -9,354978800e-02   -6,407523751e-01   -2,162973136e-01    0,000000000e+00    0,000000000e+00    0,000000000e+00    0,000000000e+00
      604000000   -1,116374284e-01   -4,139079899e-02   -6,473278403e-01    1,978054047e-01    0,000000000e+00    0,000000000e+00    0,000000000e+00    0,000000000e+00
      618000000   -7,610405236e-02   -2,611358650e-03   -4,017543197e-01    5,350238681e-01    0,000000000e+00    0,000000000e+00    0,000000000e+00    0,000000000e+00
      632000000   -3,034336679e-02   -2,145938016e-02   -1,162991952e-02    6,540413499e-01    0,000000000e+00    0,000000000e+00    0,000000000e+00    0,000000000e+00
      646000000   -3,613645211e-02   -7,731282711e-02    3,658429980e-01    5,269550085e-01    0,000000000e+00    0,000000000e+00    0,000000000e+00    0,000000000e+00
      660000000   -1,112994030e-01   -1,005728692e-01    6,012266874e-01    1,927103251e-01    0,000000000e+00    0,000000000e+00    0,000000000e+00    0,000000000e+00
      674000000   -2,004040182e-01   -2,331862785e-02    5,650915504e-01   -2,400421053e-01    0,000000000e+00    0,000000000e+00    0,000000000e+00    0,000000000e+00
      688000000   -1,794874966e-01    1,446157396e-01    2,089795917e-01   -5,218567252e-01    0,000000000e+00    0,000000000e+00    0,000000000e+00    0,000000000e+00
      702000000    2,534259111e-02    2,469652593e-01   -2,025495470e-01   -4,056443274e-01    0,000000000e+00    0,000000000e+00    0,000000000e+00    0,000000000e+00
      716000000    2,639451325e-01    1,103213802e-01   -2,728524804e-01   -8,385908604e-02    0,000000000e+00    0,000000000e+00    0,000000000e+00    0,000000000e+00
      730000000    3,033550680e-01   -1,864183396e-01   -1,068626195e-01    3,232511133e-02    0,000000000e+00    0,000000000e+00    0,000000000e+00    0,000000000e+00
      744000000    9,272502363e-02   -4,278085232e-01   -4,243997112e-02   -6,505256146e-02    0,000000000e+00    0,000000000e+00    0,000000000e+00    0,000000000e+00
      758000000   -2,580136955e-01   -4,282532930e-01   -1,760357320e-01   -1,258828342e-01    0,000000000e+00    0,000000000e+00    0,000000000e+00    0,000000000e+00
      772000000   -4,848010242e-01   -1,202100739e-01   -3,367547393e-01    3,827757761e-02    0,000000000e+00    0,000000000e+00    0,000000000e+00    0,000000000e+00
      786000000   -3,409139514e-01    2,213792056e-01   -2,632190585e-01    3,169020116e-01    0,000000000e+00    0,000000000e+00    0,000000000e+00    0,000000000e+00
      800000000   -4,133827612e-02    2,764550447e-01    2,528568264e-03    4,366452396e-01    0,000000000e+00    0,000000000e+00    0,000000000e+00    0,000000000e+00
      814000000    1,441667974e-01    1,253268719e-01    2,641872764e-01    3,592116535e-01    0,000000000e+00    0,000000000e+00    0,000000000e+00    0,000000000e+00
      828000000    1,679427773e-01   -6,988485903e-02    4,331313670e-01    1,570184976e-01    0,000000000e+00    0,000000000e+00    0,000000000e+00    0,000000000e+00
      842000000    6,672806293e-02   -2,180209011e-01    4,663282931e-01   -1,200281903e-01    0,000000000e+00    0,000000000e+00    0,000000000e+00    0,000000000e+00
      856000000   -1,065681502e-01   -2,638471723e-01    3,194524050e-01   -3,953639269e-01    0,000000000e+00    0,000000000e+00    0,000000000e+00    0,000000000e+00
      870000000   -2,751839757e-01   -1,680075824e-01   -2,497731242e-03   -5,279313326e-01    0,000000000e+00    0,000000000e+00    0,000000000e+00    0,000000000e+00
      884000000   -3,200511932e-01    3,490363806e-02   -3,474247754e-01   -3,929349482e-01    0,000000000e+00    0,000000000e+00    0,000000000e+00    0,000000000e+00
      898000000   -1,921786219e-01    2,068827897e-01   -4,895749390e-01   -6,241836771e-02    0,000000000e+00    0,000000000e+00    0,000000000e+00    0,000000000e+00
      912000000    6,244905759e-03    2,189824730e-01   -3,958775401e-01    2,675271332e-01    0,000000000e+00    0,000000000e+00    0,000000000e+00    0,000000000e+00
      926000000    1,495883316e-01    1,134685054e-01   -1,716005355e-01    4,153390825e-01    0,000000000e+00    0,000000000e+00    0,000000000e+00    0,000000000e+00
      940000000    1,990078688e-01   -4,405229166e-02    6,465326250e-02    4,256892800e-01    0,000000000e+00    0,000000000e+00    0,000000000e+00    0,000000000e+00
      954000000    1,546146423e-01   -2,042634338e-01    2,633802295e-01    3,411288559e-01    0,000000000e+00    0,000000000e+00    0,000000000e+00    0,000000000e+00
      968000000    2,653487585e-02   -3,143896461e-01    4,128333628e-01    1,789322793e-01    0,000000000e+00    0,000000000e+00    0,000000000e+00    0,000000000e+00
      982000000   -1,619426161e-01   -3,344796896e-01    4,770262837e-01   -6,750375032e-02    0,000000000e+00    0,000000000e+00    0,000000000e+00    0,000000000e+00
      996000000   -3,270305693e-01   -2,067086548e-01    3,676703870e-01   -3,556643426e-01    0,000000000e+00    0,000000000e+00    0,000000000e+00    0,000000000e+00
     1010000000   -3,416073322e-01   -9,239805862e-03    4,216128588e-02   -5,255024433e-01    0,000000000e+00    0,000000000e+00    0,000000000e+00    0,000000000e+00
     1024000000   -2,042568624e-01    9,634000063e-02   -3,466171622e-01   -3,824167252e-01    0,000000000e+00    0,000000000e+00    0,000000000e+00    0,000000000e+00
     1038000000   -1,350210458e-01    7,315974217e-03   -4,821215868e-01    6,726280600e-02    0,000000000e+00    0,000000000e+00    0,000000000e+00    0,000000000e+00
     1052000000   -2,905813456e-01    5,542786419e-02   -9,467255324e-02    3,716732860e-01    0,000000000e+00    0,000000000e+00    0,000000000e+00    0,000000000e+00
     1066000000   -1,482713521e-01    2,945854962e-01    1,437722147e-01    1,315886229e-01    0,000000000e+00    0,000000000e+00    0,000000000e+00    0,000000000e+00
     1080000000    9,871403128e-02    2,468187660e-01    8,998432755e-02    2,103682421e-02    0,000000000e+00    0,000000000e+00    0,000000000e+00    0,000000000e+00
     1094000000    2,209738046e-01    8,553040028e-02    6,927289814e-02    1,009717211e-02    0,000000000e+00    0,000000000e+00    0,000000000e+00    0,000000000e+00
     1108000000    2,453062832e-01   -8,717882633e-02    8,053523302e-02    1,659226982e-04    0,000000000e+00    0,000000000e+00    0,000000000e+00    0,000000000e+00
     1122000000    1,854354739e-01   -2,497582883e-01    1,051918119e-01   -2,584562823e-02    0,000000000e+00    0,000000000e+00    0,000000000e+00    0,000000000e+00
     1136000000    5,150340125e-02   -3,787516952e-01    1,282722801e-01   -7,443264127e-02    0,000000000e+00    0,000000000e+00    0,000000000e+00    0,000000000e+00
     1150000000   -1,510158777e-01   -4,217536449e-01    1,366443932e-01   -1,510505527e-01    0,000000000e+00    0,000000000e+00    0,000000000e+00    0,000000000e+00
     1164000000   -3,816049099e-01   -3,268422782e-01    9,942819178e-02   -2,783101499e-01    0,000000000e+00    0,000000000e+00    0,000000000e+00    0,000000000e+00
     1178000000   -4,613352716e-01   -8,885850757e-02   -1,066275537e-01   -4,059873819e-01    0,000000000e+00    0,000000000e+00    0,000000000e+00    0,000000000e+00
     1192000000   -3,759216666e-01    3,879201412e-02   -4,592718482e-01   -1,961890608e-01    0,000000000e+00    0,000000000e+00    0,000000000e+00    0,000000000e+00
     1206000000   -4,130555093e-01    1,364129037e-01   -2,720057964e-01    2,371219844e-01    0,000000000e+00    0,000000000e+00    0,000000000e+00    0,000000000e+00
     1220000000   -2,736391127e-01    3,259970844e-01   -2,852001227e-03    1,625608504e-01    0,000000000e+00    0,000000000e+00    0,000000000e+00    0,000000000e+00
     1234000000   -5,058630183e-02    3,481031656e-01    1,749885082e-02    5,558731779e-02    0,000000000e+00    0,000000000e+00    0,000000000e+00    0,000000000e+00
     1248000000    1,216676980e-01    2,473593503e-01    2,487877617e-03    2,117254212e-02    0,000000000e+00    0,000000000e+00    0,000000000e+00    0,000000000e+00
     1262000000    2,110604644e-01    1,060790941e-01    2,483819146e-03    3,106456622e-02    0,000000000e+00    0,000000000e+00    0,000000000e+00    0,000000000e+00
     1276000000    2,368571758e-01   -5,476495624e-02    2,827611938e-02    4,082920402e-02    0,000000000e+00    0,000000000e+00    0,000000000e+00    0,000000000e+00
     1290000000    1,931069344e-01   -2,184376568e-01    5,859360844e-02    2,221681178e-02    0,000000000e+00    0,000000000e+00    0,000000000e+00    0,000000000e+00
     1304000000    8,127789944e-02   -3,536303937e-01    7,579660416e-02    1,076314971e-02    0,000000000e+00    0,000000000e+00    0,000000000e+00    0,000000000e+00
     1318000000   -1,037462503e-01   -4,530132115e-01    7,984703779e-02   -1,237473171e-02    0,000000000e+00    0,000000000e+00    0,000000000e+00    0,000000000e+00
     1332000000   -3,568867743e-01   -4,308746457e-01    9,209343791e-02   -1,125690807e-02    0,000000000e+00    0,000000000e+00    0,000000000e+00    0,000000000e+00
     1346000000   -5,900968313e-01   -2,463180572e-01    1,026021093e-01    8,897336666e-04    0,000000000e+00    0,000000000e+00    0,000000000e+00    0,000000000e+00
     1360000000   -6,537142396e-01    7,012859732e-02    1,396898925e-01   -2,104463801e-02    0,000000000e+00    0,000000000e+00    0,000000000e+00    0,000000000e+00
     1374000000   -4,915085137e-01    3,352885246e-01    1,706030518e-01   -4,763706028e-02    0,000000000e+00    0,000000000e+00    0,000000000e+00    0,000000000e+00
     1388000000   -2,552529573e-01    4,306038618e-01    1,609201878e-01   -7,692728192e-02    0,000000000e+00    0,000000000e+00    0,000000000e+00    0,000000000e+00
     1402000000   -4,765187576e-02    3,867222965e-01    1,360674649e-01   -9,914983064e-02    0,000000000e+00    0,000000000e+00    0,000000000e+00    0,000000000e+00
     1416000000    1,002658680e-01    2,859634459e-01    1,220045611e-01   -9,046502411e-02    0,000000000e+00    0,000000000e+00    0,000000000e+00    0,000000000e+00
     1430000000    1,865722835e-01    1,477117240e-01    1,001938879e-01   -6,395043433e-02    0,000000000e+00    0,000000000e+00    0,000000000e+00    0,000000000e+00
     1444000000    2,117011696e-01   -1,409013662e-02    1,123316810e-01   -2,525769919e-02    0,000000000e+00    0,000000000e+00    0,000000000e+00    0,000000000e+00
     1458000000    1,818033010e-01   -1,848320365e-01    1,509185880e-01    1,353888772e-02    0,000000000e+00    0,000000000e+00    0,000000000e+00    0,000000000e+00
     1472000000    7,157845795e-02   -3,431140780e-01    2,005098611e-01    6,640440971e-02    0,000000000e+00    0,000000000e+00    0,000000000e+00    0,000000000e+00
     1486000000   -1,441769600e-01   -4,653415382e-01    2,875124216e-01    1,111116856e-01    0,000000000e+00    0,000000000e+00    0,000000000e+00    0,000000000e+00
     1500000000   -4,462760985e-01   -4,762684703e-01    4,123598337e-01    4,686670005e-02    0,000000000e+00    0,000000000e+00    0,000000000e+00    0,000000000e+00
