! NanoVNA-App
! Date: 2025-09-25 16:03:17
! Start: 100MHz Stop: 1,5GHz Points: 101
! S-Parameter data: F S11 S21 S12 S22
# Hz S RI R 50
!     Frequency           S11_Real           S11_Imag           S21_Real           S21_Imag           S12_Real           S12_Imag           S22_Real           S22_Imag
      100000000   -2,830308117e-02   -2,878617728e-03    3,722921610e-01   -7,224029899e-01    0,000000000e+00    0,000000000e+00    0,000000000e+00    0,000000000e+00
      114000000   -1,576091535e-02    1,288343500e-02   -9,137681127e-02   -8,047969937e-01    0,000000000e+00    0,000000000e+00    0,000000000e+00    0,000000000e+00
      128000000    4,338793457e-03    1,199900359e-02   -5,160026550e-01   -6,188017130e-01    0,000000000e+00    0,000000000e+00    0,000000000e+00    0,000000000e+00
      142000000    1,547293365e-02   -1,691938494e-03   -7,675559521e-01   -2,343061715e-01    0,000000000e+00    0,000000000e+00    0,000000000e+00    0,000000000e+00
      156000000    1,622561552e-02   -1,373871788e-02   -7,706444860e-01    2,250222862e-01    0,000000000e+00    0,000000000e+00    0,000000000e+00    0,000000000e+00
      170000000    1,761746779e-02   -2,099594101e-02   -5,153964758e-01    6,062383056e-01    0,000000000e+00    0,000000000e+00    0,000000000e+00    0,000000000e+00
      184000000    2,204348892e-02   -3,553756326e-02   -9,820675850e-02    7,859382033e-01    0,000000000e+00    0,000000000e+00    0,000000000e+00    0,000000000e+00
      198000000    1,405063458e-02   -6,064431369e-02    3,458919227e-01    7,106794715e-01    0,000000000e+00    0,000000000e+00    0,000000000e+00    0,000000000e+00
      212000000   -1,767607965e-02   -7,905183733e-02    6,810176373e-01    4,064946473e-01    0,000000000e+00    0,000000000e+00    0,000000000e+00    0,000000000e+00
      226000000   -6,031640619e-02   -6,661596149e-02    7,957872152e-01   -3,556139022e-02    0,000000000e+00    0,000000000e+00    0,000000000e+00    0,000000000e+00
      240000000   -8,056703955e-02   -2,271130495e-02    6,418513656e-01   -4,719648063e-01    0,000000000e+00    0,000000000e+00    0,000000000e+00    0,000000000e+00
      254000000   -6,073938310e-02    1,977054961e-02    2,711244226e-01   -7,421877980e-01    0,000000000e+00    0,000000000e+00    0,000000000e+00    0,000000000e+00
      268000000   -2,099706046e-02    3,089253232e-02   -1,813840568e-01   -7,609840035e-01    0,000000000e+00    0,000000000e+00    0,000000000e+00    0,000000000e+00
      282000000    6,992928218e-03    1,382125914e-02   -5,633355975e-01   -5,320587158e-01    0,000000000e+00    0,000000000e+00    0,000000000e+00    0,000000000e+00
      296000000    1,234188583e-02   -6,261426024e-03   -7,606940269e-01   -1,344404519e-01    0,000000000e+00    0,000000000e+00    0,000000000e+00    0,000000000e+00
      310000000    1,358130481e-02   -1,461969689e-02   -7,092097402e-01    3,048212528e-01    0,000000000e+00    0,000000000e+00    0,000000000e+00    0,000000000e+00
      324000000    2,268544771e-02   -2,475088462e-02   -4,209885299e-01    6,400548816e-01    0,000000000e+00    0,000000000e+00    0,000000000e+00    0,000000000e+00
      338000000    2,853092924e-02   -5,069673434e-02   -3,423236776e-03    7,576559186e-01    0,000000000e+00    0,000000000e+00    0,000000000e+00    0,000000000e+00
      352000000    1,003371086e-02   -8,313532174e-02    4,119176567e-01    6,354511976e-01    0,000000000e+00    0,000000000e+00    0,000000000e+00    0,000000000e+00
      366000000   -3,163539991e-02   -9,394092858e-02    6,940235496e-01    3,038661778e-01    0,000000000e+00    0,000000000e+00    0,000000000e+00    0,000000000e+00
      380000000   -6,762807071e-02   -6,879553944e-02    7,457351089e-01   -1,346462518e-01    0,000000000e+00    0,000000000e+00    0,000000000e+00    0,000000000e+00
      394000000   -6,854041666e-02   -3,053912707e-02    5,386515856e-01   -5,271896720e-01    0,000000000e+00    0,000000000e+00    0,000000000e+00    0,000000000e+00
      408000000   -4,273753613e-02   -1,577278040e-02    1,503408402e-01   -7,346421480e-01    0,000000000e+00    0,000000000e+00    0,000000000e+00    0,000000000e+00
      422000000   -2,590551414e-02   -3,102091700e-02   -2,787590027e-01   -6,894215941e-01    0,000000000e+00    0,000000000e+00    0,000000000e+00    0,000000000e+00
      436000000   -3,911928087e-02   -4,900116473e-02   -6,099703312e-01   -4,191858470e-01    0,000000000e+00    0,000000000e+00    0,000000000e+00    0,000000000e+00
      450000000   -6,489221752e-02   -3,945158795e-02   -7,377734184e-01   -7,818426937e-03    0,000000000e+00    0,000000000e+00    0,000000000e+00    0,000000000e+00
      464000000   -6,763455272e-02   -6,053610705e-03   -6,077144146e-01    4,061309099e-01    0,000000000e+00    0,000000000e+00    0,000000000e+00    0,000000000e+00
      478000000   -3,856801614e-02    1,592819951e-02   -2,676835358e-01    6,698116064e-01    0,000000000e+00    0,000000000e+00    0,000000000e+00    0,000000000e+00
      492000000   -5,636393558e-03    6,236593705e-03    1,515071094e-01    6,956397295e-01    0,000000000e+00    0,000000000e+00    0,000000000e+00    0,000000000e+00
      506000000    6,918743718e-03   -1,995120384e-02    5,082444549e-01    4,894435704e-01    0,000000000e+00    0,000000000e+00    0,000000000e+00    0,000000000e+00
      520000000    6,688319845e-04   -3,892244399e-02    6,893627048e-01    1,208282337e-01    0,000000000e+00    0,000000000e+00    0,000000000e+00    0,000000000e+00
      534000000   -2,825917909e-03   -4,567299783e-02    6,329287887e-01   -2,820744812e-01    0,000000000e+00    0,000000000e+00    0,000000000e+00    0,000000000e+00
      548000000    4,697038385e-04   -5,952940881e-02    3,601962626e-01   -5,794929862e-01    0,000000000e+00    0,000000000e+00    0,000000000e+00    0,000000000e+00
      562000000   -8,045228198e-03   -8,880253136e-02   -2,707799338e-02   -6,725935936e-01    0,000000000e+00    0,000000000e+00    0,000000000e+00    0,000000000e+00
      576000000   -4,548572376e-02   -1,095132530e-01   -4,012166858e-01   -5,386714339e-01    0,000000000e+00    0,000000000e+00    0,000000000e+00    0,000000000e+00
      590000000   -9,486497194e-02   -9,360139817e-02   -6,396978498e-01   -2,187177390e-01    0,000000000e+00    0,000000000e+00    0,000000000e+00    0,000000000e+00
      604000000   -1,119543090e-01   -4,115190357e-02   -6,479738951e-01    1,986610740e-01    0,000000000e+00    0,000000000e+00    0,000000000e+00    0,000000000e+00
      618000000   -7,558590174e-02   -1,975706080e-03   -4,017921984e-01    5,354400277e-01    0,000000000e+00    0,000000000e+00    0,000000000e+00    0,000000000e+00
      632000000   -3,046116978e-02   -2,150144428e-02   -1,267301943e-02    6,558007598e-01    0,000000000e+00    0,000000000e+00    0,000000000e+00    0,000000000e+00
      646000000   -3,625602648e-02   -7,723718137e-02    3,658750355e-01    5,276648998e-01    0,000000000e+00    0,000000000e+00    0,000000000e+00    0,000000000e+00
      660000000   -1,117374077e-01   -9,928087890e-02    6,013129950e-01    1,939079911e-01    0,000000000e+00    0,000000000e+00    0,000000000e+00    0,000000000e+00
      674000000   -2,000806481e-01   -2,396909520e-02    5,655919313e-01   -2,396332026e-01    0,000000000e+00    0,000000000e+00    0,000000000e+00    0,000000000e+00
      688000000   -1,793538332e-01    1,436753571e-01    2,092822343e-01   -5,221059322e-01    0,000000000e+00    0,000000000e+00    0,000000000e+00    0,000000000e+00
      702000000    2,631410956e-02    2,465113550e-01   -1,990296990e-01   -4,018462300e-01    0,000000000e+00    0,000000000e+00    0,000000000e+00    0,000000000e+00
      716000000    2,634450197e-01    1,110774875e-01   -2,742333710e-01   -8,457206935e-02    0,000000000e+00    0,000000000e+00    0,000000000e+00    0,000000000e+00
      730000000    3,042157590e-01   -1,853515208e-01   -1,084753275e-01    3,310417384e-02    0,000000000e+00    0,000000000e+00    0,000000000e+00    0,000000000e+00
      744000000    9,497495741e-02   -4,278031588e-01   -4,200459644e-02   -6,363365799e-02    0,000000000e+00    0,000000000e+00    0,000000000e+00    0,000000000e+00
      758000000   -2,577478290e-01   -4,286243021e-01   -1,742136031e-01   -1,249182150e-01    0,000000000e+00    0,000000000e+00    0,000000000e+00    0,000000000e+00
      772000000   -4,869795442e-01   -1,200871617e-01   -3,349511921e-01    3,758370504e-02    0,000000000e+00    0,000000000e+00    0,000000000e+00    0,000000000e+00
      786000000   -3,435356319e-01    2,209340334e-01   -2,628079057e-01    3,153394759e-01    0,000000000e+00    0,000000000e+00    0,000000000e+00    0,000000000e+00
      800000000   -4,087536037e-02    2,765667140e-01    2,418839140e-03    4,367589653e-01    0,000000000e+00    0,000000000e+00    0,000000000e+00    0,000000000e+00
      814000000    1,449589729e-01    1,257786155e-01    2,634254396e-01    3,596500754e-01    0,000000000e+00    0,000000000e+00    0,000000000e+00    0,000000000e+00
      828000000    1,680525988e-01   -7,018597424e-02    4,330687225e-01    1,567715555e-01    0,000000000e+00    0,000000000e+00    0,000000000e+00    0,000000000e+00
      842000000    6,781894714e-02   -2,184152603e-01    4,668839276e-01   -1,196404472e-01    0,000000000e+00    0,000000000e+00    0,000000000e+00    0,000000000e+00
      856000000   -1,069687977e-01   -2,639612257e-01    3,205157816e-01   -3,950978816e-01    0,000000000e+00    0,000000000e+00    0,000000000e+00    0,000000000e+00
      870000000   -2,745072246e-01   -1,689699739e-01   -2,284936141e-03   -5,276772380e-01    0,000000000e+00    0,000000000e+00    0,000000000e+00    0,000000000e+00
      884000000   -3,204829097e-01    3,616455197e-02   -3,480271995e-01   -3,913483322e-01    0,000000000e+00    0,000000000e+00    0,000000000e+00    0,000000000e+00
      898000000   -1,921341419e-01    2,063855380e-01   -4,885246456e-01   -6,308414787e-02    0,000000000e+00    0,000000000e+00    0,000000000e+00    0,000000000e+00
      912000000    7,902355865e-03    2,194248885e-01   -4,118107855e-01    2,724108696e-01    0,000000000e+00    0,000000000e+00    0,000000000e+00    0,000000000e+00
      926000000    1,495188028e-01    1,106846333e-01   -1,698043346e-01    4,140028358e-01    0,000000000e+00    0,000000000e+00    0,000000000e+00    0,000000000e+00
      940000000    2,002273500e-01   -4,688906297e-02    6,281614304e-02    4,240933061e-01    0,000000000e+00    0,000000000e+00    0,000000000e+00    0,000000000e+00
      954000000    1,555641741e-01   -2,015313506e-01    2,606779933e-01    3,423048556e-01    0,000000000e+00    0,000000000e+00    0,000000000e+00    0,000000000e+00
      968000000    2,438141033e-02   -3,131411970e-01    4,102445245e-01    1,806800067e-01    0,000000000e+00    0,000000000e+00    0,000000000e+00    0,000000000e+00
      982000000   -1,625992507e-01   -3,298779428e-01    4,738409221e-01   -6,643859297e-02    0,000000000e+00    0,000000000e+00    0,000000000e+00    0,000000000e+00
      996000000   -3,237825036e-01   -2,084368169e-01    3,662724495e-01   -3,545569181e-01    0,000000000e+00    0,000000000e+00    0,000000000e+00    0,000000000e+00
     1010000000   -3,429792523e-01   -9,285169654e-03    4,294345528e-02   -5,234817863e-01    0,000000000e+00    0,000000000e+00    0,000000000e+00    0,000000000e+00
     1024000000   -2,053145468e-01    9,033172578e-02   -3,449796140e-01   -3,822748363e-01    0,000000000e+00    0,000000000e+00    0,000000000e+00    0,000000000e+00
     1038000000   -1,310032010e-01    9,949387051e-03   -4,844775200e-01    6,305081397e-02    0,000000000e+00    0,000000000e+00    0,000000000e+00    0,000000000e+00
     1052000000   -2,845167518e-01    5,549614877e-02   -9,983811527e-02    3,724400699e-01    0,000000000e+00    0,000000000e+00    0,000000000e+00    0,000000000e+00
     1066000000   -1,515860856e-01    2,915545404e-01    1,450051069e-01    1,349335611e-01    0,000000000e+00    0,000000000e+00    0,000000000e+00    0,000000000e+00
     1080000000    9,989550710e-02    2,527175546e-01    9,010187536e-02    2,004035190e-02    0,000000000e+00    0,000000000e+00    0,000000000e+00    0,000000000e+00
     1094000000    2,182455659e-01    8,960577846e-02    7,020002604e-02    8,347299881e-03    0,000000000e+00    0,000000000e+00    0,000000000e+00    0,000000000e+00
     1108000000    2,406458855e-01   -8,985807002e-02    8,201422542e-02    1,442314096e-04    0,000000000e+00    0,000000000e+00    0,000000000e+00    0,000000000e+00
     1122000000    1,822452396e-01   -2,482231855e-01    1,038663015e-01   -2,497686259e-02    0,000000000e+00    0,000000000e+00    0,000000000e+00    0,000000000e+00
     1136000000    5,145530775e-02   -3,782414198e-01    1,269108951e-01   -7,393146306e-02    0,000000000e+00    0,000000000e+00    0,000000000e+00    0,000000000e+00
     1150000000   -1,567794681e-01   -4,252531528e-01    1,357749254e-01   -1,510512233e-01    0,000000000e+00    0,000000000e+00    0,000000000e+00    0,000000000e+00
     1164000000   -3,793086410e-01   -3,231790662e-01    9,790977836e-02   -2,741565108e-01    0,000000000e+00    0,000000000e+00    0,000000000e+00    0,000000000e+00
     1178000000   -4,663656652e-01   -8,318283409e-02   -1,053936481e-01   -4,053862691e-01    0,000000000e+00    0,000000000e+00    0,000000000e+00    0,000000000e+00
     1192000000   -3,765407205e-01    4,166623205e-02   -4,640704989e-01   -2,001905143e-01    0,000000000e+00    0,000000000e+00    0,000000000e+00    0,000000000e+00
     1206000000   -4,118826687e-01    1,348968595e-01   -2,736127377e-01    2,366914749e-01    0,000000000e+00    0,000000000e+00    0,000000000e+00    0,000000000e+00
     1220000000   -2,760230601e-01    3,342303038e-01   -4,159827251e-03    1,647047549e-01    0,000000000e+00    0,000000000e+00    0,000000000e+00    0,000000000e+00
     1234000000   -4,769648239e-02    3,494196832e-01    2,309110947e-02    5,589859933e-02    0,000000000e+00    0,000000000e+00    0,000000000e+00    0,000000000e+00
     1248000000    1,259131879e-01    2,484996766e-01    4,022564739e-03    2,307344414e-02    0,000000000e+00    0,000000000e+00    0,000000000e+00    0,000000000e+00
     1262000000    2,106105834e-01    1,053313613e-01    4,740960430e-03    3,145118803e-02    0,000000000e+00    0,000000000e+00    0,000000000e+00    0,000000000e+00
     1276000000    2,377027273e-01   -5,989238247e-02    2,683722414e-02    3,041052632e-02    0,000000000e+00    0,000000000e+00    0,000000000e+00    0,000000000e+00
     1290000000    1,921029985e-01   -2,189160734e-01    5,233836174e-02    2,224811353e-02    0,000000000e+00    0,000000000e+00    0,000000000e+00    0,000000000e+00
     1304000000    8,549694717e-02   -3,581253588e-01    7,682532817e-02    2,214577049e-03    0,000000000e+00    0,000000000e+00    0,000000000e+00    0,000000000e+00
     1318000000   -1,047418788e-01   -4,498658478e-01    8,013919741e-02   -9,065940976e-03    0,000000000e+00    0,000000000e+00    0,000000000e+00    0,000000000e+00
     1332000000   -3,524554372e-01   -4,317225218e-01    8,798883855e-02   -8,471421897e-03    0,000000000e+00    0,000000000e+00    0,000000000e+00    0,000000000e+00
     1346000000   -5,928950310e-01   -2,506675422e-01    1,035636142e-01   -1,258719247e-02    0,000000000e+00    0,000000000e+00    0,000000000e+00    0,000000000e+00
     1360000000   -6,484258175e-01    6,532587856e-02    1,413014382e-01   -1,305216737e-02    0,000000000e+00    0,000000000e+00    0,000000000e+00    0,000000000e+00
     1374000000   -4,882462323e-01    3,285230994e-01    1,666036993e-01   -5,438457429e-02    0,000000000e+00    0,000000000e+00    0,000000000e+00    0,000000000e+00
     1388000000   -2,535246015e-01    4,251790643e-01    1,518957466e-01   -8,835846186e-02    0,000000000e+00    0,000000000e+00    0,000000000e+00    0,000000000e+00
     1402000000   -4,144684225e-02    3,951022923e-01    1,417564452e-01   -8,778081834e-02    0,000000000e+00    0,000000000e+00    0,000000000e+00    0,000000000e+00
     1416000000    1,037244722e-01    2,852607071e-01    1,246764064e-01   -8,805093914e-02    0,000000000e+00    0,000000000e+00    0,000000000e+00    0,000000000e+00
     1430000000    1,972516030e-01    1,515790522e-01    1,438221782e-01   -6,326209009e-02    0,000000000e+00    0,000000000e+00    0,000000000e+00    0,000000000e+00
     1444000000    2,159908414e-01   -7,536724210e-03    1,239084527e-01   -1,935401559e-02    0,000000000e+00    0,000000000e+00    0,000000000e+00    0,000000000e+00
     1458000000    1,776590645e-01   -1,833761185e-01    1,324986964e-01    1,977453940e-02    0,000000000e+00    0,000000000e+00    0,000000000e+00    0,000000000e+00
     1472000000    6,783279032e-02   -3,538904190e-01    1,947270483e-01    6,463143975e-02    0,000000000e+00    0,000000000e+00    0,000000000e+00    0,000000000e+00
     1486000000   -1,450663209e-01   -4,611461163e-01    2,820621133e-01    9,941358119e-02    0,000000000e+00    0,000000000e+00    0,000000000e+00    0,000000000e+00
     1500000000   -4,317198098e-01   -4,685050249e-01    4,294230044e-01    5,204336718e-02    0,000000000e+00    0,000000000e+00    0,000000000e+00    0,000000000e+00
