! NanoVNA-App
! Date: 2025-09-25 16:02:55
! Start: 100MHz Stop: 1,5GHz Points: 101
! S-Parameter data: F S11 S21 S12 S22
# Hz S RI R 50
!     Frequency           S11_Real           S11_Imag           S21_Real           S21_Imag           S12_Real           S12_Imag           S22_Real           S22_Imag
      100000000   -2,830418572e-02   -2,878374420e-03    3,723002970e-01   -7,224318981e-01    0,000000000e+00    0,000000000e+00    0,000000000e+00    0,000000000e+00
      114000000   -1,575302333e-02    1,291486900e-02   -9,139510989e-02   -8,047654629e-01    0,000000000e+00    0,000000000e+00    0,000000000e+00    0,000000000e+00
      128000000    4,266702570e-03    1,194433030e-02   -5,158781409e-01   -6,186894774e-01    0,000000000e+00    0,000000000e+00    0,000000000e+00    0,000000000e+00
      142000000    1,547829993e-02   -1,716763363e-03   -7,672873735e-01   -2,341616452e-01    0,000000000e+00    0,000000000e+00    0,000000000e+00    0,000000000e+00
      156000000    1,738273725e-02   -1,382481400e-02   -7,675929666e-01    2,272837609e-01    0,000000000e+00    0,000000000e+00    0,000000000e+00    0,000000000e+00
      170000000    1,763691753e-02   -2,098453604e-02   -5,153954625e-01    6,062604785e-01    0,000000000e+00    0,000000000e+00    0,000000000e+00    0,000000000e+00
      184000000    2,202081494e-02   -3,556769714e-02   -9,825621545e-02    7,861181498e-01    0,000000000e+00    0,000000000e+00    0,000000000e+00    0,000000000e+00
      198000000    1,402399037e-02   -6,067804620e-02    3,460562527e-01    7,108201385e-01    0,000000000e+00    0,000000000e+00    0,000000000e+00    0,000000000e+00
      212000000   -1,768012531e-02   -7,905096561e-02    6,807614565e-01    4,063501954e-01    0,000000000e+00    0,000000000e+00    0,000000000e+00    0,000000000e+00
      226000000   -6,031864882e-02   -6,655184180e-02    7,958343029e-01   -3,570437431e-02    0,000000000e+00    0,000000000e+00    0,000000000e+00    0,000000000e+00
      240000000   -8,053707331e-02   -2,274777554e-02    6,415221691e-01   -4,716865122e-01    0,000000000e+00    0,000000000e+00    0,000000000e+00    0,000000000e+00
      254000000   -6,080345437e-02    1,980247162e-02    2,710826397e-01   -7,417004704e-01    0,000000000e+00    0,000000000e+00    0,000000000e+00    0,000000000e+00
      268000000   -2,102595195e-02    3,089489974e-02   -1,811731011e-01   -7,607522607e-01    0,000000000e+00    0,000000000e+00    0,000000000e+00    0,000000000e+00
      282000000    7,018093020e-03    1,376699936e-02   -5,631048679e-01   -5,322372913e-01    0,000000000e+00    0,000000000e+00    0,000000000e+00    0,000000000e+00
      296000000    1,226314064e-02   -6,231667008e-03   -7,605406046e-01   -1,343235075e-01    0,000000000e+00    0,000000000e+00    0,000000000e+00    0,000000000e+00
      310000000    1,350229047e-02   -1,455773134e-02   -7,082303762e-01    3,041824102e-01    0,000000000e+00    0,000000000e+00    0,000000000e+00    0,000000000e+00
      324000000    2,253693901e-02   -2,477037907e-02   -4,210309386e-01    6,396391988e-01    0,000000000e+00    0,000000000e+00    0,000000000e+00    0,000000000e+00
      338000000    2,845018171e-02   -5,072014406e-02   -3,365922486e-03    7,610673904e-01    0,000000000e+00    0,000000000e+00    0,000000000e+00    0,000000000e+00
      352000000    1,006746106e-02   -8,287368715e-02    4,111503065e-01    6,349223852e-01    0,000000000e+00    0,000000000e+00    0,000000000e+00    0,000000000e+00
      366000000   -3,216269240e-02   -9,385448694e-02    6,932242513e-01    3,037045896e-01    0,000000000e+00    0,000000000e+00    0,000000000e+00    0,000000000e+00
      380000000   -6,765938550e-02   -6,911216676e-02    7,459530830e-01   -1,346745640e-01    0,000000000e+00    0,000000000e+00    0,000000000e+00    0,000000000e+00
      394000000   -6,837006658e-02   -3,049039654e-02    5,401563644e-01   -5,291213393e-01    0,000000000e+00    0,000000000e+00    0,000000000e+00    0,000000000e+00
      408000000   -4,275651649e-02   -1,546670403e-02    1,493717283e-01   -7,345859408e-01    0,000000000e+00    0,000000000e+00    0,000000000e+00    0,000000000e+00
      422000000   -2,632272243e-02   -3,110326082e-02   -2,792244852e-01   -6,897664666e-01    0,000000000e+00    0,000000000e+00    0,000000000e+00    0,000000000e+00
      436000000   -3,910954669e-02   -4,894882813e-02   -6,103634834e-01   -4,196081460e-01    0,000000000e+00    0,000000000e+00    0,000000000e+00    0,000000000e+00
      450000000   -6,469170004e-02   -3,955401108e-02   -7,372369170e-01   -7,848321460e-03    0,000000000e+00    0,000000000e+00    0,000000000e+00    0,000000000e+00
      464000000   -6,755555421e-02   -6,359328981e-03   -6,081770062e-01    4,063776135e-01    0,000000000e+00    0,000000000e+00    0,000000000e+00    0,000000000e+00
      478000000   -3,874557465e-02    1,635289378e-02   -2,676540315e-01    6,707487702e-01    0,000000000e+00    0,000000000e+00    0,000000000e+00    0,000000000e+00
      492000000   -5,233764648e-03    6,558415946e-03    1,514412761e-01    6,952500343e-01    0,000000000e+00    0,000000000e+00    0,000000000e+00    0,000000000e+00
      506000000    6,770933047e-03   -2,011102997e-02    5,084621906e-01    4,883700013e-01    0,000000000e+00    0,000000000e+00    0,000000000e+00    0,000000000e+00
      520000000    8,791987784e-04   -3,851848096e-02    6,892303824e-01    1,215807199e-01    0,000000000e+00    0,000000000e+00    0,000000000e+00    0,000000000e+00
      534000000   -3,085951786e-03   -4,517133534e-02    6,324157715e-01   -2,815098763e-01    0,000000000e+00    0,000000000e+00    0,000000000e+00    0,000000000e+00
      548000000    1,175013022e-03   -5,996188894e-02    3,609623611e-01   -5,797898173e-01    0,000000000e+00    0,000000000e+00    0,000000000e+00    0,000000000e+00
      562000000   -7,766466588e-03   -8,881290257e-02   -2,588445693e-02   -6,728522778e-01    0,000000000e+00    0,000000000e+00    0,000000000e+00    0,000000000e+00
      576000000   -4,543200135e-02   -1,101727784e-01   -4,012767971e-01   -5,394327641e-01    0,000000000e+00    0,000000000e+00    0,000000000e+00    0,000000000e+00
      590000000   -9,492862225e-02   -9,363110363e-02   -6,388366818e-01   -2,181735337e-01    0,000000000e+00    0,000000000e+00    0,000000000e+00    0,000000000e+00
      604000000   -1,114756539e-01   -4,118532315e-02   -6,478078365e-01    1,985611916e-01    0,000000000e+00    0,000000000e+00    0,000000000e+00    0,000000000e+00
      618000000   -7,594143599e-02   -2,939336933e-03   -4,018562734e-01    5,354923606e-01    0,000000000e+00    0,000000000e+00    0,000000000e+00    0,000000000e+00
      632000000   -2,955065481e-02   -2,115864307e-02   -1,263794862e-02    6,552602053e-01    0,000000000e+00    0,000000000e+00    0,000000000e+00    0,000000000e+00
      646000000   -3,572685644e-02   -7,634043694e-02    3,648934066e-01    5,281258821e-01    0,000000000e+00    0,000000000e+00    0,000000000e+00    0,000000000e+00
      660000000   -1,115281433e-01   -9,993395954e-02    6,007887125e-01    1,929638535e-01    0,000000000e+00    0,000000000e+00    0,000000000e+00    0,000000000e+00
      674000000   -1,993618309e-01   -2,450371534e-02    5,654298663e-01   -2,394744307e-01    0,000000000e+00    0,000000000e+00    0,000000000e+00    0,000000000e+00
      688000000   -1,789951473e-01    1,437072605e-01    2,109694630e-01   -5,219396949e-01    0,000000000e+00    0,000000000e+00    0,000000000e+00    0,000000000e+00
      702000000    2,585467137e-02    2,452777028e-01   -1,964801401e-01   -4,007954597e-01    0,000000000e+00    0,000000000e+00    0,000000000e+00    0,000000000e+00
      716000000    2,625856698e-01    1,108213216e-01   -2,744584382e-01   -8,414944261e-02    0,000000000e+00    0,000000000e+00    0,000000000e+00    0,000000000e+00
      730000000    3,035046756e-01   -1,855298281e-01   -1,081533879e-01    3,324468061e-02    0,000000000e+00    0,000000000e+00    0,000000000e+00    0,000000000e+00
      744000000    9,465308487e-02   -4,268495142e-01   -4,208347201e-02   -6,374902278e-02    0,000000000e+00    0,000000000e+00    0,000000000e+00    0,000000000e+00
      758000000   -2,594000995e-01   -4,295596182e-01   -1,743421704e-01   -1,254416704e-01    0,000000000e+00    0,000000000e+00    0,000000000e+00    0,000000000e+00
      772000000   -4,865797758e-01   -1,198691502e-01   -3,353491426e-01    3,744802624e-02    0,000000000e+00    0,000000000e+00    0,000000000e+00    0,000000000e+00
      786000000   -3,430963755e-01    2,218224406e-01   -2,629170418e-01    3,156657219e-01    0,000000000e+00    0,000000000e+00    0,000000000e+00    0,000000000e+00
      800000000   -4,160090908e-02    2,770382762e-01    3,072058549e-03    4,362103641e-01    0,000000000e+00    0,000000000e+00    0,000000000e+00    0,000000000e+00
      814000000    1,445634365e-01    1,255327463e-01    2,631101608e-01    3,594859242e-01    0,000000000e+00    0,000000000e+00    0,000000000e+00    0,000000000e+00
      828000000    1,679561287e-01   -6,994523108e-02    4,328167439e-01    1,565114260e-01    0,000000000e+00    0,000000000e+00    0,000000000e+00    0,000000000e+00
      842000000    6,781972945e-02   -2,189676762e-01    4,666894674e-01   -1,202279925e-01    0,000000000e+00    0,000000000e+00    0,000000000e+00    0,000000000e+00
      856000000   -1,068779826e-01   -2,644173801e-01    3,204078674e-01   -3,946948647e-01    0,000000000e+00    0,000000000e+00    0,000000000e+00    0,000000000e+00
      870000000   -2,748276889e-01   -1,688012183e-01   -1,987320138e-03   -5,277170539e-01    0,000000000e+00    0,000000000e+00    0,000000000e+00    0,000000000e+00
      884000000   -3,217070103e-01    3,611554578e-02   -3,478455544e-01   -3,930386305e-01    0,000000000e+00    0,000000000e+00    0,000000000e+00    0,000000000e+00
      898000000   -1,928670406e-01    2,062113881e-01   -4,894955754e-01   -6,294433028e-02    0,000000000e+00    0,000000000e+00    0,000000000e+00    0,000000000e+00
      912000000    7,195934188e-03    2,191419005e-01   -4,075482786e-01    2,660394311e-01    0,000000000e+00    0,000000000e+00    0,000000000e+00    0,000000000e+00
      926000000    1,513937712e-01    1,144663915e-01   -1,681500524e-01    4,173378348e-01    0,000000000e+00    0,000000000e+00    0,000000000e+00    0,000000000e+00
      940000000    1,973953098e-01   -4,589117318e-02    6,264670193e-02    4,250508249e-01    0,000000000e+00    0,000000000e+00    0,000000000e+00    0,000000000e+00
      954000000    1,571054310e-01   -2,039880157e-01    2,615692317e-01    3,410356343e-01    0,000000000e+00    0,000000000e+00    0,000000000e+00    0,000000000e+00
      968000000    2,618843131e-02   -3,133001626e-01    4,111792743e-01    1,792158931e-01    0,000000000e+00    0,000000000e+00    0,000000000e+00    0,000000000e+00
      982000000   -1,610389650e-01   -3,296566606e-01    4,754741490e-01   -6,587016582e-02    0,000000000e+00    0,000000000e+00    0,000000000e+00    0,000000000e+00
      996000000   -3,257993758e-01   -2,069649845e-01    3,675247133e-01   -3,568746448e-01    0,000000000e+00    0,000000000e+00    0,000000000e+00    0,000000000e+00
     1010000000   -3,400952816e-01   -9,586890228e-03    4,225526378e-02   -5,238855481e-01    0,000000000e+00    0,000000000e+00    0,000000000e+00    0,000000000e+00
     1024000000   -2,098172158e-01    9,273013473e-02   -3,449534476e-01   -3,794495761e-01    0,000000000e+00    0,000000000e+00    0,000000000e+00    0,000000000e+00
     1038000000   -1,352332234e-01    6,597315427e-03   -4,826431870e-01    6,415741891e-02    0,000000000e+00    0,000000000e+00    0,000000000e+00    0,000000000e+00
     1052000000   -2,897185385e-01    5,716339499e-02   -9,421340376e-02    3,742748797e-01    0,000000000e+00    0,000000000e+00    0,000000000e+00    0,000000000e+00
     1066000000   -1,496385485e-01    2,984589040e-01    1,419885457e-01    1,339321434e-01    0,000000000e+00    0,000000000e+00    0,000000000e+00    0,000000000e+00
     1080000000    1,031467319e-01    2,490637451e-01    9,059035778e-02    2,127401717e-02    0,000000000e+00    0,000000000e+00    0,000000000e+00    0,000000000e+00
     1094000000    2,244293541e-01    9,051340818e-02    6,857384741e-02    9,736722335e-03    0,000000000e+00    0,000000000e+00    0,000000000e+00    0,000000000e+00
     1108000000    2,425228655e-01   -8,459198475e-02    8,180511743e-02   -1,425758004e-03    0,000000000e+00    0,000000000e+00    0,000000000e+00    0,000000000e+00
     1122000000    1,852838993e-01   -2,541045249e-01    1,045634225e-01   -2,483502217e-02    0,000000000e+00    0,000000000e+00    0,000000000e+00    0,000000000e+00
     1136000000    4,671784863e-02   -3,747955859e-01    1,276894063e-01   -7,225874066e-02    0,000000000e+00    0,000000000e+00    0,000000000e+00    0,000000000e+00
     1150000000   -1,568596363e-01   -4,217622876e-01    1,365834922e-01   -1,527270079e-01    0,000000000e+00    0,000000000e+00    0,000000000e+00    0,000000000e+00
     1164000000   -3,811122775e-01   -3,235452175e-01    9,608501196e-02   -2,749884129e-01    0,000000000e+00    0,000000000e+00    0,000000000e+00    0,000000000e+00
     1178000000   -4,633916914e-01   -8,971432596e-02   -1,080406010e-01   -4,039737582e-01    0,000000000e+00    0,000000000e+00    0,000000000e+00    0,000000000e+00
     1192000000   -3,756752312e-01    3,716587648e-02   -4,635607898e-01   -1,971510649e-01    0,000000000e+00    0,000000000e+00    0,000000000e+00    0,000000000e+00
     1206000000   -4,175971150e-01    1,315042078e-01   -2,734082937e-01    2,381041348e-01    0,000000000e+00    0,000000000e+00    0,000000000e+00    0,000000000e+00
     1220000000   -2,770616412e-01    3,284722567e-01   -3,631437896e-03    1,646738797e-01    0,000000000e+00    0,000000000e+00    0,000000000e+00    0,000000000e+00
     1234000000   -4,610089585e-02    3,436608315e-01    2,625315264e-02    5,002080649e-02    0,000000000e+00    0,000000000e+00    0,000000000e+00    0,000000000e+00
     1248000000    1,223244146e-01    2,469412237e-01    5,290983710e-03    2,256770618e-02    0,000000000e+00    0,000000000e+00    0,000000000e+00    0,000000000e+00
     1262000000    2,090962976e-01    1,069437042e-01    8,332835278e-04    3,033869714e-02    0,000000000e+00    0,000000000e+00    0,000000000e+00    0,000000000e+00
     1276000000    2,307204455e-01   -5,745758489e-02    2,210306749e-02    3,473517671e-02    0,000000000e+00    0,000000000e+00    0,000000000e+00    0,000000000e+00
     1290000000    1,925017834e-01   -2,197670341e-01    5,482038483e-02    2,479780279e-02    0,000000000e+00    0,000000000e+00    0,000000000e+00    0,000000000e+00
     1304000000    8,509164304e-02   -3,620116413e-01    7,622007281e-02    3,236237681e-03    0,000000000e+00    0,000000000e+00    0,000000000e+00    0,000000000e+00
     1318000000   -1,021972001e-01   -4,504503310e-01    8,235309273e-02   -1,346209738e-02    0,000000000e+00    0,000000000e+00    0,000000000e+00    0,000000000e+00
     1332000000   -3,557516634e-01   -4,383278191e-01    8,638798445e-02   -8,728081360e-03    0,000000000e+00    0,000000000e+00    0,000000000e+00    0,000000000e+00
     1346000000   -5,886477828e-01   -2,441141903e-01    1,037455648e-01   -5,498608574e-03    0,000000000e+00    0,000000000e+00    0,000000000e+00    0,000000000e+00
     1360000000   -6,500706077e-01    7,670497149e-02    1,415232122e-01   -8,842197247e-03    0,000000000e+00    0,000000000e+00    0,000000000e+00    0,000000000e+00
     1374000000   -4,908879995e-01    3,321650028e-01    1,718847901e-01   -5,557152629e-02    0,000000000e+00    0,000000000e+00    0,000000000e+00    0,000000000e+00
     1388000000   -2,523193359e-01    4,324741066e-01    1,588651091e-01   -8,126048744e-02    0,000000000e+00    0,000000000e+00    0,000000000e+00    0,000000000e+00
     1402000000   -3,734683618e-02    3,898035884e-01    1,461913586e-01   -9,542158991e-02    0,000000000e+00    0,000000000e+00    0,000000000e+00    0,000000000e+00
     1416000000    1,072358266e-01    2,891125977e-01    1,238179281e-01   -7,371364534e-02    0,000000000e+00    0,000000000e+00    0,000000000e+00    0,000000000e+00
     1430000000    1,973326504e-01    1,474324465e-01    1,282772124e-01   -7,828340679e-02    0,000000000e+00    0,000000000e+00    0,000000000e+00    0,000000000e+00
     1444000000    2,097691149e-01   -1,260259282e-02    1,135903150e-01   -2,629843913e-02    0,000000000e+00    0,000000000e+00    0,000000000e+00    0,000000000e+00
     1458000000    1,789354235e-01   -1,807280779e-01    1,336484104e-01    2,908978984e-02    0,000000000e+00    0,000000000e+00    0,000000000e+00    0,000000000e+00
     1472000000    6,313845515e-02   -3,467620015e-01    1,899467409e-01    6,537532806e-02    0,000000000e+00    0,000000000e+00    0,000000000e+00    0,000000000e+00
     1486000000   -1,398273706e-01   -4,809002280e-01    2,855548859e-01    8,785036206e-02    0,000000000e+00    0,000000000e+00    0,000000000e+00    0,000000000e+00
     1500000000   -4,470128417e-01   -4,734891951e-01    3,984661400e-01    5,162916332e-02    0,000000000e+00    0,000000000e+00    0,000000000e+00    0,000000000e+00
