! NanoVNA-App
! Date: 2025-09-25 16:01:59
! Start: 100MHz Stop: 1,5GHz Points: 101
! S-Parameter data: F S11 S21 S12 S22
# Hz S RI R 50
!     Frequency           S11_Real           S11_Imag           S21_Real           S21_Imag           S12_Real           S12_Imag           S22_Real           S22_Imag
      100000000   -2,829650976e-02   -2,866804833e-03    3,722831905e-01   -7,223948836e-01    0,000000000e+00    0,000000000e+00    0,000000000e+00    0,000000000e+00
      114000000   -1,574426889e-02    1,285634283e-02   -9,131464362e-02   -8,047819734e-01    0,000000000e+00    0,000000000e+00    0,000000000e+00    0,000000000e+00
      128000000    4,331973847e-03    1,200112700e-02   -5,158644915e-01   -6,188657284e-01    0,000000000e+00    0,000000000e+00    0,000000000e+00    0,000000000e+00
      142000000    1,547392830e-02   -1,740954118e-03   -7,674195766e-01   -2,341766953e-01    0,000000000e+00    0,000000000e+00    0,000000000e+00    0,000000000e+00
      156000000    1,536538266e-02   -1,296795253e-02   -7,642415166e-01    2,207512558e-01    0,000000000e+00    0,000000000e+00    0,000000000e+00    0,000000000e+00
      170000000    1,768307574e-02   -2,096611261e-02   -5,156232715e-01    6,061571836e-01    0,000000000e+00    0,000000000e+00    0,000000000e+00    0,000000000e+00
      184000000    2,205912769e-02   -3,555615619e-02   -9,835184366e-02    7,859192491e-01    0,000000000e+00    0,000000000e+00    0,000000000e+00    0,000000000e+00
      198000000    1,402675733e-02   -6,066839397e-02    3,459189832e-01    7,108474374e-01    0,000000000e+00    0,000000000e+00    0,000000000e+00    0,000000000e+00
      212000000   -1,767350733e-02   -7,914717495e-02    6,809359789e-01    4,062829912e-01    0,000000000e+00    0,000000000e+00    0,000000000e+00    0,000000000e+00
      226000000   -6,035626307e-02   -6,665617973e-02    7,958150506e-01   -3,562164679e-02    0,000000000e+00    0,000000000e+00    0,000000000e+00    0,000000000e+00
      240000000   -8,059223741e-02   -2,273146436e-02    6,417778134e-01   -4,717071354e-01    0,000000000e+00    0,000000000e+00    0,000000000e+00    0,000000000e+00
      254000000   -6,081421301e-02    1,982107200e-02    2,712093294e-01   -7,416237593e-01    0,000000000e+00    0,000000000e+00    0,000000000e+00    0,000000000e+00
      268000000   -2,095696330e-02    3,090883419e-02   -1,813762486e-01   -7,609320879e-01    0,000000000e+00    0,000000000e+00    0,000000000e+00    0,000000000e+00
      282000000    6,953977514e-03    1,379614603e-02   -5,630652905e-01   -5,324298739e-01    0,000000000e+00    0,000000000e+00    0,000000000e+00    0,000000000e+00
      296000000    1,239946950e-02   -6,189361215e-03   -7,605875134e-01   -1,345292330e-01    0,000000000e+00    0,000000000e+00    0,000000000e+00    0,000000000e+00
      310000000    1,361103728e-02   -1,461330894e-02   -7,094476223e-01    3,042759895e-01    0,000000000e+00    0,000000000e+00    0,000000000e+00    0,000000000e+00
      324000000    2,247697301e-02   -2,451299503e-02   -4,222872555e-01    6,391969323e-01    0,000000000e+00    0,000000000e+00    0,000000000e+00    0,000000000e+00
      338000000    2,825750969e-02   -5,060970411e-02   -1,123680151e-03    7,590088844e-01    0,000000000e+00    0,000000000e+00    0,000000000e+00    0,000000000e+00
      352000000    1,002709847e-02   -8,323421329e-02    4,118145406e-01    6,347578168e-01    0,000000000e+00    0,000000000e+00    0,000000000e+00    0,000000000e+00
      366000000   -3,161925822e-02   -9,368820488e-02    6,942453384e-01    3,038021624e-01    0,000000000e+00    0,000000000e+00    0,000000000e+00    0,000000000e+00
      380000000   -6,741157174e-02   -6,867489964e-02    7,456023097e-01   -1,344218254e-01    0,000000000e+00    0,000000000e+00    0,000000000e+00    0,000000000e+00
      394000000   -6,855722517e-02   -3,059438616e-02    5,395241976e-01   -5,289801359e-01    0,000000000e+00    0,000000000e+00    0,000000000e+00    0,000000000e+00
      408000000   -4,271830618e-02   -1,550659817e-02    1,497030109e-01   -7,349339724e-01    0,000000000e+00    0,000000000e+00    0,000000000e+00    0,000000000e+00
      422000000   -2,621969767e-02   -3,113669902e-02   -2,784665525e-01   -6,891789436e-01    0,000000000e+00    0,000000000e+00    0,000000000e+00    0,000000000e+00
      436000000   -3,909375891e-02   -4,895168170e-02   -6,100343466e-01   -4,195105731e-01    0,000000000e+00    0,000000000e+00    0,000000000e+00    0,000000000e+00
      450000000   -6,465095282e-02   -3,919283301e-02   -7,371142507e-01   -7,389009465e-03    0,000000000e+00    0,000000000e+00    0,000000000e+00    0,000000000e+00
      464000000   -6,765750051e-02   -6,426848937e-03   -6,077960134e-01    4,059803188e-01    0,000000000e+00    0,000000000e+00    0,000000000e+00    0,000000000e+00
      478000000   -3,847086802e-02    1,597354747e-02   -2,680474520e-01    6,708811522e-01    0,000000000e+00    0,000000000e+00    0,000000000e+00    0,000000000e+00
      492000000   -4,895186052e-03    6,435547955e-03    1,519875228e-01    6,947275996e-01    0,000000000e+00    0,000000000e+00    0,000000000e+00    0,000000000e+00
      506000000    6,774830166e-03   -2,000040375e-02    5,071552992e-01    4,890976548e-01    0,000000000e+00    0,000000000e+00    0,000000000e+00    0,000000000e+00
      520000000    6,438994897e-04   -3,797439858e-02    6,894974113e-01    1,205848679e-01    0,000000000e+00    0,000000000e+00    0,000000000e+00    0,000000000e+00
      534000000   -2,940784907e-03   -4,511677101e-02    6,323550940e-01   -2,814804018e-01    0,000000000e+00    0,000000000e+00    0,000000000e+00    0,000000000e+00
      548000000    1,016953029e-03   -5,978839472e-02    3,606716096e-01   -5,805512667e-01    0,000000000e+00    0,000000000e+00    0,000000000e+00    0,000000000e+00
      562000000   -7,758679800e-03   -8,862719685e-02   -2,711764723e-02   -6,729657650e-01    0,000000000e+00    0,000000000e+00    0,000000000e+00    0,000000000e+00
      576000000   -4,537837580e-02   -1,096335799e-01   -4,012911916e-01   -5,384213924e-01    0,000000000e+00    0,000000000e+00    0,000000000e+00    0,000000000e+00
      590000000   -9,469216317e-02   -9,351449460e-02   -6,422349215e-01   -2,170036584e-01    0,000000000e+00    0,000000000e+00    0,000000000e+00    0,000000000e+00
      604000000   -1,114804968e-01   -4,080976173e-02   -6,475913525e-01    1,983505785e-01    0,000000000e+00    0,000000000e+00    0,000000000e+00    0,000000000e+00
      618000000   -7,564471662e-02   -2,111724112e-03   -4,008220732e-01    5,362892151e-01    0,000000000e+00    0,000000000e+00    0,000000000e+00    0,000000000e+00
      632000000   -3,031668440e-02   -2,151225321e-02   -1,275528129e-02    6,563790441e-01    0,000000000e+00    0,000000000e+00    0,000000000e+00    0,000000000e+00
      646000000   -3,615609929e-02   -7,615633309e-02    3,664708734e-01    5,271021128e-01    0,000000000e+00    0,000000000e+00    0,000000000e+00    0,000000000e+00
      660000000   -1,118762493e-01   -1,003850028e-01    6,010324955e-01    1,939501315e-01    0,000000000e+00    0,000000000e+00    0,000000000e+00    0,000000000e+00
      674000000   -1,990339607e-01   -2,450057492e-02    5,656083226e-01   -2,400459498e-01    0,000000000e+00    0,000000000e+00    0,000000000e+00    0,000000000e+00
      688000000   -1,781031638e-01    1,440189928e-01    2,100400627e-01   -5,221560597e-01    0,000000000e+00    0,000000000e+00    0,000000000e+00    0,000000000e+00
      702000000    2,503759414e-02    2,469988167e-01   -2,007621378e-01   -4,083120823e-01    0,000000000e+00    0,000000000e+00    0,000000000e+00    0,000000000e+00
      716000000    2,631914914e-01    1,105166599e-01   -2,734972835e-01   -8,387266099e-02    0,000000000e+00    0,000000000e+00    0,000000000e+00    0,000000000e+00
      730000000    3,038030267e-01   -1,852911711e-01   -1,074688509e-01    3,247787431e-02    0,000000000e+00    0,000000000e+00    0,000000000e+00    0,000000000e+00
      744000000    9,376000613e-02   -4,269723892e-01   -4,227023944e-02   -6,439025700e-02    0,000000000e+00    0,000000000e+00    0,000000000e+00    0,000000000e+00
      758000000   -2,595922649e-01   -4,298034012e-01   -1,748713106e-01   -1,253281385e-01    0,000000000e+00    0,000000000e+00    0,000000000e+00    0,000000000e+00
      772000000   -4,854918122e-01   -1,187137589e-01   -3,361615241e-01    3,741717711e-02    0,000000000e+00    0,000000000e+00    0,000000000e+00    0,000000000e+00
      786000000   -3,418983221e-01    2,225951850e-01   -2,625238895e-01    3,161594272e-01    0,000000000e+00    0,000000000e+00    0,000000000e+00    0,000000000e+00
      800000000   -4,082620889e-02    2,773719728e-01    3,868176136e-03    4,357149601e-01    0,000000000e+00    0,000000000e+00    0,000000000e+00    0,000000000e+00
      814000000    1,442551166e-01    1,257930994e-01    2,637093067e-01    3,593656123e-01    0,000000000e+00    0,000000000e+00    0,000000000e+00    0,000000000e+00
      828000000    1,676208377e-01   -7,020517439e-02    4,322110713e-01    1,566780508e-01    0,000000000e+00    0,000000000e+00    0,000000000e+00    0,000000000e+00
      842000000    6,736996025e-02   -2,178518921e-01    4,664848447e-01   -1,201432422e-01    0,000000000e+00    0,000000000e+00    0,000000000e+00    0,000000000e+00
      856000000   -1,067327932e-01   -2,644796073e-01    3,202977777e-01   -3,943985403e-01    0,000000000e+00    0,000000000e+00    0,000000000e+00    0,000000000e+00
      870000000   -2,755500078e-01   -1,680767387e-01   -1,667474629e-03   -5,277822614e-01    0,000000000e+00    0,000000000e+00    0,000000000e+00    0,000000000e+00
      884000000   -3,199854493e-01    3,519616649e-02   -3,482683599e-01   -3,923397958e-01    0,000000000e+00    0,000000000e+00    0,000000000e+00    0,000000000e+00
      898000000   -1,925807744e-01    2,059500068e-01   -4,895438254e-01   -6,329326332e-02    0,000000000e+00    0,000000000e+00    0,000000000e+00    0,000000000e+00
      912000000    7,514596451e-03    2,187104076e-01   -4,097311199e-01    2,786884606e-01    0,000000000e+00    0,000000000e+00    0,000000000e+00    0,000000000e+00
      926000000    1,515061110e-01    1,136900634e-01   -1,654654294e-01    4,158356190e-01    0,000000000e+00    0,000000000e+00    0,000000000e+00    0,000000000e+00
      940000000    2,002391070e-01   -4,497962818e-02    6,296958029e-02    4,259523749e-01    0,000000000e+00    0,000000000e+00    0,000000000e+00    0,000000000e+00
      954000000    1,527618170e-01   -2,054780126e-01    2,607499659e-01    3,410210311e-01    0,000000000e+00    0,000000000e+00    0,000000000e+00    0,000000000e+00
      968000000    2,612941153e-02   -3,166837096e-01    4,106529951e-01    1,777569950e-01    0,000000000e+00    0,000000000e+00    0,000000000e+00    0,000000000e+00
      982000000   -1,617817730e-01   -3,343453407e-01    4,741306901e-01   -6,532482058e-02    0,000000000e+00    0,000000000e+00    0,000000000e+00    0,000000000e+00
      996000000   -3,244317174e-01   -2,120224983e-01    3,676906526e-01   -3,567247689e-01    0,000000000e+00    0,000000000e+00    0,000000000e+00    0,000000000e+00
     1010000000   -3,363320231e-01   -8,568221703e-03    4,218033329e-02   -5,247812867e-01    0,000000000e+00    0,000000000e+00    0,000000000e+00    0,000000000e+00
     1024000000   -2,029001564e-01    9,372273833e-02   -3,473750055e-01   -3,788519800e-01    0,000000000e+00    0,000000000e+00    0,000000000e+00    0,000000000e+00
     1038000000   -1,371828020e-01    9,072573856e-03   -4,822410941e-01    6,566742808e-02    0,000000000e+00    0,000000000e+00    0,000000000e+00    0,000000000e+00
     1052000000   -2,867164314e-01    5,663919449e-02   -9,328386933e-02    3,726713061e-01    0,000000000e+00    0,000000000e+00    0,000000000e+00    0,000000000e+00
     1066000000   -1,492287219e-01    2,891412973e-01    1,477610171e-01    1,328767985e-01    0,000000000e+00    0,000000000e+00    0,000000000e+00    0,000000000e+00
     1080000000    1,001971215e-01    2,529416680e-01    9,131166339e-02    2,189594135e-02    0,000000000e+00    0,000000000e+00    0,000000000e+00    0,000000000e+00
     1094000000    2,236759365e-01    8,634703606e-02    6,781867892e-02    1,164698508e-02    0,000000000e+00    0,000000000e+00    0,000000000e+00    0,000000000e+00
     1108000000    2,452403307e-01   -8,776839077e-02    8,085450530e-02   -7,598422817e-04    0,000000000e+00    0,000000000e+00    0,000000000e+00    0,000000000e+00
     1122000000    1,828414947e-01   -2,526697814e-01    1,026859879e-01   -2,341120876e-02    0,000000000e+00    0,000000000e+00    0,000000000e+00    0,000000000e+00
     1136000000    4,904112965e-02   -3,760654032e-01    1,238967031e-01   -7,337818295e-02    0,000000000e+00    0,000000000e+00    0,000000000e+00    0,000000000e+00
     1150000000   -1,523721069e-01   -4,235141277e-01    1,389345527e-01   -1,511055380e-01    0,000000000e+00    0,000000000e+00    0,000000000e+00    0,000000000e+00
     1164000000   -3,760241270e-01   -3,226665556e-01    9,945052862e-02   -2,771931589e-01    0,000000000e+00    0,000000000e+00    0,000000000e+00    0,000000000e+00
     1178000000   -4,669984877e-01   -8,994006366e-02   -1,055185869e-01   -4,072720110e-01    0,000000000e+00    0,000000000e+00    0,000000000e+00    0,000000000e+00
     1192000000   -3,755449355e-01    3,554471210e-02   -4,628362656e-01   -1,977373213e-01    0,000000000e+00    0,000000000e+00    0,000000000e+00    0,000000000e+00
     1206000000   -4,168064594e-01    1,293371618e-01   -2,772335112e-01    2,339366972e-01    0,000000000e+00    0,000000000e+00    0,000000000e+00    0,000000000e+00
     1220000000   -2,737820148e-01    3,335968554e-01   -9,064094047e-04    1,687038839e-01    0,000000000e+00    0,000000000e+00    0,000000000e+00    0,000000000e+00
     1234000000   -4,341459647e-02    3,461141586e-01    2,608490922e-02    5,181590095e-02    0,000000000e+00    0,000000000e+00    0,000000000e+00    0,000000000e+00
     1248000000    1,244228184e-01    2,504518628e-01    5,611779168e-03    2,671935596e-02    0,000000000e+00    0,000000000e+00    0,000000000e+00    0,000000000e+00
     1262000000    2,159016877e-01    1,033248231e-01    5,613355897e-03    3,323349729e-02    0,000000000e+00    0,000000000e+00    0,000000000e+00    0,000000000e+00
     1276000000    2,359362543e-01   -5,399718881e-02    2,839520201e-02    3,865934536e-02    0,000000000e+00    0,000000000e+00    0,000000000e+00    0,000000000e+00
     1290000000    1,942846328e-01   -2,172481716e-01    5,616166443e-02    2,121087164e-02    0,000000000e+00    0,000000000e+00    0,000000000e+00    0,000000000e+00
     1304000000    8,528710902e-02   -3,570572734e-01    7,563664764e-02    1,106653144e-04    0,000000000e+00    0,000000000e+00    0,000000000e+00    0,000000000e+00
     1318000000   -1,019438431e-01   -4,485376477e-01    8,935452253e-02   -8,927632123e-03    0,000000000e+00    0,000000000e+00    0,000000000e+00    0,000000000e+00
     1332000000   -3,523502648e-01   -4,356522262e-01    8,194627613e-02   -1,458274107e-02    0,000000000e+00    0,000000000e+00    0,000000000e+00    0,000000000e+00
     1346000000   -5,913702846e-01   -2,429397106e-01    1,083571389e-01   -4,541300237e-03    0,000000000e+00    0,000000000e+00    0,000000000e+00    0,000000000e+00
     1360000000   -6,514866352e-01    7,268626988e-02    1,434421390e-01   -2,500913851e-02    0,000000000e+00    0,000000000e+00    0,000000000e+00    0,000000000e+00
     1374000000   -4,899684787e-01    3,385247588e-01    1,651153117e-01   -4,429444298e-02    0,000000000e+00    0,000000000e+00    0,000000000e+00    0,000000000e+00
     1388000000   -2,597188354e-01    4,327756464e-01    1,549272090e-01   -8,747597784e-02    0,000000000e+00    0,000000000e+00    0,000000000e+00    0,000000000e+00
     1402000000   -3,772050515e-02    3,850443065e-01    1,432141066e-01   -9,519194812e-02    0,000000000e+00    0,000000000e+00    0,000000000e+00    0,000000000e+00
     1416000000    1,010306552e-01    2,803548872e-01    1,197180972e-01   -8,625873178e-02    0,000000000e+00    0,000000000e+00    0,000000000e+00    0,000000000e+00
     1430000000    1,884993613e-01    1,445140392e-01    1,050430015e-01   -7,142992318e-02    0,000000000e+00    0,000000000e+00    0,000000000e+00    0,000000000e+00
     1444000000    2,169137448e-01   -1,259096712e-02    1,265761256e-01   -3,337283060e-02    0,000000000e+00    0,000000000e+00    0,000000000e+00    0,000000000e+00
     1458000000    1,784305871e-01   -1,789260805e-01    1,376572996e-01    2,338668332e-02    0,000000000e+00    0,000000000e+00    0,000000000e+00    0,000000000e+00
     1472000000    7,080568373e-02   -3,474909067e-01    1,997946352e-01    6,137873977e-02    0,000000000e+00    0,000000000e+00    0,000000000e+00    0,000000000e+00
     1486000000   -1,327188015e-01   -4,707953632e-01    3,005056679e-01    9,737960994e-02    0,000000000e+00    0,000000000e+00    0,000000000e+00    0,000000000e+00
     1500000000   -4,351294339e-01   -4,663575590e-01    4,137230814e-01    6,505940109e-02    0,000000000e+00    0,000000000e+00    0,000000000e+00    0,000000000e+00
