! NanoVNA-App
! Date: 2025-09-25 15:59:26
! Start: 100MHz Stop: 1,5GHz Points: 101
! S-Parameter data: F S11 S21 S12 S22
# Hz S RI R 50
!     Frequency           S11_Real           S11_Imag           S21_Real           S21_Imag           S12_Real           S12_Imag           S22_Real           S22_Imag
      100000000   -2,824256942e-02   -2,869377146e-03    3,722316623e-01   -7,224183083e-01    0,000000000e+00    0,000000000e+00    0,000000000e+00    0,000000000e+00
      114000000   -1,571651362e-02    1,289719250e-02   -9,125179052e-02   -8,047885299e-01    0,000000000e+00    0,000000000e+00    0,000000000e+00    0,000000000e+00
      128000000    4,324681126e-03    1,188471448e-02   -5,159552693e-01   -6,187540293e-01    0,000000000e+00    0,000000000e+00    0,000000000e+00    0,000000000e+00
      142000000    1,548379380e-02   -1,772994292e-03   -7,674481869e-01   -2,343183905e-01    0,000000000e+00    0,000000000e+00    0,000000000e+00    0,000000000e+00
      156000000    1,623392478e-02   -1,277247071e-02   -7,636161447e-01    2,233165205e-01    0,000000000e+00    0,000000000e+00    0,000000000e+00    0,000000000e+00
      170000000    1,768510975e-02   -2,093926445e-02   -5,155069828e-01    6,061185002e-01    0,000000000e+00    0,000000000e+00    0,000000000e+00    0,000000000e+00
      184000000    2,200285718e-02   -3,558582440e-02   -9,843005985e-02    7,860193849e-01    0,000000000e+00    0,000000000e+00    0,000000000e+00    0,000000000e+00
      198000000    1,403683238e-02   -6,067433581e-02    3,461346626e-01    7,107789516e-01    0,000000000e+00    0,000000000e+00    0,000000000e+00    0,000000000e+00
      212000000   -1,767367311e-02   -7,912361622e-02    6,808714867e-01    4,062797725e-01    0,000000000e+00    0,000000000e+00    0,000000000e+00    0,000000000e+00
      226000000   -6,033645570e-02   -6,659714133e-02    7,957563996e-01   -3,560490906e-02    0,000000000e+00    0,000000000e+00    0,000000000e+00    0,000000000e+00
      240000000   -8,053858578e-02   -2,276271023e-02    6,415985823e-01   -4,717031121e-01    0,000000000e+00    0,000000000e+00    0,000000000e+00    0,000000000e+00
      254000000   -6,079041958e-02    1,981752180e-02    2,708393633e-01   -7,422773242e-01    0,000000000e+00    0,000000000e+00    0,000000000e+00    0,000000000e+00
      268000000   -2,092192322e-02    3,092992865e-02   -1,813366562e-01   -7,608821392e-01    0,000000000e+00    0,000000000e+00    0,000000000e+00    0,000000000e+00
      282000000    6,947363727e-03    1,378389541e-02   -5,634751916e-01   -5,326667428e-01    0,000000000e+00    0,000000000e+00    0,000000000e+00    0,000000000e+00
      296000000    1,239529904e-02   -6,189188454e-03   -7,606071830e-01   -1,344244033e-01    0,000000000e+00    0,000000000e+00    0,000000000e+00    0,000000000e+00
      310000000    1,360854227e-02   -1,451489050e-02   -7,072312236e-01    3,044409752e-01    0,000000000e+00    0,000000000e+00    0,000000000e+00    0,000000000e+00
      324000000    2,258388698e-02   -2,470552363e-02   -4,209712148e-01    6,391106248e-01    0,000000000e+00    0,000000000e+00    0,000000000e+00    0,000000000e+00
      338000000    2,861915529e-02   -5,073363334e-02   -3,625446232e-03    7,608718276e-01    0,000000000e+00    0,000000000e+00    0,000000000e+00    0,000000000e+00
      352000000    1,000235137e-02   -8,290727437e-02    4,122329652e-01    6,356071234e-01    0,000000000e+00    0,000000000e+00    0,000000000e+00    0,000000000e+00
      366000000   -3,177680075e-02   -9,390715510e-02    6,927675009e-01    3,040934205e-01    0,000000000e+00    0,000000000e+00    0,000000000e+00    0,000000000e+00
      380000000   -6,778883934e-02   -6,880869716e-02    7,457965612e-01   -1,345478892e-01    0,000000000e+00    0,000000000e+00    0,000000000e+00    0,000000000e+00
      394000000   -6,865170598e-02   -3,073775396e-02    5,381421447e-01   -5,289027095e-01    0,000000000e+00    0,000000000e+00    0,000000000e+00    0,000000000e+00
      408000000   -4,275231063e-02   -1,560462546e-02    1,506011039e-01   -7,341826558e-01    0,000000000e+00    0,000000000e+00    0,000000000e+00    0,000000000e+00
      422000000   -2,611557581e-02   -3,103726730e-02   -2,795972824e-01   -6,892557740e-01    0,000000000e+00    0,000000000e+00    0,000000000e+00    0,000000000e+00
      436000000   -3,923441842e-02   -4,914323986e-02   -6,098201871e-01   -4,197171628e-01    0,000000000e+00    0,000000000e+00    0,000000000e+00    0,000000000e+00
      450000000   -6,460762024e-02   -3,911254928e-02   -7,368755341e-01   -7,326851599e-03    0,000000000e+00    0,000000000e+00    0,000000000e+00    0,000000000e+00
      464000000   -6,800047308e-02   -6,571632810e-03   -6,081754565e-01    4,058875144e-01    0,000000000e+00    0,000000000e+00    0,000000000e+00    0,000000000e+00
      478000000   -3,840193525e-02    1,586011611e-02   -2,677995861e-01    6,700875759e-01    0,000000000e+00    0,000000000e+00    0,000000000e+00    0,000000000e+00
      492000000   -5,220417399e-03    6,724189501e-03    1,504997760e-01    6,955180168e-01    0,000000000e+00    0,000000000e+00    0,000000000e+00    0,000000000e+00
      506000000    6,741655990e-03   -2,012286894e-02    5,072228909e-01    4,882391989e-01    0,000000000e+00    0,000000000e+00    0,000000000e+00    0,000000000e+00
      520000000    1,099879504e-03   -3,849679604e-02    6,901486516e-01    1,222955808e-01    0,000000000e+00    0,000000000e+00    0,000000000e+00    0,000000000e+00
      534000000   -3,450660734e-03   -4,561420158e-02    6,325486302e-01   -2,823916674e-01    0,000000000e+00    0,000000000e+00    0,000000000e+00    0,000000000e+00
      548000000    9,474446415e-04   -5,945459753e-02    3,601169288e-01   -5,798753500e-01    0,000000000e+00    0,000000000e+00    0,000000000e+00    0,000000000e+00
      562000000   -7,879598998e-03   -8,830143511e-02   -2,696540579e-02   -6,727043986e-01    0,000000000e+00    0,000000000e+00    0,000000000e+00    0,000000000e+00
      576000000   -4,571085796e-02   -1,095251516e-01   -4,016584754e-01   -5,383892059e-01    0,000000000e+00    0,000000000e+00    0,000000000e+00    0,000000000e+00
      590000000   -9,481799603e-02   -9,337117523e-02   -6,427915096e-01   -2,185898870e-01    0,000000000e+00    0,000000000e+00    0,000000000e+00    0,000000000e+00
      604000000   -1,114106923e-01   -4,098307341e-02   -6,473804712e-01    1,980321556e-01    0,000000000e+00    0,000000000e+00    0,000000000e+00    0,000000000e+00
      618000000   -7,566268742e-02   -2,668609610e-03   -4,022756517e-01    5,358783603e-01    0,000000000e+00    0,000000000e+00    0,000000000e+00    0,000000000e+00
      632000000   -2,955378033e-02   -2,150483802e-02   -1,325294096e-02    6,559763551e-01    0,000000000e+00    0,000000000e+00    0,000000000e+00    0,000000000e+00
      646000000   -3,682364523e-02   -7,701051235e-02    3,648854792e-01    5,282067060e-01    0,000000000e+00    0,000000000e+00    0,000000000e+00    0,000000000e+00
      660000000   -1,112100855e-01   -9,945914149e-02    6,010450125e-01    1,937975883e-01    0,000000000e+00    0,000000000e+00    0,000000000e+00    0,000000000e+00
      674000000   -2,000249475e-01   -2,431598492e-02    5,653939247e-01   -2,401633859e-01    0,000000000e+00    0,000000000e+00    0,000000000e+00    0,000000000e+00
      688000000   -1,786563545e-01    1,438467950e-01    2,099262029e-01   -5,218092799e-01    0,000000000e+00    0,000000000e+00    0,000000000e+00    0,000000000e+00
      702000000    2,453864180e-02    2,472490221e-01   -2,030129582e-01   -4,046397209e-01    0,000000000e+00    0,000000000e+00    0,000000000e+00    0,000000000e+00
      716000000    2,632168829e-01    1,110142618e-01   -2,728179395e-01   -8,360605687e-02    0,000000000e+00    0,000000000e+00    0,000000000e+00    0,000000000e+00
      730000000    3,040120602e-01   -1,862230301e-01   -1,071098745e-01    3,233058378e-02    0,000000000e+00    0,000000000e+00    0,000000000e+00    0,000000000e+00
      744000000    9,406096488e-02   -4,268950224e-01   -4,252771288e-02   -6,502310932e-02    0,000000000e+00    0,000000000e+00    0,000000000e+00    0,000000000e+00
      758000000   -2,587406933e-01   -4,285274744e-01   -1,752219498e-01   -1,254429072e-01    0,000000000e+00    0,000000000e+00    0,000000000e+00    0,000000000e+00
      772000000   -4,858166277e-01   -1,184500977e-01   -3,364993930e-01    3,838523850e-02    0,000000000e+00    0,000000000e+00    0,000000000e+00    0,000000000e+00
      786000000   -3,407455683e-01    2,212525606e-01   -2,624629438e-01    3,168146312e-01    0,000000000e+00    0,000000000e+00    0,000000000e+00    0,000000000e+00
      800000000   -4,158425704e-02    2,773391306e-01    3,368242178e-03    4,366596639e-01    0,000000000e+00    0,000000000e+00    0,000000000e+00    0,000000000e+00
      814000000    1,445551366e-01    1,258287877e-01    2,646099329e-01    3,594829738e-01    0,000000000e+00    0,000000000e+00    0,000000000e+00    0,000000000e+00
      828000000    1,682305932e-01   -7,040013373e-02    4,328140318e-01    1,574932635e-01    0,000000000e+00    0,000000000e+00    0,000000000e+00    0,000000000e+00
      842000000    6,700649858e-02   -2,182627022e-01    4,665025771e-01   -1,203741804e-01    0,000000000e+00    0,000000000e+00    0,000000000e+00    0,000000000e+00
      856000000   -1,076362133e-01   -2,637968063e-01    3,199822307e-01   -3,950212002e-01    0,000000000e+00    0,000000000e+00    0,000000000e+00    0,000000000e+00
      870000000   -2,743276656e-01   -1,688795090e-01   -2,630423522e-03   -5,274005532e-01    0,000000000e+00    0,000000000e+00    0,000000000e+00    0,000000000e+00
      884000000   -3,207756281e-01    3,619918600e-02   -3,483523726e-01   -3,917673528e-01    0,000000000e+00    0,000000000e+00    0,000000000e+00    0,000000000e+00
      898000000   -1,917415708e-01    2,064636499e-01   -4,886741638e-01   -6,313300133e-02    0,000000000e+00    0,000000000e+00    0,000000000e+00    0,000000000e+00
      912000000    7,772521116e-03    2,194276601e-01   -3,960542083e-01    2,676434815e-01    0,000000000e+00    0,000000000e+00    0,000000000e+00    0,000000000e+00
      926000000    1,514300406e-01    1,132571250e-01   -1,671670675e-01    4,163410366e-01    0,000000000e+00    0,000000000e+00    0,000000000e+00    0,000000000e+00
      940000000    1,990266889e-01   -4,398201406e-02    6,395435333e-02    4,241388142e-01    0,000000000e+00    0,000000000e+00    0,000000000e+00    0,000000000e+00
      954000000    1,526905894e-01   -1,994951218e-01    2,598896027e-01    3,431755602e-01    0,000000000e+00    0,000000000e+00    0,000000000e+00    0,000000000e+00
      968000000    2,646805346e-02   -3,152899444e-01    4,125134945e-01    1,798219234e-01    0,000000000e+00    0,000000000e+00    0,000000000e+00    0,000000000e+00
      982000000   -1,634387076e-01   -3,334560990e-01    4,737647772e-01   -6,705977023e-02    0,000000000e+00    0,000000000e+00    0,000000000e+00    0,000000000e+00
      996000000   -3,239768744e-01   -2,068048418e-01    3,677987754e-01   -3,566220403e-01    0,000000000e+00    0,000000000e+00    0,000000000e+00    0,000000000e+00
     1010000000   -3,382742405e-01   -9,413807653e-03    4,262319580e-02   -5,247731805e-01    0,000000000e+00    0,000000000e+00    0,000000000e+00    0,000000000e+00
     1024000000   -2,093565017e-01    9,354986250e-02   -3,447160423e-01   -3,801283538e-01    0,000000000e+00    0,000000000e+00    0,000000000e+00    0,000000000e+00
     1038000000   -1,339648515e-01    1,150782872e-02   -4,817344844e-01    6,428856403e-02    0,000000000e+00    0,000000000e+00    0,000000000e+00    0,000000000e+00
     1052000000   -2,858430147e-01    5,676399544e-02   -9,372354299e-02    3,718853891e-01    0,000000000e+00    0,000000000e+00    0,000000000e+00    0,000000000e+00
     1066000000   -1,488097310e-01    2,920309901e-01    1,455581337e-01    1,334186941e-01    0,000000000e+00    0,000000000e+00    0,000000000e+00    0,000000000e+00
     1080000000    9,910961986e-02    2,542611659e-01    9,083674848e-02    2,121865191e-02    0,000000000e+00    0,000000000e+00    0,000000000e+00    0,000000000e+00
     1094000000    2,231930196e-01    8,882716298e-02    6,912743300e-02    9,762611240e-03    0,000000000e+00    0,000000000e+00    0,000000000e+00    0,000000000e+00
     1108000000    2,402417511e-01   -9,029570222e-02    8,220317215e-02    7,872251444e-04    0,000000000e+00    0,000000000e+00    0,000000000e+00    0,000000000e+00
     1122000000    1,839575320e-01   -2,479317933e-01    1,031614244e-01   -2,607850172e-02    0,000000000e+00    0,000000000e+00    0,000000000e+00    0,000000000e+00
     1136000000    4,561723769e-02   -3,756278753e-01    1,263870001e-01   -7,508445531e-02    0,000000000e+00    0,000000000e+00    0,000000000e+00    0,000000000e+00
     1150000000   -1,594344378e-01   -4,266564846e-01    1,397351772e-01   -1,498224437e-01    0,000000000e+00    0,000000000e+00    0,000000000e+00    0,000000000e+00
     1164000000   -3,799633980e-01   -3,194331527e-01    9,834754467e-02   -2,746732235e-01    0,000000000e+00    0,000000000e+00    0,000000000e+00    0,000000000e+00
     1178000000   -4,611413777e-01   -8,600665629e-02   -1,050792560e-01   -4,059624076e-01    0,000000000e+00    0,000000000e+00    0,000000000e+00    0,000000000e+00
     1192000000   -3,712798953e-01    3,956179693e-02   -4,615444541e-01   -1,974511594e-01    0,000000000e+00    0,000000000e+00    0,000000000e+00    0,000000000e+00
     1206000000   -4,141553342e-01    1,287865043e-01   -2,743515670e-01    2,358511239e-01    0,000000000e+00    0,000000000e+00    0,000000000e+00    0,000000000e+00
     1220000000   -2,786485553e-01    3,325868547e-01   -3,211799776e-03    1,657098234e-01    0,000000000e+00    0,000000000e+00    0,000000000e+00    0,000000000e+00
     1234000000   -5,069043860e-02    3,475207388e-01    1,800256595e-02    5,188585073e-02    0,000000000e+00    0,000000000e+00    0,000000000e+00    0,000000000e+00
     1248000000    1,173342243e-01    2,461669147e-01    2,363201231e-03    2,325626835e-02    0,000000000e+00    0,000000000e+00    0,000000000e+00    0,000000000e+00
     1262000000    2,118244469e-01    9,879758209e-02    1,806758926e-03    2,850236557e-02    0,000000000e+00    0,000000000e+00    0,000000000e+00    0,000000000e+00
     1276000000    2,326005399e-01   -5,744466931e-02    2,146634459e-02    3,584010899e-02    0,000000000e+00    0,000000000e+00    0,000000000e+00    0,000000000e+00
     1290000000    1,890573502e-01   -2,161437273e-01    5,794239044e-02    2,416104451e-02    0,000000000e+00    0,000000000e+00    0,000000000e+00    0,000000000e+00
     1304000000    8,414628357e-02   -3,567240834e-01    7,804653794e-02    6,810546387e-03    0,000000000e+00    0,000000000e+00    0,000000000e+00    0,000000000e+00
     1318000000   -1,066512540e-01   -4,461080432e-01    7,899712026e-02   -9,183026850e-03    0,000000000e+00    0,000000000e+00    0,000000000e+00    0,000000000e+00
     1332000000   -3,587958515e-01   -4,340948462e-01    8,313404024e-02   -1,570336334e-02    0,000000000e+00    0,000000000e+00    0,000000000e+00    0,000000000e+00
     1346000000   -5,913596749e-01   -2,449311465e-01    1,095848531e-01   -6,654638797e-03    0,000000000e+00    0,000000000e+00    0,000000000e+00    0,000000000e+00
     1360000000   -6,486147046e-01    6,798219681e-02    1,383100748e-01   -2,154643461e-02    0,000000000e+00    0,000000000e+00    0,000000000e+00    0,000000000e+00
     1374000000   -4,932785630e-01    3,392390609e-01    1,693251282e-01   -4,165297374e-02    0,000000000e+00    0,000000000e+00    0,000000000e+00    0,000000000e+00
     1388000000   -2,575939596e-01    4,255134165e-01    1,628517359e-01   -8,244483918e-02    0,000000000e+00    0,000000000e+00    0,000000000e+00    0,000000000e+00
     1402000000   -4,180267453e-02    3,900723159e-01    1,373656690e-01   -9,990829229e-02    0,000000000e+00    0,000000000e+00    0,000000000e+00    0,000000000e+00
     1416000000    1,022822261e-01    2,815839946e-01    1,244500503e-01   -9,126030654e-02    0,000000000e+00    0,000000000e+00    0,000000000e+00    0,000000000e+00
     1430000000    1,874632984e-01    1,461437196e-01    1,313674599e-01   -4,850652069e-02    0,000000000e+00    0,000000000e+00    0,000000000e+00    0,000000000e+00
     1444000000    2,164889872e-01   -1,078443974e-02    1,167138815e-01   -2,106275223e-02    0,000000000e+00    0,000000000e+00    0,000000000e+00    0,000000000e+00
     1458000000    1,835618019e-01   -1,848321706e-01    1,388213336e-01    1,316643693e-02    0,000000000e+00    0,000000000e+00    0,000000000e+00    0,000000000e+00
     1472000000    6,783000380e-02   -3,502741158e-01    2,010477930e-01    5,514359847e-02    0,000000000e+00    0,000000000e+00    0,000000000e+00    0,000000000e+00
     1486000000   -1,478356123e-01   -4,710741639e-01    2,835443020e-01    8,944301307e-02    0,000000000e+00    0,000000000e+00    0,000000000e+00    0,000000000e+00
     1500000000   -4,444980621e-01   -4,776140451e-01    3,972938061e-01    4,993484169e-02    0,000000000e+00    0,000000000e+00    0,000000000e+00    0,000000000e+00
