! NanoVNA-App
! Date: 2025-09-25 16:00:24
! Start: 100MHz Stop: 1,5GHz Points: 101
! S-Parameter data: F S11 S21 S12 S22
# Hz S RI R 50
!     Frequency           S11_Real           S11_Imag           S21_Real           S21_Imag           S12_Real           S12_Imag           S22_Real           S22_Imag
      100000000   -2,826705761e-02   -2,867988311e-03    3,723046184e-01   -7,223827243e-01    0,000000000e+00    0,000000000e+00    0,000000000e+00    0,000000000e+00
      114000000   -1,571355015e-02    1,287237089e-02   -9,118312597e-02   -8,046169877e-01    0,000000000e+00    0,000000000e+00    0,000000000e+00    0,000000000e+00
      128000000    4,326705821e-03    1,192974113e-02   -5,158578157e-01   -6,186956763e-01    0,000000000e+00    0,000000000e+00    0,000000000e+00    0,000000000e+00
      142000000    1,547942124e-02   -1,731195254e-03   -7,674826980e-01   -2,342267036e-01    0,000000000e+00    0,000000000e+00    0,000000000e+00    0,000000000e+00
      156000000    1,705701090e-02   -1,348858513e-02   -7,657448053e-01    2,262992263e-01    0,000000000e+00    0,000000000e+00    0,000000000e+00    0,000000000e+00
      170000000    1,768289320e-02   -2,094212361e-02   -5,154351592e-01    6,062125564e-01    0,000000000e+00    0,000000000e+00    0,000000000e+00    0,000000000e+00
      184000000    2,205782197e-02   -3,554166481e-02   -9,836579114e-02    7,861810327e-01    0,000000000e+00    0,000000000e+00    0,000000000e+00    0,000000000e+00
      198000000    1,406715065e-02   -6,063643098e-02    3,459224105e-01    7,108483911e-01    0,000000000e+00    0,000000000e+00    0,000000000e+00    0,000000000e+00
      212000000   -1,767504029e-02   -7,914319634e-02    6,806206107e-01    4,061253071e-01    0,000000000e+00    0,000000000e+00    0,000000000e+00    0,000000000e+00
      226000000   -6,035493687e-02   -6,665817648e-02    7,957696319e-01   -3,562618047e-02    0,000000000e+00    0,000000000e+00    0,000000000e+00    0,000000000e+00
      240000000   -8,042912930e-02   -2,267380059e-02    6,416572928e-01   -4,717628658e-01    0,000000000e+00    0,000000000e+00    0,000000000e+00    0,000000000e+00
      254000000   -6,083922088e-02    1,976358891e-02    2,709310353e-01   -7,420868278e-01    0,000000000e+00    0,000000000e+00    0,000000000e+00    0,000000000e+00
      268000000   -2,095917054e-02    3,092347272e-02   -1,810273379e-01   -7,608392239e-01    0,000000000e+00    0,000000000e+00    0,000000000e+00    0,000000000e+00
      282000000    6,930342410e-03    1,375354547e-02   -5,632261634e-01   -5,323687792e-01    0,000000000e+00    0,000000000e+00    0,000000000e+00    0,000000000e+00
      296000000    1,235873718e-02   -6,237556227e-03   -7,604530454e-01   -1,343875378e-01    0,000000000e+00    0,000000000e+00    0,000000000e+00    0,000000000e+00
      310000000    1,365088206e-02   -1,453054696e-02   -7,073296309e-01    3,040924668e-01    0,000000000e+00    0,000000000e+00    0,000000000e+00    0,000000000e+00
      324000000    2,250472084e-02   -2,474899217e-02   -4,220338762e-01    6,396353841e-01    0,000000000e+00    0,000000000e+00    0,000000000e+00    0,000000000e+00
      338000000    2,828290127e-02   -5,055617914e-02   -3,718884662e-03    7,583986521e-01    0,000000000e+00    0,000000000e+00    0,000000000e+00    0,000000000e+00
      352000000    1,029972360e-02   -8,292181790e-02    4,121937752e-01    6,354408860e-01    0,000000000e+00    0,000000000e+00    0,000000000e+00    0,000000000e+00
      366000000   -3,164589405e-02   -9,367662668e-02    6,933699846e-01    3,044857979e-01    0,000000000e+00    0,000000000e+00    0,000000000e+00    0,000000000e+00
      380000000   -6,769350171e-02   -6,878861785e-02    7,456663251e-01   -1,339166909e-01    0,000000000e+00    0,000000000e+00    0,000000000e+00    0,000000000e+00
      394000000   -6,857030094e-02   -3,059740923e-02    5,381849408e-01   -5,274103284e-01    0,000000000e+00    0,000000000e+00    0,000000000e+00    0,000000000e+00
      408000000   -4,280547053e-02   -1,557766926e-02    1,500415504e-01   -7,348678708e-01    0,000000000e+00    0,000000000e+00    0,000000000e+00    0,000000000e+00
      422000000   -2,610222623e-02   -3,146281838e-02   -2,789427638e-01   -6,892341375e-01    0,000000000e+00    0,000000000e+00    0,000000000e+00    0,000000000e+00
      436000000   -3,920112923e-02   -4,904285446e-02   -6,099956036e-01   -4,191941023e-01    0,000000000e+00    0,000000000e+00    0,000000000e+00    0,000000000e+00
      450000000   -6,479506940e-02   -3,913557157e-02   -7,372754812e-01   -7,681529969e-03    0,000000000e+00    0,000000000e+00    0,000000000e+00    0,000000000e+00
      464000000   -6,744276732e-02   -6,487993989e-03   -6,079614758e-01    4,068314433e-01    0,000000000e+00    0,000000000e+00    0,000000000e+00    0,000000000e+00
      478000000   -3,861644119e-02    1,564984955e-02   -2,671923935e-01    6,706680059e-01    0,000000000e+00    0,000000000e+00    0,000000000e+00    0,000000000e+00
      492000000   -4,934958648e-03    6,153660361e-03    1,518363506e-01    6,951882839e-01    0,000000000e+00    0,000000000e+00    0,000000000e+00    0,000000000e+00
      506000000    6,834277883e-03   -2,045327239e-02    5,073889494e-01    4,876683056e-01    0,000000000e+00    0,000000000e+00    0,000000000e+00    0,000000000e+00
      520000000    7,168532466e-04   -3,866851702e-02    6,887510419e-01    1,218644679e-01    0,000000000e+00    0,000000000e+00    0,000000000e+00    0,000000000e+00
      534000000   -3,088493831e-03   -4,514687508e-02    6,322053075e-01   -2,819450498e-01    0,000000000e+00    0,000000000e+00    0,000000000e+00    0,000000000e+00
      548000000    1,090102596e-03   -5,999380350e-02    3,606464863e-01   -5,795954466e-01    0,000000000e+00    0,000000000e+00    0,000000000e+00    0,000000000e+00
      562000000   -7,707592566e-03   -8,831557631e-02   -2,599385194e-02   -6,726669073e-01    0,000000000e+00    0,000000000e+00    0,000000000e+00    0,000000000e+00
      576000000   -4,562670738e-02   -1,098351404e-01   -4,014545679e-01   -5,386863947e-01    0,000000000e+00    0,000000000e+00    0,000000000e+00    0,000000000e+00
      590000000   -9,478799999e-02   -9,348945320e-02   -6,394673586e-01   -2,176119536e-01    0,000000000e+00    0,000000000e+00    0,000000000e+00    0,000000000e+00
      604000000   -1,115704030e-01   -4,094658047e-02   -6,472998261e-01    1,990017146e-01    0,000000000e+00    0,000000000e+00    0,000000000e+00    0,000000000e+00
      618000000   -7,572327554e-02   -2,688902430e-03   -4,020937383e-01    5,351467133e-01    0,000000000e+00    0,000000000e+00    0,000000000e+00    0,000000000e+00
      632000000   -3,021196276e-02   -2,067564987e-02   -1,277428214e-02    6,557724476e-01    0,000000000e+00    0,000000000e+00    0,000000000e+00    0,000000000e+00
      646000000   -3,684390336e-02   -7,657474279e-02    3,661741018e-01    5,272949934e-01    0,000000000e+00    0,000000000e+00    0,000000000e+00    0,000000000e+00
      660000000   -1,109940857e-01   -9,977785498e-02    6,013548970e-01    1,934715807e-01    0,000000000e+00    0,000000000e+00    0,000000000e+00    0,000000000e+00
      674000000   -1,990597993e-01   -2,343051694e-02    5,651925802e-01   -2,403111607e-01    0,000000000e+00    0,000000000e+00    0,000000000e+00    0,000000000e+00
      688000000   -1,782854050e-01    1,449820399e-01    2,093552500e-01   -5,220907927e-01    0,000000000e+00    0,000000000e+00    0,000000000e+00    0,000000000e+00
      702000000    2,559847571e-02    2,435298264e-01   -1,937958896e-01   -4,048350155e-01    0,000000000e+00    0,000000000e+00    0,000000000e+00    0,000000000e+00
      716000000    2,641496360e-01    1,103154942e-01   -2,730291784e-01   -8,328156173e-02    0,000000000e+00    0,000000000e+00    0,000000000e+00    0,000000000e+00
      730000000    3,031828701e-01   -1,864304245e-01   -1,067947447e-01    3,190805763e-02    0,000000000e+00    0,000000000e+00    0,000000000e+00    0,000000000e+00
      744000000    9,368788451e-02   -4,277816415e-01   -4,197713360e-02   -6,548446417e-02    0,000000000e+00    0,000000000e+00    0,000000000e+00    0,000000000e+00
      758000000   -2,609727085e-01   -4,297437370e-01   -1,757596284e-01   -1,254426390e-01    0,000000000e+00    0,000000000e+00    0,000000000e+00    0,000000000e+00
      772000000   -4,854912758e-01   -1,203981340e-01   -3,369681239e-01    3,853450343e-02    0,000000000e+00    0,000000000e+00    0,000000000e+00    0,000000000e+00
      786000000   -3,419471979e-01    2,224311084e-01   -2,630358636e-01    3,162776530e-01    0,000000000e+00    0,000000000e+00    0,000000000e+00    0,000000000e+00
      800000000   -4,054855555e-02    2,764430642e-01    3,935446497e-03    4,360733628e-01    0,000000000e+00    0,000000000e+00    0,000000000e+00    0,000000000e+00
      814000000    1,444076449e-01    1,250816733e-01    2,636737525e-01    3,591208756e-01    0,000000000e+00    0,000000000e+00    0,000000000e+00    0,000000000e+00
      828000000    1,677192748e-01   -7,069331408e-02    4,328772724e-01    1,566877216e-01    0,000000000e+00    0,000000000e+00    0,000000000e+00    0,000000000e+00
      842000000    6,722941250e-02   -2,182719409e-01    4,665958881e-01   -1,202922463e-01    0,000000000e+00    0,000000000e+00    0,000000000e+00    0,000000000e+00
      856000000   -1,067097187e-01   -2,634641826e-01    3,203477263e-01   -3,946569860e-01    0,000000000e+00    0,000000000e+00    0,000000000e+00    0,000000000e+00
      870000000   -2,755103409e-01   -1,678883135e-01   -2,680689096e-03   -5,262549520e-01    0,000000000e+00    0,000000000e+00    0,000000000e+00    0,000000000e+00
      884000000   -3,206484616e-01    3,530998901e-02   -3,475219607e-01   -3,925918937e-01    0,000000000e+00    0,000000000e+00    0,000000000e+00    0,000000000e+00
      898000000   -1,919218749e-01    2,064517140e-01   -4,885250628e-01   -6,333635747e-02    0,000000000e+00    0,000000000e+00    0,000000000e+00    0,000000000e+00
      912000000    7,521965541e-03    2,196084410e-01   -3,938228190e-01    2,712346315e-01    0,000000000e+00    0,000000000e+00    0,000000000e+00    0,000000000e+00
      926000000    1,483941972e-01    1,124796942e-01   -1,712448299e-01    4,148578048e-01    0,000000000e+00    0,000000000e+00    0,000000000e+00    0,000000000e+00
      940000000    1,968562007e-01   -4,631905630e-02    6,354649365e-02    4,249220490e-01    0,000000000e+00    0,000000000e+00    0,000000000e+00    0,000000000e+00
      954000000    1,511620134e-01   -2,033596486e-01    2,602424324e-01    3,421867788e-01    0,000000000e+00    0,000000000e+00    0,000000000e+00    0,000000000e+00
      968000000    2,671081014e-02   -3,114789724e-01    4,106277227e-01    1,802385598e-01    0,000000000e+00    0,000000000e+00    0,000000000e+00    0,000000000e+00
      982000000   -1,595660746e-01   -3,330856562e-01    4,764801860e-01   -6,626955420e-02    0,000000000e+00    0,000000000e+00    0,000000000e+00    0,000000000e+00
      996000000   -3,226673007e-01   -2,106619179e-01    3,681122065e-01   -3,558101952e-01    0,000000000e+00    0,000000000e+00    0,000000000e+00    0,000000000e+00
     1010000000   -3,371081948e-01   -6,954522338e-03    4,153476283e-02   -5,249240398e-01    0,000000000e+00    0,000000000e+00    0,000000000e+00    0,000000000e+00
     1024000000   -2,034359872e-01    9,447538108e-02   -3,476849198e-01   -3,817461729e-01    0,000000000e+00    0,000000000e+00    0,000000000e+00    0,000000000e+00
     1038000000   -1,334673464e-01    1,103652921e-02   -4,825950563e-01    6,291008741e-02    0,000000000e+00    0,000000000e+00    0,000000000e+00    0,000000000e+00
     1052000000   -2,884742320e-01    5,682126433e-02   -9,113318473e-02    3,711110950e-01    0,000000000e+00    0,000000000e+00    0,000000000e+00    0,000000000e+00
     1066000000   -1,447786987e-01    2,929242253e-01    1,449896544e-01    1,346281916e-01    0,000000000e+00    0,000000000e+00    0,000000000e+00    0,000000000e+00
     1080000000    9,652167559e-02    2,523473203e-01    9,019391239e-02    2,179219946e-02    0,000000000e+00    0,000000000e+00    0,000000000e+00    0,000000000e+00
     1094000000    2,186779380e-01    8,562789112e-02    6,878462434e-02    8,641879074e-03    0,000000000e+00    0,000000000e+00    0,000000000e+00    0,000000000e+00
     1108000000    2,418120354e-01   -9,091211110e-02    8,154406399e-02   -1,049860963e-03    0,000000000e+00    0,000000000e+00    0,000000000e+00    0,000000000e+00
     1122000000    1,831507087e-01   -2,506767511e-01    1,038314626e-01   -2,705000155e-02    0,000000000e+00    0,000000000e+00    0,000000000e+00    0,000000000e+00
     1136000000    5,279279128e-02   -3,789794445e-01    1,273281574e-01   -7,263759524e-02    0,000000000e+00    0,000000000e+00    0,000000000e+00    0,000000000e+00
     1150000000   -1,591209918e-01   -4,246144891e-01    1,382819116e-01   -1,477991641e-01    0,000000000e+00    0,000000000e+00    0,000000000e+00    0,000000000e+00
     1164000000   -3,752307594e-01   -3,210894465e-01    9,758504480e-02   -2,769309282e-01    0,000000000e+00    0,000000000e+00    0,000000000e+00    0,000000000e+00
     1178000000   -4,632428885e-01   -8,960569650e-02   -1,089171916e-01   -4,068974257e-01    0,000000000e+00    0,000000000e+00    0,000000000e+00    0,000000000e+00
     1192000000   -3,693433404e-01    3,443006426e-02   -4,582554102e-01   -1,960324943e-01    0,000000000e+00    0,000000000e+00    0,000000000e+00    0,000000000e+00
     1206000000   -4,174154997e-01    1,325991601e-01   -2,727915645e-01    2,365437448e-01    0,000000000e+00    0,000000000e+00    0,000000000e+00    0,000000000e+00
     1220000000   -2,722522616e-01    3,319967091e-01   -9,195463499e-04    1,623377353e-01    0,000000000e+00    0,000000000e+00    0,000000000e+00    0,000000000e+00
     1234000000   -4,678757116e-02    3,455049396e-01    2,375715598e-02    5,046301335e-02    0,000000000e+00    0,000000000e+00    0,000000000e+00    0,000000000e+00
     1248000000    1,218372956e-01    2,448995560e-01    3,371609142e-03    2,165503986e-02    0,000000000e+00    0,000000000e+00    0,000000000e+00    0,000000000e+00
     1262000000    2,061832398e-01    1,036459059e-01    1,399206347e-03    3,080712073e-02    0,000000000e+00    0,000000000e+00    0,000000000e+00    0,000000000e+00
     1276000000    2,372347116e-01   -5,746965110e-02    2,894238196e-02    3,738795966e-02    0,000000000e+00    0,000000000e+00    0,000000000e+00    0,000000000e+00
     1290000000    1,930490434e-01   -2,221086919e-01    5,766451731e-02    2,045942098e-02    0,000000000e+00    0,000000000e+00    0,000000000e+00    0,000000000e+00
     1304000000    8,153552562e-02   -3,544328511e-01    7,005257905e-02    1,118492335e-02    0,000000000e+00    0,000000000e+00    0,000000000e+00    0,000000000e+00
     1318000000   -1,036011428e-01   -4,464043379e-01    8,412757516e-02   -1,414396055e-02    0,000000000e+00    0,000000000e+00    0,000000000e+00    0,000000000e+00
     1332000000   -3,510042727e-01   -4,358437061e-01    8,572138101e-02   -1,124471985e-02    0,000000000e+00    0,000000000e+00    0,000000000e+00    0,000000000e+00
     1346000000   -5,918954015e-01   -2,435498685e-01    1,086160988e-01   -8,120158687e-03    0,000000000e+00    0,000000000e+00    0,000000000e+00    0,000000000e+00
     1360000000   -6,540986896e-01    6,819642335e-02    1,359043866e-01   -1,346818730e-02    0,000000000e+00    0,000000000e+00    0,000000000e+00    0,000000000e+00
     1374000000   -4,843983948e-01    3,318073452e-01    1,751070768e-01   -5,110986531e-02    0,000000000e+00    0,000000000e+00    0,000000000e+00    0,000000000e+00
     1388000000   -2,546452582e-01    4,258385301e-01    1,558808386e-01   -8,631061018e-02    0,000000000e+00    0,000000000e+00    0,000000000e+00    0,000000000e+00
     1402000000   -4,020080343e-02    3,917952776e-01    1,460614353e-01   -9,057204425e-02    0,000000000e+00    0,000000000e+00    0,000000000e+00    0,000000000e+00
     1416000000    9,994733334e-02    2,845064402e-01    1,198152155e-01   -9,134636819e-02    0,000000000e+00    0,000000000e+00    0,000000000e+00    0,000000000e+00
     1430000000    1,908621341e-01    1,507541537e-01    1,162931696e-01   -7,134470344e-02    0,000000000e+00    0,000000000e+00    0,000000000e+00    0,000000000e+00
     1444000000    2,162946314e-01   -8,664302528e-03    1,108847111e-01   -2,544273436e-02    0,000000000e+00    0,000000000e+00    0,000000000e+00    0,000000000e+00
     1458000000    1,824477166e-01   -1,827804297e-01    1,511225849e-01    2,894446813e-02    0,000000000e+00    0,000000000e+00    0,000000000e+00    0,000000000e+00
     1472000000    6,761489064e-02   -3,525726497e-01    1,985477954e-01    6,055002287e-02    0,000000000e+00    0,000000000e+00    0,000000000e+00    0,000000000e+00
     1486000000   -1,356644034e-01   -4,695276022e-01    2,991638184e-01    8,140466362e-02    0,000000000e+00    0,000000000e+00    0,000000000e+00    0,000000000e+00
     1500000000   -4,400229454e-01   -4,683382511e-01    3,920155466e-01    5,938029662e-02    0,000000000e+00    0,000000000e+00    0,000000000e+00    0,000000000e+00
