! NanoVNA-App
! Date: 2025-09-25 16:00:44
! Start: 100MHz Stop: 1,5GHz Points: 101
! S-Parameter data: F S11 S21 S12 S22
# Hz S RI R 50
!     Frequency           S11_Real           S11_Imag           S21_Real           S21_Imag           S12_Real           S12_Imag           S22_Real           S22_Imag
      100000000   -2,826668322e-02   -2,868701704e-03    3,722679615e-01   -7,223918438e-01    0,000000000e+00    0,000000000e+00    0,000000000e+00    0,000000000e+00
      114000000   -1,572913118e-02    1,291652583e-02   -9,133917093e-02   -8,047782183e-01    0,000000000e+00    0,000000000e+00    0,000000000e+00    0,000000000e+00
      128000000    4,383433145e-03    1,191933919e-02   -5,158401728e-01   -6,189802885e-01    0,000000000e+00    0,000000000e+00    0,000000000e+00    0,000000000e+00
      142000000    1,546932105e-02   -1,734793419e-03   -7,672014832e-01   -2,339970767e-01    0,000000000e+00    0,000000000e+00    0,000000000e+00    0,000000000e+00
      156000000    1,628462039e-02   -1,275256835e-02   -7,634987235e-01    2,234129012e-01    0,000000000e+00    0,000000000e+00    0,000000000e+00    0,000000000e+00
      170000000    1,769909076e-02   -2,093424089e-02   -5,153747797e-01    6,059653163e-01    0,000000000e+00    0,000000000e+00    0,000000000e+00    0,000000000e+00
      184000000    2,207001112e-02   -3,554197028e-02   -9,833769500e-02    7,862054110e-01    0,000000000e+00    0,000000000e+00    0,000000000e+00    0,000000000e+00
      198000000    1,401697006e-02   -6,065275148e-02    3,460647762e-01    7,109536529e-01    0,000000000e+00    0,000000000e+00    0,000000000e+00    0,000000000e+00
      212000000   -1,766400784e-02   -7,912945002e-02    6,806755662e-01    4,062971175e-01    0,000000000e+00    0,000000000e+00    0,000000000e+00    0,000000000e+00
      226000000   -6,033405289e-02   -6,658311933e-02    7,958683372e-01   -3,565700725e-02    0,000000000e+00    0,000000000e+00    0,000000000e+00    0,000000000e+00
      240000000   -8,056803793e-02   -2,273664251e-02    6,416054368e-01   -4,715147316e-01    0,000000000e+00    0,000000000e+00    0,000000000e+00    0,000000000e+00
      254000000   -6,078650430e-02    1,980566978e-02    2,709081769e-01   -7,420056462e-01    0,000000000e+00    0,000000000e+00    0,000000000e+00    0,000000000e+00
      268000000   -2,091339231e-02    3,083880246e-02   -1,810217649e-01   -7,609755397e-01    0,000000000e+00    0,000000000e+00    0,000000000e+00    0,000000000e+00
      282000000    6,909338757e-03    1,376709063e-02   -5,631081462e-01   -5,322675109e-01    0,000000000e+00    0,000000000e+00    0,000000000e+00    0,000000000e+00
      296000000    1,235131547e-02   -6,189399399e-03   -7,603834271e-01   -1,344362646e-01    0,000000000e+00    0,000000000e+00    0,000000000e+00    0,000000000e+00
      310000000    1,345736533e-02   -1,449255180e-02   -7,089177966e-01    3,056163490e-01    0,000000000e+00    0,000000000e+00    0,000000000e+00    0,000000000e+00
      324000000    2,249315195e-02   -2,461713925e-02   -4,219734967e-01    6,392624378e-01    0,000000000e+00    0,000000000e+00    0,000000000e+00    0,000000000e+00
      338000000    2,802291699e-02   -5,070944130e-02   -8,968733600e-04    7,601053715e-01    0,000000000e+00    0,000000000e+00    0,000000000e+00    0,000000000e+00
      352000000    1,028641220e-02   -8,285143971e-02    4,118270278e-01    6,352249980e-01    0,000000000e+00    0,000000000e+00    0,000000000e+00    0,000000000e+00
      366000000   -3,179137781e-02   -9,369897842e-02    6,929692030e-01    3,040525913e-01    0,000000000e+00    0,000000000e+00    0,000000000e+00    0,000000000e+00
      380000000   -6,753089279e-02   -6,875528395e-02    7,458006144e-01   -1,337743551e-01    0,000000000e+00    0,000000000e+00    0,000000000e+00    0,000000000e+00
      394000000   -6,858036667e-02   -3,058767319e-02    5,384184718e-01   -5,290685296e-01    0,000000000e+00    0,000000000e+00    0,000000000e+00    0,000000000e+00
      408000000   -4,281785339e-02   -1,563426666e-02    1,504441947e-01   -7,334301472e-01    0,000000000e+00    0,000000000e+00    0,000000000e+00    0,000000000e+00
      422000000   -2,611079440e-02   -3,108851612e-02   -2,795529664e-01   -6,895459294e-01    0,000000000e+00    0,000000000e+00    0,000000000e+00    0,000000000e+00
      436000000   -3,916907683e-02   -4,894874990e-02   -6,101328731e-01   -4,197006822e-01    0,000000000e+00    0,000000000e+00    0,000000000e+00    0,000000000e+00
      450000000   -6,463669240e-02   -3,921277821e-02   -7,373332977e-01   -7,493279874e-03    0,000000000e+00    0,000000000e+00    0,000000000e+00    0,000000000e+00
      464000000   -6,764072180e-02   -6,567106117e-03   -6,087546349e-01    4,059811532e-01    0,000000000e+00    0,000000000e+00    0,000000000e+00    0,000000000e+00
      478000000   -3,852973878e-02    1,618783176e-02   -2,679492831e-01    6,703993678e-01    0,000000000e+00    0,000000000e+00    0,000000000e+00    0,000000000e+00
      492000000   -5,280288868e-03    6,546279415e-03    1,528123319e-01    6,952542067e-01    0,000000000e+00    0,000000000e+00    0,000000000e+00    0,000000000e+00
      506000000    7,003745530e-03   -2,016031742e-02    5,081339478e-01    4,885162711e-01    0,000000000e+00    0,000000000e+00    0,000000000e+00    0,000000000e+00
      520000000    5,042080884e-04   -3,861168027e-02    6,886444688e-01    1,210964397e-01    0,000000000e+00    0,000000000e+00    0,000000000e+00    0,000000000e+00
      534000000   -2,931432799e-03   -4,544415325e-02    6,329438686e-01   -2,821352780e-01    0,000000000e+00    0,000000000e+00    0,000000000e+00    0,000000000e+00
      548000000    6,050933735e-04   -5,957984552e-02    3,590786755e-01   -5,796414614e-01    0,000000000e+00    0,000000000e+00    0,000000000e+00    0,000000000e+00
      562000000   -7,638279349e-03   -8,815456182e-02   -2,608529478e-02   -6,726147532e-01    0,000000000e+00    0,000000000e+00    0,000000000e+00    0,000000000e+00
      576000000   -4,552391171e-02   -1,094384193e-01   -4,015895128e-01   -5,382964611e-01    0,000000000e+00    0,000000000e+00    0,000000000e+00    0,000000000e+00
      590000000   -9,471805394e-02   -9,362009913e-02   -6,414568424e-01   -2,167606801e-01    0,000000000e+00    0,000000000e+00    0,000000000e+00    0,000000000e+00
      604000000   -1,115057915e-01   -4,143471643e-02   -6,470451355e-01    1,978458166e-01    0,000000000e+00    0,000000000e+00    0,000000000e+00    0,000000000e+00
      618000000   -7,516600937e-02   -2,260899870e-03   -4,023908675e-01    5,362453461e-01    0,000000000e+00    0,000000000e+00    0,000000000e+00    0,000000000e+00
      632000000   -3,028944694e-02   -2,134363726e-02   -1,167574525e-02    6,551048160e-01    0,000000000e+00    0,000000000e+00    0,000000000e+00    0,000000000e+00
      646000000   -3,618197143e-02   -7,627995312e-02    3,659512103e-01    5,285398960e-01    0,000000000e+00    0,000000000e+00    0,000000000e+00    0,000000000e+00
      660000000   -1,113281697e-01   -1,003234312e-01    6,006472111e-01    1,944669783e-01    0,000000000e+00    0,000000000e+00    0,000000000e+00    0,000000000e+00
      674000000   -1,989268064e-01   -2,354124747e-02    5,649482608e-01   -2,402790189e-01    0,000000000e+00    0,000000000e+00    0,000000000e+00    0,000000000e+00
      688000000   -1,792539358e-01    1,442868859e-01    2,091711164e-01   -5,222778320e-01    0,000000000e+00    0,000000000e+00    0,000000000e+00    0,000000000e+00
      702000000    2,696419694e-02    2,456665784e-01   -1,982748061e-01   -4,030399919e-01    0,000000000e+00    0,000000000e+00    0,000000000e+00    0,000000000e+00
      716000000    2,640720010e-01    1,105236411e-01   -2,729975581e-01   -8,332860470e-02    0,000000000e+00    0,000000000e+00    0,000000000e+00    0,000000000e+00
      730000000    3,029277921e-01   -1,859043539e-01   -1,071715355e-01    3,236773983e-02    0,000000000e+00    0,000000000e+00    0,000000000e+00    0,000000000e+00
      744000000    9,350275993e-02   -4,267899096e-01   -4,272101820e-02   -6,499601156e-02    0,000000000e+00    0,000000000e+00    0,000000000e+00    0,000000000e+00
      758000000   -2,586372197e-01   -4,302710891e-01   -1,756194681e-01   -1,254338473e-01    0,000000000e+00    0,000000000e+00    0,000000000e+00    0,000000000e+00
      772000000   -4,850861430e-01   -1,203895584e-01   -3,364215791e-01    3,852725774e-02    0,000000000e+00    0,000000000e+00    0,000000000e+00    0,000000000e+00
      786000000   -3,407183588e-01    2,216462493e-01   -2,633211613e-01    3,171434999e-01    0,000000000e+00    0,000000000e+00    0,000000000e+00    0,000000000e+00
      800000000   -4,083010554e-02    2,759771645e-01    2,369284863e-03    4,366692007e-01    0,000000000e+00    0,000000000e+00    0,000000000e+00    0,000000000e+00
      814000000    1,441533566e-01    1,257758290e-01    2,635920346e-01    3,594729006e-01    0,000000000e+00    0,000000000e+00    0,000000000e+00    0,000000000e+00
      828000000    1,677299589e-01   -7,040161639e-02    4,325480759e-01    1,564707458e-01    0,000000000e+00    0,000000000e+00    0,000000000e+00    0,000000000e+00
      842000000    6,729134172e-02   -2,183071971e-01    4,663267434e-01   -1,203540340e-01    0,000000000e+00    0,000000000e+00    0,000000000e+00    0,000000000e+00
      856000000   -1,065132171e-01   -2,632470429e-01    3,201474547e-01   -3,949140608e-01    0,000000000e+00    0,000000000e+00    0,000000000e+00    0,000000000e+00
      870000000   -2,746776342e-01   -1,689289212e-01   -2,781443764e-03   -5,277065039e-01    0,000000000e+00    0,000000000e+00    0,000000000e+00    0,000000000e+00
      884000000   -3,201437294e-01    3,570834175e-02   -3,472995162e-01   -3,923074603e-01    0,000000000e+00    0,000000000e+00    0,000000000e+00    0,000000000e+00
      898000000   -1,924125850e-01    2,062713057e-01   -4,896900356e-01   -6,276708096e-02    0,000000000e+00    0,000000000e+00    0,000000000e+00    0,000000000e+00
      912000000    6,921212655e-03    2,197844088e-01   -4,067392349e-01    2,665165365e-01    0,000000000e+00    0,000000000e+00    0,000000000e+00    0,000000000e+00
      926000000    1,494496018e-01    1,148851961e-01   -1,706599444e-01    4,165404141e-01    0,000000000e+00    0,000000000e+00    0,000000000e+00    0,000000000e+00
      940000000    1,979468465e-01   -4,496129975e-02    6,411045790e-02    4,252552092e-01    0,000000000e+00    0,000000000e+00    0,000000000e+00    0,000000000e+00
      954000000    1,563079804e-01   -2,013300061e-01    2,616310120e-01    3,398921192e-01    0,000000000e+00    0,000000000e+00    0,000000000e+00    0,000000000e+00
      968000000    2,387013286e-02   -3,162496686e-01    4,095813036e-01    1,791770011e-01    0,000000000e+00    0,000000000e+00    0,000000000e+00    0,000000000e+00
      982000000   -1,620864272e-01   -3,291109204e-01    4,742376208e-01   -6,647288054e-02    0,000000000e+00    0,000000000e+00    0,000000000e+00    0,000000000e+00
      996000000   -3,237864375e-01   -2,121369392e-01    3,699909747e-01   -3,555958867e-01    0,000000000e+00    0,000000000e+00    0,000000000e+00    0,000000000e+00
     1010000000   -3,435968459e-01   -7,226643153e-03    4,094754532e-02   -5,256106853e-01    0,000000000e+00    0,000000000e+00    0,000000000e+00    0,000000000e+00
     1024000000   -2,074862868e-01    9,031375498e-02   -3,453837633e-01   -3,783694804e-01    0,000000000e+00    0,000000000e+00    0,000000000e+00    0,000000000e+00
     1038000000   -1,364060640e-01    1,240132004e-02   -4,814791381e-01    6,412129849e-02    0,000000000e+00    0,000000000e+00    0,000000000e+00    0,000000000e+00
     1052000000   -2,864811718e-01    5,213307589e-02   -9,547626972e-02    3,717666864e-01    0,000000000e+00    0,000000000e+00    0,000000000e+00    0,000000000e+00
     1066000000   -1,505689919e-01    2,970614433e-01    1,432108879e-01    1,300888211e-01    0,000000000e+00    0,000000000e+00    0,000000000e+00    0,000000000e+00
     1080000000    9,679246694e-02    2,493574768e-01    9,215049446e-02    2,229287475e-02    0,000000000e+00    0,000000000e+00    0,000000000e+00    0,000000000e+00
     1094000000    2,231177241e-01    8,994276822e-02    6,974021345e-02    1,174118277e-02    0,000000000e+00    0,000000000e+00    0,000000000e+00    0,000000000e+00
     1108000000    2,461068332e-01   -9,018943459e-02    8,010213822e-02    8,589230129e-04    0,000000000e+00    0,000000000e+00    0,000000000e+00    0,000000000e+00
     1122000000    1,869115680e-01   -2,494861484e-01    1,016353518e-01   -2,667853609e-02    0,000000000e+00    0,000000000e+00    0,000000000e+00    0,000000000e+00
     1136000000    4,938410223e-02   -3,754997253e-01    1,252005696e-01   -7,660181075e-02    0,000000000e+00    0,000000000e+00    0,000000000e+00    0,000000000e+00
     1150000000   -1,591358483e-01   -4,216802418e-01    1,390545815e-01   -1,500966251e-01    0,000000000e+00    0,000000000e+00    0,000000000e+00    0,000000000e+00
     1164000000   -3,819572031e-01   -3,230436444e-01    9,601321071e-02   -2,781186104e-01    0,000000000e+00    0,000000000e+00    0,000000000e+00    0,000000000e+00
     1178000000   -4,606949687e-01   -8,411742747e-02   -1,059279591e-01   -4,038319588e-01    0,000000000e+00    0,000000000e+00    0,000000000e+00    0,000000000e+00
     1192000000   -3,710545301e-01    3,959255293e-02   -4,605956674e-01   -1,961149573e-01    0,000000000e+00    0,000000000e+00    0,000000000e+00    0,000000000e+00
     1206000000   -4,156974554e-01    1,371004432e-01   -2,745983303e-01    2,394689769e-01    0,000000000e+00    0,000000000e+00    0,000000000e+00    0,000000000e+00
     1220000000   -2,735770047e-01    3,256703317e-01   -2,174148569e-03    1,618144810e-01    0,000000000e+00    0,000000000e+00    0,000000000e+00    0,000000000e+00
     1234000000   -5,041437969e-02    3,498062789e-01    2,046946622e-02    5,583753437e-02    0,000000000e+00    0,000000000e+00    0,000000000e+00    0,000000000e+00
     1248000000    1,259398758e-01    2,499502897e-01    1,570806256e-03    2,832528017e-02    0,000000000e+00    0,000000000e+00    0,000000000e+00    0,000000000e+00
     1262000000    2,135813534e-01    1,054190844e-01    4,897607490e-03    3,264902905e-02    0,000000000e+00    0,000000000e+00    0,000000000e+00    0,000000000e+00
     1276000000    2,393055260e-01   -5,913231894e-02    3,068204783e-02    3,514641523e-02    0,000000000e+00    0,000000000e+00    0,000000000e+00    0,000000000e+00
     1290000000    1,914552152e-01   -2,174279988e-01    5,597120151e-02    2,204803005e-02    0,000000000e+00    0,000000000e+00    0,000000000e+00    0,000000000e+00
     1304000000    8,426748216e-02   -3,616042435e-01    7,890564948e-02    2,158163581e-03    0,000000000e+00    0,000000000e+00    0,000000000e+00    0,000000000e+00
     1318000000   -1,051376760e-01   -4,465410113e-01    7,505235076e-02   -1,069685817e-02    0,000000000e+00    0,000000000e+00    0,000000000e+00    0,000000000e+00
     1332000000   -3,585956693e-01   -4,382370114e-01    8,462709934e-02   -1,994993910e-02    0,000000000e+00    0,000000000e+00    0,000000000e+00    0,000000000e+00
     1346000000   -5,887135863e-01   -2,486634552e-01    1,164023057e-01   -1,090499479e-02    0,000000000e+00    0,000000000e+00    0,000000000e+00    0,000000000e+00
     1360000000   -6,475646496e-01    7,069498301e-02    1,434322894e-01   -2,108729072e-02    0,000000000e+00    0,000000000e+00    0,000000000e+00    0,000000000e+00
     1374000000   -4,851165414e-01    3,333840370e-01    1,676338911e-01   -4,756129161e-02    0,000000000e+00    0,000000000e+00    0,000000000e+00    0,000000000e+00
     1388000000   -2,513511181e-01    4,269227982e-01    1,651834100e-01   -8,380885422e-02    0,000000000e+00    0,000000000e+00    0,000000000e+00    0,000000000e+00
     1402000000   -4,291575775e-02    3,960075080e-01    1,423422694e-01   -8,462533355e-02    0,000000000e+00    0,000000000e+00    0,000000000e+00    0,000000000e+00
     1416000000    1,048054695e-01    2,900914848e-01    1,330453008e-01   -8,530425280e-02    0,000000000e+00    0,000000000e+00    0,000000000e+00    0,000000000e+00
     1430000000    1,985100359e-01    1,501234174e-01    1,414259225e-01   -6,453341246e-02    0,000000000e+00    0,000000000e+00    0,000000000e+00    0,000000000e+00
     1444000000    2,133473605e-01   -1,388634928e-02    1,210254282e-01   -3,004653193e-02    0,000000000e+00    0,000000000e+00    0,000000000e+00    0,000000000e+00
     1458000000    1,824740022e-01   -1,852477640e-01    1,494089812e-01    1,905682310e-02    0,000000000e+00    0,000000000e+00    0,000000000e+00    0,000000000e+00
     1472000000    6,901878119e-02   -3,447176218e-01    2,006652653e-01    6,651660055e-02    0,000000000e+00    0,000000000e+00    0,000000000e+00    0,000000000e+00
     1486000000   -1,393547952e-01   -4,694147706e-01    2,843182087e-01    9,679942578e-02    0,000000000e+00    0,000000000e+00    0,000000000e+00    0,000000000e+00
     1500000000   -4,354670644e-01   -4,806467891e-01    4,153841138e-01    4,952294379e-02    0,000000000e+00    0,000000000e+00    0,000000000e+00    0,000000000e+00
