! NanoVNA-App
! Date: 2025-09-25 16:01:34
! Start: 100MHz Stop: 1,5GHz Points: 101
! S-Parameter data: F S11 S21 S12 S22
# Hz S RI R 50
!     Frequency           S11_Real           S11_Imag           S21_Real           S21_Imag           S12_Real           S12_Imag           S22_Real           S22_Imag
      100000000   -2,828568779e-02   -2,863936359e-03    3,723050952e-01   -7,224277854e-01    0,000000000e+00    0,000000000e+00    0,000000000e+00    0,000000000e+00
      114000000   -1,572758891e-02    1,289090980e-02   -9,131030738e-02   -8,047322631e-01    0,000000000e+00    0,000000000e+00    0,000000000e+00    0,000000000e+00
      128000000    4,357473459e-03    1,193328574e-02   -5,159226656e-01   -6,189989448e-01    0,000000000e+00    0,000000000e+00    0,000000000e+00    0,000000000e+00
      142000000    1,547035016e-02   -1,742591034e-03   -7,674544454e-01   -2,342707217e-01    0,000000000e+00    0,000000000e+00    0,000000000e+00    0,000000000e+00
      156000000    1,587986387e-02   -1,278825663e-02   -7,634842396e-01    2,217240930e-01    0,000000000e+00    0,000000000e+00    0,000000000e+00    0,000000000e+00
      170000000    1,768672839e-02   -2,094993927e-02   -5,153810382e-01    6,062164307e-01    0,000000000e+00    0,000000000e+00    0,000000000e+00    0,000000000e+00
      184000000    2,198699489e-02   -3,557178378e-02   -9,827383608e-02    7,859520316e-01    0,000000000e+00    0,000000000e+00    0,000000000e+00    0,000000000e+00
      198000000    1,398435235e-02   -6,066133827e-02    3,460730314e-01    7,109905481e-01    0,000000000e+00    0,000000000e+00    0,000000000e+00    0,000000000e+00
      212000000   -1,764375530e-02   -7,911868393e-02    6,807869077e-01    4,064764678e-01    0,000000000e+00    0,000000000e+00    0,000000000e+00    0,000000000e+00
      226000000   -6,031353027e-02   -6,662179530e-02    7,958044410e-01   -3,548841551e-02    0,000000000e+00    0,000000000e+00    0,000000000e+00    0,000000000e+00
      240000000   -8,057219535e-02   -2,268714271e-02    6,418578029e-01   -4,719643891e-01    0,000000000e+00    0,000000000e+00    0,000000000e+00    0,000000000e+00
      254000000   -6,078857556e-02    1,981274597e-02    2,713136077e-01   -7,420459390e-01    0,000000000e+00    0,000000000e+00    0,000000000e+00    0,000000000e+00
      268000000   -2,092709951e-02    3,085039183e-02   -1,812984645e-01   -7,612698674e-01    0,000000000e+00    0,000000000e+00    0,000000000e+00    0,000000000e+00
      282000000    6,971846335e-03    1,376657002e-02   -5,632166266e-01   -5,327158570e-01    0,000000000e+00    0,000000000e+00    0,000000000e+00    0,000000000e+00
      296000000    1,244422887e-02   -6,140662823e-03   -7,605384588e-01   -1,343671530e-01    0,000000000e+00    0,000000000e+00    0,000000000e+00    0,000000000e+00
      310000000    1,366171706e-02   -1,466825139e-02   -7,088137269e-01    3,052589893e-01    0,000000000e+00    0,000000000e+00    0,000000000e+00    0,000000000e+00
      324000000    2,266073972e-02   -2,467793599e-02   -4,215801060e-01    6,401830912e-01    0,000000000e+00    0,000000000e+00    0,000000000e+00    0,000000000e+00
      338000000    2,846178226e-02   -5,092966929e-02   -4,015332088e-03    7,610845566e-01    0,000000000e+00    0,000000000e+00    0,000000000e+00    0,000000000e+00
      352000000    1,010966953e-02   -8,263890445e-02    4,115376472e-01    6,355312467e-01    0,000000000e+00    0,000000000e+00    0,000000000e+00    0,000000000e+00
      366000000   -3,187609091e-02   -9,371505678e-02    6,930658221e-01    3,040570319e-01    0,000000000e+00    0,000000000e+00    0,000000000e+00    0,000000000e+00
      380000000   -6,755588949e-02   -6,891412288e-02    7,460590005e-01   -1,344306469e-01    0,000000000e+00    0,000000000e+00    0,000000000e+00    0,000000000e+00
      394000000   -6,872629374e-02   -3,042080440e-02    5,388576388e-01   -5,297621489e-01    0,000000000e+00    0,000000000e+00    0,000000000e+00    0,000000000e+00
      408000000   -4,259321466e-02   -1,568272896e-02    1,500449330e-01   -7,344166040e-01    0,000000000e+00    0,000000000e+00    0,000000000e+00    0,000000000e+00
      422000000   -2,603471652e-02   -3,095351718e-02   -2,796621919e-01   -6,899462342e-01    0,000000000e+00    0,000000000e+00    0,000000000e+00    0,000000000e+00
      436000000   -3,930841014e-02   -4,897914454e-02   -6,102234721e-01   -4,192197323e-01    0,000000000e+00    0,000000000e+00    0,000000000e+00    0,000000000e+00
      450000000   -6,470399350e-02   -3,918019310e-02   -7,371136546e-01   -7,547006942e-03    0,000000000e+00    0,000000000e+00    0,000000000e+00    0,000000000e+00
      464000000   -6,738641858e-02   -6,406144239e-03   -6,081282496e-01    4,068364501e-01    0,000000000e+00    0,000000000e+00    0,000000000e+00    0,000000000e+00
      478000000   -3,847431019e-02    1,624462008e-02   -2,677490413e-01    6,702879667e-01    0,000000000e+00    0,000000000e+00    0,000000000e+00    0,000000000e+00
      492000000   -5,021206569e-03    6,522876211e-03    1,522186249e-01    6,953254938e-01    0,000000000e+00    0,000000000e+00    0,000000000e+00    0,000000000e+00
      506000000    6,783137098e-03   -2,053099871e-02    5,078030825e-01    4,884279668e-01    0,000000000e+00    0,000000000e+00    0,000000000e+00    0,000000000e+00
      520000000    8,491650806e-04   -3,879109025e-02    6,897600889e-01    1,208833978e-01    0,000000000e+00    0,000000000e+00    0,000000000e+00    0,000000000e+00
      534000000   -3,254014300e-03   -4,514060542e-02    6,328256130e-01   -2,818956375e-01    0,000000000e+00    0,000000000e+00    0,000000000e+00    0,000000000e+00
      548000000    1,090806094e-03   -5,937612802e-02    3,597872853e-01   -5,790420175e-01    0,000000000e+00    0,000000000e+00    0,000000000e+00    0,000000000e+00
      562000000   -7,634322625e-03   -8,837247640e-02   -2,659506351e-02   -6,725498438e-01    0,000000000e+00    0,000000000e+00    0,000000000e+00    0,000000000e+00
      576000000   -4,546007887e-02   -1,093646735e-01   -4,014765024e-01   -5,381180644e-01    0,000000000e+00    0,000000000e+00    0,000000000e+00    0,000000000e+00
      590000000   -9,493472427e-02   -9,339918196e-02   -6,401599050e-01   -2,201775610e-01    0,000000000e+00    0,000000000e+00    0,000000000e+00    0,000000000e+00
      604000000   -1,116165146e-01   -4,144873098e-02   -6,477622390e-01    1,984962225e-01    0,000000000e+00    0,000000000e+00    0,000000000e+00    0,000000000e+00
      618000000   -7,548294216e-02   -2,487093443e-03   -4,024882615e-01    5,364304185e-01    0,000000000e+00    0,000000000e+00    0,000000000e+00    0,000000000e+00
      632000000   -3,038017638e-02   -2,141882479e-02   -1,207423862e-02    6,556569338e-01    0,000000000e+00    0,000000000e+00    0,000000000e+00    0,000000000e+00
      646000000   -3,639757633e-02   -7,722532749e-02    3,666670024e-01    5,270122290e-01    0,000000000e+00    0,000000000e+00    0,000000000e+00    0,000000000e+00
      660000000   -1,119426265e-01   -9,918793291e-02    6,011718512e-01    1,936702728e-01    0,000000000e+00    0,000000000e+00    0,000000000e+00    0,000000000e+00
      674000000   -1,993941963e-01   -2,429418266e-02    5,657756329e-01   -2,401889116e-01    0,000000000e+00    0,000000000e+00    0,000000000e+00    0,000000000e+00
      688000000   -1,784969866e-01    1,443572044e-01    2,093693316e-01   -5,219054818e-01    0,000000000e+00    0,000000000e+00    0,000000000e+00    0,000000000e+00
      702000000    2,524423786e-02    2,474968582e-01   -2,034548819e-01   -4,028517008e-01    0,000000000e+00    0,000000000e+00    0,000000000e+00    0,000000000e+00
      716000000    2,633393705e-01    1,105423495e-01   -2,732347846e-01   -8,353222907e-02    0,000000000e+00    0,000000000e+00    0,000000000e+00    0,000000000e+00
      730000000    3,034441769e-01   -1,869128346e-01   -1,071465015e-01    3,192367777e-02    0,000000000e+00    0,000000000e+00    0,000000000e+00    0,000000000e+00
      744000000    9,357464314e-02   -4,273074865e-01   -4,204837978e-02   -6,523691863e-02    0,000000000e+00    0,000000000e+00    0,000000000e+00    0,000000000e+00
      758000000   -2,580838501e-01   -4,291679561e-01   -1,758203357e-01   -1,256820112e-01    0,000000000e+00    0,000000000e+00    0,000000000e+00    0,000000000e+00
      772000000   -4,848618209e-01   -1,188915148e-01   -3,366034329e-01    3,785493970e-02    0,000000000e+00    0,000000000e+00    0,000000000e+00    0,000000000e+00
      786000000   -3,422940969e-01    2,220583856e-01   -2,622843683e-01    3,167242110e-01    0,000000000e+00    0,000000000e+00    0,000000000e+00    0,000000000e+00
      800000000   -4,022444412e-02    2,766090631e-01    2,568477765e-03    4,365445077e-01    0,000000000e+00    0,000000000e+00    0,000000000e+00    0,000000000e+00
      814000000    1,448440850e-01    1,254966259e-01    2,635355592e-01    3,593533635e-01    0,000000000e+00    0,000000000e+00    0,000000000e+00    0,000000000e+00
      828000000    1,680254042e-01   -6,983109564e-02    4,327799380e-01    1,566877365e-01    0,000000000e+00    0,000000000e+00    0,000000000e+00    0,000000000e+00
      842000000    6,730554998e-02   -2,178117782e-01    4,664416909e-01   -1,203748509e-01    0,000000000e+00    0,000000000e+00    0,000000000e+00    0,000000000e+00
      856000000   -1,075692847e-01   -2,639345825e-01    3,192716837e-01   -3,939748704e-01    0,000000000e+00    0,000000000e+00    0,000000000e+00    0,000000000e+00
      870000000   -2,740970552e-01   -1,675827056e-01   -1,694850274e-03   -5,254358649e-01    0,000000000e+00    0,000000000e+00    0,000000000e+00    0,000000000e+00
      884000000   -3,207983971e-01    3,619153798e-02   -3,478553891e-01   -3,910423517e-01    0,000000000e+00    0,000000000e+00    0,000000000e+00    0,000000000e+00
      898000000   -1,921075284e-01    2,073981017e-01   -4,881185889e-01   -6,150753796e-02    0,000000000e+00    0,000000000e+00    0,000000000e+00    0,000000000e+00
      912000000    6,475536618e-03    2,201936394e-01   -4,046644866e-01    2,801406085e-01    0,000000000e+00    0,000000000e+00    0,000000000e+00    0,000000000e+00
      926000000    1,509649307e-01    1,123231351e-01   -1,674958169e-01    4,156788290e-01    0,000000000e+00    0,000000000e+00    0,000000000e+00    0,000000000e+00
      940000000    2,002013624e-01   -4,475567862e-02    6,359254569e-02    4,275249243e-01    0,000000000e+00    0,000000000e+00    0,000000000e+00    0,000000000e+00
      954000000    1,526431739e-01   -2,060416937e-01    2,621513903e-01    3,429726064e-01    0,000000000e+00    0,000000000e+00    0,000000000e+00    0,000000000e+00
      968000000    2,292017639e-02   -3,130434752e-01    4,117176533e-01    1,799278259e-01    0,000000000e+00    0,000000000e+00    0,000000000e+00    0,000000000e+00
      982000000   -1,636823118e-01   -3,328669667e-01    4,744278789e-01   -6,568538398e-02    0,000000000e+00    0,000000000e+00    0,000000000e+00    0,000000000e+00
      996000000   -3,237859607e-01   -2,113343328e-01    3,677881062e-01   -3,557032645e-01    0,000000000e+00    0,000000000e+00    0,000000000e+00    0,000000000e+00
     1010000000   -3,395573199e-01   -9,743672796e-03    4,140537977e-02   -5,252887607e-01    0,000000000e+00    0,000000000e+00    0,000000000e+00    0,000000000e+00
     1024000000   -2,023542374e-01    9,098803997e-02   -3,469525278e-01   -3,783059120e-01    0,000000000e+00    0,000000000e+00    0,000000000e+00    0,000000000e+00
     1038000000   -1,349477619e-01    1,259638928e-02   -4,830102324e-01    6,401610374e-02    0,000000000e+00    0,000000000e+00    0,000000000e+00    0,000000000e+00
     1052000000   -2,894510627e-01    5,546530709e-02   -9,670142084e-02    3,721634150e-01    0,000000000e+00    0,000000000e+00    0,000000000e+00    0,000000000e+00
     1066000000   -1,442629546e-01    2,958499491e-01    1,418029815e-01    1,299613863e-01    0,000000000e+00    0,000000000e+00    0,000000000e+00    0,000000000e+00
     1080000000    1,040945351e-01    2,520050406e-01    9,078574181e-02    2,113486640e-02    0,000000000e+00    0,000000000e+00    0,000000000e+00    0,000000000e+00
     1094000000    2,231101841e-01    9,145951271e-02    6,686364114e-02    8,965974674e-03    0,000000000e+00    0,000000000e+00    0,000000000e+00    0,000000000e+00
     1108000000    2,445698828e-01   -8,962453157e-02    8,166623116e-02   -5,795565085e-04    0,000000000e+00    0,000000000e+00    0,000000000e+00    0,000000000e+00
     1122000000    1,830631793e-01   -2,526330948e-01    1,024916470e-01   -2,529495023e-02    0,000000000e+00    0,000000000e+00    0,000000000e+00    0,000000000e+00
     1136000000    5,008272454e-02   -3,752205074e-01    1,269190609e-01   -7,463522255e-02    0,000000000e+00    0,000000000e+00    0,000000000e+00    0,000000000e+00
     1150000000   -1,566936821e-01   -4,216191173e-01    1,386500448e-01   -1,489534974e-01    0,000000000e+00    0,000000000e+00    0,000000000e+00    0,000000000e+00
     1164000000   -3,808717430e-01   -3,227851391e-01    9,817998111e-02   -2,770780623e-01    0,000000000e+00    0,000000000e+00    0,000000000e+00    0,000000000e+00
     1178000000   -4,676831365e-01   -8,758736402e-02   -1,041685790e-01   -4,031391442e-01    0,000000000e+00    0,000000000e+00    0,000000000e+00    0,000000000e+00
     1192000000   -3,690408170e-01    4,036463425e-02   -4,637461901e-01   -1,965989023e-01    0,000000000e+00    0,000000000e+00    0,000000000e+00    0,000000000e+00
     1206000000   -4,123183191e-01    1,356211156e-01   -2,751899958e-01    2,374091595e-01    0,000000000e+00    0,000000000e+00    0,000000000e+00    0,000000000e+00
     1220000000   -2,790097892e-01    3,324952722e-01   -2,546977019e-03    1,669490337e-01    0,000000000e+00    0,000000000e+00    0,000000000e+00    0,000000000e+00
     1234000000   -4,086433724e-02    3,478894234e-01    2,545023710e-02    5,293879658e-02    0,000000000e+00    0,000000000e+00    0,000000000e+00    0,000000000e+00
     1248000000    1,218896881e-01    2,454057485e-01   -5,281567574e-04    2,177769877e-02    0,000000000e+00    0,000000000e+00    0,000000000e+00    0,000000000e+00
     1262000000    2,140358388e-01    9,971988201e-02    6,971855648e-03    2,758109756e-02    0,000000000e+00    0,000000000e+00    0,000000000e+00    0,000000000e+00
     1276000000    2,338038087e-01   -5,434061214e-02    2,662121877e-02    3,569265828e-02    0,000000000e+00    0,000000000e+00    0,000000000e+00    0,000000000e+00
     1290000000    1,900896132e-01   -2,182221413e-01    5,002944171e-02    2,617610246e-02    0,000000000e+00    0,000000000e+00    0,000000000e+00    0,000000000e+00
     1304000000    8,327758312e-02   -3,512582183e-01    7,732977718e-02    6,908157375e-03    0,000000000e+00    0,000000000e+00    0,000000000e+00    0,000000000e+00
     1318000000   -9,894873202e-02   -4,510181844e-01    9,000527114e-02   -1,413198933e-02    0,000000000e+00    0,000000000e+00    0,000000000e+00    0,000000000e+00
     1332000000   -3,555019796e-01   -4,369251132e-01    8,526129276e-02   -2,050180547e-02    0,000000000e+00    0,000000000e+00    0,000000000e+00    0,000000000e+00
     1346000000   -5,933728218e-01   -2,506854534e-01    1,006512120e-01   -6,606921554e-03    0,000000000e+00    0,000000000e+00    0,000000000e+00    0,000000000e+00
     1360000000   -6,474301815e-01    7,101983577e-02    1,510605365e-01   -1,856481843e-02    0,000000000e+00    0,000000000e+00    0,000000000e+00    0,000000000e+00
     1374000000   -4,906352758e-01    3,315126300e-01    1,645789891e-01   -4,796323925e-02    0,000000000e+00    0,000000000e+00    0,000000000e+00    0,000000000e+00
     1388000000   -2,530876994e-01    4,286922216e-01    1,640814543e-01   -7,294654101e-02    0,000000000e+00    0,000000000e+00    0,000000000e+00    0,000000000e+00
     1402000000   -4,694277421e-02    3,868322372e-01    1,361608058e-01   -9,186687320e-02    0,000000000e+00    0,000000000e+00    0,000000000e+00    0,000000000e+00
     1416000000    1,079297364e-01    2,878589034e-01    1,294729710e-01   -8,203390986e-02    0,000000000e+00    0,000000000e+00    0,000000000e+00    0,000000000e+00
     1430000000    1,861075163e-01    1,480300575e-01    1,030841693e-01   -5,529560149e-02    0,000000000e+00    0,000000000e+00    0,000000000e+00    0,000000000e+00
     1444000000    2,152104676e-01   -9,530398995e-03    1,218017414e-01   -2,151245065e-02    0,000000000e+00    0,000000000e+00    0,000000000e+00    0,000000000e+00
     1458000000    1,837016493e-01   -1,814378649e-01    1,449832767e-01    1,026424393e-02    0,000000000e+00    0,000000000e+00    0,000000000e+00    0,000000000e+00
     1472000000    6,079773232e-02   -3,466868699e-01    1,760667562e-01    6,121222675e-02    0,000000000e+00    0,000000000e+00    0,000000000e+00    0,000000000e+00
     1486000000   -1,347357780e-01   -4,654386044e-01    2,974372506e-01    8,644980192e-02    0,000000000e+00    0,000000000e+00    0,000000000e+00    0,000000000e+00
     1500000000   -4,426650405e-01   -4,770362079e-01    4,085916281e-01    4,234303534e-02    0,000000000e+00    0,000000000e+00    0,000000000e+00    0,000000000e+00
