! NanoVNA-App
! Date: 2025-09-25 15:59:06
! Start: 100MHz Stop: 1,5GHz Points: 101
! S-Parameter data: F S11 S21 S12 S22
# Hz S RI R 50
!     Frequency           S11_Real           S11_Imag           S21_Real           S21_Imag           S12_Real           S12_Imag           S22_Real           S22_Imag
      100000000   -2,825470641e-02   -2,879099222e-03    3,722577989e-01   -7,223993540e-01    0,000000000e+00    0,000000000e+00    0,000000000e+00    0,000000000e+00
      114000000   -1,567721926e-02    1,288411487e-02   -9,124264121e-02   -8,049252033e-01    0,000000000e+00    0,000000000e+00    0,000000000e+00    0,000000000e+00
      128000000    4,371866118e-03    1,191760693e-02   -5,158184171e-01   -6,186548471e-01    0,000000000e+00    0,000000000e+00    0,000000000e+00    0,000000000e+00
      142000000    1,548047177e-02   -1,760638086e-03   -7,674419880e-01   -2,341105193e-01    0,000000000e+00    0,000000000e+00    0,000000000e+00    0,000000000e+00
      156000000    1,753072813e-02   -1,379955281e-02   -7,674795985e-01    2,272628993e-01    0,000000000e+00    0,000000000e+00    0,000000000e+00    0,000000000e+00
      170000000    1,770506240e-02   -2,096760087e-02   -5,152397156e-01    6,060228944e-01    0,000000000e+00    0,000000000e+00    0,000000000e+00    0,000000000e+00
      184000000    2,198408172e-02   -3,562708199e-02   -9,851882607e-02    7,861545086e-01    0,000000000e+00    0,000000000e+00    0,000000000e+00    0,000000000e+00
      198000000    1,399880275e-02   -6,069516391e-02    3,459729254e-01    7,108021379e-01    0,000000000e+00    0,000000000e+00    0,000000000e+00    0,000000000e+00
      212000000   -1,765306666e-02   -7,913765311e-02    6,808730364e-01    4,064134061e-01    0,000000000e+00    0,000000000e+00    0,000000000e+00    0,000000000e+00
      226000000   -6,031248719e-02   -6,665675342e-02    7,957518697e-01   -3,556879982e-02    0,000000000e+00    0,000000000e+00    0,000000000e+00    0,000000000e+00
      240000000   -8,055095375e-02   -2,268900163e-02    6,416798830e-01   -4,717618227e-01    0,000000000e+00    0,000000000e+00    0,000000000e+00    0,000000000e+00
      254000000   -6,078733876e-02    1,981079578e-02    2,708432972e-01   -7,416773438e-01    0,000000000e+00    0,000000000e+00    0,000000000e+00    0,000000000e+00
      268000000   -2,099302784e-02    3,085789829e-02   -1,812337935e-01   -7,608866096e-01    0,000000000e+00    0,000000000e+00    0,000000000e+00    0,000000000e+00
      282000000    6,932194345e-03    1,381077617e-02   -5,633673072e-01   -5,326749682e-01    0,000000000e+00    0,000000000e+00    0,000000000e+00    0,000000000e+00
      296000000    1,233067084e-02   -6,393543445e-03   -7,604664564e-01   -1,342620403e-01    0,000000000e+00    0,000000000e+00    0,000000000e+00    0,000000000e+00
      310000000    1,354396529e-02   -1,461870875e-02   -7,075598240e-01    3,041106761e-01    0,000000000e+00    0,000000000e+00    0,000000000e+00    0,000000000e+00
      324000000    2,247342654e-02   -2,454642206e-02   -4,224229455e-01    6,400216818e-01    0,000000000e+00    0,000000000e+00    0,000000000e+00    0,000000000e+00
      338000000    2,848308347e-02   -5,053718761e-02   -1,052314299e-03    7,590199709e-01    0,000000000e+00    0,000000000e+00    0,000000000e+00    0,000000000e+00
      352000000    1,002223883e-02   -8,291424811e-02    4,113382101e-01    6,350505948e-01    0,000000000e+00    0,000000000e+00    0,000000000e+00    0,000000000e+00
      366000000   -3,186400607e-02   -9,339260310e-02    6,926305890e-01    3,041552305e-01    0,000000000e+00    0,000000000e+00    0,000000000e+00    0,000000000e+00
      380000000   -6,771194935e-02   -6,878766418e-02    7,456209660e-01   -1,342174858e-01    0,000000000e+00    0,000000000e+00    0,000000000e+00    0,000000000e+00
      394000000   -6,840617210e-02   -3,043824434e-02    5,390596986e-01   -5,274226665e-01    0,000000000e+00    0,000000000e+00    0,000000000e+00    0,000000000e+00
      408000000   -4,294981807e-02   -1,544990297e-02    1,494624615e-01   -7,333875895e-01    0,000000000e+00    0,000000000e+00    0,000000000e+00    0,000000000e+00
      422000000   -2,632934414e-02   -3,104117326e-02   -2,799206972e-01   -6,896266937e-01    0,000000000e+00    0,000000000e+00    0,000000000e+00    0,000000000e+00
      436000000   -3,930986673e-02   -4,904233664e-02   -6,105588675e-01   -4,200116992e-01    0,000000000e+00    0,000000000e+00    0,000000000e+00    0,000000000e+00
      450000000   -6,476353854e-02   -3,932797536e-02   -7,371885777e-01   -7,880466059e-03    0,000000000e+00    0,000000000e+00    0,000000000e+00    0,000000000e+00
      464000000   -6,773819774e-02   -6,087981630e-03   -6,074650288e-01    4,067629278e-01    0,000000000e+00    0,000000000e+00    0,000000000e+00    0,000000000e+00
      478000000   -3,846989200e-02    1,580006815e-02   -2,675964534e-01    6,698760390e-01    0,000000000e+00    0,000000000e+00    0,000000000e+00    0,000000000e+00
      492000000   -4,822240211e-03    6,538459565e-03    1,515537202e-01    6,946250796e-01    0,000000000e+00    0,000000000e+00    0,000000000e+00    0,000000000e+00
      506000000    6,919989362e-03   -2,021657489e-02    5,084156394e-01    4,884908199e-01    0,000000000e+00    0,000000000e+00    0,000000000e+00    0,000000000e+00
      520000000    4,556638596e-04   -3,875320777e-02    6,887390614e-01    1,216574013e-01    0,000000000e+00    0,000000000e+00    0,000000000e+00    0,000000000e+00
      534000000   -3,253907431e-03   -4,573957995e-02    6,323695779e-01   -2,815455794e-01    0,000000000e+00    0,000000000e+00    0,000000000e+00    0,000000000e+00
      548000000    1,049119513e-03   -6,007144600e-02    3,599784970e-01   -5,795429349e-01    0,000000000e+00    0,000000000e+00    0,000000000e+00    0,000000000e+00
      562000000   -7,849007845e-03   -8,877651393e-02   -2,707195468e-02   -6,729788780e-01    0,000000000e+00    0,000000000e+00    0,000000000e+00    0,000000000e+00
      576000000   -4,514843598e-02   -1,095805168e-01   -4,006087184e-01   -5,382449031e-01    0,000000000e+00    0,000000000e+00    0,000000000e+00    0,000000000e+00
      590000000   -9,482188523e-02   -9,345185757e-02   -6,392500997e-01   -2,183105648e-01    0,000000000e+00    0,000000000e+00    0,000000000e+00    0,000000000e+00
      604000000   -1,118320748e-01   -4,114151001e-02   -6,479017735e-01    1,983601898e-01    0,000000000e+00    0,000000000e+00    0,000000000e+00    0,000000000e+00
      618000000   -7,619882375e-02   -2,716564108e-03   -4,014120996e-01    5,363957286e-01    0,000000000e+00    0,000000000e+00    0,000000000e+00    0,000000000e+00
      632000000   -2,979053743e-02   -2,152404189e-02   -1,222224906e-02    6,549597383e-01    0,000000000e+00    0,000000000e+00    0,000000000e+00    0,000000000e+00
      646000000   -3,603029624e-02   -7,747622579e-02    3,663400710e-01    5,266460776e-01    0,000000000e+00    0,000000000e+00    0,000000000e+00    0,000000000e+00
      660000000   -1,111160219e-01   -1,003485322e-01    6,010965109e-01    1,927338094e-01    0,000000000e+00    0,000000000e+00    0,000000000e+00    0,000000000e+00
      674000000   -1,991925985e-01   -2,359803766e-02    5,650581121e-01   -2,400082201e-01    0,000000000e+00    0,000000000e+00    0,000000000e+00    0,000000000e+00
      688000000   -1,783248931e-01    1,451454163e-01    2,086158246e-01   -5,222751498e-01    0,000000000e+00    0,000000000e+00    0,000000000e+00    0,000000000e+00
      702000000    2,660712413e-02    2,469434440e-01   -2,042351365e-01   -4,053774476e-01    0,000000000e+00    0,000000000e+00    0,000000000e+00    0,000000000e+00
      716000000    2,641237676e-01    1,103198826e-01   -2,723439038e-01   -8,311025798e-02    0,000000000e+00    0,000000000e+00    0,000000000e+00    0,000000000e+00
      730000000    3,030924499e-01   -1,866161823e-01   -1,065927967e-01    3,209932521e-02    0,000000000e+00    0,000000000e+00    0,000000000e+00    0,000000000e+00
      744000000    9,309542179e-02   -4,282141030e-01   -4,257400334e-02   -6,571597606e-02    0,000000000e+00    0,000000000e+00    0,000000000e+00    0,000000000e+00
      758000000   -2,586227059e-01   -4,299392104e-01   -1,762684882e-01   -1,256838143e-01    0,000000000e+00    0,000000000e+00    0,000000000e+00    0,000000000e+00
      772000000   -4,842004180e-01   -1,201559827e-01   -3,369109333e-01    3,879573196e-02    0,000000000e+00    0,000000000e+00    0,000000000e+00    0,000000000e+00
      786000000   -3,418444395e-01    2,223635167e-01   -2,629136741e-01    3,166665733e-01    0,000000000e+00    0,000000000e+00    0,000000000e+00    0,000000000e+00
      800000000   -3,987460956e-02    2,763754129e-01    2,783294767e-03    4,361926615e-01    0,000000000e+00    0,000000000e+00    0,000000000e+00    0,000000000e+00
      814000000    1,444097757e-01    1,251105517e-01    2,644055784e-01    3,599981070e-01    0,000000000e+00    0,000000000e+00    0,000000000e+00    0,000000000e+00
      828000000    1,674773395e-01   -7,023200393e-02    4,332664609e-01    1,564058810e-01    0,000000000e+00    0,000000000e+00    0,000000000e+00    0,000000000e+00
      842000000    6,790300459e-02   -2,178824842e-01    4,665796459e-01   -1,202104390e-01    0,000000000e+00    0,000000000e+00    0,000000000e+00    0,000000000e+00
      856000000   -1,065941006e-01   -2,634944320e-01    3,198830187e-01   -3,946844041e-01    0,000000000e+00    0,000000000e+00    0,000000000e+00    0,000000000e+00
      870000000   -2,751412392e-01   -1,678527892e-01   -1,517676981e-03   -5,268567801e-01    0,000000000e+00    0,000000000e+00    0,000000000e+00    0,000000000e+00
      884000000   -3,194794059e-01    3,552635759e-02   -3,471900523e-01   -3,921935260e-01    0,000000000e+00    0,000000000e+00    0,000000000e+00    0,000000000e+00
      898000000   -1,924576014e-01    2,062262744e-01   -4,898634255e-01   -6,269001961e-02    0,000000000e+00    0,000000000e+00    0,000000000e+00    0,000000000e+00
      912000000    6,606234703e-03    2,188683301e-01   -4,018632472e-01    2,629624307e-01    0,000000000e+00    0,000000000e+00    0,000000000e+00    0,000000000e+00
      926000000    1,484790742e-01    1,125778183e-01   -1,709584147e-01    4,167295694e-01    0,000000000e+00    0,000000000e+00    0,000000000e+00    0,000000000e+00
      940000000    1,990218759e-01   -4,694380984e-02    6,279617548e-02    4,259654582e-01    0,000000000e+00    0,000000000e+00    0,000000000e+00    0,000000000e+00
      954000000    1,547576636e-01   -2,030917406e-01    2,609519362e-01    3,419148028e-01    0,000000000e+00    0,000000000e+00    0,000000000e+00    0,000000000e+00
      968000000    2,318318561e-02   -3,156207502e-01    4,099572897e-01    1,775779128e-01    0,000000000e+00    0,000000000e+00    0,000000000e+00    0,000000000e+00
      982000000   -1,620630622e-01   -3,339495063e-01    4,732407033e-01   -6,575559080e-02    0,000000000e+00    0,000000000e+00    0,000000000e+00    0,000000000e+00
      996000000   -3,227050602e-01   -2,110256106e-01    3,673256338e-01   -3,570396006e-01    0,000000000e+00    0,000000000e+00    0,000000000e+00    0,000000000e+00
     1010000000   -3,384298980e-01   -6,085907575e-03    3,929607570e-02   -5,245155096e-01    0,000000000e+00    0,000000000e+00    0,000000000e+00    0,000000000e+00
     1024000000   -2,028308064e-01    9,482378513e-02   -3,469322026e-01   -3,810429573e-01    0,000000000e+00    0,000000000e+00    0,000000000e+00    0,000000000e+00
     1038000000   -1,355102658e-01    7,280940656e-03   -4,817860723e-01    6,510243565e-02    0,000000000e+00    0,000000000e+00    0,000000000e+00    0,000000000e+00
     1052000000   -2,884361148e-01    5,282688141e-02   -9,482323378e-02    3,718340099e-01    0,000000000e+00    0,000000000e+00    0,000000000e+00    0,000000000e+00
     1066000000   -1,499656141e-01    2,950827479e-01    1,445129961e-01    1,333932579e-01    0,000000000e+00    0,000000000e+00    0,000000000e+00    0,000000000e+00
     1080000000    9,820166975e-02    2,473299503e-01    9,205776453e-02    2,187384851e-02    0,000000000e+00    0,000000000e+00    0,000000000e+00    0,000000000e+00
     1094000000    2,221940756e-01    9,088385850e-02    6,878063828e-02    1,015228033e-02    0,000000000e+00    0,000000000e+00    0,000000000e+00    0,000000000e+00
     1108000000    2,393994629e-01   -8,544411510e-02    8,029037714e-02    2,723265206e-03    0,000000000e+00    0,000000000e+00    0,000000000e+00    0,000000000e+00
     1122000000    1,833809614e-01   -2,532704771e-01    1,038565934e-01   -2,594433166e-02    0,000000000e+00    0,000000000e+00    0,000000000e+00    0,000000000e+00
     1136000000    5,065161362e-02   -3,808619082e-01    1,241722032e-01   -7,383196056e-02    0,000000000e+00    0,000000000e+00    0,000000000e+00    0,000000000e+00
     1150000000   -1,587945074e-01   -4,233963490e-01    1,373061836e-01   -1,482799500e-01    0,000000000e+00    0,000000000e+00    0,000000000e+00    0,000000000e+00
     1164000000   -3,756406009e-01   -3,206874430e-01    9,987939149e-02   -2,756746411e-01    0,000000000e+00    0,000000000e+00    0,000000000e+00    0,000000000e+00
     1178000000   -4,645665586e-01   -8,913423121e-02   -1,038311124e-01   -4,059700370e-01    0,000000000e+00    0,000000000e+00    0,000000000e+00    0,000000000e+00
     1192000000   -3,704395294e-01    3,955915943e-02   -4,620349407e-01   -1,936309636e-01    0,000000000e+00    0,000000000e+00    0,000000000e+00    0,000000000e+00
     1206000000   -4,141453505e-01    1,289457083e-01   -2,739732862e-01    2,363842577e-01    0,000000000e+00    0,000000000e+00    0,000000000e+00    0,000000000e+00
     1220000000   -2,703232467e-01    3,290453553e-01   -3,514337819e-03    1,646694839e-01    0,000000000e+00    0,000000000e+00    0,000000000e+00    0,000000000e+00
     1234000000   -4,984084517e-02    3,456582725e-01    1,956507750e-02    5,007176846e-02    0,000000000e+00    0,000000000e+00    0,000000000e+00    0,000000000e+00
     1248000000    1,203085408e-01    2,529341877e-01    3,464273643e-03    2,773166820e-02    0,000000000e+00    0,000000000e+00    0,000000000e+00    0,000000000e+00
     1262000000    2,091713846e-01    1,044407934e-01    1,973228296e-03    3,197962418e-02    0,000000000e+00    0,000000000e+00    0,000000000e+00    0,000000000e+00
     1276000000    2,311894894e-01   -5,908979848e-02    2,614504285e-02    3,112886287e-02    0,000000000e+00    0,000000000e+00    0,000000000e+00    0,000000000e+00
     1290000000    1,945011318e-01   -2,185640037e-01    5,305446684e-02    2,226502821e-02    0,000000000e+00    0,000000000e+00    0,000000000e+00    0,000000000e+00
     1304000000    8,842778951e-02   -3,578001857e-01    7,728880644e-02    6,085826550e-03    0,000000000e+00    0,000000000e+00    0,000000000e+00    0,000000000e+00
     1318000000   -1,031779647e-01   -4,475354850e-01    8,311183751e-02   -1,669781469e-02    0,000000000e+00    0,000000000e+00    0,000000000e+00    0,000000000e+00
     1332000000   -3,558297455e-01   -4,349217415e-01    8,316531032e-02   -9,049606510e-03    0,000000000e+00    0,000000000e+00    0,000000000e+00    0,000000000e+00
     1346000000   -5,882706642e-01   -2,491822988e-01    1,083102226e-01   -1,505873352e-02    0,000000000e+00    0,000000000e+00    0,000000000e+00    0,000000000e+00
     1360000000   -6,465687156e-01    6,588770449e-02    1,370919794e-01   -1,455492061e-02    0,000000000e+00    0,000000000e+00    0,000000000e+00    0,000000000e+00
     1374000000   -4,901556969e-01    3,379766345e-01    1,677177697e-01   -4,111181572e-02    0,000000000e+00    0,000000000e+00    0,000000000e+00    0,000000000e+00
     1388000000   -2,504475117e-01    4,234746695e-01    1,686157435e-01   -8,396611363e-02    0,000000000e+00    0,000000000e+00    0,000000000e+00    0,000000000e+00
     1402000000   -4,088156670e-02    3,908630610e-01    1,494281739e-01   -9,405686706e-02    0,000000000e+00    0,000000000e+00    0,000000000e+00    0,000000000e+00
     1416000000    1,001248956e-01    2,842781246e-01    1,204697788e-01   -9,359645098e-02    0,000000000e+00    0,000000000e+00    0,000000000e+00    0,000000000e+00
     1430000000    1,821187884e-01    1,518636793e-01    1,075977311e-01   -5,377758667e-02    0,000000000e+00    0,000000000e+00    0,000000000e+00    0,000000000e+00
     1444000000    2,188778967e-01   -1,242863107e-02    1,294369549e-01   -3,062306531e-02    0,000000000e+00    0,000000000e+00    0,000000000e+00    0,000000000e+00
     1458000000    1,849472970e-01   -1,838652045e-01    1,602177024e-01    1,430114079e-02    0,000000000e+00    0,000000000e+00    0,000000000e+00    0,000000000e+00
     1472000000    6,744216383e-02   -3,499682248e-01    1,965702474e-01    5,556075647e-02    0,000000000e+00    0,000000000e+00    0,000000000e+00    0,000000000e+00
     1486000000   -1,365387887e-01   -4,737873971e-01    3,017663062e-01    8,798500896e-02    0,000000000e+00    0,000000000e+00    0,000000000e+00    0,000000000e+00
     1500000000   -4,428942502e-01   -4,826137125e-01    4,117546380e-01    4,436363652e-02    0,000000000e+00    0,000000000e+00    0,000000000e+00    0,000000000e+00
