! NanoVNA-App
! Date: 2025-09-25 15:56:52
! Start: 100MHz Stop: 1,5GHz Points: 101
! S-Parameter data: F S11 S21 S12 S22
# Hz S RI R 50
!     Frequency           S11_Real           S11_Imag           S21_Real           S21_Imag           S12_Real           S12_Imag           S22_Real           S22_Imag
      100000000   -2,820984088e-02   -2,843573457e-03    3,722328842e-01   -7,225245237e-01    0,000000000e+00    0,000000000e+00    0,000000000e+00    0,000000000e+00
      114000000   -1,559023932e-02    1,287013851e-02   -9,125483781e-02   -8,048295975e-01    0,000000000e+00    0,000000000e+00    0,000000000e+00    0,000000000e+00
      128000000    4,417833872e-03    1,185121667e-02   -5,159551501e-01   -6,186489463e-01    0,000000000e+00    0,000000000e+00    0,000000000e+00    0,000000000e+00
      142000000    1,549305860e-02   -1,839900389e-03   -7,673818469e-01   -2,341535091e-01    0,000000000e+00    0,000000000e+00    0,000000000e+00    0,000000000e+00
      156000000    1,683680341e-02   -1,400384959e-02   -7,702955604e-01    2,264873385e-01    0,000000000e+00    0,000000000e+00    0,000000000e+00    0,000000000e+00
      170000000    1,763521880e-02   -2,100450359e-02   -5,152541399e-01    6,060935259e-01    0,000000000e+00    0,000000000e+00    0,000000000e+00    0,000000000e+00
      184000000    2,203478478e-02   -3,555423394e-02   -9,835007042e-02    7,863687277e-01    0,000000000e+00    0,000000000e+00    0,000000000e+00    0,000000000e+00
      198000000    1,399810892e-02   -6,068751961e-02    3,459444046e-01    7,107988596e-01    0,000000000e+00    0,000000000e+00    0,000000000e+00    0,000000000e+00
      212000000   -1,770450547e-02   -7,912395895e-02    6,805723906e-01    4,062842131e-01    0,000000000e+00    0,000000000e+00    0,000000000e+00    0,000000000e+00
      226000000   -6,035414338e-02   -6,664574891e-02    7,958249450e-01   -3,550567850e-02    0,000000000e+00    0,000000000e+00    0,000000000e+00    0,000000000e+00
      240000000   -8,044525236e-02   -2,274505049e-02    6,415226460e-01   -4,716677666e-01    0,000000000e+00    0,000000000e+00    0,000000000e+00    0,000000000e+00
      254000000   -6,080287695e-02    1,978720538e-02    2,709988952e-01   -7,418119311e-01    0,000000000e+00    0,000000000e+00    0,000000000e+00    0,000000000e+00
      268000000   -2,090723626e-02    3,080713190e-02   -1,810531020e-01   -7,605524063e-01    0,000000000e+00    0,000000000e+00    0,000000000e+00    0,000000000e+00
      282000000    6,878079381e-03    1,374741644e-02   -5,632389784e-01   -5,324906707e-01    0,000000000e+00    0,000000000e+00    0,000000000e+00    0,000000000e+00
      296000000    1,235241257e-02   -6,324796937e-03   -7,603247166e-01   -1,342400461e-01    0,000000000e+00    0,000000000e+00    0,000000000e+00    0,000000000e+00
      310000000    1,355861500e-02   -1,453854330e-02   -7,087815404e-01    3,036758304e-01    0,000000000e+00    0,000000000e+00    0,000000000e+00    0,000000000e+00
      324000000    2,231760882e-02   -2,468546852e-02   -4,219143689e-01    6,401562095e-01    0,000000000e+00    0,000000000e+00    0,000000000e+00    0,000000000e+00
      338000000    2,840963192e-02   -5,057714507e-02   -3,015823197e-03    7,576977015e-01    0,000000000e+00    0,000000000e+00    0,000000000e+00    0,000000000e+00
      352000000    1,009038463e-02   -8,313092589e-02    4,111214578e-01    6,344355941e-01    0,000000000e+00    0,000000000e+00    0,000000000e+00    0,000000000e+00
      366000000   -3,188053891e-02   -9,418198466e-02    6,933190227e-01    3,038098216e-01    0,000000000e+00    0,000000000e+00    0,000000000e+00    0,000000000e+00
      380000000   -6,769939512e-02   -6,884502620e-02    7,457963228e-01   -1,344378144e-01    0,000000000e+00    0,000000000e+00    0,000000000e+00    0,000000000e+00
      394000000   -6,833554059e-02   -3,075154498e-02    5,403518677e-01   -5,297436118e-01    0,000000000e+00    0,000000000e+00    0,000000000e+00    0,000000000e+00
      408000000   -4,268544167e-02   -1,559187751e-02    1,493035108e-01   -7,340095639e-01    0,000000000e+00    0,000000000e+00    0,000000000e+00    0,000000000e+00
      422000000   -2,605931088e-02   -3,151998669e-02   -2,792481482e-01   -6,900371313e-01    0,000000000e+00    0,000000000e+00    0,000000000e+00    0,000000000e+00
      436000000   -3,922320530e-02   -4,880982265e-02   -6,100767255e-01   -4,193184376e-01    0,000000000e+00    0,000000000e+00    0,000000000e+00    0,000000000e+00
      450000000   -6,445692480e-02   -3,936279565e-02   -7,370452881e-01   -7,803171407e-03    0,000000000e+00    0,000000000e+00    0,000000000e+00    0,000000000e+00
      464000000   -6,735458225e-02   -6,220404059e-03   -6,071505547e-01    4,069365561e-01    0,000000000e+00    0,000000000e+00    0,000000000e+00    0,000000000e+00
      478000000   -3,859019279e-02    1,631243713e-02   -2,671817839e-01    6,701964736e-01    0,000000000e+00    0,000000000e+00    0,000000000e+00    0,000000000e+00
      492000000   -5,116980989e-03    6,729431916e-03    1,514314264e-01    6,942558289e-01    0,000000000e+00    0,000000000e+00    0,000000000e+00    0,000000000e+00
      506000000    6,922151893e-03   -1,996980980e-02    5,071783066e-01    4,884079695e-01    0,000000000e+00    0,000000000e+00    0,000000000e+00    0,000000000e+00
      520000000    9,583240026e-04   -3,834191710e-02    6,896073818e-01    1,207793429e-01    0,000000000e+00    0,000000000e+00    0,000000000e+00    0,000000000e+00
      534000000   -2,986557083e-03   -4,531995207e-02    6,325849891e-01   -2,816097140e-01    0,000000000e+00    0,000000000e+00    0,000000000e+00    0,000000000e+00
      548000000    8,088115719e-04   -5,974765122e-02    3,598597050e-01   -5,790774822e-01    0,000000000e+00    0,000000000e+00    0,000000000e+00    0,000000000e+00
      562000000   -7,835807279e-03   -8,854908496e-02   -2,563616075e-02   -6,716812253e-01    0,000000000e+00    0,000000000e+00    0,000000000e+00    0,000000000e+00
      576000000   -4,583533108e-02   -1,097571626e-01   -4,003863931e-01   -5,377080441e-01    0,000000000e+00    0,000000000e+00    0,000000000e+00    0,000000000e+00
      590000000   -9,481008351e-02   -9,335024655e-02   -6,395843625e-01   -2,167422473e-01    0,000000000e+00    0,000000000e+00    0,000000000e+00    0,000000000e+00
      604000000   -1,115719154e-01   -4,158638790e-02   -6,474006176e-01    1,979466528e-01    0,000000000e+00    0,000000000e+00    0,000000000e+00    0,000000000e+00
      618000000   -7,534502447e-02   -2,752118977e-03   -4,013668597e-01    5,364664197e-01    0,000000000e+00    0,000000000e+00    0,000000000e+00    0,000000000e+00
      632000000   -3,038153797e-02   -2,126271464e-02   -1,270525157e-02    6,544353962e-01    0,000000000e+00    0,000000000e+00    0,000000000e+00    0,000000000e+00
      646000000   -3,649427369e-02   -7,724488527e-02    3,656666279e-01    5,273235440e-01    0,000000000e+00    0,000000000e+00    0,000000000e+00    0,000000000e+00
      660000000   -1,118364856e-01   -1,008032411e-01    6,001881361e-01    1,926308572e-01    0,000000000e+00    0,000000000e+00    0,000000000e+00    0,000000000e+00
      674000000   -1,997687519e-01   -2,445362881e-02    5,644944906e-01   -2,400087863e-01    0,000000000e+00    0,000000000e+00    0,000000000e+00    0,000000000e+00
      688000000   -1,786580980e-01    1,442354769e-01    2,089876980e-01   -5,214896202e-01    0,000000000e+00    0,000000000e+00    0,000000000e+00    0,000000000e+00
      702000000    2,425992861e-02    2,461034060e-01   -1,971311718e-01   -4,104196429e-01    0,000000000e+00    0,000000000e+00    0,000000000e+00    0,000000000e+00
      716000000    2,641596496e-01    1,103504896e-01   -2,721858323e-01   -8,316254616e-02    0,000000000e+00    0,000000000e+00    0,000000000e+00    0,000000000e+00
      730000000    3,033183813e-01   -1,867182255e-01   -1,062214375e-01    3,203516454e-02    0,000000000e+00    0,000000000e+00    0,000000000e+00    0,000000000e+00
      744000000    9,437430650e-02   -4,277692437e-01   -4,252713919e-02   -6,588693708e-02    0,000000000e+00    0,000000000e+00    0,000000000e+00    0,000000000e+00
      758000000   -2,579283714e-01   -4,287223816e-01   -1,763375401e-01   -1,257727742e-01    0,000000000e+00    0,000000000e+00    0,000000000e+00    0,000000000e+00
      772000000   -4,847920835e-01   -1,200290918e-01   -3,371841908e-01    3,877146542e-02    0,000000000e+00    0,000000000e+00    0,000000000e+00    0,000000000e+00
      786000000   -3,417664170e-01    2,213682681e-01   -2,629962265e-01    3,172100186e-01    0,000000000e+00    0,000000000e+00    0,000000000e+00    0,000000000e+00
      800000000   -4,054938257e-02    2,767157257e-01    4,129374865e-03    4,367104471e-01    0,000000000e+00    0,000000000e+00    0,000000000e+00    0,000000000e+00
      814000000    1,438119859e-01    1,257900745e-01    2,638989985e-01    3,589984179e-01    0,000000000e+00    0,000000000e+00    0,000000000e+00    0,000000000e+00
      828000000    1,673521250e-01   -6,996237487e-02    4,330287278e-01    1,567950100e-01    0,000000000e+00    0,000000000e+00    0,000000000e+00    0,000000000e+00
      842000000    6,733176857e-02   -2,180158049e-01    4,667275846e-01   -1,198371053e-01    0,000000000e+00    0,000000000e+00    0,000000000e+00    0,000000000e+00
      856000000   -1,065468416e-01   -2,633530796e-01    3,210489452e-01   -3,946721554e-01    0,000000000e+00    0,000000000e+00    0,000000000e+00    0,000000000e+00
      870000000   -2,747974694e-01   -1,682768017e-01   -1,973632956e-03   -5,275227427e-01    0,000000000e+00    0,000000000e+00    0,000000000e+00    0,000000000e+00
      884000000   -3,199167252e-01    3,622179106e-02   -3,475693762e-01   -3,924961686e-01    0,000000000e+00    0,000000000e+00    0,000000000e+00    0,000000000e+00
      898000000   -1,919891685e-01    2,063123733e-01   -4,889625311e-01   -6,303329021e-02    0,000000000e+00    0,000000000e+00    0,000000000e+00    0,000000000e+00
      912000000    7,542661857e-03    2,190645337e-01   -3,978223205e-01    2,661288381e-01    0,000000000e+00    0,000000000e+00    0,000000000e+00    0,000000000e+00
      926000000    1,513551474e-01    1,138794124e-01   -1,678763628e-01    4,169246852e-01    0,000000000e+00    0,000000000e+00    0,000000000e+00    0,000000000e+00
      940000000    1,985961795e-01   -4,459643364e-02    6,390118599e-02    4,253190458e-01    0,000000000e+00    0,000000000e+00    0,000000000e+00    0,000000000e+00
      954000000    1,544229984e-01   -2,040426582e-01    2,619222999e-01    3,410422206e-01    0,000000000e+00    0,000000000e+00    0,000000000e+00    0,000000000e+00
      968000000    2,656857856e-02   -3,125069439e-01    4,112007916e-01    1,789819002e-01    0,000000000e+00    0,000000000e+00    0,000000000e+00    0,000000000e+00
      982000000   -1,611111164e-01   -3,330191672e-01    4,743173122e-01   -6,894616038e-02    0,000000000e+00    0,000000000e+00    0,000000000e+00    0,000000000e+00
      996000000   -3,234370351e-01   -2,112756521e-01    3,686084747e-01   -3,563573360e-01    0,000000000e+00    0,000000000e+00    0,000000000e+00    0,000000000e+00
     1010000000   -3,399710059e-01   -1,014223136e-02    4,321658611e-02   -5,252000093e-01    0,000000000e+00    0,000000000e+00    0,000000000e+00    0,000000000e+00
     1024000000   -2,087417841e-01    9,239878505e-02   -3,456164896e-01   -3,790088892e-01    0,000000000e+00    0,000000000e+00    0,000000000e+00    0,000000000e+00
     1038000000   -1,368853748e-01    7,361905184e-03   -4,830949008e-01    6,369265169e-02    0,000000000e+00    0,000000000e+00    0,000000000e+00    0,000000000e+00
     1052000000   -2,879856825e-01    5,103512481e-02   -9,680461884e-02    3,740643263e-01    0,000000000e+00    0,000000000e+00    0,000000000e+00    0,000000000e+00
     1066000000   -1,513740569e-01    2,952280045e-01    1,415781975e-01    1,339636296e-01    0,000000000e+00    0,000000000e+00    0,000000000e+00    0,000000000e+00
     1080000000    1,021430939e-01    2,503904402e-01    9,106052667e-02    2,056903951e-02    0,000000000e+00    0,000000000e+00    0,000000000e+00    0,000000000e+00
     1094000000    2,217048705e-01    8,630756289e-02    6,850163639e-02    1,086372696e-02    0,000000000e+00    0,000000000e+00    0,000000000e+00    0,000000000e+00
     1108000000    2,452482134e-01   -8,769027889e-02    8,259862661e-02    3,866314073e-04    0,000000000e+00    0,000000000e+00    0,000000000e+00    0,000000000e+00
     1122000000    1,870192736e-01   -2,499858439e-01    1,041416824e-01   -2,711440623e-02    0,000000000e+00    0,000000000e+00    0,000000000e+00    0,000000000e+00
     1136000000    4,628767446e-02   -3,807230592e-01    1,237163991e-01   -7,224534452e-02    0,000000000e+00    0,000000000e+00    0,000000000e+00    0,000000000e+00
     1150000000   -1,556793153e-01   -4,203622937e-01    1,352681071e-01   -1,507474035e-01    0,000000000e+00    0,000000000e+00    0,000000000e+00    0,000000000e+00
     1164000000   -3,821789026e-01   -3,240170479e-01    9,715994447e-02   -2,736938298e-01    0,000000000e+00    0,000000000e+00    0,000000000e+00    0,000000000e+00
     1178000000   -4,661536515e-01   -8,955246955e-02   -1,047494859e-01   -4,093987048e-01    0,000000000e+00    0,000000000e+00    0,000000000e+00    0,000000000e+00
     1192000000   -3,746683002e-01    3,637361526e-02   -4,608151615e-01   -1,979622543e-01    0,000000000e+00    0,000000000e+00    0,000000000e+00    0,000000000e+00
     1206000000   -4,169485271e-01    1,325172186e-01   -2,788155079e-01    2,358134091e-01    0,000000000e+00    0,000000000e+00    0,000000000e+00    0,000000000e+00
     1220000000   -2,769262791e-01    3,274562359e-01   -4,184467718e-03    1,611956209e-01    0,000000000e+00    0,000000000e+00    0,000000000e+00    0,000000000e+00
     1234000000   -4,262433574e-02    3,470343351e-01    2,477206662e-02    5,477888137e-02    0,000000000e+00    0,000000000e+00    0,000000000e+00    0,000000000e+00
     1248000000    1,261750013e-01    2,511980236e-01    7,679432631e-03    2,632563561e-02    0,000000000e+00    0,000000000e+00    0,000000000e+00    0,000000000e+00
     1262000000    2,121710926e-01    1,064136028e-01    6,676083896e-03    3,377554938e-02    0,000000000e+00    0,000000000e+00    0,000000000e+00    0,000000000e+00
     1276000000    2,364285737e-01   -6,198970601e-02    2,566718124e-02    3,262048215e-02    0,000000000e+00    0,000000000e+00    0,000000000e+00    0,000000000e+00
     1290000000    1,906495541e-01   -2,180794924e-01    5,456161872e-02    2,784823999e-02    0,000000000e+00    0,000000000e+00    0,000000000e+00    0,000000000e+00
     1304000000    8,300132304e-02   -3,541316688e-01    7,534646988e-02    3,023817437e-03    0,000000000e+00    0,000000000e+00    0,000000000e+00    0,000000000e+00
     1318000000   -9,921984375e-02   -4,523959160e-01    8,537673205e-02   -1,311498135e-02    0,000000000e+00    0,000000000e+00    0,000000000e+00    0,000000000e+00
     1332000000   -3,543674946e-01   -4,373356998e-01    8,295361698e-02   -1,900161430e-02    0,000000000e+00    0,000000000e+00    0,000000000e+00    0,000000000e+00
     1346000000   -5,940165520e-01   -2,429692298e-01    9,962569922e-02   -9,047009051e-03    0,000000000e+00    0,000000000e+00    0,000000000e+00    0,000000000e+00
     1360000000   -6,480038166e-01    7,402909547e-02    1,385800540e-01   -1,428708062e-02    0,000000000e+00    0,000000000e+00    0,000000000e+00    0,000000000e+00
     1374000000   -4,950949848e-01    3,292721808e-01    1,720698327e-01   -5,138435960e-02    0,000000000e+00    0,000000000e+00    0,000000000e+00    0,000000000e+00
     1388000000   -2,542780042e-01    4,249001741e-01    1,608321816e-01   -8,355195075e-02    0,000000000e+00    0,000000000e+00    0,000000000e+00    0,000000000e+00
     1402000000   -4,536421224e-02    3,904142678e-01    1,473269165e-01   -9,076657146e-02    0,000000000e+00    0,000000000e+00    0,000000000e+00    0,000000000e+00
     1416000000    1,068257466e-01    2,811273038e-01    1,358122528e-01   -8,927179128e-02    0,000000000e+00    0,000000000e+00    0,000000000e+00    0,000000000e+00
     1430000000    1,902578771e-01    1,469785124e-01    1,143015400e-01   -5,353949219e-02    0,000000000e+00    0,000000000e+00    0,000000000e+00    0,000000000e+00
     1444000000    2,182868570e-01   -1,240968797e-02    1,282948107e-01   -3,206919506e-02    0,000000000e+00    0,000000000e+00    0,000000000e+00    0,000000000e+00
     1458000000    1,824502945e-01   -1,820953339e-01    1,337600946e-01    1,812654547e-02    0,000000000e+00    0,000000000e+00    0,000000000e+00    0,000000000e+00
     1472000000    6,874071807e-02   -3,551068902e-01    2,045785487e-01    5,365596712e-02    0,000000000e+00    0,000000000e+00    0,000000000e+00    0,000000000e+00
     1486000000   -1,490154862e-01   -4,746823609e-01    2,819428146e-01    8,304218948e-02    0,000000000e+00    0,000000000e+00    0,000000000e+00    0,000000000e+00
     1500000000   -4,455278814e-01   -4,764863551e-01    4,040580392e-01    6,201987341e-02    0,000000000e+00    0,000000000e+00    0,000000000e+00    0,000000000e+00
