! NanoVNA-App
! Date: 2025-09-25 15:57:09
! Start: 100MHz Stop: 1,5GHz Points: 101
! S-Parameter data: F S11 S21 S12 S22
# Hz S RI R 50
!     Frequency           S11_Real           S11_Imag           S21_Real           S21_Imag           S12_Real           S12_Imag           S22_Real           S22_Imag
      100000000   -2,820668556e-02   -2,831824124e-03    3,722680509e-01   -7,224902511e-01    0,000000000e+00    0,000000000e+00    0,000000000e+00    0,000000000e+00
      114000000   -1,562884822e-02    1,286682393e-02   -9,145090729e-02   -8,046949506e-01    0,000000000e+00    0,000000000e+00    0,000000000e+00    0,000000000e+00
      128000000    4,447538871e-03    1,189217344e-02   -5,158874989e-01   -6,187047362e-01    0,000000000e+00    0,000000000e+00    0,000000000e+00    0,000000000e+00
      142000000    1,549297664e-02   -1,822690014e-03   -7,674612403e-01   -2,340866029e-01    0,000000000e+00    0,000000000e+00    0,000000000e+00    0,000000000e+00
      156000000    1,697658002e-02   -1,342840120e-02   -7,657213211e-01    2,262962759e-01    0,000000000e+00    0,000000000e+00    0,000000000e+00    0,000000000e+00
      170000000    1,759549230e-02   -2,101303264e-02   -5,150281191e-01    6,061409712e-01    0,000000000e+00    0,000000000e+00    0,000000000e+00    0,000000000e+00
      184000000    2,200955898e-02   -3,557504714e-02   -9,819282591e-02    7,862181664e-01    0,000000000e+00    0,000000000e+00    0,000000000e+00    0,000000000e+00
      198000000    1,402077824e-02   -6,064962968e-02    3,460672498e-01    7,110158205e-01    0,000000000e+00    0,000000000e+00    0,000000000e+00    0,000000000e+00
      212000000   -1,770449243e-02   -7,915231586e-02    6,809085011e-01    4,062013924e-01    0,000000000e+00    0,000000000e+00    0,000000000e+00    0,000000000e+00
      226000000   -6,034845859e-02   -6,663598120e-02    7,958010435e-01   -3,562654927e-02    0,000000000e+00    0,000000000e+00    0,000000000e+00    0,000000000e+00
      240000000   -8,049410582e-02   -2,278809063e-02    6,415420771e-01   -4,718262553e-01    0,000000000e+00    0,000000000e+00    0,000000000e+00    0,000000000e+00
      254000000   -6,076221913e-02    1,988792792e-02    2,709166706e-01   -7,414588332e-01    0,000000000e+00    0,000000000e+00    0,000000000e+00    0,000000000e+00
      268000000   -2,095215581e-02    3,083855659e-02   -1,813239008e-01   -7,608198524e-01    0,000000000e+00    0,000000000e+00    0,000000000e+00    0,000000000e+00
      282000000    6,949416362e-03    1,370424498e-02   -5,634558201e-01   -5,322769284e-01    0,000000000e+00    0,000000000e+00    0,000000000e+00    0,000000000e+00
      296000000    1,231940743e-02   -6,299728993e-03   -7,602918148e-01   -1,343421191e-01    0,000000000e+00    0,000000000e+00    0,000000000e+00    0,000000000e+00
      310000000    1,351861376e-02   -1,464171614e-02   -7,095624208e-01    3,037416637e-01    0,000000000e+00    0,000000000e+00    0,000000000e+00    0,000000000e+00
      324000000    2,234516107e-02   -2,449531667e-02   -4,207463861e-01    6,394250393e-01    0,000000000e+00    0,000000000e+00    0,000000000e+00    0,000000000e+00
      338000000    2,843618579e-02   -5,055778101e-02   -8,287043893e-04    7,626650929e-01    0,000000000e+00    0,000000000e+00    0,000000000e+00    0,000000000e+00
      352000000    1,014049724e-02   -8,262248337e-02    4,113489687e-01    6,344923973e-01    0,000000000e+00    0,000000000e+00    0,000000000e+00    0,000000000e+00
      366000000   -3,182276711e-02   -9,387470037e-02    6,928786635e-01    3,036004007e-01    0,000000000e+00    0,000000000e+00    0,000000000e+00    0,000000000e+00
      380000000   -6,740207225e-02   -6,886532158e-02    7,460924387e-01   -1,344555318e-01    0,000000000e+00    0,000000000e+00    0,000000000e+00    0,000000000e+00
      394000000   -6,863115728e-02   -3,066355921e-02    5,386093259e-01   -5,286968350e-01    0,000000000e+00    0,000000000e+00    0,000000000e+00    0,000000000e+00
      408000000   -4,296448082e-02   -1,576055773e-02    1,491558105e-01   -7,334875464e-01    0,000000000e+00    0,000000000e+00    0,000000000e+00    0,000000000e+00
      422000000   -2,635746263e-02   -3,103624843e-02   -2,792497873e-01   -6,895633936e-01    0,000000000e+00    0,000000000e+00    0,000000000e+00    0,000000000e+00
      436000000   -3,924795985e-02   -4,894828424e-02   -6,098385453e-01   -4,194620848e-01    0,000000000e+00    0,000000000e+00    0,000000000e+00    0,000000000e+00
      450000000   -6,457807869e-02   -3,922362998e-02   -7,367855906e-01   -7,892638445e-03    0,000000000e+00    0,000000000e+00    0,000000000e+00    0,000000000e+00
      464000000   -6,725129485e-02   -6,148380227e-03   -6,078160405e-01    4,062932432e-01    0,000000000e+00    0,000000000e+00    0,000000000e+00    0,000000000e+00
      478000000   -3,859375417e-02    1,625338197e-02   -2,673257887e-01    6,703466773e-01    0,000000000e+00    0,000000000e+00    0,000000000e+00    0,000000000e+00
      492000000   -5,225589033e-03    6,539358292e-03    1,519557536e-01    6,948376894e-01    0,000000000e+00    0,000000000e+00    0,000000000e+00    0,000000000e+00
      506000000    7,316449657e-03   -2,019687556e-02    5,073798895e-01    4,884137213e-01    0,000000000e+00    0,000000000e+00    0,000000000e+00    0,000000000e+00
      520000000    3,052857646e-04   -3,870776296e-02    6,884325743e-01    1,218755469e-01    0,000000000e+00    0,000000000e+00    0,000000000e+00    0,000000000e+00
      534000000   -3,368246835e-03   -4,520262405e-02    6,328459978e-01   -2,817626894e-01    0,000000000e+00    0,000000000e+00    0,000000000e+00    0,000000000e+00
      548000000    6,833654479e-04   -5,945941806e-02    3,595269322e-01   -5,788489580e-01    0,000000000e+00    0,000000000e+00    0,000000000e+00    0,000000000e+00
      562000000   -7,803175598e-03   -8,840294182e-02   -2,617795952e-02   -6,721085906e-01    0,000000000e+00    0,000000000e+00    0,000000000e+00    0,000000000e+00
      576000000   -4,553848505e-02   -1,094923094e-01   -4,011792243e-01   -5,382279158e-01    0,000000000e+00    0,000000000e+00    0,000000000e+00    0,000000000e+00
      590000000   -9,455212951e-02   -9,344939142e-02   -6,417430639e-01   -2,186669558e-01    0,000000000e+00    0,000000000e+00    0,000000000e+00    0,000000000e+00
      604000000   -1,117640138e-01   -4,136576876e-02   -6,477034688e-01    1,977506727e-01    0,000000000e+00    0,000000000e+00    0,000000000e+00    0,000000000e+00
      618000000   -7,563927025e-02   -1,951635582e-03   -4,014432728e-01    5,359063745e-01    0,000000000e+00    0,000000000e+00    0,000000000e+00    0,000000000e+00
      632000000   -3,020372242e-02   -2,087328024e-02   -1,269017439e-02    6,553441286e-01    0,000000000e+00    0,000000000e+00    0,000000000e+00    0,000000000e+00
      646000000   -3,661053628e-02   -7,722113281e-02    3,661131263e-01    5,270292163e-01    0,000000000e+00    0,000000000e+00    0,000000000e+00    0,000000000e+00
      660000000   -1,114952341e-01   -1,005651280e-01    6,006827354e-01    1,926045567e-01    0,000000000e+00    0,000000000e+00    0,000000000e+00    0,000000000e+00
      674000000   -1,995339841e-01   -2,356545255e-02    5,644515753e-01   -2,395907640e-01    0,000000000e+00    0,000000000e+00    0,000000000e+00    0,000000000e+00
      688000000   -1,792638153e-01    1,447390169e-01    2,088974714e-01   -5,216042399e-01    0,000000000e+00    0,000000000e+00    0,000000000e+00    0,000000000e+00
      702000000    2,421648800e-02    2,454824746e-01   -1,927746981e-01   -4,052383006e-01    0,000000000e+00    0,000000000e+00    0,000000000e+00    0,000000000e+00
      716000000    2,638536692e-01    1,100656092e-01   -2,716032565e-01   -8,243650198e-02    0,000000000e+00    0,000000000e+00    0,000000000e+00    0,000000000e+00
      730000000    3,033417463e-01   -1,867251098e-01   -1,055306047e-01    3,129545599e-02    0,000000000e+00    0,000000000e+00    0,000000000e+00    0,000000000e+00
      744000000    9,318164736e-02   -4,285273552e-01   -4,260850698e-02   -6,619472802e-02    0,000000000e+00    0,000000000e+00    0,000000000e+00    0,000000000e+00
      758000000   -2,600215375e-01   -4,293718338e-01   -1,763882041e-01   -1,261490583e-01    0,000000000e+00    0,000000000e+00    0,000000000e+00    0,000000000e+00
      772000000   -4,837624729e-01   -1,179756820e-01   -3,372862637e-01    3,856696561e-02    0,000000000e+00    0,000000000e+00    0,000000000e+00    0,000000000e+00
      786000000   -3,403854072e-01    2,217498273e-01   -2,630414963e-01    3,171689510e-01    0,000000000e+00    0,000000000e+00    0,000000000e+00    0,000000000e+00
      800000000   -3,971730173e-02    2,763569951e-01    2,833470237e-03    4,366269708e-01    0,000000000e+00    0,000000000e+00    0,000000000e+00    0,000000000e+00
      814000000    1,437231451e-01    1,249502227e-01    2,643420696e-01    3,595743477e-01    0,000000000e+00    0,000000000e+00    0,000000000e+00    0,000000000e+00
      828000000    1,672838777e-01   -7,047889382e-02    4,334729314e-01    1,565853357e-01    0,000000000e+00    0,000000000e+00    0,000000000e+00    0,000000000e+00
      842000000    6,709073484e-02   -2,190229893e-01    4,666552544e-01   -1,204165146e-01    0,000000000e+00    0,000000000e+00    0,000000000e+00    0,000000000e+00
      856000000   -1,062769368e-01   -2,638487518e-01    3,198643029e-01   -3,950291574e-01    0,000000000e+00    0,000000000e+00    0,000000000e+00    0,000000000e+00
      870000000   -2,742885351e-01   -1,676053852e-01   -2,179125790e-03   -5,268537998e-01    0,000000000e+00    0,000000000e+00    0,000000000e+00    0,000000000e+00
      884000000   -3,195865750e-01    3,521424159e-02   -3,478493392e-01   -3,932929039e-01    0,000000000e+00    0,000000000e+00    0,000000000e+00    0,000000000e+00
      898000000   -1,926213503e-01    2,062876970e-01   -4,895125031e-01   -6,306663901e-02    0,000000000e+00    0,000000000e+00    0,000000000e+00    0,000000000e+00
      912000000    7,584915031e-03    2,197644114e-01   -4,000524580e-01    2,799193859e-01    0,000000000e+00    0,000000000e+00    0,000000000e+00    0,000000000e+00
      926000000    1,491738558e-01    1,137372926e-01   -1,702670902e-01    4,183969498e-01    0,000000000e+00    0,000000000e+00    0,000000000e+00    0,000000000e+00
      940000000    1,976663470e-01   -4,526390880e-02    6,441843510e-02    4,257797003e-01    0,000000000e+00    0,000000000e+00    0,000000000e+00    0,000000000e+00
      954000000    1,547384858e-01   -2,008086592e-01    2,612430155e-01    3,407822251e-01    0,000000000e+00    0,000000000e+00    0,000000000e+00    0,000000000e+00
      968000000    2,527275868e-02   -3,126287758e-01    4,112555981e-01    1,797436923e-01    0,000000000e+00    0,000000000e+00    0,000000000e+00    0,000000000e+00
      982000000   -1,601743102e-01   -3,314949870e-01    4,751828909e-01   -6,707636267e-02    0,000000000e+00    0,000000000e+00    0,000000000e+00    0,000000000e+00
      996000000   -3,260632753e-01   -2,101187557e-01    3,697300255e-01   -3,563284576e-01    0,000000000e+00    0,000000000e+00    0,000000000e+00    0,000000000e+00
     1010000000   -3,395200372e-01   -3,415037412e-03    4,227365181e-02   -5,246825814e-01    0,000000000e+00    0,000000000e+00    0,000000000e+00    0,000000000e+00
     1024000000   -2,081577033e-01    9,386725724e-02   -3,458728790e-01   -3,817668557e-01    0,000000000e+00    0,000000000e+00    0,000000000e+00    0,000000000e+00
     1038000000   -1,388307959e-01    7,874646224e-03   -4,834600389e-01    6,274249405e-02    0,000000000e+00    0,000000000e+00    0,000000000e+00    0,000000000e+00
     1052000000   -2,899956107e-01    5,081387237e-02   -9,313133359e-02    3,728615344e-01    0,000000000e+00    0,000000000e+00    0,000000000e+00    0,000000000e+00
     1066000000   -1,472386271e-01    2,981238067e-01    1,435041279e-01    1,328756213e-01    0,000000000e+00    0,000000000e+00    0,000000000e+00    0,000000000e+00
     1080000000    1,034960896e-01    2,478860170e-01    9,020456672e-02    2,218831703e-02    0,000000000e+00    0,000000000e+00    0,000000000e+00    0,000000000e+00
     1094000000    2,244072706e-01    9,044244885e-02    6,923029572e-02    9,780844674e-03    0,000000000e+00    0,000000000e+00    0,000000000e+00    0,000000000e+00
     1108000000    2,420894206e-01   -8,971848339e-02    8,329798281e-02    8,060845430e-04    0,000000000e+00    0,000000000e+00    0,000000000e+00    0,000000000e+00
     1122000000    1,814350337e-01   -2,474269271e-01    1,043071672e-01   -2,615620941e-02    0,000000000e+00    0,000000000e+00    0,000000000e+00    0,000000000e+00
     1136000000    4,734082520e-02   -3,780887127e-01    1,281399876e-01   -7,465492934e-02    0,000000000e+00    0,000000000e+00    0,000000000e+00    0,000000000e+00
     1150000000   -1,545103341e-01   -4,258966148e-01    1,383600533e-01   -1,506690085e-01    0,000000000e+00    0,000000000e+00    0,000000000e+00    0,000000000e+00
     1164000000   -3,745824099e-01   -3,274296224e-01    9,929575771e-02   -2,762733698e-01    0,000000000e+00    0,000000000e+00    0,000000000e+00    0,000000000e+00
     1178000000   -4,619959891e-01   -8,965438604e-02   -1,059289575e-01   -4,072142541e-01    0,000000000e+00    0,000000000e+00    0,000000000e+00    0,000000000e+00
     1192000000   -3,771250844e-01    4,048383608e-02   -4,652032554e-01   -2,000775039e-01    0,000000000e+00    0,000000000e+00    0,000000000e+00    0,000000000e+00
     1206000000   -4,182117581e-01    1,331816912e-01   -2,750990391e-01    2,386673093e-01    0,000000000e+00    0,000000000e+00    0,000000000e+00    0,000000000e+00
     1220000000   -2,761014998e-01    3,277263939e-01   -5,776672624e-03    1,667719483e-01    0,000000000e+00    0,000000000e+00    0,000000000e+00    0,000000000e+00
     1234000000   -4,498928413e-02    3,459709287e-01    2,366063185e-02    5,207809806e-02    0,000000000e+00    0,000000000e+00    0,000000000e+00    0,000000000e+00
     1248000000    1,145254821e-01    2,472647578e-01   -4,068573471e-03    2,624814771e-02    0,000000000e+00    0,000000000e+00    0,000000000e+00    0,000000000e+00
     1262000000    2,148350328e-01    1,051538810e-01    5,496562924e-03    3,513848409e-02    0,000000000e+00    0,000000000e+00    0,000000000e+00    0,000000000e+00
     1276000000    2,322539240e-01   -5,618952587e-02    2,672222070e-02    3,841974586e-02    0,000000000e+00    0,000000000e+00    0,000000000e+00    0,000000000e+00
     1290000000    1,899908930e-01   -2,126603723e-01    5,508125946e-02    2,428017370e-02    0,000000000e+00    0,000000000e+00    0,000000000e+00    0,000000000e+00
     1304000000    8,526769280e-02   -3,536015749e-01    8,132351935e-02    4,954733886e-03    0,000000000e+00    0,000000000e+00    0,000000000e+00    0,000000000e+00
     1318000000   -9,704399854e-02   -4,452466667e-01    8,483036608e-02   -1,140963379e-02    0,000000000e+00    0,000000000e+00    0,000000000e+00    0,000000000e+00
     1332000000   -3,550236523e-01   -4,360175431e-01    8,161189407e-02   -1,049033087e-02    0,000000000e+00    0,000000000e+00    0,000000000e+00    0,000000000e+00
     1346000000   -5,871405602e-01   -2,521889210e-01    1,185240895e-01   -9,632105008e-03    0,000000000e+00    0,000000000e+00    0,000000000e+00    0,000000000e+00
     1360000000   -6,491580009e-01    6,848909706e-02    1,362309605e-01   -1,956130378e-02    0,000000000e+00    0,000000000e+00    0,000000000e+00    0,000000000e+00
     1374000000   -4,910761416e-01    3,307371736e-01    1,738791913e-01   -3,963378817e-02    0,000000000e+00    0,000000000e+00    0,000000000e+00    0,000000000e+00
     1388000000   -2,474354953e-01    4,286893010e-01    1,618086398e-01   -8,323003352e-02    0,000000000e+00    0,000000000e+00    0,000000000e+00    0,000000000e+00
     1402000000   -4,393897951e-02    3,939741254e-01    1,495466381e-01   -9,014846385e-02    0,000000000e+00    0,000000000e+00    0,000000000e+00    0,000000000e+00
     1416000000    9,865142405e-02    2,870487869e-01    1,186591759e-01   -8,111190051e-02    0,000000000e+00    0,000000000e+00    0,000000000e+00    0,000000000e+00
     1430000000    1,844174415e-01    1,484216899e-01    1,194247678e-01   -8,252932131e-02    0,000000000e+00    0,000000000e+00    0,000000000e+00    0,000000000e+00
     1444000000    2,119498253e-01   -1,195813250e-02    1,208487526e-01   -3,297486156e-02    0,000000000e+00    0,000000000e+00    0,000000000e+00    0,000000000e+00
     1458000000    1,814269423e-01   -1,808241606e-01    1,346872896e-01    1,857130975e-02    0,000000000e+00    0,000000000e+00    0,000000000e+00    0,000000000e+00
     1472000000    7,415396720e-02   -3,450739086e-01    2,101175636e-01    7,271230221e-02    0,000000000e+00    0,000000000e+00    0,000000000e+00    0,000000000e+00
     1486000000   -1,364790648e-01   -4,660877883e-01    2,884525061e-01    1,044195965e-01    0,000000000e+00    0,000000000e+00    0,000000000e+00    0,000000000e+00
     1500000000   -4,331781268e-01   -4,762899876e-01    4,133603871e-01    5,931120738e-02    0,000000000e+00    0,000000000e+00    0,000000000e+00    0,000000000e+00
