! NanoVNA-App
! Date: 2025-09-25 16:02:09
! Start: 100MHz Stop: 1,5GHz Points: 101
! S-Parameter data: F S11 S21 S12 S22
# Hz S RI R 50
!     Frequency           S11_Real           S11_Imag           S21_Real           S21_Imag           S12_Real           S12_Imag           S22_Real           S22_Imag
      100000000   -2,830177732e-02   -2,873325720e-03    3,723441362e-01   -7,224512100e-01    0,000000000e+00    0,000000000e+00    0,000000000e+00    0,000000000e+00
      114000000   -1,574590616e-02    1,290473808e-02   -9,119424224e-02   -8,047115803e-01    0,000000000e+00    0,000000000e+00    0,000000000e+00    0,000000000e+00
      128000000    4,345887341e-03    1,198622398e-02   -5,159355998e-01   -6,186856627e-01    0,000000000e+00    0,000000000e+00    0,000000000e+00    0,000000000e+00
      142000000    1,548034791e-02   -1,713636215e-03   -7,674528956e-01   -2,341327518e-01    0,000000000e+00    0,000000000e+00    0,000000000e+00    0,000000000e+00
      156000000    1,519205887e-02   -1,314666588e-02   -7,662038207e-01    2,204561979e-01    0,000000000e+00    0,000000000e+00    0,000000000e+00    0,000000000e+00
      170000000    1,767868176e-02   -2,093209699e-02   -5,156006217e-01    6,061852574e-01    0,000000000e+00    0,000000000e+00    0,000000000e+00    0,000000000e+00
      184000000    2,201114595e-02   -3,551338241e-02   -9,834722430e-02    7,859696746e-01    0,000000000e+00    0,000000000e+00    0,000000000e+00    0,000000000e+00
      198000000    1,400306448e-02   -6,062826887e-02    3,460304439e-01    7,109187841e-01    0,000000000e+00    0,000000000e+00    0,000000000e+00    0,000000000e+00
      212000000   -1,764406636e-02   -7,916034758e-02    6,808223724e-01    4,064091742e-01    0,000000000e+00    0,000000000e+00    0,000000000e+00    0,000000000e+00
      226000000   -6,035932153e-02   -6,661333889e-02    7,958120108e-01   -3,549339995e-02    0,000000000e+00    0,000000000e+00    0,000000000e+00    0,000000000e+00
      240000000   -8,055830002e-02   -2,277118526e-02    6,416628957e-01   -4,717051089e-01    0,000000000e+00    0,000000000e+00    0,000000000e+00    0,000000000e+00
      254000000   -6,081099808e-02    1,982158422e-02    2,711386979e-01   -7,421802878e-01    0,000000000e+00    0,000000000e+00    0,000000000e+00    0,000000000e+00
      268000000   -2,094982006e-02    3,086495399e-02   -1,809142083e-01   -7,607482076e-01    0,000000000e+00    0,000000000e+00    0,000000000e+00    0,000000000e+00
      282000000    6,904228125e-03    1,382236183e-02   -5,637096167e-01   -5,332612991e-01    0,000000000e+00    0,000000000e+00    0,000000000e+00    0,000000000e+00
      296000000    1,238730364e-02   -6,176316645e-03   -7,604508996e-01   -1,344730109e-01    0,000000000e+00    0,000000000e+00    0,000000000e+00    0,000000000e+00
      310000000    1,359900925e-02   -1,457185857e-02   -7,090452909e-01    3,030816019e-01    0,000000000e+00    0,000000000e+00    0,000000000e+00    0,000000000e+00
      324000000    2,234726027e-02   -2,459231578e-02   -4,206186533e-01    6,389766335e-01    0,000000000e+00    0,000000000e+00    0,000000000e+00    0,000000000e+00
      338000000    2,847828530e-02   -5,057154223e-02   -4,579959437e-03    7,584866881e-01    0,000000000e+00    0,000000000e+00    0,000000000e+00    0,000000000e+00
      352000000    1,023905165e-02   -8,296293020e-02    4,107757807e-01    6,358863711e-01    0,000000000e+00    0,000000000e+00    0,000000000e+00    0,000000000e+00
      366000000   -3,170645609e-02   -9,375374764e-02    6,932041645e-01    3,038495779e-01    0,000000000e+00    0,000000000e+00    0,000000000e+00    0,000000000e+00
      380000000   -6,759396195e-02   -6,870520860e-02    7,462157607e-01   -1,342960000e-01    0,000000000e+00    0,000000000e+00    0,000000000e+00    0,000000000e+00
      394000000   -6,863162667e-02   -3,071255982e-02    5,385323763e-01   -5,284690261e-01    0,000000000e+00    0,000000000e+00    0,000000000e+00    0,000000000e+00
      408000000   -4,271332547e-02   -1,580374129e-02    1,508973986e-01   -7,345408201e-01    0,000000000e+00    0,000000000e+00    0,000000000e+00    0,000000000e+00
      422000000   -2,602585964e-02   -3,126956522e-02   -2,791472673e-01   -6,910373569e-01    0,000000000e+00    0,000000000e+00    0,000000000e+00    0,000000000e+00
      436000000   -3,902772814e-02   -4,902880639e-02   -6,099346280e-01   -4,197023511e-01    0,000000000e+00    0,000000000e+00    0,000000000e+00    0,000000000e+00
      450000000   -6,470593065e-02   -3,922127187e-02   -7,371107340e-01   -7,579118013e-03    0,000000000e+00    0,000000000e+00    0,000000000e+00    0,000000000e+00
      464000000   -6,779954582e-02   -6,319268141e-03   -6,078400612e-01    4,058153331e-01    0,000000000e+00    0,000000000e+00    0,000000000e+00    0,000000000e+00
      478000000   -3,863301873e-02    1,617182232e-02   -2,675791979e-01    6,706728339e-01    0,000000000e+00    0,000000000e+00    0,000000000e+00    0,000000000e+00
      492000000   -5,306809209e-03    6,137283053e-03    1,517111957e-01    6,951223016e-01    0,000000000e+00    0,000000000e+00    0,000000000e+00    0,000000000e+00
      506000000    6,714468356e-03   -2,015306614e-02    5,077641010e-01    4,887290597e-01    0,000000000e+00    0,000000000e+00    0,000000000e+00    0,000000000e+00
      520000000    5,097601679e-04   -3,869187832e-02    6,895764470e-01    1,223084256e-01    0,000000000e+00    0,000000000e+00    0,000000000e+00    0,000000000e+00
      534000000   -2,761472482e-03   -4,557519406e-02    6,329302192e-01   -2,818352878e-01    0,000000000e+00    0,000000000e+00    0,000000000e+00    0,000000000e+00
      548000000    1,384614734e-03   -5,943815410e-02    3,608351350e-01   -5,794146061e-01    0,000000000e+00    0,000000000e+00    0,000000000e+00    0,000000000e+00
      562000000   -7,541676518e-03   -8,867696673e-02   -2,633788809e-02   -6,730097532e-01    0,000000000e+00    0,000000000e+00    0,000000000e+00    0,000000000e+00
      576000000   -4,510366544e-02   -1,095584482e-01   -4,015379846e-01   -5,388081074e-01    0,000000000e+00    0,000000000e+00    0,000000000e+00    0,000000000e+00
      590000000   -9,498307854e-02   -9,338545054e-02   -6,420810223e-01   -2,178945243e-01    0,000000000e+00    0,000000000e+00    0,000000000e+00    0,000000000e+00
      604000000   -1,112430766e-01   -4,116901755e-02   -6,473279595e-01    1,986868680e-01    0,000000000e+00    0,000000000e+00    0,000000000e+00    0,000000000e+00
      618000000   -7,563439757e-02   -1,734355348e-03   -4,018003047e-01    5,355688334e-01    0,000000000e+00    0,000000000e+00    0,000000000e+00    0,000000000e+00
      632000000   -2,966145799e-02   -2,073346823e-02   -1,190482546e-02    6,561162472e-01    0,000000000e+00    0,000000000e+00    0,000000000e+00    0,000000000e+00
      646000000   -3,602945060e-02   -7,735995203e-02    3,663838506e-01    5,271987915e-01    0,000000000e+00    0,000000000e+00    0,000000000e+00    0,000000000e+00
      660000000   -1,119054779e-01   -9,960514307e-02    6,006242633e-01    1,936292648e-01    0,000000000e+00    0,000000000e+00    0,000000000e+00    0,000000000e+00
      674000000   -1,988673806e-01   -2,360924333e-02    5,659835935e-01   -2,395118028e-01    0,000000000e+00    0,000000000e+00    0,000000000e+00    0,000000000e+00
      688000000   -1,788705438e-01    1,439305246e-01    2,103960961e-01   -5,224942565e-01    0,000000000e+00    0,000000000e+00    0,000000000e+00    0,000000000e+00
      702000000    2,356290631e-02    2,445211858e-01   -1,937839389e-01   -4,076625407e-01    0,000000000e+00    0,000000000e+00    0,000000000e+00    0,000000000e+00
      716000000    2,625501454e-01    1,109534279e-01   -2,736703157e-01   -8,407015353e-02    0,000000000e+00    0,000000000e+00    0,000000000e+00    0,000000000e+00
      730000000    3,036330640e-01   -1,861832589e-01   -1,074589267e-01    3,262655064e-02    0,000000000e+00    0,000000000e+00    0,000000000e+00    0,000000000e+00
      744000000    9,489462525e-02   -4,281940460e-01   -4,263720661e-02   -6,412274390e-02    0,000000000e+00    0,000000000e+00    0,000000000e+00    0,000000000e+00
      758000000   -2,575978041e-01   -4,296057820e-01   -1,751893163e-01   -1,252188832e-01    0,000000000e+00    0,000000000e+00    0,000000000e+00    0,000000000e+00
      772000000   -4,863644838e-01   -1,200541258e-01   -3,358822167e-01    3,800925240e-02    0,000000000e+00    0,000000000e+00    0,000000000e+00    0,000000000e+00
      786000000   -3,419747055e-01    2,223707587e-01   -2,630379200e-01    3,162249625e-01    0,000000000e+00    0,000000000e+00    0,000000000e+00    0,000000000e+00
      800000000   -4,051172733e-02    2,776230276e-01    2,374961972e-03    4,362919927e-01    0,000000000e+00    0,000000000e+00    0,000000000e+00    0,000000000e+00
      814000000    1,443742663e-01    1,259744912e-01    2,639754117e-01    3,589360714e-01    0,000000000e+00    0,000000000e+00    0,000000000e+00    0,000000000e+00
      828000000    1,682662666e-01   -7,033617049e-02    4,321613014e-01    1,568802446e-01    0,000000000e+00    0,000000000e+00    0,000000000e+00    0,000000000e+00
      842000000    6,751261652e-02   -2,189685255e-01    4,667540789e-01   -1,200287566e-01    0,000000000e+00    0,000000000e+00    0,000000000e+00    0,000000000e+00
      856000000   -1,068775132e-01   -2,639078796e-01    3,193624318e-01   -3,945917189e-01    0,000000000e+00    0,000000000e+00    0,000000000e+00    0,000000000e+00
      870000000   -2,741712034e-01   -1,683438569e-01   -2,060092986e-03   -5,268869400e-01    0,000000000e+00    0,000000000e+00    0,000000000e+00    0,000000000e+00
      884000000   -3,207038939e-01    3,625531495e-02   -3,475460410e-01   -3,923907280e-01    0,000000000e+00    0,000000000e+00    0,000000000e+00    0,000000000e+00
      898000000   -1,920084655e-01    2,062453330e-01   -4,887608290e-01   -6,280777603e-02    0,000000000e+00    0,000000000e+00    0,000000000e+00    0,000000000e+00
      912000000    6,744588725e-03    2,195601612e-01   -4,085229635e-01    2,676774859e-01    0,000000000e+00    0,000000000e+00    0,000000000e+00    0,000000000e+00
      926000000    1,491104662e-01    1,111915708e-01   -1,696252376e-01    4,134513438e-01    0,000000000e+00    0,000000000e+00    0,000000000e+00    0,000000000e+00
      940000000    1,986827105e-01   -4,469472170e-02    6,455367804e-02    4,264476299e-01    0,000000000e+00    0,000000000e+00    0,000000000e+00    0,000000000e+00
      954000000    1,522014290e-01   -2,010256648e-01    2,596281767e-01    3,428896964e-01    0,000000000e+00    0,000000000e+00    0,000000000e+00    0,000000000e+00
      968000000    2,767830342e-02   -3,151833713e-01    4,100733697e-01    1,798718423e-01    0,000000000e+00    0,000000000e+00    0,000000000e+00    0,000000000e+00
      982000000   -1,643671095e-01   -3,332560360e-01    4,754287601e-01   -6,785406172e-02    0,000000000e+00    0,000000000e+00    0,000000000e+00    0,000000000e+00
      996000000   -3,250835538e-01   -2,068751156e-01    3,679258227e-01   -3,551980257e-01    0,000000000e+00    0,000000000e+00    0,000000000e+00    0,000000000e+00
     1010000000   -3,407339156e-01   -4,755401053e-03    4,094670713e-02   -5,257052183e-01    0,000000000e+00    0,000000000e+00    0,000000000e+00    0,000000000e+00
     1024000000   -2,083358467e-01    9,595604986e-02   -3,447324932e-01   -3,786996305e-01    0,000000000e+00    0,000000000e+00    0,000000000e+00    0,000000000e+00
     1038000000   -1,326973289e-01    9,281705134e-03   -4,828406870e-01    6,497713923e-02    0,000000000e+00    0,000000000e+00    0,000000000e+00    0,000000000e+00
     1052000000   -2,865141332e-01    5,511995032e-02   -9,563150257e-02    3,715672195e-01    0,000000000e+00    0,000000000e+00    0,000000000e+00    0,000000000e+00
     1066000000   -1,513950378e-01    2,937905490e-01    1,422653347e-01    1,307906359e-01    0,000000000e+00    0,000000000e+00    0,000000000e+00    0,000000000e+00
     1080000000    9,861426055e-02    2,461718023e-01    8,955338597e-02    2,298169397e-02    0,000000000e+00    0,000000000e+00    0,000000000e+00    0,000000000e+00
     1094000000    2,202116698e-01    9,118445963e-02    6,977786869e-02    9,773275815e-03    0,000000000e+00    0,000000000e+00    0,000000000e+00    0,000000000e+00
     1108000000    2,456012964e-01   -8,631922305e-02    8,062180877e-02    1,474843477e-03    0,000000000e+00    0,000000000e+00    0,000000000e+00    0,000000000e+00
     1122000000    1,841571629e-01   -2,547290623e-01    1,034595519e-01   -2,533753961e-02    0,000000000e+00    0,000000000e+00    0,000000000e+00    0,000000000e+00
     1136000000    4,689697549e-02   -3,753183484e-01    1,295712441e-01   -7,245282829e-02    0,000000000e+00    0,000000000e+00    0,000000000e+00    0,000000000e+00
     1150000000   -1,543505639e-01   -4,231191576e-01    1,378217638e-01   -1,491488814e-01    0,000000000e+00    0,000000000e+00    0,000000000e+00    0,000000000e+00
     1164000000   -3,788233399e-01   -3,209829628e-01    1,004235074e-01   -2,758459747e-01    0,000000000e+00    0,000000000e+00    0,000000000e+00    0,000000000e+00
     1178000000   -4,673157036e-01   -8,427263796e-02   -1,062350720e-01   -4,049611986e-01    0,000000000e+00    0,000000000e+00    0,000000000e+00    0,000000000e+00
     1192000000   -3,783787191e-01    3,797186539e-02   -4,627500474e-01   -2,000127584e-01    0,000000000e+00    0,000000000e+00    0,000000000e+00    0,000000000e+00
     1206000000   -4,100144506e-01    1,366473436e-01   -2,705593705e-01    2,351849973e-01    0,000000000e+00    0,000000000e+00    0,000000000e+00    0,000000000e+00
     1220000000   -2,755838037e-01    3,275720775e-01   -2,716780640e-03    1,619093865e-01    0,000000000e+00    0,000000000e+00    0,000000000e+00    0,000000000e+00
     1234000000   -4,488288611e-02    3,460832238e-01    2,535414882e-02    5,237298831e-02    0,000000000e+00    0,000000000e+00    0,000000000e+00    0,000000000e+00
     1248000000    1,178838015e-01    2,475801557e-01   -7,650419138e-04    2,046456747e-02    0,000000000e+00    0,000000000e+00    0,000000000e+00    0,000000000e+00
     1262000000    2,142147422e-01    1,047852188e-01    7,624422666e-03    2,990854345e-02    0,000000000e+00    0,000000000e+00    0,000000000e+00    0,000000000e+00
     1276000000    2,382390201e-01   -5,605595931e-02    2,626507729e-02    3,528066352e-02    0,000000000e+00    0,000000000e+00    0,000000000e+00    0,000000000e+00
     1290000000    1,958035380e-01   -2,198388577e-01    6,025998294e-02    2,233633213e-02    0,000000000e+00    0,000000000e+00    0,000000000e+00    0,000000000e+00
     1304000000    8,258387446e-02   -3,557197154e-01    7,133070379e-02    8,045511320e-03    0,000000000e+00    0,000000000e+00    0,000000000e+00    0,000000000e+00
     1318000000   -9,932442755e-02   -4,499791861e-01    8,637819439e-02   -9,045422077e-03    0,000000000e+00    0,000000000e+00    0,000000000e+00    0,000000000e+00
     1332000000   -3,544457257e-01   -4,347937405e-01    8,583474904e-02   -1,838821173e-02    0,000000000e+00    0,000000000e+00    0,000000000e+00    0,000000000e+00
     1346000000   -5,921682715e-01   -2,427751720e-01    1,085312292e-01   -4,853623919e-03    0,000000000e+00    0,000000000e+00    0,000000000e+00    0,000000000e+00
     1360000000   -6,472032070e-01    7,387056202e-02    1,490030736e-01   -7,400756236e-03    0,000000000e+00    0,000000000e+00    0,000000000e+00    0,000000000e+00
     1374000000   -4,906499982e-01    3,319357932e-01    1,742395014e-01   -4,038357362e-02    0,000000000e+00    0,000000000e+00    0,000000000e+00    0,000000000e+00
     1388000000   -2,575831413e-01    4,260388911e-01    1,628647745e-01   -8,677976578e-02    0,000000000e+00    0,000000000e+00    0,000000000e+00    0,000000000e+00
     1402000000   -4,233041778e-02    3,856827915e-01    1,420734376e-01   -1,025234088e-01    0,000000000e+00    0,000000000e+00    0,000000000e+00    0,000000000e+00
     1416000000    1,006283313e-01    2,844111323e-01    1,193059683e-01   -8,295404166e-02    0,000000000e+00    0,000000000e+00    0,000000000e+00    0,000000000e+00
     1430000000    1,914086342e-01    1,355925947e-01    1,076500937e-01   -8,506336808e-02    0,000000000e+00    0,000000000e+00    0,000000000e+00    0,000000000e+00
     1444000000    2,150945067e-01   -1,244050451e-02    1,173249558e-01   -2,767733298e-02    0,000000000e+00    0,000000000e+00    0,000000000e+00    0,000000000e+00
     1458000000    1,793668419e-01   -1,807227880e-01    1,359303594e-01    2,104756236e-02    0,000000000e+00    0,000000000e+00    0,000000000e+00    0,000000000e+00
     1472000000    7,288344949e-02   -3,497303724e-01    2,065291405e-01    7,023579627e-02    0,000000000e+00    0,000000000e+00    0,000000000e+00    0,000000000e+00
     1486000000   -1,398619264e-01   -4,805597067e-01    2,841445506e-01    9,088575840e-02    0,000000000e+00    0,000000000e+00    0,000000000e+00    0,000000000e+00
     1500000000   -4,489679039e-01   -4,827364683e-01    3,982736468e-01    4,338403419e-02    0,000000000e+00    0,000000000e+00    0,000000000e+00    0,000000000e+00
