! NanoVNA-App
! Date: 2025-09-25 15:58:52
! Start: 100MHz Stop: 1,5GHz Points: 101
! S-Parameter data: F S11 S21 S12 S22
# Hz S RI R 50
!     Frequency           S11_Real           S11_Imag           S21_Real           S21_Imag           S12_Real           S12_Imag           S22_Real           S22_Imag
      100000000   -2,823835239e-02   -2,847941825e-03    3,722138107e-01   -7,224556208e-01    0,000000000e+00    0,000000000e+00    0,000000000e+00    0,000000000e+00
      114000000   -1,568093337e-02    1,289064158e-02   -9,122075140e-02   -8,048107028e-01    0,000000000e+00    0,000000000e+00    0,000000000e+00    0,000000000e+00
      128000000    4,361279774e-03    1,189909410e-02   -5,160880089e-01   -6,188346148e-01    0,000000000e+00    0,000000000e+00    0,000000000e+00    0,000000000e+00
      142000000    1,547489502e-02   -1,769313472e-03   -7,671563625e-01   -2,342127413e-01    0,000000000e+00    0,000000000e+00    0,000000000e+00    0,000000000e+00
      156000000    1,630887948e-02   -1,285555772e-02   -7,635328174e-01    2,235547155e-01    0,000000000e+00    0,000000000e+00    0,000000000e+00    0,000000000e+00
      170000000    1,761085726e-02   -2,096065693e-02   -5,154923797e-01    6,060768366e-01    0,000000000e+00    0,000000000e+00    0,000000000e+00    0,000000000e+00
      184000000    2,200265974e-02   -3,555303439e-02   -9,828755260e-02    7,860460877e-01    0,000000000e+00    0,000000000e+00    0,000000000e+00    0,000000000e+00
      198000000    1,402867492e-02   -6,069371477e-02    3,460088670e-01    7,110328674e-01    0,000000000e+00    0,000000000e+00    0,000000000e+00    0,000000000e+00
      212000000   -1,767148450e-02   -7,911749184e-02    6,806775331e-01    4,062424302e-01    0,000000000e+00    0,000000000e+00    0,000000000e+00    0,000000000e+00
      226000000   -6,035232544e-02   -6,666136533e-02    7,957774401e-01   -3,556458279e-02    0,000000000e+00    0,000000000e+00    0,000000000e+00    0,000000000e+00
      240000000   -8,056010306e-02   -2,279608697e-02    6,417306662e-01   -4,716046751e-01    0,000000000e+00    0,000000000e+00    0,000000000e+00    0,000000000e+00
      254000000   -6,080611050e-02    1,981039718e-02    2,709132433e-01   -7,420199513e-01    0,000000000e+00    0,000000000e+00    0,000000000e+00    0,000000000e+00
      268000000   -2,097028121e-02    3,090592846e-02   -1,810128242e-01   -7,610457540e-01    0,000000000e+00    0,000000000e+00    0,000000000e+00    0,000000000e+00
      282000000    6,977197248e-03    1,371568069e-02   -5,633793473e-01   -5,326719284e-01    0,000000000e+00    0,000000000e+00    0,000000000e+00    0,000000000e+00
      296000000    1,232681889e-02   -6,194868591e-03   -7,603338957e-01   -1,343068779e-01    0,000000000e+00    0,000000000e+00    0,000000000e+00    0,000000000e+00
      310000000    1,360972971e-02   -1,470132172e-02   -7,089595795e-01    3,032566011e-01    0,000000000e+00    0,000000000e+00    0,000000000e+00    0,000000000e+00
      324000000    2,239110880e-02   -2,453606948e-02   -4,207997024e-01    6,388934255e-01    0,000000000e+00    0,000000000e+00    0,000000000e+00    0,000000000e+00
      338000000    2,831363305e-02   -5,083068460e-02   -2,534265863e-03    7,601994276e-01    0,000000000e+00    0,000000000e+00    0,000000000e+00    0,000000000e+00
      352000000    1,011612918e-02   -8,271075785e-02    4,114554226e-01    6,350188255e-01    0,000000000e+00    0,000000000e+00    0,000000000e+00    0,000000000e+00
      366000000   -3,153640404e-02   -9,395184368e-02    6,933454275e-01    3,038847148e-01    0,000000000e+00    0,000000000e+00    0,000000000e+00    0,000000000e+00
      380000000   -6,766961515e-02   -6,873261929e-02    7,456846237e-01   -1,347269416e-01    0,000000000e+00    0,000000000e+00    0,000000000e+00    0,000000000e+00
      394000000   -6,864734739e-02   -3,074667044e-02    5,379978418e-01   -5,292940736e-01    0,000000000e+00    0,000000000e+00    0,000000000e+00    0,000000000e+00
      408000000   -4,281711951e-02   -1,580332965e-02    1,505405605e-01   -7,335337996e-01    0,000000000e+00    0,000000000e+00    0,000000000e+00    0,000000000e+00
      422000000   -2,618143335e-02   -3,121261671e-02   -2,797150314e-01   -6,908781528e-01    0,000000000e+00    0,000000000e+00    0,000000000e+00    0,000000000e+00
      436000000   -3,915859386e-02   -4,869918525e-02   -6,102358103e-01   -4,197858572e-01    0,000000000e+00    0,000000000e+00    0,000000000e+00    0,000000000e+00
      450000000   -6,474346668e-02   -3,877814114e-02   -7,369846106e-01   -7,424115203e-03    0,000000000e+00    0,000000000e+00    0,000000000e+00    0,000000000e+00
      464000000   -6,764571369e-02   -6,435029209e-03   -6,081777215e-01    4,060529768e-01    0,000000000e+00    0,000000000e+00    0,000000000e+00    0,000000000e+00
      478000000   -3,849382326e-02    1,573839784e-02   -2,682100534e-01    6,701397896e-01    0,000000000e+00    0,000000000e+00    0,000000000e+00    0,000000000e+00
      492000000   -5,306146108e-03    6,599794608e-03    1,514562368e-01    6,956408620e-01    0,000000000e+00    0,000000000e+00    0,000000000e+00    0,000000000e+00
      506000000    6,833643652e-03   -2,021908574e-02    5,070800781e-01    4,883878529e-01    0,000000000e+00    0,000000000e+00    0,000000000e+00    0,000000000e+00
      520000000    5,199580337e-04   -3,838368505e-02    6,896579266e-01    1,201726794e-01    0,000000000e+00    0,000000000e+00    0,000000000e+00    0,000000000e+00
      534000000   -2,991266316e-03   -4,539872333e-02    6,328262687e-01   -2,821503878e-01    0,000000000e+00    0,000000000e+00    0,000000000e+00    0,000000000e+00
      548000000    8,234520210e-04   -5,956404656e-02    3,601527810e-01   -5,794281363e-01    0,000000000e+00    0,000000000e+00    0,000000000e+00    0,000000000e+00
      562000000   -8,077695034e-03   -8,821023256e-02   -2,708127163e-02   -6,723183990e-01    0,000000000e+00    0,000000000e+00    0,000000000e+00    0,000000000e+00
      576000000   -4,568161443e-02   -1,094851941e-01   -4,017200172e-01   -5,379978418e-01    0,000000000e+00    0,000000000e+00    0,000000000e+00    0,000000000e+00
      590000000   -9,463679045e-02   -9,350774437e-02   -6,411014795e-01   -2,189205885e-01    0,000000000e+00    0,000000000e+00    0,000000000e+00    0,000000000e+00
      604000000   -1,116843075e-01   -4,071884602e-02   -6,473125219e-01    1,986179650e-01    0,000000000e+00    0,000000000e+00    0,000000000e+00    0,000000000e+00
      618000000   -7,551480085e-02   -2,773202490e-03   -4,009468257e-01    5,353112221e-01    0,000000000e+00    0,000000000e+00    0,000000000e+00    0,000000000e+00
      632000000   -3,029853292e-02   -2,111737244e-02   -1,165391784e-02    6,550610662e-01    0,000000000e+00    0,000000000e+00    0,000000000e+00    0,000000000e+00
      646000000   -3,683759645e-02   -7,709079981e-02    3,667831719e-01    5,269318819e-01    0,000000000e+00    0,000000000e+00    0,000000000e+00    0,000000000e+00
      660000000   -1,123172492e-01   -9,941284359e-02    6,006296873e-01    1,930123866e-01    0,000000000e+00    0,000000000e+00    0,000000000e+00    0,000000000e+00
      674000000   -1,991174370e-01   -2,370471135e-02    5,649334788e-01   -2,401677668e-01    0,000000000e+00    0,000000000e+00    0,000000000e+00    0,000000000e+00
      688000000   -1,780648232e-01    1,451475173e-01    2,093231678e-01   -5,221315622e-01    0,000000000e+00    0,000000000e+00    0,000000000e+00    0,000000000e+00
      702000000    2,479120344e-02    2,471987158e-01   -1,983526796e-01   -4,095662236e-01    0,000000000e+00    0,000000000e+00    0,000000000e+00    0,000000000e+00
      716000000    2,633933425e-01    1,109601408e-01   -2,724125683e-01   -8,301879466e-02    0,000000000e+00    0,000000000e+00    0,000000000e+00    0,000000000e+00
      730000000    3,035172224e-01   -1,860768646e-01   -1,066052467e-01    3,195104375e-02    0,000000000e+00    0,000000000e+00    0,000000000e+00    0,000000000e+00
      744000000    9,399165958e-02   -4,286708236e-01   -4,261673987e-02   -6,595359743e-02    0,000000000e+00    0,000000000e+00    0,000000000e+00    0,000000000e+00
      758000000   -2,585223019e-01   -4,302099943e-01   -1,763458103e-01   -1,256769300e-01    0,000000000e+00    0,000000000e+00    0,000000000e+00    0,000000000e+00
      772000000   -4,856327772e-01   -1,190969795e-01   -3,367658854e-01    3,863478452e-02    0,000000000e+00    0,000000000e+00    0,000000000e+00    0,000000000e+00
      786000000   -3,404712081e-01    2,218949348e-01   -2,635708451e-01    3,172250986e-01    0,000000000e+00    0,000000000e+00    0,000000000e+00    0,000000000e+00
      800000000   -4,059455544e-02    2,761617005e-01    3,588394262e-03    4,377339482e-01    0,000000000e+00    0,000000000e+00    0,000000000e+00    0,000000000e+00
      814000000    1,440536529e-01    1,248209476e-01    2,641640604e-01    3,594742119e-01    0,000000000e+00    0,000000000e+00    0,000000000e+00    0,000000000e+00
      828000000    1,678367555e-01   -7,039189339e-02    4,335741699e-01    1,564115137e-01    0,000000000e+00    0,000000000e+00    0,000000000e+00    0,000000000e+00
      842000000    6,686577946e-02   -2,183345854e-01    4,663179517e-01   -1,205174327e-01    0,000000000e+00    0,000000000e+00    0,000000000e+00    0,000000000e+00
      856000000   -1,066904292e-01   -2,634170949e-01    3,203327656e-01   -3,938933611e-01    0,000000000e+00    0,000000000e+00    0,000000000e+00    0,000000000e+00
      870000000   -2,736342251e-01   -1,680112183e-01   -2,364361892e-03   -5,270265937e-01    0,000000000e+00    0,000000000e+00    0,000000000e+00    0,000000000e+00
      884000000   -3,206081986e-01    3,523054719e-02   -3,489653766e-01   -3,924764991e-01    0,000000000e+00    0,000000000e+00    0,000000000e+00    0,000000000e+00
      898000000   -1,925778836e-01    2,061095983e-01   -4,896530807e-01   -6,260056794e-02    0,000000000e+00    0,000000000e+00    0,000000000e+00    0,000000000e+00
      912000000    6,641105283e-03    2,194644064e-01   -3,955431879e-01    2,783692777e-01    0,000000000e+00    0,000000000e+00    0,000000000e+00    0,000000000e+00
      926000000    1,498370320e-01    1,113499328e-01   -1,701554209e-01    4,159598947e-01    0,000000000e+00    0,000000000e+00    0,000000000e+00    0,000000000e+00
      940000000    1,981789023e-01   -4,763956740e-02    6,335531920e-02    4,220732450e-01    0,000000000e+00    0,000000000e+00    0,000000000e+00    0,000000000e+00
      954000000    1,536237895e-01   -2,045263499e-01    2,606519163e-01    3,414863348e-01    0,000000000e+00    0,000000000e+00    0,000000000e+00    0,000000000e+00
      968000000    2,627086453e-02   -3,146064878e-01    4,118355513e-01    1,792176962e-01    0,000000000e+00    0,000000000e+00    0,000000000e+00    0,000000000e+00
      982000000   -1,588269174e-01   -3,287985325e-01    4,761643112e-01   -6,592731923e-02    0,000000000e+00    0,000000000e+00    0,000000000e+00    0,000000000e+00
      996000000   -3,265825808e-01   -2,115781605e-01    3,698667586e-01   -3,566370904e-01    0,000000000e+00    0,000000000e+00    0,000000000e+00    0,000000000e+00
     1010000000   -3,402719498e-01   -1,070525218e-02    4,145415127e-02   -5,250134468e-01    0,000000000e+00    0,000000000e+00    0,000000000e+00    0,000000000e+00
     1024000000   -2,056379318e-01    9,524270147e-02   -3,456903696e-01   -3,798046112e-01    0,000000000e+00    0,000000000e+00    0,000000000e+00    0,000000000e+00
     1038000000   -1,375759393e-01    1,239541266e-02   -4,819405377e-01    6,458474696e-02    0,000000000e+00    0,000000000e+00    0,000000000e+00    0,000000000e+00
     1052000000   -2,857859433e-01    5,190351233e-02   -9,367801249e-02    3,737071157e-01    0,000000000e+00    0,000000000e+00    0,000000000e+00    0,000000000e+00
     1066000000   -1,498265564e-01    2,977004051e-01    1,396624446e-01    1,337972134e-01    0,000000000e+00    0,000000000e+00    0,000000000e+00    0,000000000e+00
     1080000000    1,032037437e-01    2,524985075e-01    8,917833865e-02    2,152674831e-02    0,000000000e+00    0,000000000e+00    0,000000000e+00    0,000000000e+00
     1094000000    2,218448073e-01    8,428423107e-02    6,853872538e-02    1,160313468e-02    0,000000000e+00    0,000000000e+00    0,000000000e+00    0,000000000e+00
     1108000000    2,406557798e-01   -8,582282811e-02    8,024727553e-02   -7,930789143e-04    0,000000000e+00    0,000000000e+00    0,000000000e+00    0,000000000e+00
     1122000000    1,876569986e-01   -2,529319227e-01    1,046513468e-01   -2,600863203e-02    0,000000000e+00    0,000000000e+00    0,000000000e+00    0,000000000e+00
     1136000000    4,750572890e-02   -3,773356676e-01    1,258410364e-01   -7,271775603e-02    0,000000000e+00    0,000000000e+00    0,000000000e+00    0,000000000e+00
     1150000000   -1,548278034e-01   -4,212847352e-01    1,360479593e-01   -1,528831720e-01    0,000000000e+00    0,000000000e+00    0,000000000e+00    0,000000000e+00
     1164000000   -3,800486624e-01   -3,213814795e-01    9,852312505e-02   -2,774013281e-01    0,000000000e+00    0,000000000e+00    0,000000000e+00    0,000000000e+00
     1178000000   -4,632254243e-01   -8,851263672e-02   -1,071297079e-01   -4,055512249e-01    0,000000000e+00    0,000000000e+00    0,000000000e+00    0,000000000e+00
     1192000000   -3,704745471e-01    3,639368340e-02   -4,629787505e-01   -1,953755766e-01    0,000000000e+00    0,000000000e+00    0,000000000e+00    0,000000000e+00
     1206000000   -4,194088876e-01    1,328120828e-01   -2,762600183e-01    2,400875390e-01    0,000000000e+00    0,000000000e+00    0,000000000e+00    0,000000000e+00
     1220000000   -2,740927637e-01    3,339420259e-01   -3,462136025e-03    1,637291163e-01    0,000000000e+00    0,000000000e+00    0,000000000e+00    0,000000000e+00
     1234000000   -4,679200053e-02    3,507307470e-01    1,992381178e-02    5,485643074e-02    0,000000000e+00    0,000000000e+00    0,000000000e+00    0,000000000e+00
     1248000000    1,247608736e-01    2,474455982e-01    3,993534017e-03    2,417294309e-02    0,000000000e+00    0,000000000e+00    0,000000000e+00    0,000000000e+00
     1262000000    2,143564820e-01    1,059089005e-01    6,515677553e-03    3,472100198e-02    0,000000000e+00    0,000000000e+00    0,000000000e+00    0,000000000e+00
     1276000000    2,363421321e-01   -6,054351851e-02    2,782241814e-02    3,167282790e-02    0,000000000e+00    0,000000000e+00    0,000000000e+00    0,000000000e+00
     1290000000    1,957119256e-01   -2,164639235e-01    5,809942633e-02    2,625363879e-02    0,000000000e+00    0,000000000e+00    0,000000000e+00    0,000000000e+00
     1304000000    8,027449995e-02   -3,585373163e-01    7,414205372e-02    6,369333714e-03    0,000000000e+00    0,000000000e+00    0,000000000e+00    0,000000000e+00
     1318000000   -1,043015346e-01   -4,501772523e-01    8,313162625e-02   -1,791309193e-02    0,000000000e+00    0,000000000e+00    0,000000000e+00    0,000000000e+00
     1332000000   -3,559361696e-01   -4,339385033e-01    8,305710554e-02   -1,212356705e-02    0,000000000e+00    0,000000000e+00    0,000000000e+00    0,000000000e+00
     1346000000   -5,830094814e-01   -2,476152778e-01    1,203549430e-01   -8,603062481e-03    0,000000000e+00    0,000000000e+00    0,000000000e+00    0,000000000e+00
     1360000000   -6,519024372e-01    7,120355219e-02    1,433523297e-01   -1,792752929e-02    0,000000000e+00    0,000000000e+00    0,000000000e+00    0,000000000e+00
     1374000000   -4,921301007e-01    3,360665441e-01    1,648048311e-01   -4,665964097e-02    0,000000000e+00    0,000000000e+00    0,000000000e+00    0,000000000e+00
     1388000000   -2,492355555e-01    4,283320010e-01    1,613645852e-01   -7,864107192e-02    0,000000000e+00    0,000000000e+00    0,000000000e+00    0,000000000e+00
     1402000000   -4,472736642e-02    3,906859159e-01    1,397712082e-01   -9,526398778e-02    0,000000000e+00    0,000000000e+00    0,000000000e+00    0,000000000e+00
     1416000000    1,003938466e-01    2,849763632e-01    1,342115104e-01   -8,566674590e-02    0,000000000e+00    0,000000000e+00    0,000000000e+00    0,000000000e+00
     1430000000    1,892997622e-01    1,526252329e-01    1,124811545e-01   -5,074781924e-02    0,000000000e+00    0,000000000e+00    0,000000000e+00    0,000000000e+00
     1444000000    2,197855115e-01   -1,022617985e-02    1,232408360e-01   -1,749006100e-02    0,000000000e+00    0,000000000e+00    0,000000000e+00    0,000000000e+00
     1458000000    1,804832667e-01   -1,772547513e-01    1,499871910e-01    2,748749964e-02    0,000000000e+00    0,000000000e+00    0,000000000e+00    0,000000000e+00
     1472000000    6,978538632e-02   -3,481521904e-01    2,017170042e-01    6,576242298e-02    0,000000000e+00    0,000000000e+00    0,000000000e+00    0,000000000e+00
     1486000000   -1,315175444e-01   -4,611153901e-01    3,026917279e-01    9,613040835e-02    0,000000000e+00    0,000000000e+00    0,000000000e+00    0,000000000e+00
     1500000000   -4,340832531e-01   -4,779503345e-01    4,148836732e-01    4,721706361e-02    0,000000000e+00    0,000000000e+00    0,000000000e+00    0,000000000e+00
