! NanoVNA-App
! Date: 2025-09-25 16:01:14
! Start: 100MHz Stop: 1,5GHz Points: 101
! S-Parameter data: F S11 S21 S12 S22
# Hz S RI R 50
!     Frequency           S11_Real           S11_Imag           S21_Real           S21_Imag           S12_Real           S12_Imag           S22_Real           S22_Imag
      100000000   -2,828749642e-02   -2,876685001e-03    3,723455071e-01   -7,223871946e-01    0,000000000e+00    0,000000000e+00    0,000000000e+00    0,000000000e+00
      114000000   -1,573400944e-02    1,290097367e-02   -9,129922837e-02   -8,046954274e-01    0,000000000e+00    0,000000000e+00    0,000000000e+00    0,000000000e+00
      128000000    4,358691629e-03    1,198993716e-02   -5,158849359e-01   -6,186913848e-01    0,000000000e+00    0,000000000e+00    0,000000000e+00    0,000000000e+00
      142000000    1,548677869e-02   -1,725670299e-03   -7,673788667e-01   -2,341505438e-01    0,000000000e+00    0,000000000e+00    0,000000000e+00    0,000000000e+00
      156000000    1,734308712e-02   -1,380657498e-02   -7,668917179e-01    2,269050330e-01    0,000000000e+00    0,000000000e+00    0,000000000e+00    0,000000000e+00
      170000000    1,769013889e-02   -2,095188387e-02   -5,153927207e-01    6,059793234e-01    0,000000000e+00    0,000000000e+00    0,000000000e+00    0,000000000e+00
      184000000    2,202699706e-02   -3,549930826e-02   -9,837854654e-02    7,860530019e-01    0,000000000e+00    0,000000000e+00    0,000000000e+00    0,000000000e+00
      198000000    1,407110970e-02   -6,068516523e-02    3,462235630e-01    7,108407617e-01    0,000000000e+00    0,000000000e+00    0,000000000e+00    0,000000000e+00
      212000000   -1,766146719e-02   -7,916378230e-02    6,806889176e-01    4,062635601e-01    0,000000000e+00    0,000000000e+00    0,000000000e+00    0,000000000e+00
      226000000   -6,029929221e-02   -6,670030951e-02    7,957316041e-01   -3,556658700e-02    0,000000000e+00    0,000000000e+00    0,000000000e+00    0,000000000e+00
      240000000   -8,057864755e-02   -2,274138853e-02    6,417945027e-01   -4,717426300e-01    0,000000000e+00    0,000000000e+00    0,000000000e+00    0,000000000e+00
      254000000   -6,082176790e-02    1,978679933e-02    2,711391747e-01   -7,420010567e-01    0,000000000e+00    0,000000000e+00    0,000000000e+00    0,000000000e+00
      268000000   -2,096879669e-02    3,094739281e-02   -1,813133955e-01   -7,606456876e-01    0,000000000e+00    0,000000000e+00    0,000000000e+00    0,000000000e+00
      282000000    6,920133717e-03    1,371696871e-02   -5,632042289e-01   -5,323017240e-01    0,000000000e+00    0,000000000e+00    0,000000000e+00    0,000000000e+00
      296000000    1,228162181e-02   -6,357114762e-03   -7,605682611e-01   -1,342675537e-01    0,000000000e+00    0,000000000e+00    0,000000000e+00    0,000000000e+00
      310000000    1,343774237e-02   -1,435684972e-02   -7,097736001e-01    3,050865829e-01    0,000000000e+00    0,000000000e+00    0,000000000e+00    0,000000000e+00
      324000000    2,258403413e-02   -2,480293810e-02   -4,212061465e-01    6,396902800e-01    0,000000000e+00    0,000000000e+00    0,000000000e+00    0,000000000e+00
      338000000    2,861619927e-02   -5,062934384e-02   -2,758296207e-03    7,577772141e-01    0,000000000e+00    0,000000000e+00    0,000000000e+00    0,000000000e+00
      352000000    1,019943133e-02   -8,263414353e-02    4,108768404e-01    6,358459592e-01    0,000000000e+00    0,000000000e+00    0,000000000e+00    0,000000000e+00
      366000000   -3,179745004e-02   -9,400491416e-02    6,935556531e-01    3,036399186e-01    0,000000000e+00    0,000000000e+00    0,000000000e+00    0,000000000e+00
      380000000   -6,745134294e-02   -6,887830794e-02    7,465311289e-01   -1,349264234e-01    0,000000000e+00    0,000000000e+00    0,000000000e+00    0,000000000e+00
      394000000   -6,836838275e-02   -3,066940419e-02    5,401751399e-01   -5,280170441e-01    0,000000000e+00    0,000000000e+00    0,000000000e+00    0,000000000e+00
      408000000   -4,262876883e-02   -1,537204161e-02    1,494081020e-01   -7,334230542e-01    0,000000000e+00    0,000000000e+00    0,000000000e+00    0,000000000e+00
      422000000   -2,608216554e-02   -3,133985028e-02   -2,791823447e-01   -6,901314259e-01    0,000000000e+00    0,000000000e+00    0,000000000e+00    0,000000000e+00
      436000000   -3,930838779e-02   -4,897167161e-02   -6,111109257e-01   -4,195341170e-01    0,000000000e+00    0,000000000e+00    0,000000000e+00    0,000000000e+00
      450000000   -6,472121924e-02   -3,926857933e-02   -7,368981838e-01   -7,543074898e-03    0,000000000e+00    0,000000000e+00    0,000000000e+00    0,000000000e+00
      464000000   -6,779313833e-02   -6,478812080e-03   -6,077591181e-01    4,061391354e-01    0,000000000e+00    0,000000000e+00    0,000000000e+00    0,000000000e+00
      478000000   -3,887197003e-02    1,595528796e-02   -2,685528994e-01    6,692425013e-01    0,000000000e+00    0,000000000e+00    0,000000000e+00    0,000000000e+00
      492000000   -5,021106917e-03    6,316093262e-03    1,515994221e-01    6,951624155e-01    0,000000000e+00    0,000000000e+00    0,000000000e+00    0,000000000e+00
      506000000    7,131565362e-03   -2,049647830e-02    5,079921484e-01    4,886282086e-01    0,000000000e+00    0,000000000e+00    0,000000000e+00    0,000000000e+00
      520000000    8,955008816e-04   -3,848540783e-02    6,883694530e-01    1,219689772e-01    0,000000000e+00    0,000000000e+00    0,000000000e+00    0,000000000e+00
      534000000   -2,802817384e-03   -4,569554701e-02    6,330261230e-01   -2,822801471e-01    0,000000000e+00    0,000000000e+00    0,000000000e+00    0,000000000e+00
      548000000    1,324218698e-03   -5,926229060e-02    3,605692685e-01   -5,788295865e-01    0,000000000e+00    0,000000000e+00    0,000000000e+00    0,000000000e+00
      562000000   -7,894214243e-03   -8,864558488e-02   -2,785017900e-02   -6,726261377e-01    0,000000000e+00    0,000000000e+00    0,000000000e+00    0,000000000e+00
      576000000   -4,549252242e-02   -1,094050631e-01   -4,011062980e-01   -5,388884544e-01    0,000000000e+00    0,000000000e+00    0,000000000e+00    0,000000000e+00
      590000000   -9,510380030e-02   -9,343250841e-02   -6,404331923e-01   -2,196228504e-01    0,000000000e+00    0,000000000e+00    0,000000000e+00    0,000000000e+00
      604000000   -1,118922606e-01   -4,097010940e-02   -6,478520632e-01    1,986974627e-01    0,000000000e+00    0,000000000e+00    0,000000000e+00    0,000000000e+00
      618000000   -7,610280067e-02   -1,897371258e-03   -4,018779993e-01    5,358043909e-01    0,000000000e+00    0,000000000e+00    0,000000000e+00    0,000000000e+00
      632000000   -3,049598634e-02   -2,115910128e-02   -1,268067304e-02    6,548458934e-01    0,000000000e+00    0,000000000e+00    0,000000000e+00    0,000000000e+00
      646000000   -3,577785194e-02   -7,642571628e-02    3,665607572e-01    5,276036263e-01    0,000000000e+00    0,000000000e+00    0,000000000e+00    0,000000000e+00
      660000000   -1,119854972e-01   -1,001214907e-01    6,006120443e-01    1,934484243e-01    0,000000000e+00    0,000000000e+00    0,000000000e+00    0,000000000e+00
      674000000   -1,993245929e-01   -2,297895402e-02    5,656410456e-01   -2,396843880e-01    0,000000000e+00    0,000000000e+00    0,000000000e+00    0,000000000e+00
      688000000   -1,782751381e-01    1,438641846e-01    2,097164541e-01   -5,222142339e-01    0,000000000e+00    0,000000000e+00    0,000000000e+00    0,000000000e+00
      702000000    2,404607274e-02    2,471175641e-01   -2,025495172e-01   -4,056179225e-01    0,000000000e+00    0,000000000e+00    0,000000000e+00    0,000000000e+00
      716000000    2,638226748e-01    1,109530330e-01   -2,733914852e-01   -8,375580609e-02    0,000000000e+00    0,000000000e+00    0,000000000e+00    0,000000000e+00
      730000000    3,034826517e-01   -1,860812306e-01   -1,072445810e-01    3,234604374e-02    0,000000000e+00    0,000000000e+00    0,000000000e+00    0,000000000e+00
      744000000    9,365044534e-02   -4,267599881e-01   -4,228068516e-02   -6,468287855e-02    0,000000000e+00    0,000000000e+00    0,000000000e+00    0,000000000e+00
      758000000   -2,600578964e-01   -4,297688901e-01   -1,750651598e-01   -1,255590767e-01    0,000000000e+00    0,000000000e+00    0,000000000e+00    0,000000000e+00
      772000000   -4,841067791e-01   -1,195265055e-01   -3,360109627e-01    3,763592988e-02    0,000000000e+00    0,000000000e+00    0,000000000e+00    0,000000000e+00
      786000000   -3,412742317e-01    2,223424911e-01   -2,627040744e-01    3,163878918e-01    0,000000000e+00    0,000000000e+00    0,000000000e+00    0,000000000e+00
      800000000   -4,088691622e-02    2,759867609e-01    2,449387684e-03    4,365501106e-01    0,000000000e+00    0,000000000e+00    0,000000000e+00    0,000000000e+00
      814000000    1,441831440e-01    1,253542155e-01    2,644439638e-01    3,588606119e-01    0,000000000e+00    0,000000000e+00    0,000000000e+00    0,000000000e+00
      828000000    1,683163196e-01   -7,018785924e-02    4,328573644e-01    1,568010002e-01    0,000000000e+00    0,000000000e+00    0,000000000e+00    0,000000000e+00
      842000000    6,730096042e-02   -2,179354727e-01    4,666410089e-01   -1,197669655e-01    0,000000000e+00    0,000000000e+00    0,000000000e+00    0,000000000e+00
      856000000   -1,061718613e-01   -2,639108896e-01    3,202338815e-01   -3,947568238e-01    0,000000000e+00    0,000000000e+00    0,000000000e+00    0,000000000e+00
      870000000   -2,750321925e-01   -1,681633145e-01   -3,869781736e-03   -5,271599293e-01    0,000000000e+00    0,000000000e+00    0,000000000e+00    0,000000000e+00
      884000000   -3,210216463e-01    3,519069031e-02   -3,490011394e-01   -3,933117688e-01    0,000000000e+00    0,000000000e+00    0,000000000e+00    0,000000000e+00
      898000000   -1,923116446e-01    2,073019892e-01   -4,890479743e-01   -6,202546507e-02    0,000000000e+00    0,000000000e+00    0,000000000e+00    0,000000000e+00
      912000000    7,029653061e-03    2,198676914e-01   -4,079931080e-01    2,785696089e-01    0,000000000e+00    0,000000000e+00    0,000000000e+00    0,000000000e+00
      926000000    1,495644897e-01    1,131794229e-01   -1,703080833e-01    4,162120223e-01    0,000000000e+00    0,000000000e+00    0,000000000e+00    0,000000000e+00
      940000000    1,967069358e-01   -4,617899656e-02    6,295631826e-02    4,234644175e-01    0,000000000e+00    0,000000000e+00    0,000000000e+00    0,000000000e+00
      954000000    1,546736211e-01   -2,006610930e-01    2,610503733e-01    3,405612111e-01    0,000000000e+00    0,000000000e+00    0,000000000e+00    0,000000000e+00
      968000000    2,408508211e-02   -3,119995892e-01    4,107341468e-01    1,797262430e-01    0,000000000e+00    0,000000000e+00    0,000000000e+00    0,000000000e+00
      982000000   -1,616976112e-01   -3,289158344e-01    4,742427468e-01   -6,688480824e-02    0,000000000e+00    0,000000000e+00    0,000000000e+00    0,000000000e+00
      996000000   -3,223981261e-01   -2,107146978e-01    3,672918677e-01   -3,570798039e-01    0,000000000e+00    0,000000000e+00    0,000000000e+00    0,000000000e+00
     1010000000   -3,445197344e-01   -8,264915086e-03    4,347460717e-02   -5,234118104e-01    0,000000000e+00    0,000000000e+00    0,000000000e+00    0,000000000e+00
     1024000000   -2,066640705e-01    8,918657899e-02   -3,454707861e-01   -3,810609579e-01    0,000000000e+00    0,000000000e+00    0,000000000e+00    0,000000000e+00
     1038000000   -1,338818669e-01    7,742963266e-03   -4,825387895e-01    6,467736512e-02    0,000000000e+00    0,000000000e+00    0,000000000e+00    0,000000000e+00
     1052000000   -2,901459336e-01    5,425973237e-02   -9,585332870e-02    3,720394969e-01    0,000000000e+00    0,000000000e+00    0,000000000e+00    0,000000000e+00
     1066000000   -1,490440667e-01    2,925826311e-01    1,404558867e-01    1,320749968e-01    0,000000000e+00    0,000000000e+00    0,000000000e+00    0,000000000e+00
     1080000000    1,022264287e-01    2,454479784e-01    8,871762455e-02    2,206888981e-02    0,000000000e+00    0,000000000e+00    0,000000000e+00    0,000000000e+00
     1094000000    2,235918343e-01    8,691021055e-02    6,727536768e-02    9,717310779e-03    0,000000000e+00    0,000000000e+00    0,000000000e+00    0,000000000e+00
     1108000000    2,397126108e-01   -8,853617311e-02    8,087953925e-02    1,212077914e-03    0,000000000e+00    0,000000000e+00    0,000000000e+00    0,000000000e+00
     1122000000    1,864187866e-01   -2,498169541e-01    1,043866053e-01   -2,416779473e-02    0,000000000e+00    0,000000000e+00    0,000000000e+00    0,000000000e+00
     1136000000    4,889890924e-02   -3,806722462e-01    1,263414472e-01   -7,263612747e-02    0,000000000e+00    0,000000000e+00    0,000000000e+00    0,000000000e+00
     1150000000   -1,550992578e-01   -4,250050485e-01    1,359327137e-01   -1,502039433e-01    0,000000000e+00    0,000000000e+00    0,000000000e+00    0,000000000e+00
     1164000000   -3,754890859e-01   -3,237297535e-01    9,800825268e-02   -2,784106731e-01    0,000000000e+00    0,000000000e+00    0,000000000e+00    0,000000000e+00
     1178000000   -4,665065408e-01   -8,769313991e-02   -1,082068160e-01   -4,038864672e-01    0,000000000e+00    0,000000000e+00    0,000000000e+00    0,000000000e+00
     1192000000   -3,741322756e-01    4,103663564e-02   -4,655555487e-01   -1,954335719e-01    0,000000000e+00    0,000000000e+00    0,000000000e+00    0,000000000e+00
     1206000000   -4,185090661e-01    1,339552402e-01   -2,783671618e-01    2,402085662e-01    0,000000000e+00    0,000000000e+00    0,000000000e+00    0,000000000e+00
     1220000000   -2,712334096e-01    3,279197812e-01    1,150882599e-04    1,626780778e-01    0,000000000e+00    0,000000000e+00    0,000000000e+00    0,000000000e+00
     1234000000   -4,613297060e-02    3,507084846e-01    2,624682337e-02    5,932435393e-02    0,000000000e+00    0,000000000e+00    0,000000000e+00    0,000000000e+00
     1248000000    1,212639138e-01    2,547846138e-01    3,646986559e-03    2,362218872e-02    0,000000000e+00    0,000000000e+00    0,000000000e+00    0,000000000e+00
     1262000000    2,095471025e-01    1,031758264e-01    5,093555665e-04    2,981903031e-02    0,000000000e+00    0,000000000e+00    0,000000000e+00    0,000000000e+00
     1276000000    2,338960320e-01   -5,946995318e-02    2,145747095e-02    3,205326945e-02    0,000000000e+00    0,000000000e+00    0,000000000e+00    0,000000000e+00
     1290000000    1,942975521e-01   -2,137033641e-01    5,242227390e-02    2,325141244e-02    0,000000000e+00    0,000000000e+00    0,000000000e+00    0,000000000e+00
     1304000000    7,929306477e-02   -3,549794853e-01    7,342558354e-02    1,027356740e-02    0,000000000e+00    0,000000000e+00    0,000000000e+00    0,000000000e+00
     1318000000   -1,015990600e-01   -4,436323047e-01    8,533414453e-02   -1,160402410e-02    0,000000000e+00    0,000000000e+00    0,000000000e+00    0,000000000e+00
     1332000000   -3,555502892e-01   -4,384307861e-01    8,586370945e-02   -1,739303209e-02    0,000000000e+00    0,000000000e+00    0,000000000e+00    0,000000000e+00
     1346000000   -5,918706656e-01   -2,512461841e-01    1,060970053e-01   -8,334006183e-03    0,000000000e+00    0,000000000e+00    0,000000000e+00    0,000000000e+00
     1360000000   -6,467795372e-01    7,060986757e-02    1,477950960e-01   -1,838833094e-02    0,000000000e+00    0,000000000e+00    0,000000000e+00    0,000000000e+00
     1374000000   -4,856874645e-01    3,333932161e-01    1,674193144e-01   -4,805186763e-02    0,000000000e+00    0,000000000e+00    0,000000000e+00    0,000000000e+00
     1388000000   -2,527712286e-01    4,293863177e-01    1,638045609e-01   -8,318052441e-02    0,000000000e+00    0,000000000e+00    0,000000000e+00    0,000000000e+00
     1402000000   -4,553529248e-02    3,966394067e-01    1,425351053e-01   -9,310866892e-02    0,000000000e+00    0,000000000e+00    0,000000000e+00    0,000000000e+00
     1416000000    1,018057615e-01    2,838285565e-01    1,278441846e-01   -8,401855081e-02    0,000000000e+00    0,000000000e+00    0,000000000e+00    0,000000000e+00
     1430000000    1,864149123e-01    1,522134542e-01    1,233265847e-01   -6,443113834e-02    0,000000000e+00    0,000000000e+00    0,000000000e+00    0,000000000e+00
     1444000000    2,175751626e-01   -1,172052976e-02    1,238335669e-01   -2,569920756e-02    0,000000000e+00    0,000000000e+00    0,000000000e+00    0,000000000e+00
     1458000000    1,824560314e-01   -1,863916963e-01    1,381025910e-01    1,565984264e-02    0,000000000e+00    0,000000000e+00    0,000000000e+00    0,000000000e+00
     1472000000    7,379557937e-02   -3,411629796e-01    2,012964040e-01    6,911098212e-02    0,000000000e+00    0,000000000e+00    0,000000000e+00    0,000000000e+00
     1486000000   -1,355182827e-01   -4,761869907e-01    2,887440622e-01    7,992797345e-02    0,000000000e+00    0,000000000e+00    0,000000000e+00    0,000000000e+00
     1500000000   -4,482342601e-01   -4,792921543e-01    3,924450576e-01    6,368800253e-02    0,000000000e+00    0,000000000e+00    0,000000000e+00    0,000000000e+00
