! NanoVNA-App
! Date: 2025-09-25 16:00:17
! Start: 100MHz Stop: 1,5GHz Points: 101
! S-Parameter data: F S11 S21 S12 S22
# Hz S RI R 50
!     Frequency           S11_Real           S11_Imag           S21_Real           S21_Imag           S12_Real           S12_Imag           S22_Real           S22_Imag
      100000000   -2,827805839e-02   -2,861558925e-03    3,723385930e-01   -7,223994136e-01    0,000000000e+00    0,000000000e+00    0,000000000e+00    0,000000000e+00
      114000000   -1,570468582e-02    1,290661748e-02   -9,135386348e-02   -8,047320247e-01    0,000000000e+00    0,000000000e+00    0,000000000e+00    0,000000000e+00
      128000000    4,352511838e-03    1,187817845e-02   -5,159038901e-01   -6,187265515e-01    0,000000000e+00    0,000000000e+00    0,000000000e+00    0,000000000e+00
      142000000    1,549389493e-02   -1,734967576e-03   -7,671710849e-01   -2,340010703e-01    0,000000000e+00    0,000000000e+00    0,000000000e+00    0,000000000e+00
      156000000    1,707408391e-02   -1,339844335e-02   -7,657022476e-01    2,262605578e-01    0,000000000e+00    0,000000000e+00    0,000000000e+00    0,000000000e+00
      170000000    1,761213690e-02   -2,099549584e-02   -5,155842900e-01    6,061713696e-01    0,000000000e+00    0,000000000e+00    0,000000000e+00    0,000000000e+00
      184000000    2,203406207e-02   -3,553552181e-02   -9,819586575e-02    7,857226729e-01    0,000000000e+00    0,000000000e+00    0,000000000e+00    0,000000000e+00
      198000000    1,401947904e-02   -6,064773351e-02    3,460740447e-01    7,108713388e-01    0,000000000e+00    0,000000000e+00    0,000000000e+00    0,000000000e+00
      212000000   -1,767201349e-02   -7,910262048e-02    6,807075739e-01    4,061695337e-01    0,000000000e+00    0,000000000e+00    0,000000000e+00    0,000000000e+00
      226000000   -6,029374897e-02   -6,660627574e-02    7,956888080e-01   -3,570207953e-02    0,000000000e+00    0,000000000e+00    0,000000000e+00    0,000000000e+00
      240000000   -8,055406809e-02   -2,270472795e-02    6,415198445e-01   -4,716878533e-01    0,000000000e+00    0,000000000e+00    0,000000000e+00    0,000000000e+00
      254000000   -6,076003611e-02    1,977912709e-02    2,708802521e-01   -7,418904305e-01    0,000000000e+00    0,000000000e+00    0,000000000e+00    0,000000000e+00
      268000000   -2,096863464e-02    3,088840097e-02   -1,810475290e-01   -7,610001564e-01    0,000000000e+00    0,000000000e+00    0,000000000e+00    0,000000000e+00
      282000000    6,900702603e-03    1,377196051e-02   -5,632221103e-01   -5,328099728e-01    0,000000000e+00    0,000000000e+00    0,000000000e+00    0,000000000e+00
      296000000    1,250185911e-02   -6,334543694e-03   -7,602759600e-01   -1,342578828e-01    0,000000000e+00    0,000000000e+00    0,000000000e+00    0,000000000e+00
      310000000    1,363099646e-02   -1,466047484e-02   -7,092047930e-01    3,036248386e-01    0,000000000e+00    0,000000000e+00    0,000000000e+00    0,000000000e+00
      324000000    2,254346944e-02   -2,496999502e-02   -4,214070141e-01    6,391233206e-01    0,000000000e+00    0,000000000e+00    0,000000000e+00    0,000000000e+00
      338000000    2,840848826e-02   -5,103063583e-02   -8,893770864e-04    7,616445422e-01    0,000000000e+00    0,000000000e+00    0,000000000e+00    0,000000000e+00
      352000000    1,014216244e-02   -8,294267952e-02    4,116389155e-01    6,346933842e-01    0,000000000e+00    0,000000000e+00    0,000000000e+00    0,000000000e+00
      366000000   -3,171265125e-02   -9,365630895e-02    6,933746338e-01    3,043891490e-01    0,000000000e+00    0,000000000e+00    0,000000000e+00    0,000000000e+00
      380000000   -6,766371429e-02   -6,872959435e-02    7,459442019e-01   -1,343772262e-01    0,000000000e+00    0,000000000e+00    0,000000000e+00    0,000000000e+00
      394000000   -6,850997359e-02   -3,049392439e-02    5,385169387e-01   -5,293956399e-01    0,000000000e+00    0,000000000e+00    0,000000000e+00    0,000000000e+00
      408000000   -4,287935048e-02   -1,562562212e-02    1,495073736e-01   -7,344468832e-01    0,000000000e+00    0,000000000e+00    0,000000000e+00    0,000000000e+00
      422000000   -2,610475942e-02   -3,134297952e-02   -2,787940204e-01   -6,897695065e-01    0,000000000e+00    0,000000000e+00    0,000000000e+00    0,000000000e+00
      436000000   -3,922946006e-02   -4,905698821e-02   -6,100677848e-01   -4,200454056e-01    0,000000000e+00    0,000000000e+00    0,000000000e+00    0,000000000e+00
      450000000   -6,473684311e-02   -3,922330216e-02   -7,369434237e-01   -8,080910891e-03    0,000000000e+00    0,000000000e+00    0,000000000e+00    0,000000000e+00
      464000000   -6,743334234e-02   -6,197508425e-03   -6,076407433e-01    4,060191512e-01    0,000000000e+00    0,000000000e+00    0,000000000e+00    0,000000000e+00
      478000000   -3,837564588e-02    1,596426405e-02   -2,673931122e-01    6,699588895e-01    0,000000000e+00    0,000000000e+00    0,000000000e+00    0,000000000e+00
      492000000   -5,407298449e-03    6,394424010e-03    1,520422399e-01    6,947905421e-01    0,000000000e+00    0,000000000e+00    0,000000000e+00    0,000000000e+00
      506000000    6,728708744e-03   -2,021702938e-02    5,084158182e-01    4,888315499e-01    0,000000000e+00    0,000000000e+00    0,000000000e+00    0,000000000e+00
      520000000    9,395956295e-04   -3,837175295e-02    6,898338199e-01    1,218419373e-01    0,000000000e+00    0,000000000e+00    0,000000000e+00    0,000000000e+00
      534000000   -3,104934702e-03   -4,581978545e-02    6,325170994e-01   -2,821274102e-01    0,000000000e+00    0,000000000e+00    0,000000000e+00    0,000000000e+00
      548000000    1,216764329e-03   -5,974661186e-02    3,602167964e-01   -5,796418786e-01    0,000000000e+00    0,000000000e+00    0,000000000e+00    0,000000000e+00
      562000000   -8,005615324e-03   -8,830148727e-02   -2,731598169e-02   -6,721547246e-01    0,000000000e+00    0,000000000e+00    0,000000000e+00    0,000000000e+00
      576000000   -4,518105462e-02   -1,095855683e-01   -4,006251693e-01   -5,379554033e-01    0,000000000e+00    0,000000000e+00    0,000000000e+00    0,000000000e+00
      590000000   -9,476308525e-02   -9,340619296e-02   -6,415241361e-01   -2,163270563e-01    0,000000000e+00    0,000000000e+00    0,000000000e+00    0,000000000e+00
      604000000   -1,119351238e-01   -4,109446332e-02   -6,477484107e-01    1,987681985e-01    0,000000000e+00    0,000000000e+00    0,000000000e+00    0,000000000e+00
      618000000   -7,498350739e-02   -2,182518598e-03   -4,016391337e-01    5,363844037e-01    0,000000000e+00    0,000000000e+00    0,000000000e+00    0,000000000e+00
      632000000   -2,947961167e-02   -2,097870223e-02   -1,193248108e-02    6,554718018e-01    0,000000000e+00    0,000000000e+00    0,000000000e+00    0,000000000e+00
      646000000   -3,648836538e-02   -7,742044330e-02    3,668526411e-01    5,277202725e-01    0,000000000e+00    0,000000000e+00    0,000000000e+00    0,000000000e+00
      660000000   -1,116019711e-01   -1,005480811e-01    6,014959812e-01    1,934538335e-01    0,000000000e+00    0,000000000e+00    0,000000000e+00    0,000000000e+00
      674000000   -1,996663958e-01   -2,439531125e-02    5,649538040e-01   -2,405987084e-01    0,000000000e+00    0,000000000e+00    0,000000000e+00    0,000000000e+00
      688000000   -1,796081811e-01    1,451280862e-01    2,087654620e-01   -5,222972035e-01    0,000000000e+00    0,000000000e+00    0,000000000e+00    0,000000000e+00
      702000000    2,649523690e-02    2,475782037e-01   -2,019382715e-01   -4,012843668e-01    0,000000000e+00    0,000000000e+00    0,000000000e+00    0,000000000e+00
      716000000    2,633486092e-01    1,104275137e-01   -2,726388574e-01   -8,318976313e-02    0,000000000e+00    0,000000000e+00    0,000000000e+00    0,000000000e+00
      730000000    3,027300537e-01   -1,867972463e-01   -1,067793220e-01    3,168932721e-02    0,000000000e+00    0,000000000e+00    0,000000000e+00    0,000000000e+00
      744000000    9,279546142e-02   -4,277637005e-01   -4,216282442e-02   -6,539724022e-02    0,000000000e+00    0,000000000e+00    0,000000000e+00    0,000000000e+00
      758000000   -2,595272362e-01   -4,303090274e-01   -1,759354770e-01   -1,255136877e-01    0,000000000e+00    0,000000000e+00    0,000000000e+00    0,000000000e+00
      772000000   -4,848240614e-01   -1,203537434e-01   -3,368742466e-01    3,876213357e-02    0,000000000e+00    0,000000000e+00    0,000000000e+00    0,000000000e+00
      786000000   -3,407751322e-01    2,219577432e-01   -2,631941140e-01    3,165731430e-01    0,000000000e+00    0,000000000e+00    0,000000000e+00    0,000000000e+00
      800000000   -4,090458527e-02    2,762411833e-01    4,000663292e-03    4,362366199e-01    0,000000000e+00    0,000000000e+00    0,000000000e+00    0,000000000e+00
      814000000    1,446296126e-01    1,251419038e-01    2,647805214e-01    3,602427542e-01    0,000000000e+00    0,000000000e+00    0,000000000e+00    0,000000000e+00
      828000000    1,676106304e-01   -7,066263258e-02    4,334371686e-01    1,563967317e-01    0,000000000e+00    0,000000000e+00    0,000000000e+00    0,000000000e+00
      842000000    6,781596690e-02   -2,185218632e-01    4,669641554e-01   -1,200992912e-01    0,000000000e+00    0,000000000e+00    0,000000000e+00    0,000000000e+00
      856000000   -1,065830439e-01   -2,632174790e-01    3,198570013e-01   -3,956180811e-01    0,000000000e+00    0,000000000e+00    0,000000000e+00    0,000000000e+00
      870000000   -2,749978304e-01   -1,684162319e-01   -3,014339600e-03   -5,265216827e-01    0,000000000e+00    0,000000000e+00    0,000000000e+00    0,000000000e+00
      884000000   -3,205165267e-01    3,482900560e-02   -3,480792642e-01   -3,921291530e-01    0,000000000e+00    0,000000000e+00    0,000000000e+00    0,000000000e+00
      898000000   -1,926379502e-01    2,064826787e-01   -4,897153080e-01   -6,215658784e-02    0,000000000e+00    0,000000000e+00    0,000000000e+00    0,000000000e+00
      912000000    6,791377906e-03    2,192567587e-01   -4,058443308e-01    2,796106040e-01    0,000000000e+00    0,000000000e+00    0,000000000e+00    0,000000000e+00
      926000000    1,493495554e-01    1,121782362e-01   -1,707119048e-01    4,155136645e-01    0,000000000e+00    0,000000000e+00    0,000000000e+00    0,000000000e+00
      940000000    1,994580030e-01   -4,344726354e-02    6,298727542e-02    4,241636097e-01    0,000000000e+00    0,000000000e+00    0,000000000e+00    0,000000000e+00
      954000000    1,530130506e-01   -2,006836236e-01    2,600239217e-01    3,415409625e-01    0,000000000e+00    0,000000000e+00    0,000000000e+00    0,000000000e+00
      968000000    2,624458075e-02   -3,155353069e-01    4,114603996e-01    1,773141026e-01    0,000000000e+00    0,000000000e+00    0,000000000e+00    0,000000000e+00
      982000000   -1,594987363e-01   -3,316524625e-01    4,752809703e-01   -6,628051400e-02    0,000000000e+00    0,000000000e+00    0,000000000e+00    0,000000000e+00
      996000000   -3,251195848e-01   -2,124291807e-01    3,671083152e-01   -3,573345542e-01    0,000000000e+00    0,000000000e+00    0,000000000e+00    0,000000000e+00
     1010000000   -3,396123648e-01   -9,007797576e-03    4,098333046e-02   -5,256671906e-01    0,000000000e+00    0,000000000e+00    0,000000000e+00    0,000000000e+00
     1024000000   -2,028078735e-01    9,150080383e-02   -3,465487063e-01   -3,789238930e-01    0,000000000e+00    0,000000000e+00    0,000000000e+00    0,000000000e+00
     1038000000   -1,324373186e-01    1,026574243e-02   -4,816338420e-01    6,468037516e-02    0,000000000e+00    0,000000000e+00    0,000000000e+00    0,000000000e+00
     1052000000   -2,852559686e-01    5,660420656e-02   -9,344615787e-02    3,698723316e-01    0,000000000e+00    0,000000000e+00    0,000000000e+00    0,000000000e+00
     1066000000   -1,469717026e-01    2,939600945e-01    1,417780370e-01    1,330955476e-01    0,000000000e+00    0,000000000e+00    0,000000000e+00    0,000000000e+00
     1080000000    1,028780490e-01    2,467224002e-01    8,951440454e-02    2,090971172e-02    0,000000000e+00    0,000000000e+00    0,000000000e+00    0,000000000e+00
     1094000000    2,186642885e-01    8,897228539e-02    6,968037039e-02    1,002091169e-02    0,000000000e+00    0,000000000e+00    0,000000000e+00    0,000000000e+00
     1108000000    2,390086204e-01   -8,666641265e-02    8,197022229e-02    6,755053764e-04    0,000000000e+00    0,000000000e+00    0,000000000e+00    0,000000000e+00
     1122000000    1,823346615e-01   -2,535348833e-01    1,036965027e-01   -2,477628924e-02    0,000000000e+00    0,000000000e+00    0,000000000e+00    0,000000000e+00
     1136000000    5,013639480e-02   -3,804307580e-01    1,273932755e-01   -7,362060994e-02    0,000000000e+00    0,000000000e+00    0,000000000e+00    0,000000000e+00
     1150000000   -1,537666321e-01   -4,233569503e-01    1,355832368e-01   -1,503217965e-01    0,000000000e+00    0,000000000e+00    0,000000000e+00    0,000000000e+00
     1164000000   -3,808876872e-01   -3,214590847e-01    9,904249012e-02   -2,772684097e-01    0,000000000e+00    0,000000000e+00    0,000000000e+00    0,000000000e+00
     1178000000   -4,675314724e-01   -8,624318987e-02   -1,052982584e-01   -4,061419368e-01    0,000000000e+00    0,000000000e+00    0,000000000e+00    0,000000000e+00
     1192000000   -3,711655140e-01    4,224642739e-02   -4,653458893e-01   -1,939240247e-01    0,000000000e+00    0,000000000e+00    0,000000000e+00    0,000000000e+00
     1206000000   -4,164794981e-01    1,373045594e-01   -2,743150890e-01    2,387436181e-01    0,000000000e+00    0,000000000e+00    0,000000000e+00    0,000000000e+00
     1220000000   -2,779790163e-01    3,350504637e-01   -1,714889426e-03    1,641169488e-01    0,000000000e+00    0,000000000e+00    0,000000000e+00    0,000000000e+00
     1234000000   -5,013336614e-02    3,516499400e-01    2,149355225e-02    5,607765540e-02    0,000000000e+00    0,000000000e+00    0,000000000e+00    0,000000000e+00
     1248000000    1,193462238e-01    2,494641095e-01   -3,496212303e-04    2,497638017e-02    0,000000000e+00    0,000000000e+00    0,000000000e+00    0,000000000e+00
     1262000000    2,144795507e-01    9,888269752e-02    5,078266840e-03    2,649504319e-02    0,000000000e+00    0,000000000e+00    0,000000000e+00    0,000000000e+00
     1276000000    2,381877899e-01   -5,770174414e-02    2,931701764e-02    3,628781810e-02    0,000000000e+00    0,000000000e+00    0,000000000e+00    0,000000000e+00
     1290000000    1,930873543e-01   -2,172948569e-01    5,398711190e-02    2,324989252e-02    0,000000000e+00    0,000000000e+00    0,000000000e+00    0,000000000e+00
     1304000000    8,495829254e-02   -3,526802659e-01    7,792433351e-02    5,483260378e-03    0,000000000e+00    0,000000000e+00    0,000000000e+00    0,000000000e+00
     1318000000   -1,009780616e-01   -4,468348920e-01    8,985581249e-02   -1,488463301e-02    0,000000000e+00    0,000000000e+00    0,000000000e+00    0,000000000e+00
     1332000000   -3,566667140e-01   -4,305312932e-01    8,902394027e-02   -6,817293819e-03    0,000000000e+00    0,000000000e+00    0,000000000e+00    0,000000000e+00
     1346000000   -5,910949111e-01   -2,421322614e-01    1,131865084e-01   -6,856938708e-04    0,000000000e+00    0,000000000e+00    0,000000000e+00    0,000000000e+00
     1360000000   -6,507586837e-01    6,785793602e-02    1,438875347e-01   -1,935539208e-02    0,000000000e+00    0,000000000e+00    0,000000000e+00    0,000000000e+00
     1374000000   -4,871974289e-01    3,335001469e-01    1,728881598e-01   -5,316612124e-02    0,000000000e+00    0,000000000e+00    0,000000000e+00    0,000000000e+00
     1388000000   -2,499462664e-01    4,270974100e-01    1,718912423e-01   -8,716577291e-02    0,000000000e+00    0,000000000e+00    0,000000000e+00    0,000000000e+00
     1402000000   -4,191914946e-02    3,927060068e-01    1,445809603e-01   -8,904227614e-02    0,000000000e+00    0,000000000e+00    0,000000000e+00    0,000000000e+00
     1416000000    1,039594263e-01    2,838979959e-01    1,268023252e-01   -8,833651245e-02    0,000000000e+00    0,000000000e+00    0,000000000e+00    0,000000000e+00
     1430000000    1,925441027e-01    1,492422521e-01    1,141976267e-01   -4,737649858e-02    0,000000000e+00    0,000000000e+00    0,000000000e+00    0,000000000e+00
     1444000000    2,154853791e-01   -6,731622852e-03    1,257206500e-01   -1,555353589e-02    0,000000000e+00    0,000000000e+00    0,000000000e+00    0,000000000e+00
     1458000000    1,832010746e-01   -1,855325401e-01    1,462838948e-01    1,507947128e-02    0,000000000e+00    0,000000000e+00    0,000000000e+00    0,000000000e+00
     1472000000    7,761943340e-02   -3,481335640e-01    2,072329819e-01    5,620607734e-02    0,000000000e+00    0,000000000e+00    0,000000000e+00    0,000000000e+00
     1486000000   -1,482493877e-01   -4,844156802e-01    2,965578735e-01    8,477500081e-02    0,000000000e+00    0,000000000e+00    0,000000000e+00    0,000000000e+00
     1500000000   -4,487597346e-01   -4,712257981e-01    4,004451632e-01    6,974358112e-02    0,000000000e+00    0,000000000e+00    0,000000000e+00    0,000000000e+00
