! NanoVNA-App
! Date: 2025-09-25 15:57:11
! Start: 100MHz Stop: 1,5GHz Points: 101
! S-Parameter data: F S11 S21 S12 S22
# Hz S RI R 50
!     Frequency           S11_Real           S11_Imag           S21_Real           S21_Imag           S12_Real           S12_Imag           S22_Real           S22_Imag
      100000000   -2,821475454e-02   -2,831331454e-03    3,722570240e-01   -7,224519849e-01    0,000000000e+00    0,000000000e+00    0,000000000e+00    0,000000000e+00
      114000000   -1,562941447e-02    1,287674997e-02   -9,133478254e-02   -8,046755791e-01    0,000000000e+00    0,000000000e+00    0,000000000e+00    0,000000000e+00
      128000000    4,419692792e-03    1,191961393e-02   -5,160892606e-01   -6,188274026e-01    0,000000000e+00    0,000000000e+00    0,000000000e+00    0,000000000e+00
      142000000    1,549814083e-02   -1,800281112e-03   -7,674900293e-01   -2,341695577e-01    0,000000000e+00    0,000000000e+00    0,000000000e+00    0,000000000e+00
      156000000    1,533575170e-02   -1,300530229e-02   -7,641367316e-01    2,207250297e-01    0,000000000e+00    0,000000000e+00    0,000000000e+00    0,000000000e+00
      170000000    1,765671000e-02   -2,101071179e-02   -5,155036449e-01    6,064374447e-01    0,000000000e+00    0,000000000e+00    0,000000000e+00    0,000000000e+00
      184000000    2,197399177e-02   -3,558010980e-02   -9,840660542e-02    7,858739495e-01    0,000000000e+00    0,000000000e+00    0,000000000e+00    0,000000000e+00
      198000000    1,404448878e-02   -6,069521606e-02    3,458621502e-01    7,106899619e-01    0,000000000e+00    0,000000000e+00    0,000000000e+00    0,000000000e+00
      212000000   -1,772350445e-02   -7,915554941e-02    6,809674501e-01    4,063897431e-01    0,000000000e+00    0,000000000e+00    0,000000000e+00    0,000000000e+00
      226000000   -6,035350263e-02   -6,667253375e-02    7,957305312e-01   -3,551541641e-02    0,000000000e+00    0,000000000e+00    0,000000000e+00    0,000000000e+00
      240000000   -8,058619499e-02   -2,272584848e-02    6,416503787e-01   -4,717498720e-01    0,000000000e+00    0,000000000e+00    0,000000000e+00    0,000000000e+00
      254000000   -6,082330272e-02    1,973220520e-02    2,710594237e-01   -7,416172028e-01    0,000000000e+00    0,000000000e+00    0,000000000e+00    0,000000000e+00
      268000000   -2,092146873e-02    3,088831156e-02   -1,811721027e-01   -7,610682249e-01    0,000000000e+00    0,000000000e+00    0,000000000e+00    0,000000000e+00
      282000000    6,902107969e-03    1,372433361e-02   -5,633713603e-01   -5,326817632e-01    0,000000000e+00    0,000000000e+00    0,000000000e+00    0,000000000e+00
      296000000    1,232980564e-02   -6,220505573e-03   -7,603868246e-01   -1,344372481e-01    0,000000000e+00    0,000000000e+00    0,000000000e+00    0,000000000e+00
      310000000    1,334213652e-02   -1,461871527e-02   -7,098708153e-01    3,043999076e-01    0,000000000e+00    0,000000000e+00    0,000000000e+00    0,000000000e+00
      324000000    2,241607755e-02   -2,474418469e-02   -4,207153618e-01    6,389766932e-01    0,000000000e+00    0,000000000e+00    0,000000000e+00    0,000000000e+00
      338000000    2,837935090e-02   -5,095226318e-02   -3,193719778e-03    7,615231276e-01    0,000000000e+00    0,000000000e+00    0,000000000e+00    0,000000000e+00
      352000000    1,029693894e-02   -8,273754269e-02    4,118140936e-01    6,356452703e-01    0,000000000e+00    0,000000000e+00    0,000000000e+00    0,000000000e+00
      366000000   -3,169335797e-02   -9,398894012e-02    6,936075687e-01    3,039764762e-01    0,000000000e+00    0,000000000e+00    0,000000000e+00    0,000000000e+00
      380000000   -6,770073622e-02   -6,897589564e-02    7,462067604e-01   -1,345525384e-01    0,000000000e+00    0,000000000e+00    0,000000000e+00    0,000000000e+00
      394000000   -6,868868321e-02   -3,046690673e-02    5,393947959e-01   -5,283249021e-01    0,000000000e+00    0,000000000e+00    0,000000000e+00    0,000000000e+00
      408000000   -4,269048944e-02   -1,553720329e-02    1,494282633e-01   -7,340312600e-01    0,000000000e+00    0,000000000e+00    0,000000000e+00    0,000000000e+00
      422000000   -2,595821209e-02   -3,121501766e-02   -2,787570059e-01   -6,906959414e-01    0,000000000e+00    0,000000000e+00    0,000000000e+00    0,000000000e+00
      436000000   -3,936975449e-02   -4,892580211e-02   -6,107998490e-01   -4,195853174e-01    0,000000000e+00    0,000000000e+00    0,000000000e+00    0,000000000e+00
      450000000   -6,465128064e-02   -3,917290643e-02   -7,373309731e-01   -7,706148084e-03    0,000000000e+00    0,000000000e+00    0,000000000e+00    0,000000000e+00
      464000000   -6,744246930e-02   -6,057051476e-03   -6,078880429e-01    4,062544107e-01    0,000000000e+00    0,000000000e+00    0,000000000e+00    0,000000000e+00
      478000000   -3,879660368e-02    1,603687555e-02   -2,682501972e-01    6,703047156e-01    0,000000000e+00    0,000000000e+00    0,000000000e+00    0,000000000e+00
      492000000   -4,920491017e-03    6,225755438e-03    1,517781764e-01    6,944973469e-01    0,000000000e+00    0,000000000e+00    0,000000000e+00    0,000000000e+00
      506000000    6,976497825e-03   -2,013657428e-02    5,077647567e-01    4,885571599e-01    0,000000000e+00    0,000000000e+00    0,000000000e+00    0,000000000e+00
      520000000    3,725401184e-04   -3,867502511e-02    6,884483099e-01    1,229713783e-01    0,000000000e+00    0,000000000e+00    0,000000000e+00    0,000000000e+00
      534000000   -2,680097008e-03   -4,579383507e-02    6,333494782e-01   -2,816854119e-01    0,000000000e+00    0,000000000e+00    0,000000000e+00    0,000000000e+00
      548000000    5,460747052e-04   -5,942508206e-02    3,598557115e-01   -5,797061324e-01    0,000000000e+00    0,000000000e+00    0,000000000e+00    0,000000000e+00
      562000000   -8,039909415e-03   -8,855933696e-02   -2,679099515e-02   -6,724683642e-01    0,000000000e+00    0,000000000e+00    0,000000000e+00    0,000000000e+00
      576000000   -4,535431415e-02   -1,096457765e-01   -4,006890357e-01   -5,384243131e-01    0,000000000e+00    0,000000000e+00    0,000000000e+00    0,000000000e+00
      590000000   -9,462915361e-02   -9,342532605e-02   -6,414622664e-01   -2,193292528e-01    0,000000000e+00    0,000000000e+00    0,000000000e+00    0,000000000e+00
      604000000   -1,116093248e-01   -4,152191058e-02   -6,474189162e-01    1,977603883e-01    0,000000000e+00    0,000000000e+00    0,000000000e+00    0,000000000e+00
      618000000   -7,562236488e-02   -2,754814923e-03   -4,009226263e-01    5,353694558e-01    0,000000000e+00    0,000000000e+00    0,000000000e+00    0,000000000e+00
      632000000   -2,951716073e-02   -2,170383744e-02   -1,266607363e-02    6,555521488e-01    0,000000000e+00    0,000000000e+00    0,000000000e+00    0,000000000e+00
      646000000   -3,687487170e-02   -7,729844749e-02    3,647227287e-01    5,274628997e-01    0,000000000e+00    0,000000000e+00    0,000000000e+00    0,000000000e+00
      660000000   -1,123455465e-01   -1,003895923e-01    6,014985442e-01    1,935231835e-01    0,000000000e+00    0,000000000e+00    0,000000000e+00    0,000000000e+00
      674000000   -2,000513375e-01   -2,317493409e-02    5,649094582e-01   -2,399261892e-01    0,000000000e+00    0,000000000e+00    0,000000000e+00    0,000000000e+00
      688000000   -1,783838272e-01    1,446538717e-01    2,088137269e-01   -5,220404267e-01    0,000000000e+00    0,000000000e+00    0,000000000e+00    0,000000000e+00
      702000000    2,671882138e-02    2,487014979e-01   -2,019496113e-01   -4,022655785e-01    0,000000000e+00    0,000000000e+00    0,000000000e+00    0,000000000e+00
      716000000    2,642318606e-01    1,108066514e-01   -2,718652487e-01   -8,305177838e-02    0,000000000e+00    0,000000000e+00    0,000000000e+00    0,000000000e+00
      730000000    3,030944169e-01   -1,866568476e-01   -1,061045974e-01    3,128212690e-02    0,000000000e+00    0,000000000e+00    0,000000000e+00    0,000000000e+00
      744000000    9,257645905e-02   -4,281948209e-01   -4,199776426e-02   -6,628236920e-02    0,000000000e+00    0,000000000e+00    0,000000000e+00    0,000000000e+00
      758000000   -2,596527338e-01   -4,277753830e-01   -1,765192449e-01   -1,259689778e-01    0,000000000e+00    0,000000000e+00    0,000000000e+00    0,000000000e+00
      772000000   -4,853018224e-01   -1,182796955e-01   -3,366124034e-01    3,855682909e-02    0,000000000e+00    0,000000000e+00    0,000000000e+00    0,000000000e+00
      786000000   -3,403088748e-01    2,217633575e-01   -2,631687224e-01    3,171542287e-01    0,000000000e+00    0,000000000e+00    0,000000000e+00    0,000000000e+00
      800000000   -4,120653868e-02    2,753920555e-01    2,811697777e-03    4,366216660e-01    0,000000000e+00    0,000000000e+00    0,000000000e+00    0,000000000e+00
      814000000    1,442528814e-01    1,249051541e-01    2,640120387e-01    3,594239056e-01    0,000000000e+00    0,000000000e+00    0,000000000e+00    0,000000000e+00
      828000000    1,678780466e-01   -7,033301890e-02    4,331839681e-01    1,570572704e-01    0,000000000e+00    0,000000000e+00    0,000000000e+00    0,000000000e+00
      842000000    6,713692844e-02   -2,184485644e-01    4,667826295e-01   -1,201563850e-01    0,000000000e+00    0,000000000e+00    0,000000000e+00    0,000000000e+00
      856000000   -1,068140566e-01   -2,638821304e-01    3,204288781e-01   -3,958332837e-01    0,000000000e+00    0,000000000e+00    0,000000000e+00    0,000000000e+00
      870000000   -2,742326558e-01   -1,686610579e-01   -2,550454112e-03   -5,268644691e-01    0,000000000e+00    0,000000000e+00    0,000000000e+00    0,000000000e+00
      884000000   -3,206291497e-01    3,513598815e-02   -3,475475311e-01   -3,918224275e-01    0,000000000e+00    0,000000000e+00    0,000000000e+00    0,000000000e+00
      898000000   -1,917042285e-01    2,061360627e-01   -4,882319272e-01   -6,322606653e-02    0,000000000e+00    0,000000000e+00    0,000000000e+00    0,000000000e+00
      912000000    5,974998698e-03    2,196323127e-01   -4,100427628e-01    2,737711966e-01    0,000000000e+00    0,000000000e+00    0,000000000e+00    0,000000000e+00
      926000000    1,513080299e-01    1,136279702e-01   -1,681695431e-01    4,174130559e-01    0,000000000e+00    0,000000000e+00    0,000000000e+00    0,000000000e+00
      940000000    1,977106482e-01   -4,351711273e-02    6,209148839e-02    4,254013896e-01    0,000000000e+00    0,000000000e+00    0,000000000e+00    0,000000000e+00
      954000000    1,524011046e-01   -2,005871385e-01    2,609085739e-01    3,415802717e-01    0,000000000e+00    0,000000000e+00    0,000000000e+00    0,000000000e+00
      968000000    2,379021794e-02   -3,154045641e-01    4,105180800e-01    1,785614938e-01    0,000000000e+00    0,000000000e+00    0,000000000e+00    0,000000000e+00
      982000000   -1,627777517e-01   -3,288527727e-01    4,748313427e-01   -6,672631949e-02    0,000000000e+00    0,000000000e+00    0,000000000e+00    0,000000000e+00
      996000000   -3,264580667e-01   -2,083273530e-01    3,690454066e-01   -3,567415476e-01    0,000000000e+00    0,000000000e+00    0,000000000e+00    0,000000000e+00
     1010000000   -3,444280028e-01   -7,315933704e-03    4,260914773e-02   -5,233318806e-01    0,000000000e+00    0,000000000e+00    0,000000000e+00    0,000000000e+00
     1024000000   -2,027527690e-01    9,295051545e-02   -3,443101048e-01   -3,797146380e-01    0,000000000e+00    0,000000000e+00    0,000000000e+00    0,000000000e+00
     1038000000   -1,369102001e-01    7,951198146e-03   -4,828381240e-01    6,375447661e-02    0,000000000e+00    0,000000000e+00    0,000000000e+00    0,000000000e+00
     1052000000   -2,892916501e-01    4,981209710e-02   -9,529836476e-02    3,741222322e-01    0,000000000e+00    0,000000000e+00    0,000000000e+00    0,000000000e+00
     1066000000   -1,469184309e-01    2,906004488e-01    1,402577609e-01    1,381402910e-01    0,000000000e+00    0,000000000e+00    0,000000000e+00    0,000000000e+00
     1080000000    9,656132013e-02    2,498156577e-01    8,932349831e-02    2,139351331e-02    0,000000000e+00    0,000000000e+00    0,000000000e+00    0,000000000e+00
     1094000000    2,210841924e-01    8,593299240e-02    7,045944780e-02    1,147045195e-02    0,000000000e+00    0,000000000e+00    0,000000000e+00    0,000000000e+00
     1108000000    2,399787605e-01   -8,581454307e-02    8,052577078e-02   -1,058025591e-04    0,000000000e+00    0,000000000e+00    0,000000000e+00    0,000000000e+00
     1122000000    1,809031814e-01   -2,518093586e-01    1,032398716e-01   -2,494314685e-02    0,000000000e+00    0,000000000e+00    0,000000000e+00    0,000000000e+00
     1136000000    4,889948294e-02   -3,799127936e-01    1,239496469e-01   -7,466918230e-02    0,000000000e+00    0,000000000e+00    0,000000000e+00    0,000000000e+00
     1150000000   -1,540299654e-01   -4,264231920e-01    1,376917064e-01   -1,524702758e-01    0,000000000e+00    0,000000000e+00    0,000000000e+00    0,000000000e+00
     1164000000   -3,817159534e-01   -3,233193457e-01    9,945502132e-02   -2,764121294e-01    0,000000000e+00    0,000000000e+00    0,000000000e+00    0,000000000e+00
     1178000000   -4,612105787e-01   -8,535136282e-02   -1,048851162e-01   -4,021640122e-01    0,000000000e+00    0,000000000e+00    0,000000000e+00    0,000000000e+00
     1192000000   -3,750304282e-01    4,272653908e-02   -4,617476761e-01   -1,960355788e-01    0,000000000e+00    0,000000000e+00    0,000000000e+00    0,000000000e+00
     1206000000   -4,132955074e-01    1,301007122e-01   -2,769698203e-01    2,359439731e-01    0,000000000e+00    0,000000000e+00    0,000000000e+00    0,000000000e+00
     1220000000   -2,780492306e-01    3,324562907e-01   -4,033541773e-03    1,645831019e-01    0,000000000e+00    0,000000000e+00    0,000000000e+00    0,000000000e+00
     1234000000   -4,379420355e-02    3,473790288e-01    2,776539326e-02    5,620889366e-02    0,000000000e+00    0,000000000e+00    0,000000000e+00    0,000000000e+00
     1248000000    1,223285422e-01    2,517464757e-01    2,317281440e-03    2,915111743e-02    0,000000000e+00    0,000000000e+00    0,000000000e+00    0,000000000e+00
     1262000000    2,110136747e-01    1,037823856e-01    3,511679824e-03    3,340326250e-02    0,000000000e+00    0,000000000e+00    0,000000000e+00    0,000000000e+00
     1276000000    2,355931401e-01   -5,635355785e-02    3,146811947e-02    3,442474455e-02    0,000000000e+00    0,000000000e+00    0,000000000e+00    0,000000000e+00
     1290000000    1,965846419e-01   -2,110599428e-01    6,112807617e-02    2,856093831e-02    0,000000000e+00    0,000000000e+00    0,000000000e+00    0,000000000e+00
     1304000000    8,106844127e-02   -3,540218472e-01    8,146847039e-02    1,168779470e-02    0,000000000e+00    0,000000000e+00    0,000000000e+00    0,000000000e+00
     1318000000   -1,035907939e-01   -4,510577321e-01    8,304685354e-02   -1,765435934e-02    0,000000000e+00    0,000000000e+00    0,000000000e+00    0,000000000e+00
     1332000000   -3,565899730e-01   -4,312298894e-01    7,789923251e-02   -7,933736779e-03    0,000000000e+00    0,000000000e+00    0,000000000e+00    0,000000000e+00
     1346000000   -5,916097760e-01   -2,457576990e-01    1,023855284e-01   -3,793271258e-03    0,000000000e+00    0,000000000e+00    0,000000000e+00    0,000000000e+00
     1360000000   -6,517146230e-01    7,163158059e-02    1,445924193e-01   -2,004610747e-02    0,000000000e+00    0,000000000e+00    0,000000000e+00    0,000000000e+00
     1374000000   -4,986533821e-01    3,286489248e-01    1,609669328e-01   -4,813696817e-02    0,000000000e+00    0,000000000e+00    0,000000000e+00    0,000000000e+00
     1388000000   -2,553822398e-01    4,238493741e-01    1,628555208e-01   -8,835338056e-02    0,000000000e+00    0,000000000e+00    0,000000000e+00    0,000000000e+00
     1402000000   -4,765258729e-02    3,932742476e-01    1,402295679e-01   -8,817689866e-02    0,000000000e+00    0,000000000e+00    0,000000000e+00    0,000000000e+00
     1416000000    1,017834246e-01    2,849455178e-01    1,233492494e-01   -7,788292319e-02    0,000000000e+00    0,000000000e+00    0,000000000e+00    0,000000000e+00
     1430000000    1,910258383e-01    1,521035731e-01    1,043316051e-01   -5,681884661e-02    0,000000000e+00    0,000000000e+00    0,000000000e+00    0,000000000e+00
     1444000000    2,101213336e-01   -9,587388486e-03    1,172954440e-01   -2,890061401e-02    0,000000000e+00    0,000000000e+00    0,000000000e+00    0,000000000e+00
     1458000000    1,803620160e-01   -1,878720820e-01    1,449797451e-01    3,589193104e-03    0,000000000e+00    0,000000000e+00    0,000000000e+00    0,000000000e+00
     1472000000    7,014075667e-02   -3,501566052e-01    2,022121251e-01    5,473970622e-02    0,000000000e+00    0,000000000e+00    0,000000000e+00    0,000000000e+00
     1486000000   -1,422193944e-01   -4,719867408e-01    2,962825298e-01    8,463852853e-02    0,000000000e+00    0,000000000e+00    0,000000000e+00    0,000000000e+00
     1500000000   -4,391518235e-01   -4,676358402e-01    4,256038368e-01    5,427752063e-02    0,000000000e+00    0,000000000e+00    0,000000000e+00    0,000000000e+00
