! NanoVNA-App
! Date: 2025-09-25 15:55:31
! Start: 100MHz Stop: 1,5GHz Points: 101
! S-Parameter data: F S11 S21 S12 S22
# Hz S RI R 50
!     Frequency           S11_Real           S11_Imag           S21_Real           S21_Imag           S12_Real           S12_Imag           S22_Real           S22_Imag
      100000000   -2,817042544e-02   -2,812070772e-03    3,722467124e-01   -7,224336863e-01    0,000000000e+00    0,000000000e+00    0,000000000e+00    0,000000000e+00
      114000000   -1,557296980e-02    1,286038756e-02   -9,141563624e-02   -8,046249747e-01    0,000000000e+00    0,000000000e+00    0,000000000e+00    0,000000000e+00
      128000000    4,392835777e-03    1,184524968e-02   -5,159461498e-01   -6,188120842e-01    0,000000000e+00    0,000000000e+00    0,000000000e+00    0,000000000e+00
      142000000    1,551501732e-02   -1,850653207e-03   -7,673344612e-01   -2,341783047e-01    0,000000000e+00    0,000000000e+00    0,000000000e+00    0,000000000e+00
      156000000    1,700361632e-02   -1,355076488e-02   -7,657414079e-01    2,263130844e-01    0,000000000e+00    0,000000000e+00    0,000000000e+00    0,000000000e+00
      170000000    1,764477044e-02   -2,102413774e-02   -5,154181719e-01    6,061948538e-01    0,000000000e+00    0,000000000e+00    0,000000000e+00    0,000000000e+00
      184000000    2,199463174e-02   -3,560366482e-02   -9,832397848e-02    7,856136560e-01    0,000000000e+00    0,000000000e+00    0,000000000e+00    0,000000000e+00
      198000000    1,399180759e-02   -6,065495312e-02    3,459646404e-01    7,106481791e-01    0,000000000e+00    0,000000000e+00    0,000000000e+00    0,000000000e+00
      212000000   -1,767479815e-02   -7,912179083e-02    6,808040738e-01    4,060688317e-01    0,000000000e+00    0,000000000e+00    0,000000000e+00    0,000000000e+00
      226000000   -6,035637110e-02   -6,664045900e-02    7,956538796e-01   -3,537347168e-02    0,000000000e+00    0,000000000e+00    0,000000000e+00    0,000000000e+00
      240000000   -8,041348308e-02   -2,273983695e-02    6,415167451e-01   -4,718557894e-01    0,000000000e+00    0,000000000e+00    0,000000000e+00    0,000000000e+00
      254000000   -6,082142144e-02    1,971973851e-02    2,710102797e-01   -7,420429587e-01    0,000000000e+00    0,000000000e+00    0,000000000e+00    0,000000000e+00
      268000000   -2,102807909e-02    3,082319908e-02   -1,815540344e-01   -7,608747482e-01    0,000000000e+00    0,000000000e+00    0,000000000e+00    0,000000000e+00
      282000000    6,813285872e-03    1,368721854e-02   -5,629462004e-01   -5,325085521e-01    0,000000000e+00    0,000000000e+00    0,000000000e+00    0,000000000e+00
      296000000    1,224490441e-02   -6,294116378e-03   -7,600535750e-01   -1,341096312e-01    0,000000000e+00    0,000000000e+00    0,000000000e+00    0,000000000e+00
      310000000    1,354121417e-02   -1,454085112e-02   -7,086916566e-01    3,046434522e-01    0,000000000e+00    0,000000000e+00    0,000000000e+00    0,000000000e+00
      324000000    2,261014469e-02   -2,466846816e-02   -4,219803512e-01    6,388056874e-01    0,000000000e+00    0,000000000e+00    0,000000000e+00    0,000000000e+00
      338000000    2,823602781e-02   -5,046401173e-02   -1,121376525e-03    7,603336573e-01    0,000000000e+00    0,000000000e+00    0,000000000e+00    0,000000000e+00
      352000000    1,020401157e-02   -8,275103569e-02    4,118129611e-01    6,353428364e-01    0,000000000e+00    0,000000000e+00    0,000000000e+00    0,000000000e+00
      366000000   -3,197776154e-02   -9,378690273e-02    6,927007437e-01    3,040287197e-01    0,000000000e+00    0,000000000e+00    0,000000000e+00    0,000000000e+00
      380000000   -6,732375175e-02   -6,899549067e-02    7,460833788e-01   -1,345026344e-01    0,000000000e+00    0,000000000e+00    0,000000000e+00    0,000000000e+00
      394000000   -6,835275143e-02   -3,078331612e-02    5,392247438e-01   -5,286239386e-01    0,000000000e+00    0,000000000e+00    0,000000000e+00    0,000000000e+00
      408000000   -4,284983501e-02   -1,564789005e-02    1,504475325e-01   -7,347921133e-01    0,000000000e+00    0,000000000e+00    0,000000000e+00    0,000000000e+00
      422000000   -2,600326948e-02   -3,107349016e-02   -2,787300944e-01   -6,896889210e-01    0,000000000e+00    0,000000000e+00    0,000000000e+00    0,000000000e+00
      436000000   -3,902986273e-02   -4,908740520e-02   -6,097170115e-01   -4,196264446e-01    0,000000000e+00    0,000000000e+00    0,000000000e+00    0,000000000e+00
      450000000   -6,460134685e-02   -3,940131143e-02   -7,369909883e-01   -7,552444469e-03    0,000000000e+00    0,000000000e+00    0,000000000e+00    0,000000000e+00
      464000000   -6,766993552e-02   -6,308421958e-03   -6,077277660e-01    4,057111442e-01    0,000000000e+00    0,000000000e+00    0,000000000e+00    0,000000000e+00
      478000000   -3,865261376e-02    1,637661085e-02   -2,680104077e-01    6,703155041e-01    0,000000000e+00    0,000000000e+00    0,000000000e+00    0,000000000e+00
      492000000   -5,256686825e-03    6,668717600e-03    1,517000496e-01    6,949859858e-01    0,000000000e+00    0,000000000e+00    0,000000000e+00    0,000000000e+00
      506000000    7,113224361e-03   -2,045138180e-02    5,086386800e-01    4,881954789e-01    0,000000000e+00    0,000000000e+00    0,000000000e+00    0,000000000e+00
      520000000    4,542784591e-04   -3,874378651e-02    6,904335618e-01    1,217368394e-01    0,000000000e+00    0,000000000e+00    0,000000000e+00    0,000000000e+00
      534000000   -3,197510727e-03   -4,575182870e-02    6,327084899e-01   -2,821343541e-01    0,000000000e+00    0,000000000e+00    0,000000000e+00    0,000000000e+00
      548000000    5,553317023e-04   -5,965485796e-02    3,598358929e-01   -5,796390176e-01    0,000000000e+00    0,000000000e+00    0,000000000e+00    0,000000000e+00
      562000000   -8,118090220e-03   -8,865346014e-02   -2,661764249e-02   -6,724823713e-01    0,000000000e+00    0,000000000e+00    0,000000000e+00    0,000000000e+00
      576000000   -4,565623403e-02   -1,093141660e-01   -3,998920321e-01   -5,377824306e-01    0,000000000e+00    0,000000000e+00    0,000000000e+00    0,000000000e+00
      590000000   -9,473767132e-02   -9,337846935e-02   -6,408176422e-01   -2,201523930e-01    0,000000000e+00    0,000000000e+00    0,000000000e+00    0,000000000e+00
      604000000   -1,116710380e-01   -4,079120979e-02   -6,475416422e-01    1,983254254e-01    0,000000000e+00    0,000000000e+00    0,000000000e+00    0,000000000e+00
      618000000   -7,605146617e-02   -2,168427221e-03   -4,024105966e-01    5,347545743e-01    0,000000000e+00    0,000000000e+00    0,000000000e+00    0,000000000e+00
      632000000   -2,948942594e-02   -2,112435549e-02   -1,201068703e-02    6,550199389e-01    0,000000000e+00    0,000000000e+00    0,000000000e+00    0,000000000e+00
      646000000   -3,570848331e-02   -7,640527189e-02    3,657941222e-01    5,270839930e-01    0,000000000e+00    0,000000000e+00    0,000000000e+00    0,000000000e+00
      660000000   -1,119221896e-01   -1,004058421e-01    6,007629633e-01    1,937125325e-01    0,000000000e+00    0,000000000e+00    0,000000000e+00    0,000000000e+00
      674000000   -2,003604025e-01   -2,358981967e-02    5,646914840e-01   -2,396039367e-01    0,000000000e+00    0,000000000e+00    0,000000000e+00    0,000000000e+00
      688000000   -1,781391799e-01    1,448583305e-01    2,097838521e-01   -5,209463239e-01    0,000000000e+00    0,000000000e+00    0,000000000e+00    0,000000000e+00
      702000000    2,412356623e-02    2,453667372e-01   -1,937230229e-01   -4,065537155e-01    0,000000000e+00    0,000000000e+00    0,000000000e+00    0,000000000e+00
      716000000    2,637734413e-01    1,106710210e-01   -2,720612288e-01   -8,314757049e-02    0,000000000e+00    0,000000000e+00    0,000000000e+00    0,000000000e+00
      730000000    3,039343357e-01   -1,862707436e-01   -1,060395986e-01    3,126302734e-02    0,000000000e+00    0,000000000e+00    0,000000000e+00    0,000000000e+00
      744000000    9,250248224e-02   -4,268988967e-01   -4,245204106e-02   -6,628288329e-02    0,000000000e+00    0,000000000e+00    0,000000000e+00    0,000000000e+00
      758000000   -2,587392628e-01   -4,293193519e-01   -1,763821691e-01   -1,262285113e-01    0,000000000e+00    0,000000000e+00    0,000000000e+00    0,000000000e+00
      772000000   -4,853660166e-01   -1,180787608e-01   -3,373399675e-01    3,833314031e-02    0,000000000e+00    0,000000000e+00    0,000000000e+00    0,000000000e+00
      786000000   -3,422187269e-01    2,210825682e-01   -2,626571655e-01    3,169223964e-01    0,000000000e+00    0,000000000e+00    0,000000000e+00    0,000000000e+00
      800000000   -4,112086445e-02    2,758042216e-01    2,384714549e-03    4,384296238e-01    0,000000000e+00    0,000000000e+00    0,000000000e+00    0,000000000e+00
      814000000    1,434243619e-01    1,253793240e-01    2,643353939e-01    3,591733873e-01    0,000000000e+00    0,000000000e+00    0,000000000e+00    0,000000000e+00
      828000000    1,678152978e-01   -6,980501860e-02    4,332133532e-01    1,569425911e-01    0,000000000e+00    0,000000000e+00    0,000000000e+00    0,000000000e+00
      842000000    6,731316447e-02   -2,177721709e-01    4,662427306e-01   -1,198972613e-01    0,000000000e+00    0,000000000e+00    0,000000000e+00    0,000000000e+00
      856000000   -1,061967164e-01   -2,635395527e-01    3,198545575e-01   -3,946366608e-01    0,000000000e+00    0,000000000e+00    0,000000000e+00    0,000000000e+00
      870000000   -2,742229104e-01   -1,689405292e-01   -1,443827525e-03   -5,274612308e-01    0,000000000e+00    0,000000000e+00    0,000000000e+00    0,000000000e+00
      884000000   -3,210053742e-01    3,501859680e-02   -3,477157652e-01   -3,924135566e-01    0,000000000e+00    0,000000000e+00    0,000000000e+00    0,000000000e+00
      898000000   -1,921295524e-01    2,060037255e-01   -4,887856245e-01   -6,372547150e-02    0,000000000e+00    0,000000000e+00    0,000000000e+00    0,000000000e+00
      912000000    7,266255096e-03    2,185949683e-01   -3,988734782e-01    2,654162347e-01    0,000000000e+00    0,000000000e+00    0,000000000e+00    0,000000000e+00
      926000000    1,512179077e-01    1,130919158e-01   -1,666371822e-01    4,183775187e-01    0,000000000e+00    0,000000000e+00    0,000000000e+00    0,000000000e+00
      940000000    1,982336342e-01   -4,715880379e-02    6,370270252e-02    4,237274826e-01    0,000000000e+00    0,000000000e+00    0,000000000e+00    0,000000000e+00
      954000000    1,546837687e-01   -2,032477856e-01    2,605420053e-01    3,423399329e-01    0,000000000e+00    0,000000000e+00    0,000000000e+00    0,000000000e+00
      968000000    2,658611536e-02   -3,150440454e-01    4,100336134e-01    1,799827665e-01    0,000000000e+00    0,000000000e+00    0,000000000e+00    0,000000000e+00
      982000000   -1,602461636e-01   -3,290804327e-01    4,741867185e-01   -6,679721177e-02    0,000000000e+00    0,000000000e+00    0,000000000e+00    0,000000000e+00
      996000000   -3,243649602e-01   -2,126711309e-01    3,669591546e-01   -3,557049632e-01    0,000000000e+00    0,000000000e+00    0,000000000e+00    0,000000000e+00
     1010000000   -3,372685313e-01   -5,909409374e-03    4,188073426e-02   -5,255136490e-01    0,000000000e+00    0,000000000e+00    0,000000000e+00    0,000000000e+00
     1024000000   -2,084912658e-01    9,086842090e-02   -3,429956138e-01   -3,809754550e-01    0,000000000e+00    0,000000000e+00    0,000000000e+00    0,000000000e+00
     1038000000   -1,334449053e-01    7,743418217e-03   -4,826226830e-01    6,150801852e-02    0,000000000e+00    0,000000000e+00    0,000000000e+00    0,000000000e+00
     1052000000   -2,895804346e-01    5,141714960e-02   -9,489344805e-02    3,733501136e-01    0,000000000e+00    0,000000000e+00    0,000000000e+00    0,000000000e+00
     1066000000   -1,507240236e-01    2,906623781e-01    1,470574439e-01    1,373218596e-01    0,000000000e+00    0,000000000e+00    0,000000000e+00    0,000000000e+00
     1080000000    1,022023708e-01    2,477097213e-01    9,227492660e-02    2,170480229e-02    0,000000000e+00    0,000000000e+00    0,000000000e+00    0,000000000e+00
     1094000000    2,174908817e-01    8,965820074e-02    7,085103542e-02    1,091361418e-02    0,000000000e+00    0,000000000e+00    0,000000000e+00    0,000000000e+00
     1108000000    2,447696626e-01   -8,492498100e-02    8,054263145e-02   -3,716025676e-04    0,000000000e+00    0,000000000e+00    0,000000000e+00    0,000000000e+00
     1122000000    1,842726618e-01   -2,484727055e-01    1,027885452e-01   -2,819496579e-02    0,000000000e+00    0,000000000e+00    0,000000000e+00    0,000000000e+00
     1136000000    4,816148058e-02   -3,765362501e-01    1,259093732e-01   -7,644663751e-02    0,000000000e+00    0,000000000e+00    0,000000000e+00    0,000000000e+00
     1150000000   -1,570592076e-01   -4,229852855e-01    1,364641935e-01   -1,515895575e-01    0,000000000e+00    0,000000000e+00    0,000000000e+00    0,000000000e+00
     1164000000   -3,764819503e-01   -3,271802962e-01    9,611348063e-02   -2,781818211e-01    0,000000000e+00    0,000000000e+00    0,000000000e+00    0,000000000e+00
     1178000000   -4,614984989e-01   -8,788173646e-02   -1,028299853e-01   -4,022302628e-01    0,000000000e+00    0,000000000e+00    0,000000000e+00    0,000000000e+00
     1192000000   -3,741109967e-01    4,190409184e-02   -4,596777856e-01   -1,970881969e-01    0,000000000e+00    0,000000000e+00    0,000000000e+00    0,000000000e+00
     1206000000   -4,162077010e-01    1,317798644e-01   -2,767457962e-01    2,377195209e-01    0,000000000e+00    0,000000000e+00    0,000000000e+00    0,000000000e+00
     1220000000   -2,808002532e-01    3,256019056e-01   -7,617117371e-03    1,653552800e-01    0,000000000e+00    0,000000000e+00    0,000000000e+00    0,000000000e+00
     1234000000   -4,465889186e-02    3,452228010e-01    2,562296763e-02    5,244917795e-02    0,000000000e+00    0,000000000e+00    0,000000000e+00    0,000000000e+00
     1248000000    1,182675436e-01    2,488263398e-01    3,093838226e-03    2,249955758e-02    0,000000000e+00    0,000000000e+00    0,000000000e+00    0,000000000e+00
     1262000000    2,150847167e-01    1,008701250e-01    4,817108158e-03    3,041988239e-02    0,000000000e+00    0,000000000e+00    0,000000000e+00    0,000000000e+00
     1276000000    2,388455421e-01   -5,941591784e-02    3,118373640e-02    3,702718019e-02    0,000000000e+00    0,000000000e+00    0,000000000e+00    0,000000000e+00
     1290000000    1,945936382e-01   -2,147089839e-01    6,128128245e-02    2,613195032e-02    0,000000000e+00    0,000000000e+00    0,000000000e+00    0,000000000e+00
     1304000000    8,316239715e-02   -3,551346660e-01    7,099611312e-02    5,374991801e-03    0,000000000e+00    0,000000000e+00    0,000000000e+00    0,000000000e+00
     1318000000   -1,026068032e-01   -4,416155219e-01    8,575279266e-02   -5,190431606e-03    0,000000000e+00    0,000000000e+00    0,000000000e+00    0,000000000e+00
     1332000000   -3,523513675e-01   -4,370607138e-01    8,982331306e-02   -1,465106383e-02    0,000000000e+00    0,000000000e+00    0,000000000e+00    0,000000000e+00
     1346000000   -5,919394493e-01   -2,485877126e-01    1,091183722e-01   -1,025311835e-02    0,000000000e+00    0,000000000e+00    0,000000000e+00    0,000000000e+00
     1360000000   -6,409311891e-01    7,714477926e-02    1,462731212e-01   -1,202990767e-02    0,000000000e+00    0,000000000e+00    0,000000000e+00    0,000000000e+00
     1374000000   -4,902901947e-01    3,321425915e-01    1,726532578e-01   -6,084218994e-02    0,000000000e+00    0,000000000e+00    0,000000000e+00    0,000000000e+00
     1388000000   -2,538014948e-01    4,268410504e-01    1,561916023e-01   -8,006442338e-02    0,000000000e+00    0,000000000e+00    0,000000000e+00    0,000000000e+00
     1402000000   -4,921149835e-02    3,878860176e-01    1,418202519e-01   -9,590364993e-02    0,000000000e+00    0,000000000e+00    0,000000000e+00    0,000000000e+00
     1416000000    9,834645689e-02    2,902387083e-01    1,261260659e-01   -8,406814188e-02    0,000000000e+00    0,000000000e+00    0,000000000e+00    0,000000000e+00
     1430000000    1,865750998e-01    1,516200602e-01    1,324357390e-01   -4,251636192e-02    0,000000000e+00    0,000000000e+00    0,000000000e+00    0,000000000e+00
     1444000000    2,137546241e-01   -1,214619540e-02    1,212408245e-01   -1,326847728e-02    0,000000000e+00    0,000000000e+00    0,000000000e+00    0,000000000e+00
     1458000000    1,789730787e-01   -1,834815145e-01    1,440474838e-01    1,103986707e-02    0,000000000e+00    0,000000000e+00    0,000000000e+00    0,000000000e+00
     1472000000    6,359995157e-02   -3,444232941e-01    1,922991425e-01    7,201790810e-02    0,000000000e+00    0,000000000e+00    0,000000000e+00    0,000000000e+00
     1486000000   -1,414024979e-01   -4,708143473e-01    2,825380862e-01    8,280615509e-02    0,000000000e+00    0,000000000e+00    0,000000000e+00    0,000000000e+00
     1500000000   -4,456083477e-01   -4,896251261e-01    4,008313417e-01    4,086459056e-02    0,000000000e+00    0,000000000e+00    0,000000000e+00    0,000000000e+00
