! NanoVNA-App
! Date: 2025-09-25 15:57:14
! Start: 100MHz Stop: 1,5GHz Points: 101
! S-Parameter data: F S11 S21 S12 S22
# Hz S RI R 50
!     Frequency           S11_Real           S11_Imag           S21_Real           S21_Imag           S12_Real           S12_Imag           S22_Real           S22_Imag
      100000000   -2,821140178e-02   -2,834174549e-03    3,723075688e-01   -7,225168943e-01    0,000000000e+00    0,000000000e+00    0,000000000e+00    0,000000000e+00
      114000000   -1,563297398e-02    1,287063584e-02   -9,137868136e-02   -8,046909571e-01    0,000000000e+00    0,000000000e+00    0,000000000e+00    0,000000000e+00
      128000000    4,352764692e-03    1,188190933e-02   -5,157866478e-01   -6,186780930e-01    0,000000000e+00    0,000000000e+00    0,000000000e+00    0,000000000e+00
      142000000    1,549885888e-02   -1,820671372e-03   -7,674591541e-01   -2,340310663e-01    0,000000000e+00    0,000000000e+00    0,000000000e+00    0,000000000e+00
      156000000    1,548917126e-02   -1,376421656e-02   -7,702039480e-01    2,231729329e-01    0,000000000e+00    0,000000000e+00    0,000000000e+00    0,000000000e+00
      170000000    1,763840392e-02   -2,101801895e-02   -5,156368613e-01    6,063786745e-01    0,000000000e+00    0,000000000e+00    0,000000000e+00    0,000000000e+00
      184000000    2,204636112e-02   -3,556462005e-02   -9,827526659e-02    7,855873704e-01    0,000000000e+00    0,000000000e+00    0,000000000e+00    0,000000000e+00
      198000000    1,399829425e-02   -6,066965312e-02    3,461161852e-01    7,107963562e-01    0,000000000e+00    0,000000000e+00    0,000000000e+00    0,000000000e+00
      212000000   -1,768737286e-02   -7,914260775e-02    6,806915998e-01    4,064152241e-01    0,000000000e+00    0,000000000e+00    0,000000000e+00    0,000000000e+00
      226000000   -6,029977277e-02   -6,661096960e-02    7,958154082e-01   -3,556250408e-02    0,000000000e+00    0,000000000e+00    0,000000000e+00    0,000000000e+00
      240000000   -8,057350665e-02   -2,267925069e-02    6,417260170e-01   -4,718278944e-01    0,000000000e+00    0,000000000e+00    0,000000000e+00    0,000000000e+00
      254000000   -6,088786945e-02    1,975180395e-02    2,712037861e-01   -7,420276999e-01    0,000000000e+00    0,000000000e+00    0,000000000e+00    0,000000000e+00
      268000000   -2,102659270e-02    3,085998073e-02   -1,813662052e-01   -7,606710196e-01    0,000000000e+00    0,000000000e+00    0,000000000e+00    0,000000000e+00
      282000000    6,859885529e-03    1,378481183e-02   -5,629534125e-01   -5,323073864e-01    0,000000000e+00    0,000000000e+00    0,000000000e+00    0,000000000e+00
      296000000    1,233232487e-02   -6,186713465e-03   -7,602705956e-01   -1,342825294e-01    0,000000000e+00    0,000000000e+00    0,000000000e+00    0,000000000e+00
      310000000    1,339521725e-02   -1,472726092e-02   -7,080345750e-01    3,034718931e-01    0,000000000e+00    0,000000000e+00    0,000000000e+00    0,000000000e+00
      324000000    2,253163233e-02   -2,456909232e-02   -4,214650989e-01    6,395282149e-01    0,000000000e+00    0,000000000e+00    0,000000000e+00    0,000000000e+00
      338000000    2,849840000e-02   -5,052626505e-02   -3,667918500e-03    7,618321776e-01    0,000000000e+00    0,000000000e+00    0,000000000e+00    0,000000000e+00
      352000000    1,038875990e-02   -8,283729851e-02    4,120771289e-01    6,351831555e-01    0,000000000e+00    0,000000000e+00    0,000000000e+00    0,000000000e+00
      366000000   -3,180796281e-02   -9,381360561e-02    6,927986741e-01    3,035197258e-01    0,000000000e+00    0,000000000e+00    0,000000000e+00    0,000000000e+00
      380000000   -6,774492562e-02   -6,900503486e-02    7,456988692e-01   -1,346518844e-01    0,000000000e+00    0,000000000e+00    0,000000000e+00    0,000000000e+00
      394000000   -6,877408922e-02   -3,035959043e-02    5,391626358e-01   -5,289535522e-01    0,000000000e+00    0,000000000e+00    0,000000000e+00    0,000000000e+00
      408000000   -4,251763970e-02   -1,560149714e-02    1,495980322e-01   -7,340015173e-01    0,000000000e+00    0,000000000e+00    0,000000000e+00    0,000000000e+00
      422000000   -2,622965351e-02   -3,125721961e-02   -2,792377174e-01   -6,899221539e-01    0,000000000e+00    0,000000000e+00    0,000000000e+00    0,000000000e+00
      436000000   -3,942818940e-02   -4,865508154e-02   -6,108371019e-01   -4,191652536e-01    0,000000000e+00    0,000000000e+00    0,000000000e+00    0,000000000e+00
      450000000   -6,458579749e-02   -3,924113140e-02   -7,372816205e-01   -7,738258224e-03    0,000000000e+00    0,000000000e+00    0,000000000e+00    0,000000000e+00
      464000000   -6,724058837e-02   -6,047208793e-03   -6,076975465e-01    4,063911736e-01    0,000000000e+00    0,000000000e+00    0,000000000e+00    0,000000000e+00
      478000000   -3,876978159e-02    1,575794257e-02   -2,678547800e-01    6,699777246e-01    0,000000000e+00    0,000000000e+00    0,000000000e+00    0,000000000e+00
      492000000   -5,250414833e-03    6,483951584e-03    1,518601775e-01    6,954474449e-01    0,000000000e+00    0,000000000e+00    0,000000000e+00    0,000000000e+00
      506000000    6,979021709e-03   -1,989605092e-02    5,074268579e-01    4,881249964e-01    0,000000000e+00    0,000000000e+00    0,000000000e+00    0,000000000e+00
      520000000    3,999482142e-04   -3,871835768e-02    6,892669201e-01    1,200036034e-01    0,000000000e+00    0,000000000e+00    0,000000000e+00    0,000000000e+00
      534000000   -3,144407179e-03   -4,598797113e-02    6,320039034e-01   -2,821837962e-01    0,000000000e+00    0,000000000e+00    0,000000000e+00    0,000000000e+00
      548000000    7,787358481e-04   -5,951204896e-02    3,600440323e-01   -5,792974234e-01    0,000000000e+00    0,000000000e+00    0,000000000e+00    0,000000000e+00
      562000000   -8,037545718e-03   -8,846508712e-02   -2,696951479e-02   -6,731006503e-01    0,000000000e+00    0,000000000e+00    0,000000000e+00    0,000000000e+00
      576000000   -4,535489157e-02   -1,094819903e-01   -4,002703428e-01   -5,380347371e-01    0,000000000e+00    0,000000000e+00    0,000000000e+00    0,000000000e+00
      590000000   -9,479588270e-02   -9,370023012e-02   -6,406542659e-01   -2,193103433e-01    0,000000000e+00    0,000000000e+00    0,000000000e+00    0,000000000e+00
      604000000   -1,115610003e-01   -4,159102589e-02   -6,470633745e-01    1,978429407e-01    0,000000000e+00    0,000000000e+00    0,000000000e+00    0,000000000e+00
      618000000   -7,616613805e-02   -2,404578496e-03   -4,020780921e-01    5,362707376e-01    0,000000000e+00    0,000000000e+00    0,000000000e+00    0,000000000e+00
      632000000   -2,943697944e-02   -2,106560580e-02   -1,205238327e-02    6,550326943e-01    0,000000000e+00    0,000000000e+00    0,000000000e+00    0,000000000e+00
      646000000   -3,624259681e-02   -7,719903439e-02    3,663359284e-01    5,273561478e-01    0,000000000e+00    0,000000000e+00    0,000000000e+00    0,000000000e+00
      660000000   -1,112625301e-01   -1,002805606e-01    6,012752056e-01    1,941807419e-01    0,000000000e+00    0,000000000e+00    0,000000000e+00    0,000000000e+00
      674000000   -1,992804706e-01   -2,369103581e-02    5,644348860e-01   -2,402585000e-01    0,000000000e+00    0,000000000e+00    0,000000000e+00    0,000000000e+00
      688000000   -1,791232228e-01    1,441448927e-01    2,091178298e-01   -5,216508508e-01    0,000000000e+00    0,000000000e+00    0,000000000e+00    0,000000000e+00
      702000000    2,647189423e-02    2,468703389e-01   -2,032610327e-01   -4,045215547e-01    0,000000000e+00    0,000000000e+00    0,000000000e+00    0,000000000e+00
      716000000    2,634533346e-01    1,101682708e-01   -2,719069123e-01   -8,273030072e-02    0,000000000e+00    0,000000000e+00    0,000000000e+00    0,000000000e+00
      730000000    3,035129309e-01   -1,869206280e-01   -1,058546379e-01    3,216412291e-02    0,000000000e+00    0,000000000e+00    0,000000000e+00    0,000000000e+00
      744000000    9,295111895e-02   -4,264957607e-01   -4,219468683e-02   -6,574662775e-02    0,000000000e+00    0,000000000e+00    0,000000000e+00    0,000000000e+00
      758000000   -2,587306798e-01   -4,296070635e-01   -1,769391149e-01   -1,258060634e-01    0,000000000e+00    0,000000000e+00    0,000000000e+00    0,000000000e+00
      772000000   -4,855652452e-01   -1,192872897e-01   -3,369582891e-01    3,841422126e-02    0,000000000e+00    0,000000000e+00    0,000000000e+00    0,000000000e+00
      786000000   -3,409965634e-01    2,220194191e-01   -2,626107633e-01    3,169311881e-01    0,000000000e+00    0,000000000e+00    0,000000000e+00    0,000000000e+00
      800000000   -4,112728685e-02    2,765418291e-01    3,529720940e-03    4,368092716e-01    0,000000000e+00    0,000000000e+00    0,000000000e+00    0,000000000e+00
      814000000    1,444742978e-01    1,248188987e-01    2,644260228e-01    3,597738445e-01    0,000000000e+00    0,000000000e+00    0,000000000e+00    0,000000000e+00
      828000000    1,677326262e-01   -6,968345493e-02    4,328289032e-01    1,566065997e-01    0,000000000e+00    0,000000000e+00    0,000000000e+00    0,000000000e+00
      842000000    6,718358397e-02   -2,180636227e-01    4,665653110e-01   -1,201760694e-01    0,000000000e+00    0,000000000e+00    0,000000000e+00    0,000000000e+00
      856000000   -1,071509123e-01   -2,639099956e-01    3,195222318e-01   -3,956485987e-01    0,000000000e+00    0,000000000e+00    0,000000000e+00    0,000000000e+00
      870000000   -2,744456828e-01   -1,675800979e-01   -1,410097815e-03   -5,269842744e-01    0,000000000e+00    0,000000000e+00    0,000000000e+00    0,000000000e+00
      884000000   -3,197360039e-01    3,530605882e-02   -3,469618559e-01   -3,926797509e-01    0,000000000e+00    0,000000000e+00    0,000000000e+00    0,000000000e+00
      898000000   -1,917720735e-01    2,067468613e-01   -4,887195230e-01   -6,236408651e-02    0,000000000e+00    0,000000000e+00    0,000000000e+00    0,000000000e+00
      912000000    7,004493382e-03    2,176933438e-01   -4,109223485e-01    2,718091309e-01    0,000000000e+00    0,000000000e+00    0,000000000e+00    0,000000000e+00
      926000000    1,483107656e-01    1,115224361e-01   -1,702338457e-01    4,153766930e-01    0,000000000e+00    0,000000000e+00    0,000000000e+00    0,000000000e+00
      940000000    1,988074630e-01   -4,376381263e-02    6,108705699e-02    4,252260327e-01    0,000000000e+00    0,000000000e+00    0,000000000e+00    0,000000000e+00
      954000000    1,512780637e-01   -2,012620270e-01    2,587960362e-01    3,440074623e-01    0,000000000e+00    0,000000000e+00    0,000000000e+00    0,000000000e+00
      968000000    2,285628207e-02   -3,151851296e-01    4,114896059e-01    1,803732067e-01    0,000000000e+00    0,000000000e+00    0,000000000e+00    0,000000000e+00
      982000000   -1,602835655e-01   -3,285228908e-01    4,749450684e-01   -6,736201793e-02    0,000000000e+00    0,000000000e+00    0,000000000e+00    0,000000000e+00
      996000000   -3,245075941e-01   -2,118976563e-01    3,662518859e-01   -3,554096222e-01    0,000000000e+00    0,000000000e+00    0,000000000e+00    0,000000000e+00
     1010000000   -3,390567899e-01   -8,198941126e-03    4,103440419e-02   -5,234828591e-01    0,000000000e+00    0,000000000e+00    0,000000000e+00    0,000000000e+00
     1024000000   -2,045353651e-01    9,615284950e-02   -3,457527757e-01   -3,812202215e-01    0,000000000e+00    0,000000000e+00    0,000000000e+00    0,000000000e+00
     1038000000   -1,377665102e-01    1,216904260e-02   -4,826891124e-01    6,405793130e-02    0,000000000e+00    0,000000000e+00    0,000000000e+00    0,000000000e+00
     1052000000   -2,911887765e-01    5,380057916e-02   -9,577860683e-02    3,741337359e-01    0,000000000e+00    0,000000000e+00    0,000000000e+00    0,000000000e+00
     1066000000   -1,525088698e-01    2,916024923e-01    1,424887776e-01    1,330989897e-01    0,000000000e+00    0,000000000e+00    0,000000000e+00    0,000000000e+00
     1080000000    9,819444269e-02    2,527745962e-01    9,135388583e-02    2,056665160e-02    0,000000000e+00    0,000000000e+00    0,000000000e+00    0,000000000e+00
     1094000000    2,236575633e-01    8,963425457e-02    7,122962177e-02    9,171420708e-03    0,000000000e+00    0,000000000e+00    0,000000000e+00    0,000000000e+00
     1108000000    2,434294969e-01   -8,560243249e-02    8,168199658e-02   -3,413970349e-03    0,000000000e+00    0,000000000e+00    0,000000000e+00    0,000000000e+00
     1122000000    1,833645999e-01   -2,535192072e-01    1,063997224e-01   -2,918929607e-02    0,000000000e+00    0,000000000e+00    0,000000000e+00    0,000000000e+00
     1136000000    5,256810412e-02   -3,782084286e-01    1,266369522e-01   -7,612170279e-02    0,000000000e+00    0,000000000e+00    0,000000000e+00    0,000000000e+00
     1150000000   -1,599195004e-01   -4,219012558e-01    1,356786191e-01   -1,518978626e-01    0,000000000e+00    0,000000000e+00    0,000000000e+00    0,000000000e+00
     1164000000   -3,762583435e-01   -3,276837766e-01    9,862434119e-02   -2,788971663e-01    0,000000000e+00    0,000000000e+00    0,000000000e+00    0,000000000e+00
     1178000000   -4,644158483e-01   -9,007802606e-02   -1,067953631e-01   -4,089571834e-01    0,000000000e+00    0,000000000e+00    0,000000000e+00    0,000000000e+00
     1192000000   -3,783259392e-01    3,629922122e-02   -4,655121863e-01   -2,013702095e-01    0,000000000e+00    0,000000000e+00    0,000000000e+00    0,000000000e+00
     1206000000   -4,128561616e-01    1,350811571e-01   -2,753776610e-01    2,402036339e-01    0,000000000e+00    0,000000000e+00    0,000000000e+00    0,000000000e+00
     1220000000   -2,759039104e-01    3,270641565e-01   -4,945839290e-03    1,623726934e-01    0,000000000e+00    0,000000000e+00    0,000000000e+00    0,000000000e+00
     1234000000   -5,063172057e-02    3,485504091e-01    2,398112416e-02    5,383523181e-02    0,000000000e+00    0,000000000e+00    0,000000000e+00    0,000000000e+00
     1248000000    1,203382984e-01    2,493662536e-01    5,399988964e-03    2,325898968e-02    0,000000000e+00    0,000000000e+00    0,000000000e+00    0,000000000e+00
     1262000000    2,129591256e-01    1,005278975e-01    8,227629587e-03    2,792225033e-02    0,000000000e+00    0,000000000e+00    0,000000000e+00    0,000000000e+00
     1276000000    2,316348255e-01   -5,851406604e-02    2,407367714e-02    3,433324769e-02    0,000000000e+00    0,000000000e+00    0,000000000e+00    0,000000000e+00
     1290000000    1,899264306e-01   -2,128027976e-01    5,382952467e-02    2,226709016e-02    0,000000000e+00    0,000000000e+00    0,000000000e+00    0,000000000e+00
     1304000000    8,440407366e-02   -3,506854475e-01    7,573339343e-02    6,992049515e-03    0,000000000e+00    0,000000000e+00    0,000000000e+00    0,000000000e+00
     1318000000   -9,884410352e-02   -4,494530559e-01    8,613352478e-02   -1,187724620e-02    0,000000000e+00    0,000000000e+00    0,000000000e+00    0,000000000e+00
     1332000000   -3,559381962e-01   -4,333420992e-01    9,223497659e-02   -2,303272113e-02    0,000000000e+00    0,000000000e+00    0,000000000e+00    0,000000000e+00
     1346000000   -5,879122019e-01   -2,454911470e-01    1,156274676e-01   -7,995426655e-03    0,000000000e+00    0,000000000e+00    0,000000000e+00    0,000000000e+00
     1360000000   -6,491334438e-01    7,434136420e-02    1,312334538e-01   -1,841015741e-02    0,000000000e+00    0,000000000e+00    0,000000000e+00    0,000000000e+00
     1374000000   -4,931595623e-01    3,366350532e-01    1,695401371e-01   -4,270450771e-02    0,000000000e+00    0,000000000e+00    0,000000000e+00    0,000000000e+00
     1388000000   -2,509762645e-01    4,288550913e-01    1,656498313e-01   -7,981000096e-02    0,000000000e+00    0,000000000e+00    0,000000000e+00    0,000000000e+00
     1402000000   -4,573028162e-02    3,886218071e-01    1,362684220e-01   -1,027482376e-01    0,000000000e+00    0,000000000e+00    0,000000000e+00    0,000000000e+00
     1416000000    9,941955656e-02    2,849055827e-01    1,221042424e-01   -9,166458994e-02    0,000000000e+00    0,000000000e+00    0,000000000e+00    0,000000000e+00
     1430000000    1,888887435e-01    1,461851448e-01    1,121979430e-01   -7,796972990e-02    0,000000000e+00    0,000000000e+00    0,000000000e+00    0,000000000e+00
     1444000000    2,148227096e-01   -6,903679110e-03    1,302778870e-01   -2,105630003e-02    0,000000000e+00    0,000000000e+00    0,000000000e+00    0,000000000e+00
     1458000000    1,798850894e-01   -1,807259768e-01    1,357569098e-01    2,059556916e-02    0,000000000e+00    0,000000000e+00    0,000000000e+00    0,000000000e+00
     1472000000    6,656290591e-02   -3,482457399e-01    2,090582401e-01    6,222755462e-02    0,000000000e+00    0,000000000e+00    0,000000000e+00    0,000000000e+00
     1486000000   -1,446696073e-01   -4,639957547e-01    2,925669551e-01    9,121628106e-02    0,000000000e+00    0,000000000e+00    0,000000000e+00    0,000000000e+00
     1500000000   -4,413455725e-01   -4,747137725e-01    4,177640676e-01    5,016724020e-02    0,000000000e+00    0,000000000e+00    0,000000000e+00    0,000000000e+00
