! NanoVNA-App
! Date: 2025-09-25 15:56:19
! Start: 100MHz Stop: 1,5GHz Points: 101
! S-Parameter data: F S11 S21 S12 S22
# Hz S RI R 50
!     Frequency           S11_Real           S11_Imag           S21_Real           S21_Imag           S12_Real           S12_Imag           S22_Real           S22_Imag
      100000000   -2,818687074e-02   -2,821027068e-03    3,722575307e-01   -7,224242687e-01    0,000000000e+00    0,000000000e+00    0,000000000e+00    0,000000000e+00
      114000000   -1,557172928e-02    1,286430936e-02   -9,117344767e-02   -8,048573732e-01    0,000000000e+00    0,000000000e+00    0,000000000e+00    0,000000000e+00
      128000000    4,452742171e-03    1,186250523e-02   -5,160523057e-01   -6,189386249e-01    0,000000000e+00    0,000000000e+00    0,000000000e+00    0,000000000e+00
      142000000    1,549598761e-02   -1,863234094e-03   -7,674470544e-01   -2,341715544e-01    0,000000000e+00    0,000000000e+00    0,000000000e+00    0,000000000e+00
      156000000    1,540206838e-02   -1,299822237e-02   -7,644010782e-01    2,205734402e-01    0,000000000e+00    0,000000000e+00    0,000000000e+00    0,000000000e+00
      170000000    1,762747765e-02   -2,106930874e-02   -5,153558254e-01    6,061261892e-01    0,000000000e+00    0,000000000e+00    0,000000000e+00    0,000000000e+00
      184000000    2,199987695e-02   -3,553981334e-02   -9,820608050e-02    7,857351303e-01    0,000000000e+00    0,000000000e+00    0,000000000e+00    0,000000000e+00
      198000000    1,406618115e-02   -6,065718830e-02    3,457216322e-01    7,107716203e-01    0,000000000e+00    0,000000000e+00    0,000000000e+00    0,000000000e+00
      212000000   -1,768300869e-02   -7,916859537e-02    6,805605888e-01    4,062961638e-01    0,000000000e+00    0,000000000e+00    0,000000000e+00    0,000000000e+00
      226000000   -6,037123129e-02   -6,666772813e-02    7,957208753e-01   -3,556068242e-02    0,000000000e+00    0,000000000e+00    0,000000000e+00    0,000000000e+00
      240000000   -8,051162958e-02   -2,270478942e-02    6,415056586e-01   -4,718217254e-01    0,000000000e+00    0,000000000e+00    0,000000000e+00    0,000000000e+00
      254000000   -6,079958007e-02    1,981203444e-02    2,707930207e-01   -7,418985963e-01    0,000000000e+00    0,000000000e+00    0,000000000e+00    0,000000000e+00
      268000000   -2,098271437e-02    3,079761565e-02   -1,812094450e-01   -7,610298991e-01    0,000000000e+00    0,000000000e+00    0,000000000e+00    0,000000000e+00
      282000000    6,886018906e-03    1,378538832e-02   -5,632619858e-01   -5,325607061e-01    0,000000000e+00    0,000000000e+00    0,000000000e+00    0,000000000e+00
      296000000    1,225657854e-02   -6,195631810e-03   -7,604406476e-01   -1,343556643e-01    0,000000000e+00    0,000000000e+00    0,000000000e+00    0,000000000e+00
      310000000    1,357919257e-02   -1,449616347e-02   -7,084248066e-01    3,032564223e-01    0,000000000e+00    0,000000000e+00    0,000000000e+00    0,000000000e+00
      324000000    2,242604829e-02   -2,465052903e-02   -4,208197892e-01    6,388764381e-01    0,000000000e+00    0,000000000e+00    0,000000000e+00    0,000000000e+00
      338000000    2,834054828e-02   -5,043552443e-02   -3,591017798e-03    7,584478855e-01    0,000000000e+00    0,000000000e+00    0,000000000e+00    0,000000000e+00
      352000000    1,019833423e-02   -8,273772150e-02    4,108899832e-01    6,346211433e-01    0,000000000e+00    0,000000000e+00    0,000000000e+00    0,000000000e+00
      366000000   -3,161504120e-02   -9,404367954e-02    6,928322911e-01    3,040531576e-01    0,000000000e+00    0,000000000e+00    0,000000000e+00    0,000000000e+00
      380000000   -6,761651486e-02   -6,907298416e-02    7,457534671e-01   -1,345587075e-01    0,000000000e+00    0,000000000e+00    0,000000000e+00    0,000000000e+00
      394000000   -6,838334352e-02   -3,053309023e-02    5,402236581e-01   -5,293708444e-01    0,000000000e+00    0,000000000e+00    0,000000000e+00    0,000000000e+00
      408000000   -4,284570739e-02   -1,552626863e-02    1,492648274e-01   -7,348505259e-01    0,000000000e+00    0,000000000e+00    0,000000000e+00    0,000000000e+00
      422000000   -2,634852193e-02   -3,113383800e-02   -2,792175114e-01   -6,903571486e-01    0,000000000e+00    0,000000000e+00    0,000000000e+00    0,000000000e+00
      436000000   -3,951466829e-02   -4,908297583e-02   -6,105235219e-01   -4,195831418e-01    0,000000000e+00    0,000000000e+00    0,000000000e+00    0,000000000e+00
      450000000   -6,461491436e-02   -3,915583342e-02   -7,370641828e-01   -7,840463892e-03    0,000000000e+00    0,000000000e+00    0,000000000e+00    0,000000000e+00
      464000000   -6,761344522e-02   -6,235797890e-03   -6,081511974e-01    4,056685865e-01    0,000000000e+00    0,000000000e+00    0,000000000e+00    0,000000000e+00
      478000000   -3,853973001e-02    1,608792506e-02   -2,676699162e-01    6,701530218e-01    0,000000000e+00    0,000000000e+00    0,000000000e+00    0,000000000e+00
      492000000   -5,003576633e-03    6,379759405e-03    1,513932794e-01    6,952592731e-01    0,000000000e+00    0,000000000e+00    0,000000000e+00    0,000000000e+00
      506000000    6,600762252e-03   -2,009792998e-02    5,080364943e-01    4,887542427e-01    0,000000000e+00    0,000000000e+00    0,000000000e+00    0,000000000e+00
      520000000    4,457589239e-04   -3,884159401e-02    6,892112494e-01    1,208005920e-01    0,000000000e+00    0,000000000e+00    0,000000000e+00    0,000000000e+00
      534000000   -3,029324580e-03   -4,571459815e-02    6,326724291e-01   -2,821818888e-01    0,000000000e+00    0,000000000e+00    0,000000000e+00    0,000000000e+00
      548000000    6,164201186e-04   -5,959569290e-02    3,605700731e-01   -5,787529349e-01    0,000000000e+00    0,000000000e+00    0,000000000e+00    0,000000000e+00
      562000000   -7,869889960e-03   -8,842125535e-02   -2,767841704e-02   -6,720451713e-01    0,000000000e+00    0,000000000e+00    0,000000000e+00    0,000000000e+00
      576000000   -4,543630406e-02   -1,098622680e-01   -4,010533392e-01   -5,386245847e-01    0,000000000e+00    0,000000000e+00    0,000000000e+00    0,000000000e+00
      590000000   -9,461403638e-02   -9,329208732e-02   -6,385813355e-01   -2,182374150e-01    0,000000000e+00    0,000000000e+00    0,000000000e+00    0,000000000e+00
      604000000   -1,116857529e-01   -4,138303176e-02   -6,473191381e-01    1,979848295e-01    0,000000000e+00    0,000000000e+00    0,000000000e+00    0,000000000e+00
      618000000   -7,585088909e-02   -1,933213789e-03   -4,022277594e-01    5,353857279e-01    0,000000000e+00    0,000000000e+00    0,000000000e+00    0,000000000e+00
      632000000   -3,023293428e-02   -2,079633996e-02   -1,272757351e-02    6,552704573e-01    0,000000000e+00    0,000000000e+00    0,000000000e+00    0,000000000e+00
      646000000   -3,676465526e-02   -7,712074369e-02    3,658478558e-01    5,280106068e-01    0,000000000e+00    0,000000000e+00    0,000000000e+00    0,000000000e+00
      660000000   -1,118114516e-01   -9,957154840e-02    6,008501649e-01    1,933446079e-01    0,000000000e+00    0,000000000e+00    0,000000000e+00    0,000000000e+00
      674000000   -1,993728578e-01   -2,445333265e-02    5,649191141e-01   -2,397995740e-01    0,000000000e+00    0,000000000e+00    0,000000000e+00    0,000000000e+00
      688000000   -1,794437766e-01    1,441696286e-01    2,088313103e-01   -5,216556787e-01    0,000000000e+00    0,000000000e+00    0,000000000e+00    0,000000000e+00
      702000000    2,370711789e-02    2,468241751e-01   -1,970719248e-01   -4,107537568e-01    0,000000000e+00    0,000000000e+00    0,000000000e+00    0,000000000e+00
      716000000    2,631643116e-01    1,107104495e-01   -2,722142339e-01   -8,330862969e-02    0,000000000e+00    0,000000000e+00    0,000000000e+00    0,000000000e+00
      730000000    3,030192256e-01   -1,866051108e-01   -1,062081531e-01    3,141385689e-02    0,000000000e+00    0,000000000e+00    0,000000000e+00    0,000000000e+00
      744000000    9,358786792e-02   -4,279105067e-01   -4,222015291e-02   -6,561069936e-02    0,000000000e+00    0,000000000e+00    0,000000000e+00    0,000000000e+00
      758000000   -2,589153945e-01   -4,299778044e-01   -1,762918234e-01   -1,256999969e-01    0,000000000e+00    0,000000000e+00    0,000000000e+00    0,000000000e+00
      772000000   -4,853322804e-01   -1,186798364e-01   -3,366033137e-01    3,841154277e-02    0,000000000e+00    0,000000000e+00    0,000000000e+00    0,000000000e+00
      786000000   -3,405663371e-01    2,204557359e-01   -2,633791566e-01    3,170124292e-01    0,000000000e+00    0,000000000e+00    0,000000000e+00    0,000000000e+00
      800000000   -4,141757265e-02    2,761133313e-01    3,002724377e-03    4,371477962e-01    0,000000000e+00    0,000000000e+00    0,000000000e+00    0,000000000e+00
      814000000    1,444017738e-01    1,254561543e-01    2,643268704e-01    3,592419624e-01    0,000000000e+00    0,000000000e+00    0,000000000e+00    0,000000000e+00
      828000000    1,677252352e-01   -7,039158791e-02    4,331535399e-01    1,572127491e-01    0,000000000e+00    0,000000000e+00    0,000000000e+00    0,000000000e+00
      842000000    6,640546024e-02   -2,183233052e-01    4,665271640e-01   -1,201609522e-01    0,000000000e+00    0,000000000e+00    0,000000000e+00    0,000000000e+00
      856000000   -1,067304388e-01   -2,636742592e-01    3,195451200e-01   -3,945643604e-01    0,000000000e+00    0,000000000e+00    0,000000000e+00    0,000000000e+00
      870000000   -2,748504877e-01   -1,675669104e-01   -2,873251913e-03   -5,264925957e-01    0,000000000e+00    0,000000000e+00    0,000000000e+00    0,000000000e+00
      884000000   -3,191627264e-01    3,501664475e-02   -3,474159837e-01   -3,931556344e-01    0,000000000e+00    0,000000000e+00    0,000000000e+00    0,000000000e+00
      898000000   -1,926376820e-01    2,062140852e-01   -4,894043505e-01   -6,347996742e-02    0,000000000e+00    0,000000000e+00    0,000000000e+00    0,000000000e+00
      912000000    7,374167908e-03    2,180083245e-01   -4,083331525e-01    2,779187262e-01    0,000000000e+00    0,000000000e+00    0,000000000e+00    0,000000000e+00
      926000000    1,491751820e-01    1,116836295e-01   -1,705053151e-01    4,153018296e-01    0,000000000e+00    0,000000000e+00    0,000000000e+00    0,000000000e+00
      940000000    1,998032331e-01   -4,509178922e-02    6,600993127e-02    4,250698686e-01    0,000000000e+00    0,000000000e+00    0,000000000e+00    0,000000000e+00
      954000000    1,514846385e-01   -2,014242709e-01    2,611844242e-01    3,430756032e-01    0,000000000e+00    0,000000000e+00    0,000000000e+00    0,000000000e+00
      968000000    2,387568727e-02   -3,164658546e-01    4,105241597e-01    1,795926094e-01    0,000000000e+00    0,000000000e+00    0,000000000e+00    0,000000000e+00
      982000000   -1,610137671e-01   -3,267862499e-01    4,740706682e-01   -6,570695341e-02    0,000000000e+00    0,000000000e+00    0,000000000e+00    0,000000000e+00
      996000000   -3,261167109e-01   -2,087730914e-01    3,676287830e-01   -3,555423319e-01    0,000000000e+00    0,000000000e+00    0,000000000e+00    0,000000000e+00
     1010000000   -3,375236392e-01   -6,795013789e-03    4,001588747e-02   -5,255061388e-01    0,000000000e+00    0,000000000e+00    0,000000000e+00    0,000000000e+00
     1024000000   -2,075722665e-01    9,550972283e-02   -3,436198235e-01   -3,806160092e-01    0,000000000e+00    0,000000000e+00    0,000000000e+00    0,000000000e+00
     1038000000   -1,309690624e-01    7,660928182e-03   -4,836151600e-01    6,160420924e-02    0,000000000e+00    0,000000000e+00    0,000000000e+00    0,000000000e+00
     1052000000   -2,829430401e-01    5,334832892e-02   -9,599321336e-02    3,744355738e-01    0,000000000e+00    0,000000000e+00    0,000000000e+00    0,000000000e+00
     1066000000   -1,482155621e-01    2,913378179e-01    1,429800689e-01    1,363987029e-01    0,000000000e+00    0,000000000e+00    0,000000000e+00    0,000000000e+00
     1080000000    9,594347328e-02    2,505263686e-01    9,087939560e-02    2,099512517e-02    0,000000000e+00    0,000000000e+00    0,000000000e+00    0,000000000e+00
     1094000000    2,228689641e-01    9,007504582e-02    6,903669238e-02    1,049165986e-02    0,000000000e+00    0,000000000e+00    0,000000000e+00    0,000000000e+00
     1108000000    2,413192242e-01   -8,997657150e-02    8,239016682e-02    1,420294517e-03    0,000000000e+00    0,000000000e+00    0,000000000e+00    0,000000000e+00
     1122000000    1,853421032e-01   -2,525568306e-01    1,028763205e-01   -2,649461105e-02    0,000000000e+00    0,000000000e+00    0,000000000e+00    0,000000000e+00
     1136000000    5,258749798e-02   -3,762332201e-01    1,264197081e-01   -7,503145933e-02    0,000000000e+00    0,000000000e+00    0,000000000e+00    0,000000000e+00
     1150000000   -1,546564102e-01   -4,200060666e-01    1,349362582e-01   -1,496138424e-01    0,000000000e+00    0,000000000e+00    0,000000000e+00    0,000000000e+00
     1164000000   -3,766542971e-01   -3,238651156e-01    9,541267902e-02   -2,779846787e-01    0,000000000e+00    0,000000000e+00    0,000000000e+00    0,000000000e+00
     1178000000   -4,678323567e-01   -8,841830492e-02   -1,068757400e-01   -4,072631896e-01    0,000000000e+00    0,000000000e+00    0,000000000e+00    0,000000000e+00
     1192000000   -3,719833493e-01    3,547956795e-02   -4,582063258e-01   -2,007554770e-01    0,000000000e+00    0,000000000e+00    0,000000000e+00    0,000000000e+00
     1206000000   -4,171583652e-01    1,344344765e-01   -2,787739038e-01    2,377137095e-01    0,000000000e+00    0,000000000e+00    0,000000000e+00    0,000000000e+00
     1220000000   -2,759361863e-01    3,276591897e-01   -2,665701322e-03    1,639111042e-01    0,000000000e+00    0,000000000e+00    0,000000000e+00    0,000000000e+00
     1234000000   -4,886844754e-02    3,546938896e-01    2,445495129e-02    5,621007457e-02    0,000000000e+00    0,000000000e+00    0,000000000e+00    0,000000000e+00
     1248000000    1,248554662e-01    2,515321970e-01    1,113982499e-02    2,470307052e-02    0,000000000e+00    0,000000000e+00    0,000000000e+00    0,000000000e+00
     1262000000    2,135788649e-01    9,927795082e-02    1,830524299e-03    2,985411882e-02    0,000000000e+00    0,000000000e+00    0,000000000e+00    0,000000000e+00
     1276000000    2,323733419e-01   -5,565723032e-02    2,428552881e-02    3,648269549e-02    0,000000000e+00    0,000000000e+00    0,000000000e+00    0,000000000e+00
     1290000000    1,924749613e-01   -2,143716663e-01    5,250414461e-02    2,597400546e-02    0,000000000e+00    0,000000000e+00    0,000000000e+00    0,000000000e+00
     1304000000    8,609750122e-02   -3,530232310e-01    8,026707917e-02    6,781194359e-03    0,000000000e+00    0,000000000e+00    0,000000000e+00    0,000000000e+00
     1318000000   -1,024592221e-01   -4,463983476e-01    8,716914803e-02   -7,187416311e-03    0,000000000e+00    0,000000000e+00    0,000000000e+00    0,000000000e+00
     1332000000   -3,565342724e-01   -4,360440075e-01    8,097927272e-02   -1,189527940e-02    0,000000000e+00    0,000000000e+00    0,000000000e+00    0,000000000e+00
     1346000000   -5,924785733e-01   -2,503910065e-01    1,096058488e-01   -1,075886283e-02    0,000000000e+00    0,000000000e+00    0,000000000e+00    0,000000000e+00
     1360000000   -6,487848759e-01    7,421185821e-02    1,357730925e-01   -7,173643913e-03    0,000000000e+00    0,000000000e+00    0,000000000e+00    0,000000000e+00
     1374000000   -4,887432456e-01    3,297250569e-01    1,699008644e-01   -5,064756796e-02    0,000000000e+00    0,000000000e+00    0,000000000e+00    0,000000000e+00
     1388000000   -2,560392022e-01    4,306897521e-01    1,546516716e-01   -9,081712365e-02    0,000000000e+00    0,000000000e+00    0,000000000e+00    0,000000000e+00
     1402000000   -4,646414518e-02    3,820700943e-01    1,470089704e-01   -1,018899903e-01    0,000000000e+00    0,000000000e+00    0,000000000e+00    0,000000000e+00
     1416000000    1,038037837e-01    2,863644063e-01    1,340835840e-01   -8,499978483e-02    0,000000000e+00    0,000000000e+00    0,000000000e+00    0,000000000e+00
     1430000000    1,898015440e-01    1,546822786e-01    1,110347509e-01   -5,286201090e-02    0,000000000e+00    0,000000000e+00    0,000000000e+00    0,000000000e+00
     1444000000    2,137961090e-01   -1,401724294e-02    1,170329750e-01   -1,848638430e-02    0,000000000e+00    0,000000000e+00    0,000000000e+00    0,000000000e+00
     1458000000    1,745422035e-01   -1,898804456e-01    1,385754794e-01    1,046834979e-02    0,000000000e+00    0,000000000e+00    0,000000000e+00    0,000000000e+00
     1472000000    6,270368397e-02   -3,495789170e-01    1,874341667e-01    6,513423473e-02    0,000000000e+00    0,000000000e+00    0,000000000e+00    0,000000000e+00
     1486000000   -1,420790702e-01   -4,783587158e-01    2,985958159e-01    8,498929441e-02    0,000000000e+00    0,000000000e+00    0,000000000e+00    0,000000000e+00
     1500000000   -4,330594242e-01   -4,709303975e-01    4,238468409e-01    6,281156838e-02    0,000000000e+00    0,000000000e+00    0,000000000e+00    0,000000000e+00
